! Created with skrf 1.8.0 (http://scikit-rf.org).
# GHz S RI R 50.0 
!freq ReS11 ImS11
0.001 -1.022840227653155 -0.0017644966189888367
0.0029999 0.989354400839227 -0.8707294628604473
0.0049998 1.1435645877620937 -0.408770401927567
0.0069997 1.4833951849260647 -0.043819404806205664
0.0089996 1.0321372328299794 0.030825586906253588
0.0109995 1.0208536867033038 0.036996150435997466
0.0129994 1.0180767847964869 0.04559781309726453
0.0149993 1.0138961816548409 0.05152320106363431
0.0169992 1.0141046811104901 0.06319346641305221
0.0189991 1.0112593915475068 0.06975683197337178
0.020999 1.0129532749834456 0.079273008494943
0.0229989 1.0105799346024467 0.08567195557774453
0.0249988 1.0100349927166692 0.0935956101883521
0.0269987 1.0095054357039568 0.10070509874384975
0.0289986 1.008420082982202 0.1082851053382583
0.0309985 1.0071930209914612 0.11646766787839954
0.0329984 1.0074879639285552 0.12239592892224029
0.0349983 1.0067494864139475 0.12964289681759533
0.0369982 1.0060213799419093 0.13681769167854912
0.0389981 1.004999194722369 0.14431802186775564
0.040998 1.0036750250112958 0.1510615186046476
0.0429979 1.0034662914569021 0.15784394062303236
0.0449978 1.0017443218891842 0.16407534476819183
0.0469977 0.9996789948762993 0.1733431971785798
0.0489976 1.0001024040457949 0.179393651943362
0.0509975 0.9992314974050898 0.18657832056628146
0.0529974 0.997760820999334 0.1972203688307031
0.0549973 0.9970325459195584 0.1989623007130081
0.0569972 0.995799902769761 0.20799914878915085
0.0589971 0.994082061525496 0.21547166388484817
0.060997 0.9922121390071529 0.22217154172083325
0.0629969 0.9924597792018379 0.23074969982812155
0.0649968 0.9884939642145384 0.23825574450708265
0.0669967 0.9880727302583819 0.24396593461804736
0.0689966 0.9863436387556582 0.25083294152444735
0.0709965 0.9835117127077984 0.2604854981030953
0.0729964 0.9827374327884609 0.2660267881291217
0.0749963 0.9804906981767558 0.2722216802122839
0.0769962 0.9769633201786735 0.280412201595914
0.0789961 0.9766737745370521 0.28713836024109235
0.080996 0.9729923263742307 0.2949858746121742
0.0829959 0.9719514838788369 0.30184775739432673
0.0849958 0.9703215633533556 0.3098904055047355
0.0869957 0.9679413802440264 0.3176353781875784
0.0889956 0.9648948109254595 0.3238764640512428
0.0909955 0.9624162469028924 0.33000356753422055
0.0929954 0.9606913963543245 0.33651864785748603
0.0949953 0.9579275793659263 0.3444320134630065
0.0969952 0.9559284848220206 0.35096185443314837
0.0989951 0.9528775866570626 0.357061660774575
0.100995 0.9504965062983334 0.3659881052902678
0.1029949 0.9473474326160847 0.37229788349926324
0.1049948 0.9439673604002035 0.378823101945709
0.1069947 0.9418588484870616 0.3858625247000173
0.1089946 0.9395538593799699 0.3922888113087197
0.1109945 0.9362671083228372 0.3992512016097949
0.1129944 0.9333858078264643 0.4058160436894799
0.1149943 0.9314819829291995 0.4118978278932796
0.1169942 0.9286929301330333 0.41859356073405285
0.1189941 0.9254679969479017 0.42621587001422534
0.120994 0.9231946926487041 0.4317320155151224
0.1229939 0.9191821587248846 0.44019598033156226
0.1249938 0.9160538789606096 0.4444896200867245
0.1269937 0.9143593743245934 0.45100099315451037
0.1289936 0.9100205540527114 0.45927532212257194
0.1309935 0.90681364479646 0.46526836425360485
0.1329934 0.9033543868633861 0.47196630991863947
0.1349933 0.9007594687906749 0.47734397047027577
0.1369932 0.8968724608016105 0.4847460499209725
0.1389931 0.8938585549070495 0.49017996563512295
0.140993 0.8899968225928186 0.49718939061746975
0.1429929 0.8880599704252509 0.503159715870346
0.1449928 0.8830791557078922 0.5106230402846816
0.1469927 0.879476469368 0.5160538878920878
0.1489926 0.8764557429907605 0.5215789330472163
0.1509925 0.8727364655482734 0.5298150987216799
0.1529924 0.8689181874419496 0.5338607749819525
0.1549923 0.8650463019709208 0.5413266942756454
0.1569922 0.8606864367626947 0.5489933732769622
0.1589921 0.856997213493515 0.5539159835527383
0.160992 0.8516701415564345 0.5611342339206297
0.1629919 0.8484813251919419 0.5669009742339671
0.1649918 0.8452664551295461 0.5718387917582463
0.1669917 0.8409820839286358 0.5785881009255499
0.1689916 0.8363662482228615 0.5850854638195842
0.1709915 0.8326251932495197 0.5896095858237973
0.1729914 0.8286427270818023 0.5963533617468257
0.1749913 0.824008616219361 0.602807122561972
0.1769912 0.8186967032899097 0.6089428470567809
0.1789911 0.8162229580921263 0.6135776868187516
0.180991 0.8115342385041274 0.6196343221805148
0.1829909 0.8072046306150853 0.6261662757514017
0.1849908 0.8021841697141128 0.6320569495787945
0.1869907 0.7982305762446937 0.6372833770514964
0.1889906 0.7929436693513027 0.642905758428428
0.1909905 0.7888984204866337 0.6495752265977396
0.1929904 0.7845171474266941 0.6553126327608358
0.1949903 0.7802956150571527 0.6602262135736657
0.1969902 0.7745989948933932 0.666707248038614
0.1989901 0.7706726294698263 0.6720138027625645
0.20099 0.7636487623885112 0.6779925471732435
0.2029899 0.7621834239115972 0.6819066613164981
0.2049898 0.7558258660125566 0.6892545414080214
0.2069897 0.7514827209620252 0.6938113076936231
0.2089896 0.7457705864820158 0.6990607825368161
0.2109895 0.740814790992464 0.7047276469373581
0.2129894 0.7367196529136132 0.7104308499827058
0.2149893 0.7313052690925443 0.714690775998173
0.2169892 0.7263018134823938 0.7206902304214697
0.2189891 0.7201891238727466 0.725488313805156
0.220989 0.7163407842309898 0.7312160339184741
0.2229889 0.7113935153477681 0.736469689238966
0.2249888 0.7070226215810592 0.7417341606463025
0.2269887 0.7005302630125928 0.7464847960771541
0.2289886 0.6954219553755151 0.7510997349618498
0.2309885 0.6907363932579459 0.7567547079527188
0.2329884 0.6849531466435634 0.7623900837876191
0.2349883 0.6793204959506747 0.7659245467591621
0.2369882 0.6737676873101247 0.770650865958546
0.2389881 0.6696468466501694 0.7756066352111389
0.240988 0.6640905619710574 0.7811594976896764
0.2429879 0.6586106720546484 0.7863991844582396
0.2449878 0.6531733455615804 0.789726135379041
0.2469877 0.6467297850915743 0.7945549784979614
0.2489876 0.6414069080973611 0.7988111659612102
0.2509875 0.6366090060145372 0.8045549910560031
0.2529874 0.6303327761959527 0.8072769913247365
0.2549873 0.6245239952269774 0.8122441984449973
0.2569872 0.6184784008067039 0.817357731588263
0.2589871 0.6132646360150584 0.822255402130536
0.260987 0.6073996111892533 0.8255073850010888
0.2629869 0.6011490890637905 0.8302496352400711
0.2649868 0.5959524797084341 0.8342646211146895
0.2669867 0.5900584429138419 0.8387918831103162
0.2689866 0.5844879491802868 0.8428746126121226
0.2709865 0.5785705515646772 0.8472617580466214
0.2729864 0.5729639157608499 0.8512803741233014
0.2749863 0.5664541459167196 0.8553850934044823
0.2769862 0.5602233874957521 0.8596659438019612
0.2789861 0.5552308867429148 0.8639524267141725
0.280986 0.5491987064761366 0.8678661087707079
0.2829859 0.543268540346691 0.8710277960692292
0.2849858 0.5372490072565441 0.87456665110605
0.2869857 0.530960086368632 0.8797715169600346
0.2889856 0.5254080652576574 0.8835130249622198
0.2909855 0.5183545616649292 0.8864504266428161
0.2929854 0.5123007622539206 0.8894475200840569
0.2949853 0.5064652831032747 0.8938658607839184
0.2969852 0.5004299268616879 0.8982030854175916
0.2989851 0.4935168515551173 0.9016167610020812
0.300985 0.4869330567991798 0.9042740987739002
0.3029849 0.4814831091781121 0.907905867115195
0.3049848 0.47591187638211824 0.9114215325207654
0.3069847 0.4692086483071321 0.915469423890819
0.3089846 0.4624466182623096 0.9188991411966392
0.3109845 0.45605157367115756 0.9214611062915684
0.3129844 0.44837210404517475 0.9240589965567613
0.3149843 0.4429270822852199 0.9274011660499962
0.3169842 0.4365408340859026 0.9317226079717582
0.3189841 0.4293242499540987 0.93427000083348
0.320984 0.4229965287620854 0.9366133345200516
0.3229839 0.4161186008922984 0.9408758672863616
0.3249838 0.4105044699059163 0.9437959046721828
0.3269837 0.40397973845809926 0.9470420254055227
0.3289836 0.39668068601200046 0.9495387570166893
0.3309835 0.3904321307091961 0.9525797830217623
0.3329834 0.38427833970380654 0.9548995497373284
0.3349833 0.377739720063433 0.9576747441024402
0.3369832 0.37068062802368346 0.9592869900366612
0.3389831 0.3633772485657693 0.9621142682171019
0.340983 0.3577716917518215 0.9647042495407162
0.3429829 0.35130717507369713 0.9674686166071249
0.3449828 0.3448126102501071 0.9705542152294508
0.3469827 0.3381243754187389 0.9724774506910796
0.3489826 0.3313802920271582 0.9759484714001837
0.3509825 0.32498321067808433 0.9780546159014022
0.3529824 0.31828312074444426 0.9803887700008617
0.3549823 0.3111458346615726 0.9831180646440519
0.3569822 0.30400724329846285 0.9849965477805115
0.3589821 0.297328442960501 0.9876177615489787
0.360982 0.29081822100927857 0.9891391018003356
0.3629819 0.2839694247199288 0.9918389761141326
0.3649818 0.27704176544702985 0.9930516412633615
0.3669817 0.27046010616917565 0.9959902030491778
0.3689816 0.2640186435814659 0.9970085920247396
0.3709815 0.25705629963222415 0.9992230957130852
0.3729814 0.2507875416387341 1.0006829821663514
0.3749813 0.2440105339031571 1.003106859702277
0.3769812 0.23663951323805651 1.004794304884945
0.3789811 0.2305095893834588 1.0058298365308678
0.380981 0.22264234456011073 1.007207894028728
0.3829809 0.21538714180188356 1.0086300308181386
0.3849808 0.2093579866934272 1.011180799532766
0.3869807 0.2020225087874594 1.0121592730238418
0.3889806 0.1946853830513095 1.0136184396674248
0.3909805 0.1876299440979633 1.0154154845546788
0.3929804 0.1816667620234107 1.0166614488704337
0.3949803 0.17469915905313854 1.018489534981729
0.3969802 0.16809843458369794 1.0190080030215214
0.3989801 0.16012172518311435 1.0201054957849214
0.40098 0.15354174206669105 1.0216281653304093
0.4029799 0.14686537855567844 1.0222484783629935
0.4049798 0.14052891609968793 1.0233729867091474
0.4069797 0.13306089855683031 1.0251235807529944
0.4089796 0.12609422988671054 1.02551871847762
0.4109795 0.11951386092429345 1.0270133389180425
0.4129794 0.11241416719117221 1.028148685492095
0.4149793 0.10501968093330075 1.028781323038785
0.4169792 0.0981366214119453 1.0293910437080505
0.4189791 0.0915893593674939 1.0302592855657162
0.420979 0.08432470830409586 1.0310065916446756
0.4229789 0.076919950808915 1.0317165822951673
0.4249788 0.07012991924029732 1.0320155098340047
0.4269787 0.06315187388767378 1.0325272823198757
0.4289786 0.0564082585339893 1.0335381645727328
0.4309785 0.04991041532667716 1.0334902931564087
0.4329784 0.04218631877428945 1.0338252794548126
0.4349783 0.035079535086258155 1.0347517057914635
0.4369782 0.02891778725079757 1.0345761292036932
0.4389781 0.021591824579507368 1.0349593922368385
0.440978 0.015193142806456082 1.035523934081647
0.4429779 0.007121903336213667 1.0356774927925647
0.4449778 0.00030949740442345886 1.0349982767499768
0.4469777 -0.006847163276771921 1.0350193971032997
0.4489776 -0.014189426389526097 1.0353346095397107
0.4509775 -0.020606777963732156 1.0358929614537296
0.4529774 -0.028175987668771548 1.0363673933882207
0.4549773 -0.0348025207689808 1.0357657143426198
0.4569772 -0.04188650809646399 1.0356752228671195
0.4589771 -0.04852291516662184 1.0355932104577492
0.460977 -0.05614655352012447 1.0353340964625615
0.4629769 -0.06271642440615066 1.0343504864637751
0.4649768 -0.0702643372802173 1.0344554767804541
0.4669767 -0.07653586135080137 1.0335704246335229
0.4689766 -0.08352789428120082 1.0331778930835533
0.4709765 -0.0907626078388524 1.0325506432794764
0.4729764 -0.09716411782013822 1.0325049617037343
0.4749763 -0.10441058073420542 1.0323387782995348
0.4769762 -0.11126155006013215 1.0316809206814033
0.4789761 -0.11802785898074256 1.030815421821125
0.480976 -0.12512119235661534 1.0306052661746934
0.4829759 -0.13239056404895855 1.0289425624092428
0.4849758 -0.1391716306714048 1.028506678837894
0.4869757 -0.1462566680642461 1.0279354806435614
0.4889756 -0.1532705407580632 1.0266538877731894
0.4909755 -0.1596706491426055 1.0260077112573787
0.4929754 -0.16714781125834696 1.0252610526528982
0.4949753 -0.17341502437692383 1.0236239847544961
0.4969752 -0.1803869306480942 1.023099866586071
0.4989751 -0.18744786306176717 1.0218017893686588
0.500975 -0.19371223213342242 1.0208850113931691
0.5029749 -0.20021653073591428 1.0191633387751113
0.5049748 -0.20739680499517982 1.018261279940051
0.5069747 -0.21374974649276524 1.0167512682104631
0.5089746 -0.2207663370563934 1.015143248498802
0.5109745 -0.22666147962746247 1.013414208546707
0.5129744 -0.23446380886655263 1.0121824559170292
0.5149743 -0.24066648151591993 1.0110808814772763
0.5169742 -0.24728178947472515 1.0095093716280132
0.5189741 -0.25423748082656555 1.0077484583394023
0.520974 -0.26049037175232304 1.0058462826419743
0.5229739 -0.26770649463082496 1.004798951698345
0.5249738 -0.27407695211945715 1.0029480396454833
0.5269737 -0.28088921946410045 1.0007965216996502
0.5289736 -0.28729006988158456 0.9991922249289154
0.5309735 -0.29321418501778207 0.9971230298889531
0.5329734 -0.30052448559506284 0.9961359839698015
0.5349733 -0.30750640740689505 0.9946279494361285
0.5369732 -0.3132202001793601 0.9925843333162295
0.5389731 -0.3202151328020524 0.9903160175667598
0.540973 -0.3266641242625158 0.9881743583768945
0.5429729 -0.3332675345299502 0.9864718788300558
0.5449728 -0.3397500216053182 0.9839706236331952
0.5469727 -0.34634445546995896 0.9818392415701085
0.5489726 -0.3523331149757842 0.979834412989842
0.5509725 -0.35935411376350046 0.9777424962578698
0.5529724 -0.36574051022358745 0.9752290569276849
0.5549723 -0.37208469166221025 0.9728348371916758
0.5569722 -0.3785168449307528 0.9704546563316321
0.5589721 -0.3845882007485515 0.9682988029098799
0.560972 -0.39110356168729615 0.965978235087198
0.5629719 -0.39761812370930666 0.9634522201111512
0.5649718 -0.4041560929214062 0.9608154695717138
0.5669717 -0.41043107172272586 0.958503507359552
0.5689716 -0.41673789865219896 0.955534719102664
0.5709715 -0.42283524434027914 0.9533251441777281
0.5729714 -0.42867794933090797 0.9504512685987361
0.5749713 -0.43537531067392626 0.9478981836284877
0.5769712 -0.4416278798848696 0.9448759388234137
0.5789711 -0.4476302641265408 0.9420784950608134
0.580971 -0.4541135106385936 0.938670899274152
0.5829709 -0.4600621738024365 0.9359536009205341
0.5849708 -0.4660663758240479 0.933461331643336
0.5869707 -0.4723962065427213 0.9299291315872598
0.5889706 -0.4785098397914558 0.926755545073195
0.5909705 -0.4840422512914612 0.9244225806987806
0.5929704 -0.490344671094035 0.9212277459110272
0.5949703 -0.4969621225819763 0.9179182789237412
0.5969702 -0.502226181582194 0.9147354743861502
0.5989701 -0.5082886936090931 0.9109566175118335
0.60097 -0.5143498148100755 0.9083215097539911
0.6029699 -0.5202922372811896 0.905205947063909
0.6049698 -0.526031482288764 0.9019481439137461
0.6069697 -0.5319652488809785 0.8988220757406535
0.6089696 -0.5377383952407895 0.8952759102318063
0.6109695 -0.543648070586674 0.8919577976773606
0.6129694 -0.5493425917402394 0.8887028325125542
0.6149693 -0.5549794870154807 0.8851120843124485
0.6169692 -0.5609341221528928 0.8813603541767752
0.6189691 -0.5665230486453119 0.8782247083042836
0.620969 -0.5729953388838389 0.8744144836518496
0.6229689 -0.578015959193016 0.8712099778034296
0.6249688 -0.5836079830583206 0.8677254668511322
0.6269687 -0.589517934176005 0.8638381114325254
0.6289686 -0.5951301987776901 0.8603178493403568
0.6309685 -0.6003554960000465 0.8566908063854841
0.6329684 -0.6057649820922861 0.8527827193875328
0.6349683 -0.6114692115074872 0.8492339234504336
0.6369682 -0.6170490205501422 0.8450879530324262
0.6389681 -0.6222520079934692 0.8412713768290674
0.640968 -0.6279069281847902 0.8372311003252997
0.6429679 -0.6333198780953588 0.8330741363651069
0.6449678 -0.6387229013658849 0.8291479436852346
0.6469677 -0.6441257754207022 0.8249559649995912
0.6489676 -0.6491515801988041 0.8211309679545551
0.6509675 -0.654300150491557 0.8174014583585862
0.6529674 -0.6597009703659457 0.8128951793676462
0.6549673 -0.6651549527429508 0.8082977489340043
0.6569672 -0.6701674461384683 0.8045960040421797
0.6589671 -0.6754429548931717 0.8000676757436503
0.660967 -0.680360443251201 0.7958932826681936
0.6629669 -0.6854551493932443 0.7918220120767653
0.6649668 -0.6906184739194531 0.7871466076036971
0.6669667 -0.6956669843384993 0.783119228465968
0.6689666 -0.700530544927482 0.7788588803478015
0.6709665 -0.7055894757282086 0.7745395941595246
0.6729664 -0.710715485458394 0.7700517659500153
0.6749663 -0.7153825290262351 0.7658691423796196
0.6769662 -0.720592938549957 0.7614674340181726
0.6789661 -0.7250071419325576 0.7567120204738507
0.680966 -0.7300913464114633 0.7524456274385365
0.6829659 -0.7346810978899505 0.747955810044397
0.6849658 -0.739905660532178 0.7434708452014628
0.6869657 -0.7445202642739113 0.7389503172961576
0.6889656 -0.7493498073282406 0.7341632482576099
0.6909655 -0.7540170400374214 0.7298229765462789
0.6929654 -0.7587679756941812 0.7249391018136737
0.6949653 -0.7633850101740267 0.7206547949815301
0.6969652 -0.7682281188095388 0.7156218755652687
0.6989651 -0.7727561844367645 0.7109698913117366
0.700965 -0.7773151458405826 0.7062768097716884
0.7029649 -0.7818965140746647 0.7017643217841686
0.7049648 -0.7864552259340525 0.6964574581481481
0.7069647 -0.7910208948575265 0.6921609873810448
0.7089646 -0.7954877787136323 0.6869063711809346
0.7109645 -0.7998592503159558 0.6821520475878915
0.7129644 -0.8043215725754718 0.6771488135907329
0.7149643 -0.8085689336800173 0.6723375219765239
0.7169642 -0.8127275500978316 0.667230077273671
0.7189641 -0.8169872379724488 0.6622654018353187
0.720964 -0.821412485567366 0.657029579319812
0.7229639 -0.8258081644238024 0.6522314517995055
0.7249638 -0.8299529670034578 0.6468526276155042
0.7269637 -0.8336056729459 0.6416947215976563
0.7289636 -0.8379560506330082 0.6365169466349847
0.7309635 -0.8418807210935366 0.6312166181741066
0.7329634 -0.8458426191013698 0.6258280056588306
0.7349633 -0.8495846379158358 0.6207910924793241
0.7369632 -0.8537843828429482 0.6154163372613906
0.7389631 -0.8575486640233513 0.6102247354190552
0.740963 -0.8613226712301774 0.6048515960456952
0.7429629 -0.8650083285760719 0.5996286927270055
0.7449628 -0.8687563466902088 0.5942524711208906
0.7469627 -0.8729053329969542 0.5890353428564868
0.7489626 -0.8764925129162873 0.5835996407643599
0.7509625 -0.880289504937983 0.5781650439155906
0.7529624 -0.884053538942287 0.5730572910803541
0.7549623 -0.8877363685938253 0.5677761285877377
0.7569622 -0.8913591135876081 0.5620192471424825
0.7589621 -0.8950933266922142 0.5568689342479282
0.760962 -0.898877468045077 0.5513037711274184
0.7629619 -0.9019927276373502 0.5459503353035933
0.7649618 -0.9057338006476925 0.5405015314218317
0.7669617 -0.9091566304001522 0.535026622428799
0.7689616 -0.9127670067627078 0.5294165127944773
0.7709615 -0.9160391644537899 0.5237611848421904
0.7729614 -0.9196720037396242 0.5182388977790648
0.7749613 -0.9228631276636228 0.5126608757271602
0.7769612 -0.9263649419447685 0.5070932447576193
0.7789611 -0.929573258155415 0.5014872459997848
0.780961 -0.9328676678017356 0.49585727904615196
0.7829609 -0.936046186720934 0.4902033962783308
0.7849608 -0.9392395806979856 0.4845753400346522
0.7869607 -0.9423406748003655 0.47888798713779757
0.7889606 -0.9455355326264268 0.47310921648092746
0.7909605 -0.9487162143342904 0.4675744168176051
0.7929604 -0.9515379770715969 0.46177463886072345
0.7949603 -0.954455275047949 0.4556781695507272
0.7969602 -0.9573291597507784 0.450004524044064
0.7989601 -0.9603993183255835 0.44429888472501494
0.80096 -0.9628270280029605 0.43795016319868546
0.8029599 -0.9657325198138283 0.4321701438605379
0.8049598 -0.9686081080129186 0.4261811929000451
0.8069597 -0.9709310099098597 0.4205261640523205
0.8089596 -0.9738473826211906 0.4146670707654708
0.8109595 -0.9763591153975024 0.4084873352441384
0.8129594 -0.9789896123377843 0.4025462741757281
0.8149593 -0.9814105389349881 0.3967592155188634
0.8169592 -0.9841063569868325 0.3909372320613993
0.8189591 -0.986518566213359 0.3848911996530302
