! Created with skrf 1.8.0 (http://scikit-rf.org).
# GHz S RI R 50.0 
!freq ReS11 ImS11
0.001 -1.0002792588549279 0.001156914890707913
0.0029999 1.059759177025265 0.7584347633588034
0.0049998 1.1045669408973917 0.20254411788636478
0.0069997 1.0242732393854617 0.10219526925202935
0.0089996 1.0183843161009984 0.05490995366779684
0.0109995 1.0112636197139988 0.052934701197563064
0.0129994 1.0110652805213614 0.055103469046035525
0.0149993 1.009249420636999 0.0582157838969681
0.0169992 1.0091082049261193 0.06701388657630786
0.0189991 1.008819710672061 0.07194453708387447
0.020999 1.00884596765381 0.07959972374000082
0.0229989 1.0077669527877036 0.08594444217653369
0.0249988 1.0074970184965764 0.09353652172023727
0.0269987 1.0069578562016088 0.10024237945694466
0.0289986 1.006207826291821 0.10747784080611192
0.0309985 1.0050287815375634 0.11548869766548453
0.0329984 1.0058575950169875 0.12184608060099796
0.0349983 1.0047298138806533 0.12890041626513762
0.0369982 1.0038786376190365 0.13609390048099285
0.0389981 1.0035376469020783 0.14368809389265286
0.040998 1.0017689562584198 0.1503442328563053
0.0429979 1.001915245647789 0.15797462795590242
0.0449978 1.0001952780514727 0.16421582586210662
0.0469977 0.9981610553879693 0.17218881036130523
0.0489976 0.9989830284180601 0.17956113905236784
0.0509975 0.9973979872313605 0.18609085613571474
0.0529974 0.9962634658382239 0.19766893161084892
0.0549973 0.9952105296276255 0.19878388578807754
0.0569972 0.9943400052591777 0.2079232481988638
0.0589971 0.9918935569050732 0.21540096418779442
0.060997 0.9903986905879162 0.22185872382706073
0.0629969 0.9909018865025617 0.2309863104276288
0.0649968 0.9865871743721351 0.2377512178461361
0.0669967 0.9865257584362794 0.24327773258539054
0.0689966 0.9841725099716138 0.2502868062103151
0.0709965 0.9812218015419397 0.26005962821545187
0.0729964 0.9808844616314774 0.2652538212800165
0.0749963 0.9787062199323555 0.27084640504434454
0.0769962 0.9749036711319968 0.2793103277813894
0.0789961 0.974652139768224 0.2853563552122462
0.080996 0.9708453327534778 0.29336292210968445
0.0829959 0.9702681621068621 0.29994619127391453
0.0849958 0.9682656440961193 0.3073263622768433
0.0869957 0.9660017597510016 0.3148229797318012
0.0889956 0.9629095478533115 0.320241914399169
0.0909955 0.9603261341666013 0.32601990840409467
0.0929954 0.9585964780999707 0.33296274737183834
0.0949953 0.9563242782028788 0.34098805219087674
0.0969952 0.9543589768138782 0.3470443328977349
0.0989951 0.9510599518729698 0.35260817800546157
0.100995 0.9492200746583085 0.36094393091540405
0.1029949 0.946482966457607 0.3671497981390222
0.1049948 0.9429282218617423 0.3735491420363016
0.1069947 0.9406691547625848 0.3808625245916589
0.1089946 0.9389617707850006 0.3868800536462615
0.1109945 0.935736315224032 0.3930372494235642
0.1129944 0.9331284894753596 0.4001652588845217
0.1149943 0.9312288047154389 0.4060847380885015
0.1169942 0.9286276871189459 0.4131333685531108
0.1189941 0.9258624345938902 0.42023279359786686
0.120994 0.923409217390531 0.42654708975717237
0.1229939 0.9196487057177953 0.43450480585517504
0.1249938 0.9163815468568882 0.43889151881068245
0.1269937 0.914448178141633 0.44650713927681623
0.1289936 0.9109004464284874 0.4538971361349842
0.1309935 0.9077667191292742 0.45956384059305627
0.1329934 0.9046705269270732 0.4667449021487992
0.1349933 0.9017073981761655 0.4717582173601347
0.1369932 0.8978686959091019 0.47919173482193456
0.1389931 0.8943176229770147 0.485319372478306
0.140993 0.8902304744329812 0.4927586373925597
0.1429929 0.8891385139521434 0.4975200873096002
0.1449928 0.8837003914548553 0.5049572306927215
0.1469927 0.879508345644929 0.512700356575319
0.1489926 0.8761344091556453 0.5188746409578688
0.1509925 0.8723369992893667 0.5257490896062547
0.1529924 0.8684476258236961 0.5297870900093089
0.1549923 0.8649059974130315 0.5366196061775877
0.1569922 0.8613439454286299 0.5444777384831205
0.1589921 0.8576581771255333 0.5485352879488382
0.160992 0.8522695743742676 0.5552676502029974
0.1629919 0.8495271766643354 0.5613010293396105
0.1649918 0.8454582968524318 0.5676010749317428
0.1669917 0.8420400851049182 0.5728122289609454
0.1689916 0.8372593898629431 0.5787444204493226
0.1709915 0.8334295342375527 0.5828492019703959
0.1729914 0.8297099327720774 0.5898365793831065
0.1749913 0.8252575670350593 0.5960857244907837
0.1769912 0.8204648246228237 0.6018159688541118
0.1789911 0.8175901301958279 0.6067924542239633
0.180991 0.8129724487027054 0.6122715208307726
0.1829909 0.8088931568968057 0.6188975950414369
0.1849908 0.8035921471831436 0.6241079380295175
0.1869907 0.8000388232747913 0.6295261385275501
0.1889906 0.7955355521297107 0.6357614838265055
0.1909905 0.7911102484518542 0.6421740022523832
0.1929904 0.7871280327884038 0.6476456672864664
0.1949903 0.7820128317432034 0.6527165161951953
0.1969902 0.7771372870438036 0.6591867837369902
0.1989901 0.7723081169319065 0.6643751990850727
0.20099 0.7674400079391595 0.6707317900191598
0.2029899 0.7647268311574733 0.6749426788568998
0.2049898 0.7599359937128961 0.6825109871614112
0.2069897 0.7545087407005603 0.6872047935754847
0.2089896 0.7495311171853191 0.6922416176761268
0.2109895 0.7439093669918977 0.6982212103099529
0.2129894 0.7400213955127961 0.7036538209799912
0.2149893 0.7342081620505884 0.7088221415408316
0.2169892 0.7296323566456979 0.714324073899825
0.2189891 0.7238630468443217 0.7189186260505461
0.220989 0.7194067956157173 0.7250317611381571
0.2229889 0.7153961640986719 0.7306098791752007
0.2249888 0.7093283423288551 0.7361790114782406
0.2269887 0.7040739100135344 0.7408076074081564
0.2289886 0.6987255500982346 0.7447026946443445
0.2309885 0.693739818287142 0.7513161854124312
0.2329884 0.6879755258119571 0.7562823669432961
0.2349883 0.6831477850278738 0.7599157051678908
0.2369882 0.6775751031527368 0.7643773340201566
0.2389881 0.6726755466291783 0.7693490522995744
0.240988 0.6674426927499807 0.7746852967015511
0.2429879 0.6621114974367426 0.7795761093133923
0.2449878 0.6564447908123261 0.7829839583310371
0.2469877 0.6504208026150091 0.7873790550384818
0.2489876 0.6452998448611379 0.7920055122082384
0.2509875 0.6401998350646663 0.7976713692862359
0.2529874 0.634161736489723 0.8002807621626934
0.2549873 0.628019760285835 0.8051993662445712
0.2569872 0.6235614753661545 0.8098985065198737
0.2589871 0.6179547851932011 0.8147247185451026
0.260987 0.6119776781594696 0.818184754097069
0.2629869 0.6055886117147957 0.823086261484721
0.2649868 0.6003795093574767 0.8276580016702737
0.2669867 0.5948401827343177 0.8315179135018747
0.2689866 0.5886634086760043 0.8363547215589012
0.2709865 0.5831561853283949 0.8406918396659576
0.2729864 0.5776393241873996 0.8447819053577823
0.2749863 0.5709265445337958 0.8490454832436997
0.2769862 0.5653472532713907 0.8528242681661897
0.2789861 0.5602595100589474 0.8578396568132162
0.280986 0.5541673105188545 0.8613826196566304
0.2829859 0.5480767419927899 0.8649839715073246
0.2849858 0.5416435995350054 0.868968490095804
0.2869857 0.53594512611412 0.8739286923425501
0.2889856 0.5299818676092383 0.8774638579388025
0.2909855 0.5236928174950886 0.8808096266469554
0.2929854 0.517688585160254 0.8839747177467869
0.2949853 0.5117940248041404 0.8879997424519351
0.2969852 0.5057910483422066 0.8928633071326001
0.2989851 0.4996705041511329 0.8960318069825802
0.300985 0.49334453707145 0.8990209258431984
0.3029849 0.4864241527083659 0.9024146301521258
0.3049848 0.4815090913277832 0.9058988165670817
0.3069847 0.47504217834986906 0.9105359216786107
0.3089846 0.4684440146314549 0.9137248644642562
0.3109845 0.4625439158470607 0.9161984512648336
0.3129844 0.454890232604968 0.9188380565012167
0.3149843 0.44895884458616353 0.9220889249902333
0.3169842 0.442609267840566 0.9265004950599324
0.3189841 0.43540881531649644 0.9299174062986506
0.320984 0.42856125473270507 0.932044413974672
0.3229839 0.42232397439613445 0.9356666309619948
0.3249838 0.4166330671930919 0.938701266247219
0.3269837 0.41015630289253924 0.9426075297829584
0.3289836 0.40338601450331996 0.9446733456391276
0.3309835 0.3966855644119176 0.9480157336218908
0.3329834 0.39092828918939454 0.9495329928506301
0.3349833 0.3836782026731689 0.9528895151944834
0.3369832 0.3772987826421007 0.9537873245663148
0.3389831 0.3696869204139456 0.9568103545504479
0.340983 0.3637633535569047 0.9595538568525765
0.3429829 0.3570117294132755 0.9627683751747019
0.3449828 0.3508248529231227 0.9652476353996942
0.3469827 0.3436036421230128 0.9673962547097222
0.3489826 0.33687117389899346 0.9706955194393846
0.3509825 0.3300654427401357 0.9733221962700644
0.3529824 0.3234134187285756 0.9757162152119507
0.3549823 0.3166734756035694 0.9784400518237886
0.3569822 0.3099181788488916 0.980293670949605
0.3589821 0.3028328095939552 0.9829981797768859
0.360982 0.296399362429635 0.9846144549466646
0.3629819 0.28992879759189266 0.9866870468399445
0.3649818 0.28315211946315016 0.9885826505070994
0.3669817 0.2766375533288113 0.9913656339545023
0.3689816 0.26982511166579237 0.9928164873336185
0.3709815 0.2631520049122737 0.9949582129834647
0.3729814 0.2562955558357156 0.9966447516360978
0.3749813 0.25021579820532663 0.9990727222958186
0.3769812 0.2429602206890297 1.0007254422184575
0.3789811 0.23573582880666064 1.0020066940229586
0.380981 0.22876793059674172 1.0032928056845496
0.3829809 0.22178000609037057 1.0051132418043518
0.3849808 0.21591920764069678 1.0078608825609687
0.3869807 0.20824451115731663 1.0088768473260643
0.3889806 0.20136719772657086 1.0104933295668221
0.3909805 0.1943080683778896 1.0124995873044875
0.3929804 0.1878321320420131 1.0138195143081838
0.3949803 0.18095141857264446 1.0156017095388894
0.3969802 0.17407348088379732 1.016405658434289
0.3989801 0.16648475058540427 1.0174143407602578
0.40098 0.15986222672952627 1.0191150337192039
0.4029799 0.15298888912618863 1.0195267459512352
0.4049798 0.14623347279244484 1.020768537537278
0.4069797 0.13863015208023188 1.0226008181054074
0.4089796 0.13189293981160494 1.0231840388100422
0.4109795 0.12453626084526334 1.02417011364575
0.4129794 0.11812740094300514 1.0255150818441325
0.4149793 0.10999367055945333 1.0262257262246788
0.4169792 0.10366710996232473 1.0267718517655997
0.4189791 0.0968662662645296 1.0277731228840914
0.420979 0.0893557848987674 1.0288017915286103
0.4229789 0.0831006316290293 1.0287569034537545
0.4249788 0.0751990442186412 1.0293271421102543
0.4269787 0.06871617138722735 1.0298252533036825
0.4289786 0.06157159812398186 1.0308325096380846
0.4309785 0.05523360636668989 1.0310631315774095
0.4329784 0.04797161771090175 1.0312998300940086
0.4349783 0.04084887881554439 1.0319661144682868
0.4369782 0.03439715337489086 1.0321255047486981
0.4389781 0.027132045638243694 1.0322264283032847
0.440978 0.020842563935221617 1.0331472365055219
0.4429779 0.013805059939484943 1.033722847888646
0.4449778 0.006295640545896361 1.0329918370193167
0.4469777 -0.0007109199485843473 1.0328463905013232
0.4489776 -0.007777806933897874 1.0338972999798415
0.4509775 -0.014054511440336766 1.0342121154311699
0.4529774 -0.021853932620364322 1.0346010982896352
0.4549773 -0.028532928148067828 1.0340914250104227
0.4569772 -0.03573514876942325 1.0343767279592848
0.4589771 -0.04314591890393449 1.0342973834293163
0.460977 -0.04994056649938029 1.034142463722921
0.4629769 -0.056786704488858857 1.0336330653376666
0.4649768 -0.06385712789743792 1.0337013741165888
0.4669767 -0.07088450543400798 1.0327734633238836
0.4689766 -0.0778245302725107 1.0327415034767633
0.4709765 -0.08505568411989888 1.0321121294494997
0.4729764 -0.09165907743505786 1.0318039632467984
0.4749763 -0.09907527563227807 1.0313355979518866
0.4769762 -0.10579527257879126 1.0309677109439352
0.4789761 -0.11314264928523067 1.0305494730218399
0.480976 -0.11985099556193114 1.0297859558450293
0.4829759 -0.12734743078276495 1.0284820003239965
0.4849758 -0.13425624380044437 1.027926974667824
0.4869757 -0.14098558277841894 1.0271979732485597
0.4889756 -0.14812560632136612 1.0259301048609046
0.4909755 -0.15443808202746023 1.02539594643685
0.4929754 -0.16212103249643295 1.02449484470036
0.4949753 -0.16843141671701878 1.0231199195844307
0.4969752 -0.17552169619947128 1.02250915874689
0.4989751 -0.18194465473297033 1.021194928715763
0.500975 -0.1888287544563196 1.020623673180595
0.5029749 -0.19490741230853575 1.0188987984776454
0.5049748 -0.20225450341201767 1.0176320090459203
0.5069747 -0.20886646477745696 1.0162849227031954
0.5089746 -0.21512504972586632 1.0147233513976028
0.5109745 -0.2218103430594773 1.0131907801354145
0.5129744 -0.22905885949701418 1.011975753529061
0.5149743 -0.2353395796690651 1.0108469737336094
0.5169742 -0.24205920346508697 1.009613755065042
0.5189741 -0.2487820130833703 1.007918136057182
0.520974 -0.25488574596330893 1.0058535688949524
0.5229739 -0.2621994755706182 1.0049813453560756
0.5249738 -0.26884978073487187 1.0032902738644434
0.5269737 -0.27542352738790316 1.001070851538827
0.5289736 -0.2821602619278494 0.9996492608462143
0.5309735 -0.2882923177839228 0.9977230147642714
0.5329734 -0.2955776609615173 0.9968106942085733
0.5349733 -0.30232684540941257 0.995443102121784
0.5369732 -0.3084627396172878 0.9933805450313937
0.5389731 -0.315187361881279 0.9912457576628773
0.540973 -0.3219640455728233 0.9888393644326587
0.5429729 -0.32870471029046167 0.9874043494278372
0.5449728 -0.3350937901080469 0.9850312963282404
0.5469727 -0.3416912530678121 0.9828778244656325
0.5489726 -0.3478743463313408 0.9806965207276822
0.5509725 -0.3545015966786459 0.9789219259245464
0.5529724 -0.3614425857791202 0.9763962918440114
0.5549723 -0.3678378737845722 0.9740461975876328
0.5569722 -0.37392165621057155 0.9716825110732517
0.5589721 -0.38055292799429263 0.9694555404472571
0.560972 -0.3869305727556779 0.9670189077521788
0.5629719 -0.3934360877542023 0.9645125234908247
0.5649718 -0.39986500057592866 0.9619783617427449
0.5669717 -0.4060694658651565 0.9596465307508165
0.5689716 -0.4122850299151951 0.9564761415217191
0.5709715 -0.41859877339610035 0.9545834400106704
0.5729714 -0.4243435234803138 0.9516032562436206
0.5749713 -0.43093154724755567 0.9491155857804613
0.5769712 -0.43719847875055273 0.9459714170168773
0.5789711 -0.44328008714578204 0.9433133813934832
0.580971 -0.44940406009042205 0.9400389375336691
0.5829709 -0.4551985690544289 0.9376880507217616
0.5849708 -0.4616983707631164 0.9347563752849277
0.5869707 -0.46749225868157596 0.931927868036694
0.5889706 -0.47352540165980994 0.9286860038251752
0.5909705 -0.479588466036037 0.9260723673134388
0.5929704 -0.4860259607393105 0.9229076876181344
0.5949703 -0.4922572473818232 0.9200198088839202
0.5969702 -0.49807203570197034 0.9166367244046186
0.5989701 -0.50395942401638 0.9130819457628085
0.60097 -0.5097097169210756 0.9106040142705959
0.6029699 -0.5159008690578123 0.9074840967466767
0.6049698 -0.5219595563465578 0.9040658974948568
0.6069697 -0.5276866478911556 0.9010129434390256
0.6089696 -0.5337432522069239 0.8977215069504797
0.6109695 -0.5395053542602981 0.8944191750486356
0.6129694 -0.5454145634077058 0.8911654818285839
0.6149693 -0.5510093265234778 0.8875550265685749
0.6169692 -0.5569408790686853 0.8838904685574267
0.6189691 -0.562520938656004 0.8808535689410644
0.620969 -0.5688176593485856 0.8770980587636698
0.6229689 -0.5741488468551488 0.873708230388842
0.6249688 -0.5797940001341244 0.8702207447596263
0.6269687 -0.5855019085540577 0.8663761875913573
0.6289686 -0.5914740397333457 0.8627357740435044
0.6309685 -0.5965214808552345 0.8592075059874357
0.6329684 -0.6021320690972882 0.8554113541540792
0.6349683 -0.60797569861791 0.8517385655885671
0.6369682 -0.613342501493503 0.8476901585540333
0.6389681 -0.6185265079100715 0.8441127841806625
0.640968 -0.6242357824304192 0.839976910651217
0.6429679 -0.6294721209078394 0.8360762302931763
0.6449678 -0.6349539118115459 0.8322424913996409
0.6469677 -0.6401761898502428 0.8281505794651883
0.6489676 -0.6456476300134352 0.8241055825595964
0.6509675 -0.6507867714572805 0.8203181908771751
0.6529674 -0.6559747371884195 0.8161073232237931
0.6549673 -0.66114817065365 0.8118022946093999
0.6569672 -0.66643033312358 0.8077984267842725
0.6589671 -0.6717700877302046 0.8034390958655698
0.660967 -0.6765252922559211 0.7993861459955041
0.6629669 -0.6816648726908446 0.795404223046515
0.6649668 -0.6868271660658766 0.790927640988957
0.6669667 -0.6920087869090478 0.7868083000877212
0.6689666 -0.6967838955420166 0.7826138448671851
0.6709665 -0.7019759563388892 0.7780276727087755
0.6729664 -0.7069572716575897 0.7739466810747753
0.6749663 -0.7118919626469504 0.7696759499396445
0.6769662 -0.7170846326801732 0.7652684284053958
0.6789661 -0.7216034634956853 0.7606957119447088
0.680966 -0.7266709130219147 0.7563495078698604
0.6829659 -0.7313115688589764 0.7519697527166547
0.6849658 -0.7364258462875494 0.7475463115022991
0.6869657 -0.7411617878628034 0.7430259727439031
0.6889656 -0.7460028272966605 0.7383598881292264
0.6909655 -0.7507111128705197 0.734035153621305
0.6929654 -0.755543056886931 0.7291632609035275
0.6949653 -0.7601413147886239 0.7248904087767828
0.6969652 -0.7649199010190227 0.7200096118415876
0.6989651 -0.7695769925038763 0.7152368898662805
0.700965 -0.7740748171831031 0.710659513164064
0.7029649 -0.7786172374391628 0.7062045619400742
0.7049648 -0.7830989097400155 0.7009769548452949
0.7069647 -0.7877445106302545 0.6965258318783636
0.7089646 -0.7921219959914014 0.6915087468223614
0.7109645 -0.7965095622200064 0.6868184562984812
0.7129644 -0.8009758226731021 0.6818466599903299
0.7149643 -0.8051839426056712 0.6770611808755691
0.7169642 -0.809332195050925 0.6720623230875111
0.7189641 -0.8135909397783907 0.6671404513343738
0.720964 -0.8180207907862651 0.6620032638760246
0.7229639 -0.8224390223855546 0.6571562501166812
0.7249638 -0.8264754601225797 0.6520847929749612
0.7269637 -0.8302249598429579 0.64674923527131
0.7289636 -0.8345022749764167 0.6419743692864246
0.7309635 -0.838549919786737 0.6365450780574893
0.7329634 -0.842492922066302 0.6313428796913672
0.7349633 -0.8462786012052831 0.6263002576222249
0.7369632 -0.8505432515558226 0.6209804351173224
0.7389631 -0.8541468417618787 0.6159371064598306
0.740963 -0.8580597964654095 0.6106118419062782
0.7429629 -0.8617956618569432 0.6055270540315906
0.7449628 -0.8655572957057435 0.6002491468520985
0.7469627 -0.8696358218930444 0.5949596409171743
0.7489626 -0.8733059729822765 0.5896321519439364
0.7509625 -0.8770463114935034 0.5842606240006747
0.7529624 -0.880861428894643 0.5791821592877736
0.7549623 -0.8845445146570925 0.5739472485783361
0.7569622 -0.8882407370802489 0.5682494994620062
0.7589621 -0.8919295872730975 0.5631882976421042
0.760962 -0.8956977553097994 0.5577112044157867
0.7629619 -0.8988083529760714 0.5523912769433991
0.7649618 -0.9026327914152831 0.5470583616049778
0.7669617 -0.906010512583505 0.5416816892690746
0.7689616 -0.909614493236224 0.5361591037671181
0.7709615 -0.9129133403394533 0.5305642746230237
0.7729614 -0.9165296355650635 0.5251014402336077
0.7749613 -0.919677927645241 0.5195356909747065
0.7769612 -0.9231986570033615 0.5140204739366379
0.7789611 -0.9264079047652154 0.508466690965319
0.780961 -0.9296507729231142 0.5029213505167038
0.7829609 -0.9329367233678693 0.4973246599662706
0.7849608 -0.9360889133696401 0.491739947941867
0.7869607 -0.9391840092991928 0.48608920006036893
0.7889606 -0.9424418859215402 0.4803541180181166
0.7909605 -0.945562725535151 0.47485909293039963
0.7929604 -0.9484357280717711 0.4691553606780736
0.7949603 -0.9513723834331727 0.46313651295016584
0.7969602 -0.9543032027638164 0.4576134624498408
0.7989601 -0.9573477142876603 0.45184739419395664
0.80096 -0.9598194117152059 0.4455448273369393
0.8029599 -0.9626604416990929 0.43975052045431356
0.8049598 -0.9655980006730817 0.43389704555006736
0.8069597 -0.9679058663594674 0.42820391327570173
0.8089596 -0.9709036762821874 0.4225000295685789
0.8109595 -0.9734377962017652 0.41635770573144426
0.8129594 -0.9761221212878269 0.41057276785074265
0.8149593 -0.9786000934693247 0.4048567688330887
0.8169592 -0.9812737532324671 0.3990592473180224
0.8189591 -0.9836896033333283 0.39301544823895374
