! Created with skrf 1.8.0 (http://scikit-rf.org).
# GHz S RI R 50.0 
!freq ReS11 ImS11
0.001 -0.9963124229384503 0.0014853526379485103
0.0029999 0.364586838533532 -0.15961353860434999
0.0049998 0.8708764231701932 0.2658421210510179
0.0069997 1.0249512830996959 0.11898222424984392
0.0089996 1.0168163394569543 0.04923599251814463
0.0109995 1.0174235531934464 0.052444708809933946
0.0129994 1.0177775076599735 0.05876225547931155
0.0149993 1.0177494563859129 0.06255326941717981
0.0169992 1.0160322273662699 0.07192847749387227
0.0189991 1.0167122931491304 0.07706543792387921
0.020999 1.0182565470673848 0.08426979215746558
0.0229989 1.01639019813536 0.09096334681478703
0.0249988 1.0162138692335998 0.09761735922299819
0.0269987 1.0157953288812127 0.10464992023110775
0.0289986 1.0149423729103186 0.1118075182365002
0.0309985 1.013392608438755 0.12007170336783286
0.0329984 1.014342939024818 0.12601210728412815
0.0349983 1.01309180664175 0.13347843242386637
0.0369982 1.0120728376827057 0.13982394609167687
0.0389981 1.0114041038836117 0.14777321741087707
0.040998 1.0093607154465583 0.15475576574785171
0.0429979 1.0086136796968503 0.16200804208159914
0.0449978 1.0072702720786284 0.16814565496093656
0.0469977 1.0048641474244042 0.1771966463648442
0.0489976 1.0052843582928852 0.1832963154770939
0.0509975 1.0038508827871808 0.19080045169210152
0.0529974 1.003004478040275 0.1975261282891077
0.0549973 1.0013529189225137 0.20800072351793036
0.0569972 0.9996136276162173 0.2130615660693881
0.0589971 0.997537498894578 0.22143706440061778
0.060997 0.9958295087769398 0.22719234110994235
0.0629969 0.9964815846383456 0.23633166005170103
0.0649968 0.9921923970878631 0.24311522532811342
0.0669967 0.9919871722431168 0.24949531190172033
0.0689966 0.9892831291824316 0.2562582028394834
0.0709965 0.9870754919141675 0.26628978643386325
0.0729964 0.9862230891312851 0.2711040160774652
0.0749963 0.9840561787728344 0.2779756778171206
0.0769962 0.9805538645213744 0.28571180582094297
0.0789961 0.980744993077151 0.29257142270500025
0.080996 0.9771436121792113 0.30023896796478533
0.0829959 0.9756308441604689 0.30706492605677693
0.0849958 0.9741347939879963 0.31524539862410667
0.0869957 0.9721093391617214 0.32328346458873286
0.0889956 0.9690205422966159 0.32911042337789753
0.0909955 0.966777022860345 0.33537152296830924
0.0929954 0.964836733259418 0.34227954569802627
0.0949953 0.9622192728315646 0.34984172686833487
0.0969952 0.9605419187626388 0.3570090464757535
0.0989951 0.9575851483069697 0.3637873119015156
0.100995 0.9550498316210676 0.3714663426514224
0.1029949 0.9520147455977371 0.37783680747468007
0.1049948 0.948619648471978 0.3847290161412299
0.1069947 0.9461445631825054 0.39179736066998033
0.1089946 0.9438287715030798 0.3981130849890587
0.1109945 0.9408977902135511 0.4049924697243273
0.1129944 0.9374325426665842 0.4119399730565745
0.1149943 0.9355833788103028 0.41797348669055234
0.1169942 0.9330250379593984 0.4246374783217979
0.1189941 0.9296848313113767 0.432205122629069
0.120994 0.9268291424006956 0.4382231320978014
0.1229939 0.9227148092840356 0.44678108315895687
0.1249938 0.9192190861173928 0.4510647175191499
0.1269937 0.9175521068415757 0.4574215440102112
0.1289936 0.9139753371275943 0.46532469861374565
0.1309935 0.9102281157843349 0.4717121815429185
0.1329934 0.9074161346430403 0.4779357061189947
0.1349933 0.9034122002148037 0.4837431455290204
0.1369932 0.8990610683653346 0.49218222650371174
0.1389931 0.8960650763609743 0.4974476338265345
0.140993 0.8911516617334457 0.5049887410470953
0.1429929 0.889734797429257 0.510152213208074
0.1449928 0.8855709851916105 0.5176449858422689
0.1469927 0.8831725696284205 0.5226580476043335
0.1489926 0.8784192595102209 0.5294077535514973
0.1509925 0.8743118932726504 0.5369819630013085
0.1529924 0.8696214713272133 0.5415714714487447
0.1549923 0.8665647532627322 0.5491783821210043
0.1569922 0.8626375696532705 0.5567808996747234
0.1589921 0.8586238754334318 0.5615603738991681
0.160992 0.8536782385625448 0.5685700986531408
0.1629919 0.8500442611962482 0.5742484248339591
0.1649918 0.8471619616920069 0.5799596519705597
0.1669917 0.8426006208952233 0.5877128875769952
0.1689916 0.8385431408248615 0.5927516972912674
0.1709915 0.835218492472664 0.5983178858725929
0.1729914 0.8303620614363466 0.6041719774356451
0.1749913 0.8260981643505428 0.6113662068615384
0.1769912 0.8213494382384473 0.6162592683692265
0.1789911 0.8175350235027322 0.6220208632713318
0.180991 0.8131732627023637 0.6276040305906564
0.1829909 0.8087169795777494 0.6341707241158184
0.1849908 0.8037431140901677 0.6399218640931342
0.1869907 0.7999612918345975 0.6452735523980435
0.1889906 0.7943842046609623 0.6512306248752456
0.1909905 0.7904864330085022 0.6575928949874537
0.1929904 0.7858706608759575 0.6633546304176893
0.1949903 0.7814092046930184 0.6679206659165
0.1969902 0.777172992130104 0.6734012165617085
0.1989901 0.7708435685515372 0.6800424646424846
0.20099 0.7669497141180193 0.6842938827974872
0.2029899 0.762640441068792 0.6901011896526896
0.2049898 0.7589242151195225 0.6961131778550411
0.2069897 0.75242046170879 0.7017570710776689
0.2089896 0.7475311030364943 0.706031254432167
0.2109895 0.7417018972460737 0.7121515715764095
0.2129894 0.73751697301093 0.7173094612579436
0.2149893 0.7321783410472494 0.7214751837239182
0.2169892 0.7269695602904576 0.7278762149868934
0.2189891 0.7215496973245201 0.7321862245172093
0.220989 0.7166915909575692 0.7383039635586689
0.2229889 0.7128655865148467 0.7434220094200322
0.2249888 0.7067531841576902 0.7483833499920678
0.2269887 0.7016265251498907 0.7533304496631301
0.2289886 0.6952871622238386 0.757765805065817
0.2309885 0.6914992130739754 0.7628390085059413
0.2329884 0.685174823467968 0.7692213100700434
0.2349883 0.679838200657002 0.7732150847943802
0.2369882 0.6739363798740461 0.7778520318969184
0.2389881 0.6700408440457929 0.7822537042792486
0.240988 0.6641259571836318 0.7883153533024211
0.2429879 0.6586906938312573 0.7932974742338307
0.2449878 0.6529312949460571 0.797183208608261
0.2469877 0.6464798574816131 0.8021525991772812
0.2489876 0.6413373325037703 0.8063271694813507
0.2509875 0.6364092143659361 0.8118662901127646
0.2529874 0.6300214304435011 0.8154192244671553
0.2549873 0.6244853103514152 0.8196797641104414
0.2569872 0.6180999968988126 0.8254040673211807
0.2589871 0.6131658115626828 0.8302496854622736
0.260987 0.6073822515103475 0.8330384847482274
0.2629869 0.6008375855890888 0.8380313444479068
0.2649868 0.59534719745086 0.8421945394038688
0.2669867 0.5898259790794236 0.846831113615377
0.2689866 0.5838296251536076 0.8510949404048906
0.2709865 0.578270498263373 0.8551603094899077
0.2729864 0.5723334388411324 0.8593706235445482
0.2749863 0.565268626480586 0.8632584542771944
0.2769862 0.5595141074408502 0.8672874055960449
0.2789861 0.554689627577718 0.8716503557123594
0.280986 0.547548623273429 0.8758845988776074
0.2829859 0.5419510883540797 0.8788572742452956
0.2849858 0.5351065327685727 0.8832618386025116
0.2869857 0.5291425993679122 0.8874422918108328
0.2889856 0.5236186698717432 0.8913694291180156
0.2909855 0.5159009563711038 0.8940880701157748
0.2929854 0.5103800458030303 0.8967994408997189
0.2949853 0.5045737351032376 0.9009834472089595
0.2969852 0.4979721750265368 0.9051526323465914
0.2989851 0.49195446177518737 0.9088125551873165
0.300985 0.48515095622482646 0.9110602959080214
0.3029849 0.4788457990139348 0.9144626820498034
0.3049848 0.4729924820531076 0.9180945849686664
0.3069847 0.46651687033943273 0.92227235831
0.3089846 0.45991923827719117 0.9253905071438705
0.3109845 0.45348429717025507 0.9276313928057655
0.3129844 0.4465964442395135 0.9300836064836033
0.3149843 0.4406689660760335 0.9338736249233202
0.3169842 0.4343606941087626 0.938016843704254
0.3189841 0.4273322548190727 0.9403072451508538
0.320984 0.4206597004217332 0.9430196814893423
0.3229839 0.413985317979151 0.9464818023502495
0.3249838 0.4086947270954347 0.949067248891235
0.3269837 0.4025291801918876 0.9524563786681999
0.3289836 0.3957745489046175 0.9546134196870812
0.3309835 0.38860096637736796 0.9577497259001484
0.3329834 0.3820549253443732 0.9605269775734465
0.3349833 0.37573390932590767 0.9628304560944312
0.3369832 0.36918532647330576 0.9647350185055996
0.3389831 0.36219418084473454 0.9670215317582818
0.340983 0.3560134987089485 0.9699294842482441
0.3429829 0.34951266059996583 0.9733652295822236
0.3449828 0.3423109916427702 0.976147462456938
0.3469827 0.33637503180937245 0.9790780604995246
0.3489826 0.32925672107407794 0.9818748576813395
0.3509825 0.32276181080484706 0.984305812657186
0.3529824 0.316217281055983 0.9867239034689619
0.3549823 0.30921835411204013 0.9897218515509433
0.3569822 0.3018406711915009 0.9915272221931257
0.3589821 0.2952079966542157 0.994133544451097
0.360982 0.28895127937268816 0.9954521448384134
0.3629819 0.28102913150887665 0.9978143124811887
0.3649818 0.2743728214540164 0.9991822306952465
0.3669817 0.2679316716486849 1.0014744092116763
0.3689816 0.26069861694679575 1.0028275093660795
0.3709815 0.2542500472531673 1.005208471223262
0.3729814 0.2472785560336329 1.0063789666533518
0.3749813 0.24071840035009556 1.0089996708330848
0.3769812 0.23382090041951983 1.0103062255175133
0.3789811 0.2264620813428631 1.010894620466633
0.380981 0.2191328293260812 1.0123618986288787
0.3829809 0.21232763405576338 1.013797692332962
0.3849808 0.20644090954503808 1.0161931106010282
0.3869807 0.19859709994427066 1.0173533930563334
0.3889806 0.1917078691225871 1.01849315341913
0.3909805 0.18486917514202159 1.020077111134303
0.3929804 0.1775050580867379 1.0215355258105432
0.3949803 0.17174717234433906 1.0233208474073112
0.3969802 0.16412926959724133 1.023822370347452
0.3989801 0.15752976871186308 1.0246363459439194
0.40098 0.14995022848779424 1.0262636418608277
0.4029799 0.14395781459576834 1.0268490892514386
0.4049798 0.1372657140797564 1.0281120891079831
0.4069797 0.12986313590138102 1.0300561822246028
0.4089796 0.12292715280439458 1.0304319985401682
0.4109795 0.11640196311846378 1.0317804140232296
0.4129794 0.10964106689543397 1.0329312895224518
0.4149793 0.10175535568488073 1.0338387198320336
0.4169792 0.09536653342882517 1.0343474163026085
0.4189791 0.0885653235273014 1.0353139451991176
0.420979 0.08160267533668505 1.0360952329438156
0.4229789 0.0739115113600981 1.03654602761425
0.4249788 0.06748683172040292 1.0370848964070127
0.4269787 0.060390981068144244 1.0373716212427693
0.4289786 0.05349958798068699 1.038191102344771
0.4309785 0.04701905815199883 1.038341480548358
0.4329784 0.03888625066160559 1.038645412339366
0.4349783 0.03233460214604718 1.0398579956156444
0.4369782 0.02583933477210025 1.0392500259500972
0.4389781 0.018744502871654113 1.039286173609769
0.440978 0.011552931530218413 1.0397505927457038
0.4429779 0.004271251069525563 1.0399762455369428
0.4449778 -0.0025939270203075362 1.039257389358249
0.4469777 -0.009485418136327986 1.0392934343726046
0.4489776 -0.016957408712933927 1.0395441013921842
0.4509775 -0.023655689552094905 1.0397861332303435
0.4529774 -0.030595082204050664 1.0400100701176656
0.4549773 -0.037183428560984666 1.0392921321112942
0.4569772 -0.044377071946658145 1.039171042806867
0.4589771 -0.05116708837461041 1.039406091291505
0.460977 -0.05846074738165337 1.0385821864243103
0.4629769 -0.06468914224299538 1.037765540176372
0.4649768 -0.07205615265354913 1.0378848892425412
0.4669767 -0.07871902730731174 1.0370490220790722
0.4689766 -0.08537825092201984 1.036650534723112
0.4709765 -0.09259460058851601 1.0358534292433081
0.4729764 -0.09886683811674335 1.0355196556376587
0.4749763 -0.105957475301173 1.035652741618433
0.4769762 -0.11271381653315082 1.0351557126474873
0.4789761 -0.11970433414789625 1.0346197297335433
0.480976 -0.12637203994362753 1.0341161242943797
0.4829759 -0.13356418772521894 1.0322365602841892
0.4849758 -0.1410371771280753 1.031981371876298
0.4869757 -0.1475112751501394 1.0313970631797624
0.4889756 -0.15459214616509198 1.030251644113484
0.4909755 -0.16095858116826728 1.02974697860258
0.4929754 -0.16859600573226663 1.0291126868089544
0.4949753 -0.17475569009032432 1.0275207162082198
0.4969752 -0.18155532147228845 1.0269580629838027
0.4989751 -0.18835969273102826 1.0258462385403873
0.500975 -0.19504758176583667 1.0248137618793745
0.5029749 -0.20166116629178849 1.0231918201859878
0.5049748 -0.2086999154059537 1.0219443176963015
0.5069747 -0.21519958633911185 1.020767181295855
0.5089746 -0.22215542451763626 1.0189576899435386
0.5109745 -0.22825012895167981 1.017015797796347
0.5129744 -0.23580141535805987 1.0159554875862742
0.5149743 -0.2420357052262049 1.014975060397954
0.5169742 -0.24863420552154156 1.013217187278527
0.5189741 -0.2556635890705586 1.0111417709029775
0.520974 -0.2614312196366996 1.0093639927018372
0.5229739 -0.26881906228477936 1.0079286338788647
0.5249738 -0.27536282450338323 1.0062315417063796
0.5269737 -0.2819200412796532 1.0039155606421524
0.5289736 -0.28834674077443256 1.002171682085922
0.5309735 -0.29420315994043733 1.0000609957755748
0.5329734 -0.3015990751950985 0.9988342381064186
0.5349733 -0.3081895601596303 0.9975139877517027
0.5369732 -0.31428531599069365 0.9952770651082984
0.5389731 -0.32094263662504696 0.9933076998537149
0.540973 -0.32772642013075703 0.9907594996958412
0.5429729 -0.33412888123663664 0.989312681083843
0.5449728 -0.34063528198028903 0.9866603833977816
0.5469727 -0.3471691302620664 0.9846163470091984
0.5489726 -0.3530727747175156 0.9825925028846193
0.5509725 -0.3597899078896477 0.9807298526601826
0.5529724 -0.3662745198212499 0.9782070602913879
0.5549723 -0.37247036516796816 0.9759653023434814
0.5569722 -0.37861508728855836 0.9737857995923503
0.5589721 -0.3850359486416861 0.9713335584462889
0.560972 -0.39155981520194 0.9690768854382232
0.5629719 -0.39784111617001006 0.9666187924672095
0.5649718 -0.40421601417112735 0.964212324581217
0.5669717 -0.4104443645894612 0.9618861721687235
0.5689716 -0.41676281714033053 0.9590419109486755
0.5709715 -0.4230672982384487 0.9569950327321233
0.5729714 -0.4286113102837088 0.9538944303410081
0.5749713 -0.4351387809777074 0.9516267832380128
0.5769712 -0.44117831745259156 0.9485401929015774
0.5789711 -0.4474315464926764 0.9456516663335716
0.580971 -0.45368246012725355 0.9420634201660751
0.5829709 -0.4595639726725891 0.9398415367489238
0.5849708 -0.4657858930341562 0.9369477832006772
0.5869707 -0.4717743055991801 0.9336717248019498
0.5889706 -0.4778510934908811 0.9305404265733617
0.5909705 -0.4836634814721957 0.927987672116737
0.5929704 -0.49002467478470013 0.9247606695654558
0.5949703 -0.4963291050117301 0.9213258547831411
0.5969702 -0.5016231622457807 0.9180973165407071
0.5989701 -0.5074084817618436 0.9150130292515056
0.60097 -0.5132601962531091 0.9122599914644295
0.6029699 -0.5194654558134084 0.9089842535163272
0.6049698 -0.5251865871961939 0.9056692526981324
0.6069697 -0.5306942903686352 0.902718721361768
0.6089696 -0.5367383133945912 0.8993427109933383
0.6109695 -0.5426528412823562 0.8958519066940033
0.6129694 -0.5481509431758428 0.8927606695431137
0.6149693 -0.5537629748354982 0.8891760076928432
0.6169692 -0.5597502053051844 0.8854981835327209
0.6189691 -0.565265230064453 0.8824416602863341
0.620969 -0.5714138755474227 0.8789460679602129
0.6229689 -0.5767579866014351 0.8755812272110546
0.6249688 -0.5824617050736488 0.8721765115835571
0.6269687 -0.5880189538792215 0.8683890375181825
0.6289686 -0.5936938652390991 0.8647490217192952
0.6309685 -0.5989870048065797 0.8612507683806156
0.6329684 -0.6043710413573887 0.8573862939449459
0.6349683 -0.610397033971666 0.853574608471118
0.6369682 -0.6154894695993258 0.8498574286103451
0.6389681 -0.6207298027138505 0.8460850568181423
0.640968 -0.6264732944245097 0.84193521769404
0.6429679 -0.6314436332097789 0.8381998314240623
0.6449678 -0.6371012185117038 0.8341288002765483
0.6469677 -0.6423243733362577 0.8299794232701435
0.6489676 -0.6475425879883984 0.8259909248929478
0.6509675 -0.6527952734680219 0.8222079002629936
0.6529674 -0.65814131610752 0.8177027221424472
0.6549673 -0.6633247862127382 0.8134053983598282
0.6569672 -0.6684135930587235 0.8095126485843589
0.6589671 -0.6736569130546155 0.8050930847084098
0.660967 -0.6786512046277237 0.8008737871080958
0.6629669 -0.6836352354775549 0.7968187106341288
0.6649668 -0.6888023719885829 0.7926912297152866
0.6669667 -0.6938566665853202 0.7883117307589885
0.6689666 -0.6987631508433 0.7839583754850409
0.6709665 -0.7037749664258985 0.7795733718322345
0.6729664 -0.70877322326274 0.7754831168418457
0.6749663 -0.7136083813694046 0.7712333155415853
0.6769662 -0.7187964780448707 0.7668074458440469
0.6789661 -0.723332161656495 0.7622740667578511
0.680966 -0.7283357634823593 0.7580171315146834
0.6829659 -0.7329205249603029 0.7535866329465055
0.6849658 -0.7380719074215057 0.749180992835482
0.6869657 -0.7427011349357364 0.74480310384576
0.6889656 -0.7475572337510626 0.7400623261877348
0.6909655 -0.7522044316056381 0.7357540750233817
0.6929654 -0.7570304508872654 0.7308426473645007
0.6949653 -0.7616733226257348 0.726641505809089
0.6969652 -0.7664073553898649 0.7217091160374965
0.6989651 -0.7709837849980188 0.7170535664621188
0.700965 -0.77551940894181 0.7124144355956825
0.7029649 -0.7800249823207699 0.7079371084519087
0.7049648 -0.7844872356363837 0.7028049287546217
0.7069647 -0.7890842478109865 0.6984603835316732
0.7089646 -0.7935322310669409 0.6932547726739121
0.7109645 -0.7978549995152251 0.6885703333928961
0.7129644 -0.8023348551997136 0.6835878829419272
0.7149643 -0.8066237092066353 0.6787228966830597
0.7169642 -0.8108214493367598 0.6735887681483838
0.7189641 -0.8149395753075404 0.6688734858071973
0.720964 -0.8194247303264645 0.6637258698346578
0.7229639 -0.8238193992178784 0.6588332618048641
0.7249638 -0.8278540138194963 0.6538573224049615
0.7269637 -0.831565478651071 0.6486476433164292
0.7289636 -0.8357067235427103 0.6439290572672599
0.7309635 -0.8397787729153008 0.6385743800245524
0.7329634 -0.8436968951111892 0.6333571221272023
0.7349633 -0.8474076827882231 0.6283887019301159
0.7369632 -0.8515134793066694 0.6230581209964552
0.7389631 -0.8551716125130518 0.6179890934865765
0.740963 -0.8589632613343192 0.6127057486337428
0.7429629 -0.8627342743838436 0.6076214455372968
0.7449628 -0.8664435071917286 0.6022985255571331
0.7469627 -0.8706017042273744 0.5970253485183289
0.7489626 -0.8742296322253564 0.5917391693269907
0.7509625 -0.878004356912762 0.5863866682725061
0.7529624 -0.8818472553577127 0.5812904085401808
0.7549623 -0.8855404423896248 0.5761096890067923
0.7569622 -0.8893332797480867 0.570323209436373
0.7589621 -0.893068077613581 0.5652424073615355
0.760962 -0.8968551941990518 0.559792425517771
0.7629619 -0.8999982603530909 0.5544784686191182
0.7649618 -0.9037767445918359 0.5490501947312827
0.7669617 -0.9072459980872173 0.5436528998655421
0.7689616 -0.9109081662999121 0.5382058852615648
0.7709615 -0.9142090758842318 0.5325182355503842
0.7729614 -0.9178547225591206 0.527093337297163
0.7749613 -0.9210171342925303 0.5215161802011647
0.7769612 -0.9245458446875391 0.5160195123254016
0.7789611 -0.9277592948193836 0.5103948722273298
0.780961 -0.9310059843135529 0.5049697654337112
0.7829609 -0.9342946797451984 0.4992807352505075
0.7849608 -0.9374742605664979 0.49366496390189823
0.7869607 -0.9405603446406838 0.4880218470082836
0.7889606 -0.943804172512169 0.4822664167754147
0.7909605 -0.9469525240295124 0.47686356667052787
0.7929604 -0.9498363475987963 0.4710878672798608
0.7949603 -0.952734458017829 0.46502733646451205
0.7969602 -0.9556933645709988 0.4595568672520216
0.7989601 -0.9588039280684028 0.45383139385105536
0.80096 -0.9612059264677336 0.4475257117184365
0.8029599 -0.964070079610345 0.4417964829048412
0.8049598 -0.9669677930360185 0.4359717207025388
0.8069597 -0.9693539205940795 0.43025469940817807
0.8089596 -0.9722743044678152 0.42458191539462603
0.8109595 -0.9748808427673198 0.4184871170153222
0.8129594 -0.9775495931400787 0.4127744190542502
0.8149593 -0.9800668459077067 0.4069846181908049
0.8169592 -0.9827337492844641 0.4013051535730729
0.8189591 -0.9852410320210686 0.39526914195311924
