! Created with skrf 1.8.0 (http://scikit-rf.org).
# GHz S RI R 50.0 
!freq ReS11 ImS11
0.001 -0.9998606428010592 0.0007210117209896852
0.0029999 -0.9993350120227933 0.0014828513966001593
0.0049998 -0.9967788015029116 0.0007122459900364281
0.0069997 -0.999094995799233 -0.0011115308240520483
0.0089996 -1.0316345817641959 -0.04789298128144304
0.0109995 -1.0515794408929278 -0.055590471751209874
0.0129994 -1.0577703264693317 -0.05839512459592498
0.0149993 -1.0633808231102446 -0.06409670691510184
0.0169992 -1.0601020696288284 -0.06572411128780446
0.0189991 -1.0613886972948863 -0.06954414791117385
0.020999 -1.0604722985885855 -0.07460328048895944
0.0229989 -1.0615514816588651 -0.08157171867975649
0.0249988 -1.0611585462468682 -0.08740300688005244
0.0269987 -1.0610552488240896 -0.09449527623803453
0.0289986 -1.0609092791519108 -0.10120480296513057
0.0309985 -1.0607973810374765 -0.10760697743486723
0.0329984 -1.060252046074795 -0.1151750316068311
0.0349983 -1.0591553717844313 -0.1213085103541493
0.0369982 -1.0587195693542637 -0.12923953452579665
0.0389981 -1.0575105570905672 -0.13500644321644517
0.040998 -1.0571950388035714 -0.14150856440847656
0.0429979 -1.0561691114213563 -0.14887218916096634
0.0449978 -1.05594171443268 -0.1562066891156228
0.0469977 -1.0556527434723526 -0.16023208864843477
0.0489976 -1.0540479128384246 -0.16954583631389017
0.0509975 -1.0525586044765507 -0.17572321102829996
0.0529974 -1.050653650096808 -0.1779029057691884
0.0549973 -1.0510901330185178 -0.19293252712814007
0.0569972 -1.0494525307829916 -0.1959302889310195
0.0589971 -1.048644924983637 -0.20206273443638492
0.060997 -1.04798203932536 -0.2094055795598754
0.0629969 -1.0449601704130451 -0.21426359727163208
0.0649968 -1.0462652589044985 -0.2200425585759296
0.0669967 -1.0434389427125612 -0.22807165283866399
0.0689966 -1.0430206635255135 -0.23454793151712083
0.0709965 -1.0420578849577513 -0.2380530201489519
0.0729964 -1.0406076141268439 -0.24721254909811813
0.0749963 -1.0400034598786811 -0.2539004778128669
0.0769962 -1.0398237129827324 -0.25866208949904695
0.0789961 -1.0377204903119706 -0.2657146813332469
0.080996 -1.037412108825107 -0.27159755301594557
0.0829959 -1.0351919921123973 -0.27851466350678633
0.0849958 -1.032995033490573 -0.2836297256925842
0.0869957 -1.0311262286684943 -0.2894660137640766
0.0889956 -1.030593101822703 -0.29585002254503456
0.0909955 -1.029139705054265 -0.3032049340867783
0.0929954 -1.0281224229442105 -0.30979485437562554
0.0949953 -1.0261871000889793 -0.31621818578643557
0.0969952 -1.0239288702490275 -0.32224346254671665
0.0989951 -1.0234415867363031 -0.32898472875716483
0.100995 -1.0207243762069382 -0.33497835003233367
0.1029949 -1.0190684923947737 -0.34161538570559474
0.1049948 -1.0175879639985457 -0.3481291249929165
0.1069947 -1.0158455389217393 -0.35422176670004
0.1089946 -1.013474166968096 -0.36109372186021865
0.1109945 -1.011484957707235 -0.3671678770980094
0.1129944 -1.0090911041535775 -0.3731860350608346
0.1149943 -1.0067995071598896 -0.37992720175258243
0.1169942 -1.0048295594755652 -0.3867007744548593
0.1189941 -1.002306151993075 -0.3921780228128972
0.120994 -0.9996500337019668 -0.3988372599610501
0.1229939 -0.9981506326131605 -0.4038213398418136
0.1249938 -0.9959566632959825 -0.4120473565024104
0.1269937 -0.9930352635811235 -0.41825047492436757
0.1289936 -0.9901088335743445 -0.42249325061450427
0.1309935 -0.9881705901971113 -0.4286629914912732
0.1329934 -0.9862723479008335 -0.4347799854370242
0.1349933 -0.9830388352022216 -0.44221652166084013
0.1369932 -0.9812773171031952 -0.44697562580142247
0.1389931 -0.9787006367364557 -0.45386956373789805
0.140993 -0.9764333156205851 -0.45921716704498605
0.1429929 -0.9732476883778931 -0.4660750501541312
0.1449928 -0.970940264572246 -0.470441577893514
0.1469927 -0.9684018496361221 -0.4773500983514839
0.1489926 -0.9653431040372713 -0.4840247176901702
0.1509925 -0.963230546995718 -0.48828059025705595
0.1529924 -0.9605182369514533 -0.49661968003381357
0.1549923 -0.9570693376010633 -0.5006694449537347
0.1569922 -0.9548355901300467 -0.5056626258447684
0.1589921 -0.9520583779678299 -0.5129573038635745
0.160992 -0.9500552762317648 -0.5176521631932002
0.1629919 -0.9463442738277292 -0.5242571208838338
0.1649918 -0.942892376183317 -0.5310095214638721
0.1669917 -0.9408206082297076 -0.536105443686176
0.1689916 -0.9380386703135304 -0.5414142799614543
0.1709915 -0.9348974014983522 -0.5492580524054891
0.1729914 -0.9312167672804359 -0.5536906031260028
0.1749913 -0.9283306322944624 -0.5593433949524846
0.1769912 -0.926150041601272 -0.5645363291128875
0.1789911 -0.9216950981116823 -0.5712176954938053
0.180991 -0.9191438846696244 -0.5773570574418821
0.1829909 -0.914831840034235 -0.5822634318759453
0.1849908 -0.9117977980304399 -0.5880175315362521
0.1869907 -0.9084379801645905 -0.5937282598240368
0.1889906 -0.9056837980295138 -0.5994885124907896
0.1909905 -0.9016278544563657 -0.604354153528309
0.1929904 -0.8977987847189729 -0.6096898285852106
0.1949903 -0.8940337772275043 -0.6161280775408307
0.1969902 -0.8917931244521342 -0.620602289027367
0.1989901 -0.8866861802710311 -0.6266388038828749
0.20099 -0.8853291253280229 -0.6308864969066462
0.2029899 -0.878850209632518 -0.638247035030556
0.2049898 -0.8766509632136351 -0.6417604370478297
0.2069897 -0.8725741016449311 -0.6474750253322267
0.2089896 -0.8694981565066592 -0.6528511795077839
0.2109895 -0.865895132426839 -0.6580184952648443
0.2129894 -0.8609137573131698 -0.6633050918441291
0.2149893 -0.8577702613384065 -0.6691870189511541
0.2169892 -0.8535008943017081 -0.6736733556229292
0.2189891 -0.8508905642909128 -0.6793293925310374
0.220989 -0.8453423270459143 -0.6838207848687882
0.2229889 -0.8417216282858117 -0.6891035874302218
0.2249888 -0.8372983547271565 -0.6944763130502553
0.2269887 -0.835032124497161 -0.6998435784893967
0.2289886 -0.8305455495445108 -0.7056761208143237
0.2309885 -0.8255547772652738 -0.7098378451530136
0.2329884 -0.8216949990151087 -0.714796303971318
0.2349883 -0.8181477547218264 -0.7214412667066892
0.2369882 -0.8144866480013067 -0.7263813987236267
0.2389881 -0.8086575434875798 -0.7314043399321137
0.240988 -0.804441861208784 -0.735770108481982
0.2429879 -0.8003798933452623 -0.7411160562307858
0.2449878 -0.7965375572925949 -0.7468261349905078
0.2469877 -0.7925738005516973 -0.7517084173391857
0.2489876 -0.7876923348776165 -0.7565133391455547
0.2509875 -0.7828108032001754 -0.761252329671908
0.2529874 -0.7789296297756185 -0.7676402444241315
0.2549873 -0.7744983707998747 -0.7718604157215349
0.2569872 -0.7701861058334155 -0.7760286686989778
0.2589871 -0.764945884553812 -0.7807731321221526
0.260987 -0.7603008711716819 -0.7859579689117158
0.2629869 -0.7560787997484695 -0.7904312957205876
0.2649868 -0.7512142710434254 -0.7954928117129879
0.2669867 -0.7467613993527964 -0.7999706396758218
0.2689866 -0.7417562175134289 -0.8047354826967358
0.2709865 -0.7371235568611764 -0.8093317852552662
0.2729864 -0.731648631096653 -0.814348222035693
0.2749863 -0.7276248344128861 -0.8183274122448215
0.2769862 -0.7231163175876149 -0.8229579622471177
0.2789861 -0.71720513195825 -0.8269312721650918
0.280986 -0.7126744771199613 -0.8315570220307774
0.2829859 -0.7077893946971416 -0.8367674022596746
0.2849858 -0.7028103340171508 -0.8421010486199683
0.2869857 -0.6979550668779217 -0.8450569881332591
0.2889856 -0.6919072008715454 -0.8496876397385642
0.2909855 -0.6875808991808899 -0.8544559253305747
0.2929854 -0.6830302025947309 -0.8588258917118243
0.2949853 -0.6766053257088647 -0.8627822209785408
0.2969852 -0.6718051660374891 -0.86630837326079
0.2989851 -0.6673728852267754 -0.8703297601040899
0.300985 -0.6629362335722211 -0.8753849661314519
0.3029849 -0.6569056774429706 -0.8799809175748557
0.3049848 -0.6510593806967984 -0.8839637692753282
0.3069847 -0.6462617359155983 -0.8868151983998176
0.3089846 -0.6410340378949854 -0.8910189794693717
0.3109845 -0.6365373310980397 -0.8959369751618552
0.3129844 -0.6321069390482651 -0.9007159069585864
0.3149843 -0.6257421826271783 -0.9050687191626325
0.3169842 -0.6201015718483078 -0.9077677038124883
0.3189841 -0.6160202927420495 -0.9122556833637264
0.320984 -0.6105319958891038 -0.9174323450732468
0.3229839 -0.6050244237474895 -0.9194074074900244
0.3249838 -0.598405304925108 -0.9239176751558751
0.3269837 -0.5926312240656251 -0.9276272251298814
0.3289836 -0.588295156215087 -0.9316755376322168
0.3309835 -0.5818774164575726 -0.9351559107660009
0.3329834 -0.5765001073707275 -0.9389900493426695
0.3349833 -0.570449188029637 -0.942676781318933
0.3369832 -0.5661805443234127 -0.947112522395047
0.3389831 -0.560734601056773 -0.9499718555265504
0.340983 -0.554551388636788 -0.9540931336280272
0.3429829 -0.5487038837662622 -0.9566841846936646
0.3449828 -0.5430519664395149 -0.959654857864146
0.3469827 -0.5369261252155609 -0.9637729826821407
0.3489826 -0.5313113803965316 -0.9664900227443146
0.3509825 -0.5257244143045194 -0.970238856551657
0.3529824 -0.5196023598133941 -0.9744036678804643
0.3549823 -0.5141576280810145 -0.9775060537341057
0.3569822 -0.5082870333792147 -0.980859722584234
0.3589821 -0.5020445736500476 -0.9836830287192962
0.360982 -0.495751652272644 -0.9875926367759219
0.3629819 -0.4894747739391845 -0.990233356266242
0.3649818 -0.4838552660683783 -0.994566079384177
0.3669817 -0.4777912423230371 -0.9965806186228564
0.3689816 -0.4713104204770087 -1.0006989352174958
0.3709815 -0.46604973333171584 -1.0037175195654737
0.3729814 -0.45953761161663353 -1.0072369147802966
0.3749813 -0.4530469799904977 -1.0091317112283433
0.3769812 -0.44719782659040325 -1.0120627049405453
0.3789811 -0.44065434475439147 -1.0156584975189384
0.380981 -0.4356211076256536 -1.0186803971738205
0.3829809 -0.42981240478363325 -1.0221295530434489
0.3849808 -0.42203978643783807 -1.0229511365149937
0.3869807 -0.4167808586351037 -1.0269214814171719
0.3889806 -0.4108642307210815 -1.0295914360455947
0.3909805 -0.40431007991660095 -1.0320898260656453
0.3929804 -0.39721070491779203 -1.0347120009222246
0.3949803 -0.3906060475949621 -1.0370987517052008
0.3969802 -0.38436694453099557 -1.0405441851505162
0.3989801 -0.37908525315014574 -1.0431655055365623
0.40098 -0.37243937102174995 -1.045764283685689
0.4029799 -0.366433162499913 -1.0484339629399229
0.4049798 -0.35885170952079853 -1.0511033255570035
0.4069797 -0.35327261389793224 -1.052209743780738
0.4089796 -0.34693402068283574 -1.0555916961099845
0.4109795 -0.3402287437768809 -1.057650616039452
0.4129794 -0.33425547461932226 -1.0600372198294934
0.4149793 -0.32774317789744994 -1.0625585694386657
0.4169792 -0.32161550249584614 -1.0650032534679688
0.4189791 -0.3144534459546216 -1.0675711024245784
0.420979 -0.30815744152942337 -1.0694744028707728
0.4229789 -0.30172428437675325 -1.071848872130471
0.4249788 -0.2944423459793059 -1.0731567667374964
0.4269787 -0.2881939387466462 -1.0754803701925448
0.4289786 -0.2818634554183759 -1.0773151875104525
0.4309785 -0.27405048124756043 -1.0798464944572836
0.4329784 -0.26805223318925026 -1.0815191022611033
0.4349783 -0.26165360896411266 -1.0830904263767582
0.4369782 -0.25459491088694514 -1.0856706683080182
0.4389781 -0.24806446901641876 -1.0871050842999443
0.440978 -0.241268618380316 -1.088783127112404
0.4429779 -0.23605800799401142 -1.0898987174627257
0.4449778 -0.2284660662631034 -1.0925196204711838
0.4469777 -0.22276852305859404 -1.0948358451911815
0.4489776 -0.21542011007587264 -1.0952700893752818
0.4509775 -0.20811625083792037 -1.0961773305146012
0.4529774 -0.2017179908778426 -1.0973528550255742
0.4549773 -0.19462808033373374 -1.0996753814063311
0.4569772 -0.18746562047222817 -1.1011047413114567
0.4589771 -0.1806341230994453 -1.1025120921826348
0.460977 -0.17423392065668136 -1.1034605715565087
0.4629769 -0.16664995026390877 -1.1051063751945576
0.4649768 -0.16140769321946286 -1.1056602381412752
0.4669767 -0.15357103618080017 -1.1078794354588346
0.4689766 -0.1472891318006683 -1.1091661169569076
0.4709765 -0.14122200888287867 -1.1106546822802663
0.4729764 -0.13352976457230537 -1.1112737725819708
0.4749763 -0.12709151970974414 -1.11126737765491
0.4769762 -0.12072355664124454 -1.1122360296547182
0.4789761 -0.11302174503722887 -1.1139380815923208
0.480976 -0.10673811999635019 -1.1139439674094962
0.4829759 -0.09948108502748282 -1.1151073470661175
0.4849758 -0.09278148689511276 -1.1161701143127294
0.4869757 -0.08615194782750771 -1.1174036654070905
0.4889756 -0.0791951634305257 -1.1181796774895605
0.4909755 -0.07140140999681256 -1.1195373861523659
0.4929754 -0.06503964102296127 -1.1202212626020422
0.4949753 -0.057121843870502835 -1.1211770567206265
0.4969752 -0.050479458841204916 -1.1219093819130166
0.4989751 -0.04338693863289667 -1.1219368502976013
0.500975 -0.03649711198990159 -1.1231926849127092
0.5029749 -0.028916787254638993 -1.1240587859889921
0.5049748 -0.022147463839301815 -1.1245215496096002
0.5069747 -0.015150068912132074 -1.12445743714294
0.5089746 -0.008294114908929742 -1.125321143050071
0.5109745 -0.0007258698949928269 -1.125826842173666
0.5129744 0.005675884431661796 -1.1252944966710519
0.5149743 0.013220732270838885 -1.12578615341148
0.5169742 0.020187184266237217 -1.1266339660303526
0.5189741 0.02733375570046806 -1.1264256846232519
0.520974 0.03518550762951654 -1.1267719641715144
0.5229739 0.04157173686773871 -1.125270577167671
0.5249738 0.048606895806004094 -1.1256120217598642
0.5269737 0.05635327920854763 -1.125324688312306
0.5289736 0.06352952144968475 -1.1256603122096875
0.5309735 0.07122372402842733 -1.125125009881066
0.5329734 0.07776368292060423 -1.1244698193633114
0.5349733 0.08444913868165901 -1.123850249899228
0.5369732 0.09240187440036808 -1.1238090114292234
0.5389731 0.09912073700033242 -1.123462280669603
0.540973 0.10610230760966448 -1.124561525810824
0.5429729 0.11290572603780828 -1.1235950863037316
0.5449728 0.12011375329191258 -1.1229295776886732
0.5469727 0.1271647281054932 -1.1224840236551805
0.5489726 0.13406287149295026 -1.1220701757245743
0.5509725 0.14079070952303924 -1.1212364856841133
0.5529724 0.1484376025010154 -1.1203550869703567
0.5549723 0.1559786505665854 -1.1186173571503626
0.5569722 0.1620546643788781 -1.1190972206133587
0.5589721 0.17012186463271992 -1.1179812103688087
0.560972 0.17750482793151118 -1.1170297734677628
0.5629719 0.18404554484281194 -1.1166350799913725
0.5649718 0.19116456822901723 -1.115000234141363
0.5669717 0.19859013171794268 -1.1141783773728056
0.5689716 0.20551346911218138 -1.1135008577287646
0.5709715 0.21301165239355335 -1.1125048010714131
0.5729714 0.21998453502075682 -1.1120000437688058
0.5749713 0.22732776865164372 -1.1104633693188917
0.5769712 0.23357302863364554 -1.1104510096415736
0.5789711 0.2406706758692474 -1.1089730926926058
0.580971 0.24777159027111068 -1.107966781689119
0.5829709 0.25476034319876156 -1.1063503366922718
0.5849708 0.2627471577645745 -1.1043190171026889
0.5869707 0.2693718603158459 -1.1029546996452386
0.5889706 0.27640656879126735 -1.1021835383437655
0.5909705 0.2845598629254142 -1.0997213408633983
0.5929704 0.29108201222692365 -1.0983224368791749
0.5949703 0.2975154966289059 -1.0970490218160218
0.5969702 0.30522001291074125 -1.0952369689548371
0.5989701 0.31271666640987683 -1.0941029289121393
0.60097 0.3195287196613474 -1.0915398328256838
0.6029699 0.3267991379935015 -1.0897605440930738
0.6049698 0.3336917911522198 -1.088544417833115
0.6069697 0.34042873524311285 -1.0866569036743767
0.6089696 0.34777851071612714 -1.0842579677497057
0.6109695 0.35423754678985464 -1.0823184212593862
0.6129694 0.3614176572257076 -1.0801495991739167
0.6149693 0.3680260162616489 -1.0780957746564268
0.6169692 0.3755303946597555 -1.0762664745840425
0.6189691 0.38183055107028163 -1.0734409753789347
0.620969 0.3879086808261802 -1.0715504146674386
0.6229689 0.3961447513658035 -1.0687295126641398
0.6249688 0.40296737047162823 -1.0669846120336928
0.6269687 0.4100239139386129 -1.0641433194909453
0.6289686 0.4170904884416494 -1.0615932709254148
0.6309685 0.4247132278194144 -1.0595432164851248
0.6329684 0.43131677550145114 -1.057848102380234
0.6349683 0.43929107571307124 -1.0547443307753837
0.6369682 0.4450456597608611 -1.0533980352889099
0.6389681 0.4524087084529125 -1.0500446390421734
0.640968 0.459424523652175 -1.047152231294487
0.6429679 0.4658455623928714 -1.0452636747470654
0.6449678 0.4725405303836608 -1.0424114291932112
0.6469677 0.47923271066616246 -1.039727682996623
0.6489676 0.4864804971887128 -1.0361142043350138
0.6509675 0.4937456585750192 -1.0322803402822263
0.6529674 0.5007988611058889 -1.0297678003303536
0.6549673 0.5066105373379827 -1.027021988796033
0.6569672 0.5139587246851888 -1.0229427202029013
0.6589671 0.5205560064830869 -1.0198808520571823
0.660967 0.5271553005488734 -1.0174351098623657
0.6629669 0.534158953141827 -1.0134978292308638
0.6649668 0.5404623272517811 -1.011421749655498
0.6669667 0.5475770211377575 -1.0075287344398385
0.6689666 0.5549225565331396 -1.0033695288082667
0.6709665 0.5614807659315532 -1.0004701812305234
0.6729664 0.5673499022540178 -0.9983882562268245
0.6749663 0.57522615983669 -0.9943698702621814
0.6769662 0.5811359026391774 -0.9907376156161065
0.6789661 0.5886296518840308 -0.9874308984678812
0.680966 0.5954292732324724 -0.9837056982967729
0.6829659 0.6018385628556324 -0.9798675973937926
0.6849658 0.6076096829696045 -0.9761656599889323
0.6869657 0.6143984383944124 -0.9719477564810668
0.6889656 0.6205753147438784 -0.9685520314137706
0.6909655 0.6268698362556445 -0.9640053162080454
0.6929654 0.633412054006893 -0.9602789923825953
0.6949653 0.6397436179813313 -0.956003062572497
0.6969652 0.6462403911093187 -0.9517432394276919
0.6989651 0.6529148758159853 -0.9478507490352824
0.700965 0.6590013254077917 -0.9430692170604791
0.7029649 0.6651048240550532 -0.9383878124670199
0.7049648 0.6713985204066432 -0.9355958345562947
0.7069647 0.6780030346552285 -0.9306650875067065
0.7089646 0.6846696458812164 -0.9271187258403428
0.7109645 0.6902305840318012 -0.9225382819915222
0.7129644 0.6968769275698126 -0.9182263860172978
0.7149643 0.7024041375786592 -0.9142407934651502
0.7169642 0.708738974982615 -0.9088692827905043
0.7189641 0.7155875666212107 -0.9046919023822281
0.720964 0.7215267104576316 -0.9000515182947281
0.7229639 0.7270501466540726 -0.8950523642454021
0.7249638 0.7325711104598099 -0.8910356131908507
0.7269637 0.7392442810312918 -0.8868308865094238
0.7289636 0.7452175985108567 -0.8817390941946944
0.7309635 0.7507975582555511 -0.8771030208298537
0.7329634 0.7569083581123419 -0.8721647848563061
0.7349633 0.7634098615722432 -0.867873025491751
0.7369632 0.7690050031636452 -0.8621696236952755
0.7389631 0.7752159379635639 -0.8580465971976922
0.740963 0.7808429368284886 -0.8533569446183299
0.7429629 0.7872834354929797 -0.8491292108069285
0.7449628 0.7934829414900416 -0.8441667803296247
0.7469627 0.7990592399723553 -0.8384309995090403
0.7489626 0.8056329181917323 -0.8337185095337142
0.7509625 0.8106628146525409 -0.8284666109115439
0.7529624 0.8163088332562429 -0.8225712975438937
0.7549623 0.8217544166969057 -0.8174766368826106
0.7569622 0.8268716875407754 -0.8119145778361709
0.7589621 0.8329569354071361 -0.8059632414658559
0.760962 0.8380659137031184 -0.8004354184293219
0.7629619 0.8436623052694608 -0.7949063070743773
0.7649618 0.8487552080877074 -0.7898057103480786
0.7669617 0.854611154937864 -0.7832327093148365
0.7689616 0.8593870771599883 -0.7773888407531409
0.7709615 0.8646466696977843 -0.7722860796046798
0.7729614 0.8699639747076584 -0.7662577648620754
0.7749613 0.8760209984706033 -0.7616182505527136
0.7769612 0.8806683442350697 -0.7562953133423986
0.7789611 0.8864575882952996 -0.7496264350543203
0.780961 0.8910389750417135 -0.7442094720312001
0.7829609 0.8967092227809803 -0.7380135894776392
0.7849608 0.9019181151275515 -0.7330443664746487
0.7869607 0.9069792508211182 -0.7264608144361046
0.7889606 0.9117218465115797 -0.7201179316354935
0.7909605 0.9166451558783366 -0.7146139685945945
0.7929604 0.9212466362054991 -0.7081531043979081
0.7949603 0.9259002012923656 -0.7023119668184122
0.7969602 0.9306173969032737 -0.6958469015942472
0.7989601 0.9356996630120911 -0.6896841757074725
