! Created with skrf 1.8.0 (http://scikit-rf.org).
# GHz S RI R 50.0 
!freq ReS11 ImS11
0.001 -1.0020002716540883 -0.0042226395929227944
0.0029999 -0.9845331175700092 0.0018734845746907368
0.0049998 -0.877581529901457 0.03748696136836066
0.0069997 -0.6483808913860627 0.008796160588850233
0.0089996 -0.23483153904600784 0.0726698539397869
0.0109995 -0.0845552113682997 0.07764226300653733
0.0129994 -0.016008592558782626 0.03998302377971111
0.0149993 -0.04131302754944713 0.03544220689705573
0.0169992 -0.020148476049981743 0.02650543601530331
0.0189991 -0.014677569148246703 0.023858818859538822
0.020999 -0.012514955691381766 0.022544664548362413
0.0229989 -0.014929741754520281 0.02039900354152349
0.0249988 -0.015688402611577612 0.017573145231787976
0.0269987 -0.015578600934195962 0.016584176866609856
0.0289986 -0.015484937311576618 0.015180594572332362
0.0309985 -0.017326825975437207 0.013918208291417504
0.0329984 -0.017691213972680454 0.014473461741315006
0.0349983 -0.01854545003222226 0.01471970644673529
0.0369982 -0.016898835428883822 0.014730020778362485
0.0389981 -0.022089735685559306 0.016617404813536765
0.040998 -0.02150145118621205 0.013183620992022617
0.0429979 -0.020658850481903426 0.01565101569687336
0.0449978 -0.020076764888038452 0.015419238086789728
0.0469977 -0.023818560389021772 0.010768238485187692
0.0489976 -0.018967324588870085 0.015415767966320838
0.0509975 -0.0189236695355413 0.017198759984605006
0.0529974 -0.020717582984687143 0.019100640974134928
0.0549973 -0.017636760375046176 0.015586419065402628
0.0569972 -0.019864377133972117 0.015546550987644518
0.0589971 -0.022398080831735435 0.013579696238348728
0.060997 -0.020765181483573463 0.011242990741599566
0.0629969 -0.023535517788846515 0.016682884541905602
0.0649968 -0.0232267759924015 0.010931686994811528
0.0669967 -0.021107877096440863 0.013736723080734455
0.0689966 -0.021149233331616425 0.012194736798646074
0.0709965 -0.02598727760544795 0.01080091278841699
0.0729964 -0.020822680516537174 0.010694073202512241
0.0749963 -0.019960427056135283 0.009925906699299788
0.0769962 -0.021552771430480254 0.008062652823763288
0.0789961 -0.02012810568432623 0.009383388664887088
0.080996 -0.021181792837820054 0.007449563379251926
0.0829959 -0.020613790308929507 0.00910932013396595
0.0849958 -0.02055184579808517 0.008731213410038846
0.0869957 -0.020791636936029933 0.009693968131416238
0.0889956 -0.020052415041061564 0.007934114049803685
0.0909955 -0.019054623720797772 0.008817942475568177
0.0929954 -0.01838258320324523 0.0077362371455011875
0.0949953 -0.01874232757868388 0.00956509734533845
0.0969952 -0.018181200573053065 0.009533646218380161
0.0989951 -0.02010085073258395 0.009615572411642402
0.100995 -0.018420862966120034 0.008590474364043333
0.1029949 -0.018437669507180406 0.009160258332225436
0.1049948 -0.018388894233952992 0.009436050908289646
0.1069947 -0.017786747998958005 0.010605486236621685
0.1089946 -0.018446144907310485 0.011374012244943579
0.1109945 -0.018476134172340147 0.0113301493191359
0.1129944 -0.01943252728829755 0.0128031575245314
0.1149943 -0.018831603094437797 0.013475865513166372
0.1169942 -0.01903258381810098 0.01403632925698637
0.1189941 -0.020352414449903662 0.015048180525732435
0.120994 -0.020697749390983556 0.01494307038988392
0.1229939 -0.022638181784820986 0.015385088577594444
0.1249938 -0.022416448621355577 0.014583918969160066
0.1269937 -0.022436246832336297 0.015784883010690608
0.1289936 -0.023460104023580543 0.016044146753218705
0.1309935 -0.02502662861730429 0.015087523174628218
0.1329934 -0.02399188106498188 0.01545746554443363
0.1349933 -0.025783363665984077 0.015282899354818965
0.1369932 -0.024188335606566844 0.015518340681477834
0.1389931 -0.025667635024857662 0.014791923136941674
0.140993 -0.026010258087866542 0.014971599439503113
0.1429929 -0.024554663271959723 0.014935629947771263
0.1449928 -0.026253528038768226 0.01455140469299076
0.1469927 -0.027433930865154398 0.015256607605899131
0.1489926 -0.025288785801832463 0.014132348849287022
0.1509925 -0.026622946596907615 0.014658296600350501
0.1529924 -0.027234214942272357 0.012898055567438197
0.1549923 -0.02633489376492127 0.013813197930381639
0.1569922 -0.027191462313998403 0.014345091619813748
0.1589921 -0.026456870063952812 0.014094143017299825
0.160992 -0.027528677791966945 0.013281029734240571
0.1629919 -0.02621700034719704 0.013878256440116685
0.1649918 -0.025840631406384623 0.01383959011757551
0.1669917 -0.026183115932586737 0.013654632641434171
0.1689916 -0.026636023153764496 0.013781210929037092
0.1709915 -0.025611365086629662 0.014101662931880952
0.1729914 -0.02610933048337885 0.014293448816905342
0.1749913 -0.02704479900993635 0.014912010883497934
0.1769912 -0.02699379785045834 0.015098811254149497
0.1789911 -0.026230955776771932 0.014677930743044635
0.180991 -0.026279261906414473 0.014817319970000891
0.1829909 -0.026937506312144106 0.015634542263085645
0.1849908 -0.02722197190292323 0.015671363373328893
0.1869907 -0.02736416616647782 0.015998732046522232
0.1889906 -0.02733616356145766 0.015309736185974367
0.1909905 -0.028363029770317606 0.01644249337202622
0.1929904 -0.028583137718645922 0.016534241216003998
0.1949903 -0.027579973963314873 0.016650491812636177
0.1969902 -0.028306353443950258 0.016109759797329776
0.1989901 -0.028731547150404962 0.016669687588705184
0.20099 -0.029042692431370344 0.016334437412126673
0.2029899 -0.02917875498304938 0.017071425392334867
0.2049898 -0.02923781078671775 0.01761241012673472
0.2069897 -0.02976624525833898 0.017324476156754757
0.2089896 -0.03024820162729118 0.017300442276338333
0.2109895 -0.030682939321489223 0.01701063858106163
0.2129894 -0.030674578696921098 0.017350878829008896
0.2149893 -0.03078854042040656 0.017433680270685606
0.2169892 -0.03151762728858082 0.017276148375129245
0.2189891 -0.03095338354759533 0.016584215685302394
0.220989 -0.031313952822857906 0.01808930706838352
0.2229889 -0.03177532473912849 0.01838740684358887
0.2249888 -0.0318047545533067 0.017866896479325548
0.2269887 -0.032254198612762276 0.01753725634651012
0.2289886 -0.03249598521119791 0.01709918012022342
0.2309885 -0.03250794583332121 0.017763897483831708
0.2329884 -0.03267905552476538 0.017909913022824513
0.2349883 -0.03294564002728309 0.017398868101315752
0.2369882 -0.03370447326515935 0.017344783390002713
0.2389881 -0.03279271804052844 0.01742254309809993
0.240988 -0.03390745844889964 0.018096385180384637
0.2429879 -0.03382483391884601 0.01798518551733954
0.2449878 -0.033979794227488605 0.01732580173617239
0.2469877 -0.03432471932053434 0.017098335499517517
0.2489876 -0.03434069779684617 0.017332196192239843
0.2509875 -0.034349211019379 0.017697361517991506
0.2529874 -0.034011197877485126 0.016832508515888453
0.2549873 -0.03426222613632045 0.016530335932746967
0.2569872 -0.034302470410631586 0.017097656232247023
0.2589871 -0.034553426924526426 0.01723928890076583
0.260987 -0.034233388023351845 0.016736504510954826
0.2629869 -0.03416271137599639 0.017029669988781554
0.2649868 -0.034249295113870676 0.01737744533987419
0.2669867 -0.03443627583217636 0.017175952740904953
0.2689866 -0.034706949247560806 0.01744604084462799
0.2709865 -0.03439071368310727 0.017809719039014252
0.2729864 -0.03403952656275876 0.01774802764411018
0.2749863 -0.03409296070717584 0.01761531785083873
0.2769862 -0.034149613240353316 0.018069980954846236
0.2789861 -0.033996721767077305 0.019180785622730984
0.280986 -0.034399000398461776 0.01951422936971712
0.2829859 -0.034467702061726724 0.01967346045552969
0.2849858 -0.03485975452187684 0.019964611573785575
0.2869857 -0.035159874368645455 0.020687659860302292
0.2889856 -0.03555139724862845 0.02120786471440103
0.2909855 -0.035360069524357024 0.021130807636174163
0.2929854 -0.03608282459228617 0.021204804679088838
0.2949853 -0.03634353030725179 0.021995904599945184
0.2969852 -0.037185307616728336 0.022672092995896453
0.2989851 -0.03806864809396568 0.023048190741375353
0.300985 -0.0383769442596166 0.022615836094486953
0.3029849 -0.039211657373608336 0.022767066348268944
0.3049848 -0.039614585653754406 0.023199951891605654
0.3069847 -0.04080687980825448 0.023582606918684933
0.3089846 -0.04146831344463473 0.023661866362182163
0.3109845 -0.042082602345489425 0.022821014601667716
0.3129844 -0.04287103736539098 0.02244339234141228
0.3149843 -0.04300577735622187 0.022505385247891016
0.3169842 -0.04398515963977811 0.023168880828722743
0.3189841 -0.04512623209811906 0.022348207452741416
0.320984 -0.0456738003884587 0.021491802096154734
0.3229839 -0.04605169726857231 0.02169561386476021
0.3249838 -0.04651979545323223 0.021467488771963715
0.3269837 -0.04687410669403101 0.021604485103699243
0.3289836 -0.04706617527040325 0.02058682154299226
0.3309835 -0.04786393108430507 0.02059336601738752
0.3329834 -0.04753637758634745 0.020113651576790362
0.3349833 -0.047653236955862974 0.019580401806916056
0.3369832 -0.047516626544561666 0.01893201711407175
0.3389831 -0.047024960088409534 0.018204466196848994
0.340983 -0.04670123701886289 0.01761538425611986
0.3429829 -0.046622560287542365 0.01783708865762752
0.3449828 -0.04593895146016958 0.01752015831127469
0.3469827 -0.045959606821608275 0.017149545818030545
0.3489826 -0.04566536599038443 0.017327355951700152
0.3509825 -0.04560294356226698 0.016785528098108585
0.3529824 -0.04509600682986327 0.016888203046789695
0.3549823 -0.044601164947678865 0.017092875430726538
0.3569822 -0.044693116575643344 0.01749455692692714
0.3589821 -0.04460057920945555 0.017747356875659565
0.360982 -0.04426248478182736 0.01801399273125873
0.3629819 -0.04426560325513913 0.018301658584422897
0.3649818 -0.04417577348881668 0.018833195451127036
0.3669817 -0.04452970983645546 0.019673374587902387
0.3689816 -0.0447743770918122 0.019833709647838635
0.3709815 -0.04504311823442855 0.019922357059450023
0.3729814 -0.04540424980077687 0.02029735562704201
0.3749813 -0.04551651106900798 0.020937806809221478
0.3769812 -0.046625128123535614 0.021362982792511365
0.3789811 -0.04724868046115585 0.020891815909851154
0.380981 -0.047853847484771075 0.02139873519237677
0.3829809 -0.04854436790079855 0.021217523905610467
0.3849808 -0.048944260641683376 0.022115400379787254
0.3869807 -0.049815061606264546 0.02181149722298661
0.3889806 -0.050346731597809086 0.021507783526260243
0.3909805 -0.05065098477680821 0.02154391722577852
0.3929804 -0.051630288865772596 0.02128277864003067
0.3949803 -0.051949954642512924 0.021280177618511704
0.3969802 -0.052530059744811605 0.020943352560943065
0.3989801 -0.05310397774372787 0.020164425622649317
0.40098 -0.053411320822593984 0.019753066446690726
0.4029799 -0.05344316069147305 0.019043111607330958
0.4049798 -0.05369231946560932 0.018685838301562355
0.4069797 -0.05393888775878011 0.01867483559029644
0.4089796 -0.053942372075453146 0.018167536050676017
0.4109795 -0.0539918088400783 0.017925178537686482
0.4129794 -0.05386494883452239 0.01721578234571524
0.4149793 -0.053776163921141776 0.0168209673981856
0.4169792 -0.05375526488637759 0.016534593423533847
0.4189791 -0.053498707184774986 0.016356312101513563
0.420979 -0.05361903524544581 0.016519633049210284
0.4229789 -0.05311044872320042 0.01614609063898796
0.4249788 -0.053276435270315475 0.016341005633962045
0.4269787 -0.053068251386428476 0.016418948587563795
0.4289786 -0.05295021693101492 0.016710039838213394
0.4309785 -0.053071097390691095 0.01701192816428102
0.4329784 -0.053062549011617645 0.01723127729988244
0.4349783 -0.05358196912304085 0.017165203314995957
0.4369782 -0.05347882942867693 0.017558766528364043
0.4389781 -0.05372325573078993 0.017718311009793028
0.440978 -0.05398109757069721 0.018125487888759523
0.4429779 -0.05487189854592016 0.01837764940500028
0.4449778 -0.05510693704802121 0.018688554236712323
0.4469777 -0.05584614201418908 0.01859719443706014
0.4489776 -0.056441736209395 0.018724795176827652
0.4509775 -0.056614744022542914 0.019108247239932673
0.4529774 -0.05776898933160646 0.019305500262072967
0.4549773 -0.057974164019828175 0.0186856141978615
0.4569772 -0.058740114300468334 0.0187149969994141
0.4589771 -0.05959799429014098 0.018404316389170228
0.460977 -0.060192752035771055 0.018105534603760808
0.4629769 -0.060444382591579665 0.017457129160045055
0.4649768 -0.061328710281681756 0.017157505754642016
0.4669767 -0.061452358658207196 0.016562880253511443
0.4689766 -0.061966610887916815 0.015895472906595043
0.4709765 -0.06212732490889314 0.01510131015352741
0.4729764 -0.06231928474386141 0.014594943632894056
0.4749763 -0.06250157609663012 0.01423235012360689
0.4769762 -0.06269111353354262 0.013929441113000332
0.4789761 -0.06243202973794771 0.013179522842051785
0.480976 -0.06253107484214776 0.012704308473458922
0.4829759 -0.0624075078005655 0.012085869589767134
0.4849758 -0.06243559899049648 0.011878704557164162
0.4869757 -0.06209790207589746 0.011523924157921476
0.4889756 -0.06188517668344355 0.010997330727187178
0.4909755 -0.061265034798658524 0.01087435450218125
0.4929754 -0.06104176262245846 0.011071364321957256
0.4949753 -0.06080405839877594 0.010901879813949172
0.4969752 -0.060595505813142055 0.011183125584772295
0.4989751 -0.060490766597928645 0.011331143471347147
0.500975 -0.060466144229482335 0.01167801195942528
0.5029749 -0.06036352757180993 0.011628579216369898
0.5049748 -0.060604519201639284 0.011923526395975673
0.5069747 -0.06099076374524103 0.012312135536112156
0.5089746 -0.06120450185920016 0.012360283703843844
0.5109745 -0.061087027344241346 0.012247579251824937
0.5129744 -0.061634202767363686 0.012965451918825956
0.5149743 -0.061698878272067076 0.013670081180920866
0.5169742 -0.062199816411975375 0.013583739760210996
0.5189741 -0.06317368856741909 0.013701006135906277
0.520974 -0.06358853739537022 0.0133405190073447
0.5229739 -0.06434714774519967 0.013338574253521664
0.5249738 -0.06505153001246304 0.013746689969533037
0.5269737 -0.06549848883693564 0.013297375577587204
0.5289736 -0.06629463741010849 0.013087370694633827
0.5309735 -0.0667942816440106 0.012672059200156252
0.5329734 -0.0675329910264974 0.012812582683134534
0.5349733 -0.06830916339087592 0.012592185654838436
0.5369732 -0.06867827385230459 0.011837913928690231
0.5389731 -0.06911385661306634 0.01130171569313014
0.540973 -0.06980769536690687 0.010200550744589115
0.5429729 -0.06989480926210583 0.009904258055407445
0.5449728 -0.07056785760388337 0.009136079190303199
0.5469727 -0.07057549295300149 0.008550547095087926
0.5489726 -0.07055230884066747 0.007715503743520417
0.5509725 -0.07070639926909879 0.007464727148754794
0.5529724 -0.07067055978114622 0.007012263922518719
0.5549723 -0.07068430108804818 0.006449365697608511
0.5569722 -0.0704450813602551 0.005840224318427144
0.5589721 -0.07021351796137884 0.0054640526392296974
0.560972 -0.06983567408568916 0.0054013967075019036
0.5629719 -0.06930996294376181 0.0051349423195975845
0.5649718 -0.06919023716104493 0.004852678651811982
0.5669717 -0.06874171071454607 0.0047544612511814174
0.5689716 -0.06869983822238787 0.0047165834516436425
0.5709715 -0.06857981441536688 0.00513500040654543
0.5729714 -0.06860558390625222 0.0049339161873315045
0.5749713 -0.06860047703312895 0.005141542578597138
0.5769712 -0.06895051131943664 0.004713216439704994
0.5789711 -0.06892822305787596 0.005148293536692758
0.580971 -0.0689369247372297 0.00525540319116375
0.5829709 -0.06895012865980912 0.0057733353963898
0.5849708 -0.06965375994677546 0.005931119675528958
0.5869707 -0.0700332009869278 0.006238570747290936
0.5889706 -0.07031248844264083 0.00585294471797335
0.5909705 -0.07124556322321907 0.0057930563549460565
0.5929704 -0.0720025491786635 0.005716732676990771
0.5949703 -0.07232445972883335 0.005540294915185949
0.5969702 -0.07288093180638164 0.005243137657748979
0.5989701 -0.07374637691510477 0.004712829968610565
0.60097 -0.07392749749400682 0.004730208194888345
0.6029699 -0.07460970364498029 0.004132321562538448
0.6049698 -0.0751104759414365 0.0035274750917429765
0.6069697 -0.07529791088577449 0.002754714386016474
0.6089696 -0.07571306186658745 0.002399153607028845
0.6109695 -0.07608618365313143 0.001719641573254535
0.6129694 -0.07632688946832959 0.0009780395594341934
0.6149693 -0.07630216405070789 0.00016642980337897711
0.6169692 -0.0763999384673135 -0.0005396749166784523
0.6189691 -0.07628963316275492 -0.0010689584825126566
0.620969 -0.07648273537787242 -0.0015409519302505281
0.6229689 -0.07608423350834997 -0.0022363604016650274
0.6249688 -0.07585037664463334 -0.00267449608570898
0.6269687 -0.07546929848411105 -0.0033014646234736794
0.6289686 -0.0751704423497581 -0.0032947187998215582
0.6309685 -0.07440691442854419 -0.003649879758853329
0.6329684 -0.07448650797590677 -0.003758752189986378
0.6349683 -0.07407083350228705 -0.003609008162187323
0.6369682 -0.07437376360143533 -0.004069143987226763
0.6389681 -0.07393877891858058 -0.003986305158501714
0.640968 -0.0735532158146166 -0.004102503537145894
0.6429679 -0.07370886264588052 -0.003871861604561981
0.6449678 -0.07368470014575582 -0.0035532005077348605
0.6469677 -0.0738706998771885 -0.0033077522301130334
0.6489676 -0.07427835963140908 -0.002904346173670802
0.6509675 -0.0744156789773121 -0.002430114848127607
0.6529674 -0.0751587227421403 -0.0023498547809066017
0.6549673 -0.07504676693158642 -0.0020397827773357066
0.6569672 -0.07587428062073917 -0.0018903625333925728
0.6589671 -0.07634487939616069 -0.0016665160215160665
0.660967 -0.07709911216716055 -0.0018250170122278211
0.6629669 -0.07782468967711333 -0.0019872841938595384
0.6649668 -0.07855155899814215 -0.0020889750265640147
0.6669667 -0.07950324206638056 -0.0025246662396352787
0.6689666 -0.08009971477470665 -0.0028932499945067136
0.6709665 -0.0806245311455337 -0.0037077196811546656
0.6729664 -0.08141827451852422 -0.004333985368990136
0.6749663 -0.08196787238865055 -0.005236983910765172
0.6769662 -0.0825147189723357 -0.005917050218851437
0.6789661 -0.08312002453867343 -0.0071238492479867715
0.680966 -0.0833625264677029 -0.007860787266892433
0.6829659 -0.08348480071342852 -0.008906681240595932
0.6849658 -0.08375787874882937 -0.009645005424123554
0.6869657 -0.08330724758266023 -0.010675688550451357
0.6889656 -0.08327631060327709 -0.011243498563144192
0.6909655 -0.08304053541567528 -0.011975479139520313
0.6929654 -0.0827341987123568 -0.012770475980921164
0.6949653 -0.08249765568942212 -0.013408833291931706
0.6969652 -0.08203174701088724 -0.014092470416727804
0.6989651 -0.08159138831001515 -0.014453814465334815
0.700965 -0.08130423267064339 -0.014879164629229231
0.7029649 -0.08073448971858486 -0.015206309550007253
0.7049648 -0.08039192899295879 -0.015649345026403964
0.7069647 -0.08000766051828295 -0.015529257691592312
0.7089646 -0.07903070415478278 -0.01568697790250558
0.7109645 -0.07903858125373599 -0.015326251449603527
0.7129644 -0.07900980691938869 -0.015101130247998008
0.7149643 -0.07908463860843859 -0.014854104490130433
0.7169642 -0.07916027200931401 -0.014553926277408858
0.7189641 -0.0793844034622024 -0.014397865398060646
0.720964 -0.07965695691207546 -0.014250590607798277
0.7229639 -0.0800192912899 -0.013976629330370506
0.7249638 -0.07991475222393164 -0.013797529919217243
0.7269637 -0.08051569806453311 -0.013684184956458751
0.7289636 -0.08107561203003913 -0.013569051928912706
0.7309635 -0.08161720426698263 -0.013591774555316335
0.7329634 -0.0822074479680526 -0.013820646773385778
0.7349633 -0.08306684199597128 -0.01435613626257964
0.7369632 -0.083649311517952 -0.014325870270976024
0.7389631 -0.0846012848633188 -0.015095148800347402
0.740963 -0.08551342158519462 -0.015735399239219877
0.7429629 -0.08553457023047316 -0.01655044979010162
0.7449628 -0.08616746962772717 -0.017772308595107783
0.7469627 -0.08649667277711831 -0.01854160961165509
0.7489626 -0.08673871362998559 -0.01959452700383202
0.7509625 -0.08710675892978081 -0.020416033749807175
0.7529624 -0.08735737659629009 -0.021067501460211458
0.7549623 -0.08723473075397103 -0.022074789596544214
0.7569622 -0.0871661794373168 -0.02289824345681486
0.7589621 -0.08685875936241595 -0.024100071860755204
0.760962 -0.0865732873524183 -0.02481084412223699
