! Created with skrf 1.8.0 (http://scikit-rf.org).
# GHz S RI R 50.0 
!freq ReS11 ImS11
0.001 -0.9984953676015588 0.001525151876814762
0.0029999 -1.0210998621002818 -0.02766957761889427
0.0049998 -0.8923211628641926 -0.08115712814613682
0.0069997 -0.5866669738554177 -0.05200769746952081
0.0089996 -0.15534018113451054 0.012352412712390624
0.0109995 -0.11140419925376528 0.026032767927837742
0.0129994 -0.08548106226593215 0.025437685196896858
0.0149993 -0.05767463111930136 0.03076407107903906
0.0169992 -0.058254592758209725 0.015922702476529372
0.0189991 -0.04765727865251712 0.02573637674988713
0.020999 -0.03938691670015034 0.026987241016296674
0.0229989 -0.03267072479807511 0.024624017673076756
0.0249988 -0.030838927695546553 0.02474113127856242
0.0269987 -0.02582568714160357 0.024854386095498508
0.0289986 -0.02317199145073434 0.024065444290019906
0.0309985 -0.02189539820644316 0.022150963533726867
0.0329984 -0.019198517461777413 0.023557935523997445
0.0349983 -0.019477908712857643 0.023564217837234367
0.0369982 -0.014676916619764837 0.024119865575784088
0.0389981 -0.018893123923205885 0.025126208135774583
0.040998 -0.01954236095948523 0.021703584852654795
0.0429979 -0.019141757776984403 0.02247834945456408
0.0449978 -0.01646326782971119 0.022755637250072534
0.0469977 -0.02104156844423095 0.019836211665830522
0.0489976 -0.017048980385373284 0.023212408681906143
0.0509975 -0.018643840686388653 0.023253041994984555
0.0529974 -0.01865496016544811 0.02415667914498939
0.0549973 -0.02636762333858973 0.022633432151062467
0.0569972 -0.022010544794226487 0.02139542728796306
0.0589971 -0.024863910694003205 0.019499527634147452
0.060997 -0.02199215920862297 0.018077868246967062
0.0629969 -0.025784213193767856 0.02258101939264462
0.0649968 -0.026439646749381814 0.01722836886838081
0.0669967 -0.02475469328456819 0.01809676547504818
0.0689966 -0.023879469968573194 0.015816734840632472
0.0709965 -0.029273299791432277 0.015736815982605096
0.0729964 -0.0247568636222619 0.015580547297623105
0.0749963 -0.024363454173064382 0.014693216998450321
0.0769962 -0.025442811663389946 0.011465548891816287
0.0789961 -0.02361919592810265 0.013836393787065148
0.080996 -0.024577621213690913 0.012149555649299208
0.0829959 -0.023635195422335258 0.01237212031701858
0.0849958 -0.024410728963499294 0.013603755907056102
0.0869957 -0.025100875104633043 0.014246533915129634
0.0889956 -0.02401462003444787 0.012833102608095281
0.0909955 -0.02222772825656033 0.013453814064050794
0.0929954 -0.02240025309754327 0.013347281795718268
0.0949953 -0.02177426517044733 0.01391956592350104
0.0969952 -0.021623407716803607 0.015331484043110542
0.0989951 -0.022568144440961075 0.014802979322089804
0.100995 -0.02045071163745751 0.014049349162314123
0.1029949 -0.019952012177909144 0.014076715171031205
0.1049948 -0.019979169732543742 0.014465093296031666
0.1069947 -0.01982309116615201 0.01520729232968171
0.1089946 -0.019431632326759422 0.01593024877549242
0.1109945 -0.019969075232118955 0.016845923877644664
0.1129944 -0.02015446967021177 0.017645701459092368
0.1149943 -0.020102251941644854 0.01839047938470833
0.1169942 -0.0196744482293922 0.018637778804337625
0.1189941 -0.02108598719698366 0.019754958088027783
0.120994 -0.021183305596914892 0.01966136590254842
0.1229939 -0.023525862484475732 0.01976038039683603
0.1249938 -0.022122372195196447 0.018785809656608744
0.1269937 -0.02202138254485645 0.01958444667281568
0.1289936 -0.02361914563900406 0.02008665352403255
0.1309935 -0.024353044090830483 0.02010433305643383
0.1329934 -0.02435262475937604 0.02003123716502332
0.1349933 -0.02441542236841629 0.019183629741480593
0.1369932 -0.02668920383131496 0.019277212773537892
0.1389931 -0.026147955630040562 0.018893701228357596
0.140993 -0.027911259648550152 0.017983208693937786
0.1429929 -0.0263299760309799 0.01856927317904827
0.1449928 -0.027345659414734068 0.018469497659438575
0.1469927 -0.025825825507441513 0.018622312870032156
0.1489926 -0.026925747661660043 0.01802399329948371
0.1509925 -0.027985057908633745 0.017960892450442217
0.1529924 -0.027238113112217733 0.016353784687207218
0.1549923 -0.027738644039062538 0.017505809868842138
0.1569922 -0.028649608034549905 0.01797469790564709
0.1589921 -0.027482499974995717 0.017130916492192425
0.160992 -0.0283365403338701 0.01720281362575833
0.1629919 -0.027831910291766085 0.017186112113508286
0.1649918 -0.027038786029562358 0.017781666309808833
0.1669917 -0.028490602382986407 0.01816485044680867
0.1689916 -0.02759377863051103 0.01785234099793744
0.1709915 -0.02684637445255302 0.01820938810619674
0.1729914 -0.02715610066767261 0.018361958269960114
0.1749913 -0.027814936195176374 0.01928553835150199
0.1769912 -0.027360764746338403 0.018633948920780526
0.1789911 -0.027084490346269235 0.0191638031101099
0.180991 -0.027119463458144217 0.018923980709437963
0.1829909 -0.027578538237363948 0.019937374343872914
0.1849908 -0.02775191362577943 0.02002329130009496
0.1869907 -0.027496828576174748 0.020489275822126493
0.1889906 -0.027920223954251623 0.01993831157203462
0.1909905 -0.028541002299926285 0.020909003641244484
0.1929904 -0.02875351254899057 0.021287035549038776
0.1949903 -0.028409188975293962 0.021113502944741014
0.1969902 -0.028484248543731404 0.02106331715722902
0.1989901 -0.029824879980124355 0.021328045825727667
0.20099 -0.02905475880564229 0.021257951784499754
0.2029899 -0.029371650377937625 0.021716944055272663
0.2049898 -0.029238032603610697 0.02266015707003246
0.2069897 -0.030673317641393708 0.022181215201062306
0.2089896 -0.03018724412990077 0.021571654953907893
0.2109895 -0.03136905273399103 0.021739193045544666
0.2129894 -0.03127646272968427 0.02188524920101913
0.2149893 -0.031208908640493773 0.021307366805595293
0.2169892 -0.031993497333458 0.021881101841243183
0.2189891 -0.031890562345323926 0.0213274215420075
0.220989 -0.03240694597161282 0.022096911916406378
0.2229889 -0.031964391715879614 0.022567572397763604
0.2249888 -0.03278661550145501 0.021883096839345643
0.2269887 -0.03302677205046315 0.021771131545786568
0.2289886 -0.03352652339321233 0.021272008415265786
0.2309885 -0.032876129449931075 0.02194500493770273
0.2329884 -0.034061648495906316 0.02221617968456474
0.2349883 -0.03399940838545949 0.021715140998440647
0.2369882 -0.03441443446954861 0.021404292271484993
0.2389881 -0.03352496414816316 0.021679496931833693
0.240988 -0.03455550965662994 0.02228314321127754
0.2429879 -0.03457398490782866 0.02209051504051683
0.2449878 -0.03485911935431563 0.0215480651207648
0.2469877 -0.03537098392175505 0.021579212218577833
0.2489876 -0.03508960512081152 0.0215270610249094
0.2509875 -0.0348942743973243 0.02185654709203942
0.2529874 -0.03488750441488134 0.021456197644134277
0.2549873 -0.034793536175012976 0.021226999659020113
0.2569872 -0.03537260703744588 0.021566672328587395
0.2589871 -0.03531993488414671 0.02213271130648748
0.260987 -0.03477721978189751 0.02157781757699135
0.2629869 -0.0350815276065537 0.02184973092902936
0.2649868 -0.035135464214169236 0.021898950915413468
0.2669867 -0.034928861955154544 0.022462571906351682
0.2689866 -0.03511261337276387 0.022644963665715258
0.2709865 -0.03475522211143991 0.02280656175379692
0.2729864 -0.03479781055769095 0.023145752837943782
0.2749863 -0.0352084876939567 0.023213367523908266
0.2769862 -0.03499635479978347 0.023622494216671487
0.2789861 -0.034656530535881525 0.024514463280322488
0.280986 -0.03558859054244251 0.024872629546309394
0.2829859 -0.03512458614471005 0.025082887093120183
0.2849858 -0.03584209993353524 0.025418219243763848
0.2869857 -0.03617917675813721 0.026014731625208586
0.2889856 -0.03639110356377601 0.02682756377727135
0.2909855 -0.0370286504561836 0.026369593577975213
0.2929854 -0.037238643154868856 0.026422485160393895
0.2949853 -0.03746400739732842 0.02738022205638104
0.2969852 -0.03837112329228101 0.02782007437148784
0.2989851 -0.03904485312460885 0.028369907023595112
0.300985 -0.039822162489482726 0.02781473654014459
0.3029849 -0.04051087386203583 0.027875745131374828
0.3049848 -0.04100880508251617 0.028212970712826083
0.3069847 -0.042333078373524916 0.028695832575529663
0.3089846 -0.043165456635817064 0.02858904016333563
0.3109845 -0.0438716144156447 0.02773961233442581
0.3129844 -0.04444176615199551 0.02730123205506828
0.3149843 -0.04496692771448042 0.027465395382907896
0.3169842 -0.045597556872285096 0.027790637157759264
0.3189841 -0.04636387012928812 0.026851879609126293
0.320984 -0.04720653008236969 0.02643000723025593
0.3229839 -0.04791141269492426 0.026467786693591976
0.3249838 -0.04772917509048631 0.02632543783789735
0.3269837 -0.047839785068741925 0.026183020225736903
0.3289836 -0.048361558637472754 0.02552793884939361
0.3309835 -0.048947173966004544 0.02521917009650471
0.3329834 -0.049178645481414276 0.024999986109199304
0.3349833 -0.04880614378631315 0.024350910730569584
0.3369832 -0.048548667300619755 0.023559082151303895
0.3389831 -0.048646624611597605 0.023072544386748255
0.340983 -0.04823595426283124 0.022675790538867008
0.3429829 -0.047790210720027156 0.022875935293741014
0.3449828 -0.04778267838945004 0.022625585743382897
0.3469827 -0.04714957899787123 0.02283138988515646
0.3489826 -0.047010214546903475 0.02302180671939058
0.3509825 -0.046779015064596204 0.022735847997161412
0.3529824 -0.04605910403882241 0.02272501533431959
0.3549823 -0.04597466073749154 0.023052669018917234
0.3569822 -0.04596079286447245 0.02358337495662816
0.3589821 -0.045688083984682146 0.024038722469699732
0.360982 -0.045253134360707936 0.024204857692428083
0.3629819 -0.04574005437896886 0.02473461944757198
0.3649818 -0.04569188457654248 0.02510216063783774
0.3669817 -0.04615669141744015 0.025617977785411472
0.3689816 -0.046475012473797976 0.02571617006184098
0.3709815 -0.04675434725826428 0.026124389957629154
0.3729814 -0.04711826436244565 0.02627883679924201
0.3749813 -0.04748237047676211 0.027272262787644212
0.3769812 -0.04802385911884923 0.027553399761470317
0.3789811 -0.04868524685980542 0.027291624755162704
0.380981 -0.04978100845780742 0.027424492510025524
0.3829809 -0.050270525779971084 0.027353206121701064
0.3849808 -0.05040088145670514 0.028150845444026882
0.3869807 -0.05169441445269124 0.02784996209064955
0.3889806 -0.05234015456520802 0.02768548676047982
0.3909805 -0.05286277466223014 0.027437797940061938
0.3929804 -0.053817652566928484 0.02724808447142522
0.3949803 -0.05374411727432758 0.02709244430416165
0.3969802 -0.05461201849925691 0.026581939369189244
0.3989801 -0.05481536257534615 0.025891734631067368
0.40098 -0.05561934791053691 0.025724038877293447
0.4029799 -0.05546992373710155 0.025071840353106938
0.4049798 -0.05560926302622558 0.024718127253287227
0.4069797 -0.05607144419910275 0.024687746202665083
0.4089796 -0.05604855333564042 0.02405145824477715
0.4109795 -0.05593369519846132 0.02379859257762404
0.4129794 -0.05564557046008668 0.023439657946091663
0.4149793 -0.05604304941679525 0.023087900773092432
0.4169792 -0.05564096645330376 0.02269810641621274
0.4189791 -0.055307908101428466 0.022692965663995996
0.420979 -0.05519940856991448 0.022666015564101624
0.4229789 -0.05535029940086906 0.022685289719875053
0.4249788 -0.054925315118275295 0.022994293923444764
0.4269787 -0.054954493374963616 0.023027638919094033
0.4289786 -0.054699549136553394 0.023398317525821697
0.4309785 -0.054598243681863265 0.023530438728846182
0.4329784 -0.05510798060702131 0.0239237227981851
0.4349783 -0.0554333057555073 0.02424859055615807
0.4369782 -0.05557026128645695 0.024271449789008855
0.4389781 -0.05585713372973853 0.02451272438919601
0.440978 -0.056434152165397225 0.02498733440477466
0.4429779 -0.05702306556878037 0.025489539418764397
0.4449778 -0.057544629024803964 0.025507722341152714
0.4469777 -0.05804437661812713 0.02549422912103311
0.4489776 -0.05881556123440862 0.025947095931322366
0.4509775 -0.05931447953654065 0.02617105049423166
0.4529774 -0.060165793829923944 0.026318711632245955
0.4549773 -0.06065411990352915 0.02587312900585683
0.4569772 -0.06140342616866953 0.02574688473918703
0.4589771 -0.06211183577899866 0.025673127822957467
0.460977 -0.06287868870798811 0.025034359342471644
0.4629769 -0.06305335466673725 0.0245105875627984
0.4649768 -0.06389893801232283 0.024151795503063126
0.4669767 -0.06427836043858089 0.02346013396904494
0.4689766 -0.0646556618756436 0.022835729337835307
0.4709765 -0.06521100714853846 0.022247207560666307
0.4729764 -0.06514360282178354 0.0215592005958911
0.4749763 -0.06538672550157662 0.021593403649058745
0.4769762 -0.0654532322984546 0.02106791854299854
0.4789761 -0.06538753914958836 0.020342188908890096
0.480976 -0.06521634844608325 0.020025028288616287
0.4829759 -0.06536203166581975 0.019212049309352393
0.4849758 -0.06540534559908372 0.019244447747042676
0.4869757 -0.06497864274004309 0.018799480836757924
0.4889756 -0.06482855769643653 0.018521734259334687
0.4909755 -0.06411164882117228 0.018269334567670794
0.4929754 -0.06415305352579995 0.01863850454690307
0.4949753 -0.06372958611293064 0.01846895609826529
0.4969752 -0.06357428037380222 0.01861186059250806
0.4989751 -0.06341668814945585 0.01895394946569977
0.500975 -0.06354228661042227 0.019206207639525696
0.5029749 -0.06348477305546343 0.01929830722520259
0.5049748 -0.06366555404985916 0.0197787783120153
0.5069747 -0.06402530573016489 0.02025631409303964
0.5089746 -0.0643183046906613 0.020389573069770604
0.5109745 -0.06420332185100236 0.020193991805309394
0.5129744 -0.06483792780545221 0.02091623509772275
0.5149743 -0.06508411175302473 0.02156477720063646
0.5169742 -0.06575744047654675 0.02151367964675755
0.5189741 -0.06655338969766567 0.02164713356324062
0.520974 -0.06683338260320995 0.021303919509434017
0.5229739 -0.06772508708222914 0.021394773875204522
0.5249738 -0.06829600554168325 0.021672643034446153
0.5269737 -0.06898756719355764 0.02133810980039449
0.5289736 -0.06976780877897137 0.021130626328165238
0.5309735 -0.07032172396355782 0.020738706385922217
0.5329734 -0.07110703794720534 0.020740542465946483
0.5349733 -0.07182588977885485 0.020553875706903143
0.5369732 -0.07223129196927652 0.019874937757135735
0.5389731 -0.07279688093474429 0.019395571439296717
0.540973 -0.07376643223579218 0.01838259321438827
0.5429729 -0.07380476438207399 0.018045298109047092
0.5449728 -0.07432166236155119 0.017200386053160644
0.5469727 -0.07453657023880528 0.016771159468888734
0.5489726 -0.07441907687819001 0.01598346005825545
0.5509725 -0.0745306090892702 0.01560320410282497
0.5529724 -0.07461974196995917 0.015139891432072908
0.5549723 -0.07459551946898477 0.0147648376619991
0.5569722 -0.0744001457734348 0.014178641142518985
0.5589721 -0.0741835482047523 0.013614650689415263
0.560972 -0.07376094378801497 0.013617873578256334
0.5629719 -0.07369023710328901 0.013465662263964374
0.5649718 -0.0732952798561891 0.013205358736786611
0.5669717 -0.0730366590008319 0.013167838690451752
0.5689716 -0.0730279512420896 0.013379299931995613
0.5709715 -0.0729597592732893 0.013753694679077392
0.5729714 -0.07301904867195427 0.013473817140922887
0.5749713 -0.07286835449728714 0.0137517045732183
0.5769712 -0.07314174379487016 0.013519765156760875
0.5789711 -0.07344404438004416 0.013881885250970429
0.580971 -0.07377188734419987 0.01401351410740255
0.5829709 -0.07394700577400168 0.014505607441845016
0.5849708 -0.07432627747570617 0.014932394844750365
0.5869707 -0.07488514339899469 0.015069255492669558
0.5889706 -0.075498464148516 0.014803551120738275
0.5909705 -0.07600926044747751 0.014862762779597131
0.5929704 -0.07691812215035629 0.014713229926750442
0.5949703 -0.07772003931636487 0.014446924430973167
0.5969702 -0.07804713645906175 0.014085686946528255
0.5989701 -0.07858763208930727 0.013842926789832118
0.60097 -0.07910646588262815 0.013827234608953663
0.6029699 -0.07973856233320241 0.013154837401963524
0.6049698 -0.08030975015007243 0.012640018875835813
0.6069697 -0.08073924836863142 0.011947902696440638
0.6089696 -0.08095472604081937 0.011618442400825536
0.6109695 -0.08161651815332983 0.010904461374177856
0.6129694 -0.08155757649215134 0.010031439912756568
0.6149693 -0.08173089395601368 0.009467074838340108
0.6169692 -0.08185615377885906 0.008796238934667699
0.6189691 -0.0818340667731507 0.008276995892809409
0.620969 -0.08180601097236961 0.0078000673922119165
0.6229689 -0.08162784641512104 0.007336312050557077
0.6249688 -0.08136403673099368 0.006834161661638902
0.6269687 -0.08110584153204409 0.006249241989128282
0.6289686 -0.08091836377143574 0.006091880670926711
0.6309685 -0.08014628980148333 0.005992759075712194
0.6329684 -0.08017971476248002 0.005817935040197727
0.6349683 -0.0801797354072659 0.0059243247146573905
0.6369682 -0.08014033810845804 0.005674419644066998
0.6389681 -0.07986019077870336 0.005704574814558515
0.640968 -0.07971695244812654 0.0058860804647734265
0.6429679 -0.07950854315115628 0.005987807543732768
0.6449678 -0.07988366428896548 0.006476253815285198
0.6469677 -0.08005376085574205 0.006683735827554507
0.6489676 -0.08027541923847181 0.006894265151196614
0.6509675 -0.08055628734586966 0.007514280126178063
0.6529674 -0.08119377309622854 0.007745215160176976
0.6549673 -0.0818735141466598 0.007981659830850182
0.6569672 -0.08232191201027868 0.008315356352944777
0.6589671 -0.08298015032442438 0.008286587053882712
0.660967 -0.08376754707752927 0.008194863508114394
0.6629669 -0.084470056471496 0.00806965124167731
0.6649668 -0.08530249469350266 0.007780009108392893
0.6669667 -0.08624139551162027 0.007498953504886361
0.6689666 -0.08698834100424299 0.007083624747512868
0.6709665 -0.08750370717022474 0.006144123514075114
0.6729664 -0.08817812623166976 0.005724746345656576
0.6749663 -0.08872134524475099 0.004850298886669664
0.6769662 -0.08948772169536676 0.004212878749658845
0.6789661 -0.08999143240444885 0.002962854547272617
0.680966 -0.090276280340162 0.0021851361093229993
0.6829659 -0.0904424426863144 0.0011680270935806938
0.6849658 -0.09064421430680074 0.0004836369011512673
0.6869657 -0.09034410660534659 -0.0005202106223255246
0.6889656 -0.09024235117440983 -0.0012515042300193582
0.6909655 -0.09012795929967735 -0.0019314023003131967
0.6929654 -0.0899121277711771 -0.0027170585599171557
0.6949653 -0.08960964227074011 -0.0032234315395194627
0.6969652 -0.0892472666754171 -0.003884456972769207
0.6989651 -0.08889108135047409 -0.004265982604155991
0.700965 -0.08838695025633153 -0.004687884844239529
0.7029649 -0.08798216763836396 -0.004899089294358436
0.7049648 -0.08765842853140218 -0.005157030130778659
0.7069647 -0.08739249399007964 -0.005073552970820225
0.7089646 -0.08655346771659925 -0.0052017615082941455
0.7109645 -0.08640617500656265 -0.004721504457762694
0.7129644 -0.08660498415236102 -0.004559141491599698
0.7149643 -0.0867586762152708 -0.004340203432375282
0.7169642 -0.08699370690549599 -0.0037983346621318047
0.7189641 -0.08705445064593806 -0.003668408495822662
0.720964 -0.08750872133886556 -0.003476581710739623
0.7229639 -0.08797504164359833 -0.00319445626515949
0.7249638 -0.0881161803809815 -0.0030123916857132393
0.7269637 -0.08846696225244288 -0.0029297045313385894
0.7289636 -0.08897503249966053 -0.0028381473085616754
0.7309635 -0.08978191433877077 -0.0026804221656037235
0.7329634 -0.0902680156672755 -0.0029281806168531335
0.7349633 -0.09114174732132174 -0.0033772326929877583
0.7369632 -0.0919876533143779 -0.003443672141855196
0.7389631 -0.09291141394513065 -0.00431401757597814
0.740963 -0.09346951973894746 -0.004902143813894512
0.7429629 -0.09390526388546858 -0.005762720681416887
0.7449628 -0.0945093841948285 -0.0069208759482248874
0.7469627 -0.09498156159805322 -0.007766303892719532
0.7489626 -0.09510267140820995 -0.008771220644125208
0.7509625 -0.09576788558103276 -0.009462594037179223
0.7529624 -0.09592755923359562 -0.0103145946229549
0.7549623 -0.09598416543345016 -0.011257261855437711
0.7569622 -0.09602998882087888 -0.01202395101565814
0.7589621 -0.09585388370809464 -0.013176527176819261
0.760962 -0.09548042931365784 -0.014024233333167099
0.7629619 -0.0950694061481762 -0.014958078842073085
0.7649618 -0.09471542124551878 -0.015556184163954968
