! Created with skrf 1.8.0 (http://scikit-rf.org).
# GHz S RI R 50.0 
!freq ReS11 ImS11
0.001 -1.0007038829870887 -0.0007473031251270523
0.0029999 -0.9608097128198748 -0.00873190277392269
0.0049998 -0.8144232256692271 -0.08757408625879351
0.0069997 -0.6421644561106974 -0.1077302376115143
0.0089996 -0.32774157554522143 -0.04861457662537848
0.0109995 -0.1788789732729054 -0.04079860609522109
0.0129994 -0.10037960479129815 -0.019282733799025207
0.0149993 -0.08459042600522522 -0.016803164002535294
0.0169992 -0.04730409503146837 -0.017298266501599345
0.0189991 -0.031981851656744546 -0.00801853278119001
0.020999 -0.022238170460208418 -0.0038183503855079254
0.0229989 -0.017832323782129293 -0.0022061834552875126
0.0249988 -0.018926320701590137 -0.0008445000097570322
0.0269987 -0.0159964642456176 0.0005700991726446863
0.0289986 -0.014953697864103752 0.0015096817312125015
0.0309985 -0.015612179574727521 0.0027485588767671267
0.0329984 -0.015596666359313163 0.00381062036270431
0.0349983 -0.01708736200072061 0.005666135703602596
0.0369982 -0.015872907702733557 0.006756859080918355
0.0389981 -0.020265022306542386 0.008117332738671275
0.040998 -0.021412901747002593 0.005329913868718072
0.0429979 -0.021591969979966864 0.008466799126861765
0.0449978 -0.021057157416894588 0.008125238413764675
0.0469977 -0.024603268355768333 0.006902276364484391
0.0489976 -0.021150989378832797 0.00945092025864906
0.0509975 -0.02063461800225365 0.011243170759628955
0.0529974 -0.027079793909894862 0.012478626110007322
0.0549973 -0.025212316994949656 0.008294528899228038
0.0569972 -0.023657821601072673 0.010086623273457879
0.0589971 -0.026511319364683344 0.008382366629387484
0.060997 -0.024734416855870967 0.006613987532127047
0.0629969 -0.026926755663273162 0.011280707177680543
0.0649968 -0.028953860039539734 0.005584796838622303
0.0669967 -0.024354328840888773 0.007757932681886671
0.0689966 -0.024417706889810264 0.0074380891585649036
0.0709965 -0.030099703311750298 0.005489567971303616
0.0729964 -0.024876896404943602 0.005785567933226614
0.0749963 -0.02322802944723948 0.005511838157856594
0.0769962 -0.02536987755750356 0.0028309269974509275
0.0789961 -0.023174487920914623 0.004841732907327794
0.080996 -0.02470146909327952 0.0028003663477172347
0.0829959 -0.023494249161214946 0.005182168232181508
0.0849958 -0.022762595741630573 0.004984049153338227
0.0869957 -0.023443229122711674 0.005418083256573202
0.0889956 -0.02229836819208466 0.003970369804974935
0.0909955 -0.02027106047866369 0.004512507507246012
0.0929954 -0.02019029647819141 0.004116917229336685
0.0949953 -0.02002244334694786 0.0058547172081172254
0.0969952 -0.019450228692280382 0.00623418653544491
0.0989951 -0.02045762429382672 0.006553998763931353
0.100995 -0.018576535602734628 0.005760656918371396
0.1029949 -0.01796636525984555 0.006097805716482555
0.1049948 -0.01789839134613249 0.0064172992423609364
0.1069947 -0.018029504067379798 0.007223169071315552
0.1089946 -0.017542703749169244 0.008471957326570273
0.1109945 -0.0173855754715997 0.00843641077837507
0.1129944 -0.018311492643017957 0.01071111313338766
0.1149943 -0.017979327454117545 0.011436577102425573
0.1169942 -0.018097263753651314 0.011730131863916558
0.1189941 -0.019126014373662136 0.013066207859478355
0.120994 -0.019761860535658038 0.013111186159350247
0.1229939 -0.021444564285029666 0.013247133461260113
0.1249938 -0.020715775028814023 0.012632296641302918
0.1269937 -0.021194094291357518 0.013778144185596107
0.1289936 -0.022772601106266277 0.014253573508242467
0.1309935 -0.023482433711730435 0.013934381921097472
0.1329934 -0.02352042714691487 0.014145181126162035
0.1349933 -0.023135788270997826 0.01400783858832996
0.1369932 -0.024093181976536274 0.01438805167960125
0.1389931 -0.02439837280203963 0.01418113070209837
0.140993 -0.026376819083801545 0.013305182871061434
0.1429929 -0.025256363826153885 0.013436473391785695
0.1449928 -0.0260677930082963 0.01362695250366805
0.1469927 -0.026737113871954522 0.013918420146600484
0.1489926 -0.025164793454633703 0.013027961359077436
0.1509925 -0.02697862865018265 0.013340097281584544
0.1529924 -0.026499609031078186 0.012093937473447789
0.1549923 -0.02694409208495397 0.012283165480870183
0.1569922 -0.02721997756440088 0.013341785079840282
0.1589921 -0.026349818804343283 0.012753575248231806
0.160992 -0.026887753586732052 0.011957962424131129
0.1629919 -0.0257385889473215 0.013213065694194785
0.1649918 -0.025859137278669737 0.01274127229837953
0.1669917 -0.02574901554813535 0.012863944554666745
0.1689916 -0.026361092484343266 0.01277521875202299
0.1709915 -0.025125672925541707 0.012558930146949884
0.1729914 -0.02585827829594423 0.013381441529754803
0.1749913 -0.02616628758980192 0.013975490868035626
0.1769912 -0.02633625402788096 0.013378188021145019
0.1789911 -0.02536907148824776 0.013803324734133277
0.180991 -0.025447447149971648 0.01374620508936519
0.1829909 -0.02560479180969953 0.01484190741163734
0.1849908 -0.02620877935274978 0.014541631720162507
0.1869907 -0.02652500307955415 0.015075229284239721
0.1889906 -0.02632972726560833 0.014661313218859159
0.1909905 -0.027197009652220293 0.015728243287801095
0.1929904 -0.027532695766901448 0.016111917808315668
0.1949903 -0.026791533018604853 0.015971991770297688
0.1969902 -0.02793702064930308 0.015496183789413198
0.1989901 -0.027433685714038016 0.0165084425035368
0.20099 -0.02868013786701984 0.015937169206096898
0.2029899 -0.02815733047546923 0.01693117222249236
0.2049898 -0.028725711365451802 0.017121911575984902
0.2069897 -0.029134989819354692 0.017155944396218793
0.2089896 -0.02955317326240614 0.01727307367226176
0.2109895 -0.029461694310302447 0.017054463958985543
0.2129894 -0.029887893715150306 0.017729276724442678
0.2149893 -0.03018943956769727 0.017397323348882058
0.2169892 -0.031015155211852323 0.01744947161879569
0.2189891 -0.03077765698894666 0.016731461347266528
0.220989 -0.030757299816251214 0.01776896046427756
0.2229889 -0.03158476268015324 0.018555887651351306
0.2249888 -0.031624064758260094 0.01801920452907642
0.2269887 -0.0323528890522921 0.01743919613889025
0.2289886 -0.03165954491525813 0.017545036365289906
0.2309885 -0.03189135259217296 0.01833221766941603
0.2329884 -0.03248138411751692 0.01814255286474971
0.2349883 -0.03291153809172275 0.017834350154715423
0.2369882 -0.0332353778786138 0.01747884908155745
0.2389881 -0.032708901968959314 0.017607798870486302
0.240988 -0.033539329050658574 0.018298694704218642
0.2429879 -0.0336898271673344 0.018049254646577487
0.2449878 -0.03376937694980414 0.01754159813612543
0.2469877 -0.034113697962981804 0.017330102643072155
0.2489876 -0.034021774281245594 0.017573932443144112
0.2509875 -0.03395638959092357 0.017731282261363557
0.2529874 -0.03375580649378778 0.017158596995401176
0.2549873 -0.033872917408333064 0.016667075183910578
0.2569872 -0.033678220928793315 0.017370569201832595
0.2589871 -0.03380416737594175 0.017372451369995066
0.260987 -0.03349150952654295 0.01704345998275706
0.2629869 -0.033679646799031474 0.01719116620257022
0.2649868 -0.03372172341387869 0.01770569451329285
0.2669867 -0.03361416524150043 0.017547041428402584
0.2689866 -0.033581379116440026 0.017749812113635008
0.2709865 -0.033886435615227806 0.018106012146122598
0.2729864 -0.033582143061361196 0.01844235646766368
0.2749863 -0.033702248564770276 0.01834443681750276
0.2769862 -0.03356065439217691 0.018854904168270015
0.2789861 -0.03362674189834314 0.019763356116319804
0.280986 -0.03338751273064964 0.020193792246045405
0.2829859 -0.03353569708103344 0.020418099596208647
0.2849858 -0.03403530552330039 0.020475888218738657
0.2869857 -0.03452628773852444 0.021722897951982983
0.2889856 -0.03470709163854013 0.022187635675296268
0.2909855 -0.03477020713125518 0.022267856514193912
0.2929854 -0.03512528975299259 0.022290447709780586
0.2949853 -0.03553728730573202 0.02303343666357185
0.2969852 -0.03638277705885744 0.023956018970449106
0.2989851 -0.03713051143217749 0.024286492641788733
0.300985 -0.03786577677038856 0.02427220066741801
0.3029849 -0.038453332230652684 0.024210488391603856
0.3049848 -0.038755055997877944 0.02441089739569001
0.3069847 -0.039778262547129725 0.0250743521351816
0.3089846 -0.0407298139358525 0.024863667792217478
0.3109845 -0.041211916610012944 0.02427255279748662
0.3129844 -0.04229028522665978 0.02396148559691725
0.3149843 -0.042730182180075536 0.023875140826533685
0.3169842 -0.04362109760487008 0.024515437671567795
0.3189841 -0.04481298294362539 0.023706647221542698
0.320984 -0.04521044571881743 0.022918586215941665
0.3229839 -0.046062124780417074 0.023148447841721532
0.3249838 -0.04585124903404007 0.023018251824146747
0.3269837 -0.04691160939992478 0.023055935716596664
0.3289836 -0.04662760525909134 0.022070406529264057
0.3309835 -0.047249321257663957 0.022127558583759924
0.3329834 -0.04699012827013607 0.02158474406468662
0.3349833 -0.047746859747929735 0.021143376727087528
0.3369832 -0.047188993788038966 0.02024010131139806
0.3389831 -0.04666731132290747 0.019536712491305133
0.340983 -0.046336506197349095 0.018865175706896692
0.3429829 -0.04660034170241333 0.019143932059923693
0.3449828 -0.04617772486600358 0.01881354955786796
0.3469827 -0.045865151532061985 0.018335084008261237
0.3489826 -0.04580320059639481 0.018553709373154918
0.3509825 -0.04541775660103911 0.018216884829033247
0.3529824 -0.04493722847625252 0.01827058219094724
0.3549823 -0.04441504714853796 0.01870901193610222
0.3569822 -0.044430376436317115 0.018858918501144416
0.3589821 -0.0442181638942487 0.019384970254563726
0.360982 -0.04404483760158129 0.019572052959761693
0.3629819 -0.04392689257748093 0.020127412487695808
0.3649818 -0.04380811646724382 0.020518446312673737
0.3669817 -0.04419977063017326 0.021473780129574783
0.3689816 -0.044535264288826204 0.02137351008026154
0.3709815 -0.04448818425061716 0.02150737381563296
0.3729814 -0.04504836607941326 0.021905815124840793
0.3749813 -0.045248404793754964 0.022788172711049392
0.3769812 -0.04618897197382739 0.023258424507483458
0.3789811 -0.04634281698753348 0.02305713395037695
0.380981 -0.047452906143068435 0.02314043438666506
0.3829809 -0.04799676465911107 0.02332717585746321
0.3849808 -0.04827797844105141 0.024048291600782364
0.3869807 -0.049388693708739315 0.023908586583089954
0.3889806 -0.04995273255576754 0.02370746006478179
0.3909805 -0.05051666218643262 0.023749793873013614
0.3929804 -0.05107427331665948 0.023411341163116123
0.3949803 -0.05179873304933039 0.023511954892773974
0.3969802 -0.052071689438331556 0.023095920573660618
0.3989801 -0.053119191887954775 0.022330312442943815
0.40098 -0.05318709257214929 0.02206809118307019
0.4029799 -0.053381526965914854 0.021255225830024746
0.4049798 -0.053674772027119094 0.020934125401658767
0.4069797 -0.05411014272981744 0.020859020794439426
0.4089796 -0.054042060321235166 0.020379721607948896
0.4109795 -0.05422283178340294 0.019887008226021474
0.4129794 -0.05406333128685624 0.019505347981781256
0.4149793 -0.05398294157166443 0.01897966731375921
0.4169792 -0.05387456673546678 0.018732685697613265
0.4189791 -0.053609063424789744 0.018543906339214284
0.420979 -0.053729858483693924 0.018641105014922787
0.4229789 -0.05298052814560369 0.018316154481385932
0.4249788 -0.053451984440129066 0.01866477985194576
0.4269787 -0.05305606987501784 0.018612982264530415
0.4289786 -0.052792481037810916 0.018826265838851716
0.4309785 -0.0531240407492439 0.01927982240015146
0.4329784 -0.053073232659356324 0.019527507749874735
0.4349783 -0.053363114483780796 0.019647799771670617
0.4369782 -0.05356749496546148 0.01970733570301639
0.4389781 -0.053547744401741704 0.020086942379645208
0.440978 -0.05406316600337291 0.0205644118170846
0.4429779 -0.054594242014513295 0.02103251227493527
0.4449778 -0.055033696143340444 0.021089422093049127
0.4469777 -0.05583553285927402 0.020984448365447404
0.4489776 -0.05615814408853813 0.021548160216738634
0.4509775 -0.056771964018538595 0.021702651455989253
0.4529774 -0.057430906245753185 0.02201371900773848
0.4549773 -0.057959244287296964 0.02149069106299539
0.4569772 -0.05878537034204715 0.02161348669543477
0.4589771 -0.05971863395384329 0.02128411482732149
0.460977 -0.0601376529171158 0.020847653217433787
0.4629769 -0.06049765344247478 0.020536716703959335
0.4649768 -0.06124639349314893 0.020033990190544786
0.4669767 -0.06179673655202307 0.019499622306758186
0.4689766 -0.06225486624153606 0.018818471797362644
0.4709765 -0.06255571175690361 0.01829878851682361
0.4729764 -0.06268561866548103 0.017803449042352898
0.4749763 -0.06283629605061725 0.017360414038480602
0.4769762 -0.06313318323014969 0.016863547702785274
0.4789761 -0.06306358147111549 0.01637423916748433
0.480976 -0.06296087487953808 0.015974462365722145
0.4829759 -0.06306750794834773 0.01533753759506815
0.4849758 -0.06292828184532832 0.015161160663757736
0.4869757 -0.06265751550000492 0.01470681064981463
0.4889756 -0.062397371215420744 0.01430882276811216
0.4909755 -0.06186714015080434 0.014048868273045256
0.4929754 -0.06170155422918556 0.014192168984648305
0.4949753 -0.061330307153485364 0.01406702546552395
0.4969752 -0.06123197759862165 0.014292141084749486
0.4989751 -0.06102501494878714 0.014460962294933134
0.500975 -0.060953011084812936 0.014794731612392888
0.5029749 -0.060742609558217565 0.014815086386118542
0.5049748 -0.06104817435492845 0.015124227935121505
0.5069747 -0.06147753769981459 0.015501232023073193
0.5089746 -0.06164260700741736 0.015574396971808898
0.5109745 -0.06147702647839276 0.015670658025739016
0.5129744 -0.061981616750774696 0.016128135764575287
0.5149743 -0.06215065597117929 0.016667311036678505
0.5169742 -0.06278404503388209 0.016739439006488586
0.5189741 -0.06344749483166835 0.017025846815962437
0.520974 -0.06377862824569125 0.016533326202740062
0.5229739 -0.06466709493490012 0.016822687910933307
0.5249738 -0.0655047727930321 0.017092157470901165
0.5269737 -0.0658364302608076 0.0167241136090399
0.5289736 -0.06656472982036413 0.016504234582227106
0.5309735 -0.06728978363372103 0.016249707846259252
0.5329734 -0.06802313691711331 0.01647719878889996
0.5349733 -0.06871864221314351 0.016160625575024477
0.5369732 -0.06889097369776637 0.015493566109780945
0.5389731 -0.06985735440364886 0.015022661464771759
0.540973 -0.07030352733562523 0.013983698602260192
0.5429729 -0.07059094162420164 0.01369346199123753
0.5449728 -0.07094169778653789 0.013023135110420404
0.5469727 -0.07122712404443599 0.012396900397871956
0.5489726 -0.07116747841443 0.011638429206518235
0.5509725 -0.07122277160011972 0.01133763292850884
0.5529724 -0.07138118801517418 0.010906454939383373
0.5549723 -0.07142982992406523 0.01060893248069316
0.5569722 -0.07116921412017797 0.009830252112670402
0.5589721 -0.07092238591860209 0.009538061789608077
0.560972 -0.07067397128877925 0.009462160477160062
0.5629719 -0.07013651656611117 0.009309330653581534
0.5649718 -0.07008231298712891 0.008815903198013852
0.5669717 -0.06973630317411925 0.00883956404696645
0.5689716 -0.06966006642398212 0.008932332515719447
0.5709715 -0.06964917889739906 0.0091230481929412
0.5729714 -0.06963811303618328 0.008987040595999973
0.5749713 -0.0697534240899905 0.009195026854083577
0.5769712 -0.07004764276121878 0.00874588027317957
0.5789711 -0.06999608775266235 0.009134610682087815
0.580971 -0.07017088405946498 0.00946714675090447
0.5829709 -0.07040696248766937 0.009860803046468653
0.5849708 -0.07081639569306145 0.010210830495719778
0.5869707 -0.07120157367087983 0.010500052497672177
0.5889706 -0.07188425312099216 0.010114827713657414
0.5909705 -0.07245244402913886 0.01014547128323488
0.5929704 -0.07303218247307057 0.009988972631091289
0.5949703 -0.0734516933899907 0.009970614179787594
0.5969702 -0.07419532355933829 0.009752139485783365
0.5989701 -0.07499134443770687 0.009119798471005549
0.60097 -0.0751426216230214 0.009228008182426205
0.6029699 -0.07580460431431718 0.008596319228352342
0.6049698 -0.07627756115616738 0.008078136861480047
0.6069697 -0.07696814951728015 0.007465740114443051
0.6089696 -0.07712200809126361 0.007093379857038576
0.6109695 -0.07735256710792036 0.006335213632082885
0.6129694 -0.07784498196121944 0.005681639251557295
0.6149693 -0.07765878449649659 0.004904394600487125
0.6169692 -0.07775056198955253 0.004309792430239365
0.6189691 -0.0776696764862335 0.0037533019904968656
0.620969 -0.07804322277860207 0.00330244522280633
0.6229689 -0.07749439869021646 0.0027522087644502313
0.6249688 -0.07726889907159541 0.002251587459162825
0.6269687 -0.07700341872446254 0.00163814457047904
0.6289686 -0.07690764134517994 0.0015115771697256988
0.6309685 -0.07593313872487509 0.0013970575064825436
0.6329684 -0.07605438026522386 0.0012827673065238243
0.6349683 -0.07572313395030697 0.001435400529352801
0.6369682 -0.07606874236484934 0.0010119850165267105
0.6389681 -0.07549881334702238 0.001114051581826439
0.640968 -0.07515447166721867 0.0010990620902146808
0.6429679 -0.07543824602480657 0.00124336758391317
0.6449678 -0.07558881861461499 0.001732834677610158
0.6469677 -0.07567816461453605 0.0019229542812972816
0.6489676 -0.07591053016738639 0.0021365957098843993
0.6509675 -0.0763260792824676 0.0027282946618052695
0.6529674 -0.0766010946958751 0.002935855195337043
0.6549673 -0.0770524373235561 0.003163194663603843
0.6569672 -0.07767343729278472 0.0035029679103793995
0.6589671 -0.07818627410866985 0.0036036931301556448
0.660967 -0.07898578000657948 0.003446328143213249
0.6629669 -0.07948988527358901 0.0034150432601890574
0.6649668 -0.08071292569199125 0.0031119195502806417
0.6669667 -0.08151497392902939 0.002843638544342157
0.6689666 -0.0820409697821083 0.0025581514652637805
0.6709665 -0.08248162501380057 0.0015673437052830044
0.6729664 -0.08339007883789032 0.00124166520009171
0.6749663 -0.0837970128059237 0.00029910450505455516
0.6769662 -0.0843117935677681 -0.0004185583540750118
0.6789661 -0.08483455842774071 -0.0016385985747666768
0.680966 -0.08527038998200911 -0.0023281863930686084
0.6829659 -0.08532500072062958 -0.0033353233000369756
0.6849658 -0.0855645387659057 -0.004039792395940697
0.6869657 -0.08525279536358515 -0.005026688131575988
0.6889656 -0.08527181379100822 -0.005720018946334511
0.6909655 -0.08513318067053953 -0.0063904529879361405
0.6929654 -0.08477381025460817 -0.007140344937848958
0.6949653 -0.08449266264511468 -0.007610458174262421
0.6969652 -0.08404513904854269 -0.00847454792316554
0.6989651 -0.08350735788268 -0.008925272957172714
0.700965 -0.08329785645202034 -0.009110665469056672
0.7029649 -0.08284678368192158 -0.009457932490729105
0.7049648 -0.08256509703815126 -0.009754937330160873
0.7069647 -0.08223333317565909 -0.009692622622382609
0.7089646 -0.08134942252640692 -0.009845826153458376
0.7109645 -0.08126814454301759 -0.009282597418425662
0.7129644 -0.0813488704441247 -0.00917430672056195
0.7149643 -0.08133429830936806 -0.008948699272367286
0.7169642 -0.08153348270353072 -0.008513728636940075
0.7189641 -0.08164651639905883 -0.008380202570634415
0.720964 -0.08209569678401285 -0.008252339821133745
0.7229639 -0.08222917982268522 -0.007924462136131523
0.7249638 -0.08249360062179155 -0.0076717733291556366
0.7269637 -0.08290840082715438 -0.007703032282242159
0.7289636 -0.08376909855866857 -0.007551883895613128
0.7309635 -0.08397507113369548 -0.007455960652860069
0.7329634 -0.0847647671914248 -0.007689663707843582
0.7349633 -0.0855604852020896 -0.008094058126973506
0.7369632 -0.08627687620375597 -0.00818124620177468
0.7389631 -0.0872167272614716 -0.008830228134003328
0.740963 -0.08812983015056852 -0.009502586074509371
0.7429629 -0.08826688068493453 -0.0102859374879758
0.7449628 -0.08885386336557032 -0.011354388135602519
0.7469627 -0.08907476165269948 -0.012130406387939136
0.7489626 -0.08927165981667107 -0.013072499550269446
0.7509625 -0.08985268257020505 -0.013765972952163186
0.7529624 -0.09008336669072237 -0.014611951854760424
0.7549623 -0.09002482942026512 -0.015507457715652113
0.7569622 -0.08985607927177532 -0.016349135722229773
0.7589621 -0.08975706961070512 -0.01736803315345709
0.760962 -0.08934582788552552 -0.018211414214996495
0.7629619 -0.08881711445945308 -0.01905086777845778
