! Created with skrf 1.8.0 (http://scikit-rf.org).
# GHz S RI R 50.0 
!freq ReS11 ImS11
0.001 -1.000114456662443 0.00044029153184667325
0.0029999 -1.0000894763881467 0.0017265538703031837
0.0049998 -1.0029251822763898 0.0005522564808662575
0.0069997 -1.0118468924776893 -0.0024520030533098057
0.0089996 -1.0325464478841886 -0.023673011185837825
0.0109995 -1.0436696455308756 -0.04073951059104822
0.0129994 -1.053740964733954 -0.051345057972572605
0.0149993 -1.0504171484599143 -0.054549230571384576
0.0169992 -1.0536481283579566 -0.06269042699684099
0.0189991 -1.0536515112151572 -0.06875772453901745
0.020999 -1.053652220521587 -0.07537423478427192
0.0229989 -1.0534386368784265 -0.08107838744168819
0.0249988 -1.0538078577163774 -0.08700167152253002
0.0269987 -1.0537058337851546 -0.0935288425521519
0.0289986 -1.0536166453572706 -0.09986994868645173
0.0309985 -1.0535711115151745 -0.10556363090067515
0.0329984 -1.0527199861273304 -0.11205597013670107
0.0349983 -1.05218904400238 -0.11819925755957605
0.0369982 -1.0520499907358782 -0.12502998427037998
0.0389981 -1.0504389895014474 -0.13019503125110976
0.040998 -1.0508930646061545 -0.13650993805154568
0.0429979 -1.049983993044904 -0.1434401058713488
0.0449978 -1.0498082849247774 -0.1499306678031398
0.0469977 -1.0505175521021695 -0.15467486967921626
0.0489976 -1.0488345501089562 -0.1638970413250091
0.0509975 -1.0473231352072256 -0.17037739041408048
0.0529974 -1.0454074378501 -0.17641040734818586
0.0549973 -1.0462298987006209 -0.18623180858714736
0.0569972 -1.0451533562541362 -0.1906006830701893
0.0589971 -1.0447328404065734 -0.19594420648081862
0.060997 -1.044476497244131 -0.20365224773398094
0.0629969 -1.040816533469854 -0.2085616113868379
0.0649968 -1.0428617493488945 -0.2155310137830921
0.0669967 -1.0387138497972168 -0.22314260399622665
0.0689966 -1.0389395961460546 -0.2289445852425937
0.0709965 -1.037962836284525 -0.2328676368508063
0.0729964 -1.0367910228788142 -0.2429642804915284
0.0749963 -1.0357186112039263 -0.2492070996495899
0.0769962 -1.0349249844043373 -0.2542561473363695
0.0789961 -1.032918950338449 -0.2609483454250201
0.080996 -1.0327711355935458 -0.26705275523701616
0.0829959 -1.030072315113613 -0.2737401101785071
0.0849958 -1.0289159713076124 -0.27918915551266354
0.0869957 -1.0264437158675925 -0.2850351174204017
0.0889956 -1.0262617755759442 -0.29150428524443983
0.0909955 -1.0244550012420583 -0.29817479354665066
0.0929954 -1.0239177024126134 -0.3048502832493708
0.0949953 -1.0212047741369892 -0.3109038423764429
0.0969952 -1.0198070871643359 -0.3171964936873817
0.0989951 -1.0185001709749273 -0.322261588105994
0.100995 -1.0166632637002964 -0.32903127908449964
0.1029949 -1.0145835412562538 -0.3350994516672977
0.1049948 -1.0131035159131843 -0.34135123891401686
0.1069947 -1.011332370203402 -0.34782171098044706
0.1089946 -1.0092634695925775 -0.3535843209842338
0.1109945 -1.0078054406075219 -0.36012352122575864
0.1129944 -1.0052995447404727 -0.3653396567388184
0.1149943 -1.003190998575487 -0.3722778961028528
0.1169942 -1.0008837812415798 -0.37849472394984734
0.1189941 -0.9987444243573209 -0.38393207652292954
0.120994 -0.9965937399274861 -0.3901554158161111
0.1229939 -0.9948816903091033 -0.39510899619263784
0.1249938 -0.9932524423811975 -0.40205741602098655
0.1269937 -0.9900230745176755 -0.4079334595285129
0.1289936 -0.9871260461459186 -0.413339280617241
0.1309935 -0.986521115450537 -0.41873022261131687
0.1329934 -0.9830952782289394 -0.42608806112095143
0.1349933 -0.9814768016334238 -0.4309412254843252
0.1369932 -0.9783249406472783 -0.43838884550988616
0.1389931 -0.9767089063133364 -0.4436964320774167
0.140993 -0.9739833033681051 -0.4492644790961225
0.1429929 -0.9710518314626672 -0.45717194847643183
0.1449928 -0.9685246905631225 -0.46094103507323453
0.1469927 -0.9655581672836655 -0.46569794160210864
0.1489926 -0.9630711352267627 -0.47421536850204565
0.1509925 -0.9609216614573459 -0.4785529701132285
0.1529924 -0.95975197547848 -0.484805479395984
0.1549923 -0.9549336576563212 -0.4905379717801253
0.1569922 -0.9522768614620186 -0.4953677774934963
0.1589921 -0.9494168647695038 -0.5019117238515305
0.160992 -0.9481441854390639 -0.5071747018206445
0.1629919 -0.9439250852821812 -0.5141858266025408
0.1649918 -0.9409393023626639 -0.5200471521358012
0.1669917 -0.9389201445219653 -0.5256403194355704
0.1689916 -0.9360966694144222 -0.5307704524687052
0.1709915 -0.9323146050719058 -0.5374165915469433
0.1729914 -0.9294990831128809 -0.5426352649672082
0.1749913 -0.9267427100238574 -0.5471400997323964
0.1769912 -0.9236167009419638 -0.5527513244115286
0.1789911 -0.920756956398673 -0.5596621761473338
0.180991 -0.9178758754739187 -0.5654552073667691
0.1829909 -0.9141358661234626 -0.5701699883862466
0.1849908 -0.9112131317941398 -0.5756646154096315
0.1869907 -0.9082011206743248 -0.5811720770135771
0.1889906 -0.9053921860487545 -0.5875280230654157
0.1909905 -0.9014582080041373 -0.5914613947607906
0.1929904 -0.8983475910494437 -0.5971587431585592
0.1949903 -0.8942576851238853 -0.6042852368588446
0.1969902 -0.8919356593830234 -0.609536432544709
0.1989901 -0.8878153905908917 -0.614655610589899
0.20099 -0.8846786163415628 -0.6202173839504868
0.2029899 -0.8804193020693194 -0.6252163593455904
0.2049898 -0.8767231068776993 -0.630488439158513
0.2069897 -0.8735836698270677 -0.6356793418120708
0.2089896 -0.8701249272924736 -0.6407652501544894
0.2109895 -0.8671987523182231 -0.6462642938577962
0.2129894 -0.8622979627467164 -0.6515473286807485
0.2149893 -0.8586440662050057 -0.6568260492416105
0.2169892 -0.8552697478167348 -0.6615948394697665
0.2189891 -0.8516198552281343 -0.6686427813511954
0.220989 -0.8461245885760378 -0.671974536761112
0.2229889 -0.8423565057226572 -0.6768121735261319
0.2249888 -0.8388011606728445 -0.682867900495657
0.2269887 -0.835847426531343 -0.6880434636489893
0.2289886 -0.8323495707058056 -0.6939121650132805
0.2309885 -0.8268849666973607 -0.6981376727968773
0.2329884 -0.8227305029418726 -0.703558204928028
0.2349883 -0.8193007449429953 -0.7089945024906302
0.2369882 -0.8159416968666601 -0.7134627791692517
0.2389881 -0.8104687210972706 -0.7190392061412865
0.240988 -0.8065466476934491 -0.7226107920496744
0.2429879 -0.8022351134987932 -0.7279594255764251
0.2449878 -0.798638607033551 -0.7335402669068897
0.2469877 -0.7947624420432402 -0.7384514941333291
0.2489876 -0.7899143171948156 -0.7426262377414297
0.2509875 -0.7853709513626549 -0.7474016127917422
0.2529874 -0.7814026107837652 -0.7536792020308615
0.2549873 -0.7776853739227491 -0.7581128718694896
0.2569872 -0.7727500272139339 -0.7619361518778828
0.2589871 -0.7681981993048032 -0.7664427923687498
0.260987 -0.7637298603110444 -0.772130771704201
0.2629869 -0.7591876396639665 -0.776572167824143
0.2649868 -0.7546130346768118 -0.781015124800066
0.2669867 -0.7510875740561498 -0.7859157885885688
0.2689866 -0.7466728691020673 -0.7900670602829958
0.2709865 -0.7417748364354445 -0.7946039852920158
0.2729864 -0.7369058016757754 -0.7999846109025022
0.2749863 -0.7328674407288219 -0.8050032519383824
0.2769862 -0.7280818678205725 -0.8090853624601109
0.2789861 -0.7225402420470582 -0.8130232022726419
0.280986 -0.7182349581733152 -0.817375487668825
0.2829859 -0.7139964606357323 -0.8224945597241281
0.2849858 -0.7091765947514403 -0.8268150602322037
0.2869857 -0.704109346742076 -0.8307309494645477
0.2889856 -0.6991272420566793 -0.8349555867343266
0.2909855 -0.6937051787742387 -0.8407947770695572
0.2929854 -0.6895713480990451 -0.8447555793015992
0.2949853 -0.6834508335826289 -0.8486452430237045
0.2969852 -0.6787991001743259 -0.8522117944175346
0.2989851 -0.6743162995437882 -0.8560228892384091
0.300985 -0.6693281997996167 -0.8617232461279546
0.3029849 -0.6645329410755502 -0.8660797884343249
0.3049848 -0.6586420491821973 -0.8693917172999464
0.3069847 -0.653783158243965 -0.872765256595392
0.3089846 -0.6480310373988737 -0.8770098561055001
0.3109845 -0.6439511227095944 -0.8822745013280716
0.3129844 -0.6388298280715595 -0.8869270600422376
0.3149843 -0.6326374318629441 -0.8912787831663919
0.3169842 -0.62687781431215 -0.8931452296798699
0.3189841 -0.6232999767962509 -0.8974203930902712
0.320984 -0.6180161944039931 -0.9029522091054513
0.3229839 -0.611728200206805 -0.9058925797450956
0.3249838 -0.6063537059935036 -0.910132138115018
0.3269837 -0.6002922292302661 -0.913018843195162
0.3289836 -0.5951215284432001 -0.9185814937062089
0.3309835 -0.5901981435859701 -0.9206480595662124
0.3329834 -0.584223667516348 -0.9247968279813433
0.3349833 -0.5792937388546164 -0.9281288322919706
0.3369832 -0.574370211725387 -0.9319546018067664
0.3389831 -0.5682372204397617 -0.9363114491948243
0.340983 -0.5628707915194494 -0.9399118200812282
0.3429829 -0.5574615288876325 -0.9417072774722521
0.3449828 -0.551221213903759 -0.9453891980297177
0.3469827 -0.5463424696161152 -0.9488140069585804
0.3489826 -0.5408786515863478 -0.9522584082085355
0.3509825 -0.5359567682088714 -0.9557173997130621
0.3529824 -0.5299112831771893 -0.9596336722652575
0.3549823 -0.5241617638997867 -0.9626596365297301
0.3569822 -0.5184957197692968 -0.9658974454574274
0.3589821 -0.5130712434437615 -0.9688714740028381
0.360982 -0.5067167795872899 -0.9728057845128709
0.3629819 -0.5012043566607725 -0.9763249390610742
0.3649818 -0.49498912360859626 -0.9796294409693739
0.3669817 -0.48897825304263975 -0.9823003028960894
0.3689816 -0.48323119348176813 -0.9854642332664437
0.3709815 -0.4778267440810027 -0.9889673665608616
0.3729814 -0.471678616609326 -0.9918971256500273
0.3749813 -0.46510671524687536 -0.9948174462280918
0.3769812 -0.4600927085893176 -0.9972457878249913
0.3789811 -0.4553805742516187 -1.0014754570599462
0.380981 -0.44869033692384597 -1.0041836717362982
0.3829809 -0.44330693394844445 -1.0077757179971867
0.3849808 -0.4359363396526569 -1.00856922598626
0.3869807 -0.43047653092991 -1.012260078214736
0.3889806 -0.42421818807093115 -1.0152712476051464
0.3909805 -0.41688142881152157 -1.0180285159602855
0.3929804 -0.4115429776840577 -1.02009827340917
0.3949803 -0.40474851561412617 -1.0221658875316233
0.3969802 -0.39869915154927205 -1.0250703287529774
0.3989801 -0.3932806252185543 -1.0286146137441343
0.40098 -0.38683310131559756 -1.0310721071451185
0.4029799 -0.38061323340638614 -1.03415499440553
0.4049798 -0.3739396314641003 -1.0365588498216796
0.4069797 -0.36802784093332197 -1.0375977209915044
0.4089796 -0.36141428730845454 -1.0404810391908084
0.4109795 -0.35532170977227806 -1.0426574220099152
0.4129794 -0.34932711701032215 -1.0454761554640375
0.4149793 -0.34264080405266195 -1.0477046294668777
0.4169792 -0.33686443445524056 -1.0501403486381515
0.4189791 -0.3303797013157593 -1.0526954664677624
0.420979 -0.3244447296249899 -1.0544756709070735
0.4229789 -0.31724513508018665 -1.057445546393073
0.4249788 -0.31130200439183897 -1.0584126923044757
0.4269787 -0.3048169657909219 -1.060893819402974
0.4289786 -0.2985218177131816 -1.0628018963054295
0.4309785 -0.292230272817506 -1.0648421325373214
0.4329784 -0.28542306979457666 -1.0666646433318923
0.4349783 -0.2793003539405194 -1.068697701008519
0.4369782 -0.2721876411157793 -1.070957413858535
0.4389781 -0.26583808383101226 -1.0726862519837164
0.440978 -0.2593792117187551 -1.0745324991347978
0.4429779 -0.2539991293073257 -1.0762534947685953
0.4449778 -0.2466069770823096 -1.0783499953008655
0.4469777 -0.2407862907757542 -1.0804965910381032
0.4489776 -0.23431664366621965 -1.0821470838261056
0.4509775 -0.22657811488750415 -1.0828989149526065
0.4529774 -0.22066278587620258 -1.0842046373054937
0.4549773 -0.21314392279768002 -1.087236953752102
0.4569772 -0.20642884349836235 -1.0882756653781178
0.4589771 -0.20034190877797137 -1.089684652889609
0.460977 -0.19345325808468145 -1.090702876053337
0.4629769 -0.1858784637529852 -1.0924937609600043
0.4649768 -0.18046327152851516 -1.093374870523354
0.4669767 -0.17272890346419162 -1.0951162181506016
0.4689766 -0.16656841379786697 -1.096616969939992
0.4709765 -0.15979698221327243 -1.0985105640759987
0.4729764 -0.1527076343895729 -1.0993710688994112
0.4749763 -0.1459760500001439 -1.0996173533478113
0.4769762 -0.13990918724273457 -1.099942766201361
0.4789761 -0.13251205912730193 -1.1015138620181217
0.480976 -0.12630808852544606 -1.102149240741629
0.4829759 -0.119207310211976 -1.1034436258417057
0.4849758 -0.11297323249597335 -1.1041435433485927
0.4869757 -0.10593741328001671 -1.105105386697954
0.4889756 -0.09904196719744368 -1.1062274422100005
0.4909755 -0.09176281269123435 -1.1072380035130198
0.4929754 -0.08493162349225339 -1.1075844455810193
0.4949753 -0.07773191479091701 -1.1085965149884796
0.4969752 -0.07118174063012686 -1.1093351867828156
0.4989751 -0.06407565983121094 -1.109768317371395
0.500975 -0.05774318290577794 -1.1103813267043885
0.5029749 -0.05018491165220635 -1.1114403982906351
0.5049748 -0.044218708089795944 -1.112418103883137
0.5069747 -0.03737876963475689 -1.1124212790057908
0.5089746 -0.030682281363075634 -1.1135337462319446
0.5109745 -0.02403394717340171 -1.1143765668944179
0.5129744 -0.01746214359180387 -1.113451549280833
0.5149743 -0.010128604700752233 -1.1134418194137985
0.5169742 -0.003106005683341982 -1.1147399844681614
0.5189741 0.0031724276686432434 -1.115061411564473
0.520974 0.010638422559449967 -1.1155204741538278
0.5229739 0.017046743983009316 -1.1147912156225477
0.5249738 0.023623059646616623 -1.1146998290141503
0.5269737 0.03144678428726186 -1.11513132811672
0.5289736 0.038289551619747675 -1.1155591931883764
0.5309735 0.04566041664462192 -1.1152828587097463
0.5329734 0.052009806906874706 -1.1147493104909727
0.5349733 0.058958775041599826 -1.114215060662705
0.5369732 0.06617678635315048 -1.1146331925953956
0.5389731 0.07340875121231145 -1.1138874250554254
0.540973 0.08024906517666491 -1.115857566813331
0.5429729 0.08703231517116845 -1.1146793130977122
0.5449728 0.093529512823645 -1.1143803570904505
0.5469727 0.10100129039699625 -1.1139821191381565
0.5489726 0.10762695571417268 -1.113786844821661
0.5509725 0.11462306288989331 -1.1126747317423873
0.5529724 0.1219577081471819 -1.1118591194839917
0.5549723 0.12878008387619114 -1.110566058875945
0.5569722 0.13619524783240375 -1.110690804137743
0.5589721 0.14290451458610265 -1.1097241445889838
0.560972 0.14988046949588374 -1.1092091528304775
0.5629719 0.15727775489935658 -1.1078088286896777
0.5649718 0.16437407688599837 -1.1067775322119822
0.5669717 0.17146518869984415 -1.106215340720497
0.5689716 0.17779393274625746 -1.1054165023597806
0.5709715 0.18549551788424917 -1.1042805868874555
0.5729714 0.19245844116695965 -1.1040624447290146
0.5749713 0.1992356749277555 -1.103046878310978
0.5769712 0.20562495498035427 -1.102863726425247
0.5789711 0.21255361878713694 -1.10121997490545
0.580971 0.22006957702267585 -1.100778993657454
0.5829709 0.22713466892748183 -1.0983580134174673
0.5849708 0.23380280187884772 -1.0975754817462042
0.5869707 0.24059862491997824 -1.0958639624538882
0.5889706 0.248210640263348 -1.094807079837937
0.5909705 0.254703087292736 -1.093754959081731
0.5929704 0.26130491543098705 -1.0922751118248972
0.5949703 0.26832074708200754 -1.0904871066682478
0.5969702 0.2755073672902655 -1.0892432195002526
0.5989701 0.2823731767300278 -1.088618273731512
0.60097 0.28996085118314174 -1.0862193590795788
0.6029699 0.29665759216319965 -1.0846335896232833
0.6049698 0.3033110364719898 -1.0836599721956663
0.6069697 0.31081627735218137 -1.0822035622819444
0.6089696 0.3173089880527177 -1.0798624521133333
0.6109695 0.3236109763314053 -1.0780688758023738
0.6129694 0.33053089583827533 -1.076137300189466
0.6149693 0.3377434262169976 -1.0741972749263002
0.6169692 0.3445537949738684 -1.0725420428454502
0.6189691 0.3513615251368254 -1.0697374349765671
0.620969 0.35720645178921145 -1.067638454214639
0.6229689 0.36500472235131404 -1.065436137852425
0.6249688 0.3715765121431444 -1.0636069359432305
0.6269687 0.3789482013036356 -1.0609414410696905
0.6289686 0.3856391252127559 -1.0586860954569082
0.6309685 0.3928655941145926 -1.0568124855591505
0.6329684 0.39926647890647654 -1.0549142896318746
0.6349683 0.40665189789138245 -1.0522177151313288
0.6369682 0.4124139533894869 -1.050920720791429
0.6389681 0.41968257457358027 -1.047524908747532
0.640968 0.4266208186538044 -1.045439785234373
0.6429679 0.43312884611678715 -1.0434342953474587
0.6449678 0.43951236522854287 -1.0405055287087286
0.6469677 0.4458771305600251 -1.0380516245047922
0.6489676 0.4522957896349532 -1.03502711986083
0.6509675 0.4593607460063884 -1.0313039051184967
0.6529674 0.4656662148068097 -1.0296402893054375
0.6549673 0.4729835135243585 -1.0256195502098937
0.6569672 0.4793371126372252 -1.0230106724574681
0.6589671 0.48557191421796947 -1.0199249887801796
0.660967 0.49203146887730237 -1.0176093246492097
0.6629669 0.49878249470476677 -1.014475939805889
0.6649668 0.5053231354354715 -1.011286563202019
0.6669667 0.5119550915727422 -1.0086081736163408
0.6689666 0.5184055521392777 -1.0051811378853408
0.6709665 0.5252518538474964 -1.0024925596220173
0.6729664 0.5313056676687857 -1.0003475099596613
0.6749663 0.538038184712585 -0.9972775388128757
0.6769662 0.5443714120600822 -0.9935967395687775
0.6789661 0.5512191497578205 -0.9913677234231649
0.680966 0.5580625634498646 -0.9874120988502881
0.6829659 0.5642532574085486 -0.9837956138856173
0.6849658 0.570054611997472 -0.9804610312681226
0.6869657 0.5771941004913304 -0.9763192909341893
0.6889656 0.5828155609201191 -0.9726810437360356
0.6909655 0.5891189376083301 -0.9684126438602344
0.6929654 0.5956036812073843 -0.9652847851110945
0.6949653 0.60171448941022 -0.9614739549381935
0.6969652 0.6082653480361422 -0.9572530487802897
0.6989651 0.6141221454848137 -0.9534844800245519
0.700965 0.6200976756544951 -0.948978093050906
0.7029649 0.6268690534462203 -0.9451683778702341
0.7049648 0.6331388182095143 -0.942364323096571
0.7069647 0.6392118732590177 -0.937717936984895
0.7089646 0.6453278935107294 -0.9343753544663324
0.7109645 0.6506414209323231 -0.9302806647864007
0.7129644 0.6576914888725336 -0.9261020192222991
0.7149643 0.6629338880117593 -0.922249708918091
0.7169642 0.669089337254267 -0.9177217062707262
0.7189641 0.6755929559010456 -0.9136710534679158
0.720964 0.6812041848930167 -0.9093130853034466
0.7229639 0.6865836745507057 -0.9046479286216849
0.7249638 0.6924749494628716 -0.9005561084914675
0.7269637 0.6988853819225784 -0.896693675634357
0.7289636 0.7046621391921412 -0.8913233762701706
0.7309635 0.7103967410488773 -0.8876209935200143
0.7329634 0.7161934228748433 -0.8832908892619715
0.7349633 0.7226653507776184 -0.8791860845402396
0.7369632 0.7283205852523896 -0.8737788442200595
0.7389631 0.7344561714034967 -0.8701278156881498
0.740963 0.7396361568456998 -0.8659378547610963
0.7429629 0.7460679756781352 -0.861408691997166
0.7449628 0.7519399441344663 -0.8576043740604095
0.7469627 0.7574601254257496 -0.8520575265977908
0.7489626 0.7636993509745611 -0.8477358608243741
0.7509625 0.7693091396432551 -0.8426372962735552
0.7529624 0.7745464505779698 -0.8370562330254027
0.7549623 0.78027659207064 -0.832283348264535
0.7569622 0.7849808866789709 -0.8272861099985657
0.7589621 0.7914270012135408 -0.8219781985662739
0.760962 0.796325365812781 -0.8164371425944498
0.7629619 0.8017244309273148 -0.8114108080270305
0.7649618 0.807151786194152 -0.806425798347782
0.7669617 0.8122814020270653 -0.8004383001040166
0.7689616 0.8174235202940583 -0.7948474438289714
0.7709615 0.8227507425959887 -0.7899654578605368
0.7729614 0.8279665674757274 -0.7842744376726785
0.7749613 0.8337445766094692 -0.7799818357339894
0.7769612 0.8384785866025486 -0.7750075685320571
0.7789611 0.8440079593048141 -0.7690764461374884
0.780961 0.8488585489952857 -0.7636771602323964
0.7829609 0.8535513604955385 -0.7583698054326548
0.7849608 0.8591604588230873 -0.7534644121891533
0.7869607 0.8641904299747634 -0.7474541225643254
0.7889606 0.8688523550296161 -0.741528495234455
0.7909605 0.8736758886359329 -0.736448136302304
0.7929604 0.8784719659115059 -0.7302393613176756
0.7949603 0.8829577680337746 -0.7247209173577638
0.7969602 0.8873950156658739 -0.7190324525572372
0.7989601 0.8927014816626592 -0.7133418638839182
0.80096 0.897203628835382 -0.7076911752599659
