! Created with skrf 1.8.0 (http://scikit-rf.org).
# GHz S RI R 50.0 
!freq ReS11 ImS11
0.001 -0.9998562728925637 0.0006522700739421341
0.0029999 -0.9996863122524341 0.002533558791078288
0.0049998 -1.0039398121209706 0.004292349181574687
0.0069997 -1.0163666722551032 -0.001679321202317674
0.0089996 -1.0448173975732429 -0.02486762882037439
0.0109995 -1.0479709722017643 -0.03477626071484996
0.0129994 -1.05028812767884 -0.042907466677694434
0.0149993 -1.0517764530458247 -0.0531552294773814
0.0169992 -1.0535647150391751 -0.057045219958398036
0.0189991 -1.0525746199711303 -0.06456016905717525
0.020999 -1.0527894898899544 -0.07199990486795249
0.0229989 -1.0535827450238247 -0.07901814993760058
0.0249988 -1.0535189346007459 -0.08552121405520609
0.0269987 -1.0536346007109776 -0.09304902359016094
0.0289986 -1.0535475781843968 -0.09995290730731603
0.0309985 -1.053880647286379 -0.10630673088632853
0.0329984 -1.0529657151856944 -0.11374751378782517
0.0349983 -1.0524634715610925 -0.12002077745653061
0.0369982 -1.0522751893195517 -0.1278488362781661
0.0389981 -1.0509162076311511 -0.1332635166921241
0.040998 -1.0511355655026002 -0.13930751876141487
0.0429979 -1.0506997528478588 -0.14603553431226488
0.0449978 -1.0503654117700583 -0.15339539633355243
0.0469977 -1.0503216507511872 -0.15791455682543
0.0489976 -1.0489326710497915 -0.1669164139214476
0.0509975 -1.0479502017135915 -0.1725850519752996
0.0529974 -1.0463611141018274 -0.17962904538648689
0.0549973 -1.0458973514458583 -0.18420569880729057
0.0569972 -1.0455864115057671 -0.19172928813849824
0.0589971 -1.0450859489821394 -0.19691199065795326
0.060997 -1.0443304461957956 -0.20530591698792575
0.0629969 -1.041042909511565 -0.20965226976665766
0.0649968 -1.0427799828099544 -0.21604840287803714
0.0669967 -1.0396453593393526 -0.22341397320942685
0.0689966 -1.0402556986311315 -0.22974183611283983
0.0709965 -1.038588499654358 -0.23323686159876875
0.0729964 -1.0374253165514304 -0.24294844269960292
0.0749963 -1.036431560724152 -0.24890076444572118
0.0769962 -1.0364796460663797 -0.25422141722392316
0.0789961 -1.0338176599770612 -0.26113118335225294
0.080996 -1.033432378786486 -0.26722580523839556
0.0829959 -1.0316942641372073 -0.2741022531214959
0.0849958 -1.0295177464850687 -0.27891551501770157
0.0869957 -1.0273505301889605 -0.28451971298150497
0.0889956 -1.0269020155429474 -0.29109035654693943
0.0909955 -1.025179458701358 -0.2983047293379209
0.0929954 -1.0240073259548839 -0.30433307197262766
0.0949953 -1.022160930710912 -0.31111098814644766
0.0969952 -1.0197704958771132 -0.3168937579566692
0.0989951 -1.0188094786573294 -0.3227799518540291
0.100995 -1.016704324399491 -0.32985959707571944
0.1029949 -1.0149277447989515 -0.3364297746676738
0.1049948 -1.0134538457986084 -0.34260343667793747
0.1069947 -1.0120123864434145 -0.348718570486597
0.1089946 -1.009768896541322 -0.3553564080539893
0.1109945 -1.0076244811134134 -0.3612766673151829
0.1129944 -1.0055373855385457 -0.36737683734398635
0.1149943 -1.0034219316381936 -0.373820967443016
0.1169942 -1.0012620328845905 -0.3806764828885131
0.1189941 -0.998973939043969 -0.3860338317678203
0.120994 -0.9968530306074543 -0.39254910941876414
0.1229939 -0.995488710227792 -0.39720101745056624
0.1249938 -0.9936471949719301 -0.4052193907444133
0.1269937 -0.9907343779528741 -0.4113691530332456
0.1289936 -0.9877382795522842 -0.41617342494236226
0.1309935 -0.9858112970210703 -0.42218274607199907
0.1329934 -0.9832284422087916 -0.4286693496474881
0.1349933 -0.9814659934040597 -0.43553512996003285
0.1369932 -0.9799817748540216 -0.43921958290529783
0.1389931 -0.9772795005673006 -0.4464484991903955
0.140993 -0.9761329390077728 -0.4510513692411792
0.1429929 -0.9725335806319594 -0.4587944150536477
0.1449928 -0.9695150138581283 -0.4631879927694688
0.1469927 -0.9660613223788617 -0.47088428550737316
0.1489926 -0.964224368715104 -0.4759603975077337
0.1509925 -0.9626900263538657 -0.4808159556315783
0.1529924 -0.9607437261889435 -0.48851209394885015
0.1549923 -0.9563492279832652 -0.49267387883019925
0.1569922 -0.9537696052113468 -0.4975213540796266
0.1589921 -0.9513091801992732 -0.504835132191016
0.160992 -0.9491152933429581 -0.5098437035953084
0.1629919 -0.9458254086282236 -0.5163696535183099
0.1649918 -0.9420110837360449 -0.5224647497280238
0.1669917 -0.9399946358209068 -0.5264043197875374
0.1689916 -0.9369309523087307 -0.5333237203437526
0.1709915 -0.9333644149825514 -0.5397795406738367
0.1729914 -0.9304771142169481 -0.5452558829698093
0.1749913 -0.927228128927494 -0.5500079932348333
0.1769912 -0.924832290621032 -0.5565795868535676
0.1789911 -0.9212543593272248 -0.5623222136617965
0.180991 -0.9186893153998759 -0.5683490991837463
0.1829909 -0.9145722029630969 -0.573176976308906
0.1849908 -0.9116552808845901 -0.5788262177167425
0.1869907 -0.9079603706658879 -0.5847485061862944
0.1889906 -0.9056261141002842 -0.5906708897135502
0.1909905 -0.901430510809991 -0.595090784516003
0.1929904 -0.8980100882099177 -0.6006495961812985
0.1949903 -0.894677964589192 -0.6072425749898152
0.1969902 -0.891211144122522 -0.612946590027255
0.1989901 -0.8883024968422965 -0.617297677486038
0.20099 -0.8840774043056396 -0.6240274362010031
0.2029899 -0.8801035926059764 -0.6289497239426124
0.2049898 -0.8756168147380096 -0.6343207802641739
0.2069897 -0.8734423361430005 -0.6385455009096913
0.2089896 -0.8700278962915095 -0.6453497702878708
0.2109895 -0.867112121767104 -0.6495364896119327
0.2129894 -0.8624727445038999 -0.6551320735837819
0.2149893 -0.8592371524437344 -0.6612826819327183
0.2169892 -0.8551041865208615 -0.6655319252408338
0.2189891 -0.8517758310154113 -0.6717864617397655
0.220989 -0.8472190888562812 -0.6757122723331582
0.2229889 -0.8423048393697707 -0.6815030459859152
0.2249888 -0.8397788166846942 -0.6867931165232719
0.2269887 -0.8363695665581135 -0.6920225356019964
0.2289886 -0.8331650786384389 -0.6976210604490879
0.2309885 -0.8271147746502978 -0.7028750962409505
0.2329884 -0.8238892124102083 -0.7068676590242478
0.2349883 -0.8200063500613398 -0.7129511358867735
0.2369882 -0.8166171110347066 -0.7179927849495494
0.2389881 -0.8108499572357369 -0.7235117380180939
0.240988 -0.8069364350580045 -0.7272485634840311
0.2429879 -0.8029160122829582 -0.7326993490419096
0.2449878 -0.7993560007228634 -0.7378369046429438
0.2469877 -0.7954151138463287 -0.7424986042393689
0.2489876 -0.7904147963017719 -0.7474031051727014
0.2509875 -0.7857434486575138 -0.7524075437531363
0.2529874 -0.7817148884610399 -0.7580837661048611
0.2549873 -0.7773779173068633 -0.7627098552372756
0.2569872 -0.7734368644573497 -0.7662661897427065
0.2589871 -0.7679017145276479 -0.7705594349487358
0.260987 -0.7634415198573757 -0.7768505220363202
0.2629869 -0.7592868283614886 -0.7809656494238132
0.2649868 -0.7549368358154741 -0.7856432023913589
0.2669867 -0.7501482682532769 -0.7902531010688316
0.2689866 -0.7455313783893204 -0.7947253716596919
0.2709865 -0.740714140117712 -0.7996473009323406
0.2729864 -0.7358951765634529 -0.8039857557946098
0.2749863 -0.7321095435162757 -0.8085738403008252
0.2769862 -0.7271186919724237 -0.8132085190258872
0.2789861 -0.7213039913962396 -0.8175870674449018
0.280986 -0.7177587420215594 -0.8215001053669129
0.2829859 -0.7126056673246906 -0.8271734112663462
0.2849858 -0.7083112298318405 -0.8313955445489323
0.2869857 -0.7033099460993022 -0.8353308042302661
0.2889856 -0.6976553538982111 -0.8393434083287272
0.2909855 -0.6938910648659239 -0.8451055881815788
0.2929854 -0.6888629996608375 -0.8495110079084327
0.2949853 -0.6824190552531021 -0.853626997649007
0.2969852 -0.6781671483019082 -0.857476381776241
0.2989851 -0.6731942662786915 -0.8612034343478949
0.300985 -0.668841598724667 -0.8667555124047205
0.3029849 -0.6638935432806616 -0.8713318736425373
0.3049848 -0.6583545474296979 -0.8749879325494011
0.3069847 -0.653479130815238 -0.8779184705141828
0.3089846 -0.6481365342026194 -0.8824007661786845
0.3109845 -0.6441435499488914 -0.887602515834928
0.3129844 -0.6387092887061107 -0.8926864080468537
0.3149843 -0.6328888744493564 -0.8963885918656651
0.3169842 -0.6271122846465957 -0.8994172435978629
0.3189841 -0.6228804046656277 -0.904454270118636
0.320984 -0.6176438925328112 -0.9087714817058871
0.3229839 -0.612165416060877 -0.9119672027432003
0.3249838 -0.6054348715333859 -0.9165808492586394
0.3269837 -0.5992844011540299 -0.9205327540911314
0.3289836 -0.5942802778773654 -0.9250013721399964
0.3309835 -0.5891775166480286 -0.9281049864919731
0.3329834 -0.583964334660664 -0.9312636555763352
0.3349833 -0.5780965322470883 -0.9355865972775177
0.3369832 -0.5730504501028522 -0.9397750122383721
0.3389831 -0.567574608609713 -0.9429967081759318
0.340983 -0.5620086282118646 -0.9466385163633027
0.3429829 -0.5559528358852951 -0.9489044446431544
0.3449828 -0.5510259830886313 -0.9521158844790704
0.3469827 -0.5441901313018129 -0.9552206327393717
0.3489826 -0.5388202868223365 -0.9583984267339543
0.3509825 -0.5333653598559083 -0.9618458867801819
0.3529824 -0.5271517143865485 -0.9661873164535206
0.3549823 -0.5219831680141516 -0.968727659744563
0.3569822 -0.5158170242189737 -0.9721977454777968
0.3589821 -0.5099565168884533 -0.9750954108330749
0.360982 -0.5035574954594174 -0.9791783278745434
0.3629819 -0.4984828534245431 -0.9818694380049928
0.3649818 -0.49225592209280017 -0.9861137711462976
0.3669817 -0.48662581917314696 -0.9885045264612955
0.3689816 -0.48096842308353427 -0.9923077806296879
0.3709815 -0.47525773059188464 -0.9953040083603097
0.3729814 -0.4692772041830526 -0.9991998003042023
0.3749813 -0.46278587141187405 -1.0009677332471898
0.3769812 -0.4566493778942071 -1.004379948344919
0.3789811 -0.4515324727418127 -1.0081960828562673
0.380981 -0.44629746653510305 -1.0111860251522773
0.3829809 -0.4400744980192115 -1.0146907091676898
0.3849808 -0.43207085778856624 -1.0160182825943846
0.3869807 -0.42744741952351284 -1.0195660673415754
0.3889806 -0.4211051186345779 -1.0224357179177606
0.3909805 -0.41441198722781913 -1.025704840203837
0.3929804 -0.4089703556526079 -1.0276088895734417
0.3949803 -0.4009578307477568 -1.0303902042962598
0.3969802 -0.3960007975052369 -1.0334627330343804
0.3989801 -0.38943923331748387 -1.037247955409369
0.40098 -0.3837405426314507 -1.0389456320587682
0.4029799 -0.3770962867072173 -1.0421477210845531
0.4049798 -0.3699895923238872 -1.0445621368427154
0.4069797 -0.3644528553886655 -1.0456393981376162
0.4089796 -0.357908215661946 -1.0492838386731116
0.4109795 -0.35139119172467365 -1.05126483131189
0.4129794 -0.3446342038013845 -1.0536600252208979
0.4149793 -0.33892623977440295 -1.0556578014454228
0.4169792 -0.33226757082484604 -1.0584786703634688
0.4189791 -0.3252384560353998 -1.0608757110615452
0.420979 -0.31884138963294983 -1.0631401298118712
0.4229789 -0.3130269532762732 -1.0653067006570305
0.4249788 -0.30503060562946277 -1.0665482725637823
0.4269787 -0.2991951688533748 -1.069013830320261
0.4289786 -0.292514238787405 -1.0708121616036241
0.4309785 -0.2855167291389295 -1.073186018720819
0.4329784 -0.27974063385205034 -1.074922405511022
0.4349783 -0.27289097760146974 -1.076199065069034
0.4369782 -0.26610565626090965 -1.0793049078191879
0.4389781 -0.25993890431386135 -1.081130040679344
0.440978 -0.25369075332165153 -1.08270671351648
0.4429779 -0.24748464961934777 -1.0842446031359425
0.4449778 -0.24065595545163604 -1.086640646142367
0.4469777 -0.2341956895031168 -1.089007541229359
0.4489776 -0.22784584379182482 -1.0898399206932001
0.4509775 -0.22068451782438572 -1.091059838291019
0.4529774 -0.213704419855746 -1.0924107828689806
0.4549773 -0.20663573041168345 -1.095091009709953
0.4569772 -0.19985011489359655 -1.0965792847720066
0.4589771 -0.19327695107899828 -1.097614541203781
0.460977 -0.1865898227883377 -1.0995360359636273
0.4629769 -0.17850483642537374 -1.1010444580477008
0.4649768 -0.1729971671353338 -1.1018205115144677
0.4669767 -0.16559049298777984 -1.1039546797764366
0.4689766 -0.1590576267719664 -1.1055705901112105
0.4709765 -0.15296652455549503 -1.107166660165876
0.4729764 -0.14519960277944152 -1.1082518166790236
0.4749763 -0.1386080108472492 -1.1076763401452716
0.4769762 -0.13184233222553532 -1.1087980005200735
0.4789761 -0.12472701276397044 -1.1103367657557834
0.480976 -0.11794984915394462 -1.1104738469110322
0.4829759 -0.11098213049087521 -1.1121844502517526
0.4849758 -0.1045316796138343 -1.1127747756398734
0.4869757 -0.09744671529381282 -1.1141125817391093
0.4889756 -0.09037617908462559 -1.1146723305313433
0.4909755 -0.08274820413043933 -1.1159238565756262
0.4929754 -0.07651475879504832 -1.1162044084594231
0.4949753 -0.06852053485352744 -1.1175095049180526
0.4969752 -0.06186036809123227 -1.1182980979626562
0.4989751 -0.05458256381073258 -1.1185256844464107
0.500975 -0.04811569593097964 -1.1193281370542145
0.5029749 -0.04045306014073836 -1.1203609415539721
0.5049748 -0.033926412616222396 -1.12084661634239
0.5069747 -0.027156205779591824 -1.120662714257761
0.5089746 -0.02030253681156125 -1.121657251474369
0.5109745 -0.01307268205419105 -1.1227049531828817
0.5129744 -0.006666030826693252 -1.122073071740952
0.5149743 0.0005801120332951382 -1.1223184448719987
0.5169742 0.007450302627350067 -1.1233748074987089
0.5189741 0.014541457314040676 -1.1236572745381481
0.520974 0.02250023675283848 -1.1239928719939507
0.5229739 0.0290245038695139 -1.1231491252200376
0.5249738 0.0360114441412461 -1.1231860743507878
0.5269737 0.0434840511152549 -1.123362460686976
0.5289736 0.05077873682628002 -1.1239201076829402
0.5309735 0.05846724810393242 -1.1236352320223237
0.5329734 0.06493377776717003 -1.1234235962654933
0.5349733 0.0719647719147242 -1.1228898480382383
0.5369732 0.07938117553955501 -1.1230662484982825
0.5389731 0.08648782379268577 -1.1224104477919294
0.540973 0.09297504674097987 -1.123998946108272
0.5429729 0.10000941496971456 -1.1228148591769767
0.5449728 0.10707080240734448 -1.1226872050620138
0.5469727 0.11435917156193992 -1.1219557460666967
0.5489726 0.1217530108556243 -1.1217961614590037
0.5509725 0.12855944742932313 -1.120892670830059
0.5529724 0.13591831638149482 -1.1200054558853878
0.5549723 0.14359147604562508 -1.1185166794761223
0.5569722 0.15054534684518867 -1.118428540097205
0.5589721 0.15760690287617501 -1.1179631338863392
0.560972 0.164938974586528 -1.1168622113092566
0.5629719 0.17200048755467223 -1.1159668209551978
0.5649718 0.1791374003441546 -1.1147986114108113
0.5669717 0.18640038303907636 -1.1141399633763127
0.5689716 0.1933114714982766 -1.1128844077018467
0.5709715 0.20073741721452015 -1.111748996318618
0.5729714 0.20788566698676228 -1.111811659903214
0.5749713 0.21534931857699707 -1.1104028229126177
0.5769712 0.22214402493020985 -1.109919430604804
0.5789711 0.22855334925180948 -1.1085142327235395
0.580971 0.23593805042047428 -1.1081649649300656
0.5829709 0.24303196632044424 -1.1059275176885413
0.5849708 0.2504885052851912 -1.1044072174089528
0.5869707 0.2575757593455945 -1.102675339457051
0.5889706 0.2647290210807548 -1.1020472994585333
0.5909705 0.27194071564902605 -1.099855008852109
0.5929704 0.2785803497856648 -1.098650770360409
0.5949703 0.28543623652474737 -1.0976490999666089
0.5969702 0.2931187573198945 -1.0962995498944692
0.5989701 0.3008165092752736 -1.0944739767488307
0.60097 0.307885985499214 -1.0923389729795085
0.6029699 0.3149657593764978 -1.090938341801392
0.6049698 0.32175583961332305 -1.089672424069034
0.6069697 0.329131422425046 -1.0880655325806505
0.6089696 0.3363117384065032 -1.0852502492754905
0.6109695 0.34226881387767605 -1.0839106765283486
0.6129694 0.349914386120984 -1.0815696294478123
0.6149693 0.3572283601209834 -1.0794156221117919
0.6169692 0.3644564098030848 -1.0774452813220645
0.6189691 0.37086031683372495 -1.074784504505029
0.620969 0.3776067343722037 -1.072545520106735
0.6229689 0.3848968532363257 -1.07005872845856
0.6249688 0.39189881905899326 -1.0683777265819425
0.6269687 0.39922492357270206 -1.0654938787568253
0.6289686 0.4061224570491106 -1.063359303869546
0.6309685 0.4136479596875051 -1.0608792757830174
0.6329684 0.42031284149788156 -1.0590797731456703
0.6349683 0.427422420421571 -1.0563200857441326
0.6369682 0.43423908252285187 -1.0548372437447298
0.6389681 0.4415667876578388 -1.0513571342531114
0.640968 0.4478898272921737 -1.0486630860343444
0.6429679 0.4553981181103042 -1.0467372056332305
0.6449678 0.4614784311035213 -1.0436409283055852
0.6469677 0.46848895087603987 -1.0410544600054392
0.6489676 0.47525882393847707 -1.037919584241377
0.6509675 0.48253113155084776 -1.0339370534448227
0.6529674 0.4893808604943043 -1.031765306146315
0.6549673 0.49578229607548574 -1.0285617179263506
0.6569672 0.5027213601272559 -1.0249069196035503
0.6589671 0.5093697744224991 -1.022094814832052
0.660967 0.5157588600625652 -1.0196377530348861
0.6629669 0.5228492804798054 -1.0161478361480456
0.6649668 0.5298159819803191 -1.0132005766244854
0.6669667 0.5364669627239818 -1.009840650164918
0.6689666 0.5435418752442485 -1.0061907465965594
0.6709665 0.5502541014545733 -1.0037266575615134
0.6729664 0.5566832328338981 -1.0008781046757442
0.6749663 0.5640926166372986 -0.9972530037425547
0.6769662 0.5700158906410501 -0.993702921058349
0.6789661 0.5772844890478942 -0.9906604134132461
0.680966 0.5843227517823176 -0.986804267455616
0.6829659 0.5910525210082762 -0.9828462561299882
0.6849658 0.5970442004558785 -0.9789447111804369
0.6869657 0.6037742468271432 -0.9749402599721293
0.6889656 0.6099611994754922 -0.971365217722414
0.6909655 0.6162286745995772 -0.9668276202693886
0.6929654 0.6227599204683527 -0.9634758742166529
0.6949653 0.6288923794795671 -0.9589530613808658
0.6969652 0.6357780450731076 -0.9547238728375926
0.6989651 0.6422281953149377 -0.9509324076397715
0.700965 0.6484710626463237 -0.945756443399727
0.7029649 0.6548768287657729 -0.9416997475385234
0.7049648 0.6609627282588267 -0.9386617225535842
0.7069647 0.6674625089633732 -0.9336697132001232
0.7089646 0.6744294016361061 -0.9301297501272922
0.7109645 0.6797518060946244 -0.9258302608441364
0.7129644 0.6864398851624346 -0.9211797735394852
0.7149643 0.6917446906821885 -0.917584333550316
0.7169642 0.6983905196459517 -0.9118749688725284
0.7189641 0.7052816003912624 -0.9081387096742093
0.720964 0.7109899274788724 -0.9029705092786666
0.7229639 0.7163432690963303 -0.8985956218699276
0.7249638 0.7223246854951634 -0.8941983116021076
0.7269637 0.7289969697310148 -0.8899076107609761
0.7289636 0.7352828443224568 -0.8843195055675976
0.7309635 0.7406764073316432 -0.8802135250535454
0.7329634 0.74698493920085 -0.8750957399897759
0.7349633 0.7535620425950021 -0.8706204575151815
0.7369632 0.7590515268546683 -0.8653834101436737
0.7389631 0.7657934562371872 -0.8612080763589476
0.740963 0.7715730540950557 -0.8567860282167643
0.7429629 0.7779298800478193 -0.8518348273993263
0.7449628 0.783920355561024 -0.8474942757062334
0.7469627 0.7895765623619657 -0.8418451398284336
0.7489626 0.7964647186299885 -0.8369987451387229
0.7509625 0.8015416318916048 -0.8317030332880185
0.7529624 0.8070571092850786 -0.8258336152426041
0.7549623 0.812795268758429 -0.8207324532548508
0.7569622 0.8176276474399925 -0.815198625544691
0.7589621 0.8238920682767551 -0.8093345586308823
0.760962 0.8290218659686911 -0.8039312938631517
0.7629619 0.8346896395019406 -0.7984836323934058
0.7649618 0.8401966129617942 -0.7930691766015612
0.7669617 0.8456170875546495 -0.7864090169763807
0.7689616 0.8509381655959191 -0.7805201309748215
0.7709615 0.8558375596028337 -0.7757606871334153
0.7729614 0.8613598983625964 -0.7694025838531589
0.7749613 0.8673782397044555 -0.7649133517453011
0.7769612 0.871971017790088 -0.7597279844706826
0.7789611 0.8777131631343376 -0.752809706148083
0.780961 0.8825122719895555 -0.7474844326977726
0.7829609 0.8875043522248077 -0.7417338339530277
0.7849608 0.8931824416419902 -0.7365621240293001
0.7869607 0.8982389924330126 -0.7300574590898933
0.7889606 0.9029199908330259 -0.7238073413897583
0.7909605 0.9079207377362681 -0.7183507073353933
0.7929604 0.9124643909008473 -0.7117646159975229
0.7949603 0.917343926804043 -0.7059039545923043
0.7969602 0.922204080023741 -0.6996102596862422
0.7989601 0.9270531108316795 -0.6934227548335214
0.80096 0.9316988613824924 -0.6876053544889298
