! Created with skrf 1.8.0 (http://scikit-rf.org).
# GHz S RI R 50.0 
!freq ReS11 ImS11
0.001 -0.999963601382662 0.0002175697665536963
0.0029999 -0.9877652243054303 -0.025872327952029206
0.0049998 -0.9104928106309911 0.02891657485611046
0.0069997 -0.9556909261198093 0.041837469301049424
0.0089996 -0.303402508391089 0.04541288455973705
0.0109995 -0.08448378892986873 0.04429750745755244
0.0129994 -0.015638446456263607 -0.018966953373856645
0.0149993 -0.08165900235124957 0.0036453208567969503
0.0169992 -0.02401916734956557 0.04682996100205333
0.0189991 -0.015014209365574733 0.0354673874967479
0.020999 -0.014930396910560589 0.03171360236502134
0.0229989 -0.015830742959403583 0.03022370556789574
0.0249988 -0.01778431694643922 0.02612028216454353
0.0269987 -0.01696074109475466 0.024595489676805082
0.0289986 -0.01696821325899675 0.023596374961009386
0.0309985 -0.019192764598785564 0.020430458909467795
0.0329984 -0.018274219186269897 0.021130863695300248
0.0349983 -0.020570843069444615 0.020899284223256143
0.0369982 -0.017449830191040187 0.020419642976388243
0.0389981 -0.02154651287448874 0.021024985165095593
0.040998 -0.02085070621141266 0.01871527507822777
0.0429979 -0.020770967654740426 0.018934578903855047
0.0449978 -0.020270301109837095 0.019206956059404885
0.0469977 -0.023638818458066046 0.014698113381773044
0.0489976 -0.019768099236112606 0.01937974623706613
0.0509975 -0.020168125067944697 0.01988376710054958
0.0529974 -0.02037595529487693 0.021309297421512323
0.0549973 -0.02085801223072056 0.017368090534050046
0.0569972 -0.020679969001553264 0.01929633486691444
0.0589971 -0.022422358143551722 0.017212107642767618
0.060997 -0.02101449282282111 0.015264573699091837
0.0629969 -0.024582931268423723 0.020642148959544658
0.0649968 -0.023611529190617535 0.014334776858619901
0.0669967 -0.0216802559485083 0.016832318313311806
0.0689966 -0.020760069943436578 0.014943510987329362
0.0709965 -0.02543502509997801 0.0138364906339845
0.0729964 -0.02196341584110125 0.014643407666878801
0.0749963 -0.020727892313473623 0.013989842240870297
0.0769962 -0.022283021202848644 0.011080143836905932
0.0789961 -0.020560147983920155 0.014038484072947138
0.080996 -0.02245724778304641 0.010754848457405541
0.0829959 -0.020871798011861523 0.012395179984923508
0.0849958 -0.02111829731316716 0.01301342343591514
0.0869957 -0.022114269432907136 0.013982153986369848
0.0889956 -0.021317539259967714 0.012179561691151764
0.0909955 -0.020183105299751442 0.012918647508415121
0.0929954 -0.020788707965827557 0.01277388702118608
0.0949953 -0.019990228641579868 0.0135427077846813
0.0969952 -0.02042120543543851 0.015236535786686076
0.0989951 -0.021483089081126824 0.014422318918480597
0.100995 -0.019653815580663467 0.013719851202357832
0.1029949 -0.019883559950281744 0.013862741969056994
0.1049948 -0.01980895293238241 0.014211227153146839
0.1069947 -0.01962932028217491 0.014906970793198792
0.1089946 -0.020005489522509915 0.015692059752441728
0.1109945 -0.02041723771988417 0.016575617639622543
0.1129944 -0.021092228727890832 0.017383669303672356
0.1149943 -0.020712825349298275 0.01810018150216656
0.1169942 -0.020536771309233568 0.018490343593777415
0.1189941 -0.022119402001457043 0.01951834431984595
0.120994 -0.0227956038574703 0.019552657603688912
0.1229939 -0.024627380780988684 0.019753451975701043
0.1249938 -0.022993000655638546 0.0189175961207683
0.1269937 -0.02377201196122726 0.020155909556518657
0.1289936 -0.025774259161078488 0.020109360189009214
0.1309935 -0.026189706922759667 0.020361231308145884
0.1329934 -0.02619416574657265 0.01991598506765228
0.1349933 -0.02846316865291739 0.019097954623919826
0.1369932 -0.02678541536654364 0.0196409216270061
0.1389931 -0.027167848932711347 0.019362413678381943
0.140993 -0.028103745459256084 0.01898010799784166
0.1429929 -0.026611063966666463 0.019531079961842508
0.1449928 -0.027754690700910793 0.019315197012045475
0.1469927 -0.027243912974530004 0.019665612217971508
0.1489926 -0.02773854524359275 0.01844534740017357
0.1509925 -0.02815997496791266 0.01898408595445617
0.1529924 -0.028189649114349298 0.017613003060443205
0.1549923 -0.0278855119462512 0.01821834249129797
0.1569922 -0.028925360066340316 0.018566491691796784
0.1589921 -0.02816507324162184 0.018309487340490597
0.160992 -0.029136579421717802 0.01817907325965426
0.1629919 -0.02848305352047295 0.018182109544883463
0.1649918 -0.028049248768572146 0.018699170898758395
0.1669917 -0.028800227115316605 0.0188389603734056
0.1689916 -0.028766747408734177 0.018712145567715922
0.1709915 -0.027989023774712914 0.019675160085392954
0.1729914 -0.027847841368964656 0.019540776704112146
0.1749913 -0.02867512789513036 0.01990884164998051
0.1769912 -0.02900408555290691 0.02010711958044867
0.1789911 -0.028215333670178068 0.020186974191603896
0.180991 -0.028451669394829147 0.020067805444634493
0.1829909 -0.028946664758710612 0.02079408024885938
0.1849908 -0.02920650893712503 0.0210262475624178
0.1869907 -0.02948715783424638 0.021311178662766626
0.1889906 -0.02957746600748099 0.02054828199621909
0.1909905 -0.030157684233479753 0.021824633257545023
0.1929904 -0.030667233629651285 0.022087531798616836
0.1949903 -0.030277186572248434 0.021916113931473677
0.1969902 -0.030808116118797496 0.021561764626619566
0.1989901 -0.0312060171257446 0.02245997583821648
0.20099 -0.03156967508624728 0.02197899541856006
0.2029899 -0.03154789759871938 0.022490877926614465
0.2049898 -0.03128607822599902 0.023419414967103428
0.2069897 -0.03273451009158233 0.023034169262732745
0.2089896 -0.031730618537109304 0.022648469107972694
0.2109895 -0.032736135460048915 0.022764527713230304
0.2129894 -0.03290895602371508 0.023245058537852043
0.2149893 -0.03325220273656762 0.022905715220534483
0.2169892 -0.0335397083072443 0.023126736005966087
0.2189891 -0.032936638044223546 0.02250891100300908
0.220989 -0.034128327526641467 0.023648307141032915
0.2229889 -0.034588589058835634 0.023467353718239277
0.2249888 -0.03441022087130816 0.02323267932953582
0.2269887 -0.0348239808863658 0.02300957763259672
0.2289886 -0.03488835545227453 0.02237777926586868
0.2309885 -0.03421086208162681 0.023437185397986796
0.2329884 -0.035377433048007126 0.023623995642081647
0.2349883 -0.03543332344632067 0.023473738268291487
0.2369882 -0.03618183324644015 0.022849491261697604
0.2389881 -0.035310249969609166 0.023315635337441937
0.240988 -0.03618078253326029 0.02392216698879615
0.2429879 -0.035997667686848325 0.023797138376269428
0.2449878 -0.03646537048239676 0.023093356435676768
0.2469877 -0.03689067971022789 0.023281391757439186
0.2489876 -0.03685239623853808 0.023208642381766946
0.2509875 -0.03671153594385693 0.0235536492262824
0.2529874 -0.03653122553646716 0.023035462323654735
0.2549873 -0.036651043738511566 0.022770157988536106
0.2569872 -0.03700337199779851 0.023248149095093314
0.2589871 -0.037099698460055806 0.02349168807725091
0.260987 -0.036925380464978536 0.023288787637160132
0.2629869 -0.03678110532238017 0.023586187628742226
0.2649868 -0.03722306610639112 0.023653382653320808
0.2669867 -0.03739470102281128 0.023941448282555202
0.2689866 -0.0377535072934199 0.02418080246087104
0.2709865 -0.037362239609485245 0.0244685862638751
0.2729864 -0.037253209693748575 0.024833336108248116
0.2749863 -0.03746280430540348 0.024670234751404948
0.2769862 -0.03732760078156682 0.025343833810986427
0.2789861 -0.037501498412071954 0.026113878732862215
0.280986 -0.03816762172078501 0.026455751698578778
0.2829859 -0.03795904458197036 0.026800497628007944
0.2849858 -0.03835097533168193 0.02697198986544198
0.2869857 -0.03890578215575968 0.027781150811994858
0.2889856 -0.039220005344940016 0.028414473465028674
0.2909855 -0.03971403492506863 0.028172936651703256
0.2929854 -0.039902544817639926 0.028179869302978278
0.2949853 -0.040085532808538174 0.029007908858997886
0.2969852 -0.041041485134504854 0.0294877724002192
0.2989851 -0.04184825382798041 0.030059058923503898
0.300985 -0.042596482085494686 0.02974802193829735
0.3029849 -0.04333275861548922 0.02957839714851643
0.3049848 -0.043668186565456055 0.030195436541589155
0.3069847 -0.04502322396521242 0.030471346414628724
0.3089846 -0.04569362506195461 0.030525201477472282
0.3109845 -0.04610195081869506 0.029321815337092865
0.3129844 -0.04704619124831641 0.02930072467001136
0.3149843 -0.047517456757938004 0.029230230673117655
0.3169842 -0.04821862600579381 0.029802823379517285
0.3189841 -0.049215708613821796 0.029006335580307057
0.320984 -0.04997047600512863 0.028605889072379983
0.3229839 -0.05045847280364412 0.02835073295098864
0.3249838 -0.05060811105804261 0.028252550750687392
0.3269837 -0.050924465920673595 0.028297758632992144
0.3289836 -0.05168711102906191 0.027681511618948593
0.3309835 -0.05205755508527031 0.027530934128709605
0.3329834 -0.05212873833395455 0.027329093035696986
0.3349833 -0.0520726337446905 0.027048703611525348
0.3369832 -0.05163569154336824 0.026335230054334788
0.3389831 -0.051782766879185524 0.02595227136441183
0.340983 -0.05076743608235531 0.02556032472172218
0.3429829 -0.05061077720454033 0.02595092129941772
0.3449828 -0.05006119501097217 0.025593901770922047
0.3469827 -0.0501634494900398 0.025558534016563172
0.3489826 -0.049802395136278516 0.02557057486804879
0.3509825 -0.049774560735643784 0.025308572875325574
0.3529824 -0.049089143262533746 0.025446236996918344
0.3549823 -0.048956198149326516 0.02580575802057438
0.3569822 -0.04905282014678351 0.026006309576447437
0.3589821 -0.048955667161257724 0.026539604694512622
0.360982 -0.04847629528542487 0.02660763940393468
0.3629819 -0.04899510551856548 0.026957064037768833
0.3649818 -0.04889620459827415 0.02761091527250336
0.3669817 -0.049717329893461074 0.02785857128653157
0.3689816 -0.04999659492024197 0.028129511159660316
0.3709815 -0.05025903337294177 0.028399039153861546
0.3729814 -0.05046743721693834 0.028927663932340968
0.3749813 -0.051075302386812654 0.0296709926444304
0.3769812 -0.051727811860515685 0.029972569072857093
0.3789811 -0.05254642922312197 0.029533571637551045
0.380981 -0.053342689793738976 0.0297103330295656
0.3829809 -0.0541557233686301 0.02965685633956983
0.3849808 -0.05461956256140134 0.030320997282554153
0.3869807 -0.055499621662572746 0.03016511931912967
0.3889806 -0.0559673882033284 0.029956368675300757
0.3909805 -0.056496689162440814 0.0299063432874816
0.3929804 -0.057490482926968456 0.029462689704255578
0.3949803 -0.05778549368676732 0.02961656037608275
0.3969802 -0.05850256591558463 0.02901130490845592
0.3989801 -0.05900623891984482 0.02846817175452108
0.40098 -0.05960105886142386 0.02807950661229628
0.4029799 -0.05952531248790842 0.02747532684624908
0.4049798 -0.05981123624796028 0.02711585511017089
0.4069797 -0.06022624758344856 0.02716777255846519
0.4089796 -0.060111497012791795 0.026648061191348032
0.4109795 -0.06018359475272127 0.02640327180608979
0.4129794 -0.06015803568936595 0.025832481903310785
0.4149793 -0.06019219782549101 0.025568008433025913
0.4169792 -0.06012445362642918 0.025235942360926886
0.4189791 -0.059864883135864924 0.025103323611504774
0.420979 -0.05982148491613761 0.025214424736734086
0.4229789 -0.05968841738488656 0.025199678980205687
0.4249788 -0.05967320114859104 0.02537777509828479
0.4269787 -0.059570818508018555 0.025386964638966576
0.4289786 -0.05948262175421111 0.025804890726011796
0.4309785 -0.059803702947386156 0.02602362510048145
0.4329784 -0.059742221060484484 0.026451267474106827
0.4349783 -0.06026397064438931 0.026305338565724024
0.4369782 -0.0604211948455549 0.026740180094812396
0.4389781 -0.06053820910067086 0.027133242443881204
0.440978 -0.06134419849815173 0.027192014383036322
0.4429779 -0.061666441453796204 0.027954706535635306
0.4449778 -0.062383173430315506 0.02795201826278796
0.4469777 -0.06290590950794499 0.02798064697958094
0.4489776 -0.06372923360005743 0.028111343883441643
0.4509775 -0.06402617106316971 0.028518571842322774
0.4529774 -0.06493891567280108 0.028649512597342195
0.4549773 -0.06547006572254165 0.028220522718156477
0.4569772 -0.06627700568945387 0.02797357322941592
0.4589771 -0.06699630311414188 0.027870578230594294
0.460977 -0.06779311350078472 0.027272469013897058
0.4629769 -0.06813491298043482 0.02678774385856605
0.4649768 -0.06908085007040018 0.02647924101492222
0.4669767 -0.06920068913740322 0.025773853946899697
0.4689766 -0.06957969584588922 0.02534840168858031
0.4709765 -0.07006616291745439 0.024544590402493766
0.4729764 -0.07016703054063075 0.023870066799357034
0.4749763 -0.07030009486572757 0.023817604066255174
0.4769762 -0.07060290979048084 0.02334871756488306
0.4789761 -0.07057092584286648 0.022518355089772447
0.480976 -0.07032877021687065 0.022367172857459334
0.4829759 -0.0704816898252986 0.021568963589157972
0.4849758 -0.07037287634584931 0.02151824599350415
0.4869757 -0.07026547958849767 0.021255584208846698
0.4889756 -0.07003281860338716 0.020781282077111426
0.4909755 -0.06953035876900958 0.020624702787354027
0.4929754 -0.06941446641869681 0.020942884778471036
0.4949753 -0.06908618699049013 0.020831856055511012
0.4969752 -0.06904381587191122 0.020930324342033967
0.4989751 -0.06898978149468993 0.02132552440075484
0.500975 -0.06902249599975957 0.02157083661851546
0.5029749 -0.06899397090107796 0.021580847910840164
0.5049748 -0.06942749906335613 0.021961373074571196
0.5069747 -0.0698254480676374 0.022449643419212087
0.5089746 -0.07040288778881595 0.02250239758205607
0.5109745 -0.07029897973316411 0.022349729859696164
0.5129744 -0.07099506910602038 0.023052337497818147
0.5149743 -0.07126346742331387 0.023677245113730722
0.5169742 -0.0721503639018062 0.02371459932559148
0.5189741 -0.0729822993552267 0.02394734449165492
0.520974 -0.07348119655817546 0.023656678479411095
0.5229739 -0.07425497519422955 0.023796978658558662
0.5249738 -0.07488802030289686 0.024194372853228893
0.5269737 -0.07553498836989334 0.023684241587255305
0.5289736 -0.0761636819427973 0.023671821191461148
0.5309735 -0.07676947912672974 0.02325936830554837
0.5329734 -0.07751738170542713 0.02303656077516419
0.5349733 -0.07812339947674964 0.022976522105814617
0.5369732 -0.07868324549162892 0.022306119056204523
0.5389731 -0.07901389887641141 0.02178719172371027
0.540973 -0.079854178128153 0.020734693454823077
0.5429729 -0.07998147824468055 0.02032096122600797
0.5449728 -0.0806040979781049 0.019499450483725204
0.5469727 -0.08069121984408924 0.01896370254901635
0.5489726 -0.0806445284404898 0.018079369680086083
0.5509725 -0.0806593472985053 0.01760413626049042
0.5529724 -0.080862705583593 0.017246690376660188
0.5549723 -0.08094974261285186 0.016875276875014698
0.5569722 -0.08097542396516783 0.01626391683593535
0.5589721 -0.08049172946519442 0.015771698125647615
0.560972 -0.08019320778297145 0.01572739403331312
0.5629719 -0.07992524748980909 0.015475378795803522
0.5649718 -0.0796256455860972 0.01530729795575208
0.5669717 -0.07957732134219121 0.015190546983195632
0.5689716 -0.07945196016511184 0.015469582397447654
0.5709715 -0.07943096389221449 0.015628133558187762
0.5729714 -0.07948033204806954 0.015471641427126096
0.5749713 -0.07957542979868451 0.015605745695829062
0.5769712 -0.07985271685640283 0.015514157586879643
0.5789711 -0.0800604495971229 0.015752883125630154
0.580971 -0.08020449416888041 0.01592738998061276
0.5829709 -0.08050513842256558 0.01642134207894219
0.5849708 -0.08081367444845872 0.01678337087422433
0.5869707 -0.08147659645114523 0.016886526079013083
0.5889706 -0.08209487525780523 0.01656580135459519
0.5909705 -0.08290393983036437 0.016607300528146383
0.5929704 -0.08354201513197716 0.016366725221959918
0.5949703 -0.08401962302937217 0.016251253485330356
0.5969702 -0.0843867143308067 0.015756123462114257
0.5989701 -0.0854722413053339 0.015409715405944966
0.60097 -0.0858614762672393 0.01541499359153338
0.6029699 -0.08645036315605506 0.014749566076731366
0.6049698 -0.08692102853946922 0.014192150971752474
0.6069697 -0.08757020717540796 0.013705444734181005
0.6089696 -0.08779100388043028 0.013052116062869129
0.6109695 -0.08820065677402705 0.012502598930494765
0.6129694 -0.08862467131003987 0.01149126066423959
0.6149693 -0.08855290276170127 0.010880114461527944
0.6169692 -0.08860359760495673 0.010212201917688443
0.6189691 -0.0886111675937215 0.00964299652543616
0.620969 -0.08864364343196851 0.009087591371459681
0.6229689 -0.08840605794944408 0.008596393382358007
0.6249688 -0.0882786844253557 0.008085895416919738
0.6269687 -0.08806903062008534 0.00759697955341903
0.6289686 -0.08780185035872298 0.007407890811749654
0.6309685 -0.087192294533312 0.007424736700840276
0.6329684 -0.08712662446019566 0.007119315045466375
0.6349683 -0.08698742230887865 0.007221991547009199
0.6369682 -0.0870894607805218 0.0069347351227999
0.6389681 -0.08670455835429201 0.00682730898371231
0.640968 -0.08649921362467317 0.006981303200590441
0.6429679 -0.08664738583527354 0.007172750508354843
0.6449678 -0.08692637028573637 0.0075663857157987
0.6469677 -0.08690358713126767 0.007641472118564467
0.6489676 -0.08727246140828179 0.007974227465343542
0.6509675 -0.08789235456107992 0.008467641661690537
0.6529674 -0.08829917938707538 0.008685959394497636
0.6549673 -0.08878891986552638 0.008951583174783742
0.6569672 -0.0893890011371958 0.009151123723255009
0.6589671 -0.09001369058897178 0.009280369049802884
0.660967 -0.09085971244268093 0.009162386969867174
0.6629669 -0.09166441383257676 0.009002731603669743
0.6649668 -0.09251196678723393 0.008908774510869667
0.6669667 -0.09346044898769429 0.008308154056868064
0.6689666 -0.09414447753487308 0.007873617038765712
0.6709665 -0.09468430686362318 0.007037430258880491
0.6729664 -0.09546733645771402 0.006494012134842984
0.6749663 -0.09594484821958887 0.005576069743510027
0.6769662 -0.09678583397999403 0.0047619807957496735
0.6789661 -0.0972907930339671 0.0034140542106419827
0.680966 -0.09761296337114189 0.0026741061849306497
0.6829659 -0.09780514796956272 0.0016427530876507515
0.6849658 -0.09791471118797108 0.0009001393938054825
0.6869657 -0.09790862437123668 -4.204933023759655e-05
0.6889656 -0.09771922347747891 -0.0007131167589403131
0.6909655 -0.09762407435768143 -0.0014468147328561137
0.6929654 -0.09736086166464805 -0.002347361766242624
0.6949653 -0.09701982637117705 -0.0028132847873658315
0.6969652 -0.09673975521747268 -0.0036345484274406537
0.6989651 -0.09631168293392031 -0.004076969855842702
0.700965 -0.09599406469178778 -0.004489196439082327
0.7029649 -0.09557255726758432 -0.0046243087621590795
0.7049648 -0.09531839979504182 -0.004956369743071218
0.7069647 -0.09516810206734465 -0.004980542002394069
0.7089646 -0.09429954610335592 -0.005188421759537841
0.7109645 -0.09425747909279376 -0.004588099644501117
0.7129644 -0.09437075227467712 -0.004550482651730255
0.7149643 -0.09451536082635759 -0.004238833741901385
0.7169642 -0.0947253174073658 -0.003830158982539543
0.7189641 -0.09489796312752727 -0.003715786418247602
0.720964 -0.09515458921637779 -0.003678795498383
0.7229639 -0.0957214438538127 -0.0033584729288205425
0.7249638 -0.09582928602788562 -0.0031288953942128633
0.7269637 -0.09647421484523676 -0.0030824161367318317
0.7289636 -0.09703946522059659 -0.0032285073624013505
0.7309635 -0.09766347459047285 -0.003047489104506862
0.7329634 -0.0982216820720337 -0.003245542402216986
0.7349633 -0.09925145760609826 -0.0037575315967761785
0.7369632 -0.09999340648778249 -0.0038817055592785046
0.7389631 -0.10094516879763131 -0.00463307472567602
0.740963 -0.10181412018210179 -0.005193766725384914
0.7429629 -0.1021684900191285 -0.006217373575387798
0.7449628 -0.10277751287558318 -0.007072177343015636
0.7469627 -0.10308644896471181 -0.007885759142184326
0.7489626 -0.1034998739596724 -0.008867415154363019
0.7509625 -0.1038253424728492 -0.009572317467031487
0.7529624 -0.10412406939487055 -0.01051032251015755
0.7549623 -0.1041521036701605 -0.011424446900719712
0.7569622 -0.10410097706135979 -0.01216480832989338
0.7589621 -0.10391735105151231 -0.01337163873079365
0.760962 -0.1034987634618249 -0.014295429456548023
0.7629619 -0.10308474463292522 -0.015191188583141023
0.7649618 -0.10276387878606912 -0.015809780428713616
0.7669617 -0.10224943623952762 -0.01661023001935138
