! Created with skrf 1.8.0 (http://scikit-rf.org).
# GHz S RI R 50.0 
!freq ReS11 ImS11
0.001 -1.0015525836712285 -0.00041943160609700316
0.0029999 0.906070960724784 0.5666496723076277
0.0049998 0.9544589028948808 0.22489300498194784
0.0069997 0.9866773406003988 0.13785745094033186
0.0089996 1.0126554037906024 0.07417499548685777
0.0109995 1.010541418410638 0.061635545733334886
0.0129994 1.012414928432319 0.06072742355360815
0.0149993 1.011489218817436 0.06631670673162282
0.0169992 1.0101181179025427 0.06949226376003642
0.0189991 1.0111596899242306 0.07421612815322097
0.020999 1.0116009098306986 0.0803081595174546
0.0229989 1.0106775532502354 0.08727639286235092
0.0249988 1.0103146699206673 0.09403834538320167
0.0269987 1.0098542024392618 0.1013937085352635
0.0289986 1.0092153524774896 0.10897567630635445
0.0309985 1.0080719073481093 0.11723362607190915
0.0329984 1.0090301637322976 0.12368944442546384
0.0349983 1.0080761332603652 0.13254451654484667
0.0369982 1.0065089933165636 0.1388850099127664
0.0389981 1.0058252533047458 0.14655470397832815
0.040998 1.0038191519591646 0.15398358568543455
0.0429979 1.0038045944021354 0.16131594763312462
0.0449978 1.0020441809208405 0.1680594695892998
0.0469977 1.0000177794879659 0.17678941321146213
0.0489976 0.9997756689955267 0.18319818491248555
0.0509975 0.9990459074977212 0.18993508971989667
0.0529974 0.9980584183211186 0.1988971584192238
0.0549973 0.9952215568886753 0.20575370645800545
0.0569972 0.994650097240808 0.21186522779660868
0.0589971 0.9924820745594776 0.22019836296312395
0.060997 0.9904076139286784 0.2264590849937831
0.0629969 0.9911180466572057 0.23485733929430752
0.0649968 0.9862967395758994 0.24205435164666153
0.0669967 0.9869099570181046 0.24711750707422553
0.0689966 0.9849794841900162 0.2545303410402393
0.0709965 0.9815797518346174 0.26423171370728255
0.0729964 0.9810078088212214 0.26864472965033115
0.0749963 0.9793773833702025 0.2748656129510626
0.0769962 0.975800865357346 0.28315898962038927
0.0789961 0.9757314078778297 0.2895229223477626
0.080996 0.9717703441776814 0.29741443458492256
0.0829959 0.9714686078358483 0.30419577238372225
0.0849958 0.9691675616485462 0.3110898147272283
0.0869957 0.9669756109840033 0.31895099953915385
0.0889956 0.9638202626090541 0.32468050481380545
0.0909955 0.9616060143760915 0.33052082073541633
0.0929954 0.9594553871596142 0.33736296894684137
0.0949953 0.9574698237747563 0.3448805841571196
0.0969952 0.955148515862338 0.3515365997731866
0.0989951 0.9527778723651332 0.3582897118035757
0.100995 0.9499708339307297 0.3659703829083527
0.1029949 0.9471162909973572 0.37220761809962366
0.1049948 0.9437551790492236 0.3786979162584677
0.1069947 0.9412531316652513 0.3860363395568761
0.1089946 0.939542842745391 0.39235591087772903
0.1109945 0.9358098797658714 0.3984427181976243
0.1129944 0.9336982276630126 0.40590788582488446
0.1149943 0.9315705944834008 0.4118172318358965
0.1169942 0.9289409011440604 0.41878174581069666
0.1189941 0.9257757017903342 0.42606978222283376
0.120994 0.9231146310461753 0.43222022897008094
0.1229939 0.9190478631118308 0.44034094413204966
0.1249938 0.9155817075844591 0.4452563644359059
0.1269937 0.9139736961049816 0.4521689892648067
0.1289936 0.9103321282282428 0.46000457820240015
0.1309935 0.9062481990782396 0.46624503425307456
0.1329934 0.9036452233234988 0.4727227834121981
0.1349933 0.9004454423102342 0.47812672067894874
0.1369932 0.8971372092912032 0.48550107149890465
0.1389931 0.8937882622882447 0.4914681357759358
0.140993 0.8888527112243443 0.4991552241939917
0.1429929 0.8866995974254109 0.5045671459941208
0.1449928 0.8828794310118564 0.5117071054359155
0.1469927 0.8794119635815442 0.5190221113897159
0.1489926 0.8759326586421025 0.523179635166397
0.1509925 0.8716787850737644 0.5313680769379818
0.1529924 0.867161839063134 0.5363170768829081
0.1549923 0.8632372379261873 0.5431566807364663
0.1569922 0.8603469814385781 0.5505072718994057
0.1589921 0.856398079316234 0.555564814755031
0.160992 0.8507511424351214 0.5616704548914796
0.1629919 0.8489486720391142 0.5674941033310683
0.1649918 0.8445389697621046 0.5730240701693935
0.1669917 0.8406594637846042 0.5792522119434543
0.1689916 0.836122734418437 0.585584691073452
0.1709915 0.832619957481784 0.5901224720850814
0.1729914 0.8281976489283435 0.5968389282351818
0.1749913 0.8240996708678391 0.6033167021657032
0.1769912 0.8187920007160281 0.6087486758348952
0.1789911 0.8155332003084849 0.6137526797688969
0.180991 0.811328514397241 0.6194415542400054
0.1829909 0.8073010234183132 0.6257220905794935
0.1849908 0.8015661632740468 0.631262976102008
0.1869907 0.797644124503763 0.637429068136093
0.1889906 0.7929151803033766 0.6423434571351286
0.1909905 0.7885287937930204 0.649403911109601
0.1929904 0.7839962956977438 0.6554328951782772
0.1949903 0.7799627006757003 0.6594814629557821
0.1969902 0.774239842380189 0.6655395376368216
0.1989901 0.7706036964833757 0.6710500356290184
0.20099 0.7644103883520919 0.6767649442425955
0.2029899 0.761228153449041 0.6820425805671534
0.2049898 0.75607275283127 0.6881587615649701
0.2069897 0.7512803721722128 0.6932120715794364
0.2089896 0.7460562103396879 0.6992523509541355
0.2109895 0.7411937620009965 0.7037129975994195
0.2129894 0.7370244068038594 0.7098453843919315
0.2149893 0.7313949402326763 0.7145684040214707
0.2169892 0.7258137222360952 0.7202145868094998
0.2189891 0.7204056828356235 0.724502101460987
0.220989 0.7165781196509805 0.7302394409672197
0.2229889 0.7115568956069659 0.7367650870271377
0.2249888 0.7066486918791957 0.7414006639810187
0.2269887 0.7004295508343598 0.7461433839708945
0.2289886 0.6962228854736886 0.7499462415097351
0.2309885 0.6916661186612065 0.7560730634662662
0.2329884 0.6855631171897789 0.7611728917214063
0.2349883 0.6798193492863084 0.7659552149575891
0.2369882 0.6742305895846497 0.7701917045472108
0.2389881 0.6697325408189281 0.7748921350166293
0.240988 0.6642000573180944 0.7807334603614681
0.2429879 0.6589210492960076 0.7855870755045666
0.2449878 0.6531529230235931 0.7893526349845292
0.2469877 0.6469502008602497 0.7938097420204038
0.2489876 0.6417601713293295 0.7985407475560476
0.2509875 0.6368190592868229 0.8038793324124494
0.2529874 0.6309534912055071 0.8069407264570738
0.2549873 0.624522708498344 0.81102715916023
0.2569872 0.6196124757066885 0.8166900285368476
0.2589871 0.6140445992081409 0.8206622443254293
0.260987 0.6081674527895207 0.8240872534949165
0.2629869 0.6020137426649146 0.8287654428769032
0.2649868 0.5965920923974172 0.8336644978987389
0.2669867 0.5907322331049953 0.8370994438027322
0.2689866 0.584988459154604 0.8412702890111611
0.2709865 0.5785530897883697 0.846237452578145
0.2729864 0.5728378112765321 0.8503688032223432
0.2749863 0.566671382467455 0.8537482428836507
0.2769862 0.5606369229601025 0.8581127484346174
0.2789861 0.5554962534894743 0.8623707963177036
0.280986 0.5502301515656048 0.8661839182179918
0.2829859 0.5437657102111363 0.8695218814785816
0.2849858 0.5374813981672866 0.8732397244314009
0.2869857 0.5314842069362651 0.8788216120475645
0.2889856 0.5253397332871604 0.8818395632256137
0.2909855 0.5194984231410901 0.8850659780663013
0.2929854 0.5133677298748525 0.8880964569650163
0.2949853 0.5076207123307517 0.8922596444886145
0.2969852 0.5014677678461215 0.8970951659297004
0.2989851 0.4951296729536786 0.9005387853045238
0.300985 0.48868762441447283 0.9037082043158731
0.3029849 0.4826837821050394 0.9067396439659111
0.3049848 0.4771694212126299 0.9099362754027893
0.3069847 0.4711172444119231 0.9142501063680718
0.3089846 0.46451019950037453 0.9173447872335738
0.3109845 0.45855257114725556 0.9199394462875752
0.3129844 0.4511210113898808 0.9230667062887385
0.3149843 0.44505648955261373 0.9262158946617184
0.3169842 0.438880349085675 0.931056804876375
0.3189841 0.43144164223738113 0.9339812545157535
0.320984 0.42499688173933425 0.935837291520368
0.3229839 0.41839200689882006 0.9397140506936261
0.3249838 0.41322989266715 0.9424887139120425
0.3269837 0.4056570327714415 0.9463747173323589
0.3289836 0.40012959652167374 0.947725399409461
0.3309835 0.39324196611046375 0.9514058182000997
0.3329834 0.3873392443218675 0.9535079250302502
0.3349833 0.37905402633525964 0.9566518370580729
0.3369832 0.3730193063546486 0.9582886078354111
0.3389831 0.3668108232622896 0.9600141648975745
0.340983 0.36056201950752037 0.9624747627805877
0.3429829 0.3528954849378493 0.9662560534202577
0.3449828 0.34664642881529856 0.9686135715723294
0.3469827 0.3398382060672344 0.9706709618671269
0.3489826 0.3324947807705752 0.9736760155601155
0.3509825 0.3265576631236772 0.9760952010849965
0.3529824 0.31944338482802404 0.9783490562487895
0.3549823 0.31317255762159296 0.9816662996876986
0.3569822 0.30586520857995025 0.9827683479183466
0.3589821 0.2990872731856867 0.9855457576505905
0.360982 0.29252253024529656 0.9870229351453986
0.3629819 0.28558724061012536 0.9894577407695407
0.3649818 0.27930477742209275 0.9909212554296594
0.3669817 0.272840424989417 0.9940024122596227
0.3689816 0.26604093032263343 0.9951784093130193
0.3709815 0.2599891545219886 0.996958844913069
0.3729814 0.2528712715955328 0.9987312095980271
0.3749813 0.2464767358519313 1.0011745061892563
0.3769812 0.23913682192354963 1.0028791010465619
0.3789811 0.23264166837297826 1.0037398914957656
0.380981 0.22533595816595 1.0050925101541863
0.3829809 0.2183521305332498 1.0070602461902267
0.3849808 0.21240762807147567 1.0094490708828348
0.3869807 0.20487343933512797 1.0107963975963967
0.3889806 0.19817723335959123 1.0122362426460767
0.3909805 0.19138979516494936 1.0142017827754284
0.3929804 0.18462800800279516 1.0154826414120124
0.3949803 0.17752522210796448 1.0177196380268108
0.3969802 0.17087870280656592 1.0186663048229627
0.3989801 0.16273719729766264 1.019075033126371
0.40098 0.15648938143933894 1.0207246492925048
0.4029799 0.14996690386495143 1.0210251714741863
0.4049798 0.142890863005094 1.0223091715815587
0.4069797 0.13548599234780218 1.0242523299311008
0.4089796 0.12889857096524332 1.0249667411075187
0.4109795 0.12156263446054359 1.0257479962955165
0.4129794 0.11480837185776734 1.0269305903528825
0.4149793 0.1078082085461828 1.0279098155468065
0.4169792 0.10080671263956983 1.02848258369722
0.4189791 0.09414602772385974 1.0290432678959023
0.420979 0.08679162703091013 1.0299757731554842
0.4229789 0.08084015404047218 1.0302136771463435
0.4249788 0.07275989748560686 1.0307762952729844
0.4269787 0.06646594933888536 1.031289085367204
0.4289786 0.059693207038368175 1.0320257479297952
0.4309785 0.05210297222669544 1.0322893909998037
0.4329784 0.0453189723127243 1.032631491261946
0.4349783 0.03867044251722862 1.0333809941934764
0.4369782 0.03232331628609454 1.0330845002752884
0.4389781 0.02546957790176678 1.0334308444708638
0.440978 0.01851610706370066 1.0341201781677183
0.4429779 0.011277523096041367 1.0344331738769525
0.4449778 0.004610346414721335 1.0338754845357854
0.4469777 -0.0028246697830513062 1.0338331727639418
0.4489776 -0.009757830199248502 1.0343653242646884
0.4509775 -0.016416497416169136 1.0345478852958185
0.4529774 -0.023109979220377115 1.035223086437027
0.4549773 -0.02980428405702551 1.0344994570917019
0.4569772 -0.037209998957533505 1.034878742497271
0.4589771 -0.04428459237547308 1.0346187786188372
0.460977 -0.05103090051178662 1.0344442681701644
0.4629769 -0.05790477782380973 1.0340187491832884
0.4649768 -0.0649896765766614 1.033890492654591
0.4669767 -0.0719982113837678 1.0332923734574297
0.4689766 -0.07883819926533299 1.0326640343543043
0.4709765 -0.08579154822163274 1.032258888243612
0.4729764 -0.0924516452521017 1.032220016194757
0.4749763 -0.09931486582747659 1.0316495819283864
0.4769762 -0.10634738314138867 1.0311076871606204
0.4789761 -0.11349415161861065 1.0308428976887565
0.480976 -0.12035763422225423 1.030223734967531
0.4829759 -0.1277251520880725 1.0286983650657289
0.4849758 -0.13467941456078747 1.0283690168776292
0.4869757 -0.14144421790933565 1.027483399452148
0.4889756 -0.14825095146566092 1.0263093526071325
0.4909755 -0.15490119875865704 1.0257224076011324
0.4929754 -0.16200022335095868 1.024988833562684
0.4949753 -0.16826422784332323 1.023455302092281
0.4969752 -0.17529256968760992 1.02298111907168
0.4989751 -0.1819148356446912 1.0216118909036906
0.500975 -0.18842598681026604 1.0210778751886875
0.5029749 -0.1946256417315941 1.019455141586595
0.5049748 -0.20177033507501246 1.0180632887204022
0.5069747 -0.2083370054003321 1.016787982244404
0.5089746 -0.21503613631961224 1.015065854892285
0.5109745 -0.2213897631885417 1.013655396722599
0.5129744 -0.22859556126043246 1.0123661848581904
0.5149743 -0.23463296958775715 1.0113999916776297
0.5169742 -0.24139788885923225 1.0098482075103452
0.5189741 -0.2483133176566894 1.008270241500077
0.520974 -0.25421262783111787 1.006361878089923
0.5229739 -0.26170801162151547 1.0053030401469776
0.5249738 -0.2686817200850425 1.0033978358659599
0.5269737 -0.2747694092501721 1.001466944086573
0.5289736 -0.2812492877349497 0.9998907576315847
0.5309735 -0.28747677691186796 0.9978115065661406
0.5329734 -0.2949577655155037 0.9969994459355079
0.5349733 -0.3015587546319728 0.9954940728285299
0.5369732 -0.3074035542262094 0.9936004165393295
0.5389731 -0.3145961631469079 0.9913403420578114
0.540973 -0.3207426899595228 0.9891213571913228
0.5429729 -0.32764243254898656 0.9875368287023513
0.5449728 -0.3340943219785111 0.9851756612055393
0.5469727 -0.3406225926447521 0.983083168624311
0.5489726 -0.3466991960547112 0.9809721394830618
0.5509725 -0.3534483128443384 0.9791386018284384
0.5529724 -0.36023226417047827 0.9766007677589686
0.5549723 -0.3665388310843221 0.9743743423987348
0.5569722 -0.3725452968886125 0.9720752285518643
0.5589721 -0.3792421937117133 0.9698980417002019
0.560972 -0.3858996266375627 0.9672679979839346
0.5629719 -0.3918643250394207 0.9654050567750981
0.5649718 -0.3982762267619974 0.962425312155072
0.5669717 -0.40450445295101534 0.9601522316419258
0.5689716 -0.4108128645066007 0.9572378328287826
0.5709715 -0.41701270715097316 0.9551016601176056
0.5729714 -0.4226087673440908 0.9522345016535761
0.5749713 -0.4294148050043065 0.9498000250028075
0.5769712 -0.4354660788047497 0.9465578173632371
0.5789711 -0.4413614074401468 0.9439786297056886
0.580971 -0.4476469648979937 0.9408025648408269
0.5829709 -0.45355564283721955 0.9384444781424027
0.5849708 -0.45982835749279727 0.9354524264531452
0.5869707 -0.4657742225859109 0.9326278357004678
0.5889706 -0.47194227988583765 0.9292860510105874
0.5909705 -0.4779832977705316 0.9266867706878232
0.5929704 -0.48398054540296076 0.9237692882920265
0.5949703 -0.49017803380446245 0.9210965387630854
0.5969702 -0.49618066058461713 0.917529583068453
0.5989701 -0.5020901780463242 0.9137230470629087
0.60097 -0.5077793647558988 0.9115073781566897
0.6029699 -0.5139718437230031 0.9082623637444139
0.6049698 -0.5197293906852888 0.9050196778285223
0.6069697 -0.5256695900398306 0.9019536296286792
0.6089696 -0.531707089819764 0.8986052407165954
0.6109695 -0.5374053996339032 0.895350386788231
0.6129694 -0.5434258935131207 0.8919711934449464
0.6149693 -0.5488509552985393 0.8885302064436583
0.6169692 -0.5548136784013754 0.8849222203766435
0.6189691 -0.5604227272265191 0.8818219791904243
0.620969 -0.5670527168526591 0.8779771365250716
0.6229689 -0.5720908049114083 0.8748321743221049
0.6249688 -0.5777960176424937 0.871355229396968
0.6269687 -0.5835082274752466 0.8675211435387664
0.6289686 -0.589412846300737 0.8638337916483025
0.6309685 -0.5946980763775629 0.860412520030736
0.6329684 -0.6001710974968106 0.8565943795858189
0.6349683 -0.6060381338871347 0.8529711027927432
0.6369682 -0.611392140599315 0.8490107784574641
0.6389681 -0.6166002271285029 0.845379727070913
0.640968 -0.6221667814676872 0.841454671407982
0.6429679 -0.6274736114888946 0.8371396692584394
0.6449678 -0.6330981773154688 0.8333856857197155
0.6469677 -0.6383056325622497 0.8293795878632314
0.6489676 -0.6435870826233859 0.8254169480227813
0.6509675 -0.6490059465397816 0.8214539416348077
0.6529674 -0.6541452064585929 0.8173026221585745
0.6549673 -0.6591996261426976 0.8132567441374937
0.6569672 -0.6644993576085874 0.8091604196369034
0.6589671 -0.6697925884812014 0.8049424230130791
0.660967 -0.674778220254631 0.8006457330083717
0.6629669 -0.6799321628956833 0.7967545749075173
0.6649668 -0.6851464254532914 0.7923265392003658
0.6669667 -0.6903815475872346 0.7880943325567844
0.6689666 -0.6953807747081089 0.7838360645358722
0.6709665 -0.7003763012990833 0.779463228576997
0.6729664 -0.7056012829574293 0.775161996348779
0.6749663 -0.7103974316038494 0.7710419199093115
0.6769662 -0.7156268353565481 0.766661318475854
0.6789661 -0.7201484205662648 0.762011244309449
0.680966 -0.7253439999558995 0.7577081579862978
0.6829659 -0.7299865600593717 0.7533319962201476
0.6849658 -0.7352248735284774 0.7488278547720734
0.6869657 -0.7398938320056752 0.7444331092564577
0.6889656 -0.7449202022992418 0.7395297789390575
0.6909655 -0.7495395277724757 0.735284682492814
0.6929654 -0.7544395985222122 0.7304458608833095
0.6949653 -0.7591572377084036 0.7261070340171277
0.6969652 -0.7638875654975485 0.7212200927661832
0.6989651 -0.768412909307154 0.7166209473413776
0.700965 -0.7731762414595064 0.711844378128379
0.7029649 -0.7776197774965494 0.7073253300337389
0.7049648 -0.7821197267142074 0.7021106974242868
0.7069647 -0.7868313059064206 0.6977277336664971
0.7089646 -0.7912831204450919 0.6926090511209785
0.7109645 -0.795750244350688 0.6878371978486619
0.7129644 -0.8002504150522687 0.6828768552513108
0.7149643 -0.804493072713085 0.6780923773709402
0.7169642 -0.8086531455865604 0.6730299689387956
0.7189641 -0.8129870312500848 0.6681186194079812
0.720964 -0.8174946190488112 0.6629237241290772
0.7229639 -0.8219425532846946 0.6581811376736058
0.7249638 -0.8260206954563588 0.6530667515311671
0.7269637 -0.8297152776570422 0.6477534614431807
0.7289636 -0.8342118897432823 0.6427803191596365
0.7309635 -0.8381276127339992 0.6377509617637538
0.7329634 -0.8421434848153184 0.6321771501274543
0.7349633 -0.8460073204910649 0.6272331477351506
0.7369632 -0.8502320025430591 0.62182795360518
0.7389631 -0.8539794306500424 0.6167066005586472
0.740963 -0.8578827727763714 0.6114346839970984
0.7429629 -0.8616825064354895 0.6062803302826469
0.7449628 -0.8654912801822292 0.6009839482917376
0.7469627 -0.8695924112960259 0.5957141809255404
0.7489626 -0.8733492250346869 0.5902856825761985
0.7509625 -0.8771860095056682 0.5848346655404395
0.7529624 -0.8810324955939395 0.5797473463057207
0.7549623 -0.8847731747675673 0.5745104610720102
0.7569622 -0.888469362662254 0.5687503390234167
0.7589621 -0.8923145623496749 0.5635965224451324
0.760962 -0.8961109156437437 0.5580728946117794
0.7629619 -0.8992615740780271 0.55271925319157
0.7649618 -0.9031638386721934 0.5472885786251157
0.7669617 -0.9066105243799627 0.5417690879990931
0.7689616 -0.9103279313269574 0.5362444422765966
0.7709615 -0.9135307977629178 0.5306579661616821
0.7729614 -0.9173479414545866 0.5250739275945031
0.7749613 -0.9205756276112333 0.5195614219701902
0.7769612 -0.9240659312564352 0.5139868329928194
0.7789611 -0.9273768741056855 0.508272887330905
0.780961 -0.9307449251272333 0.5026383273946535
0.7829609 -0.9339747402467193 0.4970021157565026
0.7849608 -0.9372661535781467 0.49134351844461727
0.7869607 -0.9404069993281953 0.4856557014807348
0.7889606 -0.9437153150329666 0.47985252599235445
0.7909605 -0.9469424507909575 0.4743253266121449
0.7929604 -0.9498285767475745 0.46855514189248837
0.7949603 -0.9528285352536132 0.462367250625278
0.7969602 -0.9557940609240558 0.4568142289681424
0.7989601 -0.9589361310823986 0.4510410138237326
0.80096 -0.9614364854666404 0.444663114431783
0.8029599 -0.9643761008304782 0.43881742640856936
0.8049598 -0.9672885113517764 0.43291296557813114
0.8069597 -0.9696768479406775 0.4271592041004588
0.8089596 -0.9726051521877302 0.4213726134804161
0.8109595 -0.9752760052884104 0.4151425274753339
0.8129594 -0.978004094030651 0.40929990919002407
0.8149593 -0.9805180853310661 0.403389912739137
0.8169592 -0.9832614555700896 0.39756314718268804
0.8189591 -0.9857426100815964 0.3915112985468497
