! Created with skrf 1.8.0 (http://scikit-rf.org).
# GHz S RI R 50.0 
!freq ReS11 ImS11
0.001 -1.0016667938197925 0.008731653586908084
0.0029999 -1.037688444177663 0.02274451556620971
0.0049998 -1.0755630659562918 0.11375208517249913
0.0069997 -0.9418616737302894 0.14980306009658279
0.0089996 -0.07433428616402518 0.242144737330577
0.0109995 0.018075300846884235 0.11387815601070023
0.0129994 0.02248742081632481 0.059147993749167294
0.0149993 0.034374517231894636 0.02036421386628827
0.0169992 0.004734111705373998 0.016864105672193454
0.0189991 0.0010768965353262362 0.0022467448513536843
0.020999 -0.007309430151094415 0.0007639977076455292
0.0229989 -0.0033920633257077345 -0.0025978690144750323
0.0249988 -0.007670878905434447 -0.0023589691676305174
0.0269987 -0.007055572584789682 -0.0017785662339333535
0.0289986 -0.007107176470979846 -0.001984270854854608
0.0309985 -0.00777190971543289 -0.0017324889446345383
0.0329984 -0.005706143088046705 -0.0007108404322377138
0.0349983 -0.008299666722436854 0.001399276890657115
0.0369982 -0.004555601273124694 0.003618998899154906
0.0389981 -0.008454990360255814 0.004798498585514708
0.040998 -0.008985540301737718 0.0036472866006771977
0.0429979 -0.007866605194399844 0.00692414331695315
0.0449978 -0.0059791302087155475 0.007343722728185626
0.0469977 -0.012421112355194998 0.004945464195778167
0.0489976 -0.008248636547060142 0.009195722314101063
0.0509975 -0.009605215461287541 0.010890549085040653
0.0529974 -0.019422742932225387 0.012018697441265738
0.0549973 -0.007270179351488932 0.010211973117097992
0.0569972 -0.012142787995161858 0.011336876842040032
0.0589971 -0.013553922744367434 0.010199933904418612
0.060997 -0.013074514211125394 0.008869523169922986
0.0629969 -0.016293031651200916 0.012793602891878175
0.0649968 -0.01857563215589177 0.008341373944942228
0.0669967 -0.015914322660193297 0.008848853668063195
0.0689966 -0.015051325504275107 0.008568085881561268
0.0709965 -0.02067495676016476 0.007354325484643541
0.0729964 -0.017541886811114946 0.0077580662502304
0.0749963 -0.0161900983690706 0.006335951897194669
0.0769962 -0.01847283616725629 0.003525511241105873
0.0789961 -0.01675945989710568 0.005121960501555803
0.080996 -0.01828151605152883 0.003559133764641291
0.0829959 -0.017549307782233615 0.004524665912571218
0.0849958 -0.01815780914902387 0.005803708656621243
0.0869957 -0.018740839888045226 0.00598846282235215
0.0889956 -0.018232336227831155 0.0048958090152483
0.0909955 -0.016651724515785792 0.005160568302554107
0.0929954 -0.01613061762454159 0.004897171466918133
0.0949953 -0.016349117928386395 0.005710951382922632
0.0969952 -0.016129670254766967 0.006786214761249709
0.0989951 -0.016270491423465504 0.005596141440766705
0.100995 -0.01568495588039532 0.005875010679636255
0.1029949 -0.015335201213975896 0.005818944496728885
0.1049948 -0.01519367501446047 0.006134601076563467
0.1069947 -0.015147410164928833 0.007214284128748173
0.1089946 -0.014640301438313113 0.008189042784904151
0.1109945 -0.015371155262940852 0.008962958921696074
0.1129944 -0.01559810495700181 0.009985283321917398
0.1149943 -0.01535883672566716 0.010959215278694921
0.1169942 -0.01524510887870163 0.0110581501750418
0.1189941 -0.016612231201872284 0.012420015894186483
0.120994 -0.016549855610784814 0.01277367185647643
0.1229939 -0.018599500788448207 0.012947892392019962
0.1249938 -0.01711560090613304 0.012315787425886389
0.1269937 -0.017012166174154162 0.01320549642680265
0.1289936 -0.01939558338878045 0.013763373085089235
0.1309935 -0.019955740853407098 0.013619152752030435
0.1329934 -0.020547008314821282 0.013198882805515235
0.1349933 -0.019770479555775905 0.013448784169663762
0.1369932 -0.021060112721159905 0.013441092508997318
0.1389931 -0.020825208633579766 0.01324261960807158
0.140993 -0.021746041265751657 0.012897837127766081
0.1429929 -0.021137198997875042 0.013466030482049859
0.1449928 -0.02264517740440939 0.01268172911214877
0.1469927 -0.022157795175644576 0.012450102044618239
0.1489926 -0.021521268066029373 0.012325964935714261
0.1509925 -0.022968771913390883 0.012865660455885348
0.1529924 -0.021512837944549827 0.011672208924235549
0.1549923 -0.022536782958203792 0.012048492515984098
0.1569922 -0.023635735450815796 0.012286419523182015
0.1589921 -0.02245602031905864 0.011673858027311157
0.160992 -0.023751846538367847 0.011654991547328599
0.1629919 -0.023136929655738922 0.011999273032798564
0.1649918 -0.02206761504890426 0.012029718818718643
0.1669917 -0.02286790606953434 0.012035026265973147
0.1689916 -0.02323086231709864 0.012123112443907237
0.1709915 -0.021883820635389906 0.011726872706156782
0.1729914 -0.02264892554918494 0.012709381583467096
0.1749913 -0.023023870842648935 0.01307444867710299
0.1769912 -0.02360004072298624 0.012798520602774546
0.1789911 -0.022495979946982166 0.013350215702928134
0.180991 -0.02260873106734466 0.013246295870715866
0.1829909 -0.023056960429050852 0.014287999900035368
0.1849908 -0.023236149706372125 0.014454248220366638
0.1869907 -0.02333172810696191 0.014690513720776895
0.1889906 -0.023772351753596696 0.014267514976103762
0.1909905 -0.024241919135242353 0.015187858737622465
0.1929904 -0.02449647634452806 0.01579905911014509
0.1949903 -0.02418984362399336 0.015926047230632182
0.1969902 -0.02554043522494031 0.015611371369946805
0.1989901 -0.025119487314198947 0.01644401087533496
0.20099 -0.026849209846909895 0.015670183666456013
0.2029899 -0.024893026432567515 0.016683081936661525
0.2049898 -0.026684473588391017 0.01701686153262249
0.2069897 -0.02664267835510601 0.016976986952038815
0.2089896 -0.027186207587603844 0.016625499668496017
0.2109895 -0.027630258793622325 0.016863247468632474
0.2129894 -0.027615336780943543 0.01734351802374179
0.2149893 -0.0277363372239258 0.016815724321883822
0.2169892 -0.028372501976840464 0.017259446411255847
0.2189891 -0.028918130460230215 0.016526436411720438
0.220989 -0.02877147544170524 0.01759478680672059
0.2229889 -0.02908868931498247 0.01762967472245194
0.2249888 -0.029146087402515744 0.017727976631701343
0.2269887 -0.02983111051564965 0.017119353944508447
0.2289886 -0.02987694729684863 0.01702834756990948
0.2309885 -0.0301057218737686 0.017643007047360118
0.2329884 -0.030675960926330965 0.017802282909594725
0.2349883 -0.030561653773683944 0.01692008458247141
0.2369882 -0.03096456809639337 0.01673662830045168
0.2389881 -0.030346257963293898 0.017241690765697197
0.240988 -0.031039626655708464 0.017701832818346638
0.2429879 -0.031184999702884134 0.017526556195707272
0.2449878 -0.031179356494382242 0.016849511911257095
0.2469877 -0.031654753631234926 0.01679756617020968
0.2489876 -0.03151065686833678 0.01669702959470045
0.2509875 -0.03139220228885957 0.017159043661453058
0.2529874 -0.03124090762586375 0.016269442796116952
0.2549873 -0.03132515401282712 0.016388124087391105
0.2569872 -0.031579574938920586 0.016527406263345812
0.2589871 -0.03148507431995548 0.016906339720028064
0.260987 -0.03144654067307694 0.016674777832280496
0.2629869 -0.03153874191940937 0.016807157530095207
0.2649868 -0.03131216592322516 0.016915012028852157
0.2669867 -0.031398667460977456 0.017311618585561107
0.2689866 -0.03129306942892193 0.017516713980017355
0.2709865 -0.031172474649544916 0.017734443877032168
0.2729864 -0.030834218078135196 0.018067953179233737
0.2749863 -0.031310973748425924 0.018345390009952094
0.2769862 -0.03125867678320349 0.018686268992779892
0.2789861 -0.03113721875345153 0.019610539581749485
0.280986 -0.031435211457903185 0.01998416595876683
0.2829859 -0.0312620279080905 0.020284634927236988
0.2849858 -0.03140766534296592 0.020331064711604077
0.2869857 -0.03213949355782169 0.021263311769844202
0.2889856 -0.03206405652637179 0.02209009795868594
0.2909855 -0.03282296099063586 0.0219340608400173
0.2929854 -0.03322655639497654 0.02192171024750809
0.2949853 -0.03352121984540316 0.022923104085517326
0.2969852 -0.03429919268454987 0.0235056543855632
0.2989851 -0.03527913368718712 0.023844945916179843
0.300985 -0.036124062261263135 0.02342907245910303
0.3029849 -0.03639349729377875 0.023808743983273473
0.3049848 -0.0367096251381574 0.02409677411982472
0.3069847 -0.03816146403703275 0.02451618667415672
0.3089846 -0.039153888726248934 0.024451788347525417
0.3109845 -0.03982931440442414 0.023864382288769775
0.3129844 -0.04092281558779691 0.023184153203776686
0.3149843 -0.04105924986594369 0.023252093387381587
0.3169842 -0.04186787863828841 0.023575906066307543
0.3189841 -0.042904598588146325 0.0227517970151283
0.320984 -0.043406733370488754 0.022113684368554758
0.3229839 -0.04447695499682789 0.022451237761478247
0.3249838 -0.04435328598841219 0.022411996527402334
0.3269837 -0.04474409302915182 0.02216270158841059
0.3289836 -0.04560635296928747 0.021516712848488592
0.3309835 -0.04565876081681872 0.021307538611217085
0.3329834 -0.04563105463767356 0.020770997977591812
0.3349833 -0.04542205277384144 0.020383865492911088
0.3369832 -0.04543782073344738 0.019313958674921944
0.3389831 -0.04558539033145153 0.01913004404649587
0.340983 -0.04485632825894319 0.018556226186419857
0.3429829 -0.044453973690070196 0.01846417863716994
0.3449828 -0.044201834685471 0.01843134571169372
0.3469827 -0.043720790647692194 0.018072043716337784
0.3489826 -0.04349716918164537 0.01846932459060821
0.3509825 -0.0431804302612325 0.018049087384635742
0.3529824 -0.042557776028482416 0.018029284110658184
0.3549823 -0.04236419242835604 0.018289820255777817
0.3569822 -0.0423815512113592 0.018673677677908257
0.3589821 -0.04207676120065594 0.019239652777704664
0.360982 -0.04175635161910979 0.01945984489823444
0.3629819 -0.04173632945863212 0.020162560663252102
0.3649818 -0.041871385273618986 0.02029244189075366
0.3669817 -0.04227004871464418 0.02118475563360634
0.3689816 -0.04224861079569605 0.021147671419030956
0.3709815 -0.04277348652914298 0.02146661851635919
0.3729814 -0.042930992849912954 0.021695637786239057
0.3749813 -0.04337010499988811 0.022653686525635056
0.3769812 -0.04409093365205676 0.023098461300414735
0.3789811 -0.04422994967032004 0.023038737521637168
0.380981 -0.04552524028334648 0.023161714938853762
0.3829809 -0.04618480231063582 0.023071757296223835
0.3849808 -0.04648539337793124 0.02385764267278823
0.3869807 -0.047497665200373906 0.02349280823196194
0.3889806 -0.04833124362061142 0.02336403745759675
0.3909805 -0.04904103766186349 0.023289724299002633
0.3929804 -0.04925075069785596 0.022929642096856856
0.3949803 -0.04978471704291752 0.02276035390264619
0.3969802 -0.050094181719434125 0.0222167981441729
0.3989801 -0.05106983630986599 0.021791525566308437
0.40098 -0.0512524092996229 0.02131148531234144
0.4029799 -0.05150614957673351 0.020761252949391004
0.4049798 -0.05146449929655318 0.020278664118233328
0.4069797 -0.05196435634896019 0.020213201915265943
0.4089796 -0.05203251239519445 0.019552348148219247
0.4109795 -0.05183289118286214 0.01934370799966683
0.4129794 -0.05176101213938515 0.018804929552864988
0.4149793 -0.05185169976326275 0.018324508298805206
0.4169792 -0.05173084885175895 0.0180132017617318
0.4189791 -0.051287348861886926 0.017883187131594713
0.420979 -0.05135513649549392 0.01798642795553968
0.4229789 -0.05122150591665567 0.017984987567858456
0.4249788 -0.051051055105274835 0.018172025684348548
0.4269787 -0.050945536908369365 0.01829071108657601
0.4289786 -0.0506581170650708 0.018547814838912983
0.4309785 -0.050406638709060037 0.018735371756331196
0.4329784 -0.05080596370600168 0.019049595744869845
0.4349783 -0.05135140782976779 0.019264439964647988
0.4369782 -0.05135536822036591 0.01940768493544646
0.4389781 -0.05164627405117782 0.01984255866723668
0.440978 -0.051887611520894834 0.020205881855150227
0.4429779 -0.052904989106918654 0.020683845381222348
0.4449778 -0.053248903402843176 0.020800676613939566
0.4469777 -0.05397148653295416 0.02068993345057844
0.4489776 -0.05453118154246632 0.02122399781919349
0.4509775 -0.054923810071631475 0.021565156877492924
0.4529774 -0.05599831834679124 0.021877344012868456
0.4549773 -0.05649588348783152 0.021464423628662754
0.4569772 -0.05715880506610251 0.021352176035598955
0.4589771 -0.05779050666928265 0.0210938089832784
0.460977 -0.058680344862404185 0.020792283777131448
0.4629769 -0.05903908623214336 0.020165799784802138
0.4649768 -0.059989161178078204 0.01981033853427609
0.4669767 -0.06017305811661278 0.019009482526070393
0.4689766 -0.06071668100336739 0.018463974845894317
0.4709765 -0.06121712753827146 0.017914766165607127
0.4729764 -0.0611415541611775 0.017355268521719883
0.4749763 -0.061425693378940466 0.01722421710046872
0.4769762 -0.061664713480738736 0.01659846737894231
0.4789761 -0.06147423047746952 0.01577295182730175
0.480976 -0.06142473847348548 0.015559715204440747
0.4829759 -0.06151006005100465 0.015000729352489792
0.4849758 -0.061330675443371244 0.014620384237543749
0.4869757 -0.06110658259058846 0.014321436349981152
0.4889756 -0.06096337056497108 0.01388858521586996
0.4909755 -0.060221292851310594 0.013575879589891655
0.4929754 -0.0601888255587421 0.013768577848638677
0.4949753 -0.05981763459318139 0.01367829781279671
0.4969752 -0.05968164083003673 0.01385287924574093
0.4989751 -0.05969018158325704 0.014197090498031636
0.500975 -0.05954867999412258 0.014278631344819694
0.5029749 -0.05950472013415872 0.01425969642257386
0.5049748 -0.05953349733071158 0.014895975084160955
0.5069747 -0.059915160863065 0.015218980527456825
0.5089746 -0.060167423286902916 0.015396358528905807
0.5109745 -0.05993889978715504 0.015329433559520912
0.5129744 -0.06061307765539903 0.016002078699873742
0.5149743 -0.060791083318512996 0.016619269752797938
0.5169742 -0.06140792986883787 0.01654443717935805
0.5189741 -0.06211590303902022 0.0168163141431124
0.520974 -0.06252500858513908 0.016538361913823234
0.5229739 -0.06331749581151244 0.016716336866831053
0.5249738 -0.06388138300354163 0.01687455999573737
0.5269737 -0.06453403873319379 0.016706307268162173
0.5289736 -0.06523914584151012 0.01650681080361809
0.5309735 -0.06576235392381033 0.016192115321336853
0.5329734 -0.06646370023809048 0.016205501251553192
0.5349733 -0.06736562994893913 0.016060432417309856
0.5369732 -0.06751645889599443 0.015417773272517327
0.5389731 -0.0682789078154942 0.014795242527551492
0.540973 -0.06889672166110132 0.01388614584251838
0.5429729 -0.06908926300270717 0.01350885225111479
0.5449728 -0.06950185858466017 0.01276157710184635
0.5469727 -0.06975377684576675 0.012186211512647541
0.5489726 -0.06968371593519256 0.011380586385075605
0.5509725 -0.06996555927574484 0.011110648145025125
0.5529724 -0.06992682906127819 0.01060212701676655
0.5549723 -0.0700278408177272 0.01029655827377068
0.5569722 -0.07004251930399054 0.009503001749397826
0.5589721 -0.06946359166226185 0.0090984236652757
0.560972 -0.06901676742156293 0.009053843333853218
0.5629719 -0.06897800877649136 0.008724189619671037
0.5649718 -0.06877327630618509 0.008601062984404571
0.5669717 -0.06845610799307658 0.008576682637039174
0.5689716 -0.06843643239188339 0.00861663971204146
0.5709715 -0.06834885598873593 0.008814732972141862
0.5729714 -0.06839681381325347 0.008755972177666133
0.5749713 -0.06849960070212319 0.009053300296656467
0.5769712 -0.06877729133347071 0.008712909876721544
0.5789711 -0.06888415067799862 0.009058826295208211
0.580971 -0.06919528058162366 0.009353921670004681
0.5829709 -0.06957737148935983 0.009604618490102565
0.5849708 -0.06959835416715282 0.010167056033861848
0.5869707 -0.07039494428628543 0.010261929306862861
0.5889706 -0.07099743673151107 0.010001859634859098
0.5909705 -0.07114247323723177 0.01003848778001597
0.5929704 -0.07202971950024964 0.009904751289636672
0.5949703 -0.07286166579374243 0.009750992451273463
0.5969702 -0.07311583668857576 0.00945482189047574
0.5989701 -0.07393124232022903 0.00904161281239706
0.60097 -0.07447785809251746 0.0091456284451613
0.6029699 -0.07492898645467426 0.008449287370399457
0.6049698 -0.07538829266070562 0.00800158620176774
0.6069697 -0.07603195594242612 0.007445930307197052
0.6089696 -0.07622812502143139 0.006892752166665954
0.6109695 -0.07655801927229183 0.006298321274803904
0.6129694 -0.07680872592223995 0.005445349287143533
0.6149693 -0.07686642646485245 0.004834811823511153
0.6169692 -0.07700444634050639 0.004094193345091056
0.6189691 -0.07700570105738566 0.003638535787808511
0.620969 -0.07724978178829468 0.0031566433285878798
0.6229689 -0.0767488138714992 0.002612559469918882
0.6249688 -0.07643884084401364 0.0020357660227547994
0.6269687 -0.07631512543575926 0.0015686649761187527
0.6289686 -0.07602925840964628 0.0014952059328616762
0.6309685 -0.07521411483809763 0.0012140570524080754
0.6329684 -0.07521338283666328 0.001004942367300428
0.6349683 -0.07479276005002858 0.0011441341222034954
0.6369682 -0.07532233550362467 0.000876366941250685
0.6389681 -0.07494409203962782 0.0007564295996206893
0.640968 -0.07463941083107971 0.0010317644962779815
0.6429679 -0.07483766696710187 0.0012632012623276546
0.6449678 -0.07497226431044383 0.0015520133965701566
0.6469677 -0.07529228454244588 0.0018372235368674834
0.6489676 -0.0752310667022451 0.0020554740017508823
0.6509675 -0.07541212286911682 0.002592158919504834
0.6529674 -0.07595005865814053 0.0028420404017582487
0.6549673 -0.07692146301217109 0.003037306085056632
0.6569672 -0.07711662794009536 0.0034606363764239784
0.6589671 -0.07781118666677803 0.0034901671303130995
0.660967 -0.0784515294171755 0.003305848997416712
0.6629669 -0.07909814880689339 0.0032673871649989937
0.6649668 -0.08040921319180447 0.002785720137126451
0.6669667 -0.08090579363419542 0.0026008264578690453
0.6689666 -0.08136939070814175 0.002278604364536991
0.6709665 -0.0818598527202972 0.0014344315564206525
0.6729664 -0.0828853473226944 0.0008955684861570237
0.6749663 -0.08319953780509795 -3.318817829604803e-05
0.6769662 -0.08379421277777316 -0.0006413470542011371
0.6789661 -0.08433124269573104 -0.001883434520121359
0.680966 -0.08460586297253038 -0.0026719761514534604
0.6829659 -0.0848142360571244 -0.0037083329379077115
0.6849658 -0.0848802792704574 -0.004447777678831852
0.6869657 -0.08465824499919472 -0.005399604977772456
0.6889656 -0.08452454830402707 -0.006265258712799759
0.6909655 -0.08439520455856966 -0.006858054018487832
0.6929654 -0.08401906207714743 -0.007597481664655813
0.6949653 -0.08372464865432398 -0.008204009051807345
0.6969652 -0.08337091478460731 -0.008861584257998198
0.6989651 -0.08294268219989735 -0.00923123769155449
0.700965 -0.08245897283466729 -0.00967256198560185
0.7029649 -0.08213938620610228 -0.009727965011503616
0.7049648 -0.0818660215560533 -0.009936458990194137
0.7069647 -0.08147812016414087 -0.00992881304907042
0.7089646 -0.0806637604020045 -0.010055272505059613
0.7109645 -0.08049098801039081 -0.009522376885775896
0.7129644 -0.08061555768657944 -0.009426185427419412
0.7149643 -0.08066226378939717 -0.009128594965643316
0.7169642 -0.08079215356488692 -0.00879072077231548
0.7189641 -0.08098678703201442 -0.008542064666378142
0.720964 -0.08142022094965248 -0.0084573224317155
0.7229639 -0.08168097295377247 -0.008131414127931485
0.7249638 -0.08221120728234224 -0.007939301187436267
0.7269637 -0.08241383180527356 -0.00793049229468756
0.7289636 -0.08330799723706123 -0.00783999991224725
0.7309635 -0.083847742415246 -0.007701847410027288
0.7329634 -0.084445561636149 -0.007910713728208656
0.7349633 -0.08530884371851791 -0.008399897101694028
0.7369632 -0.08599025064618991 -0.00835571054045587
0.7389631 -0.08699106446089296 -0.009077111056766993
0.740963 -0.08768073226133813 -0.009614350104766821
0.7429629 -0.08818318556177965 -0.010729712968224676
0.7449628 -0.08852353925832034 -0.011595351571790747
0.7469627 -0.08903883469151068 -0.012438787084262007
0.7489626 -0.08914543284771559 -0.013477422750371244
0.7509625 -0.0897754167536667 -0.014198317602302023
0.7529624 -0.08989751017590192 -0.014999011178317031
0.7549623 -0.08997403853411107 -0.01596238161131098
0.7569622 -0.08984807998665398 -0.016880126879488585
0.7589621 -0.0897315353918549 -0.0179137714838248
0.760962 -0.08930453856388605 -0.01867818519385841
0.7629619 -0.08879723191454204 -0.019621893991555873
