! Created with skrf 1.8.0 (http://scikit-rf.org).
# GHz S RI R 50.0 
!freq ReS11 ImS11
0.001 -1.0041837375570912 -0.016851996936122417
0.0029999 0.3999032742482509 1.3788085100295222
0.0049998 1.1871028255973317 0.3098848114445509
0.0069997 1.0601102371569475 0.13514687081774196
0.0089996 1.027244863621643 0.0550203149247222
0.0109995 1.0216487335266562 0.0470471075482069
0.0129994 1.0167934809165513 0.049128265125891864
0.0149993 1.0173287578606356 0.05936812757085945
0.0169992 1.0160684439344583 0.06473982693212274
0.0189991 1.015392360473698 0.07096494730347035
0.020999 1.016477782989161 0.07829520016085183
0.0229989 1.0149378655268735 0.08601440683562782
0.0249988 1.014091766298236 0.09348629114764848
0.0269987 1.0136440781563922 0.10058110255252001
0.0289986 1.0126873176459692 0.10829725538338161
0.0309985 1.0113894636490677 0.11672284181594816
0.0329984 1.0118356596404667 0.12350593360716865
0.0349983 1.010708273708903 0.1303804846315197
0.0369982 1.0095130576402696 0.13800699954604034
0.0389981 1.0090499261758237 0.1460221990418098
0.040998 1.0071199950955498 0.15257182899664837
0.0429979 1.0068073525130212 0.1595024567304568
0.0449978 1.0047431237141116 0.16643962691163341
0.0469977 1.002190908414056 0.17473416696204397
0.0489976 1.0029013347789777 0.18061304644986872
0.0509975 1.002192197962234 0.18743609489140461
0.0529974 1.0016811977864257 0.19491884113633534
0.0549973 0.9997534184803994 0.20044682612027567
0.0569972 0.9981058891542443 0.20838227594717104
0.0589971 0.9960241018772684 0.21641512097580234
0.060997 0.9938229922282305 0.2225945531385172
0.0629969 0.9948331485480921 0.2311867277741964
0.0649968 0.9904717724715365 0.23721060226397636
0.0669967 0.9912473132406946 0.24349948714034997
0.0689966 0.9888123245658972 0.2507153518671832
0.0709965 0.9859991500768139 0.25997614760660803
0.0729964 0.9852443933548328 0.26430855820763294
0.0749963 0.9833781393762995 0.2708142321526151
0.0769962 0.9805684651791172 0.278796826296243
0.0789961 0.9801347205000689 0.28554153211430283
0.080996 0.9764881128746203 0.2930551474833682
0.0829959 0.9757590816054061 0.30002162141099536
0.0849958 0.973418751457785 0.30738811947054623
0.0869957 0.9717875573468376 0.3148567968327467
0.0889956 0.9684334621915327 0.32063717749455883
0.0909955 0.966249157110819 0.3273969166000168
0.0929954 0.9640687272105635 0.33349716414331715
0.0949953 0.9621245568010122 0.3414946172129909
0.0969952 0.9595314816071361 0.34786959988770144
0.0989951 0.9569728392635063 0.3552598312329272
0.100995 0.9541680003418946 0.36303676573456184
0.1029949 0.9516913783829891 0.369980935962856
0.1049948 0.9481538867024994 0.3763353199535549
0.1069947 0.9461404630233565 0.3833392321407655
0.1089946 0.943608308364277 0.3902719781333174
0.1109945 0.9402507485830376 0.39643810663332346
0.1129944 0.9374990753208436 0.4038569927051925
0.1149943 0.9356168048088825 0.4094474345641402
0.1169942 0.9332367862342588 0.41657160527922515
0.1189941 0.9297942526310056 0.42390737818732643
0.120994 0.9272440860738105 0.429817263833231
0.1229939 0.9234384764660053 0.43821246967770094
0.1249938 0.9197504881450838 0.4435809099898613
0.1269937 0.9184356007655391 0.45003665429685263
0.1289936 0.9147005330615825 0.457295423621165
0.1309935 0.9100356136403617 0.4639160196528651
0.1329934 0.9081231884737457 0.46954490884604094
0.1349933 0.9039016053031493 0.4768556290139233
0.1369932 0.9017105428849581 0.48188657019377595
0.1389931 0.8976083231085704 0.48863148497562214
0.140993 0.8944467543632888 0.4954604915121099
0.1429929 0.8924964930423804 0.5004170588872685
0.1449928 0.8877670878061661 0.508251245530615
0.1469927 0.8843944338267014 0.5159289483847515
0.1489926 0.881136582925966 0.5194877328425842
0.1509925 0.8774740706488375 0.5275597892051406
0.1529924 0.8720192968137757 0.5330899360206878
0.1549923 0.8698076549994553 0.5393130757293522
0.1569922 0.8659912684221738 0.5468131105529269
0.1589921 0.862521398770655 0.5524084513218532
0.160992 0.8567983135599462 0.5587231000214835
0.1629919 0.8541463126468785 0.5640735063354823
0.1649918 0.850544166588246 0.5695923381433694
0.1669917 0.8462477093405073 0.5758861398810777
0.1689916 0.8418917548212457 0.582497693960361
0.1709915 0.8389350424425108 0.5875775871061569
0.1729914 0.83438050341445 0.5936045627886911
0.1749913 0.8297849440944999 0.6007209109449557
0.1769912 0.8255036698544629 0.6066482754958205
0.1789911 0.8214080701096517 0.6110875441708787
0.180991 0.8173596290974504 0.6170965272786956
0.1829909 0.8126329093665563 0.6237271506548717
0.1849908 0.807746364496537 0.629201708493624
0.1869907 0.8034766755330646 0.6354620717328113
0.1889906 0.7987273407925772 0.6399925413116894
0.1909905 0.7944829524830743 0.6472321289145272
0.1929904 0.7898682583341399 0.6526337774860352
0.1949903 0.7862192716445502 0.6569159690080415
0.1969902 0.7811028359095302 0.6625671518735529
0.1989901 0.7763229230958889 0.6684787037161948
0.20099 0.7712748810295845 0.6735785675393167
0.2029899 0.7672274505919734 0.6792946746059578
0.2049898 0.7633812297576813 0.6853448927415374
0.2069897 0.7579800395945986 0.69023889208463
0.2089896 0.7528052488635233 0.6956455652183378
0.2109895 0.7473757025087108 0.7008775522570224
0.2129894 0.7434627445096879 0.7062166326642788
0.2149893 0.7385168804575107 0.7114710380231718
0.2169892 0.7331579071308061 0.7168424858061031
0.2189891 0.7280375729067813 0.7206798975270161
0.220989 0.7241765881506383 0.7272584278535591
0.2229889 0.7192281501910839 0.7329758807742177
0.2249888 0.7142697126171155 0.7376126046953447
0.2269887 0.7086892158048662 0.742555490632299
0.2289886 0.7029431246605918 0.7469922485803356
0.2309885 0.6987630858497679 0.7526160692476898
0.2329884 0.6934518365495514 0.7576906091841474
0.2349883 0.688063409769391 0.7622322857076176
0.2369882 0.6819013000720701 0.767448078103746
0.2389881 0.6782005922319484 0.7717787615083327
0.240988 0.6721914071096768 0.7778731872913005
0.2429879 0.6673659848251811 0.7829319841186448
0.2449878 0.6614151786068801 0.7864350847468177
0.2469877 0.6554072575908826 0.7908706119569259
0.2489876 0.6500705578429243 0.795954544321235
0.2509875 0.6450388157139928 0.8015730866822347
0.2529874 0.6392467620109267 0.8043163920131051
0.2549873 0.6329969663985633 0.808917031816572
0.2569872 0.6277072252203357 0.8143632304522233
0.2589871 0.6219387606474304 0.8190116408084516
0.260987 0.6163666277376212 0.8220155460844555
0.2629869 0.6105209943768534 0.8267983158800531
0.2649868 0.6048937406529233 0.8315859444849902
0.2669867 0.5987145439416565 0.835310267501727
0.2689866 0.5927257348370665 0.8399766880759578
0.2709865 0.587268812314111 0.84442534846911
0.2729864 0.5816516510850265 0.8478979525480732
0.2749863 0.575463787652514 0.8513024517207509
0.2769862 0.5695939421234086 0.855295806919068
0.2789861 0.564461120055459 0.8604296484372586
0.280986 0.5583967176125396 0.8643665907744839
0.2829859 0.5520256339357925 0.8675618643362835
0.2849858 0.5461911167238491 0.8716593178854302
0.2869857 0.5402353273975102 0.876327324305159
0.2889856 0.5342947358316815 0.8799553476376075
0.2909855 0.5285596376354064 0.8826873547209917
0.2929854 0.5218878754222257 0.8860210508016723
0.2949853 0.516590318767397 0.8902280712862944
0.2969852 0.5102708346482606 0.8947062379258738
0.2989851 0.5037243929611473 0.8981051410881619
0.300985 0.4979211402357696 0.9008036315406748
0.3029849 0.4914752870385064 0.9043205137484458
0.3049848 0.48625189324805396 0.908020467663141
0.3069847 0.47976201901373305 0.9121743197179214
0.3089846 0.4736688436808897 0.9156882836557863
0.3109845 0.4674713867373965 0.9180431195268263
0.3129844 0.46037551740065863 0.9209796302524044
0.3149843 0.45496969760676403 0.9244207356808429
0.3169842 0.44850690528974246 0.9293656134744205
0.3189841 0.44117917137456336 0.9323197485468299
0.320984 0.43444409919540034 0.9341025089612603
0.3229839 0.42892224061415296 0.9378379001798134
0.3249838 0.42227073462974907 0.9407266694913056
0.3269837 0.41618757104676096 0.9447631104773996
0.3289836 0.4095727778738395 0.9463145081193731
0.3309835 0.4024421374138043 0.9504400378946111
0.3329834 0.39671454362691133 0.9524302187921949
0.3349833 0.3899495251326988 0.955404880917678
0.3369832 0.38317380614522867 0.9577171020317868
0.3389831 0.3769451926673286 0.9594615882118359
0.340983 0.3707778580199539 0.9622151732952381
0.3429829 0.36374514013102105 0.965727973007021
0.3449828 0.35813251770267857 0.9681751532826728
0.3469827 0.3507560965341731 0.9705629936781829
0.3489826 0.34381795110765767 0.9735058381269033
0.3509825 0.33731599755681696 0.9754751542931331
0.3529824 0.33033033271903905 0.978110429381201
0.3549823 0.3241710964893771 0.9809613430245026
0.3569822 0.316929185252558 0.9829039789142922
0.3589821 0.31013314939408937 0.9850904648571774
0.360982 0.3035223460105601 0.986592037896482
0.3629819 0.296431125589807 0.9888081939972316
0.3649818 0.2904349603705994 0.9909024315264873
0.3669817 0.2835363491855777 0.9936325425711927
0.3689816 0.2768611669663105 0.9953662826277434
0.3709815 0.2704858984112678 0.9972746036103755
0.3729814 0.2639721677761394 0.999130227475208
0.3749813 0.25768425235961284 1.0011178892468284
0.3769812 0.2498670635831097 1.002794520442769
0.3789811 0.2425492771800383 1.0035098839089092
0.380981 0.23603860260998627 1.0054333821226322
0.3829809 0.22887263468173466 1.0069724449355961
0.3849808 0.22262797270479473 1.0098584314130035
0.3869807 0.21563793460632935 1.0110473492791456
0.3889806 0.20906645261750953 1.0123374087694181
0.3909805 0.2026149044907851 1.0143570251576974
0.3929804 0.19505071591946574 1.0159663899641753
0.3949803 0.18873569545418103 1.0181559655654897
0.3969802 0.18158132109004377 1.0189905303439526
0.3989801 0.17430858399513643 1.019931439091012
0.40098 0.1676771451236035 1.0213909430107997
0.4029799 0.16138791652745366 1.0218912083000036
0.4049798 0.15439694928407213 1.0233399625345336
0.4069797 0.1474845460944733 1.025464112930203
0.4089796 0.14072074380524002 1.0262437817408792
0.4109795 0.1335886563198408 1.0276353470270085
0.4129794 0.12664729772767327 1.0284550784609063
0.4149793 0.11968644938742286 1.02941033964997
0.4169792 0.11253590320215508 1.0301412256412303
0.4189791 0.10571282877042115 1.031072440641222
0.420979 0.09824455481932484 1.0321771292534823
0.4229789 0.09198814478509415 1.0321429830132614
0.4249788 0.08457767118916754 1.0330021413839783
0.4269787 0.07785502262027161 1.0333215913621387
0.4289786 0.07071413393862636 1.0340241249122673
0.4309785 0.06355478001716847 1.0346625362400157
0.4329784 0.05668618304760648 1.0349366528360344
0.4349783 0.049885724494780403 1.035500019974456
0.4369782 0.043721279119587036 1.035946713473801
0.4389781 0.03673978154257663 1.035954977527767
0.440978 0.030185887459018644 1.0367840833120379
0.4429779 0.022383851199294758 1.0365494111284885
0.4449778 0.01567042025253272 1.0365876911147056
0.4469777 0.008605768824415147 1.0365798220785685
0.4489776 0.0013743434702908897 1.0364779052636344
0.4509775 -0.0047757954943044925 1.0373994050349684
0.4529774 -0.012329628017159776 1.037816642522359
0.4549773 -0.018427046101744886 1.0369898945545224
0.4569772 -0.025753021363271858 1.0373983792128683
0.4589771 -0.03273666494943424 1.0373284869653938
0.460977 -0.03973169115352988 1.0373159400111254
0.4629769 -0.046171151729489913 1.0364851585747525
0.4649768 -0.053771306411851946 1.0366541955531092
0.4669767 -0.06010229305172755 1.036342075297586
0.4689766 -0.06692738558011709 1.0359199040150653
0.4709765 -0.0735367900198168 1.0352732956206372
0.4729764 -0.0803444889385029 1.0351089610689872
0.4749763 -0.08728014757781605 1.03464921120532
0.4769762 -0.09429552813544623 1.0348210063587333
0.4789761 -0.10102466571201901 1.034440658417285
0.480976 -0.10819498280189864 1.0335134656961953
0.4829759 -0.11527295034883175 1.0324560567867003
0.4849758 -0.12233167644133346 1.0321635276527663
0.4869757 -0.12904710367382405 1.031554086121966
0.4889756 -0.1359709577984834 1.0302824703619704
0.4909755 -0.1426901199676145 1.0300482877039419
0.4929754 -0.1498164927011145 1.029412869477781
0.4949753 -0.15619928135686958 1.0279301176880713
0.4969752 -0.16324661343196817 1.027689576700899
0.4989751 -0.17000794511885134 1.0262763623485307
0.500975 -0.17674665166104297 1.0258032415397045
0.5029749 -0.18317711219253452 1.0242637799860188
0.5049748 -0.19029198784470183 1.0229404315063122
0.5069747 -0.1969224609318069 1.0215579566594792
0.5089746 -0.20374464072138185 1.019924527306402
0.5109745 -0.2100100527576807 1.0183805543338211
0.5129744 -0.21747681733975743 1.0174297729060982
0.5149743 -0.22353261954009498 1.0168668357050845
0.5169742 -0.23004307460986334 1.0153102385767985
0.5189741 -0.23744862429574784 1.0132168490798004
0.520974 -0.243706307306859 1.0113911503117086
0.5229739 -0.25077548786631304 1.0103023337164336
0.5249738 -0.2576523807015047 1.0086629900923936
0.5269737 -0.26398559597802196 1.0065268375054275
0.5289736 -0.27059362955456223 1.0049315459692945
0.5309735 -0.27642149784473846 1.0030124280811608
0.5329734 -0.28390683816783624 1.0021170770663819
0.5349733 -0.29066936971744795 1.0007448212225558
0.5369732 -0.29673656690889466 0.9986295882266117
0.5389731 -0.30331142221512764 0.9967706815132544
0.540973 -0.3099050137492604 0.9944207067554579
0.5429729 -0.316484915257647 0.9930760909980548
0.5449728 -0.32333544155221783 0.9904813468556783
0.5469727 -0.32969354702791176 0.9886590626689242
0.5489726 -0.33573839182736265 0.9867262939203555
0.5509725 -0.3426793187475105 0.9848128692954594
0.5529724 -0.34923558334397886 0.9825251727155974
0.5549723 -0.35538210766048783 0.980420265782169
0.5569722 -0.3615889285732692 0.9780760397299273
0.5589721 -0.3682303731291372 0.9759842464158411
0.560972 -0.37500189417504637 0.9737356658731299
0.5629719 -0.380797529096993 0.9718167860380478
0.5649718 -0.3874803793587633 0.9689714340242079
0.5669717 -0.3936350141897519 0.9669024752229676
0.5689716 -0.3998838582311741 0.9640852802920079
0.5709715 -0.40626837096997015 0.9621419477838138
0.5729714 -0.41200231215312083 0.9591699977756335
0.5749713 -0.41872399678413375 0.956927104759701
0.5769712 -0.42496408839763145 0.9537373886439956
0.5789711 -0.4309235610167784 0.9512694467810505
0.580971 -0.43709957102330366 0.947997885662466
0.5829709 -0.44296699083444746 0.94603937866442
0.5849708 -0.4493723449198234 0.9427870805323697
0.5869707 -0.4556355829548514 0.939950017475902
0.5889706 -0.4612538604935889 0.93714269789885
0.5909705 -0.4677467051263774 0.9340349628826266
0.5929704 -0.47405956828599694 0.9310908550551876
0.5949703 -0.4801523012544782 0.9284504599313342
0.5969702 -0.4858794212273837 0.9249962298344063
0.5989701 -0.49195340497799706 0.9213714299969868
0.60097 -0.4977425172724337 0.9189750625122072
0.6029699 -0.5040614017268988 0.91579485019333
0.6049698 -0.5098477984325236 0.9125142863561319
0.6069697 -0.5152669228598894 0.909704919918224
0.6089696 -0.5215594838876089 0.9063869777667041
0.6109695 -0.5275063071078148 0.9030594119953304
0.6129694 -0.5334509835581134 0.8998488998780586
0.6149693 -0.5388969025117306 0.8963132363574917
0.6169692 -0.5450675588419222 0.8927936837514386
0.6189691 -0.5506082230280468 0.8897094788259282
0.620969 -0.5571386611373841 0.8861030959720282
0.6229689 -0.5622472055068692 0.8827717983727816
0.6249688 -0.568096365262085 0.8793940391817607
0.6269687 -0.5737910521371881 0.875730146456442
0.6289686 -0.5797907405561495 0.8723600409541987
0.6309685 -0.5850966549288378 0.868751279389748
0.6329684 -0.5907297423430938 0.8649122048000843
0.6349683 -0.5966882106025355 0.8615650138650245
0.6369682 -0.6020801952826677 0.857578495579397
0.6389681 -0.6075593898925763 0.8539312659299197
0.640968 -0.6130014458949294 0.8498823599086046
0.6429679 -0.6184608472569921 0.8458515463718996
0.6449678 -0.6238343245137394 0.8422118992847374
0.6469677 -0.6294368786333489 0.8381718044620139
0.6489676 -0.6349218042314587 0.8340947414148143
0.6509675 -0.6401763228490276 0.8304182852374116
0.6529674 -0.6457170012942399 0.8258144582097491
0.6549673 -0.6506259224991369 0.8222326787472212
0.6569672 -0.6560605665480215 0.8178900453530102
0.6589671 -0.661467946699285 0.8137608716177154
0.660967 -0.6665623653400754 0.8094738081968726
0.6629669 -0.6717556548034547 0.8054026859424087
0.6649668 -0.6771021130285081 0.8014634251485713
0.6669667 -0.6822292037654683 0.7970288559704174
0.6689666 -0.6872637555483844 0.7928302680675516
0.6709665 -0.6923882778335467 0.7884066465131649
0.6729664 -0.6976310526487612 0.7840337809908694
0.6749663 -0.7025914762936337 0.7798924158818054
0.6769662 -0.7077634357416713 0.7755362390845896
0.6789661 -0.7126012665484085 0.7708444110673096
0.680966 -0.717720053276959 0.7666298569380968
0.6829659 -0.7224030489309697 0.7622553806162534
0.6849658 -0.7278035133111356 0.7577013714882277
0.6869657 -0.7323571854463906 0.7533421026630794
0.6889656 -0.7375808251483926 0.748671382039854
0.6909655 -0.7421788829785935 0.7444235946826522
0.6929654 -0.7471919844387164 0.7395350141212885
0.6949653 -0.752019578178099 0.7351098036521961
0.6969652 -0.7567727260858838 0.7302808899139751
0.6989651 -0.7614995174197712 0.725786966058269
0.700965 -0.7663009280834001 0.7209175837116985
0.7029649 -0.7708048711702109 0.7164266417537467
0.7049648 -0.7751985708530064 0.7112109883690024
0.7069647 -0.7800420330548159 0.7069390207955353
0.7089646 -0.7846056044572982 0.701963203054028
0.7109645 -0.7890876436604464 0.6970629038637921
0.7129644 -0.7937365247743677 0.6920906220656714
0.7149643 -0.7980425564755115 0.6873117890143253
0.7169642 -0.8023427506722779 0.6822415991009964
0.7189641 -0.8065935698985235 0.6772938151805005
0.720964 -0.8112139223228086 0.672193623049886
0.7229639 -0.8157488266164948 0.6673142665415652
0.7249638 -0.8198906585176984 0.6623714638819405
0.7269637 -0.8237598897128147 0.6568730006809428
0.7289636 -0.8282285472477665 0.652087336140627
0.7309635 -0.8321238740741211 0.6467946515495021
0.7329634 -0.8363195587083238 0.6413511736185108
0.7349633 -0.8401587155142418 0.6362750091857173
0.7369632 -0.8444960417773214 0.6309530455861831
0.7389631 -0.848336263967209 0.6258570891801591
0.740963 -0.8523307054757245 0.6205698225769934
0.7429629 -0.8562238518048222 0.6153739111174641
0.7449628 -0.8600819558889419 0.6100870405127135
0.7469627 -0.8642651782380024 0.6048488273844298
0.7489626 -0.8680668708957671 0.5994056044232074
0.7509625 -0.8719003267030846 0.593940188381406
0.7529624 -0.8759430434846043 0.5888602967679264
0.7549623 -0.8797124775482479 0.5837037879563678
0.7569622 -0.883546374184137 0.5778702996847532
0.7589621 -0.8874212923529567 0.5727095962170841
0.760962 -0.8912941967602409 0.5671420507070989
0.7629619 -0.8946105452665706 0.5617158014853607
0.7649618 -0.8985053849826174 0.5563003803738593
0.7669617 -0.9020909165327265 0.5507493902300218
0.7689616 -0.9058649302549141 0.5452827799450155
0.7709615 -0.9092099517782356 0.5396574511642503
0.7729614 -0.9130324394958966 0.5340795340830933
0.7749613 -0.9162684985965237 0.5284755556455103
0.7769612 -0.9198776248519358 0.5228944129425236
0.7789611 -0.9232725507622686 0.5171884044330829
0.780961 -0.926653638848679 0.5115815966201447
0.7829609 -0.9299940336309729 0.5058689813243997
0.7849608 -0.9334069818640993 0.5001586512235222
0.7869607 -0.9365557764248936 0.49444258733516083
0.7889606 -0.9400042055896297 0.48870539891938836
0.7909605 -0.9432504766040661 0.48302158172336346
0.7929604 -0.9461394379587095 0.47718913008709235
0.7949603 -0.9492173009213608 0.4710880559924363
0.7969602 -0.9523040951959564 0.4654177904420894
0.7989601 -0.9554566666257227 0.4596727400741974
0.80096 -0.9580738369903667 0.45316554005430676
0.8029599 -0.9610491781590479 0.44732536157283287
0.8049598 -0.9640789954605062 0.44144046808278514
0.8069597 -0.9665191087282604 0.4355919735461117
0.8089596 -0.9695829560373573 0.4296603364531307
0.8109595 -0.9722701559642792 0.42350556247039073
0.8129594 -0.9750638540560274 0.41765580268152
0.8149593 -0.9776693978865809 0.41172872026953766
0.8169592 -0.9804615425836304 0.4058417776739847
0.8189591 -0.9830031677467254 0.39980511085296605
