! Created with skrf 1.8.0 (http://scikit-rf.org).
# GHz S RI R 50.0 
!freq ReS11 ImS11
0.001 -0.9998615051940392 0.0005700237654656635
0.0029999 -1.0005732233686424 0.0016152870296081197
0.0049998 -1.0061700043469342 9.349531446251752e-05
0.0069997 -1.0175333864382052 -0.0024005494005201918
0.0089996 -1.0386410880660673 -0.019802733947863256
0.0109995 -1.0505024338771818 -0.02834420094974461
0.0129994 -1.0560316117383965 -0.04023764057975024
0.0149993 -1.0607403512177191 -0.05067291143149855
0.0169992 -1.0595405312978665 -0.05632663250844555
0.0189991 -1.0605444278022258 -0.06385479583204115
0.020999 -1.0606507067973205 -0.07057952297324681
0.0229989 -1.0609008164176739 -0.07807049525318074
0.0249988 -1.0603943441005124 -0.08429651250610959
0.0269987 -1.0605037200545933 -0.09186185385651531
0.0289986 -1.060338290177129 -0.09864861542393413
0.0309985 -1.0599586783449513 -0.1052363719550455
0.0329984 -1.059055500766484 -0.1122187851130124
0.0349983 -1.0583067948535705 -0.11860170736797271
0.0369982 -1.0576317629755034 -0.1259166181653939
0.0389981 -1.056147024516541 -0.1315651334223682
0.040998 -1.056304301444473 -0.13787562420231475
0.0429979 -1.0548138425612978 -0.1441010090793427
0.0449978 -1.0547163727519626 -0.15137622472098916
0.0469977 -1.0546328686980786 -0.15664190801639538
0.0489976 -1.052573101451512 -0.16456664102023247
0.0509975 -1.0520543017724286 -0.17104629229662813
0.0529974 -1.0495124897926358 -0.17246049799620328
0.0549973 -1.0507214625736543 -0.18776437142200833
0.0569972 -1.0486268436731114 -0.19060024313113008
0.0589971 -1.048539925760709 -0.19641341857204922
0.060997 -1.047630465741514 -0.20401485779367157
0.0629969 -1.0442935241489961 -0.20826716440645537
0.0649968 -1.0461838141601052 -0.21448818059106176
0.0669967 -1.0430647305864738 -0.22276275828524184
0.0689966 -1.043246266824562 -0.22887391867766393
0.0709965 -1.0422859233829658 -0.23219685653291053
0.0729964 -1.0405727834821459 -0.24150500319588214
0.0749963 -1.0399631395438484 -0.2486940072953508
0.0769962 -1.040029274560268 -0.2530732374124696
0.0789961 -1.0380204863298186 -0.26056094542606534
0.080996 -1.0378873859359674 -0.26612904217444355
0.0829959 -1.0351396331757647 -0.27321808407705844
0.0849958 -1.0335780164488577 -0.278779761634009
0.0869957 -1.0317250474250057 -0.2846653348730531
0.0889956 -1.0313039368548773 -0.29155969704114026
0.0909955 -1.0301837460632042 -0.2991164599151372
0.0929954 -1.0291002039891122 -0.30520436430697473
0.0949953 -1.0266751982367923 -0.31140373228858625
0.0969952 -1.024665126105926 -0.3180137243825296
0.0989951 -1.024247648260032 -0.3246732158392144
0.100995 -1.021537644557646 -0.3309130790395868
0.1029949 -1.0195877526812636 -0.3378670324754101
0.1049948 -1.018185129754637 -0.3441773595618025
0.1069947 -1.0165507415934953 -0.35010582940203044
0.1089946 -1.0138191074429435 -0.3570331955681822
0.1109945 -1.0122841542006145 -0.36354827135983914
0.1129944 -1.0095134211035839 -0.36911017345242525
0.1149943 -1.007219120415509 -0.37594872645543115
0.1169942 -1.0050861109624916 -0.3822357682703883
0.1189941 -1.002572446084011 -0.38789521969161467
0.120994 -1.0000280349972814 -0.3937817897416942
0.1229939 -0.9984064591120608 -0.39924322448708865
0.1249938 -0.9964021677073172 -0.40730597744407865
0.1269937 -0.9935113574425322 -0.4122310086727511
0.1289936 -0.9908376299003352 -0.4170912062859991
0.1309935 -0.9885947713576135 -0.42359596952228823
0.1329934 -0.9860564119108055 -0.4294334207880525
0.1349933 -0.9833139601160018 -0.4368062245698463
0.1369932 -0.9816550097154028 -0.4415377135543086
0.1389931 -0.9794234398094013 -0.44763716907587
0.140993 -0.9776025032258687 -0.45224747736698967
0.1429929 -0.9737920318535409 -0.46054943999459147
0.1449928 -0.971999247576033 -0.4644441834243689
0.1469927 -0.9697769244125355 -0.4690648393490786
0.1489926 -0.9671283247911194 -0.47516316802929176
0.1509925 -0.9654322403885413 -0.48040377580788696
0.1529924 -0.9627756487719542 -0.48864259963125833
0.1549923 -0.9591750840016702 -0.4934518971682568
0.1569922 -0.9561200911107893 -0.49800874111021975
0.1589921 -0.9535919007464616 -0.5059721689892838
0.160992 -0.9520302978879593 -0.5109845565514596
0.1629919 -0.9479506825548516 -0.5173679856939286
0.1649918 -0.9449677934430184 -0.5226666232280357
0.1669917 -0.9424737050729634 -0.5289356251831719
0.1689916 -0.9400714108327186 -0.5348942922243218
0.1709915 -0.9373692252819705 -0.5426079490009227
0.1729914 -0.9334030960367855 -0.5468645736080916
0.1749913 -0.9306752787564797 -0.5523448723760152
0.1769912 -0.9282384827983545 -0.5578348968615737
0.1789911 -0.9238786992384205 -0.5647828933323676
0.180991 -0.9217627630845775 -0.5708179159454206
0.1829909 -0.9172906141414293 -0.5756557675053784
0.1849908 -0.9146946196371752 -0.5815828763651081
0.1869907 -0.9112258595502039 -0.5874998376365166
0.1889906 -0.9078507896792588 -0.5928495990241213
0.1909905 -0.9041939327543498 -0.5973245157956417
0.1929904 -0.9003614206191635 -0.6031163835148504
0.1949903 -0.8976027701947842 -0.6091856363632591
0.1969902 -0.8948284374405779 -0.6139346581902821
0.1989901 -0.8907442006499725 -0.6196067867453646
0.20099 -0.8872897032486566 -0.6241704027367173
0.2029899 -0.882140311879384 -0.6306037943867243
0.2049898 -0.8789159091363953 -0.6342705836266673
0.2069897 -0.8758150314688088 -0.639867056567264
0.2089896 -0.8720669438986715 -0.645480143621256
0.2109895 -0.869331710262838 -0.6500009166872717
0.2129894 -0.8641476845080988 -0.65549297000372
0.2149893 -0.8614797024978031 -0.6603411893574855
0.2169892 -0.857196725893816 -0.6653824272690486
0.2189891 -0.8542005366220013 -0.6713020785888364
0.220989 -0.8492350195494262 -0.6752822523978073
0.2229889 -0.8448657272593137 -0.6800064587272501
0.2249888 -0.8417619666114187 -0.6853757046803785
0.2269887 -0.8387868102827237 -0.6906139999664702
0.2289886 -0.83469781118785 -0.6971020345104797
0.2309885 -0.8299835099972923 -0.7003250002840657
0.2329884 -0.8263926143056766 -0.7056128649557379
0.2349883 -0.8223991635009887 -0.7119688183340266
0.2369882 -0.8187764251717939 -0.7171899774117407
0.2389881 -0.8141964094473183 -0.7219027720106783
0.240988 -0.8096899076025581 -0.7263893018536274
0.2429879 -0.8057582799524141 -0.73190043816882
0.2449878 -0.8021684426056938 -0.7374328863252824
0.2469877 -0.7981029448582987 -0.7427348470601601
0.2489876 -0.7931264434485494 -0.7470837231906465
0.2509875 -0.7886308024782964 -0.7519440148367577
0.2529874 -0.7847166449069709 -0.7583042539578355
0.2549873 -0.7809815150076896 -0.7623743261450532
0.2569872 -0.7754329786514785 -0.7672135955273861
0.2589871 -0.7707888832389198 -0.7713909893948737
0.260987 -0.7665109575125412 -0.7767359456301138
0.2629869 -0.7624547510107236 -0.780985736443157
0.2649868 -0.7575074575089009 -0.785772833788761
0.2669867 -0.7533330213836036 -0.7907086818031914
0.2689866 -0.7488771147914332 -0.7947407534968541
0.2709865 -0.7440801427432924 -0.7993314974722183
0.2729864 -0.7388952960311004 -0.8040813568930774
0.2749863 -0.7350640873403234 -0.8081865248540928
0.2769862 -0.7300390465059289 -0.8131798623607572
0.2789861 -0.7245066630821396 -0.8164465661922604
0.280986 -0.7201432950476142 -0.8216700778743489
0.2829859 -0.7154448971261254 -0.8263700971760388
0.2849858 -0.7111705767496911 -0.8308834168374001
0.2869857 -0.7056498262372665 -0.8343934417301335
0.2889856 -0.7006165772935138 -0.8388287783342022
0.2909855 -0.6954245598198415 -0.8440161880967852
0.2929854 -0.6909206336031479 -0.8481102658288687
0.2949853 -0.6848705449220107 -0.8522335573580024
0.2969852 -0.6801456714925914 -0.8552601905791368
0.2989851 -0.6753610019416932 -0.8594799864508554
0.300985 -0.6706689793609866 -0.8642613415901699
0.3029849 -0.6660968629028885 -0.8688743168900909
0.3049848 -0.6599356009894684 -0.8728715557686914
0.3069847 -0.6547895938729162 -0.8753363815689282
0.3089846 -0.6497421264472814 -0.8796835369438123
0.3109845 -0.645230959140257 -0.8850184535808927
0.3129844 -0.6407893678194758 -0.8897554371616988
0.3149843 -0.635229284468164 -0.8938302960855627
0.3169842 -0.6294705426993645 -0.8963604875239024
0.3189841 -0.6257507062014562 -0.9001589462660522
0.320984 -0.6205362782813431 -0.9052330037021282
0.3229839 -0.6150314861485695 -0.9080809682071993
0.3249838 -0.6086641578733628 -0.9124046074358674
0.3269837 -0.6030360175273075 -0.9154669339594731
0.3289836 -0.5979838342884718 -0.9201434706000718
0.3309835 -0.5925129360361318 -0.9230639026804619
0.3329834 -0.5868363323307766 -0.9275068129772515
0.3349833 -0.5816093188638776 -0.9306718109164605
0.3369832 -0.576992334759089 -0.9357200695368579
0.3389831 -0.5718087884870533 -0.9385562313567352
0.340983 -0.5663540227258463 -0.9424904816305344
0.3429829 -0.5605760671147958 -0.9447656750043263
0.3449828 -0.5552491748803878 -0.9482791891338964
0.3469827 -0.5500060903780769 -0.9521192433801915
0.3489826 -0.5445567876462363 -0.9550147778142819
0.3509825 -0.5392414945453016 -0.9581805877579127
0.3529824 -0.5332917825213057 -0.962550805913797
0.3549823 -0.5276409712266137 -0.9653313804918776
0.3569822 -0.5219426101961602 -0.969208796221844
0.3589821 -0.5159048412116364 -0.9717294345283622
0.360982 -0.5101435509662485 -0.9755013595635793
0.3629819 -0.5034334979712107 -0.9791110434938735
0.3649818 -0.49800846084674905 -0.9827033913629599
0.3669817 -0.49205682384748967 -0.984649790056346
0.3689816 -0.48609042482938875 -0.9886459875547008
0.3709815 -0.48081746753987487 -0.9917372269498272
0.3729814 -0.47454971947204133 -0.9953564255436061
0.3749813 -0.4677955821844816 -0.9974759249424215
0.3769812 -0.46226371456991033 -0.9999609205318805
0.3789811 -0.45698258522656077 -1.0035749910788767
0.380981 -0.45124406575655956 -1.006839313602527
0.3829809 -0.4453517805653045 -1.0098670416266176
0.3849808 -0.43765770974837903 -1.0108443493858008
0.3869807 -0.4330160050778313 -1.0145192004162766
0.3889806 -0.42682185779016313 -1.0170651090390044
0.3909805 -0.42033409800804783 -1.0195789227412617
0.3929804 -0.41376183233277525 -1.0222200038405962
0.3949803 -0.4074482649946152 -1.0244278099787423
0.3969802 -0.401552111197911 -1.0276257244354825
0.3989801 -0.3962672793606423 -1.0308598828249877
0.40098 -0.3895338141910333 -1.0330523197742543
0.4029799 -0.3841420636619423 -1.0360449370777352
0.4049798 -0.3772412433495887 -1.0385642703083864
0.4069797 -0.3720207464356422 -1.0398522515541673
0.4089796 -0.3656630155844206 -1.042873763025205
0.4109795 -0.35976471780395464 -1.0454613390182264
0.4129794 -0.353266449861083 -1.047818543967997
0.4149793 -0.34775738503346876 -1.050077427905995
0.4169792 -0.34128316860481356 -1.0525953076528356
0.4189791 -0.3345068017785347 -1.055297523905309
0.420979 -0.3284495850305692 -1.0571064089795728
0.4229789 -0.3210351661690336 -1.059962583509445
0.4249788 -0.31528453172704624 -1.0609759663609417
0.4269787 -0.30870376556446893 -1.0636307254098667
0.4289786 -0.30249199001031585 -1.0652736091098152
0.4309785 -0.29537926729197794 -1.067787752207172
0.4329784 -0.2892275285993175 -1.0696647241663015
0.4349783 -0.28286369066537986 -1.0715528761464304
0.4369782 -0.2757776534399352 -1.074265822513319
0.4389781 -0.26977384975724494 -1.075799809410309
0.440978 -0.26289476653018135 -1.0774276095083533
0.4429779 -0.2567926324959718 -1.0783864794753284
0.4449778 -0.25035447803920735 -1.0811623707916433
0.4469777 -0.24462328500884967 -1.0834459024058882
0.4489776 -0.23722062657687032 -1.0837294673913176
0.4509775 -0.2298448348205022 -1.085080648955696
0.4529774 -0.22407194757445736 -1.0861702276591039
0.4549773 -0.21715188625426352 -1.0885744618565734
0.4569772 -0.2105065251331314 -1.0897252024314226
0.4589771 -0.20455866375597018 -1.091157907543864
0.460977 -0.19743891401215913 -1.0924658871250248
0.4629769 -0.19043871411548338 -1.0933283052535625
0.4649768 -0.18441667301637668 -1.0945598303577784
0.4669767 -0.1778224633792692 -1.0967992723321327
0.4689766 -0.17168781338037908 -1.0978703283945024
0.4709765 -0.16575012519272997 -1.0992920120389569
0.4729764 -0.15842337383893457 -1.1004261248996952
0.4749763 -0.15239984754612584 -1.1005104664274832
0.4769762 -0.1459107152497487 -1.1016762394751556
0.4789761 -0.1393687282157621 -1.1028855608143744
0.480976 -0.1323788847496757 -1.1035629084418155
0.4829759 -0.12581663234943707 -1.1047524120434107
0.4849758 -0.11923096997639446 -1.1058410560383798
0.4869757 -0.11250785612630675 -1.107235340471127
0.4889756 -0.10552445358092243 -1.1082059180011794
0.4909755 -0.0979396355477404 -1.109583472268118
0.4929754 -0.09191435975681977 -1.1102230303793232
0.4949753 -0.08438132995720089 -1.1115342996301147
0.4969752 -0.0780234604868184 -1.112157201587116
0.4989751 -0.07019061931623342 -1.1126253766413228
0.500975 -0.06400770653909095 -1.1133427409295775
0.5029749 -0.056033236522674015 -1.1144414263910258
0.5049748 -0.05016520958822152 -1.1156810686380396
0.5069747 -0.04342155251207441 -1.1152830375540579
0.5089746 -0.036082756904351684 -1.1165059561435073
0.5109745 -0.02974681456941422 -1.1165932991247476
0.5129744 -0.022893488580497355 -1.1166314518034364
0.5149743 -0.015614434191853425 -1.1170050139314593
0.5169742 -0.009065498898729735 -1.1176788831089877
0.5189741 -0.0018723705897588788 -1.1177947916233484
0.520974 0.005628466727325809 -1.1185523175079854
0.5229739 0.011907093130014285 -1.1172658267153486
0.5249738 0.01889577234384919 -1.1172782724363814
0.5269737 0.026153948787207754 -1.1175104309291812
0.5289736 0.03308545106230519 -1.1176587794956125
0.5309735 0.04019606754957322 -1.1172396807343048
0.5329734 0.04674357658196461 -1.1167984631049814
0.5349733 0.05333904758770748 -1.1160139622797898
0.5369732 0.06065869839058072 -1.1162688282671231
0.5389731 0.06751351633083115 -1.115844793821984
0.540973 0.07430313721252083 -1.117530234265004
0.5429729 0.08066583221128873 -1.1165081524700968
0.5449728 0.08790399636767993 -1.1157765044045487
0.5469727 0.09469975633078365 -1.1155018335668934
0.5489726 0.10153557187605876 -1.1156721442737216
0.5509725 0.10881691630035212 -1.1148912801726107
0.5529724 0.11549690923661791 -1.1140304303323172
0.5549723 0.12250974410370666 -1.112642218221036
0.5569722 0.12923810209464737 -1.1131330113658064
0.5589721 0.13662043448588157 -1.1121018490458379
0.560972 0.14389282616652888 -1.1120241578010956
0.5629719 0.1507818716572879 -1.1107319470279633
0.5649718 0.15755638780869657 -1.1101385501988303
0.5669717 0.16480938293365502 -1.1092479037595364
0.5689716 0.17176244845717153 -1.1090133743594712
0.5709715 0.17890179922042837 -1.107779556914086
0.5729714 0.18576400236841423 -1.1076275517395344
0.5749713 0.19271531972300715 -1.1069236005415188
0.5769712 0.19923313867370127 -1.106736765035382
0.5789711 0.2058985509429503 -1.1049582568226668
0.580971 0.21343010177473415 -1.104371531731329
0.5829709 0.22073464865477113 -1.1025808845469156
0.5849708 0.22741159638853725 -1.10147390671546
0.5869707 0.23495328625775222 -1.0991219417574836
0.5889706 0.24186075272819776 -1.0989418603723755
0.5909705 0.24899573552425364 -1.0971357110396676
0.5929704 0.2552442917916372 -1.0955311365648879
0.5949703 0.261930001666164 -1.0941070575604026
0.5969702 0.26890304396830544 -1.0928337577780538
0.5989701 0.27667455538579083 -1.0919323395324312
0.60097 0.2839101134296284 -1.0895133492557205
0.6029699 0.29061219522673404 -1.0879359314075217
0.6049698 0.29692632516476114 -1.087007503383392
0.6069697 0.3037325188907679 -1.0856580430021587
0.6089696 0.3108042136097532 -1.0829845994771274
0.6109695 0.3173111328872882 -1.0813311677784063
0.6129694 0.32392522490232045 -1.0794658448653547
0.6149693 0.33097449291270575 -1.0775059974374417
0.6169692 0.3381814158495079 -1.07598051115848
0.6189691 0.34477634030337423 -1.0732475973892457
0.620969 0.35093037525485227 -1.07142198268393
0.6229689 0.3587080457245257 -1.0691080681297291
0.6249688 0.36503770006020253 -1.0676993152880805
0.6269687 0.37238089588200396 -1.0652074108566558
0.6289686 0.3789607222885383 -1.062932495652779
0.6309685 0.3864799979071841 -1.061286569928443
0.6329684 0.39301156402095255 -1.0593930851235107
0.6349683 0.4004045673490713 -1.0569063928324745
0.6369682 0.40649544196908116 -1.0558234890442342
0.6389681 0.4138252470095515 -1.0523207896035844
0.640968 0.42085875227941727 -1.0500299167523564
0.6429679 0.42745101826233267 -1.048016545858051
0.6449678 0.43398580869463976 -1.0449741741280245
0.6469677 0.44095399871151164 -1.0426853912357565
0.6489676 0.4473978159509473 -1.0396115315785637
0.6509675 0.45440910578206184 -1.035972741602627
0.6529674 0.46167104904287615 -1.033934901756616
0.6549673 0.46791206470350855 -1.0305676890231714
0.6569672 0.47478950076928955 -1.0274196749187483
0.6589671 0.48088429248617365 -1.0246437398443924
0.660967 0.4878301752672209 -1.0222039571769712
0.6629669 0.49471027639075627 -1.0186363519970718
0.6649668 0.501292574965186 -1.016200830922269
0.6669667 0.5078396713198361 -1.0129724418142685
0.6689666 0.5147939995723836 -1.0094202182381244
0.6709665 0.5211663169182527 -1.006975618549507
0.6729664 0.5277032332330083 -1.0044299695370782
0.6749663 0.5345683709331077 -1.0014500825245647
0.6769662 0.5406282328614254 -0.9980908110944255
0.6789661 0.5478744276029028 -0.9948837797282881
0.680966 0.5547332742606383 -0.9914926671934245
0.6829659 0.5610797928240624 -0.9877952997544313
0.6849658 0.5671632588315286 -0.9842550005421244
0.6869657 0.5736632125879269 -0.9804072979374019
0.6889656 0.5797593013302998 -0.9767780530046053
0.6909655 0.5860103425530021 -0.9722727730113344
0.6929654 0.5925994968074402 -0.9695066998761581
0.6949653 0.5987818577605885 -0.965342919619706
0.6969652 0.6055647507403937 -0.9613950735432898
0.6989651 0.6117264444635672 -0.9579088905272927
0.700965 0.617865919878587 -0.9533749861919152
0.7029649 0.624396981210249 -0.9490415283282029
0.7049648 0.6305835798095607 -0.9464022644612975
0.7069647 0.6366740092242541 -0.9422776540354062
0.7089646 0.6433323989727118 -0.9388074436035833
0.7109645 0.6490378733389118 -0.9341604482807668
0.7129644 0.6558158804704362 -0.93003052481063
0.7149643 0.6615441314524098 -0.9264213067584695
0.7169642 0.6677358429312382 -0.9215216795808465
0.7189641 0.6744634502359376 -0.9175316817168068
0.720964 0.6802030939324476 -0.9137956301203081
0.7229639 0.6857732765585585 -0.9085519416069414
0.7249638 0.6921810535607029 -0.9042528471039023
0.7269637 0.6983191521530909 -0.9005289076983959
0.7289636 0.7043739089647657 -0.8950706312841954
0.7309635 0.7101635293807357 -0.8911984761953211
0.7329634 0.7161577155097785 -0.8864325349809289
0.7349633 0.7226271076687893 -0.8821998223512536
0.7369632 0.7280980199412258 -0.8767968475076019
0.7389631 0.7345980096299914 -0.8731956424172085
0.740963 0.739688656916432 -0.8691249694981426
0.7429629 0.7463867939243185 -0.8645989561799473
0.7449628 0.7523729237621835 -0.860255364419264
0.7469627 0.758074060103126 -0.854780778029327
0.7489626 0.7646330193970301 -0.8502252931279302
0.7509625 0.7700960327578983 -0.8449187462447927
0.7529624 0.7757205002582086 -0.8394339257217038
0.7549623 0.7813238923302648 -0.8347599458530374
0.7569622 0.7864916360683477 -0.8292820676464117
0.7589621 0.7926251659859451 -0.82386056424843
0.760962 0.7978180199831891 -0.8187674955107583
0.7629619 0.8035713846766286 -0.8134439206831249
0.7649618 0.8086729552695784 -0.8083009426684328
0.7669617 0.8143377259291436 -0.8021554052660483
0.7689616 0.8197594545407911 -0.7966083672683458
0.7709615 0.8249289741128036 -0.7916061956973917
0.7729614 0.830278682852047 -0.785572910840922
0.7749613 0.8362012128395246 -0.7815664879795715
0.7769612 0.8411552886977265 -0.7766516269431243
0.7789611 0.8470041911544779 -0.7703283756835679
0.780961 0.8517176300311322 -0.7650256671419661
0.7829609 0.856565114980263 -0.7596780804968933
0.7849608 0.8625880235741213 -0.7543557959438175
0.7869607 0.8677919926736322 -0.7482528484933962
0.7889606 0.8726000336303215 -0.7419998077373842
0.7909605 0.877587504205968 -0.7368440887970648
0.7929604 0.8824690268643708 -0.730753371769539
0.7949603 0.8870725455334307 -0.7246759473040706
0.7969602 0.8918646087030253 -0.7186807436457386
0.7989601 0.8973604845419492 -0.7129456112449201
