! Created with skrf 1.8.0 (http://scikit-rf.org).
# GHz S RI R 50.0 
!freq ReS11 ImS11
0.001 -1.0000020605532005 0.0005782682721144593
0.0029999 -1.0006190017999237 0.0017672006047652154
0.0049998 -1.0061481042935816 0.0037254977904866426
0.0069997 -1.0139905837387897 0.0024983126729068855
0.0089996 -1.0317973292343712 -0.010482320930331954
0.0109995 -1.0441231264228423 -0.02260196806511715
0.0129994 -1.0507160972836338 -0.03611614152813737
0.0149993 -1.0518360043809372 -0.04406779526964467
0.0169992 -1.0564351845126336 -0.054297611670489736
0.0189991 -1.0564436382805416 -0.06274914252764452
0.020999 -1.0568744740109897 -0.07110935926390326
0.0229989 -1.0571135860360819 -0.07838332231207101
0.0249988 -1.0568403764892342 -0.08475065034982747
0.0269987 -1.0568572070398228 -0.09214837530951148
0.0289986 -1.056559606589485 -0.09900783184383927
0.0309985 -1.056193386619889 -0.10532897728964222
0.0329984 -1.0553619185318295 -0.11206984140166072
0.0349983 -1.0546025109017843 -0.11823813105515321
0.0369982 -1.054170840836728 -0.12514550337017555
0.0389981 -1.0529056213525274 -0.13056376343132128
0.040998 -1.053150998419939 -0.13646721534477096
0.0429979 -1.0520961414966572 -0.1431021084605425
0.0449978 -1.0520717510353745 -0.14961061719981314
0.0469977 -1.0516425655552244 -0.15470884866479678
0.0489976 -1.050804172579085 -0.16329824458754938
0.0509975 -1.0494355148636456 -0.1699698617224127
0.0529974 -1.0475417640471163 -0.1740807888399952
0.0549973 -1.0489803291397057 -0.183200595491058
0.0569972 -1.0472968556124775 -0.189371117672504
0.0589971 -1.0468007463634859 -0.19453624609432452
0.060997 -1.046415980055731 -0.2023131573673192
0.0629969 -1.0432526420767536 -0.20752096203800122
0.0649968 -1.0452549103142443 -0.21325444456973935
0.0669967 -1.0417238679631275 -0.22217293796905016
0.0689966 -1.0413844458485064 -0.22797105164709025
0.0709965 -1.0408242452734677 -0.2314280962124413
0.0729964 -1.0395577190544618 -0.24156310291897773
0.0749963 -1.0383356491775988 -0.24822184337577247
0.0769962 -1.0380471601268952 -0.25301266313114634
0.0789961 -1.0357968983018921 -0.2601455340506497
0.080996 -1.0358529670792305 -0.2659328086443387
0.0829959 -1.0327535710274856 -0.27300907409910397
0.0849958 -1.0314928481554035 -0.27897426696975197
0.0869957 -1.0295384679477224 -0.28460247831349983
0.0889956 -1.0292164897374962 -0.29131918963401116
0.0909955 -1.0275792898238338 -0.2987403692069345
0.0929954 -1.0267258495272151 -0.3050211433260964
0.0949953 -1.0240563649798566 -0.31154890188784984
0.0969952 -1.0224946581649579 -0.3177646763796708
0.0989951 -1.020871031173737 -0.32351865142831693
0.100995 -1.0189652980239543 -0.3305786085379146
0.1029949 -1.0170289498896496 -0.33721283527929835
0.1049948 -1.015577486423151 -0.34357847732066576
0.1069947 -1.0141722692756683 -0.34953808223040533
0.1089946 -1.0116101625242464 -0.35611293614875006
0.1109945 -1.0102298378723304 -0.3630744922409034
0.1129944 -1.006972757918573 -0.3681617417256805
0.1149943 -1.004908370442129 -0.37498095476294546
0.1169942 -1.0028793279167478 -0.3813620226995609
0.1189941 -1.0003628076540554 -0.38711228508522566
0.120994 -0.998203978016889 -0.39308424654554486
0.1229939 -0.9967141782748188 -0.3984154439331886
0.1249938 -0.9948317617039197 -0.40581127467289263
0.1269937 -0.9917760120405865 -0.41138819556534256
0.1289936 -0.9888728569594285 -0.41622430922317116
0.1309935 -0.9873969115521383 -0.4223834269905791
0.1329934 -0.9845228897761119 -0.42883748656788884
0.1349933 -0.9819592386719423 -0.4358753647329231
0.1369932 -0.9796653327133271 -0.4408466298037098
0.1389931 -0.9773699682505093 -0.4471086772084522
0.140993 -0.9761932938922583 -0.4515307754403794
0.1429929 -0.973209023078182 -0.4590626761162137
0.1449928 -0.9696482268236841 -0.46371983093730107
0.1469927 -0.9671121582354437 -0.46897519767292706
0.1489926 -0.9645171512975759 -0.4770381597272293
0.1509925 -0.9628942009011333 -0.4809965601603807
0.1529924 -0.9607027560877998 -0.4882275523676096
0.1549923 -0.957338222530044 -0.49294334649100224
0.1569922 -0.9537804867512478 -0.49823566313737666
0.1589921 -0.9511857729730536 -0.5051536610943494
0.160992 -0.9497309261783455 -0.5109806638487439
0.1629919 -0.9447796388758 -0.5176095777390344
0.1649918 -0.9425077530065706 -0.5232285058923976
0.1669917 -0.9400186044955396 -0.529269320049536
0.1689916 -0.9374310563585071 -0.5342351330178304
0.1709915 -0.9341596947557361 -0.5415848283443513
0.1729914 -0.9308409445997271 -0.5462059212732142
0.1749913 -0.9276673203506045 -0.5516116885175057
0.1769912 -0.9255342488030709 -0.5574226225179757
0.1789911 -0.9216950294250609 -0.564145128304554
0.180991 -0.9189375758010189 -0.5700528462504473
0.1829909 -0.9145815948288548 -0.5751823921861126
0.1849908 -0.9122046704836427 -0.5806898123512271
0.1869907 -0.9089695850191123 -0.5857725596987033
0.1889906 -0.905792643288242 -0.5923985285700639
0.1909905 -0.9018990011191791 -0.5966293168495431
0.1929904 -0.8985828752546965 -0.6020213195015416
0.1949903 -0.8948502058839773 -0.6090851009207472
0.1969902 -0.8928338463194533 -0.6139500452758545
0.1989901 -0.8874278878088042 -0.6199463034349101
0.20099 -0.8854657826085736 -0.6245465015005879
0.2029899 -0.8802651066589361 -0.6302292901371984
0.2049898 -0.8772501418301646 -0.6353932524645945
0.2069897 -0.873554043590095 -0.640441582828118
0.2089896 -0.8700886990922401 -0.6455428719485319
0.2109895 -0.8664649231015586 -0.6517558849311702
0.2129894 -0.8616344511436593 -0.6562294572877946
0.2149893 -0.8583902823962264 -0.6617965363750085
0.2169892 -0.8548619282672895 -0.6664463377419108
0.2189891 -0.8516367718369074 -0.6730652921505975
0.220989 -0.8462709890171559 -0.6773484514190368
0.2229889 -0.8423107404387777 -0.681333046452519
0.2249888 -0.8386285323155759 -0.6873514390618298
0.2269887 -0.8363770923228379 -0.6925255335081173
0.2289886 -0.8310361503510556 -0.6989791732811813
0.2309885 -0.8257609021803123 -0.7030132066164355
0.2329884 -0.8224122621076871 -0.7082585480099757
0.2349883 -0.8188682523303359 -0.713532043986006
0.2369882 -0.8153040032324712 -0.7186855116863307
0.2389881 -0.8101877140784406 -0.7239423728509164
0.240988 -0.8058994102855205 -0.7278303168124162
0.2429879 -0.8018990837339435 -0.7330729334363341
0.2449878 -0.7980199068913827 -0.7385769288717986
0.2469877 -0.7942008925603709 -0.74370858837775
0.2489876 -0.789063349011167 -0.7480507809849928
0.2509875 -0.7846890401143245 -0.75300475673579
0.2529874 -0.7803750710034506 -0.7589779817779396
0.2549873 -0.7767729000016435 -0.7639065389934897
0.2569872 -0.7714731858055677 -0.7678481648202197
0.2589871 -0.7666621111314997 -0.772661318524865
0.260987 -0.7621556376712229 -0.7783877181656239
0.2629869 -0.7579459604933084 -0.7827319778066818
0.2649868 -0.7531306428196135 -0.7869221150558207
0.2669867 -0.7491381116483651 -0.7922549020423342
0.2689866 -0.7442702266598173 -0.7970290889230865
0.2709865 -0.7402028080365604 -0.800869486587891
0.2729864 -0.7349217078578029 -0.8059277853322233
0.2749863 -0.7307933485588023 -0.8108521597501084
0.2769862 -0.7260536437146821 -0.8153223595389665
0.2789861 -0.720514507535336 -0.8191407649093266
0.280986 -0.7151942955187962 -0.824305261981618
0.2829859 -0.7109930845403395 -0.8292631899820145
0.2849858 -0.706608679876837 -0.8338782645524502
0.2869857 -0.7011566845406916 -0.8369043822663661
0.2889856 -0.6956729301594416 -0.8418785386802535
0.2909855 -0.6904025645637397 -0.8470718731220865
0.2929854 -0.6858010462693522 -0.851575737058287
0.2949853 -0.679889286470638 -0.8554473341271931
0.2969852 -0.6748769105473111 -0.8586119133944335
0.2989851 -0.6703338715718257 -0.8626264008350792
0.300985 -0.6652132742443112 -0.8675137893379701
0.3029849 -0.6601945911704962 -0.8722049149561607
0.3049848 -0.6543707397416849 -0.8762993543092479
0.3069847 -0.6488127870013639 -0.8794187603123662
0.3089846 -0.6436999381883314 -0.8837520236104869
0.3109845 -0.6389344457285793 -0.8889414046717116
0.3129844 -0.6341570587238505 -0.893057831101099
0.3149843 -0.6284189868368111 -0.8972722551560853
0.3169842 -0.6226085436700484 -0.8992002409268529
0.3189841 -0.6190518281784314 -0.9034147958385768
0.320984 -0.6133538392179374 -0.9090120437939286
0.3229839 -0.6077026033480639 -0.9115591642148498
0.3249838 -0.6010571849613504 -0.9161413610125858
0.3269837 -0.59631795021611 -0.9187116691862248
0.3289836 -0.5901365659257987 -0.9245809035243789
0.3309835 -0.5845922532549681 -0.926848520795195
0.3329834 -0.5787381811235165 -0.9310197133289039
0.3349833 -0.5747868010441352 -0.9339355962478593
0.3369832 -0.5691607072051268 -0.9385445745345186
0.3389831 -0.5629180473721817 -0.9429741481973404
0.340983 -0.5575699262103719 -0.9468595577600973
0.3429829 -0.5528927640069015 -0.9482578536941936
0.3449828 -0.5470582693400573 -0.9519232206295125
0.3469827 -0.5415984344591949 -0.9559438709138941
0.3489826 -0.5364812900718189 -0.9591307957355364
0.3509825 -0.5306915476444408 -0.962599771560983
0.3529824 -0.5246823212523382 -0.9667011294132981
0.3549823 -0.5186980211416949 -0.9695377441999566
0.3569822 -0.5128758171352051 -0.9734756631203739
0.3589821 -0.5070766760638926 -0.9762437227664886
0.360982 -0.5011160347460663 -0.9799857480931438
0.3629819 -0.4948811070727784 -0.9832280993232352
0.3649818 -0.4884432592976749 -0.987226741044732
0.3669817 -0.48234000627549556 -0.9890597418020941
0.3689816 -0.47689412433739387 -0.9926930542851365
0.3709815 -0.47064565870099945 -0.9966498150234536
0.3729814 -0.4647650974330596 -0.9996240613396346
0.3749813 -0.45802114985427295 -1.0019111038730233
0.3769812 -0.4526508378451441 -1.004301851398573
0.3789811 -0.4464781391770196 -1.0085857616496905
0.380981 -0.4411937077539153 -1.011505033122182
0.3829809 -0.434942187312658 -1.0145398869689342
0.3849808 -0.42732308003205033 -1.015670014159795
0.3869807 -0.4220666943607172 -1.0190390239231544
0.3889806 -0.4157276274340604 -1.0218216359310297
0.3909805 -0.40883568792167946 -1.0243006373825911
0.3929804 -0.40263196343254803 -1.0268371022651728
0.3949803 -0.3962085851847076 -1.028452443025996
0.3969802 -0.38982476877268624 -1.031573340260666
0.3989801 -0.3849416925734147 -1.0350136719092402
0.40098 -0.37780480461017596 -1.0372376649596162
0.4029799 -0.3719521780462043 -1.040450415063258
0.4049798 -0.3650996271403263 -1.0427892715573586
0.4069797 -0.3595840123765935 -1.043886794579964
0.4089796 -0.3527427526110742 -1.046822698117751
0.4109795 -0.3469943555255123 -1.0494080481153332
0.4129794 -0.34050506526784685 -1.051586675677457
0.4149793 -0.33410395950437477 -1.0540346791625428
0.4169792 -0.32788196681426407 -1.0565542077962977
0.4189791 -0.3210324659356615 -1.0590990791289783
0.420979 -0.3150459559466181 -1.0609172149268082
0.4229789 -0.30732033870492154 -1.064029827846341
0.4249788 -0.3015260445176015 -1.0647907598425128
0.4269787 -0.2950104266539373 -1.0674574930942822
0.4289786 -0.28844594028124837 -1.069503336516845
0.4309785 -0.28203850051614987 -1.0712773925919339
0.4329784 -0.27507952596242186 -1.0731208404686137
0.4349783 -0.2681103344616278 -1.0751017638807787
0.4369782 -0.261600069428053 -1.0776445482878512
0.4389781 -0.2543970251272408 -1.0794153192540268
0.440978 -0.24825101326835253 -1.0808912307775433
0.4429779 -0.24202353366166385 -1.0823648558404881
0.4449778 -0.23495490585635634 -1.0845973581516668
0.4469777 -0.22937068883286038 -1.0871093442334576
0.4489776 -0.22176077143431372 -1.0878240446939706
0.4509775 -0.2148483241999978 -1.0888678584071443
0.4529774 -0.20767479293971258 -1.090122107217451
0.4549773 -0.20066629234094385 -1.0926892319835588
0.4569772 -0.19396712293554683 -1.0934805327171089
0.4589771 -0.1879316242351659 -1.094943948893597
0.460977 -0.180664083929718 -1.096245413692994
0.4629769 -0.17304402631136823 -1.0973840208411012
0.4649768 -0.16726604568924727 -1.0984066135468777
0.4669767 -0.16022012048295892 -1.0998924746679684
0.4689766 -0.15373002058993057 -1.1017001390692436
0.4709765 -0.14708860496900542 -1.1030458632452536
0.4729764 -0.1399368408789085 -1.103648668801725
0.4749763 -0.13306055275916148 -1.1041018243530518
0.4769762 -0.12688943310901257 -1.1051019284137675
0.4789761 -0.11975395637128222 -1.10608589165223
0.480976 -0.11309910976183901 -1.1065688386309998
0.4829759 -0.10619663382963859 -1.107843947281809
0.4849758 -0.09943428806799964 -1.1085368187244355
0.4869757 -0.09237646721250753 -1.1098839114702475
0.4889756 -0.08516317919574831 -1.110644199872175
0.4909755 -0.07795480598677976 -1.1116430623170022
0.4929754 -0.07122420548453356 -1.112165403764269
0.4949753 -0.06346987614584669 -1.1133401619165557
0.4969752 -0.056942460215029814 -1.1139162946489278
0.4989751 -0.049468212412910335 -1.1144155627442858
0.500975 -0.04294993015901316 -1.1149671137315778
0.5029749 -0.034797728388141075 -1.115780424762778
0.5049748 -0.02867595368468965 -1.1165492970110364
0.5069747 -0.022193857678155862 -1.1164532550464934
0.5089746 -0.015093987110782109 -1.117592409295957
0.5109745 -0.008008749954345716 -1.117931289579839
0.5129744 -0.0012354526757856962 -1.1175864216034102
0.5149743 0.006030604650854754 -1.117783550915469
0.5169742 0.013100113161975499 -1.1187707146359716
0.5189741 0.01997757593636701 -1.1184374612032928
0.520974 0.02776178691934157 -1.1190690795080733
0.5229739 0.034194140639139836 -1.1176487029801052
0.5249738 0.04054919436844767 -1.1179224930485516
0.5269737 0.048691147718845154 -1.1177689295702122
0.5289736 0.05584332350039864 -1.1183823376265867
0.5309735 0.06305152034256757 -1.1176631286927872
0.5329734 0.06940054388825098 -1.1168244952702113
0.5349733 0.07661903926610457 -1.1166128056397915
0.5369732 0.08434892277686751 -1.1165788178015121
0.5389731 0.09071600478473184 -1.1159776313989642
0.540973 0.09832482507930007 -1.1172340386157122
0.5429729 0.10464124270183171 -1.1162383930306967
0.5449728 0.1120353573418407 -1.1155503738062806
0.5469727 0.11892736581703867 -1.1149538441500986
0.5489726 0.12617166678354028 -1.1148172692981284
0.5509725 0.1332358014912814 -1.113806531977342
0.5529724 0.1402900041482877 -1.1129550262386896
0.5549723 0.14774264387152897 -1.1111668389109257
0.5569722 0.15483106902210392 -1.111441541277074
0.5589721 0.16181003676967579 -1.1104362448357135
0.560972 0.16905108379276285 -1.1096587352168341
0.5629719 0.1765071056179963 -1.1081841193208128
0.5649718 0.1833830575693205 -1.1073474751160208
0.5669717 0.19089350782589934 -1.106506245116538
0.5689716 0.19781386182753882 -1.1055251173575844
0.5709715 0.20507013885065162 -1.104439025696491
0.5729714 0.21216878722124244 -1.1038754537412958
0.5749713 0.2189500205717824 -1.1028004628045531
0.5769712 0.22566563647785748 -1.1026674948089539
0.5789711 0.23290966817220593 -1.1009420609939065
0.580971 0.24008567984347762 -1.0996453759416047
0.5829709 0.24711778054957878 -1.0977271010334562
0.5849708 0.25456672793824764 -1.0962128535705933
0.5869707 0.261443145283407 -1.094132072849235
0.5889706 0.26853308700858547 -1.0934530427748825
0.5909705 0.2755625786706195 -1.0916212411198691
0.5929704 0.28275569400774486 -1.0900322325831455
0.5949703 0.28976370675994856 -1.0881283216627788
0.5969702 0.2963527535950841 -1.0866093627313156
0.5989701 0.30391784306955216 -1.086001700748227
0.60097 0.311436936205861 -1.0829924182996438
0.6029699 0.318268048828111 -1.0815180183229507
0.6049698 0.32508102128320626 -1.0802762165778883
0.6069697 0.3316851719036238 -1.0786680440905785
0.6089696 0.33902082906710207 -1.076336635198123
0.6109695 0.34551826721050377 -1.0742380874059216
0.6129694 0.3523686824909651 -1.0717675192273624
0.6149693 0.3598119016245292 -1.0700672272798326
0.6169692 0.36706880739732506 -1.0677910833227515
0.6189691 0.3736073221968302 -1.0651888134150942
0.620969 0.37944666802843807 -1.0633569895634118
0.6229689 0.3876259499782388 -1.0606124242204102
0.6249688 0.394250747146526 -1.0587214445481727
0.6269687 0.40165811824723185 -1.0560282875667724
0.6289686 0.4081458806044789 -1.0539730406149244
0.6309685 0.41622679496880577 -1.051424564622197
0.6329684 0.4224524699306522 -1.0493128562009806
0.6349683 0.4302760454459157 -1.0463474207122765
0.6369682 0.4360788852050634 -1.045061944781622
0.6389681 0.4440925910925826 -1.0411158573472938
0.640968 0.4506660806995819 -1.0389374568584668
0.6429679 0.4572214533419628 -1.036816252252806
0.6449678 0.46353700465183945 -1.0336649099617368
0.6469677 0.4706052788441104 -1.0308461719718673
0.6489676 0.477080513238218 -1.027677764312455
0.6509675 0.484241159289428 -1.0239746638933418
0.6529674 0.49153408730088605 -1.0213134593900568
0.6549673 0.4976446099488177 -1.0175166308810417
0.6569672 0.5045316991449936 -1.0141842219115842
0.6589671 0.5107944244300697 -1.010945866957229
0.660967 0.5170881309758794 -1.008604455993844
0.6629669 0.5242653051017544 -1.0046881869356907
0.6649668 0.5300579875956287 -1.001966849199828
0.6669667 0.5369110528641506 -0.998844851311597
0.6689666 0.5438474600179708 -0.9949094797664921
0.6709665 0.5505568295347034 -0.9921847293978532
0.6729664 0.5568100393725135 -0.9896140030736098
0.6749663 0.5639196079508865 -0.9859425245532751
0.6769662 0.5699140388430941 -0.9823089358972978
0.6789661 0.5771291705294294 -0.979345082734145
0.680966 0.5836028614300542 -0.975611923489568
0.6829659 0.59020925715086 -0.9715764991608912
0.6849658 0.5959489840830308 -0.9679334144064147
0.6869657 0.6025159601718739 -0.9638772097628704
0.6889656 0.6084050859914029 -0.9604944092806574
0.6909655 0.6145612935674043 -0.9558007734646579
0.6929654 0.6212231886321681 -0.952453149859941
0.6949653 0.6276511948031915 -0.947857814399903
0.6969652 0.634042207196642 -0.9440294797554812
0.6989651 0.6407556157913925 -0.9400599772432437
0.700965 0.6464460034820972 -0.9351768765421375
0.7029649 0.6529089160598043 -0.9310106965832023
0.7049648 0.6589505210413082 -0.9281011314031743
0.7069647 0.6650317896595225 -0.9233986813453894
0.7089646 0.6720299361874329 -0.9196266486028265
0.7109645 0.6772369889777731 -0.9148191724953341
0.7129644 0.683998691290179 -0.9104411968494601
0.7149643 0.6894771971696854 -0.9067107055110872
0.7169642 0.6956777783921324 -0.9011662084885836
0.7189641 0.702349426986406 -0.8970689041152112
0.720964 0.7079813315179936 -0.8925148250949052
0.7229639 0.7139138892018108 -0.8875913106665907
0.7249638 0.719424544820803 -0.8825893514461485
0.7269637 0.7258177532115805 -0.8788979724794825
0.7289636 0.7316041734411562 -0.8740501748547633
0.7309635 0.7375347413990451 -0.8689194416712037
0.7329634 0.7432689495907537 -0.8644131213960803
0.7349633 0.7497192565253065 -0.8597028785284586
0.7369632 0.7549970650019622 -0.8543685789184193
0.7389631 0.7612021184973625 -0.8503049418587454
0.740963 0.7666169539881781 -0.8460794028332587
0.7429629 0.7729251345783228 -0.8412311111973549
0.7449628 0.7785498312301888 -0.8365707099376051
0.7469627 0.7845759368863162 -0.8308006993159686
0.7489626 0.7907753579542403 -0.8260542053861654
0.7509625 0.7960481749964109 -0.820514904265673
0.7529624 0.801154837048018 -0.8151722729840185
0.7549623 0.8067829229564953 -0.8099281483415441
0.7569622 0.8119887639652316 -0.8044111513593344
0.7589621 0.8177905101355769 -0.7987171319928512
0.760962 0.8231369481923417 -0.7932579045230889
0.7629619 0.8287046501773306 -0.7876565246425142
0.7649618 0.8334022493293197 -0.7821952939382443
0.7669617 0.8391846156870952 -0.7761589084187009
0.7689616 0.8439656403349383 -0.7705001171292979
0.7709615 0.8494141077027211 -0.7652561929205779
0.7729614 0.854656515544119 -0.7590270652945068
0.7749613 0.8602985198117679 -0.754040838922407
0.7769612 0.8651176018262986 -0.7492980482711062
0.7789611 0.8707168236167868 -0.7427980396335161
0.780961 0.8752899779241551 -0.7373590492400683
0.7829609 0.88017175683639 -0.7314208228896437
0.7849608 0.885774451110319 -0.726276938777439
0.7869607 0.8906331904608303 -0.7197196076258141
0.7889606 0.8953209691816606 -0.7135431393556145
0.7909605 0.900003452676403 -0.7079491723441563
0.7929604 0.9047654414824194 -0.701638882044104
0.7949603 0.9090871728469456 -0.6957583609561774
0.7969602 0.9139390554654306 -0.6892219034373493
0.7989601 0.9188693451848332 -0.6830778903941694
0.80096 0.9232528377420899 -0.6772285970331352
