! Created with skrf 1.8.0 (http://scikit-rf.org).
# GHz S RI R 50.0 
!freq ReS11 ImS11
0.001 -1.0000668131395543 0.0002396476889020739
0.0029999 0.43635389787243384 0.24283446645607215
0.0049998 1.2422083296242634 0.46510424742607437
0.0069997 2.3164820015741485 1.3348687159302737
0.0089996 1.027289933346888 0.06685712191402349
0.0109995 1.0180195112009425 0.04914502634921141
0.0129994 1.0101946250023037 0.0516226175305865
0.0149993 1.0135969621482912 0.06689724489477519
0.0169992 1.0182501639366424 0.06644694904971989
0.0189991 1.0167024072385558 0.07219652178053437
0.020999 1.016726521343602 0.08005218756064364
0.0229989 1.016034688921135 0.08815274069662193
0.0249988 1.0149649116939226 0.09552517524917173
0.0269987 1.0141415645838925 0.10312390632544849
0.0289986 1.0134034550264324 0.11115968019726859
0.0309985 1.0116865369328543 0.12006450829984529
0.0329984 1.0124131032738908 0.1263946748433001
0.0349983 1.0113871233777925 0.13522752861414142
0.0369982 1.0093178275988801 0.14151810798406342
0.0389981 1.0088718884246486 0.14923872131671748
0.040998 1.0073096625547195 0.15604868920592527
0.0429979 1.0064066946506127 0.16333633471690212
0.0449978 1.004696222487387 0.1703216067484254
0.0469977 1.001958276342866 0.178778150712769
0.0489976 1.002740600328622 0.1850297332027585
0.0509975 1.0015543645542258 0.19212804748817086
0.0529974 1.001099582589044 0.1986185645246049
0.0549973 0.9982626762322796 0.20644477213159207
0.0569972 0.9979827004525522 0.21324297886186883
0.0589971 0.995884638619139 0.22100217897850824
0.060997 0.9937641307173295 0.22735387098345824
0.0629969 0.9948277284940276 0.23646256528654486
0.0649968 0.9901986390856122 0.24226911468806375
0.0669967 0.990750694494489 0.24863320804481778
0.0689966 0.9882151114577297 0.2554308619339767
0.0709965 0.9855107104609353 0.26477453803411094
0.0729964 0.9849822461300566 0.2702641338877668
0.0749963 0.9831690165401504 0.2766969665203589
0.0769962 0.9796734169471599 0.28470529964199814
0.0789961 0.9801589870807317 0.291488678672956
0.080996 0.9754039794303008 0.2995497676138799
0.0829959 0.9747467747321872 0.3060213977956111
0.0849958 0.9728587497812088 0.31385118451909655
0.0869957 0.9709636013473443 0.3220460840983558
0.0889956 0.9675879132492892 0.3279209634781793
0.0909955 0.965211591940704 0.33461124160457734
0.0929954 0.9632365802648402 0.3418945455555937
0.0949953 0.9606722080784366 0.3494078732571905
0.0969952 0.9588965507176929 0.3569534355623204
0.0989951 0.95575218224164 0.36359433727263796
0.100995 0.9531692501095181 0.37141173625944357
0.1029949 0.949904705705221 0.3783277532237241
0.1049948 0.9465081427830196 0.3850781092060531
0.1069947 0.944005354238068 0.39215865286702156
0.1089946 0.9414669030069979 0.3990494631631788
0.1109945 0.938504332143184 0.4058679326498855
0.1129944 0.9348570702863623 0.4131527219910895
0.1149943 0.9329013763677418 0.4190059206481633
0.1169942 0.9305388543252557 0.4258680536572315
0.1189941 0.9269490891604358 0.4336377326886586
0.120994 0.9240750561570653 0.4397980728557008
0.1229939 0.9200266490373922 0.4483154612635273
0.1249938 0.9166757189006745 0.45249110613704485
0.1269937 0.9149094501755891 0.4599486747273763
0.1289936 0.9101807855096873 0.4678009166473089
0.1309935 0.9072743026301638 0.4740448519212625
0.1329934 0.9040061881392916 0.48039553709814364
0.1349933 0.898898002606813 0.4878954441556363
0.1369932 0.896863001628606 0.492992204932853
0.1389931 0.8934893561321413 0.49916700043390144
0.140993 0.8894523654102079 0.5061806354128285
0.1429929 0.8877742996688034 0.5114887356852409
0.1449928 0.8834374922986308 0.5188797340052194
0.1469927 0.8805284127224863 0.5251141011153759
0.1489926 0.8756054171221467 0.5309800759921168
0.1509925 0.8723135570650952 0.5382269114243143
0.1529924 0.8673879018233916 0.5437069948125877
0.1549923 0.8642456010877326 0.550045211242349
0.1569922 0.8600568846228175 0.5577251722782405
0.1589921 0.8562668237189652 0.5634647672229004
0.160992 0.8510085440413311 0.570202207989499
0.1629919 0.8475258174138317 0.5756758606968404
0.1649918 0.844462203265422 0.5814388210785184
0.1669917 0.8395538087352027 0.5885103288175382
0.1689916 0.8353597772492148 0.5944270026593782
0.1709915 0.8323476780169563 0.6004826859307134
0.1729914 0.8277532261788322 0.6056943714089779
0.1749913 0.823003556950173 0.6123661144585745
0.1769912 0.8182477150340645 0.6186438265615883
0.1789911 0.8143549737524299 0.6236154234034754
0.180991 0.8097114211574846 0.629541633539332
0.1829909 0.8050148993421892 0.6358507812643089
0.1849908 0.8000667021427311 0.6414776088929136
0.1869907 0.7956985885463582 0.6472594322875616
0.1889906 0.7900569339434232 0.6526182158267472
0.1909905 0.7864542140828505 0.6592802275605673
0.1929904 0.7814068533424501 0.6652775952523184
0.1949903 0.7768335145661197 0.6697336650007824
0.1969902 0.7718920552423224 0.6754863825776699
0.1989901 0.7671390137064096 0.6817738519180611
0.20099 0.7615529834200245 0.6867283356772597
0.2029899 0.7575595439822511 0.6921140188296622
0.2049898 0.7538340283804287 0.6981562932703566
0.2069897 0.7473301297710446 0.7037213652465424
0.2089896 0.743208294632199 0.7078354150366307
0.2109895 0.7374897633428121 0.7136757540687813
0.2129894 0.7330732973205589 0.7195096276746233
0.2149893 0.7275322205827343 0.7243140309135069
0.2169892 0.7225768509809377 0.729632372054176
0.2189891 0.7177187802312317 0.733448597460691
0.220989 0.7123603764933584 0.7406156736702608
0.2229889 0.706950224201679 0.7456646514175779
0.2249888 0.7022798740368207 0.7505011926167942
0.2269887 0.6967180631277593 0.755270672351743
0.2289886 0.6909131020225149 0.758996669615179
0.2309885 0.687354928044997 0.7648147198934021
0.2329884 0.6809180305172458 0.7706049236486523
0.2349883 0.6758150026837993 0.7752155056984333
0.2369882 0.6691996524508307 0.7796534900306278
0.2389881 0.6652731508509612 0.7843897336948175
0.240988 0.6596868775028687 0.790148849745683
0.2429879 0.6545747844777262 0.7949497194115777
0.2449878 0.6483151707091207 0.7986968676274474
0.2469877 0.6420759756612963 0.8036355229646125
0.2489876 0.6366156743944091 0.8079663473456793
0.2509875 0.6315313347440058 0.8134519548934785
0.2529874 0.6257296951236895 0.8165329155677337
0.2549873 0.6193471861247726 0.8209701932671865
0.2569872 0.6134925039980703 0.8266759146174296
0.2589871 0.6079757699208918 0.8310229703090005
0.260987 0.6019642954311348 0.8345936407595049
0.2629869 0.596178554634657 0.8392185598771899
0.2649868 0.589688672274344 0.8436309363865155
0.2669867 0.5837195513872928 0.8479524807270518
0.2689866 0.5773759031553625 0.8524835546368276
0.2709865 0.5718505968984402 0.856773366961213
0.2729864 0.5658522556752215 0.8609003829210884
0.2749863 0.5592868445902137 0.864034640795113
0.2769862 0.5534674898749573 0.8686041803190869
0.2789861 0.5478496815725189 0.8730529378164129
0.280986 0.5410368257170145 0.8771245745667073
0.2829859 0.5352173909911822 0.8804379526091424
0.2849858 0.5288382515964518 0.8843111222406788
0.2869857 0.5225157001574795 0.8889035292542399
0.2889856 0.5164007583804796 0.8924947275661809
0.2909855 0.5094316233433192 0.8952453099954647
0.2929854 0.5035638585556661 0.8982273752058691
0.2949853 0.49799387865473893 0.902136797283551
0.2969852 0.4914781227608847 0.9064529220010886
0.2989851 0.4850304840562054 0.9100604837639923
0.300985 0.4784079810986154 0.9127649433008154
0.3029849 0.4718731587138212 0.9156527536288797
0.3049848 0.4664385706458199 0.9196564708449747
0.3069847 0.4596522958330631 0.9234059507767719
0.3089846 0.4535453765404757 0.9267884186261955
0.3109845 0.4474652037596682 0.928288955841016
0.3129844 0.4400457209794708 0.9315402846478618
0.3149843 0.434006061359551 0.9347366104539764
0.3169842 0.42785147781152993 0.9392302380306699
0.3189841 0.4205138596888181 0.9420344389462119
0.320984 0.4140027286810215 0.9445752231534709
0.3229839 0.4075882584708719 0.947525984080924
0.3249838 0.4015880736065516 0.9503012378324841
0.3269837 0.3953862142555249 0.9538814988060111
0.3289836 0.38810804538924865 0.9560896079526985
0.3309835 0.38151359884811814 0.95934715858193
0.3329834 0.37537187672196126 0.9616952266322102
0.3349833 0.3682337922056098 0.9648330677343739
0.3369832 0.36233123523389604 0.9666308726584053
0.3389831 0.35480466615748735 0.9689996608482808
0.340983 0.3496628826130157 0.971672842435459
0.3429829 0.34253957432557774 0.975388759737279
0.3449828 0.33669331249246054 0.9778046942349294
0.3469827 0.3291318550056693 0.980243735399905
0.3489826 0.3223213716929668 0.9828653499722569
0.3509825 0.31547902622342355 0.9852487144155099
0.3529824 0.30891783578936005 0.9878604043164041
0.3549823 0.30185273666382434 0.9906788410693749
0.3569822 0.29453020355541737 0.9922191599375275
0.3589821 0.28744422711682943 0.9947088339522082
0.360982 0.2811205311499738 0.9958652116076159
0.3629819 0.27331151667955045 0.997877940895685
0.3649818 0.2669700743719848 0.9998029587057183
0.3669817 0.2595228587435787 1.0014952745833727
0.3689816 0.2525268860612322 1.0032423677455182
0.3709815 0.24601507452895147 1.0053146053180106
0.3729814 0.23953962834081557 1.0070921416196368
0.3749813 0.2325622006671573 1.0093031249243933
0.3769812 0.22555706299509592 1.010547793555267
0.3789811 0.21781704537504987 1.0109443481097098
0.380981 0.21100269698538704 1.0122267391914268
0.3829809 0.20369792803608644 1.0137686563623232
0.3849808 0.19728519832691266 1.0159336406209285
0.3869807 0.1901358970085797 1.0171892402224745
0.3889806 0.18365481023064706 1.0184505975436884
0.3909805 0.1768095540833824 1.0200006364745724
0.3929804 0.16932898988171866 1.02112217930048
0.3949803 0.16275586571555933 1.0233455705293042
0.3969802 0.15547697154229156 1.0236275597989897
0.3989801 0.14840372729105505 1.0245681893645902
0.40098 0.14118049551702377 1.025786332933805
0.4029799 0.1350653708134757 1.0264150538234158
0.4049798 0.1280668888258115 1.0275208657161456
0.4069797 0.12064725615781113 1.0295699792001975
0.4089796 0.11425610096476986 1.030009942564125
0.4109795 0.10703341314208455 1.0310799496974794
0.4129794 0.09993204708783526 1.0320095384233325
0.4149793 0.09273432453314132 1.033030390878631
0.4169792 0.08569140836401098 1.0334789742167445
0.4189791 0.07889138382607593 1.0341589305821572
0.420979 0.0716622230805446 1.034969094794518
0.4229789 0.06458442971931243 1.0353015798420864
0.4249788 0.05748250772347323 1.0357141642042857
0.4269787 0.05083332298168129 1.0361704274107848
0.4289786 0.043571959873358074 1.0366069321167715
0.4309785 0.03628542264941231 1.036607911690851
0.4329784 0.029310579423543835 1.037209405321303
0.4349783 0.022660598775891 1.0375749226845843
0.4369782 0.015860576748160327 1.0376432056353515
0.4389781 0.008948917458303 1.037769599326504
0.440978 0.0016118952756837696 1.0376755461240492
0.4429779 -0.005180667435695001 1.0383299673882087
0.4449778 -0.012442199672679274 1.037541676553711
0.4469777 -0.019324896280425233 1.0374350912479642
0.4489776 -0.026827398955567558 1.0371611830825487
0.4509775 -0.03316776905671827 1.0376620968529702
0.4529774 -0.04036798592648435 1.0379268801532828
0.4549773 -0.04688190709186936 1.0372157771338615
0.4569772 -0.05404376984913005 1.0369181053469478
0.4589771 -0.060852344991089796 1.0368688867268547
0.460977 -0.06818118187096979 1.03626334336983
0.4629769 -0.07470264789877568 1.0352216183620626
0.4649768 -0.08226586535463695 1.0354006471940758
0.4669767 -0.08845070397088231 1.0346001546033283
0.4689766 -0.09525541007026048 1.0343941140106547
0.4709765 -0.10218525165776192 1.0332573134068581
0.4729764 -0.10865952880168504 1.0328373175161465
0.4749763 -0.11556150979595797 1.0327164766565324
0.4769762 -0.12268759618266156 1.03225704702088
0.4789761 -0.12960417172155636 1.0313513346916692
0.480976 -0.13633154504224393 1.0310497000438101
0.4829759 -0.14357659155716385 1.0292699152108966
0.4849758 -0.15063241709682418 1.0289085118020624
0.4869757 -0.15762784665336232 1.0283052678369136
0.4889756 -0.16444160338329225 1.026832265337262
0.4909755 -0.17117951569186823 1.0262021137222694
0.4929754 -0.1783790667675732 1.0255180363152454
0.4949753 -0.18469456619870872 1.0238870665266742
0.4969752 -0.19162662073675363 1.0231768283642484
0.4989751 -0.1985406372520863 1.0218347605352487
0.500975 -0.20512782080295977 1.0210716355967315
0.5029749 -0.21154998865529528 1.0191887579265597
0.5049748 -0.21891023933141115 1.017664328607373
0.5069747 -0.22541824878669875 1.0162132018177197
0.5089746 -0.23249951083915307 1.0142573945122604
0.5109745 -0.2386129829661341 1.0123383997380018
0.5129744 -0.24619358617256978 1.0111859088856594
0.5149743 -0.2525668826668679 1.0100873223359224
0.5169742 -0.2594224261639703 1.008226321343243
0.5189741 -0.2663931335047851 1.0063233572736632
0.520974 -0.2726847022657436 1.0043182523498415
0.5229739 -0.2796969024266319 1.00295801815795
0.5249738 -0.2863027646629386 1.00141341287086
0.5269737 -0.29272296331325576 0.9989080229217898
0.5289736 -0.2991437193773714 0.9974827525857922
0.5309735 -0.30501734040376816 0.9952934511487801
0.5329734 -0.3121792683560741 0.9938489198363718
0.5349733 -0.31870630294801755 0.992717617139378
0.5369732 -0.325052839054363 0.9902526066888967
0.5389731 -0.3313574529197858 0.988415860799737
0.540973 -0.3378596140218235 0.9858121262866016
0.5429729 -0.3443286222463022 0.9841416206022462
0.5449728 -0.3508800521557218 0.9814084551975821
0.5469727 -0.3571935246153361 0.9793019997158504
0.5489726 -0.36312949198799005 0.9771535616173778
0.5509725 -0.36961949786443704 0.9750840243366481
0.5529724 -0.3762903396478184 0.972527073248114
0.5549723 -0.3825287700359412 0.9701877271816745
0.5569722 -0.38897964253184036 0.9676983692439953
0.5589721 -0.3950774635963453 0.965551921998102
0.560972 -0.4016176367799746 0.9629525998754962
0.5629719 -0.4076309057470686 0.9607057483234587
0.5649718 -0.4140432879460532 0.9580038110151465
0.5669717 -0.4204482626774253 0.9555688035168833
0.5689716 -0.42666341211575676 0.9528820664897033
0.5709715 -0.4326753815685214 0.9504606786871115
0.5729714 -0.43844178815889634 0.9475597253609194
0.5749713 -0.44501693474228654 0.944863534309427
0.5769712 -0.45106040587305646 0.9418784243830572
0.5789711 -0.45705258197768245 0.9389242862474534
0.580971 -0.4631999400106047 0.9354630295662322
0.5829709 -0.46911388238759455 0.9332281028449192
0.5849708 -0.4751200009276931 0.9302209365537562
0.5869707 -0.48125127369794796 0.926855951289213
0.5889706 -0.48726089914309 0.9236283319909931
0.5909705 -0.49331041968451633 0.920718074151682
0.5929704 -0.4993160781684986 0.9176023904767729
0.5949703 -0.5053151404868902 0.9146305775178941
0.5969702 -0.510539277055554 0.9112866451267976
0.5989701 -0.5168671864123212 0.9073674596544874
0.60097 -0.5226821380087466 0.9048243175931654
0.6029699 -0.5285478870075401 0.9016199250777166
0.6049698 -0.5341443111030555 0.8983117639258442
0.6069697 -0.5401571696444157 0.8950678443031339
0.6089696 -0.5457120998725853 0.8915980965759642
0.6109695 -0.5516165746018931 0.8882442756278124
0.6129694 -0.5574717621159158 0.8848109567909451
0.6149693 -0.5628049286076164 0.8812736201658823
0.6169692 -0.5686482997061142 0.8776283450393407
0.6189691 -0.5741737709110258 0.8744282997751848
0.620969 -0.580287024172768 0.8707119185202753
0.6229689 -0.5855325289145323 0.8673403729211634
0.6249688 -0.5912298616047583 0.8637056398012208
0.6269687 -0.5969578947483207 0.8599188659311684
0.6289686 -0.6024788299952635 0.8562885658373598
0.6309685 -0.6080139809213014 0.8527348730580282
0.6329684 -0.613130575813873 0.8488308062443146
0.6349683 -0.618976100217067 0.8450486480305441
0.6369682 -0.6240764290076009 0.8412302818363947
0.6389681 -0.62933766480235 0.837454869593461
0.640968 -0.6348787385194617 0.8333168872631915
0.6429679 -0.6400578950388884 0.8292204977301306
0.6449678 -0.6455956576161552 0.8252004214387535
0.6469677 -0.650483960923174 0.8212222773433991
0.6489676 -0.6558777612338812 0.8171467184458916
0.6509675 -0.6611930175568743 0.812961307501613
0.6529674 -0.6663150312132631 0.8086783418878842
0.6549673 -0.6714107787839807 0.8045259405300944
0.6569672 -0.6763709152838933 0.8004863419386895
0.6589671 -0.6816752324312604 0.7961434607954125
0.660967 -0.6865835958235029 0.7918595112763391
0.6629669 -0.6916162376853271 0.7876684968031171
0.6649668 -0.6969008337167851 0.7836655495951887
0.6669667 -0.7017004205875841 0.7790571324087177
0.6689666 -0.7065069846398297 0.7747343313013897
0.6709665 -0.7115528892222077 0.7703008024413023
0.6729664 -0.7164646431474524 0.7659973750368786
0.6749663 -0.7211386793296908 0.7617488220271882
0.6769662 -0.7262351674551996 0.7571793521966915
0.6789661 -0.7306935278831916 0.7525186130374688
0.680966 -0.7357533951200477 0.7482684772315522
0.6829659 -0.7402623342570623 0.7437017681498511
0.6849658 -0.7453104309327993 0.7392954281578373
0.6869657 -0.7500269206608144 0.7346210556706072
0.6889656 -0.7548773556687101 0.7298860700800232
0.6909655 -0.7593431276351631 0.7256283101870379
0.6929654 -0.7640519637719911 0.7206359300568317
0.6949653 -0.7686347217894177 0.7163924071917085
0.6969652 -0.7733237422612251 0.7113440914174314
0.6989651 -0.7777799035921313 0.7066421808441629
0.700965 -0.7822875962341094 0.7018900187355586
0.7029649 -0.786796177447752 0.6974028192346675
0.7049648 -0.7911451631340951 0.6921518474696537
0.7069647 -0.7957231591532649 0.6876649350918492
0.7089646 -0.8000707976709901 0.6825222629346123
0.7109645 -0.8044736955629906 0.677687687553078
0.7129644 -0.8087571482805149 0.6726895817452508
0.7149643 -0.8129596192745575 0.6678060281541753
0.7169642 -0.8169712649987462 0.662797664014475
0.7189641 -0.8211164303278783 0.6577984530362584
0.720964 -0.8254421856513103 0.652750339878561
0.7229639 -0.8297306751493845 0.6477567862335498
0.7249638 -0.8337409946461053 0.6427014441193328
0.7269637 -0.8374107954779932 0.6372961922548591
0.7289636 -0.8414470092289242 0.6324748934172527
0.7309635 -0.8454705172620847 0.6271164121720572
0.7329634 -0.8493432708863663 0.6218818056702716
0.7349633 -0.8530511301227726 0.6167714842860926
0.7369632 -0.8571052678922049 0.6112760371079818
0.7389631 -0.8607740743545237 0.6063305325635292
0.740963 -0.8645367474131567 0.6010960393841852
0.7429629 -0.8681847741351818 0.5958561945925854
0.7449628 -0.8719453269391062 0.5905739009677325
0.7469627 -0.8760098788630624 0.5854072698376671
0.7489626 -0.8796685325081334 0.5799508834935952
0.7509625 -0.8833166255034416 0.5746718238906077
0.7529624 -0.8870083760222329 0.5695068361889263
0.7549623 -0.8906508032970887 0.5642867257440282
0.7569622 -0.8942728200234165 0.5585226995166997
0.7589621 -0.8979733543795885 0.5534045794366592
0.760962 -0.9015867020513662 0.547891567558338
0.7629619 -0.9046857006197759 0.5425141310401085
0.7649618 -0.9084142658949539 0.5370795616971084
0.7669617 -0.9117896238709178 0.5315533359778064
0.7689616 -0.9153693420666382 0.5260937549356528
0.7709615 -0.9185551353637266 0.5203325507073082
0.7729614 -0.9220814306209173 0.5148374090237485
0.7749613 -0.9252735518704917 0.5092255779643038
0.7769612 -0.9286645020827802 0.5037969273703977
0.7789611 -0.9318087727367647 0.4981088382125343
0.780961 -0.9350105551830249 0.492534156120093
0.7829609 -0.938227788208873 0.486846887413484
0.7849608 -0.9413136209591528 0.4812438959900179
0.7869607 -0.9443500310097945 0.47555606743919676
0.7889606 -0.9474872548518979 0.46978054912041645
0.7909605 -0.9506536406538504 0.4642639114954622
0.7929604 -0.9534267744599294 0.45856461411943017
0.7949603 -0.9562318359443222 0.4524457298116328
0.7969602 -0.9591204273438461 0.44694880321778097
0.7989601 -0.9620499670261853 0.4412313307531821
0.80096 -0.964458583396095 0.4349030176528994
0.8029599 -0.9672551046748026 0.4290870045650655
0.8049598 -0.970052038879063 0.42318713120239976
0.8069597 -0.9723919510706713 0.41756889607200665
0.8089596 -0.9752846091868044 0.4116433705707811
0.8109595 -0.9777877995720975 0.40553025836873685
0.8129594 -0.9804195537674468 0.3996929082521957
0.8149593 -0.9827956688264001 0.3939517104361819
0.8169592 -0.985479395741834 0.388111216638466
0.8189591 -0.987864324963001 0.38205867468750865
