! Created with skrf 1.8.0 (http://scikit-rf.org).
# GHz S RI R 50.0 
!freq ReS11 ImS11
0.001 -1.000070523283764 0.0010067103160023572
0.0029999 -0.9639148553312891 0.014808675409714672
0.0049998 -0.7858615070369649 0.0313934225165232
0.0069997 -0.5408838399560432 -0.0194260337478074
0.0089996 -0.20587100939358333 0.01600897820044167
0.0109995 -0.10482422929915976 -0.021099588079717086
0.0129994 -0.05084493050860208 -0.015051395470346372
0.0149993 -0.014874328243566515 -0.021647326183633624
0.0169992 -0.023984768260870665 -0.018311564834023096
0.0189991 -0.011712559245564915 -0.017726329651783192
0.020999 -0.011349650423000533 -0.016989662108356195
0.0229989 -0.007295865452897048 -0.014817861431664796
0.0249988 -0.010188191253658968 -0.012349946844819527
0.0269987 -0.0073023712716788446 -0.010719238726798969
0.0289986 -0.0069401294786061215 -0.01006633392099953
0.0309985 -0.007309194468895762 -0.007985453595199763
0.0329984 -0.007195477914760327 -0.005936396427100291
0.0349983 -0.008441654470316397 -0.004003825268159831
0.0369982 -0.0066254875990258534 -0.0012246095057998913
0.0389981 -0.01086463341597744 0.0011308009581606632
0.040998 -0.011175410271787894 -0.0009311170168700054
0.0429979 -0.012933364751846498 0.003275240126262671
0.0449978 -0.010817103392215524 0.0035533350561588162
0.0469977 -0.013739722985754035 0.0013974775047996284
0.0489976 -0.013053311257033875 0.0069309772609545016
0.0509975 -0.012856312225212087 0.006675253527937534
0.0529974 -0.02541500169663323 0.00886689644898505
0.0549973 -0.010156175515219574 0.006684173940018198
0.0569972 -0.0163103828310022 0.008629166752041856
0.0589971 -0.017829258620003393 0.006223053259728411
0.060997 -0.016677805197030736 0.005601539143352545
0.0629969 -0.02085834447632182 0.010346850587085017
0.0649968 -0.021953375197817163 0.005163157815966487
0.0669967 -0.018750257398690358 0.006298030764478406
0.0689966 -0.018373232557943188 0.005123267508721786
0.0709965 -0.024319740247916628 0.0038598999204175846
0.0729964 -0.020488243010376078 0.005030788822484683
0.0749963 -0.0180997810250225 0.0037432970812293306
0.0769962 -0.02092258749888066 0.000624055983265418
0.0789961 -0.018287659708209433 0.0022054088708765474
0.080996 -0.02014354958246375 0.0005563713265995052
0.0829959 -0.019042039967952104 0.002370659934584761
0.0849958 -0.01890467130669331 0.0028411916364857862
0.0869957 -0.01928514044282151 0.0030744601820808155
0.0889956 -0.01796875999950334 0.0018193506065082633
0.0909955 -0.015924169272949165 0.0017377229673909362
0.0929954 -0.016042978594390377 0.0017365190052205416
0.0949953 -0.01636910533173869 0.003368446796506778
0.0969952 -0.015312360393904337 0.004189180356783808
0.0989951 -0.015547538399706717 0.0029078471585449735
0.100995 -0.014463409385902666 0.003183507159786984
0.1029949 -0.013604615513497686 0.003525816449581891
0.1049948 -0.013610860113284516 0.003848001039015571
0.1069947 -0.013802761059639998 0.004970224215045584
0.1089946 -0.013051897464031447 0.006396223389959453
0.1109945 -0.013275471685900335 0.00657467709760798
0.1129944 -0.013872076352198448 0.008279547474403945
0.1149943 -0.013492592258046596 0.009302381628014864
0.1169942 -0.013778613523967267 0.009775628808599255
0.1189941 -0.014818641599846642 0.011113478000130553
0.120994 -0.015537174132015073 0.011640266708714871
0.1229939 -0.017027934577815595 0.011886868319882374
0.1249938 -0.01571056169192429 0.011200887913810418
0.1269937 -0.016883889964012314 0.01248598072944574
0.1289936 -0.018477311157527584 0.012663971916406266
0.1309935 -0.018630322953680983 0.012885432567513011
0.1329934 -0.01936520738386331 0.013069626870264034
0.1349933 -0.01871631556700534 0.012973425985602723
0.1369932 -0.019987722078407582 0.012931247810979679
0.1389931 -0.02064138532013042 0.0125811309498948
0.140993 -0.022164788940020184 0.012282238504058999
0.1429929 -0.02013049632722787 0.012921629422514975
0.1449928 -0.022038339893103977 0.011912704996263245
0.1469927 -0.023607735849850285 0.012230912805186317
0.1489926 -0.023484401616108493 0.012069232551502822
0.1509925 -0.024145111233362753 0.012041797385133637
0.1529924 -0.02278711305693072 0.010863428634117633
0.1549923 -0.022978613030835548 0.011345710504664326
0.1569922 -0.024145426425123132 0.012164273197658906
0.1589921 -0.022517242468506223 0.011223220823121084
0.160992 -0.02362613182622791 0.010789072412384625
0.1629919 -0.02300211458315262 0.011486161806685026
0.1649918 -0.023128707375570764 0.011867007913288027
0.1669917 -0.022764903771085723 0.011657305629487982
0.1689916 -0.022879453525198948 0.011313512926831384
0.1709915 -0.021598277739499405 0.01060770301740559
0.1729914 -0.022424491135294135 0.01194383707464744
0.1749913 -0.022782071032007686 0.01223649341747289
0.1769912 -0.023092106308174654 0.01199894383055597
0.1789911 -0.021861726375710624 0.012718677244023228
0.180991 -0.02207875384978918 0.012230418435066025
0.1829909 -0.022484611094093315 0.01351889187021994
0.1849908 -0.022698765301326113 0.013279133746601982
0.1869907 -0.022485878704251457 0.013632366655091543
0.1889906 -0.022911627422768074 0.013899028245758954
0.1909905 -0.02378468062384905 0.014599356193399336
0.1929904 -0.02370719323974873 0.01512233625288633
0.1949903 -0.023950545106709683 0.014829037366991336
0.1969902 -0.024861085923474743 0.014934699862763832
0.1989901 -0.0250806683554878 0.015137495096059654
0.20099 -0.025780520299792595 0.015606140962928935
0.2029899 -0.02478898490012073 0.016285992050353575
0.2049898 -0.02604382980032051 0.0171695108133814
0.2069897 -0.026378891551287056 0.016743586618649275
0.2089896 -0.02654131492565571 0.01669050767951791
0.2109895 -0.027612758696542287 0.01669498952688855
0.2129894 -0.027442885099280105 0.01723673756122751
0.2149893 -0.02821885669650129 0.016863450556327004
0.2169892 -0.028493017150594768 0.01718708273864892
0.2189891 -0.028765933973864573 0.016586886371891835
0.220989 -0.029107835258231275 0.01762182936618984
0.2229889 -0.029335761502617793 0.01822703858288633
0.2249888 -0.029998458586588755 0.017877679486699362
0.2269887 -0.030336894068885727 0.017599753846896663
0.2289886 -0.030142570999701974 0.017189073877892914
0.2309885 -0.03093886501448375 0.01798517895522489
0.2329884 -0.03145919130642113 0.01789939699224606
0.2349883 -0.03113726036776983 0.017279799696343308
0.2369882 -0.03144919962494472 0.0170680103887512
0.2389881 -0.031374201534097215 0.017144346284051704
0.240988 -0.03186991416189216 0.017704524671299578
0.2429879 -0.03193520792455637 0.017440105825822675
0.2449878 -0.032108712658681406 0.016729155476759468
0.2469877 -0.03229569015496218 0.01657512368786221
0.2489876 -0.03223886606394265 0.01673788522506797
0.2509875 -0.03227407712415523 0.01709401957147739
0.2529874 -0.03201956921085353 0.016206704153341626
0.2549873 -0.032385975142825 0.016110792620756677
0.2569872 -0.031838772412758336 0.016486793438584592
0.2589871 -0.032204287551441696 0.01678683564539606
0.260987 -0.032151216429611024 0.016482688286914855
0.2629869 -0.0323883421397739 0.01669523170128618
0.2649868 -0.03221138591109858 0.017052403636079988
0.2669867 -0.03215451031830521 0.017117806117590437
0.2689866 -0.032568020533301226 0.01748317747325111
0.2709865 -0.032286065447872575 0.017812410495995766
0.2729864 -0.03208923559958505 0.018130612981330917
0.2749863 -0.032622740858724 0.01837263868669918
0.2769862 -0.03222763226007648 0.018714677243321837
0.2789861 -0.03241514876201136 0.01995601602285202
0.280986 -0.03256154091644482 0.020060978430425487
0.2829859 -0.03262501542055368 0.020502947666822452
0.2849858 -0.03320844153724934 0.02065607150622582
0.2869857 -0.03351373993640995 0.021648915860590076
0.2889856 -0.033839218450905595 0.022198300493411
0.2909855 -0.03404651007912374 0.022343684655243043
0.2929854 -0.03457181273329951 0.02242368306987632
0.2949853 -0.034898899955143864 0.023258537429398717
0.2969852 -0.03584225350227167 0.02405203802061802
0.2989851 -0.03646262403641598 0.024403865217449867
0.300985 -0.03728097062644174 0.02421675350140379
0.3029849 -0.03820826614800189 0.024300546959589244
0.3049848 -0.038327905563222756 0.02461504573748345
0.3069847 -0.039737228615841474 0.025377926006199723
0.3089846 -0.04070720637435509 0.025172421779786236
0.3109845 -0.041172826430807705 0.024452725338097094
0.3129844 -0.042251777308020155 0.023898895454074053
0.3149843 -0.042753723178662315 0.02380531933366254
0.3169842 -0.043569892903585795 0.024270459859598262
0.3189841 -0.044784946818989035 0.023721702802951064
0.320984 -0.045523622940253375 0.02299640486441302
0.3229839 -0.0462909751305321 0.023063999443962646
0.3249838 -0.04629425467746248 0.02305260594578685
0.3269837 -0.046794001379762716 0.023126991459992176
0.3289836 -0.04729355601947584 0.02238804171675176
0.3309835 -0.04776997650658022 0.02218775564574604
0.3329834 -0.047520751085982846 0.021481585632510188
0.3349833 -0.047723741230132156 0.02125055076363268
0.3369832 -0.04744989715720707 0.019870906268033867
0.3389831 -0.04775118133421427 0.01967694214505675
0.340983 -0.04729112575644295 0.01905110564760236
0.3429829 -0.04697431885838002 0.01922621956835281
0.3449828 -0.04668859635726993 0.018809278787037354
0.3469827 -0.04655266775394608 0.018437276208579365
0.3489826 -0.046327938086718104 0.018776412939977352
0.3509825 -0.04628224969229897 0.0186150942824779
0.3529824 -0.04564584818308915 0.018542366832731985
0.3549823 -0.04541944550291062 0.018861645719471784
0.3569822 -0.04526197359953847 0.019048150890394584
0.3589821 -0.04517868162478636 0.019790537786460845
0.360982 -0.044960626951807636 0.01993003053568216
0.3629819 -0.04463039021366276 0.020406653169961993
0.3649818 -0.04486577052964345 0.020784613345195234
0.3669817 -0.045344044741180936 0.021648591338945512
0.3689816 -0.045426043606503375 0.02175133383997499
0.3709815 -0.04590717381705696 0.02196456067845797
0.3729814 -0.046184792433197834 0.022358218313072525
0.3749813 -0.04638651258557712 0.023238974840036036
0.3769812 -0.047294675758082466 0.023685425636407388
0.3789811 -0.04784779091653832 0.023639430143617413
0.380981 -0.04876172914196859 0.023738766024600497
0.3829809 -0.04939851631497395 0.023784904116261503
0.3849808 -0.04965773857026344 0.024656341157413636
0.3869807 -0.05090958643074789 0.024276028082617647
0.3889806 -0.05160519753411254 0.024208671273876717
0.3909805 -0.05229874556632591 0.024227849442997752
0.3929804 -0.0527343760274025 0.02391255393492279
0.3949803 -0.053384371527944945 0.023758912112870543
0.3969802 -0.053829186504862354 0.02332663560101211
0.3989801 -0.0546108618467509 0.02273696100041108
0.40098 -0.0548817524969916 0.022453725115940595
0.4029799 -0.05529033684136996 0.021706757475127295
0.4049798 -0.05548466985649996 0.021307389788357656
0.4069797 -0.05604218884951451 0.021166752155023824
0.4089796 -0.05612291520471631 0.020653563943480918
0.4109795 -0.05626939468990836 0.020160454555408953
0.4129794 -0.0559743487569968 0.019773893148590925
0.4149793 -0.05646838115874622 0.019303290044371823
0.4169792 -0.05616770622659317 0.018953298723902525
0.4189791 -0.05581343531054266 0.0188605955226942
0.420979 -0.05596353798571509 0.01904144446522777
0.4229789 -0.05549300280526913 0.01875319151148764
0.4249788 -0.05587899714893456 0.019075177274944347
0.4269787 -0.05555314038903015 0.019077597700516025
0.4289786 -0.0554575694744119 0.01948624549639992
0.4309785 -0.05526153597264924 0.019642994313785897
0.4329784 -0.05549581596963292 0.019780415295231068
0.4349783 -0.05606531987474048 0.019907809742754252
0.4369782 -0.05605117329227328 0.02027055399484719
0.4389781 -0.056495593890862277 0.02054765674984459
0.440978 -0.056645434255646984 0.02100078854259463
0.4429779 -0.057206064016765104 0.02155970965814063
0.4449778 -0.05786648697139406 0.021604111165264114
0.4469777 -0.058672206390975146 0.021435454096605286
0.4489776 -0.059033553561196425 0.022253049974421773
0.4509775 -0.059374631335178674 0.02239027010907544
0.4529774 -0.060693479213242724 0.022698433849671136
0.4549773 -0.06117852229491498 0.02231415843060703
0.4569772 -0.06198138824632789 0.022289856979170273
0.4589771 -0.06297248859393692 0.022090817270349634
0.460977 -0.06348269885213621 0.02169699623765435
0.4629769 -0.0640080285144494 0.021351619836316872
0.4649768 -0.06466679757516987 0.0209069793482746
0.4669767 -0.06529521878034762 0.020160958849278016
0.4689766 -0.06580954661572641 0.019727382898396678
0.4709765 -0.06636865807339923 0.019097708145600995
0.4729764 -0.06645724321890333 0.018511145707653297
0.4749763 -0.06693346626626612 0.018232706748556964
0.4769762 -0.06706470120083509 0.017711381320190143
0.4789761 -0.06719821683434757 0.01714720400440197
0.480976 -0.06700994365483141 0.016664122038425197
0.4829759 -0.06719991960000812 0.016143108006266758
0.4849758 -0.06712987807449947 0.015832761031868738
0.4869757 -0.06687939600473584 0.01536478238876949
0.4889756 -0.06674704106365156 0.014965873542522542
0.4909755 -0.0660409567587192 0.014677156905851297
0.4929754 -0.06617257551922559 0.014836607362711422
0.4949753 -0.06577856557858262 0.014729007755424912
0.4969752 -0.06581890363194871 0.014961722456665851
0.4989751 -0.06549313796311355 0.015165020022949054
0.500975 -0.06560005947561696 0.01551381390025126
0.5029749 -0.06540735506844896 0.015431847112463
0.5049748 -0.06569049103927423 0.015773526372919757
0.5069747 -0.06618992618933742 0.01631274588784474
0.5089746 -0.06614443949681083 0.016221543463655543
0.5109745 -0.06630496031966743 0.016420825815498658
0.5129744 -0.06673388328605628 0.01686135707796915
0.5149743 -0.0670200926800487 0.017476060416427564
0.5169742 -0.06764361590808575 0.017592896096339714
0.5189741 -0.06821689988484775 0.017768559480188625
0.520974 -0.06869611678462145 0.017254286549111642
0.5229739 -0.06954682785594216 0.017528382274267864
0.5249738 -0.07015050579612539 0.017905874162801958
0.5269737 -0.07083523041177718 0.017511053700818045
0.5289736 -0.07163844921488399 0.01749623391744277
0.5309735 -0.07233048287965446 0.017272808892327258
0.5329734 -0.07296402702956413 0.017379606995125602
0.5349733 -0.0738854588476733 0.017157707916752515
0.5369732 -0.07423403595887021 0.016525004432276603
0.5389731 -0.07492659346903809 0.0159320963411657
0.540973 -0.07574227388745172 0.015001971898250064
0.5429729 -0.07595265328933451 0.01472794775118328
0.5449728 -0.07634345050554786 0.014008634021467365
0.5469727 -0.07668289985749999 0.013415926726419395
0.5489726 -0.07673804721837583 0.012578909078895802
0.5509725 -0.07672904777780262 0.012230056794910616
0.5529724 -0.07702633971372465 0.011907931112539911
0.5549723 -0.07719421002619828 0.011520248480907613
0.5569722 -0.0770693437211936 0.010717484932562672
0.5589721 -0.07677508264904036 0.010492305010729345
0.560972 -0.07631780761137476 0.010179458449379102
0.5629719 -0.07637525966257934 0.010144613591987348
0.5649718 -0.07608620785395034 0.00972363158015251
0.5669717 -0.07584437870353916 0.009735479151169527
0.5689716 -0.07582031895488485 0.009609531903918625
0.5709715 -0.07580393708869149 0.00997220351605171
0.5729714 -0.07591815239760147 0.009815068332249544
0.5749713 -0.07595531549918931 0.009887442405366719
0.5769712 -0.07630289844440849 0.009631159162505887
0.5789711 -0.07650692241602082 0.010078443983924192
0.580971 -0.0765895457499736 0.01023480268785416
0.5829709 -0.07674311052068125 0.010555940028672738
0.5849708 -0.07734687061634454 0.011015224339195197
0.5869707 -0.07755165676640155 0.011300131806692214
0.5889706 -0.07824713181347728 0.010792571038895166
0.5909705 -0.07880931248487233 0.0109461892394778
0.5929704 -0.07979412995146903 0.010841982488285499
0.5949703 -0.08035608257571983 0.010745253122521673
0.5969702 -0.08094545591067483 0.010564630454779924
0.5989701 -0.08163174337760454 0.010145920797458637
0.60097 -0.08193916500844184 0.010085170037956434
0.6029699 -0.08258183235708495 0.009477380553751337
0.6049698 -0.08331157828949412 0.00905426790495107
0.6069697 -0.08388813766788784 0.008426919738893555
0.6089696 -0.08413790479452203 0.00813028178519274
0.6109695 -0.0844400108413236 0.00738691578145393
0.6129694 -0.08482827684859595 0.006670565092395317
0.6149693 -0.084922825218753 0.006000601344348641
0.6169692 -0.08503433561789839 0.005229636057957045
0.6189691 -0.08497640703381845 0.00476922561091659
0.620969 -0.0851807155308286 0.004265272688725279
0.6229689 -0.08494974060180754 0.0037744205057360786
0.6249688 -0.0847637643279953 0.003109554960816392
0.6269687 -0.08455222483305233 0.002528026830073145
0.6289686 -0.08447717248100088 0.002551216622808279
0.6309685 -0.0836098049824168 0.002154341458003306
0.6329684 -0.08369937503905567 0.0021018085009953044
0.6349683 -0.08350813037878169 0.0021404664237306276
0.6369682 -0.08387979074663628 0.0017900605074774381
0.6389681 -0.08341360790665218 0.0017159093309716197
0.640968 -0.08323233737151745 0.0019139998331911753
0.6429679 -0.08326834903216818 0.0021598830012969084
0.6449678 -0.08344489593791515 0.00257047705601985
0.6469677 -0.08352987025857084 0.0026293506073060205
0.6489676 -0.08392445509693079 0.0030584203951797284
0.6509675 -0.08426276735441826 0.0035582905248048857
0.6529674 -0.08456240065416551 0.003664672028430002
0.6549673 -0.08524328792330127 0.0039526780651708004
0.6569672 -0.08580598473656291 0.004289223656094535
0.6589671 -0.08648283383285477 0.0043490506311249025
0.660967 -0.08706752652554998 0.004194287004124615
0.6629669 -0.08767338500637234 0.0041069579864200095
0.6649668 -0.08876564436329101 0.003711742092092171
0.6669667 -0.08961228285569865 0.0036168248593100236
0.6689666 -0.09013297635731768 0.003166702184005908
0.6709665 -0.09085951526913594 0.0022839755579798643
0.6729664 -0.09150432335786422 0.0018462772399734997
0.6749663 -0.09210660617523031 0.0009497490207506926
0.6769662 -0.09277910000184081 0.0002940514557907767
0.6789661 -0.09326541661684247 -0.0008782769332386017
0.680966 -0.09365811118896572 -0.0016701276145530825
0.6829659 -0.09384783912498022 -0.002592830061905055
0.6849658 -0.0939441248255368 -0.0034076796194130593
0.6869657 -0.09384912923499172 -0.004323700480562562
0.6889656 -0.09371286688581566 -0.004950062625469452
0.6909655 -0.09368964143164177 -0.005571799750112974
0.6929654 -0.09333073644050627 -0.006481120221058151
0.6949653 -0.0930953163287728 -0.007021165967007262
0.6969652 -0.09268094694321731 -0.007726255881915556
0.6989651 -0.0924305128167443 -0.008091670064978164
0.700965 -0.09198796127159528 -0.008600441879347033
0.7029649 -0.09157304868894889 -0.008724516525734853
0.7049648 -0.09132828547085947 -0.008998653366090535
0.7069647 -0.09119215160839544 -0.009097402537708958
0.7089646 -0.09029021099200901 -0.00929933937208137
0.7109645 -0.09015352468971995 -0.008729318109568014
0.7129644 -0.09023857701415389 -0.008584309723440334
0.7149643 -0.09024454371654031 -0.00836635826759781
0.7169642 -0.09043484960881995 -0.007970443123270263
0.7189641 -0.09066224422685627 -0.0078077838501881824
0.720964 -0.09095579770158253 -0.007867544787667081
0.7229639 -0.09147917700470751 -0.007372679509401625
0.7249638 -0.09151718957967149 -0.007249890619580923
0.7269637 -0.09206414579417119 -0.007262607519021143
0.7289636 -0.09273560508845005 -0.0070287927569871456
0.7309635 -0.09333977447384074 -0.007023094642917463
0.7329634 -0.09390380504628634 -0.007170747491939265
0.7349633 -0.09481212369093246 -0.007571959992560648
0.7369632 -0.09548205524861411 -0.0075013059777968225
0.7389631 -0.09654102564053234 -0.0083395212830015
0.740963 -0.09728175112678704 -0.008992687674389571
0.7429629 -0.09760085833258027 -0.009848925438671337
0.7449628 -0.09811048619533247 -0.010851282297317907
0.7469627 -0.0985658916208429 -0.01172234144253078
0.7489626 -0.0987857556920878 -0.012697218946930211
0.7509625 -0.09936084702274411 -0.01331192514225443
0.7529624 -0.09952824630526541 -0.014198256905044712
0.7549623 -0.09957691164492251 -0.01518271055926881
0.7569622 -0.09950305202300987 -0.01598664505865151
0.7589621 -0.09933520058140949 -0.017107034004993162
0.760962 -0.09900478397531796 -0.01789677997515613
0.7629619 -0.09860359713481756 -0.018830933828452683
