! Created with skrf 1.8.0 (http://scikit-rf.org).
# GHz S RI R 50.0 
!freq ReS11 ImS11
0.001 -0.9998881476626017 0.0005392314783083974
0.0029999 -1.000380807235346 0.0025615065514591785
0.0049998 -1.0019240351251635 0.0014696130452414823
0.0069997 -1.0002522172028099 0.0020043741263930936
0.0089996 -1.0296536018664748 -0.019815391236170238
0.0109995 -1.0473184199106855 -0.03932121150277283
0.0129994 -1.061735007825761 -0.04579096835773113
0.0149993 -1.0509791199678333 -0.04576441822618784
0.0169992 -1.0502609577290156 -0.0638096025948179
0.0189991 -1.0516889516619505 -0.06981136056556447
0.020999 -1.0518375799477957 -0.07574870444922172
0.0229989 -1.0515856044843723 -0.08163848032099214
0.0249988 -1.0519415688581213 -0.0871484320362158
0.0269987 -1.0519701114623827 -0.09370074736571013
0.0289986 -1.0517011221360284 -0.09998537445669926
0.0309985 -1.0520474507859214 -0.10534664414913433
0.0329984 -1.0511775016700926 -0.1121871709776457
0.0349983 -1.0507031622207386 -0.1177646129848159
0.0369982 -1.0507379388670022 -0.12499603244228516
0.0389981 -1.0495873640950888 -0.1302838545173137
0.040998 -1.0496846302465992 -0.13672751045847079
0.0429979 -1.049477907466509 -0.14327891037895882
0.0449978 -1.0491055785194658 -0.1497831912194128
0.0469977 -1.049685628764946 -0.1545701749448295
0.0489976 -1.04795576976912 -0.16339494773069238
0.0509975 -1.047058344838487 -0.1696288802782197
0.0529974 -1.0452398270682202 -0.17650195766720475
0.0549973 -1.046429168086207 -0.18404720953255116
0.0569972 -1.0443806811955598 -0.18989337226442948
0.0589971 -1.0440096462723167 -0.1955740755363098
0.060997 -1.0435450634778733 -0.20318500088024627
0.0629969 -1.0398832499318493 -0.20764382612157856
0.0649968 -1.0421654500545838 -0.2148802115604112
0.0669967 -1.0382448000893005 -0.22237214552133377
0.0689966 -1.0386949817052873 -0.22872249985063534
0.0709965 -1.0375765844482028 -0.23267331138443448
0.0729964 -1.0358636587474328 -0.24175186074678737
0.0749963 -1.0347708780598388 -0.24812840577147893
0.0769962 -1.0345670566009406 -0.253235538369149
0.0789961 -1.031606888801581 -0.2599992778645248
0.080996 -1.0323545948412538 -0.2655380920074488
0.0829959 -1.0296385907781107 -0.27285751568920436
0.0849958 -1.0278416526068934 -0.2779832579223568
0.0869957 -1.0254812681813257 -0.28329992300794116
0.0889956 -1.0253501573669497 -0.2897090234430175
0.0909955 -1.0236299185302595 -0.29644340034722927
0.0929954 -1.0225571670858897 -0.3021260183342342
0.0949953 -1.0206139043755165 -0.30905095305906327
0.0969952 -1.0181018160914292 -0.3143942722656693
0.0989951 -1.0173386246360159 -0.32006838914507063
0.100995 -1.0152814140048119 -0.3269213887454148
0.1029949 -1.0135847295573204 -0.33285263375315216
0.1049948 -1.0121363875242704 -0.339085262487559
0.1069947 -1.0107163397494667 -0.34517786097834924
0.1089946 -1.0087399328465738 -0.35110267520847727
0.1109945 -1.0066030833558288 -0.35713739768373154
0.1129944 -1.004693408241173 -0.3627538964153975
0.1149943 -1.0026474358270523 -0.36943658109398203
0.1169942 -1.0004536321488078 -0.3759590249540488
0.1189941 -0.9983765224003497 -0.38115698235531825
0.120994 -0.9962811356190145 -0.38697910285013776
0.1229939 -0.9948264060023473 -0.3921003092010072
0.1249938 -0.9929193157779855 -0.40029009662704973
0.1269937 -0.989982852361663 -0.405454197485156
0.1289936 -0.9876865611565653 -0.4101125345316536
0.1309935 -0.9855215644064521 -0.4161029874922523
0.1329934 -0.9834112254111119 -0.42270369097687027
0.1349933 -0.9823075280434446 -0.42739254503799834
0.1369932 -0.9791118995681587 -0.43467421019458513
0.1389931 -0.9766768944565378 -0.44093381139147586
0.140993 -0.9747628961752923 -0.44612936179480084
0.1429929 -0.9712882574246521 -0.4537620418484697
0.1449928 -0.9685380042860284 -0.45802551449571316
0.1469927 -0.9653764785178804 -0.46462832323696024
0.1489926 -0.9639787489939508 -0.4705655013202219
0.1509925 -0.961544102880806 -0.4757075524493128
0.1529924 -0.9598738838559466 -0.48245813228061396
0.1549923 -0.9556543374430528 -0.4877241846988071
0.1569922 -0.9533018296955849 -0.4925030479614604
0.1589921 -0.9505560674687868 -0.49908012730832324
0.160992 -0.9485235167703732 -0.5040370605640379
0.1629919 -0.9452864983871356 -0.5106509405131268
0.1649918 -0.9417093341305448 -0.5161970545800335
0.1669917 -0.9397346527312656 -0.5212536000695112
0.1689916 -0.9369531125889408 -0.5269916356045022
0.1709915 -0.9327892588163896 -0.5331342592438246
0.1729914 -0.9300652014367368 -0.539221419208715
0.1749913 -0.9274627636573284 -0.5439630256298469
0.1769912 -0.9246591158003328 -0.5491682252414618
0.1789911 -0.9213477880622547 -0.5558075943034652
0.180991 -0.9189395080758427 -0.5615668759046694
0.1829909 -0.9152318384839944 -0.5664807032526795
0.1849908 -0.9121071341131307 -0.5719546100113532
0.1869907 -0.9090821391257179 -0.5773274354383973
0.1889906 -0.9068440456525265 -0.5837748548140183
0.1909905 -0.9024109396650664 -0.5880522079535945
0.1929904 -0.8993850475785652 -0.593297117427727
0.1949903 -0.8961420442148388 -0.5999402392689706
0.1969902 -0.8935346052764329 -0.6053653540005421
0.1989901 -0.8891008981407351 -0.6102760924229186
0.20099 -0.8864745905925892 -0.6159788061293028
0.2029899 -0.8823309274235301 -0.6213217452146684
0.2049898 -0.8777668675344626 -0.6268913737582955
0.2069897 -0.8755733359569443 -0.6310065270457043
0.2089896 -0.871523092540328 -0.638228853984627
0.2109895 -0.8685574851389882 -0.6427254248886225
0.2129894 -0.8638245126826847 -0.6478086444250851
0.2149893 -0.8609195436740651 -0.6531642154661899
0.2169892 -0.8566564056112507 -0.6583073595768317
0.2189891 -0.8529473118065505 -0.6652286048624695
0.220989 -0.848703743042682 -0.6680303118960483
0.2229889 -0.8456639456984039 -0.6732897596156842
0.2249888 -0.8415775667779647 -0.6793980049456734
0.2269887 -0.8385887601856993 -0.6844674446704356
0.2289886 -0.8349792369100947 -0.6907878067613793
0.2309885 -0.8286467347055133 -0.6957196895848773
0.2329884 -0.8254807769810808 -0.6998092727230092
0.2349883 -0.8213613960954455 -0.7052676331319968
0.2369882 -0.8187464814907223 -0.7102922381733929
0.2389881 -0.8129443926995021 -0.7156483389643102
0.240988 -0.8088227740364016 -0.719476432688196
0.2429879 -0.8044687776732421 -0.7251558290392551
0.2449878 -0.8013671426156288 -0.7302492372740064
0.2469877 -0.7971813936921558 -0.7348814294390923
0.2489876 -0.7925155371203656 -0.7394701064481568
0.2509875 -0.7879997731613038 -0.744503270694034
0.2529874 -0.783747132677625 -0.7502197265292279
0.2549873 -0.77995310147652 -0.7549106591268698
0.2569872 -0.7756617038833554 -0.7584620184964143
0.2589871 -0.7706780771690701 -0.7630773057250404
0.260987 -0.7663519788454057 -0.7684724661108977
0.2629869 -0.7615872910751301 -0.7730698545551683
0.2649868 -0.7578210774298398 -0.7774630414182572
0.2669867 -0.7537244376443858 -0.7818692503838752
0.2689866 -0.7494356825303047 -0.7860884385297673
0.2709865 -0.7446358585282845 -0.7909124336114061
0.2729864 -0.7395536174115329 -0.7956384944677026
0.2749863 -0.7359439298167962 -0.8005691354463784
0.2769862 -0.7309057259070136 -0.8047840116218383
0.2789861 -0.7258379651033351 -0.8087278991769447
0.280986 -0.7221761278121694 -0.81306997712402
0.2829859 -0.717324682801713 -0.8182207702610194
0.2849858 -0.7128239669185632 -0.8229762860490114
0.2869857 -0.7078193611054027 -0.8265270554085805
0.2889856 -0.7026520154761543 -0.8309403332616638
0.2909855 -0.6985084394052383 -0.8363088204594306
0.2929854 -0.6937077048109445 -0.8409921667973048
0.2949853 -0.6874672749268312 -0.8451742059741951
0.2969852 -0.6832531321817121 -0.8488497095298189
0.2989851 -0.6785839874202341 -0.8525707067319841
0.300985 -0.6739422243695958 -0.8577650276737147
0.3029849 -0.6693877906575826 -0.8627155233001552
0.3049848 -0.6633848024705705 -0.8661670517102332
0.3069847 -0.6588005981249602 -0.8694869636483905
0.3089846 -0.653174049416324 -0.8737809174126904
0.3109845 -0.6491220319348958 -0.8799485945130537
0.3129844 -0.6439215808831942 -0.8840663481104645
0.3149843 -0.6382777881530515 -0.8881107283026276
0.3169842 -0.6323103275127452 -0.8906589019568638
0.3189841 -0.6285574716627595 -0.895195233409208
0.320984 -0.6233941766618782 -0.8997597222351676
0.3229839 -0.6175660111481216 -0.9034418154984493
0.3249838 -0.6114593507151562 -0.9077937946935217
0.3269837 -0.6055169278157406 -0.911067559513568
0.3289836 -0.6009107274819842 -0.9152849572046782
0.3309835 -0.5952719496981372 -0.9182559071806007
0.3329834 -0.5896473656602031 -0.9214611361391788
0.3349833 -0.5841229877786137 -0.9250868609347798
0.3369832 -0.5785597260554638 -0.9290757619904934
0.3389831 -0.5731953959683553 -0.932390871367016
0.340983 -0.5666295999079427 -0.9366516722819976
0.3429829 -0.5607218779159353 -0.9383929368533505
0.3449828 -0.5550254123816186 -0.9420948844845101
0.3469827 -0.5495942665202381 -0.9450821659955487
0.3489826 -0.5441372493654413 -0.9489073681849514
0.3509825 -0.5390488893605448 -0.9520983348649745
0.3529824 -0.5327733246411614 -0.9561680270057361
0.3549823 -0.5274545872466682 -0.958991438624528
0.3569822 -0.5220362000624464 -0.9626480560980447
0.3589821 -0.5164041319565345 -0.9654858721997691
0.360982 -0.5101189881691653 -0.9699886475241974
0.3629819 -0.5053248340644251 -0.9729042796171465
0.3649818 -0.4988176353392713 -0.976499573732806
0.3669817 -0.4942179352605267 -0.9794970811381529
0.3689816 -0.48851754452885243 -0.9829153356173069
0.3709815 -0.4829373174712658 -0.9862814574948471
0.3729814 -0.47639412842477735 -0.989420115564747
0.3749813 -0.47070035519270204 -0.9916038569107636
0.3769812 -0.46486938439921266 -0.9947827778306483
0.3789811 -0.46017512533491356 -0.9989703145556496
0.380981 -0.4543573216297684 -1.0021903884170438
0.3829809 -0.44884252452017326 -1.0053215069772612
0.3849808 -0.4418103148417463 -1.006796184391385
0.3869807 -0.4362086405760408 -1.0104890276980418
0.3889806 -0.4297443130063558 -1.0135569948482797
0.3909805 -0.4227622662924861 -1.0164982493318901
0.3929804 -0.4176679112203335 -1.0188782101253635
0.3949803 -0.41033841804627325 -1.0210176741251928
0.3969802 -0.40511413244038597 -1.0243725999483724
0.3989801 -0.39922809272744486 -1.0277093030092006
0.40098 -0.3931115212677878 -1.029947773923904
0.4029799 -0.3866833787001673 -1.0330834082539762
0.4049798 -0.3798759415466171 -1.0355380059739898
0.4069797 -0.37424525015253934 -1.0366464460645675
0.4089796 -0.3674745314488859 -1.0398307609673552
0.4109795 -0.36094754060393375 -1.042038048059269
0.4129794 -0.3552984591363126 -1.0446811862024843
0.4149793 -0.3487144351804452 -1.0466754546384158
0.4169792 -0.3427164823060057 -1.0493216599239605
0.4189791 -0.3360218324094109 -1.0519377011400175
0.420979 -0.32964975322527684 -1.0541266762705248
0.4229789 -0.3230869046210057 -1.0564731684253705
0.4249788 -0.31638983746171545 -1.0577983074162693
0.4269787 -0.31048974183825123 -1.06012760663295
0.4289786 -0.30387209100393925 -1.062090151357943
0.4309785 -0.2976470110781294 -1.0642867253090365
0.4329784 -0.2907732183757562 -1.06596158365618
0.4349783 -0.2846484618155189 -1.068060285891822
0.4369782 -0.277846607786127 -1.070576049669694
0.4389781 -0.27092471501879245 -1.0723082826112917
0.440978 -0.26573582177724187 -1.0746424416347427
0.4429779 -0.2588543620915459 -1.0756104150116856
0.4449778 -0.2525495647202454 -1.0781430319054603
0.4469777 -0.24603258001049222 -1.0805268227013927
0.4489776 -0.23980844953547809 -1.0819544471550688
0.4509775 -0.23218513666763244 -1.0829232956612869
0.4529774 -0.22554216876327904 -1.0846792227543733
0.4549773 -0.2187222446216246 -1.0871074698860947
0.4569772 -0.21207129761207855 -1.0888945977279099
0.4589771 -0.20543105921300253 -1.0900657751812401
0.460977 -0.19905298573490632 -1.091941584714974
0.4629769 -0.191221016647407 -1.0935937665448723
0.4649768 -0.1861276001676554 -1.0941623476420987
0.4669767 -0.17807551303561803 -1.0963678115959912
0.4689766 -0.17142194406600053 -1.097740984168077
0.4709765 -0.16512136324759946 -1.0996461902250907
0.4729764 -0.15787058777283283 -1.1008591997318633
0.4749763 -0.15092400182359433 -1.1004862832320317
0.4769762 -0.1448544190317408 -1.1014574971194986
0.4789761 -0.1377379926515444 -1.1034567727251592
0.480976 -0.13069614056885698 -1.1032964786177195
0.4829759 -0.12396740786057432 -1.1051571811564502
0.4849758 -0.11714861901305615 -1.1057622203458664
0.4869757 -0.11082811529379091 -1.1066326635206236
0.4889756 -0.10347053151466518 -1.107824568246603
0.4909755 -0.09617813835356277 -1.1089001511346064
0.4929754 -0.08945115759837935 -1.1090358089710621
0.4949753 -0.08183108738827817 -1.110441820892098
0.4969752 -0.07543270385362494 -1.1114284483099153
0.4989751 -0.06816256410885009 -1.1114705456823635
0.500975 -0.06187832515167533 -1.1124847081123939
0.5029749 -0.05408248811281432 -1.1136490886172714
0.5049748 -0.048232574861414496 -1.1145962750407366
0.5069747 -0.04124413522852041 -1.1145153819613902
0.5089746 -0.03533474423492714 -1.115575939650738
0.5109745 -0.028226951846869484 -1.116723923380575
0.5129744 -0.022083764482419083 -1.1161170756614907
0.5149743 -0.014958366690485857 -1.1168175168342536
0.5169742 -0.00858744650749127 -1.117719150757692
0.5189741 -0.001909368901406916 -1.1175985009351297
0.520974 0.005528254444263761 -1.1183390104385422
0.5229739 0.012402566182394242 -1.1172849658309776
0.5249738 0.01890899139224174 -1.1170247172788885
0.5269737 0.026405780254727507 -1.117564215106128
0.5289736 0.03385816223735802 -1.1175489461858443
0.5309735 0.041333179704445513 -1.1174365320645532
0.5329734 0.04783787682357871 -1.117710878500924
0.5349733 0.05520431700921026 -1.1165763959258264
0.5369732 0.062481156136986155 -1.1172032678871728
0.5389731 0.07006833149916053 -1.1163551458324603
0.540973 0.07700524703431223 -1.1181882072044247
0.5429729 0.08389021581619441 -1.1173552485546159
0.5449728 0.0908498686573543 -1.1170776890896954
0.5469727 0.09843141441775001 -1.1166715682267494
0.5489726 0.10563068854134078 -1.1168367075361612
0.5509725 0.11321728797132877 -1.1162501769119493
0.5529724 0.12008304917124686 -1.1152950289426526
0.5549723 0.1274937848935337 -1.1138232044958416
0.5569722 0.13408439798493352 -1.1140287083991092
0.5589721 0.14158881864154071 -1.1135246791378537
0.560972 0.14902519257462105 -1.1127103860195962
0.5629719 0.15619626684407714 -1.1117325647037481
0.5649718 0.16368743208370912 -1.1104478439086614
0.5669717 0.170057725130841 -1.1100323107558607
0.5689716 0.17706405098759814 -1.1086136942831837
0.5709715 0.18465403169370265 -1.1078769157748583
0.5729714 0.19155446178360952 -1.1077246505428393
0.5749713 0.19868441536950496 -1.1068482945030573
0.5769712 0.20539812649406974 -1.1058661424867064
0.5789711 0.21226290243788254 -1.1047850725916628
0.580971 0.22004612936701512 -1.1045967012117952
0.5829709 0.22654959621294796 -1.1022398850999737
0.5849708 0.2343438724593026 -1.1007507836385064
0.5869707 0.2410725691785447 -1.0994833234963892
0.5889706 0.24834935436295602 -1.0987850489659554
0.5909705 0.2550339995127643 -1.097116342092801
0.5929704 0.26226814187907566 -1.095813259078363
0.5949703 0.26978849682836664 -1.0943522827540357
0.5969702 0.2772347733078839 -1.0930929874504356
0.5989701 0.28403597690783766 -1.0923229962112904
0.60097 0.2912378256623501 -1.0898870904862972
0.6029699 0.2983904216368055 -1.0883736176434478
0.6049698 0.30540444407977657 -1.087310450966073
0.6069697 0.31258742007412055 -1.0857535614447045
0.6089696 0.3196950390711956 -1.0835271317758768
0.6109695 0.32621956321152307 -1.0815240618396273
0.6129694 0.33282820171483757 -1.0804363294529769
0.6149693 0.3403888257585569 -1.0779612222660924
0.6169692 0.3480390558371707 -1.0759323772921898
0.6189691 0.35441753321266833 -1.0736228102296639
0.620969 0.36118551060036774 -1.0716201717901888
0.6229689 0.3688894458526705 -1.0691675318407752
0.6249688 0.3754726404877253 -1.0677396068447003
0.6269687 0.38266417829605226 -1.0647838493923767
0.6289686 0.38992504709783515 -1.0625263950635215
0.6309685 0.3969569239950852 -1.0601467992873217
0.6329684 0.40377395494119506 -1.058407730487432
0.6349683 0.41138612526708873 -1.0559332271327335
0.6369682 0.4177874242548898 -1.0540366970586117
0.6389681 0.4250276699865557 -1.0510312850744807
0.640968 0.4319058720917569 -1.048593615851701
0.6429679 0.4385499423463396 -1.04642250980568
0.6449678 0.44492250883049633 -1.0437158995291207
0.6469677 0.4524415503985778 -1.0410454848957038
0.6489676 0.45874617869836354 -1.037779262699719
0.6509675 0.46554820147003007 -1.034483216748451
0.6529674 0.4728447957910494 -1.0320669538974443
0.6549673 0.47941958658613304 -1.0286504433497337
0.6569672 0.4862784194131704 -1.0254618849862305
0.6589671 0.49272003096070516 -1.0225297602602115
0.660967 0.4992028013153304 -1.0202938894027653
0.6629669 0.5061570443872468 -1.0167678090061312
0.6649668 0.5125332698704136 -1.0137846931625254
0.6669667 0.5196178400450955 -1.0109775011082849
0.6689666 0.5267024480112047 -1.0077040299874145
0.6709665 0.5335182651774071 -1.004751641013827
0.6729664 0.5401142213209155 -1.0026023163932618
0.6749663 0.5474653482220286 -0.9988592464992226
0.6769662 0.5532246503435396 -0.9956897494774585
0.6789661 0.5606612237956052 -0.9931924772781504
0.680966 0.5675604036300171 -0.9893919252406028
0.6829659 0.5743876402609276 -0.9855934270531586
0.6849658 0.5804481665018661 -0.9818100499028728
0.6869657 0.5869130332683412 -0.9780093995964282
0.6889656 0.5934898327666454 -0.9742787580548691
0.6909655 0.5996171475127552 -0.9698412438778515
0.6929654 0.6063306024011843 -0.9667241149649907
0.6949653 0.6126911866678448 -0.9621606008948266
0.6969652 0.6193631828881376 -0.9583440358773871
0.6989651 0.6260499734914643 -0.9545707836188257
0.700965 0.6320303215687606 -0.9496944862417174
0.7029649 0.6385072460846722 -0.9454673379515062
0.7049648 0.6447626978971606 -0.9426101119928634
0.7069647 0.6508885867267666 -0.9381437414694364
0.7089646 0.6574783442908688 -0.9347397362096919
0.7109645 0.6630763411292315 -0.9299040400086876
0.7129644 0.6698804896652477 -0.9258746889131125
0.7149643 0.6754955621382724 -0.9220652494023437
0.7169642 0.6818559215770923 -0.91682345943873
0.7189641 0.6887194481058678 -0.9128725141563878
0.720964 0.694674649747784 -0.9086676691183874
0.7229639 0.7002906102305557 -0.9040103411425742
0.7249638 0.7062271684380166 -0.8994770815407505
0.7269637 0.7123954520935697 -0.8953001582438623
0.7289636 0.7186589862632736 -0.8903826351697335
0.7309635 0.7244968688641846 -0.8858247416532956
0.7329634 0.730439360592284 -0.8811528083770128
0.7349633 0.7371505344712437 -0.8767207953068318
0.7369632 0.7428133319861441 -0.8714840849724098
0.7389631 0.7491951397163278 -0.8675080941208366
0.740963 0.7547441379391513 -0.8633690476502041
0.7429629 0.761337292811787 -0.8588167979655802
0.7449628 0.7672994968142344 -0.8539884944175412
0.7469627 0.7733151497204644 -0.8483091622230711
0.7489626 0.7796465547292186 -0.8438689632074166
0.7509625 0.7851649981252772 -0.8384754562471719
0.7529624 0.7905542993447267 -0.8329480283734204
0.7549623 0.7964329485830521 -0.8278678460214628
0.7569622 0.8016256247924062 -0.8223949121075654
0.7589621 0.8079128381704193 -0.8164896623224454
0.760962 0.8133039874286423 -0.8111433437253355
0.7629619 0.8189000368072425 -0.8058224777480013
0.7649618 0.8244155713860695 -0.8001771196906698
0.7669617 0.8299519377792401 -0.7940852744753867
0.7689616 0.8353325580119936 -0.788054571615104
0.7709615 0.840555009415865 -0.7833106416829967
0.7729614 0.8461905365851978 -0.7771066078445952
0.7749613 0.8521132375470845 -0.7726612537851099
0.7769612 0.8568945419253465 -0.7672068898720539
0.7789611 0.8628050910875384 -0.7607097621613688
0.780961 0.8676820673332001 -0.7552976467651269
0.7829609 0.8727679637291443 -0.7495178844628745
0.7849608 0.8783277939316405 -0.7444629839043038
0.7869607 0.8834782035686273 -0.7381347904201531
0.7889606 0.8883114068411351 -0.7319036874829492
0.7909605 0.8932454550764561 -0.7264319580760569
0.7929604 0.8978651300608305 -0.7201112349992421
0.7949603 0.9025831328285079 -0.7141165057826562
0.7969602 0.9076061866931183 -0.7077800483194079
0.7989601 0.9124776410795159 -0.7020398899196328
