! Created with skrf 1.8.0 (http://scikit-rf.org).
# GHz S RI R 50.0 
!freq ReS11 ImS11
0.001 -0.9638712230834361 0.004629388381010666
0.0029999 -0.9630410205942664 0.010832005554919248
0.0049998 -0.9629967015320262 0.01802389520620993
0.0069997 -0.9626104714932479 0.024692667944781962
0.0089996 -0.9620524529927694 0.031264695333398096
0.0109995 -0.9615934285081106 0.038030222157085805
0.0129994 -0.9609478182046769 0.04453418327189337
0.0149993 -0.9605904240188144 0.051208999782986264
0.0169992 -0.9599232537336638 0.05776725982829664
0.0189991 -0.9592384231819004 0.06448771929241297
0.020999 -0.9584396590353041 0.07119270837791049
0.0229989 -0.9579629306813953 0.07753999072481416
0.0249988 -0.9572300101250018 0.08433783943203665
0.0269987 -0.9566175892623047 0.09105262438589098
0.0289986 -0.9555766079307026 0.09750952061443784
0.0309985 -0.9547061532980698 0.10403570120336159
0.0329984 -0.9540404646783381 0.11052471536187955
0.0349983 -0.9528776245362472 0.11711031488281581
0.0369982 -0.9521355381979767 0.12380221521183216
0.0389981 -0.9511738352215285 0.13009098147928494
0.040998 -0.9499462865320583 0.13661638361214581
0.0429979 -0.9486043684351847 0.14309173867624914
0.0449978 -0.9474546056067189 0.14965919762666366
0.0469977 -0.946788505098027 0.15623462725881365
0.0489976 -0.9453833763144338 0.16255478149968286
0.0509975 -0.9442104504087531 0.16915038865889861
0.0529974 -0.9433365844355162 0.17557373681274357
0.0549973 -0.9417448130663872 0.181791799544675
0.0569972 -0.940691882550826 0.18827894856281477
0.0589971 -0.9392027721576494 0.19460843703556202
0.060997 -0.9379333418732857 0.2008756593639715
0.0629969 -0.9364439499509946 0.20738193679095063
0.0649968 -0.9346661158516258 0.213639439340903
0.0669967 -0.9330832038009448 0.21992574745180504
0.0689966 -0.9316433386827938 0.22636894413660483
0.0709965 -0.9297088418399594 0.23264556923968785
0.0729964 -0.9283001059011338 0.23899386111051457
0.0749963 -0.9267196573715843 0.24517261629595957
0.0769962 -0.9246749798896515 0.25156846108612685
0.0789961 -0.9227422015729386 0.2576804231477916
0.080996 -0.921205249139598 0.26415987038951044
0.0829959 -0.9193132776395001 0.2703022424960437
0.0849958 -0.917240887484892 0.2763799729904998
0.0869957 -0.9151370274731111 0.2827034426538055
0.0889956 -0.9130849904130255 0.2891890412496433
0.0909955 -0.9110009479136215 0.29534080301492016
0.0929954 -0.9087052075910507 0.30140874181574423
0.0949953 -0.9071184139736401 0.3073905145379922
0.0969952 -0.9046959882663969 0.31361894244641875
0.0989951 -0.9024518598330105 0.3196712441627197
0.100995 -0.9001947829547361 0.32607540744949076
0.1029949 -0.8974518845397159 0.3322186569514573
0.1049948 -0.8952228561280385 0.33850506976073963
0.1069947 -0.8925543942708364 0.344733870208235
0.1089946 -0.8904013709290218 0.3504861761528682
0.1109945 -0.888004239143659 0.35693875760569416
0.1129944 -0.8855518719718946 0.3627880361334844
0.1149943 -0.8826659041658366 0.36898096060501334
0.1169942 -0.8803167759221524 0.37527332284138204
0.1189941 -0.877859940934139 0.3813086058863401
0.120994 -0.8751011505229352 0.38719104632127216
0.1229939 -0.872428326557534 0.39316328320482913
0.1249938 -0.8698845029768126 0.39900441863502173
0.1269937 -0.867418491432137 0.40495869088095837
0.1289936 -0.8647842094958701 0.41099651043129243
0.1309935 -0.8616386754079737 0.4170419572648979
0.1329934 -0.8587073565991072 0.4226950890671401
0.1349933 -0.8560149342062041 0.4285570633458851
0.1369932 -0.853175039403589 0.43414899880576147
0.1389931 -0.8499240007891378 0.4400804940965236
0.140993 -0.847261274827105 0.44596699376606297
0.1429929 -0.8439026167038521 0.4513915933047551
0.1449928 -0.8410936890358535 0.4573831537793333
0.1469927 -0.837736817766621 0.4630323742245528
0.1489926 -0.8344347598638499 0.4682972512564192
0.1509925 -0.8313061565883505 0.4742673624537038
0.1529924 -0.8276870594180685 0.47961784597584617
0.1549923 -0.8246453501502462 0.4845631913037399
0.1569922 -0.8208424390651028 0.490633593860204
0.1589921 -0.8174955484757611 0.49631031325368985
0.160992 -0.8138439340567415 0.5021513439346347
0.1629919 -0.8104578218819026 0.5075371219000181
0.1649918 -0.8067357865923119 0.5129749594551981
0.1669917 -0.8028451252889628 0.5185606142432237
0.1689916 -0.7992428393086461 0.5237808047977687
0.1709915 -0.7956811497063478 0.5295694201500668
0.1729914 -0.7917833928683831 0.5351001814861259
0.1749913 -0.7878406009612933 0.5404301822124311
0.1769912 -0.7842773553572977 0.5459976092944948
0.1789911 -0.77991722333755 0.5513092216495227
0.180991 -0.776183508378791 0.5568230679645849
0.1829909 -0.7719817619598683 0.5624019589227714
0.1849908 -0.7683098155834635 0.5675769760529021
0.1869907 -0.7646477019839503 0.5735344216674914
0.1889906 -0.7600423079472707 0.5789261731732974
0.1909905 -0.7559402672900624 0.5844225673496702
0.1929904 -0.7518951181638813 0.5895938632978379
0.1949903 -0.7481567633003505 0.5949080194363009
0.1969902 -0.7445318263620574 0.600295358846155
0.1989901 -0.7403310540365502 0.6052612814580217
0.20099 -0.736234434430611 0.6104080954294204
0.2029899 -0.7318025037599473 0.6159133631411263
0.2049898 -0.7276985910988293 0.6208673078104053
0.2069897 -0.723178401789513 0.6260063176150138
0.2089896 -0.7192777174523668 0.6310758618891804
0.2109895 -0.7147011808894613 0.6360438894472391
0.2129894 -0.7107599678589744 0.6409981743541435
0.2149893 -0.7060697257079466 0.6455840322008173
0.2169892 -0.7019592166172992 0.6508834935761597
0.2189891 -0.6973855256385162 0.6556215200327269
0.220989 -0.6929866689894755 0.6601986396493813
0.2229889 -0.6882247334162865 0.6650078476802301
0.2249888 -0.6836447208689233 0.6697474410379858
0.2269887 -0.6789566528735624 0.67435922241383
0.2289886 -0.6741370986763859 0.6788883246784743
0.2309885 -0.6694990852415814 0.6832776954410972
0.2329884 -0.664824701440203 0.6877779547768396
0.2349883 -0.6600274151378057 0.6926728768589867
0.2369882 -0.6546105701992717 0.6971626778714415
0.2389881 -0.6501199376116229 0.7014343474501857
0.240988 -0.6449196696573851 0.7059996533950398
0.2429879 -0.6399173938481871 0.7103718358918408
0.2449878 -0.6348508156687408 0.7146766688144897
0.2469877 -0.6296302317553978 0.7190715777660057
0.2489876 -0.6242595717443385 0.7234901546599555
0.2509875 -0.6190638182487098 0.7276560057463324
0.2529874 -0.6138771175044687 0.7323936018112293
0.2549873 -0.6082253600695927 0.7366645493109322
0.2569872 -0.6033577312669612 0.7410215282865971
0.2589871 -0.5980450479297292 0.7454493824754898
0.260987 -0.5924613930777465 0.749559920199939
0.2629869 -0.5872948563681809 0.7538957752519484
0.2649868 -0.581989322655841 0.7580983672718382
0.2669867 -0.5766158515962704 0.762436042821101
0.2689866 -0.5712595524654238 0.7666613527280375
0.2709865 -0.5658884960250705 0.7706452772982606
0.2729864 -0.5606132367354753 0.7747934849707525
0.2749863 -0.5552221335744661 0.7788202749398719
0.2769862 -0.5491725120379911 0.782806105390397
0.2789861 -0.543757044760269 0.7869561548688124
0.280986 -0.5384081147134726 0.7909099535703464
0.2829859 -0.5328506320062892 0.7947663191257811
0.2849858 -0.5274133216153841 0.798608139159065
0.2869857 -0.5219937343773731 0.8021910669532922
0.2889856 -0.5161402297374184 0.8058782854867624
0.2909855 -0.5105492551151253 0.8096863270788147
0.2929854 -0.505086769653536 0.8134096317854519
0.2949853 -0.49947473113412005 0.8167501009597951
0.2969852 -0.49332419007279776 0.8201745708707449
0.2989851 -0.4878333629443823 0.8235179574552068
0.300985 -0.48161755354820013 0.8266968236678708
0.3029849 -0.47590846595637787 0.8302212936699844
0.3049848 -0.4700478740086043 0.8335315598185791
0.3069847 -0.4637691799140174 0.8366651675960981
0.3089846 -0.4579567161534496 0.8400681271545364
0.3109845 -0.4515226715769028 0.8432335524914631
0.3129844 -0.4457390735642667 0.846045836843635
0.3149843 -0.43953684234958873 0.8491110486530501
0.3169842 -0.4335135804714076 0.8522162527486425
0.3189841 -0.4270774156495804 0.855422715722868
0.320984 -0.4210719585275434 0.8589378508899963
0.3229839 -0.41424366919324396 0.8619118950873731
0.3249838 -0.408281586731881 0.8650180760516993
0.3269837 -0.40198076689715295 0.8673637607028092
0.3289836 -0.395342682635454 0.870504381141316
0.3309835 -0.38894212951859397 0.8733213970092906
0.3329834 -0.38265178518972937 0.8760432810698744
0.3349833 -0.376275573701572 0.8789663969534052
0.3369832 -0.36989088131137277 0.8817910953269286
0.3389831 -0.3635366492408044 0.8845979912058997
0.340983 -0.3567115088307014 0.8874224692329881
0.3429829 -0.350513092554414 0.8901073638307273
0.3449828 -0.34387468966040485 0.8928307850184884
0.3469827 -0.33763019510681386 0.895410590558728
0.3489826 -0.33104452600230155 0.8981085150766343
0.3509825 -0.32470258266030344 0.9004413964698316
0.3529824 -0.3179914577646519 0.9032294408089625
0.3549823 -0.3114297574127556 0.9057359141119616
0.3569822 -0.30450138760193574 0.9077162164799322
0.3589821 -0.2982017581047718 0.9097923692597327
0.360982 -0.2918500017042762 0.9123713391735302
0.3629819 -0.2848424127813386 0.9144676170577881
0.3649818 -0.2787829938834706 0.9167073294214589
0.3669817 -0.27200036915150283 0.9187521374449442
0.3689816 -0.265121803630732 0.9204368432931377
0.3709815 -0.2586207753872495 0.9224470650901542
0.3729814 -0.2522912881245768 0.924523022239593
0.3749813 -0.24521219623088916 0.926061839785987
0.3769812 -0.23851173865365932 0.9281555813283541
0.3789811 -0.23205280851609622 0.9300249185577711
0.380981 -0.22525214983772818 0.9314805391898379
0.3829809 -0.21860394385813672 0.9331820402613288
0.3849808 -0.21165645159404417 0.9348957433136649
0.3869807 -0.20476626919678848 0.9362172902841583
0.3889806 -0.19764841908341732 0.9377493074935517
0.3909805 -0.19081951797842184 0.9389522204594561
0.3929804 -0.1838770985133264 0.940167840735469
0.3949803 -0.177015722229248 0.9415743782860188
0.3969802 -0.16998061636574707 0.9426874673984591
0.3989801 -0.1624392461415738 0.9436406119876656
0.40098 -0.1553520979754239 0.9446631360929084
0.4029799 -0.14864614936591478 0.9458963593299106
0.4049798 -0.14137170392710796 0.9473295704991573
0.4069797 -0.1341481584351406 0.9483230346533248
0.4089796 -0.12715762521692275 0.9491569194676573
0.4109795 -0.12021025140646294 0.9501749259980315
0.4129794 -0.11249762208054351 0.9510123083709497
0.4149793 -0.10589760652496877 0.9520051230305193
0.4169792 -0.09867626251774259 0.953119716979506
0.4189791 -0.09110278930923035 0.9539906430188498
0.420979 -0.08424076252896442 0.9541306872048667
0.4229789 -0.07684966855436054 0.9548277975862083
0.4249788 -0.0696031411257322 0.955629934569271
0.4269787 -0.06277572618286009 0.9565755506577787
0.4289786 -0.05541033067171386 0.9569982626202276
0.4309785 -0.04842991096723072 0.9574176101814648
0.4329784 -0.041175323818149895 0.9580049126451224
0.4349783 -0.03404783911749265 0.958293931578466
0.4369782 -0.026459967347464267 0.9584827986111571
0.4389781 -0.01965252456149332 0.958664215238674
0.440978 -0.012283628017194015 0.9592340603214865
0.4429779 -0.005334096109123443 0.9591822835551329
0.4449778 0.002326583336683029 0.9592148486637447
0.4469777 0.009266434019135336 0.9591165813855018
0.4489776 0.016649362283283987 0.9588487014560818
0.4509775 0.02374584855629489 0.9592634318772564
0.4529774 0.03113743233709597 0.958808400083752
0.4549773 0.03808858425432275 0.958788372309565
0.4569772 0.045667442177566596 0.9584831179296259
0.4589771 0.05274169254182176 0.9583121027481111
0.460977 0.06018900034717196 0.9575649653595952
0.4629769 0.06749346839149467 0.9570141111230469
0.4649768 0.0748998522186434 0.9563708551306132
0.4669767 0.08255343299647658 0.9557911179977868
0.4689766 0.08959351052661099 0.9551788679670815
0.4709765 0.09676441478630587 0.954502605746733
0.4729764 0.10418717097657848 0.9537670208362944
0.4749763 0.11128596553259676 0.9533049774194831
0.4769762 0.11926814205514957 0.9522325165117469
0.4789761 0.12639698707769015 0.9514461179506144
0.480976 0.13352837247748997 0.950585397872972
0.4829759 0.14107104154779018 0.9499171655928667
0.4849758 0.1483771468356175 0.9487827826458608
0.4869757 0.1556897932405927 0.9477813176485632
0.4889756 0.16295718093121053 0.9464961219810014
0.4909755 0.17031390349928321 0.9452944667648537
0.4929754 0.17736428702636742 0.9443693131402414
0.4949753 0.1846431410483323 0.9431073035497918
0.4969752 0.19170229838796538 0.94153414166091
0.4989751 0.19921723543564546 0.9405681075618353
0.500975 0.20603894438020143 0.9390462754571133
0.5029749 0.2132996743084996 0.9379483855182056
0.5049748 0.22020064881434853 0.9356929967618673
0.5069747 0.22730523297509372 0.9341016416974889
0.5089746 0.23426992778014888 0.9323272700684244
0.5109745 0.2416996474754155 0.930822108079845
0.5129744 0.24866843565286825 0.9289031240781748
0.5149743 0.25561525754381237 0.9267157184547535
0.5169742 0.2629635534715085 0.9249752431370298
0.5189741 0.26985474771494045 0.9229199677825933
0.520974 0.27716607697228346 0.9204333845630213
0.5229739 0.284098777904879 0.9182353651798816
0.5249738 0.291046275169568 0.9160045397809542
0.5269737 0.29816961143368925 0.9136993560170734
0.5289736 0.3052013721065739 0.9109482472079762
0.5309735 0.3126053323774257 0.9084310113937082
0.5329734 0.31943755082587394 0.905953030813959
0.5349733 0.32671267785514013 0.9032562487224619
0.5369732 0.33388353974912793 0.9004986976370843
0.5389731 0.3405820508285143 0.8975532595801502
0.540973 0.34810907370383576 0.8951252387511872
0.5429729 0.3551222531785938 0.8921412447957252
0.5449728 0.3622212460989673 0.8894067709890614
0.5469727 0.369483741616006 0.8866581369208527
0.5489726 0.37664877273786335 0.8835653993623235
0.5509725 0.3832983070421356 0.8805066043524634
0.5529724 0.39078602336569707 0.8775272571502372
0.5549723 0.39778314221281286 0.8743299918312886
0.5569722 0.4046601262188886 0.8712087273956229
0.5589721 0.41186038989523543 0.8681030293296991
0.560972 0.4191534314102307 0.8652289209703775
0.5629719 0.4259000376624656 0.8621962712986662
0.5649718 0.43304232746661775 0.8592254785088934
0.5669717 0.43969695812768333 0.8557602703094932
0.5689716 0.4467034520167096 0.8523330982736128
0.5709715 0.4532766193815781 0.8489510135426417
0.5729714 0.46002401119791114 0.8458595579321951
0.5749713 0.46673140691800713 0.8422241834781623
0.5769712 0.47330225782034585 0.8388059572479739
0.5789711 0.47973028157465264 0.8352818100828447
0.580971 0.4860005666376651 0.8316017869695298
0.5829709 0.4925748395077093 0.8281417682236057
0.5849708 0.49921633478388966 0.8243400135975057
0.5869707 0.5051833271190334 0.8203920430045257
0.5889706 0.5118593151255042 0.816128851241729
0.5909705 0.5180939063401302 0.8118798507866458
0.5929704 0.5243985956611068 0.807881474940778
0.5949703 0.530528267791135 0.8037085635612911
0.5969702 0.5371287783523421 0.7988012144796569
0.5989701 0.5436468040292238 0.7946174929430799
0.60097 0.549501519952339 0.7899117537756715
0.6029699 0.5555459838893357 0.7855780041128926
0.6049698 0.5621952888850585 0.780986433088231
0.6069697 0.5678111831167699 0.7762709188642613
0.6089696 0.5743974208439614 0.7719119798902483
0.6109695 0.5802249863269322 0.7669530445902779
0.6129694 0.5862578864347793 0.7623541089087018
0.6149693 0.5927969102735358 0.7578341699385338
0.6169692 0.5990024104852314 0.7527939443931189
0.6189691 0.6053225257955026 0.7480652241393182
0.620969 0.6109666499048823 0.7429593950313964
0.6229689 0.6173311016582043 0.7379334179902322
0.6249688 0.6232161291931085 0.7327618044899336
0.6269687 0.6294191850586619 0.7278437702881735
0.6289686 0.6351922715170459 0.7228763850713451
0.6309685 0.6412515069416184 0.7176052578860437
0.6329684 0.6467764759414036 0.7127420887500336
0.6349683 0.6531927775662704 0.7077082368885741
0.6369682 0.6586553294396681 0.7024356473885004
0.6389681 0.6643579950094469 0.6977213488842156
0.640968 0.6704209701328815 0.6923006869450391
0.6429679 0.6759202302294567 0.6873215286388852
0.6449678 0.6815655187922613 0.6818057375400722
0.6469677 0.6867095891543551 0.6766418049009398
0.6489676 0.6920712863835269 0.6712931823139107
0.6509675 0.697029676737611 0.6659480241405334
0.6529674 0.703089368620272 0.6601875063805174
0.6549673 0.7081126680549078 0.654786555602137
0.6569672 0.7130970223319322 0.6488808045632305
0.6589671 0.7183871248371496 0.6431977365793498
0.660967 0.722909407936294 0.6371236116176466
0.6629669 0.7279549024503633 0.631760692257664
0.6649668 0.7329875074273282 0.6264898770731071
0.6669667 0.7372792820468556 0.6202474413772092
0.6689666 0.742485600322162 0.6142650788199473
0.6709665 0.7472285094831483 0.6080487320378811
0.6729664 0.7519191255418214 0.6015329981304152
0.6749663 0.7568861858455378 0.5953279988905703
0.6769662 0.7612698010677303 0.5888190334953812
0.6789661 0.7663550340652057 0.5825685283485937
0.680966 0.7709229371311271 0.5767113730952633
0.6829659 0.7755739122428006 0.5701134751759951
0.6849658 0.7802772215708628 0.563872778900307
0.6869657 0.7845092042584638 0.5570574285052068
0.6889656 0.7889122534253478 0.5503992600416107
0.6909655 0.7934003841371136 0.5438361405197396
0.6929654 0.7978655230868975 0.5373232178838581
0.6949653 0.802243440368494 0.5305109316145821
0.6969652 0.8065364192913244 0.5235416811633978
0.6989651 0.810877387880433 0.517220549278124
0.700965 0.8154171375912903 0.5103630102676824
0.7029649 0.8196264509438875 0.5039748872806612
0.7049648 0.823706479190105 0.4968488781714083
0.7069647 0.8281821655794426 0.49019428423532785
0.7089646 0.8320202143107235 0.4835711546273504
0.7109645 0.8364214002190461 0.4766397012483565
0.7129644 0.8402993328719529 0.4699177551854242
0.7149643 0.8441343008918704 0.46304576147126625
0.7169642 0.8479606316257802 0.4562660274436022
0.7189641 0.8518770442452189 0.44982685751303697
0.720964 0.8549975108659219 0.44267463749719227
0.7229639 0.8587872764812683 0.436086636134699
0.7249638 0.862890421973991 0.42877603933507624
0.7269637 0.8661438899509756 0.4223365702998094
0.7289636 0.869365505967182 0.4154691650926049
0.7309635 0.8727744152190834 0.4080886440910404
0.7329634 0.8761220276712962 0.40137316019291946
0.7349633 0.8791677923333261 0.39416238057489306
0.7369632 0.8820657217863372 0.3872122437134319
0.7389631 0.8853952747076492 0.3799867626332497
0.740963 0.8879902642011787 0.37271851500102215
0.7429629 0.8912607552852845 0.3658702938349096
0.7449628 0.8938809797589237 0.35875062331710417
0.7469627 0.8963513103804583 0.3513766772776258
0.7489626 0.8993207968194284 0.34383708509507965
0.7509625 0.9017969868772417 0.33623434221302545
0.7529624 0.9047895547624726 0.3290075137365396
0.7549623 0.9070970452446219 0.32188007165446836
0.7569622 0.9094093073401207 0.3141744526837298
0.7589621 0.9120913101422997 0.306482975234938
0.760962 0.9142574503507925 0.2990106951897151
0.7629619 0.9164407056701629 0.2913546527089146
0.7649618 0.9188685859305894 0.2839353802564745
0.7669617 0.9211916810964396 0.2764787266583819
0.7689616 0.923322072515923 0.2686979065855648
0.7709615 0.925599589441259 0.26095783272008516
0.7729614 0.9276489753775131 0.2535187876466295
0.7749613 0.9296612232227695 0.24593391770476647
0.7769612 0.9316704011758309 0.23825520179891302
0.7789611 0.933284746031219 0.23061088042487166
0.780961 0.9349103416083582 0.2228669743770499
0.7829609 0.9371285604819464 0.21532791903138904
0.7849608 0.9390890115567126 0.20746465742179176
0.7869607 0.9406212164880985 0.19990305138361725
0.7889606 0.94215962253021 0.1919677725747535
0.7909605 0.9437721566982697 0.18462480080975407
0.7929604 0.9454324098285718 0.17705763613727388
0.7949603 0.9467697347733748 0.16921549116229578
0.7969602 0.9476660079541296 0.161326056150771
0.7989601 0.948562299428852 0.15356505130012266
0.80096 0.950859554750863 0.14622377868097317
0.8029599 0.951470789321206 0.13835645385305478
0.8049598 0.9528152761565636 0.13080585521847019
0.8069597 0.9539150633236486 0.1229706170060898
0.8089596 0.9545325837244261 0.11511736246496242
0.8109595 0.9555648526174367 0.10758092124312449
0.8129594 0.9563038207074073 0.09977721920022842
0.8149593 0.9570594717338626 0.0921062359234121
0.8169592 0.9574608377177154 0.08427982211665733
