! Created with skrf 1.8.0 (http://scikit-rf.org).
# GHz S RI R 50.0 
!freq ReS11 ImS11
0.001 -0.9614176703201982 0.004326453691527801
0.0029999 -0.9608989897509068 0.00976027407397858
0.0049998 -0.9606656933409956 0.015407108673197133
0.0069997 -0.9601246765653287 0.021233049469275705
0.0089996 -0.9598434125374242 0.027038315833968776
0.0109995 -0.9594329374219753 0.03266068197261684
0.0129994 -0.9589445644224489 0.03855440615228539
0.0149993 -0.9586192016495084 0.0442806742061239
0.0169992 -0.958103137262573 0.049953818265127625
0.0189991 -0.957478614954931 0.055768737957452685
0.020999 -0.9569433476831276 0.06144029693672037
0.0229989 -0.9564955657895057 0.06692795798021403
0.0249988 -0.9559069563898418 0.0727717488789837
0.0269987 -0.9552870587165945 0.07841238727370907
0.0289986 -0.9545334315807568 0.08418166631420997
0.0309985 -0.9539168251663411 0.08977011769005341
0.0329984 -0.9533867387998911 0.09552384918477494
0.0349983 -0.9524056273740109 0.10115830100994208
0.0369982 -0.9519513709085703 0.10679830587796799
0.0389981 -0.951208493144247 0.11232362770442708
0.040998 -0.950159568888298 0.11798947046071656
0.0429979 -0.9489817269942525 0.12359678783072307
0.0449978 -0.9481934407268943 0.12916329680815217
0.0469977 -0.9478154033158185 0.13495736412034232
0.0489976 -0.9466808551513248 0.14037373103679737
0.0509975 -0.94577412354118 0.1460554115289888
0.0529974 -0.9452449171071212 0.1513402872779076
0.0549973 -0.9439444096286731 0.1569524189057037
0.0569972 -0.9431311187705709 0.16257700096048347
0.0589971 -0.9418643892042037 0.16797901306157048
0.060997 -0.9410480617899964 0.1733460812086445
0.0629969 -0.9398642440301779 0.17898813315149545
0.0649968 -0.9384479775018058 0.18439322690094231
0.0669967 -0.9373784121510343 0.18997023965895954
0.0689966 -0.9362793511774224 0.19537825480245838
0.0709965 -0.9346019387137581 0.20085725318119402
0.0729964 -0.9336987325531744 0.20647607414566202
0.0749963 -0.9325324103423499 0.2116946942295834
0.0769962 -0.9310096170769656 0.21718734451144553
0.0789961 -0.9295042474926033 0.2227063667134231
0.080996 -0.9283483417711734 0.22822587168841296
0.0829959 -0.9269682202771133 0.2334539935654768
0.0849958 -0.9254129954392377 0.23884538024970176
0.0869957 -0.9237244347883143 0.24429397657133764
0.0889956 -0.9219640559935491 0.24969979879117601
0.0909955 -0.9206072848260506 0.25518765911047225
0.0929954 -0.9187874261611736 0.26058705576760943
0.0949953 -0.9177852050589485 0.2658300603383635
0.0969952 -0.9156982542181051 0.2712711209401198
0.0989951 -0.91409782575423 0.27646926902922897
0.100995 -0.9125676512840202 0.28187587467530745
0.1029949 -0.9103634215892307 0.2874277732772337
0.1049948 -0.9086847583228692 0.29252169763226116
0.1069947 -0.9069168829889842 0.2980361213144611
0.1089946 -0.9050670028182122 0.3033633687456184
0.1109945 -0.903285555419023 0.3088851208154168
0.1129944 -0.901426129011867 0.31416962368483126
0.1149943 -0.8992725358485675 0.31947318576617484
0.1169942 -0.8975702250944833 0.32506230209429393
0.1189941 -0.8956061543240368 0.33029094241988755
0.120994 -0.893653461788305 0.3354957983707572
0.1229939 -0.8915710932323165 0.3404528163872965
0.1249938 -0.8896653382581732 0.3458931599701606
0.1269937 -0.887804895821174 0.3509251691088996
0.1289936 -0.8857519855819205 0.3564336353242171
0.1309935 -0.8838115531254964 0.3614836918929864
0.1329934 -0.881466166423618 0.3663767524880377
0.1349933 -0.879309873147447 0.37172944363657734
0.1369932 -0.8772313351027956 0.3768028208082944
0.1389931 -0.8748219570231359 0.38191189375915346
0.140993 -0.8726474077374852 0.3870884926331111
0.1429929 -0.8703063386923034 0.3920907929028732
0.1449928 -0.8681574983133472 0.3972934040883449
0.1469927 -0.8657570599562209 0.4022226353836625
0.1489926 -0.8632045018157566 0.4069140940184439
0.1509925 -0.8608395220564133 0.4123139816788704
0.1529924 -0.8582361810812396 0.4168739236584024
0.1549923 -0.8556155177669089 0.42159495612921255
0.1569922 -0.8528681401293207 0.42683267582132456
0.1589921 -0.8505355710711251 0.43185114475414604
0.160992 -0.8475224475211343 0.43705062227368835
0.1629919 -0.845307158705101 0.4416479344442509
0.1649918 -0.8425223678633008 0.4467029209926221
0.1669917 -0.8395686678171878 0.45158816722928063
0.1689916 -0.8365640536135152 0.4563183430540234
0.1709915 -0.833976338679842 0.4618016831762056
0.1729914 -0.8312216201559572 0.46656803362997046
0.1749913 -0.828185929299483 0.47141914159830045
0.1769912 -0.8254072392715897 0.4762119330217174
0.1789911 -0.8223516624558125 0.48118260853758277
0.180991 -0.8192838088291232 0.48632424570064237
0.1829909 -0.816322014410563 0.49132275235480827
0.1849908 -0.8133852966173529 0.49576289471381463
0.1869907 -0.8107033981353129 0.5012553775748672
0.1889906 -0.8072460884700277 0.5061426644995402
0.1909905 -0.8041577438831443 0.5112240576375182
0.1929904 -0.8012757767748752 0.5160755770838902
0.1949903 -0.7983183259823664 0.5207822106212837
0.1969902 -0.7956669252909508 0.5255134474328333
0.1989901 -0.7925193502839529 0.5302724358496977
0.20099 -0.7894126432384883 0.5350004047755466
0.2029899 -0.7862482449522014 0.539966877780761
0.2049898 -0.7829927078384835 0.544485839582094
0.2069897 -0.7798485254432554 0.5491773667360518
0.2089896 -0.7768006179274044 0.5537680817386471
0.2109895 -0.7734908778704215 0.5585474039553876
0.2129894 -0.7704439595391338 0.56296441286746
0.2149893 -0.7669170197517562 0.5672128690798136
0.2169892 -0.7638063528890913 0.5720684420145964
0.2189891 -0.7604479430824058 0.5765017334715767
0.220989 -0.7570350994247731 0.5808391533945911
0.2229889 -0.7533228939976809 0.5852729564298561
0.2249888 -0.749977537003457 0.5895894794782454
0.2269887 -0.7463290778329812 0.5940196023311063
0.2289886 -0.7428428805929823 0.5981438216797424
0.2309885 -0.7393788543117842 0.6024329808191327
0.2329884 -0.7358155842834428 0.6066208373607768
0.2349883 -0.7319843860901767 0.6110837309354862
0.2369882 -0.7282350584600107 0.615624231521731
0.2389881 -0.7248109697781676 0.619669641806047
0.240988 -0.7206295238299577 0.6240674466262744
0.2429879 -0.716804822282701 0.6282564029151416
0.2449878 -0.7130457851901363 0.6324158258477808
0.2469877 -0.7091841359371177 0.6363280344972062
0.2489876 -0.7048852780076961 0.6408402706467669
0.2509875 -0.700962453295049 0.6446979517942105
0.2529874 -0.6971348713455671 0.6490955520263553
0.2549873 -0.6929930342764057 0.653559332865963
0.2569872 -0.6889652158693964 0.6576901927578858
0.2589871 -0.6850014324579232 0.6621981855186441
0.260987 -0.6810221974306702 0.665949665863298
0.2629869 -0.6768813602501503 0.6702266623078492
0.2649868 -0.6727521297081778 0.6744896579508752
0.2669867 -0.6687455508984733 0.678477710527891
0.2689866 -0.6649264746952545 0.6828047824850756
0.2709865 -0.6608029626786591 0.6868036435598289
0.2729864 -0.6569086702559769 0.690660001655947
0.2749863 -0.6527374402344572 0.6949011294096802
0.2769862 -0.6481151846160073 0.6988483014199293
0.2789861 -0.6440193254050329 0.7030394697349827
0.280986 -0.6400351270220609 0.7067912165775329
0.2829859 -0.6356468700686417 0.7106559553268684
0.2849858 -0.6317257281643198 0.7148068075396128
0.2869857 -0.627470578877272 0.7183835546782241
0.2889856 -0.6232670293453394 0.7222963624119584
0.2909855 -0.618833017049284 0.7257970877967195
0.2929854 -0.6145905830976794 0.7297748309846188
0.2949853 -0.6103313932126859 0.7333186200231935
0.2969852 -0.6055804845798805 0.7368391791518847
0.2989851 -0.6014668180733304 0.740459061109686
0.300985 -0.5965652682256228 0.7437336993504072
0.3029849 -0.5923103466939019 0.747342425728686
0.3049848 -0.5879254417576482 0.7508232966774331
0.3069847 -0.5829161780401997 0.754392232907765
0.3089846 -0.578383123512641 0.7576578326580901
0.3109845 -0.5736963142050018 0.7614293815797253
0.3129844 -0.5689816112415264 0.7645084092484948
0.3149843 -0.564311082301037 0.7678609731530915
0.3169842 -0.5595681982891981 0.7712712100085471
0.3189841 -0.5548620588247789 0.77474042607394
0.320984 -0.5499157833717178 0.7777168082933921
0.3229839 -0.5450665346048784 0.7816858223382758
0.3249838 -0.5400597612990237 0.7851987096462659
0.3269837 -0.5352856463222195 0.7882228405039817
0.3289836 -0.5300810313581392 0.7915339787732107
0.3309835 -0.5250303437416256 0.7948074643119277
0.3329834 -0.5203002227227712 0.7978904701076053
0.3349833 -0.5154412758145726 0.8010552509223177
0.3369832 -0.5103874368896422 0.8045727486048023
0.3389831 -0.5054258518150725 0.8075065438751496
0.340983 -0.5005151582933167 0.811015751764247
0.3429829 -0.4953961426345527 0.8142933630216946
0.3449828 -0.49056831016245905 0.8170976039087916
0.3469827 -0.485470939109059 0.8205987385718565
0.3489826 -0.48056173192092905 0.8235832908788159
0.3509825 -0.4752604782490889 0.8268010755501306
0.3529824 -0.4703904699868233 0.8296773350932733
0.3549823 -0.4653009625907292 0.8329292833289297
0.3569822 -0.4600707959864623 0.8360071517842791
0.3589821 -0.45480110980605504 0.8385159587883058
0.360982 -0.4499471944664146 0.8412309358807946
0.3629819 -0.4447372363790361 0.8441419458079439
0.3649818 -0.43962867631267244 0.8468078051160783
0.3669817 -0.43457476731472544 0.8495285792403444
0.3689816 -0.4293052386509112 0.8520754058955332
0.3709815 -0.4240677810151216 0.8547334148547023
0.3729814 -0.4188317638427444 0.8574424507511152
0.3749813 -0.4138622544066267 0.8600065624323776
0.3769812 -0.40852064090357676 0.8626370749940582
0.3789811 -0.4031633091871003 0.8654143578261129
0.380981 -0.3979113020321697 0.8675085432043774
0.3829809 -0.3927724995749526 0.8700003439201345
0.3849808 -0.3871713370338753 0.8720896843344553
0.3869807 -0.3817724935486041 0.8750187082575602
0.3889806 -0.376176134102062 0.8771666068507643
0.3909805 -0.370967024725532 0.8792902812519735
0.3929804 -0.36516871144291535 0.8815133646226169
0.3949803 -0.3595627409381665 0.8836731558053428
0.3969802 -0.3537967650434041 0.8855948497694525
0.3989801 -0.3483179353463135 0.8877133005641268
0.40098 -0.34251863681479777 0.8897425489445618
0.4029799 -0.3367486318066587 0.8922466802674458
0.4049798 -0.3314220850595867 0.8942647141132084
0.4069797 -0.32554264855401865 0.8961192316169478
0.4089796 -0.32029026586822296 0.8985055301258975
0.4109795 -0.31424608809884685 0.9004368472665111
0.4129794 -0.30827363773718885 0.9025126110918762
0.4149793 -0.30279144293607874 0.9044668904383901
0.4169792 -0.2970865992866513 0.9066403857084525
0.4189791 -0.2911096486557475 0.9087720441805451
0.420979 -0.2855499353604612 0.9104437294881796
0.4229789 -0.2794090693874972 0.9118705201752885
0.4249788 -0.27375293472386253 0.9139607773124145
0.4269787 -0.2681940057423557 0.9157607619918
0.4289786 -0.2622186357605412 0.917715618178153
0.4309785 -0.25664752800053015 0.9192143524173298
0.4329784 -0.25076188896593044 0.921016774823699
0.4349783 -0.2450397469324614 0.9227551843318575
0.4369782 -0.23895509322752628 0.9242856930991359
0.4389781 -0.23344731942788682 0.9257502698975171
0.440978 -0.22740290324600687 0.9275182208274901
0.4429779 -0.22184175622071167 0.9289906792931752
0.4449778 -0.21562285776255516 0.930292331874401
0.4469777 -0.20983656398486605 0.931484435498479
0.4489776 -0.20381165179134295 0.9329353299275844
0.4509775 -0.19790032352866707 0.9343726520674978
0.4529774 -0.19190850582864621 0.9353576830247811
0.4549773 -0.18615374922599312 0.9368696668729055
0.4569772 -0.18015212599326044 0.9379838514346641
0.4589771 -0.17391964315569963 0.939492721738578
0.460977 -0.16796327814298895 0.9405088819261618
0.4629769 -0.1618218043869714 0.9411984568923805
0.4649768 -0.1557010367428879 0.9422418852261019
0.4669767 -0.14930914846895693 0.9429706222712062
0.4689766 -0.14355022837096065 0.9441834994865332
0.4709765 -0.13732208667168883 0.9449931940076555
0.4729764 -0.1314122640183839 0.945722893389279
0.4749763 -0.12545819546123493 0.9469078294639803
0.4769762 -0.11881516086079194 0.9477128566510109
0.4789761 -0.11260508637892852 0.9487101848132472
0.480976 -0.10692347779166114 0.9496120186159275
0.4829759 -0.10068678137880395 0.9505755665680573
0.4849758 -0.09427174205162313 0.9512921237615957
0.4869757 -0.08837466565626947 0.9519112560269651
0.4889756 -0.08200189701019422 0.9524319968010326
0.4909755 -0.07584694708939678 0.9534063749354132
0.4929754 -0.0695853545265293 0.9536853632559175
0.4949753 -0.0638875376347296 0.9544722465318862
0.4969752 -0.05775010030889385 0.9547333729815036
0.4989751 -0.051470800391990465 0.9554639039929059
0.500975 -0.04562672329344058 0.9556040096280481
0.5029749 -0.03951277993098328 0.9562432900560666
0.5049748 -0.0333180551827678 0.9561303067690851
0.5069747 -0.027245028750873517 0.9565337979756564
0.5089746 -0.021465792746842297 0.9566978160398217
0.5109745 -0.01477371723184422 0.9566683069058778
0.5129744 -0.008982765363683861 0.9568095316422445
0.5149743 -0.002891309124268049 0.9570179782214692
0.5169742 0.0034563601123785218 0.9569492961851689
0.5189741 0.009785043416460644 0.9568816273840393
0.520974 0.01551607303730735 0.9567853391579292
0.5229739 0.02191676548665217 0.9565211286687586
0.5249738 0.02786747652579972 0.9559358903357509
0.5269737 0.03423209312020235 0.9557661810553839
0.5289736 0.040594078242776915 0.955409824529584
0.5309735 0.047138418841508316 0.9549837866467265
0.5329734 0.05348750866381062 0.9545370054463813
0.5349733 0.059703263569921027 0.9537767533821151
0.5369732 0.06633114541985904 0.9531825115819242
0.5389731 0.07238005387402921 0.952733651028766
0.540973 0.07892027662426453 0.952531450182137
0.5429729 0.08547482229870064 0.9517611909225681
0.5449728 0.09176242516206276 0.9510153212288646
0.5469727 0.09835064890133664 0.9503629188648176
0.5489726 0.1048097560045606 0.9499248884161365
0.5509725 0.11122701449114447 0.9490627465306813
0.5529724 0.1178111915281675 0.948581365700183
0.5549723 0.12421807022162994 0.9479374570187121
0.5569722 0.13041512154397766 0.947087281671883
0.5589721 0.13682689849516264 0.9462514910845353
0.560972 0.14365455534462063 0.9458195092461618
0.5629719 0.14993040830989918 0.9448768438192601
0.5649718 0.15647230349442967 0.9445491771005784
0.5669717 0.1626831115612491 0.9435664258545224
0.5689716 0.1689845829198099 0.9425205135025743
0.5709715 0.17524148695835762 0.941345268847738
0.5729714 0.1815288628407233 0.940901612591355
0.5749713 0.18784658001390458 0.9398405472484068
0.5769712 0.1936076120408566 0.9388222950073515
0.5789711 0.19967621163161484 0.9375035176646885
0.580971 0.20585706491911 0.9362947217592649
0.5829709 0.21163361593888458 0.9352900517858234
0.5849708 0.21787154548712473 0.9337404950965315
0.5869707 0.22352367462660647 0.9323254845787227
0.5889706 0.2304128232331795 0.9308265129965382
0.5909705 0.23624979704424764 0.9289983439317339
0.5929704 0.24226394532702292 0.9273836768140694
0.5949703 0.24815978573714598 0.9255938790649607
0.5969702 0.2549104644556699 0.9234882427705576
0.5989701 0.2610746671650302 0.9221792009286556
0.60097 0.2670998115573446 0.919665825967405
0.6029699 0.2731638830514826 0.917756816251012
0.6049698 0.27944630550379346 0.9155866837605464
0.6069697 0.2853335708682645 0.9135449255965281
0.6089696 0.2916588508353856 0.9118800255867947
0.6109695 0.29758799804458 0.9093918085482142
0.6129694 0.3037207638098368 0.9073468235968272
0.6149693 0.310184942335943 0.9056740390019762
0.6169692 0.3166764452094975 0.903430307269168
0.6189691 0.3233679817689641 0.901244256606381
0.620969 0.3293275535013509 0.8991955344440344
0.6229689 0.33546267333024066 0.8966965175760794
0.6249688 0.3417978766361286 0.894533154991628
0.6269687 0.34795095611274995 0.8919310352998826
0.6289686 0.3539393663930712 0.8895404567818137
0.6309685 0.3604807914264422 0.8870049500859678
0.6329684 0.3663753770502234 0.8848650379813282
0.6349683 0.3727213045051574 0.8834108775902482
0.6369682 0.3789268551612743 0.8804957624391369
0.6389681 0.38501071652307317 0.8783257180755764
0.640968 0.3914325463983351 0.8760468792900026
0.6429679 0.3963371183356761 0.873529176648287
0.6449678 0.40304316587333877 0.8711074202495218
0.6469677 0.40859569572970955 0.8684485282569483
0.6489676 0.41440027415228103 0.8658522258571179
0.6509675 0.41975387297161465 0.8628309951515751
0.6529674 0.4264758785504764 0.8606168138006871
0.6549673 0.43216069675844515 0.8575390871855831
0.6569672 0.4376664591881251 0.8545540979540882
0.6589671 0.44333201905064895 0.8519282546785897
0.660967 0.4486259200324523 0.8482646081086832
0.6629669 0.45437685911006365 0.8453272928939464
0.6649668 0.45939964160205116 0.8421259626014787
0.6669667 0.4647625594523444 0.8390404214974612
0.6689666 0.47081403132291183 0.8357458062119386
0.6709665 0.47589820771210184 0.8324451435004638
0.6729664 0.4818685396988407 0.8285272168746535
0.6749663 0.48786921708229786 0.8249342503056382
0.6769662 0.49338121266230966 0.8213787202974036
0.6789661 0.4991084735367044 0.8180350404008035
0.680966 0.504113080415465 0.8145237620811148
0.6829659 0.5099859443974832 0.8106255040446415
0.6849658 0.5159366671063912 0.8071365763503641
0.6869657 0.521184585473714 0.8032983698041012
0.6889656 0.5268417417005846 0.7991692976972373
0.6909655 0.5320665427728757 0.7953320011479517
0.6929654 0.5382298150001512 0.7912583092441317
0.6949653 0.5437219306051151 0.7873577936913346
0.6969652 0.5492000051997127 0.783080612552321
0.6989651 0.5550857349932806 0.7795024677045195
0.700965 0.5607979801126837 0.775398969714806
0.7029649 0.5662224685110295 0.7716762634334317
0.7049648 0.5719007852950793 0.7676057559869154
0.7069647 0.5780929689020077 0.763934203588275
0.7089646 0.5834270489180556 0.7596809128920821
0.7109645 0.5891753636249316 0.7558658143733397
0.7129644 0.5944535076482192 0.7521701706144373
0.7149643 0.5998157561806654 0.7479952856585267
0.7169642 0.605104238927633 0.7439269883258726
0.7189641 0.6104783513103079 0.740186163191264
0.720964 0.6155091259666821 0.7357064934403433
0.7229639 0.6205050195049177 0.7317583487491627
0.7249638 0.6261281362268526 0.7278259165166308
0.7269637 0.631091063590583 0.7235864428120686
0.7289636 0.6355686592558529 0.7191496054210885
0.7309635 0.6408386396518502 0.7148699227438359
0.7329634 0.6454883480032706 0.7108342551528795
0.7349633 0.650354782601014 0.7062884582764075
0.7369632 0.6550806007803556 0.7019919648491746
0.7389631 0.6596009811258757 0.6976166484429354
0.740963 0.6641697179374589 0.6925414382972511
0.7429629 0.6695177042453174 0.688551090784974
0.7449628 0.673850967876929 0.6837116385465791
0.7469627 0.678140134757416 0.679049245707406
0.7489626 0.6831019676268765 0.6742087318453733
0.7509625 0.6870140333267347 0.6686375753928974
0.7529624 0.6914158373988676 0.6640036788648985
0.7549623 0.6959490724618581 0.6589203921734621
0.7569622 0.7006741874655537 0.6540085860479713
0.7589621 0.7050542498404538 0.6487164654021513
0.760962 0.7092086404147017 0.6435804760510059
0.7629619 0.7138632070016652 0.6377731448420406
0.7649618 0.7186122877695225 0.6327251826895305
0.7669617 0.7230214523484256 0.6280856937907298
0.7689616 0.7272989633060523 0.6224976883600902
0.7709615 0.7319600508305688 0.6167847054791329
0.7729614 0.7360052454578153 0.6117660066455805
0.7749613 0.740855728369575 0.6063963786171496
0.7769612 0.7453559061571523 0.600934201994578
0.7789611 0.7489779987668493 0.5952834067712118
0.780961 0.7535845374696889 0.5904119948081723
0.7829609 0.7579219455924819 0.5849609468230671
0.7849608 0.7621132903856722 0.5793422102769089
0.7869607 0.7665977385838713 0.5742519249230373
0.7889606 0.7707790949484117 0.5683190656265986
0.7909605 0.7752337524309905 0.5637064159610653
0.7929604 0.7790471906796156 0.5584262024456341
0.7949603 0.7832142991911487 0.5528534013199833
0.7969602 0.7869593285370543 0.546641747999195
0.7989601 0.7909541506946166 0.5410894405564813
0.80096 0.7954245109189981 0.5363171054749105
0.8029599 0.7988498509068205 0.5305089933233555
0.8049598 0.8024572622454174 0.524936999147987
0.8069597 0.8060823538522093 0.5193559159143697
0.8089596 0.8094689891776599 0.5139133319064231
0.8109595 0.813093937338911 0.5081712389525312
0.8129594 0.8165016786635071 0.5021662613217799
0.8149593 0.8197680618435761 0.4968353110146346
