! Created with skrf 1.8.0 (http://scikit-rf.org).
# GHz S RI R 50.0 
!freq ReS11 ImS11
0.001 -0.9642051075329756 0.00445994486647683
0.0029999 -0.9634172204019705 0.010081061623636638
0.0049998 -0.9636220029670811 0.016788389276220873
0.0069997 -0.9629287684447175 0.022554536139032494
0.0089996 -0.962566744611591 0.028972468525050615
0.0109995 -0.9622065683485048 0.03499657053159537
0.0129994 -0.9616825641148653 0.04126796683287203
0.0149993 -0.9612615476530059 0.047355365401677355
0.0169992 -0.960687051632524 0.05356277874868344
0.0189991 -0.9600248706986018 0.059750289453441574
0.020999 -0.9593515756349477 0.06587864567616902
0.0229989 -0.9589231870110126 0.07169624047838949
0.0249988 -0.9582078467813573 0.07802504019753011
0.0269987 -0.957716809713592 0.0842323286727596
0.0289986 -0.9568246137384137 0.09027487750860613
0.0309985 -0.95614964916301 0.09624476085596637
0.0329984 -0.9554188729739983 0.10224633826442925
0.0349983 -0.9543662227655596 0.10837145099085904
0.0369982 -0.9538073067752173 0.11441263560746565
0.0389981 -0.9528508201497341 0.12039879503836148
0.040998 -0.9518028511930727 0.12638004940048733
0.0429979 -0.9505962753419368 0.1323663848460947
0.0449978 -0.9495976425318129 0.13844299837671922
0.0469977 -0.9490898046953103 0.14459247049252416
0.0489976 -0.9478551617373364 0.15036963446689242
0.0509975 -0.9468031388067799 0.15652398559407005
0.0529974 -0.9462066079733894 0.16216908089397913
0.0549973 -0.9445601655641395 0.1682318451596914
0.0569972 -0.9438389840082896 0.1740842702798473
0.0589971 -0.9424620990537129 0.17994841777834114
0.060997 -0.9414282842433157 0.1857769267790896
0.0629969 -0.9400876619257362 0.19178624131320757
0.0649968 -0.9385123217498972 0.19758333589364271
0.0669967 -0.9372064764385819 0.20349356098496438
0.0689966 -0.9359845184728558 0.2093127400804956
0.0709965 -0.9341870255188176 0.21513237485944736
0.0729964 -0.9330201047564614 0.22108995529480188
0.0749963 -0.9317368424954903 0.2267910286856772
0.0769962 -0.9300047845187286 0.23263764194381484
0.0789961 -0.9282589255369494 0.23845761389281686
0.080996 -0.9269964793710848 0.24438075509141408
0.0829959 -0.9253711420360231 0.25000085868487304
0.0849958 -0.923568576675189 0.25571971173166524
0.0869957 -0.9217151201479712 0.26159157282576206
0.0889956 -0.9198501392383527 0.2675947899120833
0.0909955 -0.9181169819523974 0.2731441042183556
0.0929954 -0.9160398251850155 0.2791027812078755
0.0949953 -0.9148751630957586 0.28463843644941017
0.0969952 -0.9125585572092555 0.2902957849926822
0.0989951 -0.9106860838064985 0.29584966104213656
0.100995 -0.9089411603513372 0.30181641969049144
0.1029949 -0.906549134755993 0.3074500807432402
0.1049948 -0.9045136290566917 0.3132071205339536
0.1069947 -0.9024660367755769 0.3188571231070767
0.1089946 -0.900441923510406 0.3245165032355839
0.1109945 -0.8983429770055629 0.33047151433145017
0.1129944 -0.896335826861942 0.33598289439164175
0.1149943 -0.8938213278454797 0.3416793701222744
0.1169942 -0.8918807857608679 0.3476441100490844
0.1189941 -0.8896644683856946 0.35330541206405763
0.120994 -0.8873289756363718 0.3588492292839839
0.1229939 -0.8849741026861826 0.364258382360705
0.1249938 -0.8828595679005856 0.36972969247875187
0.1269937 -0.880782807912125 0.37537756151195917
0.1289936 -0.8784698544957258 0.3810052109026225
0.1309935 -0.8759921891335207 0.3865325750097034
0.1329934 -0.8735312175919328 0.3918832759478131
0.1349933 -0.8709380580323809 0.39721565689018035
0.1369932 -0.8685460720022469 0.4027508593004956
0.1389931 -0.8657618782573419 0.40824328468187876
0.140993 -0.863400527306303 0.4134342413325092
0.1429929 -0.8606707570100024 0.41874652184534317
0.1449928 -0.858315569042621 0.4241950931916877
0.1469927 -0.8554370439000306 0.4295750518191421
0.1489926 -0.8525436256597556 0.4345322052030084
0.1509925 -0.8498532599189826 0.44034469809645665
0.1529924 -0.8469035020845834 0.44529931199933104
0.1549923 -0.844040733049435 0.45014441831095797
0.1569922 -0.840824814783291 0.45560462669685775
0.1589921 -0.8380815697379943 0.46094577528285435
0.160992 -0.8349033510182852 0.4664998466249335
0.1629919 -0.8318517527411801 0.47157092322866206
0.1649918 -0.8288768714797987 0.47670164366049655
0.1669917 -0.8256369277007111 0.4817389999296705
0.1689916 -0.8222609987348122 0.4870491550170239
0.1709915 -0.8192255495469459 0.4925727400452661
0.1729914 -0.8158459239933507 0.49768067418933376
0.1749913 -0.8125425847289576 0.5026288369776672
0.1769912 -0.8094258161290827 0.5076296418739683
0.1789911 -0.8058778664427829 0.5129505837662317
0.180991 -0.8025808417672862 0.5182853650251618
0.1829909 -0.7991392774554399 0.5234969224342223
0.1849908 -0.7956562757240649 0.5284939802676878
0.1869907 -0.7925420282191402 0.5342507275138632
0.1889906 -0.7886700230710749 0.5393618684800336
0.1909905 -0.785126950627158 0.5445453097201027
0.1929904 -0.7815905691937988 0.5496336596176492
0.1949903 -0.7784465271194833 0.5545038353511487
0.1969902 -0.7753326358546463 0.5595206917258064
0.1989901 -0.7718520754925786 0.5644190633154589
0.20099 -0.7682751960266615 0.5693754977231709
0.2029899 -0.7646453680228403 0.5745687581605422
0.2049898 -0.7609037051037868 0.5793838608162049
0.2069897 -0.7572155980272355 0.584313117764745
0.2089896 -0.7538999167329976 0.5891282133102035
0.2109895 -0.7498281306220783 0.5940400478123402
0.2129894 -0.7465044254965614 0.5985805369096925
0.2149893 -0.7424279902078365 0.603245760530143
0.2169892 -0.7389890368302005 0.60830645118175
0.2189891 -0.734900439134173 0.6126514798364626
0.220989 -0.7311385922442494 0.6172718340647638
0.2229889 -0.7271569149058186 0.6219540033762346
0.2249888 -0.7231410161457746 0.6265246961993588
0.2269887 -0.7190932522201127 0.6308788104362745
0.2289886 -0.7150150111624404 0.6353746888207635
0.2309885 -0.7109726041902898 0.6397294505714425
0.2329884 -0.7070089689104854 0.6441168937410475
0.2349883 -0.7028479562277311 0.6489636140926107
0.2369882 -0.6984142469083142 0.6531058357261001
0.2389881 -0.6943935934809778 0.6574896071062213
0.240988 -0.6897613962730332 0.6618673014826497
0.2429879 -0.6854840429951734 0.6662052833952798
0.2449878 -0.6810729686053965 0.6705493716475298
0.2469877 -0.6766519962567729 0.6746987464301565
0.2489876 -0.6717903320658857 0.6792971732915288
0.2509875 -0.6673599449634058 0.683283097788824
0.2529874 -0.6628676729803878 0.6877626960302263
0.2549873 -0.6582822431603975 0.6922542753340394
0.2569872 -0.6537412718653878 0.6965391562277617
0.2589871 -0.6491734170401415 0.7010218938806507
0.260987 -0.6445330703251735 0.7052205629686199
0.2629869 -0.6397893393944326 0.7093358663396437
0.2649868 -0.635388214031682 0.713809773569627
0.2669867 -0.630707708570475 0.7176938204636604
0.2689866 -0.6262020948839109 0.72205231583397
0.2709865 -0.6215090285916851 0.72617129322661
0.2729864 -0.6169905025666144 0.7303571253331288
0.2749863 -0.6122146940374708 0.7344628697167711
0.2769862 -0.6070884391260375 0.7385527606884096
0.2789861 -0.6023530630055338 0.7426081466222709
0.280986 -0.5976420947781629 0.7466617259625409
0.2829859 -0.5928898090010262 0.7503166700382807
0.2849858 -0.5883654675683146 0.7545358106372322
0.2869857 -0.5835741899589292 0.7581708771726515
0.2889856 -0.578556071655631 0.7618562684253428
0.2909855 -0.5735912102116155 0.7656261016630954
0.2929854 -0.5687916294848071 0.7696491909508718
0.2949853 -0.5639896549023535 0.7731160850732687
0.2969852 -0.5586739902311927 0.7768129097057658
0.2989851 -0.5538335470912852 0.7803677706932198
0.300985 -0.5484356070127281 0.7837908831216431
0.3029849 -0.543342289561188 0.7872924525913337
0.3049848 -0.5384559322558015 0.7906249679843939
0.3069847 -0.5328013906430673 0.7940391790647761
0.3089846 -0.5276808990339741 0.7971937866305168
0.3109845 -0.5223417980853062 0.800773195276732
0.3129844 -0.5171141434218692 0.8039788084465813
0.3149843 -0.5117853236625496 0.8071822664369841
0.3169842 -0.5063833313861095 0.8105625584804135
0.3189841 -0.5008846947734841 0.8141222044710826
0.320984 -0.4953228390658755 0.8173486715756216
0.3229839 -0.49007802976336945 0.8207997909294883
0.3249838 -0.4842669683753708 0.8241351796348796
0.3269837 -0.4786168115484988 0.8271419946669842
0.3289836 -0.4731472578640188 0.8304184235101142
0.3309835 -0.467325342609454 0.8334039053733873
0.3329834 -0.4617124921670919 0.8364501423827689
0.3349833 -0.45628575001986404 0.8394677702294511
0.3369832 -0.4506083564548429 0.8429369809908511
0.3389831 -0.4449172952524172 0.8458762180864686
0.340983 -0.43925633183456886 0.8488214739025706
0.3429829 -0.43354607697090203 0.8521291930093056
0.3449828 -0.4278663984861849 0.8549080942989435
0.3469827 -0.42235535503643146 0.8580453792179376
0.3489826 -0.41680343134209435 0.8610138448587946
0.3509825 -0.4107520985543206 0.8639745439976068
0.3529824 -0.40489373133814294 0.8668136059904449
0.3549823 -0.39944223825355346 0.869805043021606
0.3569822 -0.3935223731594466 0.8726996781304812
0.3589821 -0.38756549891187564 0.8748900642404491
0.360982 -0.3819232503743771 0.8778396889838607
0.3629819 -0.376157576166591 0.8803283723983113
0.3649818 -0.3704941725884843 0.8825223605805987
0.3669817 -0.3644135621017734 0.8853545034371348
0.3689816 -0.35858910939061067 0.887691259659535
0.3709815 -0.3527357959473391 0.89007066339608
0.3729814 -0.3469269233069698 0.8922204636096216
0.3749813 -0.3408918987973698 0.8947419368666872
0.3769812 -0.33493486298005803 0.8972336776694646
0.3789811 -0.3290356036522447 0.8993937189788977
0.380981 -0.32309976748909885 0.9013589589754932
0.3829809 -0.31729441905680483 0.9037158709405111
0.3849808 -0.31107099479789546 0.905393486054617
0.3869807 -0.304765664904073 0.9079143640059384
0.3889806 -0.2986516765063094 0.909948505350637
0.3909805 -0.29266938837140244 0.9116483925057933
0.3929804 -0.2861520372062482 0.9135353235270094
0.3949803 -0.28018525100396047 0.9151881225002003
0.3969802 -0.27384497627189974 0.9169497387715072
0.3989801 -0.26713587777694314 0.9186987138280746
0.40098 -0.260831444945083 0.9201546378316405
0.4029799 -0.25452986989799586 0.9221825038748124
0.4049798 -0.2481463098822746 0.9240706860961695
0.4069797 -0.24180109248215798 0.9258336207439427
0.4089796 -0.23577755643024984 0.9274963330271191
0.4109795 -0.22916921310478974 0.9291747612802254
0.4129794 -0.22266576173063685 0.9305903437682661
0.4149793 -0.21601792578008486 0.932422645703687
0.4169792 -0.20974486271164994 0.9341162722955124
0.4189791 -0.20321135413724803 0.935655352440533
0.420979 -0.19685810304566334 0.9368732871419514
0.4229789 -0.19022969945800303 0.9379450480334354
0.4249788 -0.18379150607726222 0.9396184827684909
0.4269787 -0.1775082518976771 0.9410583305767345
0.4289786 -0.1708301341931237 0.9423249093920583
0.4309785 -0.16447837306934493 0.9435003774587699
0.4329784 -0.1579111533531926 0.9446157519237184
0.4349783 -0.15145972836187455 0.9457517821349426
0.4369782 -0.14483139504092107 0.9468997179074842
0.4389781 -0.13852262621325762 0.9478471988253568
0.440978 -0.1319318216051146 0.9489972186024492
0.4429779 -0.12572847732673553 0.9499886879847681
0.4449778 -0.11878767489952805 0.9507964936242467
0.4469777 -0.11224961942031218 0.9514860820903595
0.4489776 -0.1056783940535109 0.9523339762102645
0.4509775 -0.09887013827412067 0.9531165934821206
0.4529774 -0.09240107178790262 0.9538226146416043
0.4549773 -0.086065339513492 0.9546466465252531
0.4569772 -0.07899335559819662 0.9550505022946608
0.4589771 -0.07248556602181735 0.9558505234419065
0.460977 -0.06569690577141987 0.9564044842136897
0.4629769 -0.05877918979420527 0.9566415896767573
0.4649768 -0.0521221460018578 0.9567664794801605
0.4669767 -0.045114204852995506 0.9568955647009898
0.4689766 -0.03839857246452383 0.9574544065872923
0.4709765 -0.03228621877939148 0.9576218285154068
0.4729764 -0.025345663907831252 0.9578780512695069
0.4749763 -0.018671095003198843 0.9584172804493176
0.4769762 -0.011443172355683942 0.9584449041072652
0.4789761 -0.004672620356281458 0.9586705017291122
0.480976 0.0019344572611465702 0.9587846150749284
0.4829759 0.008798875307700488 0.9591649129146903
0.4849758 0.015589340622686937 0.9591143149199505
0.4869757 0.02248369479073408 0.9588752387217784
0.4889756 0.029252503884540593 0.9588737619306432
0.4909755 0.03602552140196836 0.9586543185347669
0.4929754 0.0426069295914939 0.9587194042253635
0.4949753 0.049234265656752506 0.9587206575641917
0.4969752 0.0561608981680515 0.9580034213317643
0.4989751 0.06276994373831166 0.9580970390932667
0.500975 0.06956085457969775 0.9575892775848369
0.5029749 0.07588972869856853 0.9574264407854275
0.5049748 0.08268617233071524 0.9566567962665403
0.5069747 0.0892874594778533 0.9559382118711397
0.5089746 0.09579630066946634 0.9554595721535177
0.5109745 0.10303630861463603 0.954528465687846
0.5129744 0.10951990349072335 0.9541024467314522
0.5149743 0.11598323685908596 0.9532034012394215
0.5169742 0.1230859981123167 0.9526438821759469
0.5189741 0.12949402401939336 0.9515661531443446
0.520974 0.13615337193343882 0.9504272815068834
0.5229739 0.14327857105622693 0.949196319520905
0.5249738 0.14936661336865092 0.9479043679031465
0.5269737 0.15652812772754304 0.9470327010416584
0.5289736 0.16334690355769968 0.9455970629254846
0.5309735 0.1703298119713822 0.9439673872143196
0.5329734 0.17711498318491045 0.942741723074147
0.5349733 0.18393027493894723 0.9411406323543949
0.5369732 0.19080282738626697 0.9398430026866569
0.5389731 0.19740697866946913 0.9383076639081149
0.540973 0.20485372751645925 0.9369452897755082
0.5429729 0.2112822441956878 0.9351961465580583
0.5449728 0.21838615833051245 0.9335060320963235
0.5469727 0.22520531801316346 0.9322450763848141
0.5489726 0.2321749917120457 0.930553251858237
0.5509725 0.23913171096038283 0.9288084830575156
0.5529724 0.24596070560699385 0.9271309346767463
0.5549723 0.25308909859357664 0.9252153108134056
0.5569722 0.2597355511313532 0.9236083973260887
0.5589721 0.26654377229201265 0.9214012831065923
0.560972 0.2736914708534557 0.9199781833291047
0.5629719 0.2805882035672292 0.9182722177173072
0.5649718 0.2874534210225849 0.9168338342339076
0.5669717 0.2940093942818015 0.9147911739403473
0.5689716 0.3007346369784078 0.9125300501723543
0.5709715 0.3075604435102036 0.9103647779147857
0.5729714 0.31400467236928864 0.9088694800102904
0.5749713 0.3207222847420048 0.9067404284960179
0.5769712 0.3269424549807784 0.9044036517203541
0.5789711 0.3336469596292427 0.9021906565844615
0.580971 0.33985512532630413 0.899727268973937
0.5829709 0.3461341058067612 0.8975951491312112
0.5849708 0.35285701184299334 0.8952531776162742
0.5869707 0.35909092687496036 0.892593643309839
0.5889706 0.36591630755731097 0.8898241790158752
0.5909705 0.3716192155657567 0.8868964154366035
0.5929704 0.3782163423926804 0.8843490439698083
0.5949703 0.3844918159349502 0.8811001274023891
0.5969702 0.3913109855772744 0.8782670238733583
0.5989701 0.39793164630903094 0.8750658174285069
0.60097 0.4040638148004798 0.8717855396475194
0.6029699 0.41026515367252436 0.8686402680406328
0.6049698 0.41685863189647865 0.8653553004948297
0.6069697 0.42306078316529083 0.8621974173596536
0.6089696 0.4292785699504161 0.8593428661979766
0.6109695 0.4357409050981918 0.8557259156396323
0.6129694 0.44194300829609257 0.8522585077485647
0.6149693 0.44836638911707966 0.8494614976716226
0.6169692 0.4552618090086081 0.8458751358465427
0.6189691 0.4619597883237074 0.8422661574227578
0.620969 0.46780842551670043 0.8390545222611746
0.6229689 0.47438995187899335 0.8350820623619785
0.6249688 0.48082588378159874 0.8319633628199089
0.6269687 0.4870463505914844 0.8278781386831572
0.6289686 0.49325833610204567 0.824282157916865
0.6309685 0.49975765180949727 0.8204738671499955
0.6329684 0.5059544526017161 0.8171716087120416
0.6349683 0.512441293585454 0.8138658715003988
0.6369682 0.5184474493905628 0.8097902220300647
0.6389681 0.5246487129667536 0.806289945231462
0.640968 0.5309388393222869 0.8028842426496667
0.6429679 0.5364222878815461 0.7989110555980385
0.6449678 0.5428734237873161 0.7952231684134518
0.6469677 0.5485255282103256 0.790987995088234
0.6489676 0.5538394829083447 0.7873465231755443
0.6509675 0.5599075641654905 0.7832315946238712
0.6529674 0.5661709558888008 0.7793987280271236
0.6549673 0.5720453830876965 0.7748587202919182
0.6569672 0.5773518666004918 0.7709583819937589
0.6589671 0.583130158107132 0.7663925381956135
0.660967 0.5882812423927756 0.761840226499288
0.6629669 0.5938572477353828 0.7574415922100013
0.6649668 0.5988804627518611 0.7532249791062691
0.6669667 0.6045386019676319 0.7487967772406632
0.6689666 0.6098960641095117 0.744109681084102
0.6709665 0.615276335555689 0.7394612707328035
0.6729664 0.6209412971045795 0.7339479699744083
0.6749663 0.6263440733429824 0.7294044432038821
0.6769662 0.6318918746172605 0.7242510842898083
0.6789661 0.6375622181734704 0.7192098019602471
0.680966 0.6423617206477261 0.7146625670360942
0.6829659 0.647873002403972 0.7093916735867246
0.6849658 0.6533265063466427 0.7046483646609422
0.6869657 0.6586159828598201 0.6991885050661168
0.6889656 0.6636946168316076 0.694151614419429
0.6909655 0.6688201430880006 0.6885242206266337
0.6929654 0.6746439860586428 0.6832773104816114
0.6949653 0.6796701637075281 0.6780526967255223
0.6969652 0.68491461118855 0.6723657849459301
0.6989651 0.6902917053420644 0.6671121496436858
0.700965 0.6954523912963966 0.6617353501343339
0.7029649 0.7008150003251327 0.6564769787837508
0.7049648 0.7061920591867856 0.6510566782943706
0.7069647 0.7114395135066439 0.6456235351157347
0.7089646 0.7164503372344033 0.6401221006988256
0.7109645 0.7217042422719907 0.6348057628423299
0.7129644 0.7267149290980254 0.629475354914256
0.7149643 0.7315798931387211 0.6239615253225361
0.7169642 0.7362725966825231 0.618345305323408
0.7189641 0.7412742868308047 0.6133454233349792
0.720964 0.7456197772830683 0.6074777191194606
0.7229639 0.750201256973494 0.6018315112267286
0.7249638 0.7555865928022946 0.596179354774073
0.7269637 0.7597012611337474 0.5906497690054364
0.7289636 0.7641077625436322 0.5852924123128364
0.7309635 0.7685319897057731 0.5794921322674274
0.7329634 0.7730147170902618 0.5738295932796507
0.7349633 0.7774189318338133 0.5677019369842259
0.7369632 0.7811912865465254 0.5621391113317024
0.7389631 0.7854757684407587 0.5561511723913263
0.740963 0.7891803251128539 0.549975139960344
0.7429629 0.7932253719132293 0.5441595942211608
0.7449628 0.7974778024529311 0.5382179821454546
0.7469627 0.8012414585107946 0.5322218039034683
0.7489626 0.8051869012677626 0.525592127527578
0.7509625 0.8090806250213307 0.519179688971309
0.7529624 0.8129159673993036 0.5131425033781618
0.7549623 0.8166460183889461 0.5069789715393753
0.7569622 0.8204113087506247 0.5003846300410422
0.7589621 0.8241636034393275 0.49374629073462617
0.760962 0.8277985184288799 0.4874275207528357
0.7629619 0.8312847946138279 0.48016355760709545
0.7649618 0.8351762083161332 0.4741434949510976
0.7669617 0.8386099971442875 0.4677772035604626
0.7689616 0.8422258508799123 0.46070659345533294
0.7709615 0.8456810237446996 0.4541598733199941
0.7729614 0.8494640830841811 0.4476227156987953
0.7749613 0.8529223129670522 0.44120249994390537
0.7769612 0.8562635385518106 0.43404499171099
0.7789611 0.8593150854806559 0.4272883125940021
0.780961 0.8629306238964725 0.42083833525438896
0.7829609 0.8660609438590138 0.4136460253933694
0.7849608 0.8698097914551308 0.40746295683088746
0.7869607 0.872867022694468 0.40035090843948345
0.7889606 0.876035874335687 0.3933585044240678
0.7909605 0.8794232557319045 0.3869461420274855
0.7929604 0.8822044522208636 0.38026326495538654
0.7949603 0.8852306491835101 0.37352081246164887
0.7969602 0.8879902183549194 0.36596069438495604
0.7989601 0.8906047640592694 0.3592808368629197
0.80096 0.8939557251788114 0.35279160281495414
0.8029599 0.8964952493099748 0.34585417435067145
0.8049598 0.8988887480610975 0.3390047557591088
0.8069597 0.9017254572477755 0.33234532456736954
0.8089596 0.904110611929371 0.3254661601478362
0.8109595 0.9064934767479772 0.3182350664595946
0.8129594 0.9087670066158934 0.3111997242208132
0.8149593 0.9112136061532936 0.3046511369447059
