! Created with skrf 1.8.0 (http://scikit-rf.org).
# GHz S RI R 50.0 
!freq ReS11 ImS11
0.001 -0.9155488122081067 0.006190927435241105
0.0029999 -0.9152875129986929 0.013777552082998766
0.0049998 -0.9144216305689691 0.021534342194516234
0.0069997 -0.9136257823362238 0.029189449885550986
0.0089996 -0.9130416276551852 0.03738570276303558
0.0109995 -0.9125098331297609 0.04511952883950261
0.0129994 -0.9119495503610151 0.05267315493629689
0.0149993 -0.9111284490110022 0.060729197038498155
0.0169992 -0.9102082262405239 0.06828992879089676
0.0189991 -0.908996024981606 0.07641134850263093
0.020999 -0.9084636348956687 0.08386511840489139
0.0229989 -0.9074942892098993 0.09155910057474279
0.0249988 -0.9062611223129133 0.09938188733062059
0.0269987 -0.9055577668709348 0.10703463460968601
0.0289986 -0.9043211747174599 0.11487191557117155
0.0309985 -0.9031263465199219 0.12262904058199137
0.0329984 -0.9018371270714292 0.13003435797982346
0.0349983 -0.9007839205845474 0.13784627123509158
0.0369982 -0.8994685587902755 0.1456957880460647
0.0389981 -0.8980239650187293 0.153114178312941
0.040998 -0.8967574061893616 0.16055848934890862
0.0429979 -0.8949108220357556 0.16843831480768612
0.0449978 -0.8936760506564264 0.17573993963396045
0.0469977 -0.8920607615231766 0.1835637956720057
0.0489976 -0.8903564387981259 0.19092461808043273
0.0509975 -0.8887041516096462 0.1986930580110788
0.0529974 -0.8869699463057318 0.2060952954080303
0.0549973 -0.8852112340014275 0.21376691679383386
0.0569972 -0.8832680998832719 0.22100819314911094
0.0589971 -0.881270825750296 0.228473734546306
0.060997 -0.8792653055432498 0.23583459142294955
0.0629969 -0.8771451767560875 0.2434257071474552
0.0649968 -0.8751900355379181 0.2506635038228579
0.0669967 -0.8730224845140379 0.25798780913234737
0.0689966 -0.8707597431291116 0.26547608502832026
0.0709965 -0.8682183888245152 0.2729017565453837
0.0729964 -0.8661250278596342 0.2801654212406377
0.0749963 -0.8637659128388112 0.2873319685501714
0.0769962 -0.8609343009651043 0.2946626053327287
0.0789961 -0.8584510361866313 0.30204428083737456
0.080996 -0.8560294289910961 0.3091974000777687
0.0829959 -0.8531917244408723 0.3164044339154884
0.0849958 -0.8503288080311281 0.3236865227107408
0.0869957 -0.8475954766122842 0.33081175224630144
0.0889956 -0.8444977795084744 0.3382303676848294
0.0909955 -0.8416653752975024 0.3452941115731975
0.0929954 -0.8385394412496652 0.3523986521496779
0.0949953 -0.835590626017447 0.35952272934322926
0.0969952 -0.8325719881237722 0.3664558640050172
0.0989951 -0.828933773537788 0.3734721386851447
0.100995 -0.8260242617359601 0.38096390512796513
0.1029949 -0.8225061822782398 0.38738955798000235
0.1049948 -0.8191449752162743 0.39477811483271624
0.1069947 -0.815809931317613 0.40183590703619365
0.1089946 -0.8124791648366044 0.4086796881116956
0.1109945 -0.8088249341725638 0.41584454832224044
0.1129944 -0.8051226119777023 0.42267506102351465
0.1149943 -0.8014941187617852 0.4297553993798192
0.1169942 -0.7979424364503359 0.43691999405319
0.1189941 -0.794377980658542 0.44336400336662146
0.120994 -0.7903214884321444 0.4502701480927749
0.1229939 -0.7867117082079035 0.45715998828729876
0.1249938 -0.7829320071112975 0.46373025206395296
0.1269937 -0.7790967246255749 0.47039782092028876
0.1289936 -0.7753302225687082 0.4773628418251699
0.1309935 -0.7712976406830622 0.48373656462813597
0.1329934 -0.767412631263021 0.4902473236003302
0.1349933 -0.7630185943532015 0.4969432616618998
0.1369932 -0.7591400658926377 0.5034712220219065
0.1389931 -0.7549910731979077 0.5097200951772545
0.140993 -0.7505919698504661 0.5166401801946259
0.1429929 -0.746088076379029 0.5226918113646183
0.1449928 -0.7418393046343524 0.5289760814963749
0.1469927 -0.7373926879327404 0.5352048701697442
0.1489926 -0.7326822913339062 0.5417208161729242
0.1509925 -0.7278166619403212 0.5475630338347395
0.1529924 -0.7235801081491567 0.5537288982914608
0.1549923 -0.7185396745301101 0.5596187600775018
0.1569922 -0.7136283349399949 0.5659758603267642
0.1589921 -0.7084962449489791 0.5721746819786507
0.160992 -0.7035014396905331 0.5782619411989359
0.1629919 -0.6987789335793345 0.5842244056710356
0.1649918 -0.6934944389535472 0.5900804393330092
0.1669917 -0.6883971027425235 0.5959721986984726
0.1689916 -0.6832522780347211 0.6020019610718114
0.1709915 -0.6777672652458171 0.6082318084546355
0.1729914 -0.6722057533044705 0.613948071239449
0.1749913 -0.666701238359608 0.6197486828071701
0.1769912 -0.6616125506364899 0.6255985363934282
0.1789911 -0.6559225785120986 0.6312695182544221
0.180991 -0.6506499578868207 0.6371915301752877
0.1829909 -0.6450008220392911 0.642935315338382
0.1849908 -0.6393536718475853 0.6488815689951926
0.1869907 -0.6338457612856407 0.654636728651643
0.1889906 -0.6280340111832214 0.6603831190648987
0.1909905 -0.6219586736937863 0.6661751249077458
0.1929904 -0.6162283716083746 0.6720507924445107
0.1949903 -0.6107933718981039 0.6774391163617544
0.1969902 -0.6052643256247194 0.6831398822748727
0.1989901 -0.5994273628603745 0.6883585157000839
0.20099 -0.5936108886419894 0.6937458542968697
0.2029899 -0.5874274029203953 0.6992986567249847
0.2049898 -0.5817282191883009 0.7044110139048203
0.2069897 -0.5757021049381009 0.709516382173346
0.2089896 -0.5694442462998515 0.7145349774251939
0.2109895 -0.5634524610000288 0.7197909494530224
0.2129894 -0.55726029260861 0.7250826797019422
0.2149893 -0.551259960530787 0.7296378740623614
0.2169892 -0.5453117750421196 0.7347175238070882
0.2189891 -0.5385756307232389 0.7397083140647257
0.220989 -0.5327159415862865 0.7442237213749929
0.2229889 -0.5261965023961154 0.7487963474151836
0.2249888 -0.519492630207006 0.7535473598209352
0.2269887 -0.5129829339709202 0.7580343859784133
0.2289886 -0.5064414974966064 0.762616429467509
0.2309885 -0.4998470868137803 0.7667045128954422
0.2329884 -0.4931213205931026 0.7712289531576727
0.2349883 -0.48632329716058087 0.7756546232690253
0.2369882 -0.47933833435817713 0.7800219063804852
0.2389881 -0.47264363016687155 0.7841418253968213
0.240988 -0.4655782240001899 0.7880596948656486
0.2429879 -0.45834313044307146 0.7922356170937448
0.2449878 -0.451498589575688 0.79619491094123
0.2469877 -0.44442576781488374 0.8002529496846331
0.2489876 -0.43717463383508204 0.8044340123510351
0.2509875 -0.43000701604197367 0.8082057454736581
0.2529874 -0.4226594825489107 0.8121208372376089
0.2549873 -0.4152813567336708 0.8164418812898359
0.2569872 -0.40822858602553763 0.8200591356215579
0.2589871 -0.4005031565594037 0.8238256014073122
0.260987 -0.39337265545392947 0.8275453540683411
0.2629869 -0.38585196608309374 0.8314323589807419
0.2649868 -0.3786098486887912 0.8351557410442748
0.2669867 -0.3711360264594367 0.83889093029146
0.2689866 -0.3636593544630781 0.8422733754559264
0.2709865 -0.3561886438335911 0.8458243309673035
0.2729864 -0.348482057143759 0.8491557283054749
0.2749863 -0.34090963479606073 0.8526591141638344
0.2769862 -0.33332695832485937 0.8559643225280317
0.2789861 -0.3257633559410197 0.8591472551670029
0.280986 -0.31822454143273643 0.8622995382613066
0.2829859 -0.310630000765588 0.8653937682748066
0.2849858 -0.3029119625247496 0.8687145980596133
0.2869857 -0.29524964975485674 0.8712614644359722
0.2889856 -0.2874700743042982 0.8742951683006566
0.2909855 -0.2797875832340896 0.8770324873755191
0.2929854 -0.27197080496311793 0.8797096548099673
0.2949853 -0.2640825626839112 0.8820568904745995
0.2969852 -0.2561000669876555 0.8844539401334376
0.2989851 -0.24846369396598045 0.8871785542872899
0.300985 -0.2403820742315782 0.8890783105430741
0.3029849 -0.23220813730719755 0.8913486902988852
0.3049848 -0.22451498963174127 0.893505795170507
0.3069847 -0.2161003938884555 0.8956376118266385
0.3089846 -0.2082435985821513 0.8974943025966805
0.3109845 -0.2000541443938505 0.8993376694576319
0.3129844 -0.19184810522659815 0.9013364764513797
0.3149843 -0.18372752845312848 0.9030590323168071
0.3169842 -0.1754665063130091 0.9043446662517968
0.3189841 -0.16695053891198414 0.9067184689313192
0.320984 -0.15892435740433275 0.9081299205185559
0.3229839 -0.1497173195916647 0.9098647569735352
0.3249838 -0.14188683188953777 0.9112219490867955
0.3269837 -0.13320051849031814 0.9125217169291666
0.3289836 -0.12475301235133311 0.9141683941490886
0.3309835 -0.1160574371096199 0.9153290191027518
0.3329834 -0.107877076243446 0.9167562143457686
0.3349833 -0.09929257729515786 0.9179229224968166
0.3369832 -0.09051182795723349 0.919369674233101
0.3389831 -0.08239123753053024 0.9201581398257496
0.340983 -0.07350788655249252 0.9210774142396209
0.3429829 -0.0649586386840624 0.9224857909493158
0.3449828 -0.05626953636851004 0.9228872069291904
0.3469827 -0.04765969800566189 0.9240686260305532
0.3489826 -0.038993197786013886 0.9250423625750578
0.3509825 -0.03064704397214994 0.9254464956047732
0.3529824 -0.02183513979151805 0.9258934785094473
0.3549823 -0.013240938719950699 0.9264074442168547
0.3569822 -0.004338980711269575 0.9267791776139167
0.3589821 0.00422268005553076 0.92709235401242
0.360982 0.012986711179493734 0.9273470135349765
0.3629819 0.021392246635935815 0.9271721144445603
0.3649818 0.02981381410097237 0.9274239848608733
0.3669817 0.03860233665839309 0.9275372581164373
0.3689816 0.04717198592479509 0.9269529686574705
0.3709815 0.05554514674391417 0.9269085582282224
0.3729814 0.06419203552009439 0.927065368182087
0.3749813 0.07289016773000029 0.926321696835439
0.3769812 0.08146063923094406 0.9258390677030828
0.3789811 0.09021753741261318 0.925337526344992
0.380981 0.0986818394728887 0.9248356193569601
0.3829809 0.10742531538977339 0.9241501110645878
0.3849808 0.11608776912601901 0.9231089920396925
0.3869807 0.12511751334556798 0.9222073760129487
0.3889806 0.13318323504338256 0.9209678377918362
0.3909805 0.14225345557288202 0.9195802183395551
0.3929804 0.150861582006543 0.9184464944334183
0.3949803 0.15987025435853458 0.9169409893154323
0.3969802 0.16839302882483445 0.9156345816235976
0.3989801 0.17747237363783505 0.9136233369429495
0.40098 0.18590173658465692 0.9124964117261957
0.4029799 0.1949979547188832 0.9108458081929057
0.4049798 0.20348586871756194 0.9091420104343949
0.4069797 0.2124544138549697 0.9072804045775068
0.4089796 0.220997632539795 0.9056778400702108
0.4109795 0.23003784138096958 0.9039070718710003
0.4129794 0.23898674774486411 0.9016183880115535
0.4149793 0.24772431870677106 0.8996104695210134
0.4169792 0.2563076253446889 0.897362571888268
0.4189791 0.2650733487493246 0.8951828213558413
0.420979 0.2738046971113576 0.89262168522869
0.4229789 0.282742555476471 0.8903072297018544
0.4249788 0.29114216085341993 0.8881561817678633
0.4269787 0.2996673377747934 0.8856434916730407
0.4289786 0.30823658708970403 0.8829988116567915
0.4309785 0.3166014023945002 0.8804106592707714
0.4329784 0.32555348282622965 0.8773167427602571
0.4349783 0.3338914655641202 0.8743862946156515
0.4369782 0.3426882637926204 0.8710154749682901
0.4389781 0.35106650277677354 0.8681429256525641
0.440978 0.35947925244914797 0.8652009382625168
0.4429779 0.36771113091719265 0.8617691575648194
0.4449778 0.3762870713984869 0.8585473105013796
0.4469777 0.38452709858279177 0.8549959756947164
0.4489776 0.3927046973296727 0.8511394119426852
0.4509775 0.40146352601741303 0.8478869466901088
0.4529774 0.40967582735457997 0.8443387414470818
0.4549773 0.4177500085710762 0.8405091665755737
0.4569772 0.4261018242960181 0.8364959978337653
0.4589771 0.4344663379534567 0.8323632701135842
0.460977 0.4426305199516005 0.8284656302629485
0.4629769 0.45089664770990534 0.824069377119398
0.4649768 0.45894799584702506 0.8194293177443195
0.4669767 0.46712810404721306 0.8152996324720904
0.4689766 0.4754865857780454 0.8108913828591109
0.4709765 0.4830739914758706 0.8065222124537796
0.4729764 0.4911383047425739 0.8021747957378765
0.4749763 0.4993371434470509 0.7977895705194337
0.4769762 0.507353395215081 0.7927320974791826
0.4789761 0.5154261329882227 0.7880912314187043
0.480976 0.5233570097416161 0.7831129704110148
0.4829759 0.5312280960382996 0.777982369715369
0.4849758 0.5388271394548999 0.7727956755118762
0.4869757 0.5467453690920739 0.7678198172108361
0.4889756 0.5542804006692436 0.7626380993611499
0.4909755 0.5623285569993538 0.7573855190679007
0.4929754 0.5699013674443428 0.7519717554703589
0.4949753 0.5771315036192405 0.7470159616519948
0.4969752 0.5847747357363519 0.7416404415370912
0.4989751 0.5923412013273864 0.7361433324641963
0.500975 0.5994549794828842 0.7308599353306792
0.5029749 0.606772174063519 0.7246723661182478
0.5049748 0.6134316788799281 0.7188033089174637
0.5069747 0.6209200664990218 0.7130344283596693
0.5089746 0.6278103958525283 0.7073501610771676
0.5109745 0.6350981729091371 0.7012548565314529
0.5129744 0.6423360801984771 0.6951296296913454
0.5149743 0.6494079366530506 0.6887016101503749
0.5169742 0.6559586829809927 0.6823290606024317
0.5189741 0.6629545011611302 0.6762593266380496
0.520974 0.6699164907742955 0.6697426310490319
0.5229739 0.6761929016506137 0.6628625085450284
0.5249738 0.6825766964960356 0.6563527946052474
0.5269737 0.689382750011728 0.6494503532264526
0.5289736 0.69604684861517 0.6429735503828681
0.5309735 0.7028080945037065 0.6356864180835521
0.5329734 0.7085542614328482 0.6287710992446283
0.5349733 0.7151733988736498 0.6217740693977417
0.5369732 0.7216247961218307 0.6143384184600758
0.5389731 0.7278572954873126 0.6075397583432474
0.540973 0.7342426557719895 0.6002326813291136
0.5429729 0.740650884370812 0.5931053345692934
0.5449728 0.7463748747050537 0.5853801585920929
0.5469727 0.7525197477183159 0.578162134760257
0.5489726 0.7583819225053734 0.5706700995207808
0.5509725 0.7642198220935252 0.5629774928956297
0.5529724 0.7700179386273425 0.5552015988686317
0.5549723 0.7760013660347 0.5476319313283446
0.5569722 0.7817553292581009 0.5398506774762619
0.5589721 0.7872690056036779 0.5320759314734952
0.560972 0.7927804698280714 0.5243632154438946
0.5629719 0.7985031895824752 0.5167135259425137
0.5649718 0.8039276899702612 0.5089665785312458
0.5669717 0.8091996417219287 0.5008343945281534
0.5689716 0.8141422561476885 0.49280678658180965
0.5709715 0.8195134594803798 0.4849203677883638
0.5729714 0.8244767283473229 0.47690115142935413
0.5749713 0.8295834534434093 0.4687303539515173
0.5769712 0.8340886499260032 0.4609001121864134
0.5789711 0.8394236616590648 0.4527419621042022
0.580971 0.8438730990658213 0.4443899290377433
0.5829709 0.848406355661021 0.4359775766262614
0.5849708 0.8525978494251669 0.4279581518434482
0.5869707 0.8572921066162718 0.4194784416608642
0.5889706 0.8613480550454375 0.410887637452599
0.5909705 0.8654090146555021 0.4019965148290299
0.5929704 0.869644280824606 0.3933732999580519
0.5949703 0.8736224332459502 0.38437239335691237
0.5969702 0.8772899885910616 0.3763002326620608
0.5989701 0.8815581942342816 0.3667582776388677
0.60097 0.8851139751395536 0.3580494465529018
0.6029699 0.8886012887442393 0.34932147328812607
0.6049698 0.8921868760890697 0.3403241583431773
0.6069697 0.8960728419370899 0.3314589703813614
0.6089696 0.899188768740236 0.3224623207684786
0.6109695 0.9023274478186161 0.3133977757261436
0.6129694 0.9054664003874494 0.30427466157660277
0.6149693 0.9091776523212717 0.29541807852137403
0.6169692 0.912720390956235 0.28588730285492436
0.6189691 0.9152066889433372 0.27690690561717735
0.620969 0.9180557810003838 0.2675341900522389
0.6229689 0.9210781545491766 0.258290133034886
0.6249688 0.9237984090362575 0.24934556446675998
0.6269687 0.926441440265558 0.23979513592568094
0.6289686 0.9288901212562597 0.23038975887367916
0.6309685 0.9309319524239822 0.22081911227473938
0.6329684 0.9337264070076422 0.21180959293634996
0.6349683 0.9359776721622743 0.20233440369697359
0.6369682 0.9380705777633914 0.1931410708260885
0.6389681 0.940168095995219 0.1835200988011813
0.640968 0.9425236955939649 0.17409560593245615
0.6429679 0.9439155959979102 0.16474096653590664
0.6449678 0.9457935612407106 0.15585785500280008
0.6469677 0.9470697414070677 0.14579366863264986
0.6489676 0.9492171603637246 0.13653659938882146
0.6509675 0.9497840520484606 0.1267222627660104
0.6529674 0.9517319543364292 0.11728091887833922
0.6549673 0.9525749278016801 0.1075957980351086
0.6569672 0.9539941407908406 0.09842697981484905
0.6589671 0.9550852390396204 0.08860937923461212
0.660967 0.9557788916066927 0.07879358000617173
0.6629669 0.956679361825131 0.06990027235313317
0.6649668 0.9571211580191666 0.06005742227528003
0.6669667 0.9581315282027448 0.05086193921375437
0.6689666 0.9583797342632974 0.04030959994541812
0.6709665 0.958881283984425 0.031116106650954448
0.6729664 0.9594829417683326 0.02141476305470371
0.6749663 0.9597583954351676 0.011789169480869745
0.6769662 0.9598999391166412 0.0022862522759549003
0.6789661 0.9597787713440531 -0.007255275899798172
0.680966 0.9600191295651813 -0.01706613386501397
0.6829659 0.9596758967604216 -0.026583738935281306
0.6849658 0.9595335099674095 -0.036243381876434125
0.6869657 0.9591898941957904 -0.04570606648562072
0.6889656 0.9589797082770949 -0.05550943333263829
0.6909655 0.9582006172620716 -0.0650862726516271
0.6929654 0.9576356859979159 -0.0748598776456083
0.6949653 0.9571143308033857 -0.0843412586318102
0.6969652 0.9559746750195014 -0.09368888892787951
0.6989651 0.9552749295890729 -0.10296984308229323
0.700965 0.9541839344855315 -0.11278161404232998
0.7029649 0.9531078736773897 -0.1224187686131751
0.7049648 0.952003365344924 -0.13161803998656613
0.7069647 0.9507717320552845 -0.14107226523993
0.7089646 0.9491364059400386 -0.15026530994410323
0.7109645 0.9477923722104293 -0.15991927934845082
0.7129644 0.945735972723242 -0.16920797802478088
0.7149643 0.9440473394491744 -0.1785770764587751
0.7169642 0.9421587512038262 -0.18764182054504133
0.7189641 0.9410608627172817 -0.19740209046509627
0.720964 0.9385263813760758 -0.20642522729356722
0.7229639 0.9365257131251626 -0.21606315927822828
0.7249638 0.9342452374193738 -0.22512684335016842
0.7269637 0.9318829365454236 -0.23420233076214317
0.7289636 0.9293026751744411 -0.2440444912460484
0.7309635 0.9267697683180807 -0.2524824793516725
0.7329634 0.9244414032074312 -0.26226790722751314
0.7349633 0.9213951862124355 -0.2713533771910485
0.7369632 0.9193482764623567 -0.28074380769849566
0.7389631 0.9155794234233988 -0.2894883892214406
0.740963 0.9129741765079576 -0.29870533716465186
0.7429629 0.9098353344558241 -0.30782918973621354
0.7449628 0.9073281826845574 -0.31697416972081993
0.7469627 0.9039689924632637 -0.32575116321244624
0.7489626 0.9006361420589698 -0.3350583349812407
0.7509625 0.897077630063491 -0.34342055542379935
0.7529624 0.8941641924207941 -0.3529649383829441
0.7549623 0.8908790410628724 -0.36188664930264547
0.7569622 0.8874023233503985 -0.3705122722977227
0.7589621 0.8836051009929059 -0.37939279000815024
0.760962 0.8802237773753758 -0.3880142901073252
0.7629619 0.8761803966120869 -0.3967238170150029
0.7649618 0.8727030343786287 -0.40533109224556446
0.7669617 0.8687429947589818 -0.4129818827070647
0.7689616 0.8647718146699946 -0.42168321371549655
0.7709615 0.8604237250607127 -0.4304329778672456
0.7729614 0.8559280327725348 -0.4383102342546289
0.7749613 0.8525088922336299 -0.44655709104111535
0.7769612 0.8479215030952294 -0.45537427313302403
0.7789611 0.8432433284267218 -0.4627884458994988
0.780961 0.8388099707793094 -0.47090267076943204
0.7829609 0.8340793758747675 -0.4786875663980298
0.7849608 0.8294140529804439 -0.4869037149095512
0.7869607 0.8247466634433466 -0.4947724846328171
0.7889606 0.8196622128642499 -0.5023054121913951
0.7909605 0.8147488773051587 -0.510086303710217
0.7929604 0.8099130663749468 -0.5180119843238019
0.7949603 0.8045467633124083 -0.5257569008076047
0.7969602 0.7988847224956762 -0.5333541187829198
0.7989601 0.7936435219033979 -0.540970474938957
0.80096 0.7882997647517005 -0.5485968618368879
0.8029599 0.7828017308709063 -0.5557824486434026
0.8049598 0.7774061801054672 -0.563397752257001
0.8069597 0.771720494422854 -0.571201976364752
0.8089596 0.7657313495938987 -0.5785422213046383
0.8109595 0.7600712161588958 -0.5862598062908987
0.8129594 0.7541456858109485 -0.5934124889913578
0.8149593 0.7483933409525286 -0.6009903303875735
