! Created with skrf 1.8.0 (http://scikit-rf.org).
# GHz S RI R 50.0 
!freq ReS11 ImS11
0.001 0.996763245593252 -0.0056385646312782905
0.0029999 0.9951634820310941 -0.01426115842904431
0.0049998 0.9944127764534666 -0.021229856551813274
0.0069997 0.9935171961015206 -0.028025316666965356
0.0089996 0.9925781655468354 -0.034976272056576406
0.0109995 0.9920268935996939 -0.04236691227254995
0.0129994 0.9919129593130587 -0.049518767199316305
0.0149993 0.991150978296202 -0.05680331711880626
0.0169992 0.9907722166736687 -0.06367109181284084
0.0189991 0.9901726839348136 -0.07127416649598223
0.020999 0.9896596390036978 -0.07890615767630473
0.0229989 0.9887995397730172 -0.08593296255865816
0.0249988 0.9879079658279377 -0.09328435561524258
0.0269987 0.9872409101174461 -0.10041154816148525
0.0289986 0.9866284495190596 -0.10802848403726778
0.0309985 0.9854755291049665 -0.11508203096334735
0.0329984 0.9844415501992743 -0.12227636139062754
0.0349983 0.9836397283161519 -0.12967791615052182
0.0369982 0.9829586109819832 -0.1370345778032055
0.0389981 0.9814492277798433 -0.14437942579922794
0.040998 0.9807150943194507 -0.15149215637455393
0.0429979 0.9792445296116533 -0.1586071936485074
0.0449978 0.9779734241649604 -0.16598355362143807
0.0469977 0.9767559254947473 -0.17324450830495233
0.0489976 0.9754817218716456 -0.1802646138675039
0.0509975 0.9737185640952563 -0.1875334525606942
0.0529974 0.972565551259315 -0.19466552884149813
0.0549973 0.9709580459923033 -0.20210465756791884
0.0569972 0.9693381911974026 -0.2090338568068563
0.0589971 0.9676715502572977 -0.21638622833661042
0.060997 0.9656767333053796 -0.22353756640780814
0.0629969 0.9641727574049385 -0.23086754979413077
0.0649968 0.9622853693851042 -0.23789185487123674
0.0669967 0.960749471236404 -0.24488282430662667
0.0689966 0.9586975727889395 -0.25210975749411413
0.0709965 0.9563397982789893 -0.2593381348276885
0.0729964 0.954903018199049 -0.2666501200338752
0.0749963 0.9527463628709061 -0.27337546528021567
0.0769962 0.9505878359661426 -0.28041059028776605
0.0789961 0.9484289131187097 -0.28745504346248335
0.080996 0.9462692819257488 -0.29445734649992983
0.0829959 0.9438771473012179 -0.3013481073455016
0.0849958 0.9419544565285196 -0.30849546173616627
0.0869957 0.9392784008841233 -0.3153908467013323
0.0889956 0.9371557467172873 -0.32234484332429747
0.0909955 0.9345643960577078 -0.32915277084997874
0.0929954 0.9322062033121439 -0.33610564006204785
0.0949953 0.9297376528110834 -0.34294420378700347
0.0969952 0.9271893562995522 -0.3500638691823064
0.0989951 0.9241910178746778 -0.35673045081566607
0.100995 0.9216135177668036 -0.3629079740837738
0.1029949 0.9188853828016691 -0.37033612889986645
0.1049948 0.916180802562149 -0.37653844690064403
0.1069947 0.9130353360423836 -0.3836291785370248
0.1089946 0.9103358840783855 -0.3903131212968586
0.1109945 0.907789760943162 -0.3966540198168801
0.1129944 0.9046283249172412 -0.4033094475214193
0.1149943 0.9013261560466005 -0.40989218380138603
0.1169942 0.8982840379719528 -0.41643499458923633
0.1189941 0.8948009887290952 -0.42266762965993954
0.120994 0.8918694109051301 -0.4294645369301129
0.1229939 0.888411566501853 -0.4359261123476504
0.1249938 0.8848888668889724 -0.4426162777906327
0.1269937 0.881672028830367 -0.4488900449102767
0.1289936 0.87791828946342 -0.45525142687421083
0.1309935 0.8746897898258404 -0.46157108529007845
0.1329934 0.8710525416370363 -0.46813947638865333
0.1349933 0.8676322392282152 -0.47437757597891866
0.1369932 0.8636452852917236 -0.4807157495668587
0.1389931 0.8598325170431593 -0.48704581302432026
0.140993 0.8559960106759329 -0.4934166222644619
0.1429929 0.8525928541013049 -0.5001807560951873
0.1449928 0.8485262968004269 -0.5062814097195852
0.1469927 0.84470248902234 -0.5122500918755286
0.1489926 0.8408368132745746 -0.5186743783658625
0.1509925 0.8371144228002938 -0.5248214399059586
0.1529924 0.8331201218286407 -0.5312266068501561
0.1549923 0.8292845601582718 -0.5371527312090169
0.1569922 0.8253200302666459 -0.5434508443877403
0.1589921 0.8214946813051921 -0.5495755490274907
0.160992 0.8174105914861856 -0.5555523174826436
0.1629919 0.8134437622599567 -0.5610142621751193
0.1649918 0.8093083230829243 -0.5670282281286891
0.1669917 0.8050204915412144 -0.5731644375223979
0.1689916 0.8008627874340999 -0.5787073961134255
0.1709915 0.7966765705246721 -0.584268975606065
0.1729914 0.7927726815375152 -0.5904390596239576
0.1749913 0.7880581037378723 -0.596190889307884
0.1769912 0.7840248080806529 -0.6016725576862986
0.1789911 0.7794382960350018 -0.607096900975329
0.180991 0.7748509400728846 -0.6129271648052886
0.1829909 0.7707557910886622 -0.6182684188698374
0.1849908 0.7657426600470164 -0.6238201912289543
0.1869907 0.7612417417152791 -0.6288678051775154
0.1889906 0.7567676849816503 -0.6339657101159792
0.1909905 0.7521682055856918 -0.6391074863851169
0.1929904 0.7470566013632205 -0.6441442999631175
0.1949903 0.742459224778202 -0.6492923566846412
0.1969902 0.7376981797832756 -0.654521615245347
0.1989901 0.7325808849475669 -0.6594766666934604
0.20099 0.727334792469492 -0.6650080934729558
0.2029899 0.7225417076228456 -0.669945788783323
0.2049898 0.7173614114778952 -0.6750435804347555
0.2069897 0.7125387257887242 -0.6799713231712479
0.2089896 0.7071058931796788 -0.684976197651558
0.2109895 0.7018001407913687 -0.6897964402324551
0.2129894 0.6966581427637861 -0.6948835181139078
0.2149893 0.691193929142784 -0.6999521168914292
0.2169892 0.6858527471641352 -0.7051459105051651
0.2189891 0.6805263562113572 -0.7100869087471968
0.220989 0.6752489737623265 -0.7148908597610956
0.2229889 0.6699334807203133 -0.7196528809905322
0.2249888 0.664714484896426 -0.7243272600728495
0.2269887 0.6595313743403034 -0.7293453887612944
0.2289886 0.6540877252008678 -0.7337707594982862
0.2309885 0.6488415740830453 -0.7387364214639403
0.2329884 0.6434097106102321 -0.7438074488379042
0.2349883 0.6380363669762101 -0.7478603362508699
0.2369882 0.6322542190207451 -0.7529983123194817
0.2389881 0.6268609436895202 -0.7572348897349648
0.240988 0.6214867939812513 -0.761572880789664
0.2429879 0.6162831327296167 -0.7662198648969574
0.2449878 0.6106824495093898 -0.7702950480781682
0.2469877 0.6051659171501714 -0.774562874569533
0.2489876 0.5994986021176449 -0.7790131886671434
0.2509875 0.5941218355942568 -0.7828542215900632
0.2529874 0.5886277195468892 -0.7872469160571679
0.2549873 0.5834267479652856 -0.7912845210558703
0.2569872 0.5774133802815075 -0.7948990679272817
0.2589871 0.5717933275610911 -0.7990207156882182
0.260987 0.5662341376404715 -0.8030006500495802
0.2629869 0.5600445578100096 -0.8067968125835909
0.2649868 0.5546837825999404 -0.8106236501423651
0.2669867 0.5487249181230661 -0.8139682333331307
0.2689866 0.5426204381266184 -0.8174874345982267
0.2709865 0.5368888797664896 -0.8211011569509983
0.2729864 0.5309658463853295 -0.8246876698467644
0.2749863 0.5251703138002404 -0.8281278581523431
0.2769862 0.518920714149335 -0.8319798460275165
0.2789861 0.5128743121825521 -0.835201259926357
0.280986 0.5067458768998641 -0.8386931574417437
0.2829859 0.5005000598404802 -0.8421275413330551
0.2849858 0.4948344147529774 -0.8455808909423882
0.2869857 0.4885020481455148 -0.8488523330904922
0.2889856 0.48235667641022606 -0.8518775498557256
0.2909855 0.47585588826789843 -0.8550342411499449
0.2929854 0.4696421592437139 -0.8584238121693443
0.2949853 0.4632596109080655 -0.8616659633400066
0.2969852 0.45739917129017593 -0.8651580774976396
0.2989851 0.4511683446487848 -0.8685240799506064
0.300985 0.4450489320221058 -0.8712413776375458
0.3029849 0.4386726360745848 -0.8742278867889781
0.3049848 0.4324980025387192 -0.8773489441330655
0.3069847 0.42615889964579556 -0.8801688369443078
0.3089846 0.42035004836526285 -0.8831343223144708
0.3109845 0.41395538546334365 -0.8861591341763164
0.3129844 0.4072844065523666 -0.889310361573156
0.3149843 0.40142725521582356 -0.8917806190549675
0.3169842 0.39539599729795155 -0.8947670393114425
0.3189841 0.38887222320615866 -0.89709261461724
0.320984 0.38293200055261806 -0.8997923606036553
0.3229839 0.37666023117014286 -0.9023634077129296
0.3249838 0.3702983413151289 -0.9046017912949592
0.3269837 0.3640068639328083 -0.9069559620175809
0.3289836 0.35791099307975527 -0.9095218153583515
0.3309835 0.35178587607848316 -0.911686632521357
0.3329834 0.34502024020591815 -0.913838500888526
0.3349833 0.3389308474032758 -0.9163388251806168
0.3369832 0.3325800712750583 -0.918419819973148
0.3389831 0.32618971865518215 -0.9202815845505369
0.340983 0.3200037978539375 -0.9222482881274898
0.3429829 0.313263079808758 -0.9244491928781208
0.3449828 0.3068985120966566 -0.9263207521940484
0.3469827 0.3008753830017986 -0.9277552709050251
0.3489826 0.29424606793558755 -0.9295840875901538
0.3509825 0.2877591979436457 -0.9317454521425188
0.3529824 0.28139884899829815 -0.9333982612729383
0.3549823 0.2749343453601636 -0.9350249188158145
0.3569822 0.2681934150643298 -0.9365481500544619
0.3589821 0.26141999417292966 -0.9379364490890753
0.360982 0.2551569789217603 -0.9393978765239692
0.3629819 0.24849282526548572 -0.9408805460873171
0.3649818 0.24182749686856883 -0.9422592170555333
0.3669817 0.23505413207623047 -0.9436744607565967
0.3689816 0.22818612006573605 -0.9450676788069604
0.3709815 0.2218901829114434 -0.9469105136579723
0.3729814 0.21517780542521642 -0.9481364384023829
0.3749813 0.2085801876794393 -0.9495018219349084
0.3769812 0.20223221755324455 -0.9503218061729893
0.3789811 0.19512571505071277 -0.9519261100249938
0.380981 0.1887133715771298 -0.9533774111608105
0.3829809 0.18222473772765513 -0.9544812164258676
0.3849808 0.17559699001143858 -0.9555231676451243
0.3869807 0.16892032754532332 -0.9569085877104051
0.3889806 0.1625130969482915 -0.9575680169965212
0.3909805 0.15605690837753855 -0.9589435452047042
0.3929804 0.14935307166460632 -0.9595525766330357
0.3949803 0.14298343339532862 -0.9607620786154084
0.3969802 0.13627166804855684 -0.9616324388683447
0.3989801 0.13030940997418194 -0.9624056955465893
0.40098 0.1232991634084559 -0.96313636473875
0.4029799 0.11733411140655578 -0.963824048601199
0.4049798 0.11068757021887916 -0.9646424404609151
0.4069797 0.10424473952647366 -0.9650967755005695
0.4089796 0.098246051320144 -0.9655379753293113
0.4109795 0.09156030489320853 -0.9659344074740219
0.4129794 0.08473581495267786 -0.9663652424187537
0.4149793 0.07872575208047972 -0.966787331922666
0.4169792 0.07203682753440108 -0.9670482620399035
0.4189791 0.06557914722226735 -0.9677451112148765
0.420979 0.059323513896086776 -0.9675672821805344
0.4229789 0.0525951250606668 -0.9678287003662399
0.4249788 0.04628002574375571 -0.967788251128997
0.4269787 0.03978884321954565 -0.9678738343677982
0.4289786 0.033356730758598054 -0.968379383637999
0.4309785 0.026727097073119377 -0.9679206887424231
0.4329784 0.020222347974610852 -0.967841438408389
0.4349783 0.013893315908116998 -0.9677187187583176
0.4369782 0.007860520070473238 -0.9675251692830795
0.4389781 0.0008401877159294052 -0.9674848609053911
0.440978 -0.005648105739286917 -0.9674509183675735
0.4429779 -0.011657635355666891 -0.9669355486572866
0.4449778 -0.01864228348041655 -0.9668853311197904
0.4469777 -0.02513221104076705 -0.9663018709747927
0.4489776 -0.031382190847680465 -0.966226893413323
0.4509775 -0.03777060532479694 -0.9653606950928053
0.4529774 -0.044509329605695785 -0.9649515987238886
0.4549773 -0.050727495634151305 -0.964937551445329
0.4569772 -0.05705407893189238 -0.9639452484293245
0.4589771 -0.06330299970897317 -0.9633847588651184
0.460977 -0.0696893959110469 -0.9632126244524356
0.4629769 -0.07602164868729498 -0.9624864699081666
0.4649768 -0.08220410521121764 -0.9620108379373249
0.4669767 -0.08834674946815309 -0.9612131485462974
0.4689766 -0.0946012192422296 -0.9604143761976865
0.4709765 -0.10088713154076759 -0.9593394773691972
0.4729764 -0.1071379891255516 -0.9586098723025586
0.4749763 -0.11349817287284028 -0.9577241363344344
0.4769762 -0.11970673201811263 -0.9569263770156003
0.4789761 -0.12559460505728604 -0.9557627335587092
0.480976 -0.13175142115442845 -0.9549225377170222
0.4829759 -0.13816095607267467 -0.9538163767763577
0.4849758 -0.14440847905797483 -0.9526979640925081
0.4869757 -0.150514566286433 -0.9520710677359315
0.4889756 -0.15690782345920012 -0.9499998575298947
0.4909755 -0.1630216412491224 -0.9489689127137699
0.4929754 -0.1691945956853698 -0.9476239626487848
0.4949753 -0.17531621077547632 -0.9459645210707656
0.4969752 -0.18190347671639306 -0.9443056518000301
0.4989751 -0.18772844170042186 -0.9429279137290174
0.500975 -0.19388229862609868 -0.9412357142148172
0.5029749 -0.2001391866682082 -0.9398753218717562
0.5049748 -0.20634715911236784 -0.9380177032163849
0.5069747 -0.21275393727304864 -0.9368174826536083
0.5089746 -0.2188487129255976 -0.9349656750685674
0.5109745 -0.2247130534389446 -0.9341387921979157
0.5129744 -0.23103550221660804 -0.932493645109902
0.5149743 -0.23680158267376886 -0.9307596961598473
0.5169742 -0.24308008162453057 -0.929354243646281
0.5189741 -0.24894463756318697 -0.9275376848059742
0.520974 -0.2555257989025658 -0.926158677995627
0.5229739 -0.2612237169613095 -0.9242813217137591
0.5249738 -0.2669882926397971 -0.922036313190419
0.5269737 -0.27346026733136575 -0.9203306915447812
0.5289736 -0.2793928601107783 -0.9189004952317561
0.5309735 -0.2849498093925382 -0.9169662662753073
0.5329734 -0.2908468700205605 -0.9152526565438883
0.5349733 -0.29666395654742045 -0.9133196132322772
0.5369732 -0.30262409028553994 -0.9113983436391149
0.5389731 -0.3082817323492782 -0.9097100285937489
0.540973 -0.3139675533646607 -0.9072623217604686
0.5429729 -0.3194338813047015 -0.9050196391540405
0.5449728 -0.3252391169807255 -0.902737839479145
0.5469727 -0.33033845283071617 -0.9008489104591737
0.5489726 -0.33624248763452813 -0.8987350471782811
0.5509725 -0.3413455956506145 -0.8963655679058475
0.5529724 -0.34717785068423807 -0.8942047410342804
0.5549723 -0.3526192065687396 -0.8918513348871242
0.5569722 -0.3583274375262482 -0.8891234778136985
0.5589721 -0.3635643867464075 -0.8866937076669621
0.560972 -0.36908257385413357 -0.8840324889937162
0.5629719 -0.3740590272851223 -0.8814683068248096
0.5649718 -0.3793682757504439 -0.8785636475934189
0.5669717 -0.38515281439577714 -0.8758769378869423
0.5689716 -0.39055264405094325 -0.8728654639760998
0.5709715 -0.39625350077171767 -0.8702717933940541
0.5729714 -0.40136501563353366 -0.8673548781879913
0.5749713 -0.4066327290370642 -0.8640586749471326
0.5769712 -0.4121087209681865 -0.8614527160360234
0.5789711 -0.41821090011209994 -0.8586700521308775
0.580971 -0.4238747299850821 -0.8557918047192388
0.5829709 -0.4292938168850195 -0.8529019869577247
0.5849708 -0.4346641105344896 -0.8499807322695201
0.5869707 -0.4402249654632071 -0.8473066216978064
0.5889706 -0.44577911359391204 -0.844255102698651
0.5909705 -0.4503966868747406 -0.8413094192932081
0.5929704 -0.45587366842042903 -0.8384284243359389
0.5949703 -0.46152573021845233 -0.8353527258719653
0.5969702 -0.4662790717778783 -0.8325020919395898
0.5989701 -0.47202607476137826 -0.8297253536283355
0.60097 -0.4770508826967825 -0.8266942115204731
0.6029699 -0.48237483286412536 -0.8233601320250332
0.6049698 -0.48747163365849877 -0.820285973765764
0.6069697 -0.49280759986114475 -0.8173174707232078
0.6089696 -0.4976511147737622 -0.8139879348298963
0.6109695 -0.502436351234732 -0.8108610069398996
0.6129694 -0.507554678575321 -0.8079077371387697
0.6149693 -0.5128167150328538 -0.8046147343668343
0.6169692 -0.5177062999498722 -0.8017065981729986
0.6189691 -0.5221429104997064 -0.7984251931229621
0.620969 -0.5268572535675365 -0.7952442633306324
0.6229689 -0.5318625637450805 -0.791743588891255
0.6249688 -0.5365148575040606 -0.788424424737206
0.6269687 -0.5410843117387614 -0.7851758881292712
0.6289686 -0.5459841506116954 -0.7815125117689566
0.6309685 -0.5503681550705029 -0.7782117980395343
0.6329684 -0.5550492613859301 -0.7745331383370289
0.6349683 -0.5595547011064271 -0.7702750842471998
0.6369682 -0.5635864645549936 -0.7664547910395778
0.6389681 -0.568232473724885 -0.7629177700718692
0.640968 -0.573045752722133 -0.7584080954872235
0.6429679 -0.5775594618651856 -0.7548726460058091
0.6449678 -0.5825140588813128 -0.7507218127771805
0.6469677 -0.5870243746906487 -0.7467384332934152
0.6489676 -0.591905704378222 -0.7432052241990359
0.6509675 -0.5959479440471855 -0.739115338105686
0.6529674 -0.6006863152101419 -0.735350656753605
0.6549673 -0.605411132734606 -0.7316897102608784
0.6569672 -0.6099358307436537 -0.7275604076968754
0.6589671 -0.6147389038869249 -0.7235629840444504
0.660967 -0.6193705572043735 -0.7195058041533617
0.6629669 -0.62423768367216 -0.7158102859764153
0.6649668 -0.6284155353091105 -0.7121716753235665
0.6669667 -0.6331791132632244 -0.708331111172278
0.6689666 -0.6376273870080914 -0.7043239883007765
0.6709665 -0.6417053701974929 -0.6995945923498667
0.6729664 -0.6462507323411313 -0.6962110972081323
0.6749663 -0.6500025640646261 -0.6918681717756825
0.6769662 -0.6546353496445435 -0.6877552850615305
0.6789661 -0.6589316198679744 -0.6835593788551921
0.680966 -0.6629819584129135 -0.6801025585875647
0.6829659 -0.6673786806607379 -0.676348249726496
0.6849658 -0.6710646907861182 -0.6718715449236643
0.6869657 -0.6753404185088473 -0.6678078239902691
0.6889656 -0.6791032780708943 -0.6639852146219151
0.6909655 -0.6830355651382727 -0.6599037574568526
0.6929654 -0.6869145978175697 -0.6558096726699575
0.6949653 -0.6908199487582078 -0.651632743133885
0.6969652 -0.6945660727532184 -0.6475998114514092
0.6989651 -0.6982997346251739 -0.6434950959693274
0.700965 -0.7017842026887172 -0.6391740154558592
0.7029649 -0.7058753536955641 -0.6350239580280166
0.7049648 -0.7088146159633997 -0.6303420076938067
0.7069647 -0.7124366262805814 -0.6259675302748002
0.7089646 -0.7157111297378274 -0.6218873603033526
0.7109645 -0.7193315085186697 -0.6168254332888017
0.7129644 -0.7228017122588037 -0.6122518615751226
0.7149643 -0.7260779177586463 -0.607439306716546
0.7169642 -0.7295624443761822 -0.6032142807999703
0.7189641 -0.7334592595517537 -0.5984297437570534
0.720964 -0.7369181110645597 -0.5937188609074739
0.7229639 -0.7402988008324844 -0.5891753104575449
0.7249638 -0.7429791795453513 -0.5843160484581553
0.7269637 -0.7466794803807424 -0.5792735811473201
0.7289636 -0.750142091194419 -0.5745566224111701
0.7309635 -0.7538699573460669 -0.5697223010845069
0.7329634 -0.7571047291999411 -0.564865147962479
0.7349633 -0.7607549818655361 -0.5605554150928798
0.7369632 -0.7645397896573034 -0.55565688100905
0.7389631 -0.767830646143575 -0.5506886207217901
0.740963 -0.7713557000739011 -0.5459159829148208
0.7429629 -0.774330777886368 -0.5409992580387145
0.7449628 -0.7778506246093282 -0.5361232382933396
0.7469627 -0.7813317550398301 -0.531651667364586
0.7489626 -0.7844765684477008 -0.5268764981886632
0.7509625 -0.7877313718781719 -0.5220289389157081
0.7529624 -0.7913254067583886 -0.5173631446305641
0.7549623 -0.7942001308711418 -0.5123201520704884
0.7569622 -0.7975513248472357 -0.5079223151178425
0.7589621 -0.8003094000349101 -0.5030997752700161
0.760962 -0.8035388656718797 -0.4980545027020005
0.7629619 -0.8061961849864012 -0.49336060121280073
0.7649618 -0.8091843316595037 -0.4884555411358275
0.7669617 -0.8116958747751136 -0.48393480899984964
0.7689616 -0.8147014953098559 -0.4791132840343786
0.7709615 -0.817579274692755 -0.47425246483772077
0.7729614 -0.8201929565229548 -0.46922055786602046
0.7749613 -0.8231552003001416 -0.4643723285652774
0.7769612 -0.8255433806232657 -0.4595402840333388
0.7789611 -0.8283966996394296 -0.45468514464408194
0.780961 -0.8309829412915823 -0.44993118105252655
0.7829609 -0.8334789507863403 -0.44469361731585694
0.7849608 -0.8356864068676388 -0.4396935197226392
0.7869607 -0.8383287134298114 -0.434467748903434
0.7889606 -0.840702759781141 -0.42945178379551735
0.7909605 -0.8431297556065065 -0.4244384091547575
0.7929604 -0.8453641485859251 -0.41913708724687504
0.7949603 -0.8477326127447204 -0.4141635263911341
0.7969602 -0.8500815467038039 -0.40867665319040114
0.7989601 -0.852195646524162 -0.40362531726245643
0.80096 -0.8541367456221994 -0.3981900869308296
