! Created with skrf 1.8.0 (http://scikit-rf.org).
# GHz S RI R 50.0 
!freq ReS11 ImS11
0.001 -0.9304781322943356 0.00547292681385978
0.0029999 -0.9298195380406117 0.012102783115809722
0.0049998 -0.9293289164867974 0.019207256892807015
0.0069997 -0.9286866625931923 0.02622663537875044
0.0089996 -0.9282040468330304 0.03333225792000104
0.0109995 -0.9276989903032574 0.04037769000356162
0.0129994 -0.9271519925701914 0.04742227829705068
0.0149993 -0.9267179462582777 0.05409545341389352
0.0169992 -0.9257607941693233 0.061308136332628126
0.0189991 -0.9247806403244254 0.06825646393969677
0.020999 -0.9242116844881189 0.07533249575757914
0.0229989 -0.9235244799313075 0.08192928278465152
0.0249988 -0.9226507993398679 0.08918338473959861
0.0269987 -0.9218927432139641 0.09606420219395312
0.0289986 -0.9210213924164684 0.10304411849058334
0.0309985 -0.9198653951912742 0.10971850840571781
0.0329984 -0.9190772936900392 0.11694966104951873
0.0349983 -0.9179428590384001 0.12371442294822146
0.0369982 -0.9171873328568974 0.13084724132330328
0.0389981 -0.9157659174702619 0.13757417189442048
0.040998 -0.9147145884182205 0.14415253110507745
0.0429979 -0.913075974060909 0.15089646524836187
0.0449978 -0.9122585510590203 0.15781814718227136
0.0469977 -0.9108129721060443 0.1650170231612224
0.0489976 -0.9095923429030507 0.17157109304900545
0.0509975 -0.9080247004881142 0.17840314041705366
0.0529974 -0.9069463045954591 0.18540894068144514
0.0549973 -0.9052884936405557 0.19191540366895346
0.0569972 -0.903621412103225 0.19858128605677483
0.0589971 -0.9021090407231941 0.2051883381339729
0.060997 -0.9005962555206966 0.21189114875077047
0.0629969 -0.8989571104117478 0.21859918991189667
0.0649968 -0.8971947786739174 0.22513007551599037
0.0669967 -0.8957498714525072 0.2319084565179839
0.0689966 -0.8937456956735735 0.2386696400467718
0.0709965 -0.891717598479154 0.24524727817595915
0.0729964 -0.8900542666936685 0.25186644436918904
0.0749963 -0.8882088191412333 0.25828740502532516
0.0769962 -0.8858771623035483 0.2651226670169344
0.0789961 -0.8837863276752898 0.2714746331710977
0.080996 -0.8818778688587561 0.27819040251847776
0.0829959 -0.8796466978739252 0.28475260156554427
0.0849958 -0.8772122493410223 0.29108063482078167
0.0869957 -0.8749823540824666 0.29770018472074217
0.0889956 -0.8725637394216915 0.30444260758007863
0.0909955 -0.8703327197736201 0.3109180607477313
0.0929954 -0.8676173483068461 0.31725434469389835
0.0949953 -0.8655187128566989 0.3237174181848548
0.0969952 -0.8631045920179004 0.33002408575574876
0.0989951 -0.8602741983314487 0.3367401881367687
0.100995 -0.8577249374826439 0.3429454108794982
0.1029949 -0.8548453634787968 0.3492329875879743
0.1049948 -0.8524272467633767 0.3558913922376241
0.1069947 -0.8496027861825155 0.36225683683832144
0.1089946 -0.8467955842676748 0.36876076134707697
0.1109945 -0.8441629919763092 0.3751631806750685
0.1129944 -0.840946623733927 0.3813245138561876
0.1149943 -0.8380937919040508 0.3876011563560822
0.1169942 -0.8353698404450726 0.3942171781538238
0.1189941 -0.832439192580761 0.40051759235027296
0.120994 -0.8293064732392005 0.40673494978827823
0.1229939 -0.8263114403197303 0.41280157519303745
0.1249938 -0.8235483431336905 0.4189797253398762
0.1269937 -0.8202135965783276 0.42506904370014964
0.1289936 -0.8173445960252068 0.4315332920242003
0.1309935 -0.8138694200441579 0.4373574553802527
0.1329934 -0.8109109574795319 0.44362120831619106
0.1349933 -0.8076114091762051 0.4495589462830853
0.1369932 -0.8042114356125436 0.455651557695568
0.1389931 -0.8008068505991421 0.4613789542525246
0.140993 -0.797430251185588 0.4676615846211946
0.1429929 -0.7942208143881277 0.4734790516908705
0.1449928 -0.7903923631107379 0.47912751123125713
0.1469927 -0.7867669204511296 0.4851894316336521
0.1489926 -0.7830996971496751 0.4908579657716887
0.1509925 -0.7794380390278294 0.4968265743366717
0.1529924 -0.7756538133480065 0.5022505099732271
0.1549923 -0.7716170644604524 0.5078168865000176
0.1569922 -0.7676848660656932 0.5137231918513882
0.1589921 -0.7638067898069718 0.519740616335538
0.160992 -0.7596184456450065 0.5254555242793856
0.1629919 -0.7559626580730231 0.5309797204138706
0.1649918 -0.7518389453396362 0.5367587074498754
0.1669917 -0.7473346576182179 0.5422011523745367
0.1689916 -0.7433662415446515 0.5479844209741798
0.1709915 -0.7390931571220524 0.5535434652426224
0.1729914 -0.7343002784361068 0.5589438453489366
0.1749913 -0.7302495679382113 0.5646751918663244
0.1769912 -0.7258398991308179 0.5701941141506499
0.1789911 -0.7213745916029155 0.5756548312203663
0.180991 -0.7170161471401819 0.5816704404225354
0.1829909 -0.7126221737850228 0.5868515697332906
0.1849908 -0.708116579905749 0.592571716078667
0.1869907 -0.7038527146568347 0.5981784052802689
0.1889906 -0.698695464244499 0.603737200730985
0.1909905 -0.6939978704465731 0.6093519140321692
0.1929904 -0.689471198843401 0.6150366448480564
0.1949903 -0.6851800817801651 0.6202242190485452
0.1969902 -0.6806136941757928 0.6255850628935589
0.1989901 -0.6761724600416499 0.6306265297482303
0.20099 -0.6713541690930928 0.6359702602301928
0.2029899 -0.6667253729519865 0.641403180355137
0.2049898 -0.6616415807460699 0.6462800068342132
0.2069897 -0.656839949478929 0.6514799837713049
0.2089896 -0.6520367411113517 0.6565473509766167
0.2109895 -0.6470811967424288 0.6616400199708035
0.2129894 -0.6421681518380424 0.6665525500178909
0.2149893 -0.6372500187564807 0.6712336489299309
0.2169892 -0.6322793146431966 0.6765057267077634
0.2189891 -0.62732585286878 0.6813619192760346
0.220989 -0.6222117674417696 0.6857522345858033
0.2229889 -0.6172037404015606 0.6903918591913542
0.2249888 -0.6117453749805548 0.6950643303552564
0.2269887 -0.6063637185771195 0.6996743717253107
0.2289886 -0.6011444647282218 0.704446296409223
0.2309885 -0.5960207024333598 0.7085733532962715
0.2329884 -0.5903205327854641 0.7130383074208652
0.2349883 -0.5850008512905235 0.7177748914670535
0.2369882 -0.5791891245559483 0.7224072255707443
0.2389881 -0.5738365507639153 0.7266550017870943
0.240988 -0.5679648493121734 0.7307178687637379
0.2429879 -0.5622291718868807 0.7350541550699345
0.2449878 -0.5564743994132016 0.7392964033901155
0.2469877 -0.5507042057965873 0.7435141291663274
0.2489876 -0.5448339743551425 0.747973693921847
0.2509875 -0.5389720507301204 0.7520251389223053
0.2529874 -0.5331156596000062 0.756298685203433
0.2549873 -0.5268848409409018 0.7605087378715417
0.2569872 -0.5211415680458997 0.7649797257200294
0.2589871 -0.5150110126254508 0.7693349459641058
0.260987 -0.5088895662926872 0.7730627599244088
0.2629869 -0.5028910686266425 0.7772748368614275
0.2649868 -0.49707768086442045 0.7812687528927567
0.2669867 -0.4912253713379168 0.7854430422753635
0.2689866 -0.4850788214110562 0.7893090221935396
0.2709865 -0.4788735400325671 0.7932442118529119
0.2729864 -0.4728353238826833 0.7973869619337423
0.2749863 -0.4666331849723178 0.8008607331924504
0.2769862 -0.46035659183844496 0.8048793215900413
0.2789861 -0.4539657044411871 0.8084597569429718
0.280986 -0.44795204395297716 0.8122507468705594
0.2829859 -0.44173997928589637 0.8158001326064488
0.2849858 -0.43554198069987704 0.8193638880218114
0.2869857 -0.4291615689038181 0.8227874646462583
0.2889856 -0.4228783899638961 0.8262062474033522
0.2909855 -0.4165754750681413 0.8296693012349622
0.2929854 -0.4101031799171417 0.8330557217750667
0.2949853 -0.40362665957766547 0.8363089387521998
0.2969852 -0.3972079217569221 0.8392687105846834
0.2989851 -0.3908584729880821 0.8426104544677508
0.300985 -0.3839697063369028 0.8451647786573981
0.3029849 -0.37756774388337316 0.8483455485206296
0.3049848 -0.3709409747245526 0.8512303260576258
0.3069847 -0.3640314340018983 0.8538941881033396
0.3089846 -0.3574566522062192 0.8569051798496548
0.3109845 -0.35047075259300214 0.8596520834576772
0.3129844 -0.3436986738476335 0.8621841585875464
0.3149843 -0.33702072104969777 0.8648341086788943
0.3169842 -0.3300859223743793 0.8674193058694889
0.3189841 -0.32324034149426445 0.8698439335990578
0.320984 -0.3161774801168597 0.8730209458801816
0.3229839 -0.3088543031948875 0.8751900346067194
0.3249838 -0.3018530047639564 0.8780696266915147
0.3269837 -0.29498247816959366 0.8805048012809659
0.3289836 -0.2878582513606616 0.8827373417448262
0.3309835 -0.28026091380697576 0.8852444020969835
0.3329834 -0.27374614725549323 0.8875850560585955
0.3349833 -0.26636534064091616 0.8897640320578991
0.3369832 -0.2593832770336739 0.8922136732369148
0.3389831 -0.2521502199547962 0.8942045002834046
0.340983 -0.24499781488761377 0.8967643946249707
0.3429829 -0.23769461507117348 0.89871478198152
0.3449828 -0.23025938875297428 0.9010299620061505
0.3469827 -0.22306871980407603 0.9029746469007583
0.3489826 -0.2160997828090186 0.9052094008465893
0.3509825 -0.20875647874002398 0.9069701850902117
0.3529824 -0.2013395197847718 0.9090058929881972
0.3549823 -0.19430343975542952 0.9104574443488005
0.3569822 -0.18664698094396434 0.9122751260800868
0.3589821 -0.17955463450668877 0.9140018204230977
0.360982 -0.17214806999334406 0.9157360089621486
0.3629819 -0.1646444649239217 0.917123475256671
0.3649818 -0.1577307921566667 0.9183200044151337
0.3669817 -0.15033719995070183 0.9198305281881339
0.3689816 -0.14308951229430916 0.9211880938779291
0.3709815 -0.13583392582464593 0.9222877539952348
0.3729814 -0.12833733207599812 0.9236394210141947
0.3749813 -0.12100379614835502 0.9247889783091173
0.3769812 -0.11346328341603035 0.9260613512023793
0.3789811 -0.10622334407883899 0.9269964059041076
0.380981 -0.09878778226245374 0.9276227603526132
0.3829809 -0.0914582952157059 0.9284803640718432
0.3849808 -0.0837229339738327 0.9296160863287068
0.3869807 -0.07623231372827562 0.9302464791371967
0.3889806 -0.06865072469719628 0.9306103990662067
0.3909805 -0.06126101234537076 0.9313046799457946
0.3929804 -0.053664133873868175 0.9316628565151988
0.3949803 -0.04616704196406153 0.9323508859925909
0.3969802 -0.03819880747229637 0.932351041629597
0.3989801 -0.030127672199414684 0.9326845105037567
0.40098 -0.022602668032425277 0.932874872029636
0.4029799 -0.014908709996995602 0.9330199189142266
0.4049798 -0.006845564679307418 0.9337355233967758
0.4069797 0.0007939867965725163 0.9336884178211144
0.4089796 0.00831572428464825 0.9338108052046467
0.4109795 0.01646384648543929 0.9338209938207251
0.4129794 0.02418039769144663 0.9339383714588968
0.4149793 0.03169730779364058 0.9338925685279976
0.4169792 0.039819764503669336 0.9337575993046875
0.4189791 0.047213943232524716 0.9332286458287388
0.420979 0.05516009948554957 0.9331313183228505
0.4229789 0.06298408615133377 0.932684453342795
0.4249788 0.07071814167119528 0.9325805625962331
0.4269787 0.07814079836469096 0.9321621770056833
0.4289786 0.08618054527320994 0.9316392535083154
0.4309785 0.09359518107846221 0.9312177324061887
0.4329784 0.10156944578806078 0.930452359488311
0.4349783 0.10937865574731817 0.9298191866039501
0.4369782 0.11720936106995165 0.9288096365560149
0.4389781 0.12488906361780933 0.9280200790265789
0.440978 0.13287476535120976 0.9274404574511412
0.4429779 0.1401439608419947 0.926232535513053
0.4449778 0.1480750255564539 0.9254023056047413
0.4469777 0.15582026702869542 0.9237775561345786
0.4489776 0.16333207480673012 0.9227150695656704
0.4509775 0.17119032971494047 0.9213386541725241
0.4529774 0.17881941185786 0.9200143652361952
0.4549773 0.18681470685172 0.9190337020635307
0.4569772 0.19443639612800537 0.9174771517780319
0.4589771 0.20236977790670602 0.9158839600013768
0.460977 0.20998880284462484 0.9143987016237642
0.4629769 0.21781010991953542 0.9123079817466097
0.4649768 0.2256648836578257 0.9105760996703417
0.4669767 0.2333910413825196 0.9086279500998302
0.4689766 0.24133615004703377 0.9068910648842106
0.4709765 0.24867114454426922 0.9048305905313975
0.4729764 0.2562155311207768 0.9030795763474342
0.4749763 0.26423902552883394 0.901291948210578
0.4769762 0.2719817789179587 0.8986924665229712
0.4789761 0.27939366913989894 0.896710625230594
0.480976 0.28737130404317623 0.8946922440783679
0.4829759 0.29534519256174346 0.892512091287232
0.4849758 0.30316579102250224 0.8899934559524376
0.4869757 0.31017912150006055 0.8873358097533999
0.4889756 0.3179891758741211 0.8850790189270258
0.4909755 0.3256989449306438 0.882706165768042
0.4929754 0.3332447492527489 0.8799753769475129
0.4949753 0.34042488652184133 0.8775271176246521
0.4969752 0.3479124944663767 0.8748671890661157
0.4989751 0.35541590781505394 0.8721765107227724
0.500975 0.3627538697867321 0.8697379329873868
0.5029749 0.37020815146998404 0.8663643027202639
0.5049748 0.37746373968045555 0.8630718660284866
0.5069747 0.38478644330855516 0.8599084202433461
0.5089746 0.39163506326741104 0.8568345731390506
0.5109745 0.39922641498666966 0.8537863015569872
0.5129744 0.4066159971288597 0.850548362723358
0.5149743 0.4139672893959987 0.847136485878485
0.5169742 0.42130434849130066 0.8436929455592633
0.5189741 0.42839861781216304 0.8400591178144924
0.520974 0.4355065961208885 0.8365005051252544
0.5229739 0.4428034060036967 0.832712728342826
0.5249738 0.4496132907329017 0.8288433004518798
0.5269737 0.45687452572889825 0.8247372552559025
0.5289736 0.46383068024617313 0.8207282000095297
0.5309735 0.4715055419262072 0.8165358643314475
0.5329734 0.4782693766263394 0.8125333125132015
0.5349733 0.48501184364142447 0.8084795762646122
0.5369732 0.4922669609822598 0.8041115332214132
0.5389731 0.49936244919537737 0.7999684215339996
0.540973 0.506597267911041 0.7956034382275269
0.5429729 0.5134816893118413 0.7914997992411325
0.5449728 0.5207621005314483 0.7866738460602773
0.5469727 0.5278821230770259 0.7824016280443045
0.5489726 0.5345943544341244 0.7778813430523387
0.5509725 0.5411824500068961 0.7730027109742689
0.5529724 0.5483625983514313 0.7684417934011958
0.5549723 0.5552081730502709 0.7635582980604068
0.5569722 0.5621492757390081 0.7589635081240697
0.5589721 0.569154468505169 0.7541930341779617
0.560972 0.5759606365355647 0.7494059112945719
0.5629719 0.5827853393482397 0.7446434644320414
0.5649718 0.589448849192705 0.7398464078006042
0.5669717 0.5959129998986444 0.7351772899795432
0.5689716 0.6024238365249025 0.7296631298474616
0.5709715 0.6089819636969945 0.7246067504816492
0.5729714 0.6151654898073976 0.7197420352005743
0.5749713 0.6216832738023966 0.7148130660196667
0.5769712 0.6281244938450026 0.7093734617311958
0.5789711 0.6340254645107345 0.7042747910889453
0.580971 0.6400977743455799 0.6990767563416781
0.5829709 0.6465006829099013 0.6937886591938673
0.5849708 0.6526279530432267 0.6880940259476234
0.5869707 0.6580665974004163 0.6827856531942531
0.5889706 0.6644645973253777 0.6767227265038013
0.5909705 0.6700743017174268 0.6710074582498093
0.5929704 0.6762064146149759 0.6651293492077605
0.5949703 0.681506292599207 0.6591212241568795
0.5969702 0.6874150952847956 0.6531012273936793
0.5989701 0.6936425822901087 0.6466569053606365
0.60097 0.6988575037466912 0.6410326908857501
0.6029699 0.7044762070132219 0.6344057265858337
0.6049698 0.7101750188045194 0.6282192002017662
0.6069697 0.7155260474650731 0.6221658359334226
0.6089696 0.7212959197549046 0.615935042709717
0.6109695 0.7267064064221475 0.6095791731396242
0.6129694 0.7320762809741465 0.6029577524626942
0.6149693 0.7380055489179095 0.5967708135226849
0.6169692 0.7432819318714045 0.5901312261103102
0.6189691 0.748685677085197 0.5834763055336422
0.620969 0.7536845928918704 0.5772161589268842
0.6229689 0.7587371281538703 0.5701747668929701
0.6249688 0.7639195086477605 0.5635721026720883
0.6269687 0.769465076233465 0.5564098772607003
0.6289686 0.7744466537251822 0.549832900468395
0.6309685 0.7791463930671059 0.5429499569211764
0.6329684 0.784263957258315 0.5362858161828054
0.6349683 0.7895190122237228 0.5295834549330782
0.6369682 0.7941205087751032 0.522411148715964
0.6389681 0.7987555532362954 0.5157787612411364
0.640968 0.8041600886651071 0.5088632628530285
0.6429679 0.8082521828671331 0.5020302318635972
0.6449678 0.8131580189781824 0.4949606322752311
0.6469677 0.8171973744843507 0.4878226848861735
0.6489676 0.821660312333357 0.48124303406634217
0.6509675 0.825764354599778 0.47345656653511503
0.6529674 0.8305546888788207 0.4665492012268774
0.6549673 0.8343979714858003 0.4588733066195006
0.6569672 0.8384218534003188 0.45176421631647307
0.6589671 0.842589377061322 0.44413351741822293
0.660967 0.8462024689776316 0.4372752640354856
0.6629669 0.850021314609798 0.4292214733561673
0.6649668 0.8542803370968208 0.42241208791639334
0.6669667 0.8573534000908619 0.41485802042831255
0.6689666 0.8612357035082782 0.4074699103280562
0.6709665 0.8645620086427617 0.39961096777031785
0.6729664 0.8682193733594169 0.391709046828305
0.6749663 0.8716912266836937 0.38388186580757233
0.6769662 0.8749251793296882 0.3760754875830918
0.6789661 0.8787969920316905 0.3680988526815603
0.680966 0.8819053884613718 0.3606079223299582
0.6829659 0.8851446222049949 0.352636211528516
0.6849658 0.8883007929882248 0.3443965235739756
0.6869657 0.8908983893612903 0.33638039197891145
0.6889656 0.8944544483407469 0.32834813895002346
0.6909655 0.8970846246449893 0.32049322393247137
0.6929654 0.9001391274256584 0.3125245442684722
0.6949653 0.9029136575230832 0.3042658242333804
0.6969652 0.9055699708021508 0.2959607917988664
0.6989651 0.9084195137854844 0.28813239656962597
0.700965 0.9111608938426716 0.27965409087809623
0.7029649 0.9137598748002472 0.2717439683815486
0.7049648 0.9162612501023819 0.26348514315786115
0.7069647 0.9183621989230805 0.255210472163499
0.7089646 0.9211915177260451 0.24735532471034335
0.7109645 0.923324692183208 0.23892470003261737
0.7129644 0.9259559885544645 0.2310148908703621
0.7149643 0.9278161798428418 0.2225795205019302
0.7169642 0.9298351908726223 0.2143253533150457
0.7189641 0.9322945689531158 0.20625524620680435
0.720964 0.9338067092461774 0.19805558267735857
0.7229639 0.9355715555948378 0.18976879095632831
0.7249638 0.9377610016368482 0.18132505172834534
0.7269637 0.9392800863236571 0.17294330728469182
0.7289636 0.9407553243162955 0.16517975964919707
0.7309635 0.9423971475763806 0.15615241425989768
0.7329634 0.9436368566209191 0.14774225113222422
0.7349633 0.94487356193073 0.13956644266218826
0.7369632 0.9460157352562966 0.1312546420406865
0.7389631 0.9472635822707057 0.12316219431785289
0.740963 0.9482187117544524 0.11461732903102845
0.7429629 0.9495419179565733 0.1063650160063498
0.7449628 0.9503591343101649 0.09767063203143996
0.7469627 0.9512385870633251 0.08947354280243737
0.7489626 0.9518977734662384 0.08066641696175181
0.7509625 0.9518485854572326 0.07283143651979608
0.7529624 0.9532996083835398 0.06381196521161668
0.7549623 0.9537606999490797 0.055191336540138865
0.7569622 0.9542172142065588 0.046926846404066046
0.7589621 0.9549668115485777 0.038554453904493885
0.760962 0.9553087668989431 0.029866766294921108
0.7629619 0.9552495993288996 0.021343840633889204
0.7649618 0.9556244188177805 0.012754138204259316
0.7669617 0.9559066959612649 0.004497093837358961
0.7689616 0.9558701100238494 -0.0040151886098446846
0.7709615 0.9556968629734104 -0.01268329140736553
0.7729614 0.9557433185718495 -0.021079091127934588
0.7749613 0.9557417554839257 -0.02937197982268834
0.7769612 0.9555188543575553 -0.03790326412267202
0.7789611 0.9549579569818014 -0.04623668810452285
0.780961 0.9547455570049643 -0.05461975023357825
0.7829609 0.9539896681037847 -0.0633084325169351
0.7849608 0.953749931001173 -0.07145739907117095
0.7869607 0.9529882165048997 -0.07995338405834079
0.7889606 0.9521192465908841 -0.08873206702107804
0.7909605 0.9516128924655523 -0.09670959523144583
0.7929604 0.9507703943613303 -0.10527656518254444
0.7949603 0.9497170923823065 -0.1136855511549531
0.7969602 0.9482961943657204 -0.12218082115497744
0.7989601 0.947227809169431 -0.13033434337599
0.80096 0.946649958525607 -0.1388343769584795
0.8029599 0.9449215532546329 -0.14713103373930542
0.8049598 0.9435335850597525 -0.15517207461638352
0.8069597 0.9421918767465666 -0.16383626223168907
0.8089596 0.9407952286101418 -0.1720525693886745
0.8109595 0.9390297077681065 -0.18058186116748476
0.8129594 0.9374112672512859 -0.18911218818794703
