! Created with skrf 1.8.0 (http://scikit-rf.org).
# GHz S RI R 50.0 
!freq ReS11 ImS11
0.001 -0.9258188762696926 0.005224213157026281
0.0029999 -0.9252954660377147 0.010442670084567764
0.0049998 -0.9248335625222719 0.016336883287869655
0.0069997 -0.924307582622973 0.022376644247380693
0.0089996 -0.9238159442382687 0.028331321447915475
0.0109995 -0.9234899025624563 0.03418897151011538
0.0129994 -0.9229803295691981 0.0399993263280477
0.0149993 -0.9224485335599412 0.04583981449046404
0.0169992 -0.9219257225910084 0.05158247090177974
0.0189991 -0.9211220769545382 0.05738161100653236
0.020999 -0.9206945958778483 0.06335142303521901
0.0229989 -0.9200636821260086 0.06910381390668693
0.0249988 -0.9195864225494841 0.07498238440587968
0.0269987 -0.9190877889809683 0.0806487963345391
0.0289986 -0.9182342408376793 0.08653423689175237
0.0309985 -0.9174648746424092 0.09225296968612037
0.0329984 -0.916889950514237 0.0980950640852437
0.0349983 -0.916115539412868 0.10396863170263047
0.0369982 -0.915396249448251 0.10984951962789728
0.0389981 -0.9146489124666604 0.11543622832937424
0.040998 -0.9136738641594866 0.1211647255631309
0.0429979 -0.9125291039741575 0.12664808798684313
0.0449978 -0.9117819090337694 0.13287984105206782
0.0469977 -0.9108184718508812 0.138715235403932
0.0489976 -0.9100482889925207 0.14420999002397705
0.0509975 -0.9088644947248365 0.15005173343426498
0.0529974 -0.9082465600939491 0.15567425878396132
0.0549973 -0.9069042080880941 0.16129140492354824
0.0569972 -0.9057331992201305 0.16711278794222525
0.0589971 -0.9045323964309299 0.17251144605383012
0.060997 -0.9036252853865805 0.17832771764856484
0.0629969 -0.9022586352418636 0.18389785429604358
0.0649968 -0.901091483462847 0.1894757639928803
0.0669967 -0.9000690983454604 0.1951708498089417
0.0689966 -0.8986557840118375 0.20092427909145688
0.0709965 -0.8970326454338803 0.20637096171791902
0.0729964 -0.8958290046676328 0.21209251518618208
0.0749963 -0.8947086494431552 0.21760043878677637
0.0769962 -0.8928422432172698 0.223180790984123
0.0789961 -0.8914471267068501 0.22881299155541515
0.080996 -0.8899338170872266 0.2343080545994899
0.0829959 -0.8885694145427081 0.24006392599486992
0.0849958 -0.8866585542865859 0.245494385568569
0.0869957 -0.8851168590759012 0.2509990362262387
0.0889956 -0.8833764410772433 0.2565601182854053
0.0909955 -0.881698154295793 0.2620890990050845
0.0929954 -0.8797770252607499 0.26776820375514815
0.0949953 -0.8784164789016552 0.2729167639747233
0.0969952 -0.8764412646857863 0.27876993981392073
0.0989951 -0.8747013113195293 0.2842503920733289
0.100995 -0.872504605193258 0.2895582384194235
0.1029949 -0.8705693424904066 0.29498085966351445
0.1049948 -0.8689149061250093 0.30059844578134115
0.1069947 -0.8667625152858192 0.3060901876982498
0.1089946 -0.8648706180344857 0.31143334494933206
0.1109945 -0.8629808467520202 0.3171104130189867
0.1129944 -0.8606728078491751 0.32249363536015707
0.1149943 -0.8586372652624462 0.3279158444948013
0.1169942 -0.8564311555966025 0.33342063299900726
0.1189941 -0.8546921716031812 0.3389178584647847
0.120994 -0.8523633719386917 0.34437037470448684
0.1229939 -0.8501535610931824 0.3495571339134177
0.1249938 -0.8481141585811335 0.35492571981064075
0.1269937 -0.8461819880515169 0.3601170152655961
0.1289936 -0.8439509201897507 0.3655941392366878
0.1309935 -0.841207800508326 0.3710222330646932
0.1329934 -0.8390179075721454 0.3758168718295668
0.1349933 -0.8367704015024404 0.3813244050652546
0.1369932 -0.8345713169716457 0.38662933154447565
0.1389931 -0.8319109274894111 0.39172155373749035
0.140993 -0.82967917511779 0.3969344586389711
0.1429929 -0.8271659569331963 0.40206128556631265
0.1449928 -0.8245384607115542 0.40735412785330416
0.1469927 -0.8219254672794393 0.4126095623504374
0.1489926 -0.8191153352486935 0.41743131850116294
0.1509925 -0.8166402049962739 0.422753603927973
0.1529924 -0.8136185549700533 0.42743476516540446
0.1549923 -0.8110514744366182 0.43214049111365105
0.1569922 -0.8079860030067496 0.4375377547707403
0.1589921 -0.8055659020452802 0.44274368688884935
0.160992 -0.801825360805247 0.4478298727599379
0.1629919 -0.7995142145257433 0.4527052785907643
0.1649918 -0.796470198858825 0.4579067669420712
0.1669917 -0.7932822020164889 0.46274322325358325
0.1689916 -0.7904050084859368 0.46758203910207335
0.1709915 -0.7873451042632543 0.4730033072801994
0.1729914 -0.7839574823828092 0.4778021093147519
0.1749913 -0.7806937593069414 0.48286957463401825
0.1769912 -0.7778832072412656 0.48745655769673557
0.1789911 -0.7745120166352094 0.49266431167523445
0.180991 -0.7712646187534485 0.49773541747215766
0.1829909 -0.7678531420438836 0.5027141039168322
0.1849908 -0.765202975551626 0.5076978594295483
0.1869907 -0.7620125147697805 0.5130253918880184
0.1889906 -0.7581480605703089 0.5177767329008011
0.1909905 -0.7547403027248318 0.5227967395247964
0.1929904 -0.7515247958822965 0.5280895392996402
0.1949903 -0.7486682594547911 0.5326330033180529
0.1969902 -0.7453309188450234 0.5374607398806179
0.1989901 -0.7420402986327264 0.5421395176827518
0.20099 -0.73868630978434 0.5469809779579844
0.2029899 -0.7352393810823489 0.5519022767280881
0.2049898 -0.7316828164137372 0.5565389799825942
0.2069897 -0.7280998447774178 0.5613119122534244
0.2089896 -0.7247558397788294 0.5657587810255128
0.2109895 -0.7210903829346876 0.57043527288264
0.2129894 -0.7176286007735201 0.5751775638423521
0.2149893 -0.7139528218911921 0.5797173284379342
0.2169892 -0.7104162148339869 0.5841790368094165
0.2189891 -0.7067556313929415 0.5889068673242057
0.220989 -0.7033235148353117 0.5931406876874715
0.2229889 -0.6993041554642679 0.5973978021674744
0.2249888 -0.6956791403732819 0.6020599401317918
0.2269887 -0.6915898365335811 0.606245376661293
0.2289886 -0.6876878794671485 0.6106390714728295
0.2309885 -0.6838832932124924 0.6148899859435027
0.2329884 -0.6798541699372425 0.6191043785287614
0.2349883 -0.6758345012324678 0.6234855641822075
0.2369882 -0.6717196441287582 0.6278310275544574
0.2389881 -0.6679243662775817 0.6319010239651518
0.240988 -0.663698319661613 0.6363120914599312
0.2429879 -0.6591780867929828 0.6404017721470449
0.2449878 -0.6552710140047232 0.6444739705367899
0.2469877 -0.6507246329760413 0.6484793660096075
0.2489876 -0.6463714012022364 0.6529105617064715
0.2509875 -0.6422569127593405 0.6569666499083159
0.2529874 -0.6379013002554836 0.6610448171948413
0.2549873 -0.6336062332097596 0.6655101618437477
0.2569872 -0.6290905406430443 0.6695153875646008
0.2589871 -0.6248084712594917 0.674027679955606
0.260987 -0.6202733258868651 0.6780419302446031
0.2629869 -0.615768980337847 0.6818845442661607
0.2649868 -0.6116560384979239 0.6859971471757974
0.2669867 -0.6071135370353675 0.6902013339592763
0.2689866 -0.6026377228557791 0.6942611676471993
0.2709865 -0.598321343513374 0.6981965566191496
0.2729864 -0.5939436731707838 0.7022939766856475
0.2749863 -0.5895101866228101 0.7061514757464946
0.2769862 -0.584499179745145 0.7100120001714119
0.2789861 -0.5799473709150247 0.7140085865378352
0.280986 -0.575494472221205 0.7177795653910264
0.2829859 -0.5708090532294445 0.7216767099668729
0.2849858 -0.5663221667071796 0.7254754235512043
0.2869857 -0.5618250434162912 0.7291517439406845
0.2889856 -0.5569403828320943 0.732920501689545
0.2909855 -0.5523249732772051 0.7363147885625463
0.2929854 -0.547627864736773 0.7402477724194567
0.2949853 -0.542846758011544 0.7437697952865264
0.2969852 -0.5377762610096363 0.7469988204677174
0.2989851 -0.5332817809866445 0.7505376285529629
0.300985 -0.5277318877632199 0.7536145512138239
0.3029849 -0.5232831836667472 0.7570767427742096
0.3049848 -0.5185238825025481 0.7607495052506049
0.3069847 -0.5131545789793284 0.7639825946234218
0.3089846 -0.5082677098514301 0.7669588875848827
0.3109845 -0.5030571130880933 0.7704971811167272
0.3129844 -0.4980306582246515 0.7735662553821844
0.3149843 -0.4929214030376076 0.7766330193598575
0.3169842 -0.48801985001607395 0.7798671240062937
0.3189841 -0.48256252337289945 0.7831382785670935
0.320984 -0.4772509093494334 0.7861519463381406
0.3229839 -0.47183103784072095 0.78979589367339
0.3249838 -0.4665010976326409 0.7929659706823046
0.3269837 -0.46131753564062933 0.796008079302439
0.3289836 -0.4558442712571053 0.799207923903117
0.3309835 -0.4505376473830722 0.8021722121596604
0.3329834 -0.445271627311802 0.8052244034154862
0.3349833 -0.4401230026870449 0.8079700763325296
0.3369832 -0.4344652811835952 0.8111430730563851
0.3389831 -0.4290250527619437 0.8141860849808483
0.340983 -0.42362022919205833 0.8171506696607361
0.3429829 -0.41829307060198095 0.8202448998081906
0.3449828 -0.41272280449984494 0.8227454812707067
0.3469827 -0.4073732136331109 0.8259960934031294
0.3489826 -0.401855985253049 0.8289456445774408
0.3509825 -0.3964247472856235 0.8316931625431906
0.3529824 -0.39070209356799995 0.8344994638025818
0.3549823 -0.3855098134965745 0.8374486810316579
0.3569822 -0.37930812419251886 0.839949556274034
0.3589821 -0.37422068573734996 0.8423420106566092
0.360982 -0.36845771885967094 0.8449231223483735
0.3629819 -0.36292973532109973 0.8476384008858779
0.3649818 -0.35757524601464397 0.8498336061201247
0.3669817 -0.35194749119676855 0.852355438417699
0.3689816 -0.34597083845900056 0.85480468454267
0.3709815 -0.3406663680612785 0.8571802069127499
0.3729814 -0.3351331301436541 0.8595252893025302
0.3749813 -0.32927417724884767 0.8618257869679822
0.3769812 -0.32341505267928844 0.8642163787773297
0.3789811 -0.3178727364627403 0.8662294531179727
0.380981 -0.312130655615752 0.8682855354389842
0.3829809 -0.30619193684493184 0.8702643913184896
0.3849808 -0.30043508741671776 0.8724206994997697
0.3869807 -0.29466017098262653 0.8747076341342794
0.3889806 -0.28880008361606313 0.8765827902937591
0.3909805 -0.2827391981849629 0.8783128207966289
0.3929804 -0.276914864195436 0.8802953667701103
0.3949803 -0.27082841670802227 0.8819896613740161
0.3969802 -0.2648332759282506 0.883588021267251
0.3989801 -0.25856826842974173 0.8855953140164181
0.40098 -0.2525045761392325 0.8869255609656077
0.4029799 -0.24645950614814843 0.8888335898679708
0.4049798 -0.2402118156324599 0.8905257165427228
0.4069797 -0.23425643536315557 0.892282844910521
0.4089796 -0.22797934884771465 0.8940347891016704
0.4109795 -0.22216236857952182 0.8954657182481344
0.4129794 -0.21560501568027637 0.897147472274512
0.4149793 -0.2094739519069634 0.8986434407395175
0.4169792 -0.2032680605086096 0.9006369355342287
0.4189791 -0.19684631021608884 0.9019256938637842
0.420979 -0.19090039468258885 0.903271197253664
0.4229789 -0.1845154909722907 0.9045217102542258
0.4249788 -0.17859833155235685 0.9058548630923071
0.4269787 -0.17222502859995398 0.9072684870798552
0.4289786 -0.16569788096241614 0.9087589733996191
0.4309785 -0.15978254827300029 0.9100569742991911
0.4329784 -0.1534747528225487 0.9109234686445847
0.4349783 -0.14727445726103644 0.9123411281778917
0.4369782 -0.14081564166238744 0.9134450595107664
0.4389781 -0.13472567714104258 0.9143064931105024
0.440978 -0.1282917071927072 0.9156303076400695
0.4429779 -0.12214653837741354 0.9167173343755401
0.4449778 -0.11587365307401458 0.9174470000883097
0.4469777 -0.10957305949928645 0.9181022212251868
0.4489776 -0.10293560524713223 0.9187408522746598
0.4509775 -0.09683316731976391 0.9198095218958839
0.4529774 -0.0905053649644153 0.9204663003584913
0.4549773 -0.0843158779908838 0.9212275529789967
0.4569772 -0.07756722807162163 0.9218335090387436
0.4589771 -0.07152919178361121 0.922516913057414
0.460977 -0.06463985862203143 0.9229509673201933
0.4629769 -0.058177805465721294 0.9234752928540849
0.4649768 -0.051731174572758845 0.9236039843834207
0.4669767 -0.04524637051773784 0.9239275654316207
0.4689766 -0.03829383972825357 0.9247272275731641
0.4709765 -0.032588697825436566 0.924512464602545
0.4729764 -0.02594023023332776 0.9252786571477873
0.4749763 -0.01937806734831215 0.9256429436867282
0.4769762 -0.012508688494976727 0.9253736680886425
0.4789761 -0.006136824799597179 0.925913787995978
0.480976 0.0003095929175038273 0.9261142713362883
0.4829759 0.006795493404213447 0.9263697258681746
0.4849758 0.013436529972353763 0.9264814681665763
0.4869757 0.020017541432081905 0.9264656781140425
0.4889756 0.026599133695015806 0.9265086486774463
0.4909755 0.03311955712027216 0.926290452546209
0.4929754 0.039621147059777206 0.9264039531356038
0.4949753 0.0458285386324812 0.9264870616913099
0.4969752 0.052259421481052774 0.9260701881131578
0.4989751 0.058875135611152235 0.9259522716741706
0.500975 0.06540314481203616 0.9257894933053624
0.5029749 0.0719152718967386 0.925378734041458
0.5049748 0.07814128473273235 0.9247235485133715
0.5069747 0.0847536580152283 0.9238918099103189
0.5089746 0.09102226663894203 0.9235318757590398
0.5109745 0.09754315654735257 0.9231980264852472
0.5129744 0.10380851361805354 0.9223994410005659
0.5149743 0.11050833016762555 0.921635226278736
0.5169742 0.11705506286838006 0.9212970175552084
0.5189741 0.12341184395707362 0.9203990669319475
0.520974 0.1299575363709936 0.9196577870667174
0.5229739 0.1366092661464001 0.9182730296652166
0.5249738 0.1425363437944142 0.9172755125702696
0.5269737 0.14932061876631564 0.9160481086507894
0.5289736 0.15596790996892773 0.9148932548499901
0.5309735 0.16288119598751918 0.9134604502582505
0.5329734 0.1693772269076167 0.9123130136432077
0.5349733 0.1756629946856618 0.9108486180457137
0.5369732 0.1826365721563382 0.9096982620577851
0.5389731 0.18873315831682488 0.9084845203967765
0.540973 0.19589389288193856 0.9069802031781499
0.5429729 0.20219394464826076 0.9056325178538323
0.5449728 0.20894975637465285 0.9039108872701419
0.5469727 0.21561600728404492 0.9028878525089349
0.5489726 0.22253360848043924 0.9011351031225929
0.5509725 0.2291501953874491 0.899557389504802
0.5529724 0.23573862003085183 0.8980604885518624
0.5549723 0.2423648673625358 0.8960966612560441
0.5569722 0.2491243918525651 0.8949323164862188
0.5589721 0.2555388161858441 0.892893790368218
0.560972 0.26251207814936856 0.8915066735379117
0.5629719 0.26903468086721 0.8898993804930098
0.5649718 0.27592944645859147 0.8884686513436258
0.5669717 0.28217464757985994 0.8864472061354547
0.5689716 0.288873520714158 0.8845080581182821
0.5709715 0.2952923643792878 0.8828267266775532
0.5729714 0.3017085524450885 0.8809431973019746
0.5749713 0.3078842597581543 0.8790438592133717
0.5769712 0.3145963332288071 0.8771130782152425
0.5789711 0.32064418448763005 0.8751292107209809
0.580971 0.326668059872008 0.8729669254459105
0.5829709 0.3326461705665167 0.8707217054929706
0.5849708 0.3390173873624832 0.8686061664021067
0.5869707 0.34506974433372534 0.8662552048277445
0.5889706 0.3519794549358588 0.8635750516937817
0.5909705 0.35746661545348857 0.8609310392667
0.5929704 0.36404522552128143 0.8583691842831233
0.5949703 0.3701431550600378 0.8557570469655623
0.5969702 0.37625992465964614 0.8528911917735948
0.5989701 0.38296323736198745 0.84992162244995
0.60097 0.3889320932356939 0.8469520700407274
0.6029699 0.3949235166280111 0.8438695552240829
0.6049698 0.401228186787377 0.8408456374275153
0.6069697 0.40753138749808804 0.8377896367833867
0.6089696 0.4134797884108847 0.8350453024726174
0.6109695 0.41984989561081065 0.8317518795357517
0.6129694 0.4259401601531564 0.8286470046902059
0.6149693 0.43174384010903005 0.8261864811056109
0.6169692 0.4388350209248667 0.8225512322846651
0.6189691 0.44470819221076197 0.8192042158590538
0.620969 0.45054858279127924 0.815969160112689
0.6229689 0.456974750393916 0.8123153567766564
0.6249688 0.4630247826069397 0.8093953963579928
0.6269687 0.46956119910340155 0.8056455333435029
0.6289686 0.47554890746956896 0.8022288786906855
0.6309685 0.4817851349185474 0.7985498700010792
0.6329684 0.4879596887604938 0.7952749780418936
0.6349683 0.49401685674096346 0.7924182624587288
0.6369682 0.500047625291876 0.788767840272958
0.6389681 0.5062456295502611 0.7853093159536092
0.640968 0.5119861375799438 0.781630152157293
0.6429679 0.5176506577336076 0.7784011034962173
0.6449678 0.5237026742242396 0.7750572788982353
0.6469677 0.5291777780859563 0.7710019243621731
0.6489676 0.5346209857781643 0.7672223392413685
0.6509675 0.5406567197097749 0.7635713613435086
0.6529674 0.5464225809234202 0.7599401835551051
0.6549673 0.5520933427604006 0.7556739144676508
0.6569672 0.5573398189994523 0.751980896756143
0.6589671 0.5630861532006047 0.7475924589149099
0.660967 0.5683933166134394 0.7435446912096472
0.6629669 0.5735055978474846 0.7392328900048347
0.6649668 0.5787668637467802 0.7349085941839602
0.6669667 0.5843527213433705 0.7307906252197889
0.6689666 0.5895763979069384 0.7267619699627013
0.6709665 0.5946628810799847 0.7221482333581588
0.6729664 0.5999927249189094 0.7170861329135771
0.6749663 0.6055413274120564 0.712844588812281
0.6769662 0.6108797025097679 0.7079149177664937
0.6789661 0.6162709399653579 0.7034743627592221
0.680966 0.6214601963775601 0.6988973577314628
0.6829659 0.626785202851107 0.6938146259962747
0.6849658 0.6319981149265569 0.6891445062799187
0.6869657 0.6372436073558749 0.6840507894813398
0.6889656 0.6422765065461455 0.6792876300004488
0.6909655 0.6474008518616471 0.6740835998769777
0.6929654 0.6528121767527768 0.6689387005289925
0.6949653 0.6578504248503462 0.6639296479027166
0.6969652 0.6630634623557391 0.6587206223437658
0.6989651 0.6683676719836013 0.6537421801353621
0.700965 0.6735097632762821 0.6486320052125902
0.7029649 0.678352598650862 0.643538770889839
0.7049648 0.6838700712244533 0.6383893677553488
0.7069647 0.6890466538576437 0.6332626963039742
0.7089646 0.6941416512884048 0.6282634228717376
0.7109645 0.699118908613793 0.6230821844914701
0.7129644 0.7043653953139711 0.6180146093417944
0.7149643 0.7090250177127759 0.6125128572760797
0.7169642 0.7137317247681402 0.6074906987424793
0.7189641 0.7187191061791096 0.602701748954581
0.720964 0.7229632447862409 0.5970034369391134
0.7229639 0.7274808463897962 0.591755650717892
0.7249638 0.7324525311081782 0.5862776267156703
0.7269637 0.7368758583727475 0.5811241349402017
0.7289636 0.7414787404275228 0.5758788394663641
0.7309635 0.7457643890095785 0.5702770135465707
0.7329634 0.7499147255767042 0.5651012727498934
0.7349633 0.7542919715984301 0.5595072267776233
0.7369632 0.7582976820260352 0.5539032414819608
0.7389631 0.7622427883685112 0.54824438360576
0.740963 0.7659938059513123 0.5423871529569795
0.7429629 0.7705695534075632 0.5368351034421802
0.7449628 0.7743461076286435 0.530957714000948
0.7469627 0.7782101434447328 0.5255149978123471
0.7489626 0.7821003807677831 0.5191981058729405
0.7509625 0.7853088353573812 0.5130162956885447
0.7529624 0.7897575386391257 0.5073751710244554
0.7549623 0.7935657361992877 0.5013466132464411
0.7569622 0.7967025592017631 0.49496122413910904
0.7589621 0.80068127963511 0.4887424442115237
0.760962 0.8042599253004588 0.4829314901819063
0.7629619 0.8081638089861347 0.47585600509697873
0.7649618 0.8119538246710624 0.4700970675219774
0.7669617 0.8153159620239439 0.4639894581214543
0.7689616 0.8190408882031348 0.45718545347482986
0.7709615 0.8225105432166285 0.451054933995909
0.7729614 0.8260205268822551 0.44481238295846254
0.7749613 0.8297859271011834 0.4386758085748749
0.7769612 0.8332106825020107 0.4318145650708381
0.7789611 0.8364561058700701 0.4253277139935572
0.780961 0.839796452532585 0.41904368540516707
0.7829609 0.8428525017648597 0.4124206882478489
0.7849608 0.8466974735087572 0.40616501185373755
0.7869607 0.849804644086083 0.3993576267292919
0.7889606 0.8532043183245516 0.39280469811384106
0.7909605 0.8564923933454787 0.38659868709309575
0.7929604 0.8593935622943087 0.38000718751439416
0.7949603 0.8623663839933482 0.37383013490981937
0.7969602 0.8654301673886862 0.36644676697896195
0.7989601 0.868184172293504 0.36021922154970615
0.80096 0.871426516781354 0.3539826236493414
0.8029599 0.8739340282343834 0.34738190721584883
0.8049598 0.8765208149781737 0.3412012679529731
0.8069597 0.8792007030219332 0.3341619821213059
0.8089596 0.881756391884266 0.3277905551411078
0.8109595 0.88433620358385 0.3209405837705857
0.8129594 0.8867208651616743 0.3142959690046454
0.8149593 0.889255723666436 0.3075982504591681
