! Created with skrf 1.8.0 (http://scikit-rf.org).
# GHz S RI R 50.0 
!freq ReS11 ImS11
0.001 -0.9039273508505039 0.006683147454119096
0.0029999 -0.903465987146163 0.01393273637355339
0.0049998 -0.9024843800247558 0.02151933657225695
0.0069997 -0.9016427243428371 0.02926358984756091
0.0089996 -0.9008833279756201 0.03713593340382126
0.0109995 -0.900471921866193 0.044773622238031385
0.0129994 -0.899694601237204 0.05257341676203924
0.0149993 -0.898897499068 0.060235992873625535
0.0169992 -0.8981471670697734 0.0677458378767629
0.0189991 -0.8971921989526024 0.07554855079966491
0.020999 -0.8964305700507563 0.08303029589231851
0.0229989 -0.8953477885512936 0.09067231559878844
0.0249988 -0.8941906477904372 0.09835729087362731
0.0269987 -0.8936575454200824 0.1059748134855538
0.0289986 -0.8922112244685007 0.11371879420002029
0.0309985 -0.8910296341292752 0.12129222394715387
0.0329984 -0.8900447084851835 0.1287386521617967
0.0349983 -0.8888505727181195 0.13652666418231402
0.0369982 -0.8874941263254473 0.1442004262064412
0.0389981 -0.8860980435262704 0.15159622748487925
0.040998 -0.8848877395248875 0.15913928196022456
0.0429979 -0.8829354608322517 0.16657062320546293
0.0449978 -0.8813550183257106 0.17410149565857305
0.0469977 -0.880442958467781 0.18164702488541953
0.0489976 -0.8784244524602239 0.18914971947951753
0.0509975 -0.8767249228189473 0.1966941843226047
0.0529974 -0.8752028816556414 0.20417579040269646
0.0549973 -0.8735069521962865 0.2115641091764441
0.0569972 -0.8714590228840225 0.2188636444521917
0.0589971 -0.8694542696032819 0.22607380933515808
0.060997 -0.8676467371635955 0.23354518779392383
0.0629969 -0.865705299990796 0.24100781304043073
0.0649968 -0.863575789405725 0.248172279185722
0.0669967 -0.8613214639013402 0.25539343330199626
0.0689966 -0.8592973499071612 0.2628911569873501
0.0709965 -0.8565966941978206 0.27017437540729905
0.0729964 -0.8545406984920761 0.277436576783028
0.0749963 -0.8522317049829926 0.28447197582984046
0.0769962 -0.84967054412222 0.29189627428791415
0.0789961 -0.8469324480749102 0.2991661190209478
0.080996 -0.8445096456672361 0.3060750524817361
0.0829959 -0.8418564980483122 0.31313922807965044
0.0849958 -0.8391326478812978 0.3205133425556922
0.0869957 -0.8362347258280323 0.3274503461380145
0.0889956 -0.8332782431394524 0.3348146005792612
0.0909955 -0.8306350937472092 0.3419191573635469
0.0929954 -0.8273266153530298 0.348858021706672
0.0949953 -0.8243848674656366 0.35612416236236893
0.0969952 -0.8213152649702349 0.3628493288161707
0.0989951 -0.8181141894499948 0.3698060467085029
0.100995 -0.8149901531943847 0.3770101227798892
0.1029949 -0.8115291284523564 0.3838466986040391
0.1049948 -0.808240544805931 0.390978598697637
0.1069947 -0.8049115600531979 0.39798339967597407
0.1089946 -0.8015803955778124 0.40472707555842957
0.1109945 -0.7979004234808256 0.4115983838705796
0.1129944 -0.7944560419253819 0.41874617681470333
0.1149943 -0.7906950590064328 0.4255746851413217
0.1169942 -0.7871208332647784 0.43262685735533685
0.1189941 -0.7836152393151427 0.4392325601991039
0.120994 -0.7798876900408978 0.4460013018736813
0.1229939 -0.7761033140449711 0.45263282313900116
0.1249938 -0.77243787504065 0.45927764058547443
0.1269937 -0.7687086625764489 0.46584442146091043
0.1289936 -0.7650839073489355 0.4727606376849285
0.1309935 -0.7608666401182798 0.4790288028478106
0.1329934 -0.7568616928016697 0.4855699716317209
0.1349933 -0.753030211636253 0.49222429676477636
0.1369932 -0.7486569642896528 0.4988138355944427
0.1389931 -0.7445137811263621 0.505023887848169
0.140993 -0.7404117915110344 0.5117425147629935
0.1429929 -0.7361879770092725 0.5178099960343532
0.1449928 -0.7316650980354211 0.5240253317142334
0.1469927 -0.7273495279401708 0.5301429202852079
0.1489926 -0.7227269664322539 0.536659661722221
0.1509925 -0.7179559999912369 0.5425730818263205
0.1529924 -0.7136531314746003 0.5483849851066293
0.1549923 -0.7084973395909073 0.5543180934561102
0.1569922 -0.704047804908345 0.5607594558553977
0.1589921 -0.6987533078810108 0.5668092380040475
0.160992 -0.6938594512506362 0.5728050984091134
0.1629919 -0.6892991840810471 0.5786271391725147
0.1649918 -0.684132799758504 0.584707246952568
0.1669917 -0.6789003156726823 0.5903728213945528
0.1689916 -0.6737211553480491 0.5963023950894505
0.1709915 -0.6685331657753888 0.6026579853057633
0.1729914 -0.6630946012725785 0.6082662490221985
0.1749913 -0.6575963587247825 0.6138712873753899
0.1769912 -0.6525059597818633 0.619648906465286
0.1789911 -0.6468242673305086 0.6254841349962644
0.180991 -0.6414593344562178 0.6313397022999955
0.1829909 -0.6361390950894431 0.636892812803661
0.1849908 -0.630442437596337 0.6428808232184041
0.1869907 -0.6254250811865224 0.6488265057406913
0.1889906 -0.6190941575950022 0.6544100327483359
0.1909905 -0.613186158017076 0.6600417569967096
0.1929904 -0.607736424746199 0.6658298224808142
0.1949903 -0.6023581335376608 0.6711647112261399
0.1969902 -0.5967611445021148 0.6768679973137447
0.1989901 -0.591065547835322 0.6819585833687636
0.20099 -0.5853631636798357 0.687315694524794
0.2029899 -0.5791530179375765 0.6927863243304319
0.2049898 -0.573421415870039 0.6978836786668449
0.2069897 -0.5674818695395449 0.7029865310591588
0.2089896 -0.5615774544177236 0.7080367208781303
0.2109895 -0.555398020688029 0.7133132455536394
0.2129894 -0.5492757616217646 0.7185331028070021
0.2149893 -0.5434286911422745 0.7232186815381856
0.2169892 -0.5374395285367808 0.7281126050088198
0.2189891 -0.5309136244954983 0.7328758300533568
0.220989 -0.5249949996649577 0.7373796353910596
0.2229889 -0.5188583972897242 0.7421473729177568
0.2249888 -0.5119709204589818 0.7466973155028148
0.2269887 -0.5054968581491036 0.7511585155878145
0.2289886 -0.49909187903608965 0.7556216280028774
0.2309885 -0.49254176042236314 0.7598308430170457
0.2329884 -0.48589046134557107 0.7641837805922203
0.2349883 -0.47905890125661205 0.7685506479563117
0.2369882 -0.47221651728964187 0.7730058546438178
0.2389881 -0.46575441228187714 0.7771717028543995
0.240988 -0.45869772918482815 0.7808481438730401
0.2429879 -0.45137144975821963 0.7851310177405928
0.2449878 -0.4449229528157811 0.7891509177465214
0.2469877 -0.43769952638603926 0.7930460173073238
0.2489876 -0.4304685410558999 0.7971261797167142
0.2509875 -0.4235030306837742 0.800988797556942
0.2529874 -0.4162511907916321 0.8050802891466711
0.2549873 -0.40888355597870096 0.8090658829672617
0.2569872 -0.40160088641348013 0.8126347084658866
0.2589871 -0.3943725486568872 0.8165713723894201
0.260987 -0.3871448676402513 0.8203627715423047
0.2629869 -0.3797977586349378 0.8239435009599326
0.2649868 -0.3727542984814652 0.8276854352636348
0.2669867 -0.36536743756007095 0.8315275624443408
0.2689866 -0.35796006816331677 0.8347775128568651
0.2709865 -0.3505177678926979 0.8383764381945548
0.2729864 -0.3430218731160668 0.8417064654521544
0.2749863 -0.3354435889731411 0.845421983206507
0.2769862 -0.32788401127091205 0.8483841643868755
0.2789861 -0.3204883366086252 0.8517511569423567
0.280986 -0.31294732005293396 0.8546548142004816
0.2829859 -0.3055916884842752 0.8580951638401634
0.2849858 -0.2976455572050924 0.8608590820359302
0.2869857 -0.2902756300587821 0.8637477205325278
0.2889856 -0.2826576015040805 0.8668477209007429
0.2909855 -0.2749939246916675 0.8694510905206901
0.2929854 -0.2672675161828852 0.8721085447613988
0.2949853 -0.2594358335173383 0.8743868504180281
0.2969852 -0.2516749771251898 0.8770983279119351
0.2989851 -0.24400601118090004 0.8794994546916785
0.300985 -0.2360377585391102 0.8814080450735587
0.3029849 -0.22796145368993806 0.8837878089484067
0.3049848 -0.2203765121887654 0.8860642951322902
0.3069847 -0.21206345758837528 0.887972407463405
0.3089846 -0.20433454815461238 0.8898473275119452
0.3109845 -0.1959601144516053 0.8917931765995655
0.3129844 -0.18829835624138505 0.8937710206736171
0.3149843 -0.17991939748409258 0.8952491067195776
0.3169842 -0.1718770066470474 0.8968334169961215
0.3189841 -0.1634261762049858 0.899309042677633
0.320984 -0.1553151447278537 0.9005438221044302
0.3229839 -0.14629035313712585 0.9022357378350173
0.3249838 -0.13846294513670102 0.9038610405283266
0.3269837 -0.1298641188951146 0.9053091004970397
0.3289836 -0.12155060578838801 0.9064278132155269
0.3309835 -0.11329131108877147 0.9076719453274327
0.3329834 -0.10470534967508054 0.9093982161308456
0.3349833 -0.09671886821014183 0.9104187678703214
0.3369832 -0.08778691837234866 0.9115379669598848
0.3389831 -0.07960976626497371 0.9125002727978296
0.340983 -0.07098421210297609 0.9136844484750426
0.3429829 -0.06256882872904718 0.9149113393437748
0.3449828 -0.05390368704155359 0.9154300959959341
0.3469827 -0.04548617009413599 0.9166286328828105
0.3489826 -0.03676390952880819 0.9176267211042495
0.3509825 -0.028623327342859526 0.9180845479184925
0.3529824 -0.01999249460366824 0.9184528894431774
0.3549823 -0.01140789021510561 0.9193134173894724
0.3569822 -0.0026001325665922646 0.9195706085433335
0.3589821 0.005973297080904112 0.9198064221964282
0.360982 0.014227672733738348 0.9199881777279553
0.3629819 0.02276486786973065 0.9201522784296001
0.3649818 0.03115643630056873 0.9202462618339322
0.3669817 0.03964592424496096 0.9202987585561084
0.3689816 0.04826570531541765 0.9200760939598897
0.3709815 0.0565807223875392 0.9199388298840304
0.3729814 0.06502045365504094 0.9199172418745097
0.3749813 0.07380284880281252 0.9192119071461969
0.3769812 0.08214201124625262 0.9187851052451229
0.3789811 0.09081575017414953 0.9185081521535777
0.380981 0.09925931073716454 0.9180976141244666
0.3829809 0.10774678213067947 0.9171727203846811
0.3849808 0.11644901103777144 0.9164946744600128
0.3869807 0.12509562764577106 0.9153060332325131
0.3889806 0.1334707187278308 0.914204353024376
0.3909805 0.14232152892210403 0.9129207068718526
0.3929804 0.15100619482625743 0.9121877049807912
0.3949803 0.1596082734484005 0.910382691506329
0.3969802 0.16826051290879734 0.9090610708606357
0.3989801 0.1770798248913657 0.9074646215820436
0.40098 0.18579102092417216 0.9060493565040613
0.4029799 0.1946211266641207 0.9046055602446668
0.4049798 0.20297490410280658 0.9027690566391535
0.4069797 0.2119996118518799 0.9012874140502347
0.4089796 0.2205514019262501 0.8993916625667441
0.4109795 0.22918691750312412 0.8980248674276831
0.4129794 0.23793897581650045 0.8957087139620898
0.4149793 0.24673721899007076 0.8937891665742573
0.4169792 0.255242540750126 0.8914921277920114
0.4189791 0.26391312155619434 0.8893565317204752
0.420979 0.2725059591775371 0.8870893583403807
0.4229789 0.28140689084127485 0.8847009871517918
0.4249788 0.28976356344144794 0.8826347999455394
0.4269787 0.29817196037119326 0.8800014052526687
0.4289786 0.3067332973267565 0.8776634361781578
0.4309785 0.3150553572301161 0.8749125716814546
0.4329784 0.32381019534572103 0.8720823786002172
0.4349783 0.3321171199589886 0.8692239828389515
0.4369782 0.3407482639266878 0.8660243962938137
0.4389781 0.34891691574116984 0.8631910181315859
0.440978 0.35739071625999186 0.8603179407348422
0.4429779 0.36556612947169453 0.8568827199205532
0.4449778 0.37411375343329145 0.8535499409991221
0.4469777 0.3819467824411793 0.8503614798391372
0.4489776 0.39043794101996077 0.8464978646001754
0.4509775 0.39923891087399055 0.8434836033315755
0.4529774 0.40706740290810206 0.8399497188571856
0.4549773 0.41479270962774045 0.836181226923273
0.4569772 0.4235558580343146 0.8322135968814012
0.4589771 0.4318426559602911 0.8281839500437876
0.460977 0.43974687286783415 0.8243023940012126
0.4629769 0.44811217822088717 0.8199941872999217
0.4649768 0.45608332962828274 0.8157793519147876
0.4669767 0.46402498906353107 0.8113894470424016
0.4689766 0.4724349068566489 0.807183918953305
0.4709765 0.4799041802619871 0.8030273291605348
0.4729764 0.48791878131228994 0.7987289602384516
0.4749763 0.4958805090865871 0.7943070424558843
0.4769762 0.5039801435246939 0.7894719394311274
0.4789761 0.5122368922199195 0.7849141381819082
0.480976 0.5198319734672936 0.7801852119329932
0.4829759 0.5275942539361802 0.7751324104226825
0.4849758 0.5353483053981009 0.7701210409631337
0.4869757 0.5429883682441138 0.7652449318095683
0.4889756 0.5505751817143216 0.7601272432960686
0.4909755 0.5585338884789144 0.7549869627284846
0.4929754 0.5659041437069915 0.7497210860157573
0.4949753 0.5733365008263951 0.7448322186084776
0.4969752 0.5808422626782384 0.7394889316131695
0.4989751 0.588337324102592 0.7342691617656336
0.500975 0.5954200375704065 0.7289147526408053
0.5029749 0.6026273902532099 0.72305136751326
0.5049748 0.6093252389547892 0.717212045633953
0.5069747 0.6166278550850843 0.7116774470964298
0.5089746 0.6236435792273184 0.7059959824204611
0.5109745 0.6306241678967023 0.6998793540196337
0.5129744 0.6379727819303856 0.6939929277089297
0.5149743 0.6450170722851137 0.6877248793511386
0.5169742 0.6516243188010048 0.6815119160798966
0.5189741 0.6584102685611996 0.6754499829679573
0.520974 0.6653703206509131 0.6689726358647408
0.5229739 0.6716909518556229 0.6623598927723278
0.5249738 0.6781930308146951 0.6560725740036283
0.5269737 0.6846777163841112 0.6493233851263742
0.5289736 0.6913721301604526 0.642778707036287
0.5309735 0.6981474946891103 0.6357403650635205
0.5329734 0.7039531286028401 0.6287639179656552
0.5349733 0.7102933464721274 0.6220381691464018
0.5369732 0.7168018289580849 0.6147849245306911
0.5389731 0.7229752427925206 0.6081622772966453
0.540973 0.7295695600109097 0.6008773103574844
0.5429729 0.7357836590186896 0.5938617760605086
0.5449728 0.7412857777641028 0.5868120442064138
0.5469727 0.7476822433040688 0.579234549617901
0.5489726 0.7533748830702652 0.5719314338865508
0.5509725 0.759330358666655 0.5644077177179148
0.5529724 0.7651899197693243 0.5567836489769652
0.5549723 0.7710983498489007 0.5493602510268706
0.5569722 0.7767952379061275 0.5417815564408015
0.5589721 0.7823264761964493 0.5341175562054374
0.560972 0.7879331103074131 0.5266009622020521
0.5629719 0.7935861281494649 0.519088301354831
0.5649718 0.7991458556467497 0.5114526215923083
0.5669717 0.8042775927836748 0.5037438778451911
0.5689716 0.8092555437397622 0.4957817446736599
0.5709715 0.8146221738429863 0.48786654253146505
0.5729714 0.8197078680514613 0.48004977671719695
0.5749713 0.8245466309497572 0.4720384772701505
0.5769712 0.8291769442566316 0.4643189482064206
0.5789711 0.8347017625361849 0.45617902970179625
0.580971 0.8389994538031383 0.44816723324542884
0.5829709 0.8434048108718297 0.440019847701935
0.5849708 0.8477249458189323 0.43195518292913715
0.5869707 0.8525150226903956 0.4237548129173119
0.5889706 0.8568740129173951 0.41502878981671454
0.5909705 0.8606364793016531 0.40649610681983617
0.5929704 0.8648420131287539 0.3980229367538112
0.5949703 0.8688579883569671 0.3892613970212926
0.5969702 0.8729448948313115 0.3811082391609677
0.5989701 0.8768906063756021 0.3719859916355803
0.60097 0.880338610563981 0.3633537146813369
0.6029699 0.8840204539308304 0.35481724887057786
0.6049698 0.8876175521822969 0.3458078192210561
0.6069697 0.8915310033322763 0.3371799877828451
0.6089696 0.8947806122358912 0.32827387354414556
0.6109695 0.8979320523831671 0.31942887892774063
0.6129694 0.9011990341284445 0.31056924259111307
0.6149693 0.9051491495466717 0.3016459888400721
0.6169692 0.9085486987689352 0.29247948999586226
0.6189691 0.9111270908564313 0.28375307334453814
0.620969 0.9138530602735724 0.27449392415290064
0.6229689 0.9169393829443471 0.2651728943618518
0.6249688 0.9197539344565734 0.256349723907632
0.6269687 0.9225119812992405 0.24713938743975553
0.6289686 0.9249754096564932 0.23790872610713887
0.6309685 0.9273838062082632 0.22838117785320522
0.6329684 0.9299651002497555 0.21970160111044534
0.6349683 0.9323627372939957 0.2104921201433107
0.6369682 0.934287701042309 0.20116704324758533
0.6389681 0.936519794532919 0.19216453722619808
0.640968 0.9392190458008126 0.18229566327356037
0.6429679 0.9405216977432074 0.173639951541063
0.6449678 0.94267985904076 0.1643444098988323
0.6469677 0.9439646763758054 0.1548405453631993
0.6489676 0.9462120928680381 0.14565299174600954
0.6509675 0.9469865185885621 0.13624848580851467
0.6529674 0.9488779559812421 0.12681817393368247
0.6549673 0.9499321986229602 0.11721720892692343
0.6569672 0.951346087364227 0.1082827155628327
0.6589671 0.9526036706534602 0.09850268293627573
0.660967 0.953639094628049 0.08894846283685814
0.6629669 0.9543558276556263 0.08002270891912751
0.6649668 0.9550209249780129 0.07051482101551079
0.6669667 0.9559093023443466 0.06135993817914545
0.6689666 0.9565804185945566 0.05116821383251764
0.6709665 0.9570731983478525 0.041691375452607954
0.6729664 0.9574744400120453 0.03258915361052117
0.6749663 0.95803397882782 0.023177443218821543
0.6769662 0.9581421121223369 0.0135913209541585
0.6789661 0.958387210214804 0.004025843098422185
0.680966 0.9585755657157744 -0.005629053186811242
0.6829659 0.9585949103456491 -0.015079494470660742
0.6849658 0.9585534909757214 -0.024536272139210485
0.6869657 0.9583543201944117 -0.033842533081877624
0.6889656 0.9582766673163287 -0.04354815638854959
0.6909655 0.9577050385508518 -0.05307348168369335
0.6929654 0.957205752024613 -0.06271126207946198
0.6949653 0.9568000549582596 -0.0719947438711096
0.6969652 0.9557130257515767 -0.08124862441744363
0.6989651 0.9551156240747222 -0.09047408513126573
0.700965 0.954333889544396 -0.10016015286077559
0.7029649 0.9532625790722603 -0.10953874488138649
0.7049648 0.9526554983551361 -0.11834813300856685
0.7069647 0.9513180283416576 -0.12811160498834312
0.7089646 0.949980408979207 -0.13712298457174693
0.7109645 0.9487013161716795 -0.14650200531491275
0.7129644 0.9469314084696416 -0.15574454009862299
0.7149643 0.9453002732816879 -0.1650038322215937
0.7169642 0.9435917480158208 -0.1738794038618724
0.7189641 0.9423290171690352 -0.18376889054321452
0.720964 0.9401792398359409 -0.19254857165113903
0.7229639 0.938257993271128 -0.2019113461506355
0.7249638 0.9364609411053783 -0.21082281553405854
0.7269637 0.9342182067649225 -0.21968942620896148
0.7289636 0.9316586374317721 -0.22966380155625155
0.7309635 0.9291236604048114 -0.23844869105631428
0.7329634 0.927190898327817 -0.2476728219252404
0.7349633 0.9242390014395698 -0.2566583943871086
0.7369632 0.922250715379755 -0.26567103981666107
0.7389631 0.9189153650918643 -0.27489389538316267
0.740963 0.9165285357520166 -0.2837790896890887
0.7429629 0.9136928131067524 -0.29259262595122587
0.7449628 0.9111472257228512 -0.30180185434724743
0.7469627 0.9080724258295111 -0.3104566125773307
0.7489626 0.9049351363517736 -0.3197393655102675
0.7509625 0.9016693105325321 -0.3282579755537892
0.7529624 0.8989479695111258 -0.3374106716570108
0.7549623 0.8957236012339752 -0.3461733846921053
0.7569622 0.892436182533961 -0.35473705294762625
0.7589621 0.8888287021524264 -0.3636109338694013
0.760962 0.885498457146799 -0.37211303302110116
0.7629619 0.8817419462694018 -0.3808027484075805
0.7649618 0.8785714716135055 -0.38912620827602573
0.7669617 0.8747094870985672 -0.39690951219358656
0.7689616 0.8707089710944119 -0.40551568907281993
0.7709615 0.8667764143631032 -0.41425368231371723
0.7729614 0.8627920533758124 -0.42183813547048604
0.7749613 0.8594500644363714 -0.43022112934242185
0.7769612 0.8552285740808407 -0.43890226107160685
0.7789611 0.8505663733992862 -0.44624660625669227
0.780961 0.8462815105892776 -0.4542317363556449
0.7829609 0.8417541463896213 -0.462236354507523
0.7849608 0.8374749462393497 -0.4702898065458511
0.7869607 0.8329992391320242 -0.478132687218693
0.7889606 0.8279577615803267 -0.4856781392289527
0.7909605 0.8232794749660739 -0.49319008493440764
0.7929604 0.8186675617633564 -0.5011732093873339
0.7949603 0.8134937837926975 -0.5088684232437495
0.7969602 0.8083286011479671 -0.5167599232550129
0.7989601 0.8031851078431781 -0.5241023748120538
0.80096 0.798014151466793 -0.5318087584563934
0.8029599 0.7928924715080483 -0.5388699762815826
0.8049598 0.7877615966514243 -0.546307678723641
0.8069597 0.7823873505112541 -0.5539294009550038
0.8089596 0.7765388376349511 -0.5614223304682401
0.8109595 0.7712015584229008 -0.5691669779549097
0.8129594 0.7654500252555374 -0.576405083665618
0.8149593 0.7600081556460663 -0.5840409133331625
