! Created with skrf 1.8.0 (http://scikit-rf.org).
# GHz S RI R 50.0 
!freq ReS11 ImS11
0.001 0.9969005365546265 -0.005990035500503827
0.0029999 0.9951862063517432 -0.014378104768729555
0.0049998 0.9944345219704194 -0.021450927282173397
0.0069997 0.9933823307695708 -0.028228439706542426
0.0089996 0.9924779136671921 -0.03509582766166833
0.0109995 0.9920017806738366 -0.042591802580625726
0.0129994 0.9917954284709326 -0.04983683070180497
0.0149993 0.9911613496701436 -0.05734171387130217
0.0169992 0.9903009261074416 -0.06473958497845274
0.0189991 0.9899440788254288 -0.07182364566816543
0.020999 0.9892471455332796 -0.07930189520410375
0.0229989 0.9888314004966317 -0.08680751137629963
0.0249988 0.9876926434768624 -0.0939212136789261
0.0269987 0.9871642478700988 -0.10122282368117691
0.0289986 0.9862719312348658 -0.10857062035054586
0.0309985 0.9852589938303028 -0.11595890771839026
0.0329984 0.9841530371618694 -0.12308174253947912
0.0349983 0.983375348037774 -0.13031129468881883
0.0369982 0.982596457134388 -0.1378193199994175
0.0389981 0.981133434254908 -0.14535854693102926
0.040998 0.9804162592749699 -0.15241119136671133
0.0429979 0.9787284719100271 -0.1597345848947169
0.0449978 0.9776235029633431 -0.16706595527384915
0.0469977 0.9763634934079423 -0.17435511955815453
0.0489976 0.9750420859101085 -0.18150985102842285
0.0509975 0.9732747293896956 -0.18883540780788635
0.0529974 0.9719397451353072 -0.19611478452449044
0.0549973 0.970347136462888 -0.20316119491469115
0.0569972 0.968770456612973 -0.21044627990240874
0.0589971 0.9669897269485597 -0.2179265830643301
0.060997 0.9650828784182498 -0.2251414793534182
0.0629969 0.9635347065642821 -0.23242648082254935
0.0649968 0.9614138849849616 -0.23948703225892218
0.0669967 0.9599577094873276 -0.2466370051792489
0.0689966 0.9578102091670065 -0.2538312743966358
0.0709965 0.9555461375029137 -0.261051397764056
0.0729964 0.9539521194967755 -0.2684164016863782
0.0749963 0.9518204232773542 -0.2752140812595181
0.0769962 0.949532960760775 -0.28237289940614774
0.0789961 0.9473857462669727 -0.28929322441195104
0.080996 0.945197627918764 -0.2964604999221771
0.0829959 0.9427702020705068 -0.3033661417501098
0.0849958 0.9407636685917362 -0.31051985477877486
0.0869957 0.9380827047398721 -0.31742464103786894
0.0889956 0.9359062689524736 -0.32435490944688894
0.0909955 0.9331419044027712 -0.331261841772264
0.0929954 0.9309840966689455 -0.3383702443916574
0.0949953 0.9280651949148461 -0.34504710863898463
0.0969952 0.9256948156935958 -0.3521075405818914
0.0989951 0.9228024144625548 -0.35853242088618115
0.100995 0.9200241428510914 -0.3652388881149692
0.1029949 0.9171926714462366 -0.372512431161176
0.1049948 0.9144896547880449 -0.37890366739867226
0.1069947 0.9112943357935421 -0.38578283381794853
0.1089946 0.9084858641122813 -0.39271068934325787
0.1109945 0.9059812978641532 -0.39898607311322976
0.1129944 0.9026544040544255 -0.4056842528316943
0.1149943 0.8994154166676931 -0.4122589053538182
0.1169942 0.8962493140417436 -0.41878406958909736
0.1189941 0.8927120372872603 -0.4250363792167528
0.120994 0.889568821144528 -0.4315397374708921
0.1229939 0.8861815899801951 -0.43843564790768336
0.1249938 0.882559300423582 -0.44504586650008954
0.1269937 0.8792993675405738 -0.451288112236706
0.1289936 0.875454755154684 -0.4576116560244143
0.1309935 0.8721854317430997 -0.4639673956719103
0.1329934 0.8685174425907439 -0.47052049555197134
0.1349933 0.8649970981183107 -0.4769359603866472
0.1369932 0.8608917723074672 -0.48336474334910207
0.1389931 0.8569406234067426 -0.48943428704110636
0.140993 0.8530718645837516 -0.4960023129547319
0.1429929 0.8496014127547276 -0.502476686711848
0.1449928 0.8454485618950903 -0.5087977186613644
0.1469927 0.8417225641945664 -0.514896516853156
0.1489926 0.8376731303281819 -0.5212933282775488
0.1509925 0.833838256895323 -0.5275731195127957
0.1529924 0.8297976198205027 -0.5338656350215774
0.1549923 0.8259989904056093 -0.5399898800123177
0.1569922 0.8219712070999492 -0.5461749925990076
0.1589921 0.8180365085287916 -0.5521676476885721
0.160992 0.813777981029416 -0.5581643536719908
0.1629919 0.80968191807542 -0.5637971251766843
0.1649918 0.8054332396214283 -0.5698048092264477
0.1669917 0.8012946639762121 -0.5753816694904516
0.1689916 0.797095233120401 -0.5811002512039063
0.1709915 0.7928188770372802 -0.58678058906391
0.1729914 0.7886620532165558 -0.5929995637682083
0.1749913 0.784102361006493 -0.5984805707587256
0.1769912 0.7797669706582253 -0.6042323434438414
0.1789911 0.7752847817715647 -0.6094534805300859
0.180991 0.7706621764402675 -0.6151045115358479
0.1829909 0.7662865043270437 -0.620612464272837
0.1849908 0.761576558959846 -0.625868045237904
0.1869907 0.7567234321505307 -0.631056602689738
0.1889906 0.7520864131608292 -0.636204454070136
0.1909905 0.747455616665495 -0.6413654174552373
0.1929904 0.742628852718257 -0.6461203192559863
0.1949903 0.7377507332722143 -0.6513381546816681
0.1969902 0.732861568281237 -0.6564543656377062
0.1989901 0.7277230409498291 -0.6615773767924318
0.20099 0.7224060190065139 -0.6669878235434817
0.2029899 0.7173570909672565 -0.6720413372759457
0.2049898 0.7120961156205745 -0.6769585423372224
0.2069897 0.7072333468664213 -0.6819326924422684
0.2089896 0.7020995188991536 -0.6868029694542871
0.2109895 0.6964808972222085 -0.691652723860058
0.2129894 0.6914041536574006 -0.6967731665667631
0.2149893 0.6857459563001791 -0.7016863423017117
0.2169892 0.6803757298977263 -0.7066615634413933
0.2189891 0.6749765319315055 -0.7116929027031715
0.220989 0.6695461311606771 -0.7165612238448799
0.2229889 0.6641398202561496 -0.7211746436672783
0.2249888 0.6588154705187527 -0.7258292325183877
0.2269887 0.6535147833697098 -0.7305864481516281
0.2289886 0.6481907779677919 -0.7352827974565556
0.2309885 0.6429966086626926 -0.7400943772235282
0.2329884 0.6372856976887564 -0.7448455304375188
0.2349883 0.6320629150617899 -0.7490663506753386
0.2369882 0.6263224398623497 -0.7538928516795179
0.2389881 0.6207532285148697 -0.7583610333812818
0.240988 0.6152861389391279 -0.7625939605085822
0.2429879 0.6099155618367816 -0.7671227253700987
0.2449878 0.6042847695244448 -0.7710963535425209
0.2469877 0.5986910152104155 -0.7753295470994555
0.2489876 0.5929674277462712 -0.7797430843913018
0.2509875 0.5875022189137912 -0.7836209029000053
0.2529874 0.5821047228886362 -0.7879550370204723
0.2549873 0.5769341271061647 -0.7919194339376755
0.2569872 0.5708579404977756 -0.7952685305171049
0.2589871 0.5650793587514036 -0.7992756029663485
0.260987 0.5594765882855651 -0.8032852148301823
0.2629869 0.5535665026993856 -0.8069621531388206
0.2649868 0.5477291405276405 -0.8104902889881772
0.2669867 0.541750046724325 -0.8141429156210773
0.2689866 0.5356155237659486 -0.8173841931212854
0.2709865 0.5299407736818876 -0.8210095035609422
0.2729864 0.5239641885584916 -0.8244718287452504
0.2749863 0.5178844163686678 -0.8279940019288624
0.2769862 0.5120039204279273 -0.8316687851200728
0.2789861 0.5056542972164713 -0.8348222456369662
0.280986 0.4995683823847488 -0.8382690896196061
0.2829859 0.49321826295876514 -0.8414831462166671
0.2849858 0.4872141092445675 -0.8447509419391044
0.2869857 0.48080439135764036 -0.8481264606113457
0.2889856 0.47480555399168217 -0.8511222668443865
0.2909855 0.46850147818675647 -0.8541994578697236
0.2929854 0.46206081981226027 -0.8575551656577816
0.2949853 0.45575836813649745 -0.8606317661258729
0.2969852 0.4499589184480446 -0.8643023066862502
0.2989851 0.4436469116279633 -0.8672010794684548
0.300985 0.4375308021368256 -0.8698814880508009
0.3029849 0.4311758385504436 -0.8727691442196892
0.3049848 0.42470544055676096 -0.8758504726700397
0.3069847 0.4186448294221618 -0.8784784575293668
0.3089846 0.4123340841446698 -0.8815948622828171
0.3109845 0.40638579086548754 -0.8843893401349336
0.3129844 0.3994387992918822 -0.8873092164399293
0.3149843 0.3937565597881061 -0.8897840368324597
0.3169842 0.387735572899066 -0.8926459547001605
0.3189841 0.3811044248307729 -0.8952183791152546
0.320984 0.37513333213524963 -0.8974806872212103
0.3229839 0.3687033848357364 -0.900055883226563
0.3249838 0.3627948612468423 -0.9021687604204496
0.3269837 0.3564162422359035 -0.9043253979302138
0.3289836 0.35006298075446446 -0.9068240943144302
0.3309835 0.34403571241525904 -0.9088560279152847
0.3329834 0.33733094864440166 -0.9107829816268799
0.3349833 0.3310671252612477 -0.9133496817596451
0.3369832 0.3248761758614622 -0.9151824546424006
0.3389831 0.31817109721767406 -0.9170918477526911
0.340983 0.31220668312679417 -0.9188637555597878
0.3429829 0.30579192663102983 -0.9208958542311262
0.3449828 0.2991022136591254 -0.922547113887976
0.3469827 0.2931147192768864 -0.9243305053700585
0.3489826 0.28611318250546763 -0.9258558517384097
0.3509825 0.2800043607429977 -0.9274570745125174
0.3529824 0.27341803156486405 -0.9294377431224261
0.3549823 0.26703854750107425 -0.9309807469467132
0.3569822 0.2601304636267726 -0.9323126136729569
0.3589821 0.25366953110888296 -0.9336716165617828
0.360982 0.24689755015056186 -0.9351817675872568
0.3629819 0.24071831258573267 -0.9365753088488522
0.3649818 0.2343263157010277 -0.9375227639039531
0.3669817 0.22741760541136546 -0.9387887112986744
0.3689816 0.220474990886804 -0.9401830619384549
0.3709815 0.2144008272304156 -0.9419370674104632
0.3729814 0.20715560402013936 -0.9430573813759933
0.3749813 0.2008561722400252 -0.9443419333741513
0.3769812 0.19433760782861348 -0.9453602526013731
0.3789811 0.18779129813743856 -0.946600536065091
0.380981 0.18129574215918187 -0.9478909696232564
0.3829809 0.17474231565760073 -0.9489262957808305
0.3849808 0.1681190192181502 -0.9500907981104996
0.3869807 0.16154246707905384 -0.9511119150672277
0.3889806 0.15516785236552716 -0.9516284223840294
0.3909805 0.14869220496410895 -0.9529975333492723
0.3929804 0.14215499301300766 -0.9535049636315573
0.3949803 0.13573798851712782 -0.954700925420639
0.3969802 0.12893686050167974 -0.9552803454326484
0.3989801 0.12302542628982488 -0.9560174210028061
0.40098 0.11637553440967156 -0.9564849653399301
0.4029799 0.11014726695017399 -0.957218984834093
0.4049798 0.1036506354453039 -0.9577426391292863
0.4069797 0.09725196586112779 -0.9582411135993919
0.4089796 0.09096383165269342 -0.9584522788466934
0.4109795 0.08446700988500735 -0.9589357506154513
0.4129794 0.07783541303151241 -0.9591499259084179
0.4149793 0.07167304521239187 -0.9594617034754873
0.4169792 0.06520962949971493 -0.959557901702926
0.4189791 0.058490042719996624 -0.9599392801535802
0.420979 0.05235481388855834 -0.9600843473524207
0.4229789 0.045875790278996964 -0.959958419991413
0.4249788 0.03920230101634994 -0.9600776349401752
0.4269787 0.033160904448767084 -0.9598722627412506
0.4289786 0.02675298261358542 -0.9603818714019384
0.4309785 0.020357921734573167 -0.9598328271562369
0.4329784 0.013771844633349406 -0.95935474750367
0.4349783 0.007334468401112293 -0.9594577893912055
0.4369782 0.0016531189779293992 -0.959190463141433
0.4389781 -0.005413409653856345 -0.9589642852984291
0.440978 -0.011582765028229136 -0.9586155017193355
0.4429779 -0.01793634703501789 -0.958306791659223
0.4449778 -0.024748659285175938 -0.9579764288632068
0.4469777 -0.03102489271470374 -0.957528531012568
0.4489776 -0.03738859898940322 -0.9572959330520726
0.4509775 -0.0437763060081948 -0.9566021931711177
0.4529774 -0.04999185004781127 -0.9557805764658196
0.4549773 -0.0562826161656574 -0.9558435914493983
0.4569772 -0.0624777004437025 -0.954712026162269
0.4589771 -0.06880552783706914 -0.9539304464976008
0.460977 -0.07493621969101297 -0.9534854297812988
0.4629769 -0.08122274568259277 -0.9527108124052461
0.4649768 -0.08744059633169635 -0.9521503775447692
0.4669767 -0.09345760725292707 -0.9510069653816643
0.4689766 -0.09979263553194959 -0.9505898281796274
0.4709765 -0.10572803990846702 -0.9492204391845624
0.4729764 -0.11192833332405712 -0.9484835578743346
0.4749763 -0.11817844603560852 -0.9473086446603401
0.4769762 -0.12433250661669282 -0.946526943206103
0.4789761 -0.13015581746315413 -0.9455038908825354
0.480976 -0.13624772655550837 -0.944389881625196
0.4829759 -0.14243442250654742 -0.9427880685326926
0.4849758 -0.14862656385474432 -0.9418582981468866
0.4869757 -0.15501934002337295 -0.9408703723901437
0.4889756 -0.16093860544331356 -0.9392004545824985
0.4909755 -0.16690450360984152 -0.9377613433178033
0.4929754 -0.17314505710054928 -0.9365404454845563
0.4949753 -0.17917115214281568 -0.9350328095908402
0.4969752 -0.1853109895968799 -0.9331268326529673
0.4989751 -0.1914865666921597 -0.9315898610622516
0.500975 -0.19735108188289657 -0.9296500226436794
0.5029749 -0.20373478179678334 -0.9284929277480283
0.5049748 -0.2096947972455845 -0.9265997448267981
0.5069747 -0.21594818486860148 -0.9252257121685996
0.5089746 -0.22204664808494243 -0.9236869539215113
0.5109745 -0.22783713133881106 -0.9223592949850395
0.5129744 -0.2338972134277995 -0.9206867037600808
0.5149743 -0.2395666741899142 -0.9189298882244357
0.5169742 -0.24555328888369335 -0.9174240095202657
0.5189741 -0.2514129345314017 -0.9157522142795984
0.520974 -0.25781712846088656 -0.9141269537526548
0.5229739 -0.26335082484667205 -0.912244324083987
0.5249738 -0.2692787161961669 -0.9101643829750105
0.5269737 -0.27499239346711085 -0.9082081836723794
0.5289736 -0.2813186179952688 -0.9066296934717569
0.5309735 -0.28672276046423445 -0.9047957439411186
0.5329734 -0.29241910593155696 -0.9025755287998125
0.5349733 -0.2983569280466722 -0.9007331824465604
0.5369732 -0.30391882570941103 -0.8988559689465871
0.5389731 -0.30939253917340964 -0.89696357693894
0.540973 -0.3147792297010664 -0.8947759193990844
0.5429729 -0.32037288073786835 -0.892541662361131
0.5449728 -0.32582042878966333 -0.8900482153729733
0.5469727 -0.33089219861117636 -0.8878406770558916
0.5489726 -0.33655949343068586 -0.8859924389004543
0.5509725 -0.34186913771002314 -0.8833836340905329
0.5529724 -0.3473388781740054 -0.8811687397717033
0.5549723 -0.3528376833353618 -0.878878354678541
0.5569722 -0.3581839476066368 -0.8761716841973821
0.5589721 -0.3631802507192303 -0.8735117020814951
0.560972 -0.36882697327287084 -0.8709480548709309
0.5629719 -0.37378544176175393 -0.8680681470926698
0.5649718 -0.37907301323961423 -0.8651795236776925
0.5669717 -0.38415267670253805 -0.8625222463233598
0.5689716 -0.3899478033770383 -0.8598026226790341
0.5709715 -0.3951622963371405 -0.8568818222247621
0.5729714 -0.40043598915839196 -0.8540740770214373
0.5749713 -0.4054197622199084 -0.8507337187536375
0.5769712 -0.411253844070603 -0.8479921103451291
0.5789711 -0.4167746618930159 -0.8450753769564674
0.580971 -0.4219158130001234 -0.8423780537465044
0.5829709 -0.42726815341582103 -0.8396244980874363
0.5849708 -0.4327157185016776 -0.8363672891277243
0.5869707 -0.4383321585925203 -0.8335918804666309
0.5889706 -0.4436574235212902 -0.8306050052709869
0.5909705 -0.4482957129239118 -0.8279181989955274
0.5929704 -0.4534866780433392 -0.8249118476949263
0.5949703 -0.45893416736815185 -0.8217544029303513
0.5969702 -0.46371083775983046 -0.81875805363061
0.5989701 -0.46904972273264695 -0.8158650029281828
0.60097 -0.47391507481221395 -0.8129705222172766
0.6029699 -0.479057057155596 -0.8096869425073485
0.6049698 -0.48410339023173526 -0.8066592521333682
0.6069697 -0.48926302420881973 -0.8035789958026891
0.6089696 -0.4939384409495519 -0.8002703457283871
0.6109695 -0.49842349888457194 -0.7971515930971758
0.6129694 -0.5034672558448328 -0.7941862721329281
0.6149693 -0.508404774339062 -0.7906477785555273
0.6169692 -0.5134016782787096 -0.7877697728972488
0.6189691 -0.5176375201860528 -0.7845783722890448
0.620969 -0.5223858907417176 -0.7812723095032434
0.6229689 -0.5269398400591021 -0.7778828718163854
0.6249688 -0.5314184871310242 -0.7746385535742758
0.6269687 -0.5360480084792849 -0.7714383163068623
0.6289686 -0.5406822735656476 -0.7675770134347023
0.6309685 -0.5449957608943732 -0.7643627708735524
0.6329684 -0.5495692958801817 -0.7607112280425646
0.6349683 -0.5538603844979375 -0.7563939535240836
0.6369682 -0.5579261594302719 -0.752787626001621
0.6389681 -0.5623267559145765 -0.7488970470496797
0.640968 -0.5669809942556322 -0.7448263558416331
0.6429679 -0.5712826569061814 -0.7408208009153159
0.6449678 -0.5761993176968409 -0.7369566751541728
0.6469677 -0.5808443920923606 -0.7328768748642456
0.6489676 -0.5852118049607901 -0.7294914246280939
0.6509675 -0.5893157734628597 -0.7254504917096817
0.6529674 -0.5937758955960453 -0.7217997059662632
0.6549673 -0.5985533261471476 -0.7178931631956822
0.6569672 -0.6027015682364728 -0.7141650041406834
0.6589671 -0.6073116052594268 -0.7100133783386748
0.660967 -0.6121191419764812 -0.7064755058291529
0.6629669 -0.6161005085030642 -0.7020180704637232
0.6649668 -0.6208714706479104 -0.6986519445816806
0.6669667 -0.6249590167696375 -0.6949117445254588
0.6689666 -0.6291948236874252 -0.6907782741623042
0.6709665 -0.6332640501058078 -0.6863378151386074
0.6729664 -0.6378559025818248 -0.6826943222883416
0.6749663 -0.6410756199142256 -0.6783549229834436
0.6769662 -0.6456748430474419 -0.6744576014620017
0.6789661 -0.6496410183589377 -0.6704236738212455
0.680966 -0.6537689391899106 -0.6667960451767411
0.6829659 -0.6577850123982053 -0.6630601764060599
0.6849658 -0.6613418901268112 -0.6585847129358756
0.6869657 -0.6653893890700733 -0.6545890956012363
0.6889656 -0.6691988366868187 -0.6507618046466822
0.6909655 -0.6732813456080154 -0.6467529121952476
0.6929654 -0.6766602670198123 -0.6428361413666395
0.6949653 -0.6804483365491583 -0.6387068887571813
0.6969652 -0.6837816397079028 -0.6350437372905309
0.6989651 -0.6875772663091283 -0.6307897194382639
0.700965 -0.6912095030493117 -0.6264845736900354
0.7029649 -0.6948771939485138 -0.6224038158609272
0.7049648 -0.6978715275341354 -0.6179229123286432
0.7069647 -0.7011972528878528 -0.6133199554542874
0.7089646 -0.7046568197131873 -0.6091699712472929
0.7109645 -0.707828771581659 -0.6046534364572769
0.7129644 -0.7109173801299573 -0.600044606079997
0.7149643 -0.7141909770064113 -0.59536925153476
0.7169642 -0.7178902026506866 -0.591103640832617
0.7189641 -0.7213517203396614 -0.5863388983786553
0.720964 -0.7246727697599306 -0.5818889686795216
0.7229639 -0.7278705842233703 -0.5772961958324379
0.7249638 -0.7308419525108503 -0.5727015423622049
0.7269637 -0.7340770702690009 -0.5676198206039752
0.7289636 -0.7372176745439446 -0.5630664097156572
0.7309635 -0.7409005511975175 -0.5578474148402922
0.7329634 -0.744182257244653 -0.5534623186596284
0.7349633 -0.7473219890387717 -0.5489280873654498
0.7369632 -0.7509738209538025 -0.5443627316681838
0.7389631 -0.7541353870537532 -0.5394801857251088
0.740963 -0.7576988451640936 -0.534879183724749
0.7429629 -0.7606603543376732 -0.5300524702186162
0.7449628 -0.7636952149336647 -0.5254249503577888
0.7469627 -0.7672283736878032 -0.5209534741775383
0.7489626 -0.77024622152996 -0.5161350679505482
0.7509625 -0.773168192358466 -0.5115714832255596
0.7529624 -0.7769147277669314 -0.5068833841203058
0.7549623 -0.7797000790707186 -0.5023845222894899
0.7569622 -0.7827514182197535 -0.497627266510816
0.7589621 -0.7853469821693114 -0.492829078596988
0.760962 -0.7882633790069247 -0.48779533746219206
0.7629619 -0.7908276231590811 -0.4832648714768737
0.7649618 -0.7937612995293293 -0.47849001593171636
0.7669617 -0.7961415316987424 -0.4741224980496731
0.7689616 -0.7989463025623724 -0.4689932638439061
0.7709615 -0.8015712127765805 -0.4644265160333556
0.7729614 -0.8040496788088454 -0.45994239599972714
0.7749613 -0.806934688396302 -0.45502419037047925
0.7769612 -0.8093440668665605 -0.45038692087904797
0.7789611 -0.8119079941413685 -0.4454262964650049
0.780961 -0.8142234181468901 -0.44053434147765147
0.7829609 -0.8165060859710448 -0.4357352452835078
0.7849608 -0.8187776183066134 -0.4309034416177186
0.7869607 -0.8213964987049305 -0.4258547258480567
0.7889606 -0.8239339329723365 -0.4209185340774633
0.7909605 -0.8261276873539981 -0.41615141537303696
0.7929604 -0.8284154365116011 -0.41081897952794044
0.7949603 -0.830115394160085 -0.40572997087670637
0.7969602 -0.8326419495011096 -0.40066937903858013
0.7989601 -0.8347002835416606 -0.3957718923184504
0.80096 -0.8364984664804128 -0.3904282595240373
