! Created with skrf 1.8.0 (http://scikit-rf.org).
# GHz S RI R 50.0 
!freq ReS11 ImS11
0.001 -0.9259634655058305 0.004773706250367211
0.0029999 -0.9254443973053517 0.009907692127622068
0.0049998 -0.9249944193713476 0.015424143402158724
0.0069997 -0.9246295012057516 0.020935225239154344
0.0089996 -0.9240314435472855 0.026641463292909243
0.0109995 -0.9237241190463359 0.03208072286018859
0.0129994 -0.9234968913440968 0.03762053269359062
0.0149993 -0.9229697017206118 0.04312940062802749
0.0169992 -0.9223246953789879 0.04847117952313119
0.0189991 -0.9216185028949941 0.053949010735657874
0.020999 -0.9213030425927856 0.05954463790102858
0.0229989 -0.9207559185798921 0.06490134235422841
0.0249988 -0.9200417159673256 0.07040143880543567
0.0269987 -0.9198606782181526 0.07571080181447296
0.0289986 -0.9191033510767925 0.08128838467948886
0.0309985 -0.9181754041770713 0.08672373830723593
0.0329984 -0.9176316065186578 0.09219565214038017
0.0349983 -0.9172626428264131 0.09777540452683245
0.0369982 -0.9165131654656534 0.1032978276324265
0.0389981 -0.9157157397805055 0.10863542219298303
0.040998 -0.9150050816016211 0.11364552738909522
0.0429979 -0.913993275614755 0.11902533588067982
0.0449978 -0.9133631857815233 0.12469424021443945
0.0469977 -0.912371969098881 0.13036683826712125
0.0489976 -0.9118528607676343 0.13562325888222584
0.0509975 -0.9106793482463018 0.14103279164580368
0.0529974 -0.9099464663484442 0.1464924586045632
0.0549973 -0.9090371748732065 0.1518577093997384
0.0569972 -0.9079743139311309 0.15706865658838595
0.0589971 -0.9067728630389768 0.16218825923348568
0.060997 -0.905796899601131 0.16762860741371016
0.0629969 -0.904873342988135 0.17286749126073434
0.0649968 -0.9038478780154752 0.17808259831623374
0.0669967 -0.9028711046104831 0.18354337114282668
0.0689966 -0.9015464535402159 0.18895968476563754
0.0709965 -0.9004291715958466 0.19413203455857148
0.0729964 -0.899411698439077 0.19947391797290287
0.0749963 -0.8980317397302428 0.20456669644873732
0.0769962 -0.8964982976585988 0.20992362177177143
0.0789961 -0.8952743383312096 0.21520734399306135
0.080996 -0.8938764076666621 0.22033499911720794
0.0829959 -0.89264437602182 0.2255697265414679
0.0849958 -0.8910078354761459 0.23091428931850125
0.0869957 -0.8897710886618208 0.2361367389551134
0.0889956 -0.8880098203913774 0.24132534301440023
0.0909955 -0.8864699483445161 0.24657270412672858
0.0929954 -0.8848820173140881 0.2521182965091108
0.0949953 -0.883741654001629 0.2567747343877472
0.0969952 -0.8818462722928717 0.2622400023771922
0.0989951 -0.8802487591546178 0.26751424781361277
0.100995 -0.8785935428514373 0.27261630533499026
0.1029949 -0.876597785225048 0.2775530383614426
0.1049948 -0.8750325835612077 0.2828421654920971
0.1069947 -0.8735575710497044 0.2878976611146017
0.1089946 -0.871530510956308 0.2931914316098603
0.1109945 -0.8697733709936571 0.29863338080648383
0.1129944 -0.867866507302172 0.3036494481574069
0.1149943 -0.8660637882226032 0.30893421535583754
0.1169942 -0.8641558957686383 0.31406230153616466
0.1189941 -0.8625031936160632 0.3193448852250552
0.120994 -0.8606362910416968 0.32449312794828633
0.1229939 -0.8585640425800405 0.32924555474366324
0.1249938 -0.8568112465258879 0.3343753404169196
0.1269937 -0.8547756744983392 0.3392193080494141
0.1289936 -0.8531660516779566 0.3447595252062798
0.1309935 -0.8507214704408561 0.34954401980247607
0.1329934 -0.8487596386961369 0.3541588865537276
0.1349933 -0.8467442752458726 0.3592891974243389
0.1369932 -0.8448828072431942 0.3644615401603577
0.1389931 -0.8425188390811273 0.36929311311632895
0.140993 -0.8404313349005608 0.37419048574297636
0.1429929 -0.8384234918991635 0.3791189932906838
0.1449928 -0.8361524681970183 0.38402038765949414
0.1469927 -0.8334916094704689 0.3885982610180321
0.1489926 -0.8312354750349069 0.39353795974843137
0.1509925 -0.8290950381737778 0.39851563505473486
0.1529924 -0.8264662834054791 0.40299178596707563
0.1549923 -0.8239176277664912 0.4074581356734541
0.1569922 -0.8209418675827287 0.41265265835145576
0.1589921 -0.8192654577238957 0.41782378976387613
0.160992 -0.8158042517833449 0.422589106523816
0.1629919 -0.8137057629627553 0.42725404969153985
0.1649918 -0.8110663140188419 0.4318434956453188
0.1669917 -0.8082501622214242 0.4368906901379798
0.1689916 -0.8056461471499332 0.4413624795355111
0.1709915 -0.8029211578263994 0.4465147033321211
0.1729914 -0.800017369482696 0.4511228870178617
0.1749913 -0.7970938077016323 0.4556833996145992
0.1769912 -0.7944623450207237 0.4605262599567746
0.1789911 -0.7913171850532358 0.46535285351654965
0.180991 -0.7888173144374574 0.47029400458413073
0.1829909 -0.7856719705353279 0.4751798341678497
0.1849908 -0.7831025247028999 0.47976470959800743
0.1869907 -0.7803152888766878 0.4847840897921028
0.1889906 -0.7769874844399222 0.48945843275429574
0.1909905 -0.7739396399889338 0.49432602278288224
0.1929904 -0.7710899902421329 0.49923645046890563
0.1949903 -0.7685459835195415 0.5038169565407128
0.1969902 -0.7657976401832903 0.5084172902051622
0.1989901 -0.76275442056353 0.5128142273954972
0.20099 -0.759597431876032 0.5173470150062348
0.2029899 -0.7570806523895909 0.5221093640749057
0.2049898 -0.7536436231405703 0.5267354817298515
0.2069897 -0.7504111704577737 0.5310405894965977
0.2089896 -0.7474398920526557 0.5356223948778088
0.2109895 -0.7442029508288924 0.5401246750387947
0.2129894 -0.741174178934284 0.544583509401071
0.2149893 -0.737864352171573 0.5486767820045664
0.2169892 -0.7348020423103708 0.5534041305410452
0.2189891 -0.7316773902507558 0.5579081206152474
0.220989 -0.7284312112002932 0.5619937608465895
0.2229889 -0.7249039166797062 0.5658887502662433
0.2249888 -0.7218400632666686 0.5704781861462611
0.2269887 -0.7181417085463673 0.5746444467282876
0.2289886 -0.7145974127364864 0.5787788323583811
0.2309885 -0.7111590356601518 0.5826780587195128
0.2329884 -0.7078339720981214 0.586987397303521
0.2349883 -0.7042504301208579 0.5913854074248769
0.2369882 -0.7004928591422508 0.5955981446543203
0.2389881 -0.6969937155017488 0.5996909395426491
0.240988 -0.6931947091247828 0.6037257560015564
0.2429879 -0.6893909025847857 0.6076795473285047
0.2449878 -0.6856368553334748 0.6118757400774493
0.2469877 -0.6818743694124298 0.6156910736491094
0.2489876 -0.6779776275957586 0.6201548106901341
0.2509875 -0.6740550665606878 0.6238777447751935
0.2529874 -0.6702334579420388 0.6280072911200705
0.2549873 -0.6664602173291807 0.6324180032826828
0.2569872 -0.6625414252124117 0.6364839659763225
0.2589871 -0.6586150873914518 0.640824097883067
0.260987 -0.6545488053650657 0.6444840974357771
0.2629869 -0.6507731041046618 0.6486185637308531
0.2649868 -0.646882530062001 0.6526070559955576
0.2669867 -0.6430332754687045 0.6566795038898915
0.2689866 -0.6389656147107461 0.6605599152371691
0.2709865 -0.6351841972884629 0.6646565998925131
0.2729864 -0.6312200292237018 0.668601164898149
0.2749863 -0.6273012151524862 0.6724128816198682
0.2769862 -0.6229322301323982 0.6764703547673574
0.2789861 -0.6189596017546385 0.680205692230879
0.280986 -0.6148267970560382 0.6840060639856473
0.2829859 -0.610932203073905 0.6877884037663813
0.2849858 -0.6067371598084154 0.691597423553595
0.2869857 -0.6029133086891983 0.6952711220930978
0.2889856 -0.5986571554853942 0.6987986552994315
0.2909855 -0.5944103104078727 0.7024729116825952
0.2929854 -0.5903677260231647 0.7062978800977953
0.2949853 -0.5859532207514162 0.709853395967299
0.2969852 -0.5815215095525519 0.7131265478543917
0.2989851 -0.5775509753645082 0.716811517623263
0.300985 -0.5727028505447338 0.7196269791404589
0.3029849 -0.5684285623669529 0.7233349113284815
0.3049848 -0.5644755585078696 0.7266026837617816
0.3069847 -0.5596702488098022 0.7302507399015392
0.3089846 -0.5553292168373646 0.7333890492695309
0.3109845 -0.5503421605766178 0.736608207675212
0.3129844 -0.5462105984058383 0.7399763573438646
0.3149843 -0.541565663508311 0.7433026081327444
0.3169842 -0.5369997838216344 0.7465990428458406
0.3189841 -0.5321720355543376 0.7495511539437423
0.320984 -0.5277128660589273 0.7528684960157362
0.3229839 -0.5227285266898245 0.7564009589475834
0.3249838 -0.5179802054415629 0.7596313370859556
0.3269837 -0.5131230805225497 0.7628762739935816
0.3289836 -0.508395896818407 0.7662649578392354
0.3309835 -0.5033629887385033 0.7694826880122805
0.3329834 -0.499044079032863 0.772219965647327
0.3349833 -0.4938330330881461 0.77533629904585
0.3369832 -0.4893034232873872 0.778565180782756
0.3389831 -0.48443739823023035 0.7817391526576873
0.340983 -0.4795059309179669 0.7849300923987513
0.3429829 -0.4747493120499312 0.7881936257123701
0.3449828 -0.46988219085155614 0.7910195737591166
0.3469827 -0.4648390223481721 0.7941984109516171
0.3489826 -0.4601536026587711 0.7973720484719599
0.3509825 -0.45534505631285677 0.800381416114113
0.3529824 -0.45024690926262845 0.8030861337617466
0.3549823 -0.4453936961201774 0.8061571582320932
0.3569822 -0.4402999553953736 0.8093003275899286
0.3589821 -0.43539231942582635 0.8116724323350738
0.360982 -0.4306016697946951 0.8143717480964975
0.3629819 -0.4254930525097015 0.8171988574848588
0.3649818 -0.42049807649956056 0.81975616850547
0.3669817 -0.4153889125119411 0.8224292013717001
0.3689816 -0.41035094762178964 0.824745708809955
0.3709815 -0.4053623903397289 0.8273433456071083
0.3729814 -0.40043285023120023 0.8302673266339438
0.3749813 -0.39539222611331587 0.832626562285822
0.3769812 -0.39009311532041385 0.8350345663826085
0.3789811 -0.3849204776744439 0.837664110079662
0.380981 -0.3799300515526071 0.8398920846582549
0.3829809 -0.37496129958948704 0.8421840581351285
0.3849808 -0.3693449048226844 0.8444147016200911
0.3869807 -0.3642339881238476 0.8466370843635813
0.3889806 -0.35915606572078634 0.8491288388693218
0.3909805 -0.35355072690189965 0.8512715681833367
0.3929804 -0.3481360717912915 0.8535309953099569
0.3949803 -0.34299099034271435 0.8557020183700689
0.3969802 -0.33736531322466146 0.8572989632177292
0.3989801 -0.33176611751091 0.8595958141171572
0.40098 -0.3259695315450882 0.8616555013012235
0.4029799 -0.3206606217880828 0.8635645962200283
0.4049798 -0.31530767018945743 0.8658137730067296
0.4069797 -0.30968871347322185 0.8678379160276412
0.4089796 -0.3042687859776235 0.8702319359543934
0.4109795 -0.2986939654944695 0.8717696620825107
0.4129794 -0.2927779774864325 0.8738928086406088
0.4149793 -0.28720937992502577 0.8756617664568502
0.4169792 -0.28193487602702294 0.8779687352251404
0.4189791 -0.27621197902963696 0.8799324477682542
0.420979 -0.27051142503870096 0.8816537040537169
0.4229789 -0.26501129536165763 0.8829555741508351
0.4249788 -0.2593313899197983 0.8850958579471567
0.4269787 -0.2540232410221383 0.886752250770297
0.4289786 -0.24801044563314084 0.8883776190241323
0.4309785 -0.24287338780152412 0.890223299304791
0.4329784 -0.23709821126582678 0.8918139151053912
0.4349783 -0.23131611744899283 0.8932119150469572
0.4369782 -0.22531099813587496 0.8949393127446893
0.4389781 -0.21984914415569232 0.8963499320090496
0.440978 -0.21419664833299928 0.8983011120725618
0.4429779 -0.20867305069132303 0.8992661490991793
0.4449778 -0.2028548374678759 0.9009766758370935
0.4469777 -0.19708071092310434 0.9021330297786291
0.4489776 -0.191176750450968 0.9034245677168626
0.4509775 -0.1854947067139795 0.9043670486890356
0.4529774 -0.17970050601377097 0.9057633916599486
0.4549773 -0.1736920356759362 0.9073789787324329
0.4569772 -0.16826053077945982 0.9083601603032504
0.4589771 -0.16228231527392392 0.9092987650516032
0.460977 -0.156270862260071 0.9108556587488541
0.4629769 -0.15042030360779005 0.9114552151602093
0.4649768 -0.14442537557188176 0.912313375017953
0.4669767 -0.138158974356088 0.9132201311820649
0.4689766 -0.13240484010499237 0.914197070824832
0.4709765 -0.12667828732393602 0.9148496116465517
0.4729764 -0.12067259561332172 0.915981469351906
0.4749763 -0.11491656372561777 0.9170361107170901
0.4769762 -0.10857816945556062 0.9177010920146803
0.4789761 -0.10260258670182523 0.9183520245944762
0.480976 -0.09673581971495039 0.9194554901587233
0.4829759 -0.09072387356406067 0.920643121254765
0.4849758 -0.08466749230902006 0.9212712507524544
0.4869757 -0.07853604911236425 0.9212396154770901
0.4889756 -0.07269949739312806 0.9224176189443709
0.4909755 -0.06662595891131957 0.923099850122816
0.4929754 -0.060761106055173236 0.9234680067457194
0.4949753 -0.055041637525521575 0.9242919750881315
0.4969752 -0.04918941511002044 0.9245655262642695
0.4989751 -0.042886455064173816 0.9251820398432449
0.500975 -0.037378012329502025 0.925790087264054
0.5029749 -0.031128634581467113 0.9257371823099025
0.5049748 -0.02522401604251922 0.9259764642028121
0.5069747 -0.019184080468454132 0.9258779475856493
0.5089746 -0.013689523877539148 0.9259885469594293
0.5109745 -0.007467093687160441 0.9263642431395775
0.5129744 -0.0015523921152504477 0.9264030241584241
0.5149743 0.0047148312388360925 0.9262573363427259
0.5169742 0.010637887680481115 0.926363849142797
0.5189741 0.016439188524072293 0.9264619446978907
0.520974 0.022685508011572954 0.9266213494611194
0.5229739 0.028672211335117534 0.9259847081506485
0.5249738 0.03444085038644128 0.9255006757548986
0.5269737 0.04091081211631645 0.9254047234361023
0.5289736 0.046687698692798416 0.9250209709571373
0.5309735 0.05328384564252138 0.9245644558911816
0.5329734 0.05932273968161191 0.9239547105341568
0.5349733 0.0651853576077884 0.9234028482669585
0.5369732 0.07170848259436875 0.9227643001240455
0.5389731 0.07768646027177901 0.9225102310057829
0.540973 0.08430253323688162 0.9219160158453459
0.5429729 0.09028406741262837 0.9213174982275499
0.5449728 0.09667316801450859 0.9207457946194803
0.5469727 0.10291020105443466 0.9200912265906872
0.5489726 0.10944969906231596 0.9198963899277319
0.5509725 0.11557098669160844 0.9188416999704581
0.5529724 0.1220200381957652 0.9183396909784447
0.5549723 0.1284074202094506 0.9175868911221954
0.5569722 0.13428417189381886 0.9170004658665408
0.5589721 0.14062071985128277 0.916212941863053
0.560972 0.14707520881669164 0.9151617908166383
0.5629719 0.1533022398408894 0.9149097112679677
0.5649718 0.1595528081492286 0.9142553142369962
0.5669717 0.1654205327601372 0.9135772192841429
0.5689716 0.1715979832639203 0.9120281470592668
0.5709715 0.1777209972364945 0.9114378196789726
0.5729714 0.18404109542078095 0.9107051095706911
0.5749713 0.18994943594402458 0.9098077855675022
0.5769712 0.1962436888583831 0.9084609005865172
0.5789711 0.20165622409803352 0.9074691860616311
0.580971 0.20766311918633715 0.9060603853002926
0.5829709 0.2134338361672898 0.9051509396928739
0.5849708 0.21953585048870228 0.9036436866861481
0.5869707 0.22483779360501502 0.9024564350474723
0.5889706 0.2316867005091361 0.9007735106078864
0.5909705 0.2372737905737921 0.8989364598506613
0.5929704 0.24329426234401152 0.8974403336042864
0.5949703 0.24910597701254947 0.8957427968894905
0.5969702 0.25512998147082505 0.8938594417589893
0.5989701 0.2619714455405795 0.8921391609056472
0.60097 0.2672211330870443 0.8901829447667547
0.6029699 0.27350631960564364 0.8880228154958438
0.6049698 0.2795395108910189 0.8859581430589536
0.6069697 0.28513356320134303 0.8838952710513508
0.6089696 0.2914061288555356 0.8822677933257199
0.6109695 0.2972328712592716 0.8799772477774324
0.6129694 0.3033122963754954 0.8779566070780596
0.6149693 0.3093788131227422 0.8763803943821924
0.6169692 0.31558162672918383 0.8739817842180491
0.6189691 0.3221066377606396 0.871948734207102
0.620969 0.3279482897455289 0.869754676536324
0.6229689 0.3340887370665596 0.8675378973013782
0.6249688 0.33991614409668836 0.865440073150274
0.6269687 0.34616755337099797 0.8628267414207453
0.6289686 0.352334027316229 0.8605210347806842
0.6309685 0.35832242320227303 0.8580518965279177
0.6329684 0.36420597957986284 0.8559413120553626
0.6349683 0.3704004996563845 0.8538551341844426
0.6369682 0.3762839372226138 0.8513436452098898
0.6389681 0.38243695445086673 0.8496455164380909
0.640968 0.38836351039678496 0.8472150473643189
0.6429679 0.39350739054097184 0.8442760840395093
0.6449678 0.39962276039209743 0.8426140357599418
0.6469677 0.40544379460665575 0.8397560024724265
0.6489676 0.4106980132087624 0.8373949156350786
0.6509675 0.41658773541512584 0.8340859448582404
0.6529674 0.4221004443651188 0.8323403302618176
0.6549673 0.4282961989740446 0.8291452038439875
0.6569672 0.43364078642673337 0.8262991186076715
0.6589671 0.43909060466941374 0.8231436921681977
0.660967 0.4442732331972443 0.8202262855808333
0.6629669 0.4499233354222439 0.8172934979357417
0.6649668 0.4548279354436999 0.813892385454196
0.6669667 0.459929429149953 0.8111187978853519
0.6689666 0.4659614226341064 0.8080634134637442
0.6709665 0.4710626104408485 0.8045565239976141
0.6729664 0.4765772039430647 0.8008778282618156
0.6749663 0.48215668081985513 0.7976889741686375
0.6769662 0.4879139670886815 0.7940423990714854
0.6789661 0.49334511406242987 0.790859360548118
0.680966 0.4985369940393451 0.7871265440797615
0.6829659 0.5042275690333475 0.7834292757674572
0.6849658 0.5098575531309152 0.7797789880339334
0.6869657 0.515311185258059 0.776349008531521
0.6889656 0.5207469319882589 0.7724535181252947
0.6909655 0.5259258009420892 0.7685258397675554
0.6929654 0.5317610652063023 0.76461624833088
0.6949653 0.5372536134016153 0.7609174295218422
0.6969652 0.5426488952555305 0.7568105329116391
0.6989651 0.548214919917808 0.7530777007761885
0.700965 0.5540891735626841 0.7491046708409924
0.7029649 0.5589805649154127 0.7453238998371261
0.7049648 0.5645983510484359 0.7414541349434485
0.7069647 0.5704264858083156 0.7375724444916466
0.7089646 0.5757090549660202 0.73387628533845
0.7109645 0.5811770798755032 0.7298870041627646
0.7129644 0.586477484883638 0.7264687647585394
0.7149643 0.5917190107375391 0.7221998395384313
0.7169642 0.5969401815987277 0.71817827371653
0.7189641 0.6021480634547721 0.714764510336174
0.720964 0.6069879920409421 0.710254565765525
0.7229639 0.6117899056630571 0.7065079297027876
0.7249638 0.6170913367856317 0.7020607143170604
0.7269637 0.6222461201085747 0.6983006928871395
0.7289636 0.6268716679392335 0.6941994889114218
0.7309635 0.6319891008293506 0.6898978866736577
0.7329634 0.6368383339915833 0.6856357544541455
0.7349633 0.6413131843427876 0.6812588017416994
0.7369632 0.6457684945324913 0.6771993078522818
0.7389631 0.6502081149464984 0.6728271748060123
0.740963 0.6546724656447257 0.6680559615486567
0.7429629 0.6597851273000779 0.6640010090550413
0.7449628 0.6639530100642382 0.6594248772438138
0.7469627 0.6680590021124184 0.6547339121940233
0.7489626 0.6728715270422504 0.6497913692097677
0.7509625 0.6764863954837226 0.644602608325506
0.7529624 0.6814189794845404 0.6401772403880177
0.7549623 0.6859365348684062 0.6350197599096796
0.7569622 0.6903010171587548 0.6302703040609597
0.7589621 0.6945202332497347 0.6254705787999884
0.760962 0.6988496817065977 0.6202656054747375
0.7629619 0.7031563991876408 0.6146701788953541
0.7649618 0.707864205344447 0.6101189848203107
0.7669617 0.7120044725518069 0.6053610062523194
0.7689616 0.7162538785857224 0.5995867786224602
0.7709615 0.720930397767541 0.5942123267003793
0.7729614 0.7248849436996168 0.5892802268159512
0.7749613 0.7294203922224959 0.5841720303422954
0.7769612 0.7340496076452413 0.5787235171004833
0.7789611 0.7377167001722739 0.573195061340356
0.780961 0.7419055947998529 0.5681024086181222
0.7829609 0.7460145758995711 0.5629924592863418
0.7849608 0.7502085876371579 0.5576492477014159
0.7869607 0.7545416982909257 0.5526102904235226
0.7889606 0.7586624546266539 0.546599960785368
0.7909605 0.762756390111294 0.5419606488344466
0.7929604 0.7666071424550281 0.536845851019035
0.7949603 0.7707611729465446 0.5312327747383299
0.7969602 0.7743506391090742 0.5257548997773379
0.7989601 0.7780904154491964 0.5200419931378437
0.80096 0.7825555914031553 0.515539308501956
0.8029599 0.78582499384169 0.5097392074926613
0.8049598 0.7893571752891436 0.5042933568906075
0.8069597 0.7928902464399252 0.49891062045428797
0.8089596 0.7962202232907993 0.4934664291564524
0.8109595 0.8000836070190694 0.4881083623135153
0.8129594 0.8032540569598342 0.48231925960803834
0.8149593 0.8067724094110091 0.47674655965084106
