! Created with skrf 1.8.0 (http://scikit-rf.org).
# GHz S RI R 50.0 
!freq ReS11 ImS11
0.001 -0.9104666035581792 0.006236049127974991
0.0029999 -0.90983773027364 0.013621161448961201
0.0049998 -0.9087924519971204 0.021455536335836523
0.0069997 -0.908484428681531 0.029344271407700302
0.0089996 -0.9077662578242148 0.03731179456948687
0.0109995 -0.9071855413366195 0.045040772404793275
0.0129994 -0.9065227697213635 0.05283938900678189
0.0149993 -0.905872132268807 0.06065902000411212
0.0169992 -0.904929900638482 0.06801192453817961
0.0189991 -0.903746063043288 0.07601199386710249
0.020999 -0.9030806124849744 0.08364364439234476
0.0229989 -0.902238349727505 0.09125590094770628
0.0249988 -0.9008813794866354 0.0990930284911647
0.0269987 -0.9001407289818762 0.10676786946528445
0.0289986 -0.8990006620715931 0.11453105291635887
0.0309985 -0.8976663312010453 0.12206322559127811
0.0329984 -0.896609212100586 0.12961396233297132
0.0349983 -0.8953292357434013 0.1374551628170649
0.0369982 -0.8940152871478938 0.1451768317445683
0.0389981 -0.8926708542734476 0.15276423967628214
0.040998 -0.8912283560917048 0.16013629570222482
0.0429979 -0.8894742401354654 0.16778592901033273
0.0449978 -0.8884569709416987 0.17507591417519205
0.0469977 -0.8864450584392274 0.1829846941425542
0.0489976 -0.8849244354411343 0.19037939201391635
0.0509975 -0.8831719837159279 0.19798656534960882
0.0529974 -0.8815227175906224 0.20562998643802907
0.0549973 -0.8797376606774746 0.2130695463074914
0.0569972 -0.8777222462631141 0.22030523845033478
0.0589971 -0.8757859734703646 0.227648968230657
0.060997 -0.8738387883756266 0.23501847976213444
0.0629969 -0.8717255647104456 0.24255100574906796
0.0649968 -0.869780984168715 0.24977847538999845
0.0669967 -0.867696324968124 0.2571144790164932
0.0689966 -0.8653244654240526 0.2645556867157354
0.0709965 -0.8626966228840985 0.27192544131773094
0.0729964 -0.8608667406364013 0.2791572710646859
0.0749963 -0.8582985673232654 0.28632713952021827
0.0769962 -0.8555610729608079 0.293718966929772
0.0789961 -0.8529075476057022 0.3009684881461982
0.080996 -0.8505883874017869 0.30811956913940497
0.0829959 -0.8478453050127657 0.3152172600905354
0.0849958 -0.8448171519195397 0.32254805965611144
0.0869957 -0.8421124793452711 0.32953500500608435
0.0889956 -0.8392243156211893 0.3369302968927339
0.0909955 -0.8361882709706462 0.3439011488465707
0.0929954 -0.8329417185261956 0.35083769585894475
0.0949953 -0.83030148012897 0.3580311902740148
0.0969952 -0.8269679077982037 0.36511230792072086
0.0989951 -0.8235586941013195 0.3721162884996397
0.100995 -0.8205522103643695 0.37893035958863175
0.1029949 -0.817194487809566 0.385910000825305
0.1049948 -0.8137571579617784 0.39331071153521857
0.1069947 -0.8103039187330988 0.40019144962010134
0.1089946 -0.8071046361332456 0.40714727112032173
0.1109945 -0.8034138222401312 0.4143390174345991
0.1129944 -0.7997897891078135 0.4210424236613469
0.1149943 -0.796071818857672 0.42801487915036723
0.1169942 -0.7927097209262526 0.4351775927289206
0.1189941 -0.7890739155082531 0.44171239426513026
0.120994 -0.785179720719167 0.4483763235747853
0.1229939 -0.7813616880157463 0.45509325679675255
0.1249938 -0.7779725313586853 0.4618247307825726
0.1269937 -0.7738454977222553 0.4684015489600294
0.1289936 -0.770100403717907 0.4754431047893908
0.1309935 -0.7659960635181167 0.4816703284556541
0.1329934 -0.7622935465075342 0.4883137257670526
0.1349933 -0.7580051892732903 0.49476152616805535
0.1369932 -0.753907236276442 0.5014562712203584
0.1389931 -0.7497712272246579 0.5076231787686974
0.140993 -0.7455577152507942 0.5143370259663544
0.1429929 -0.7412889744010311 0.5204737594911489
0.1449928 -0.7367714683993165 0.5266056348636279
0.1469927 -0.7322272718598033 0.533011192742371
0.1489926 -0.7276664143406797 0.5392541891338334
0.1509925 -0.7227687871348641 0.5453610091052926
0.1529924 -0.7184983335165032 0.5512269833232414
0.1549923 -0.7135041266887998 0.5571094827188575
0.1569922 -0.7085337713963533 0.5634590073802677
0.1589921 -0.7035379658097389 0.5696225844433604
0.160992 -0.6985861201816671 0.5757052499529408
0.1629919 -0.6939609232122774 0.5815336330636184
0.1649918 -0.6885902064653122 0.5874964963905569
0.1669917 -0.6833380273084534 0.5932487783647222
0.1689916 -0.6784806610999946 0.5993671013952531
0.1709915 -0.6728756569609983 0.6054934137309971
0.1729914 -0.6672634458741834 0.6110304636945434
0.1749913 -0.6618268111966515 0.6168974397102771
0.1769912 -0.6568592968785576 0.6227756176917855
0.1789911 -0.6511935226336295 0.6284035546929019
0.180991 -0.6457187053137239 0.6342854153856843
0.1829909 -0.6403860490331497 0.6400204302538617
0.1849908 -0.6347152468893758 0.6461120292287387
0.1869907 -0.6291305852003968 0.651674657498984
0.1889906 -0.6232222233707043 0.6572489276221988
0.1909905 -0.6173772871962292 0.6631208199644169
0.1929904 -0.61178806132036 0.6689599272121011
0.1949903 -0.606295710717429 0.674247239254966
0.1969902 -0.6006916048111763 0.6800103247284504
0.1989901 -0.5950771197288088 0.6852115608533966
0.20099 -0.5890173019145809 0.6903887971636331
0.2029899 -0.5830508932151456 0.6960003415575355
0.2049898 -0.5773103461245523 0.7010289564835637
0.2069897 -0.5712305396584916 0.7062901622695127
0.2089896 -0.5651094059745846 0.7111982928606582
0.2109895 -0.5589782944687552 0.7163995184312129
0.2129894 -0.5527986340058941 0.7216163639293103
0.2149893 -0.546977601302201 0.726163899214755
0.2169892 -0.540666429058268 0.7311323868022994
0.2189891 -0.5343887598090379 0.7360728354318911
0.220989 -0.5283727377147116 0.7405337888351188
0.2229889 -0.5221213370825526 0.7451763843586658
0.2249888 -0.5153175721349081 0.7498088552074083
0.2269887 -0.5088687996239752 0.7543044171505503
0.2289886 -0.5024304813802498 0.7587878106764899
0.2309885 -0.4957635262563342 0.7629937902279984
0.2329884 -0.489079611910424 0.7672841915416498
0.2349883 -0.4822848394580719 0.7718962092093954
0.2369882 -0.47533820651629 0.7762195917760861
0.2389881 -0.4687311119442168 0.7802457709376872
0.240988 -0.461525818311317 0.7841436986486221
0.2429879 -0.45467207306120994 0.7880844522732822
0.2449878 -0.447806640166181 0.7922537402049745
0.2469877 -0.44056037824053046 0.7960372994431673
0.2489876 -0.4334720501867281 0.8004312163324478
0.2509875 -0.4262654850361695 0.8041776941544936
0.2529874 -0.41902952262723125 0.8079711139282172
0.2549873 -0.41151371636109624 0.8120901752288219
0.2569872 -0.40428720126101836 0.8159609892716047
0.2589871 -0.397110937649254 0.8198393938909284
0.260987 -0.38977133033808026 0.823349077377438
0.2629869 -0.3824789440987419 0.827108741388584
0.2649868 -0.37521204781950507 0.8307098228639248
0.2669867 -0.3678255876865995 0.8345646222339882
0.2689866 -0.3601374311694126 0.8378743756285402
0.2709865 -0.35291510502820983 0.8414682879195302
0.2729864 -0.34525604483817773 0.8449039782694071
0.2749863 -0.33794773680925133 0.8482444933922786
0.2769862 -0.33016367669005353 0.8514043234571169
0.2789861 -0.3227470831802256 0.8547532124329033
0.280986 -0.3150563141093376 0.857721457942011
0.2829859 -0.30754789399862126 0.8608594557629171
0.2849858 -0.29979838960727545 0.8639132787447351
0.2869857 -0.2923732249765374 0.8666911698463075
0.2889856 -0.28461522280758716 0.8696202253397521
0.2909855 -0.2769141453239191 0.8722479465804439
0.2929854 -0.26924398280503054 0.875082105041143
0.2949853 -0.26138264981754195 0.8773914331656039
0.2969852 -0.2535551171373847 0.8797345939483147
0.2989851 -0.24572313500745668 0.8822905100697122
0.300985 -0.2377263734538863 0.8841782059663323
0.3029849 -0.22968705433039577 0.8866821637019504
0.3049848 -0.22209757195688068 0.888596912317032
0.3069847 -0.21370633620205284 0.8905801395186279
0.3089846 -0.20578563893089458 0.8928660786494154
0.3109845 -0.1976624309678413 0.8944530559167008
0.3129844 -0.18954060879459642 0.8963887505718882
0.3149843 -0.1814753650467193 0.8981125723183724
0.3169842 -0.17328304841446301 0.899558353004261
0.3189841 -0.16478318260770686 0.9017364457430961
0.320984 -0.1563953607876878 0.9031301660524466
0.3229839 -0.14778526793186442 0.9048455925220359
0.3249838 -0.1395164238099038 0.9063644385271011
0.3269837 -0.13134940134951695 0.9076811895219419
0.3289836 -0.12254431109019506 0.9089952561470771
0.3309835 -0.11415106359916945 0.9103997059443816
0.3329834 -0.1060210077298663 0.9117574481977689
0.3349833 -0.09763554144903494 0.9127110501770579
0.3369832 -0.0888772541584666 0.9140844520997141
0.3389831 -0.08063492007675989 0.9149907399369611
0.340983 -0.07201292457188538 0.9160299621394469
0.3429829 -0.0632994483420683 0.917255546686224
0.3449828 -0.05487905291223598 0.9179129833383386
0.3469827 -0.046141958216920236 0.918859297695568
0.3489826 -0.03754962180854059 0.9197459769713434
0.3509825 -0.029126384306726028 0.9204416128062691
0.3529824 -0.020628814028068952 0.9205562689581204
0.3549823 -0.012185932640815455 0.9212696767804459
0.3569822 -0.003129647914677028 0.921555985944579
0.3589821 0.005191722563810501 0.9218685890584557
0.360982 0.013968825190739682 0.922194191007787
0.3629819 0.02234751491699116 0.9220607874022251
0.3649818 0.030719801884603264 0.9221760450962035
0.3669817 0.03927087771753446 0.922252299694101
0.3689816 0.04788460576491649 0.9218712770984706
0.3709815 0.05597770139547101 0.9216220572864805
0.3729814 0.0648819733408366 0.9216965187839328
0.3749813 0.07339082587039095 0.9211579007152657
0.3769812 0.08191239040595 0.9207936836807936
0.3789811 0.09064596786472866 0.9201381969525572
0.380981 0.09917035372863106 0.9195565620321763
0.3829809 0.10767234216121194 0.9188868212721157
0.3849808 0.11644476162824448 0.9178964160971501
0.3869807 0.1251777639654536 0.9167993824739958
0.3889806 0.13348887691711903 0.9158610106589385
0.3909805 0.14204391519006093 0.9143986934532454
0.3929804 0.15108976733998053 0.9135314862100745
0.3949803 0.1595351843520164 0.9119385116855395
0.3969802 0.16844791479974686 0.9105141772387862
0.3989801 0.17730189463635174 0.9086093549057679
0.40098 0.18609178122858866 0.9072962766617159
0.4029799 0.19470269884909255 0.9058199420827996
0.4049798 0.2033110865036286 0.903950484695166
0.4069797 0.21222101154875508 0.9023707151349949
0.4089796 0.22069385195660243 0.9004444254142414
0.4109795 0.2296169640811345 0.8988871011078875
0.4129794 0.23845433259319312 0.8967143343726153
0.4149793 0.24717817180389062 0.8945769449981835
0.4169792 0.25551438178236463 0.8921481019519234
0.4189791 0.26432799272232754 0.890271302737847
0.420979 0.2729541281834376 0.887683722341473
0.4229789 0.28166307834290194 0.8854517569518293
0.4249788 0.2903952649727176 0.8831395616421435
0.4269787 0.29856910887652555 0.8807022402046539
0.4289786 0.30726547365452034 0.877867727319432
0.4309785 0.3156103548852898 0.8755590174330821
0.4329784 0.3243735733336265 0.8725787557908937
0.4349783 0.3327317939045697 0.8697014189768661
0.4369782 0.34129677429316574 0.8662781962300251
0.4389781 0.34971196659492554 0.8633930598551367
0.440978 0.35836979788192375 0.8605929132070201
0.4429779 0.3662645035250584 0.857099084632652
0.4449778 0.37496674646593375 0.8537533125134681
0.4469777 0.38286001867799035 0.8503605844930293
0.4489776 0.3914533448313954 0.8467069584007826
0.4509775 0.39997962299445394 0.8434047808885532
0.4529774 0.40801344100796205 0.8397154298347258
0.4549773 0.41613280694868526 0.8359849765389121
0.4569772 0.424393112177132 0.8320567862515912
0.4589771 0.43290434619574125 0.8279223099893118
0.460977 0.44087582677924664 0.8239669065449909
0.4629769 0.4491238029978145 0.8196902505052591
0.4649768 0.4569002091937336 0.8152986597501067
0.4669767 0.4651948261427505 0.8108264988734518
0.4689766 0.47347673262473683 0.8066418901860388
0.4709765 0.48140430221161135 0.8022223479559363
0.4729764 0.4892062925631796 0.7979715349873029
0.4749763 0.49726724725881827 0.7935835671135277
0.4769762 0.5054217224110691 0.7884674732956845
0.4789761 0.5132886333304532 0.7840413197499966
0.480976 0.5211595611072806 0.7790744235020658
0.4829759 0.5288947780789225 0.7740581664941262
0.4849758 0.5367989479784981 0.768924290985383
0.4869757 0.5443938326892137 0.7640402024045934
0.4889756 0.5520072674988199 0.758798630643323
0.4909755 0.5597185353878106 0.753653923515133
0.4929754 0.567530224815922 0.7483244542526098
0.4949753 0.5747575955003613 0.7432966462598137
0.4969752 0.5818860203976524 0.7380615697461878
0.4989751 0.5897342390679196 0.732456066892348
0.500975 0.597058989863845 0.7273532090969418
0.5029749 0.6041150772336417 0.7209915670746453
0.5049748 0.6108730502119829 0.7152236325762624
0.5069747 0.6182699673524442 0.709659341289743
0.5089746 0.6250955583628143 0.7038244834494941
0.5109745 0.6323238797404088 0.6978511421098912
0.5129744 0.6395427894413978 0.691735395319709
0.5149743 0.6465750803687714 0.6853124347039488
0.5169742 0.6533602274775231 0.6790678129275279
0.5189741 0.6601321019809263 0.6729218122271357
0.520974 0.6669372970427626 0.6666766746656984
0.5229739 0.6733276893802491 0.6597224218457869
0.5249738 0.6797725829505362 0.6532515212418353
0.5269737 0.686414240592419 0.6464284421956198
0.5289736 0.6929654835507376 0.6398572671870564
0.5309735 0.6998401879613401 0.6326688559877365
0.5329734 0.7055710046516515 0.6257271419837827
0.5349733 0.7119994102553212 0.618904182056362
0.5369732 0.7186120791701257 0.6115143747878926
0.5389731 0.7247936836159282 0.6047740102026256
0.540973 0.7312625343759569 0.5972637265670014
0.5429729 0.7376196804968067 0.5902631985764656
0.5449728 0.7433141511692929 0.5829566595664979
0.5469727 0.7495032866823839 0.5753335591528661
0.5489726 0.7552362747309187 0.5680505547091829
0.5509725 0.7611631390466436 0.5603826761832607
0.5529724 0.7670082191402813 0.5526506858273637
0.5549723 0.7729456694321587 0.5450745281056024
0.5569722 0.7787022937217124 0.5374833670574927
0.5589721 0.7842495790455406 0.5297104829023583
0.560972 0.7896979303446308 0.5219983202763462
0.5629719 0.7954255823495524 0.5144093847058532
0.5649718 0.801031191069539 0.5064985592922832
0.5669717 0.8061032826851845 0.49876556558649293
0.5689716 0.8108669366672172 0.49065231060098946
0.5709715 0.8163552131289915 0.4827022679850692
0.5729714 0.8214109433791817 0.47476883899682115
0.5749713 0.8263716815448972 0.46672279179935033
0.5769712 0.8309680975007055 0.4586440176316597
0.5789711 0.8361877532974896 0.4507710171508084
0.580971 0.8405955788726786 0.442538207140397
0.5829709 0.84529485831329 0.4341046688091637
0.5849708 0.8496413566291297 0.4256181136267994
0.5869707 0.8539120093172365 0.417838919112879
0.5889706 0.8585729633302066 0.40868976391375583
0.5909705 0.8619181912798148 0.40050565161924145
0.5929704 0.8664506383166952 0.3914539779482422
0.5949703 0.8701829838322477 0.3829346662090919
0.5969702 0.8745833225928096 0.3741985633161831
0.5989701 0.8782987404304585 0.3651275306651405
0.60097 0.8817304488588136 0.35667177551082224
0.6029699 0.8853655622695132 0.34793597287700084
0.6049698 0.8892046562938244 0.3385943436531269
0.6069697 0.8928648631555667 0.329712827516912
0.6089696 0.8961877119095891 0.320840726318531
0.6109695 0.8995213810121616 0.3115583077917767
0.6129694 0.9026065895760182 0.3026029700719402
0.6149693 0.9062734981443784 0.2938591163471038
0.6169692 0.9096139638076806 0.2843416537317101
0.6189691 0.9122046524809334 0.2754192562696152
0.620969 0.9151461411513453 0.26641888357926274
0.6229689 0.9179064433797128 0.2568006895204432
0.6249688 0.920782773866034 0.247602660839985
0.6269687 0.923455534682118 0.23832089020727903
0.6289686 0.9259166094670309 0.2289481479466282
0.6309685 0.927920069524022 0.21944338041239597
0.6329684 0.9307239706257354 0.21030779918164738
0.6349683 0.9328806126143077 0.20124238741957023
0.6369682 0.9348232661110383 0.1917514516854859
0.6389681 0.9371353343545258 0.18226842235259935
0.640968 0.9395404713268601 0.17265707445597894
0.6429679 0.9408865450574787 0.16388294156472435
0.6449678 0.9429420812284081 0.15408946596495968
0.6469677 0.9441819526201095 0.14454746912161098
0.6489676 0.9463565866978871 0.13498559591331927
0.6509675 0.9469114485570456 0.12558831059962933
0.6529674 0.9488447905789811 0.11594689236364278
0.6549673 0.9497213399901099 0.10650912091596113
0.6569672 0.9511337880500311 0.09715509819940021
0.6589671 0.9521851257522753 0.08712721915351379
0.660967 0.95302725603859 0.07785134861059655
0.6629669 0.9536104772973065 0.06812729148458854
0.6649668 0.9543246593654015 0.05879310114922813
0.6669667 0.9551181769877118 0.04944470356576211
0.6689666 0.9556150322773025 0.03925228696477274
0.6709665 0.9562383784792237 0.02948905114533129
0.6729664 0.9565738293113577 0.02034546097651194
0.6749663 0.9568312073077198 0.010328752759393905
0.6769662 0.9569991630656054 0.00081927531625893
0.6789661 0.9572733554418194 -0.009207070348668793
0.680966 0.9568149662475789 -0.018369148696842637
0.6829659 0.9567824405801587 -0.028006066022897045
0.6849658 0.9566271102275558 -0.03765730531681931
0.6869657 0.956240315532868 -0.04721625084127146
0.6889656 0.9561047167045083 -0.05687374364672348
0.6909655 0.9553872348092325 -0.06635652768182668
0.6929654 0.9548294838965049 -0.07619483481900335
0.6949653 0.9542103889473084 -0.08564973774212145
0.6969652 0.9531171274774017 -0.09505671733205806
0.6989651 0.9523255577956261 -0.10456753817695212
0.700965 0.9514406451451488 -0.11420625291581538
0.7029649 0.9503232105280491 -0.12390943569821122
0.7049648 0.9491544632409374 -0.1328912065066758
0.7069647 0.9477408018221919 -0.14230626848614453
0.7089646 0.9463696573707624 -0.15164475040220243
0.7109645 0.9448765546119817 -0.16144179522380395
0.7129644 0.9429884445292958 -0.17064413538127488
0.7149643 0.9412149650554897 -0.18006205947565143
0.7169642 0.9392493464942111 -0.189328592319443
0.7189641 0.9381079218845716 -0.1988221199060227
0.720964 0.9357945588412142 -0.20811129091658537
0.7229639 0.933428974431553 -0.21753359498432415
0.7249638 0.9313950138583654 -0.2266093201236048
0.7269637 0.9288605017786791 -0.2359084548575213
0.7289636 0.9264479013839791 -0.24508715473123796
0.7309635 0.9235308703676062 -0.25466611383447857
0.7329634 0.9214139881007295 -0.2639333860867612
0.7349633 0.9183173913894583 -0.2730576415666685
0.7369632 0.9160215100267697 -0.28176685120710676
0.7389631 0.9126023558745426 -0.29114418620833304
0.740963 0.9100143106218526 -0.30024981550597546
0.7429629 0.9071191828929874 -0.3093682593946899
0.7449628 0.9043471247572086 -0.3186208064996475
0.7469627 0.9011241714933722 -0.3276191725377815
0.7489626 0.8977094342301535 -0.3367937509089193
0.7509625 0.8942314418551265 -0.34493595231113716
0.7529624 0.8911438963076492 -0.354895566141204
0.7549623 0.887825155500738 -0.3634111095428898
0.7569622 0.8845117871360633 -0.3723114624631939
0.7589621 0.8808723832924482 -0.38098549339665544
0.760962 0.8772317021564581 -0.38979164380712616
0.7629619 0.8732258670576769 -0.3986666658011425
0.7649618 0.8698069367951533 -0.40718384420503484
0.7669617 0.8657662237364137 -0.4149812150719458
0.7689616 0.8617108957339974 -0.4237881630434649
0.7709615 0.8573758535752621 -0.432628984593522
0.7729614 0.8530679131358742 -0.4402501220033217
0.7749613 0.8493142543312783 -0.44866279969198686
0.7769612 0.8447173762561869 -0.4576369132556951
0.7789611 0.840129919314795 -0.4649325693689548
0.780961 0.8356746078981748 -0.4731875457955622
0.7829609 0.8307454909118788 -0.4810574365502742
0.7849608 0.8263998979493613 -0.48904737399556986
0.7869607 0.8216411517150857 -0.49720198032617363
0.7889606 0.8164124335183636 -0.5048646283473999
0.7909605 0.8113740672736928 -0.5125841265445364
0.7929604 0.806593830074015 -0.520517864258241
0.7949603 0.8010409277202446 -0.5282040714164675
0.7969602 0.7955023298691126 -0.5362245880368565
0.7989601 0.7902596878834248 -0.5436971451795631
0.80096 0.7847955285178941 -0.5514082638264155
0.8029599 0.7793784176029497 -0.5586191559910926
0.8049598 0.774009177884146 -0.5660313302283211
0.8069597 0.7679633236031982 -0.5742508746817366
0.8089596 0.761961146704369 -0.5812741283222466
0.8109595 0.7562128109519068 -0.5892458045553737
0.8129594 0.7501277584351423 -0.5964641486683121
0.8149593 0.7443016569892453 -0.6040961320475003
