! Created with skrf 1.8.0 (http://scikit-rf.org).
# GHz S RI R 50.0 
!freq ReS11 ImS11
0.001 -0.8920986377851996 0.0063485209973558965
0.0029999 -0.8913709033371311 0.012356184612367795
0.0049998 -0.8903950122294636 0.018886627146417756
0.0069997 -0.889674836186205 0.025525325764624594
0.0089996 -0.8891901794482338 0.03224104872116856
0.0109995 -0.8887601778316269 0.03891277488985584
0.0129994 -0.8881079875713914 0.04559209522357612
0.0149993 -0.887530416835366 0.052229356649106926
0.0169992 -0.886992841434562 0.05863844053491232
0.0189991 -0.8859498192672652 0.06543016086626992
0.020999 -0.8852761224187609 0.07188532086559221
0.0229989 -0.8847625282289213 0.0784712498422317
0.0249988 -0.8835919444221451 0.0850632622453531
0.0269987 -0.8831306613829986 0.09163821044474975
0.0289986 -0.8820071540931527 0.0983129806881809
0.0309985 -0.8811880854252582 0.1047239657616149
0.0329984 -0.8801473164046475 0.1112845171518438
0.0349983 -0.8793408544648893 0.1179559470951398
0.0369982 -0.8783397520239524 0.12455576422431114
0.0389981 -0.8773900692258448 0.13107418316768613
0.040998 -0.8763320290903017 0.13748597615335914
0.0429979 -0.8747625324629144 0.14379484565859704
0.0449978 -0.8737031468931966 0.15042904546757846
0.0469977 -0.8727344349485764 0.1569597157369747
0.0489976 -0.871403753348534 0.16336343599598407
0.0509975 -0.8701083498144419 0.169988809356185
0.0529974 -0.8687321192407859 0.17627355698818617
0.0549973 -0.8676908841122146 0.1828189276542038
0.0569972 -0.8659500279607374 0.18911920841823715
0.0589971 -0.8646182570337593 0.1953491377500322
0.060997 -0.8631423161402557 0.2018518389815202
0.0629969 -0.861592368643785 0.20823629672337368
0.0649968 -0.8599105260411466 0.21450483831258804
0.0669967 -0.8585866641625606 0.22087057978772803
0.0689966 -0.8568022890299268 0.22736068668099568
0.0709965 -0.8545917395050985 0.23355913250913735
0.0729964 -0.8532078024963083 0.23994428887689753
0.0749963 -0.8516140396733832 0.2460595368288672
0.0769962 -0.8494172863078787 0.25251941538725936
0.0789961 -0.8474444466452616 0.258595163409142
0.080996 -0.8456193360743958 0.2648627679893763
0.0829959 -0.8436406731939252 0.27116345485260235
0.0849958 -0.8412876284015924 0.27725777252531353
0.0869957 -0.8391501079298872 0.28354078757676016
0.0889956 -0.8369849877170071 0.2899108839025224
0.0909955 -0.8349346187572873 0.2961705258526475
0.0929954 -0.8324346348191041 0.30215067682389574
0.0949953 -0.8302922674961578 0.3084679456907248
0.0969952 -0.8276985015772598 0.31428865838843456
0.0989951 -0.8252248868456058 0.32091045965241705
0.100995 -0.822836401735999 0.32631407922331856
0.1029949 -0.8206319994870094 0.3331463285122709
0.1049948 -0.8179910670709396 0.33893267630791807
0.1069947 -0.8154209697196663 0.3453693647425528
0.1089946 -0.8128338934590001 0.35149189298550576
0.1109945 -0.8102428291615484 0.35722499594597174
0.1129944 -0.8074812482334084 0.363534021734776
0.1149943 -0.8044933440841388 0.3695867022100139
0.1169942 -0.8020107764976647 0.37575089952660384
0.1189941 -0.7995315492184003 0.3818169356212187
0.120994 -0.7963435103670446 0.3878089670114769
0.1229939 -0.7933873853518045 0.39361181197103134
0.1249938 -0.7911329337581661 0.39954820384858164
0.1269937 -0.7880562995977989 0.40541005014072196
0.1289936 -0.7853933846463799 0.41138862281945765
0.1309935 -0.7820839301365606 0.4171760191327301
0.1329934 -0.7789346830408252 0.422940590795847
0.1349933 -0.7762160780565027 0.42883997359691856
0.1369932 -0.7727061049427448 0.4345874301582534
0.1389931 -0.7697254141283529 0.44038933536363184
0.140993 -0.7666153298410232 0.4462235351115569
0.1429929 -0.7634465478150726 0.4517392772882354
0.1449928 -0.7600180770200707 0.4573445648182818
0.1469927 -0.756906804051651 0.4628682423968564
0.1489926 -0.752958879179325 0.46871736407619535
0.1509925 -0.7498130336942543 0.4741993343565176
0.1529924 -0.7462922091945429 0.4793904385304333
0.1549923 -0.7423689698720987 0.4849112196067832
0.1569922 -0.7385334841622514 0.49023812518438875
0.1589921 -0.7349372239877092 0.4960189808489101
0.160992 -0.731193082950273 0.5016219352530994
0.1629919 -0.7277160927994165 0.5071321750074265
0.1649918 -0.7236437920012849 0.512370738122978
0.1669917 -0.7195922524907743 0.5178301933871752
0.1689916 -0.7158066499636507 0.5233731521489913
0.1709915 -0.7120700842733798 0.5288707865395973
0.1729914 -0.7074434715366846 0.5341046314907041
0.1749913 -0.7034365113093739 0.5394059917628777
0.1769912 -0.6995711362552507 0.5448351634722103
0.1789911 -0.694994193909301 0.5502637590886956
0.180991 -0.6910714895505804 0.5555867135566902
0.1829909 -0.6871413103150749 0.5609282135038943
0.1849908 -0.682724702228853 0.566213976969751
0.1869907 -0.6789452773858456 0.571958259365812
0.1889906 -0.6737643684572692 0.5771114134203531
0.1909905 -0.6694516738657392 0.5827463269795862
0.1929904 -0.665399794163792 0.5878112463778778
0.1949903 -0.6611175891548199 0.5930135436745364
0.1969902 -0.6570658020766433 0.5982831426430119
0.1989901 -0.6527719303205707 0.6032338190480803
0.20099 -0.648433735313103 0.6082796003527496
0.2029899 -0.643797651585648 0.6134074247367508
0.2049898 -0.6391448823654087 0.6184073526263609
0.2069897 -0.6346704181402705 0.6232738999256925
0.2089896 -0.6300175350288871 0.6281032728897102
0.2109895 -0.6253884219032539 0.6328552828109406
0.2129894 -0.621079640242059 0.638196881795942
0.2149893 -0.616220117700938 0.6428439975766994
0.2169892 -0.6114176869611421 0.6474524032776916
0.2189891 -0.6066899021387937 0.6522995135925931
0.220989 -0.6021549236984217 0.6567848630451057
0.2229889 -0.5972477662908968 0.6611353330355952
0.2249888 -0.5921039007629328 0.6658683960620035
0.2269887 -0.5871520247376575 0.6704272667623657
0.2289886 -0.5820816866966235 0.6747503422106902
0.2309885 -0.5768447543762695 0.6789676621499611
0.2329884 -0.5718716269708873 0.6833846525984845
0.2349883 -0.5667121595720385 0.6880921904805808
0.2369882 -0.5612192012244818 0.6922942816712123
0.2389881 -0.5562428616502701 0.6965973206985079
0.240988 -0.5507353718325716 0.7007332286157402
0.2429879 -0.5452944474863765 0.7051873031281608
0.2449878 -0.5398266326220252 0.7091413228822329
0.2469877 -0.5345184082323811 0.7131974553113708
0.2489876 -0.5290007673972863 0.7174482607960084
0.2509875 -0.5233187690309473 0.7216219307918046
0.2529874 -0.5177403936852798 0.7259026282779671
0.2549873 -0.5119400575193646 0.7299613963219517
0.2569872 -0.5065520746455767 0.7343995274223025
0.2589871 -0.5005246959357378 0.7383388742479584
0.260987 -0.494949350454146 0.7423356867337318
0.2629869 -0.48929553301881434 0.7462428497552839
0.2649868 -0.48391007224315014 0.7503924431901825
0.2669867 -0.4778346239257386 0.7541958885392471
0.2689866 -0.4722421481549822 0.7581938405988997
0.2709865 -0.4664305513227702 0.7621313367368309
0.2729864 -0.46054501022808236 0.7660416987158127
0.2749863 -0.45456017685300537 0.7698207639879269
0.2769862 -0.4487457951990305 0.7736045047171999
0.2789861 -0.4429125568446697 0.7774591554808198
0.280986 -0.4370939571267828 0.7809344430651614
0.2829859 -0.43116473445057646 0.7844090626697442
0.2849858 -0.4251341294688356 0.7880741793496029
0.2869857 -0.4191724977336566 0.7917355933371149
0.2889856 -0.4131676731291058 0.7949714137428884
0.2909855 -0.40719344926352424 0.7984332082864017
0.2929854 -0.4010592111671981 0.8018517231237214
0.2949853 -0.39492519999650416 0.8050739668119673
0.2969852 -0.38874362528937384 0.8080691523348816
0.2989851 -0.38252088291353 0.8109865803518075
0.300985 -0.37618193359783275 0.8140177996230378
0.3029849 -0.3698719676372616 0.8171173550003921
0.3049848 -0.363596234788481 0.8201397794193668
0.3069847 -0.3571531529930134 0.822776101220026
0.3089846 -0.35086914472240577 0.8255562350394084
0.3109845 -0.34421738572544225 0.8286052226262816
0.3129844 -0.337702356343125 0.8310234980469796
0.3149843 -0.3312575507270797 0.8338730198038389
0.3169842 -0.32470828915080663 0.8365701522226728
0.3189841 -0.317902148393154 0.8391947230002528
0.320984 -0.31120491622666985 0.8420052226780378
0.3229839 -0.3042249782583876 0.8447357381918662
0.3249838 -0.2975849746318979 0.8474142132695442
0.3269837 -0.29091521843630774 0.8498602228727756
0.3289836 -0.28402228001651136 0.8521934550300212
0.3309835 -0.2771965553863909 0.854695213284302
0.3329834 -0.27059625454151276 0.8571108215425144
0.3349833 -0.2638727533942793 0.8593091166873953
0.3369832 -0.25696875801729196 0.8617217416872378
0.3389831 -0.2501473033462814 0.8638651219641074
0.340983 -0.24315331035849555 0.866286275652707
0.3429829 -0.236222204913215 0.8684775867206564
0.3449828 -0.22904833655857948 0.8709739462353133
0.3469827 -0.22223989398643987 0.8729950768010396
0.3489826 -0.21527859223440593 0.875109123617121
0.3509825 -0.20830556809384934 0.8769667531546766
0.3529824 -0.20137478565853273 0.8795272717815094
0.3549823 -0.1942552284120347 0.8810786512398916
0.3569822 -0.1871844287446498 0.8827301497889823
0.3589821 -0.18005098183979107 0.8844977085208883
0.360982 -0.1732414119286702 0.8864469682280605
0.3629819 -0.16593298491065833 0.8879164948656363
0.3649818 -0.15912701295946924 0.8893169123427003
0.3669817 -0.15213980761950352 0.8911205930189736
0.3689816 -0.14514494642407633 0.89245017621357
0.3709815 -0.137823248921251 0.8935891209254206
0.3729814 -0.13104901207186687 0.8950080575233534
0.3749813 -0.12361869953827245 0.8964331423685006
0.3769812 -0.11646356781967099 0.8975637770815095
0.3789811 -0.10954705469282938 0.8988090608302417
0.380981 -0.10232326933820801 0.8997870064888658
0.3829809 -0.09524934376012095 0.9006563998262724
0.3849808 -0.08775928569615418 0.901935107187842
0.3869807 -0.08066385662684 0.9025117371937811
0.3889806 -0.07316371856369229 0.9032225753871843
0.3909805 -0.06585339877924236 0.9040838337663273
0.3929804 -0.0582291694335853 0.9045032915570167
0.3949803 -0.05125665103453239 0.9050810226241757
0.3969802 -0.04330695739497691 0.9055551325735682
0.3989801 -0.03582594568071432 0.9061565719743877
0.40098 -0.028430213919462433 0.906228815545725
0.4029799 -0.020865487961599243 0.9068440301644778
0.4049798 -0.013293613362324375 0.9076592184678877
0.4069797 -0.005667275399125619 0.9076033853425401
0.4089796 0.0015718586923124753 0.9078733255905965
0.4109795 0.009418356702338138 0.9083721551744606
0.4129794 0.017021721174721283 0.9084299188944746
0.4149793 0.02449914844222336 0.9085860776804898
0.4169792 0.03239845464332298 0.9088715380061075
0.4189791 0.039713044737738505 0.9086722698304728
0.420979 0.047149346954213536 0.908558683008448
0.4229789 0.05493466879341467 0.9081134834467169
0.4249788 0.062325556386790736 0.908246873347287
0.4269787 0.06986719925428561 0.9080277607843568
0.4289786 0.07760106602397261 0.9077682594736428
0.4309785 0.08488866235011838 0.9072142725653798
0.4329784 0.09271101288908175 0.9071817901560618
0.4349783 0.10015393390493209 0.9063450809312947
0.4369782 0.1079133920541128 0.9057198602691806
0.4389781 0.11532852955753031 0.9048964447000355
0.440978 0.12310347210804282 0.9048782615596914
0.4429779 0.13043971200345594 0.9037114578472741
0.4449778 0.13811587377022216 0.9030316667337197
0.4469777 0.1456954839705184 0.9018851683926312
0.4489776 0.15322669848478374 0.9007797467092552
0.4509775 0.1609352573789718 0.8997281230968064
0.4529774 0.1682896080280904 0.8985575897901851
0.4549773 0.17578130570196082 0.8978300423840286
0.4569772 0.18365306081685756 0.896361346542661
0.4589771 0.19118928522788076 0.8948840879116494
0.460977 0.19890251539219891 0.8936885506201853
0.4629769 0.20658501951376507 0.8920666304226825
0.4649768 0.21419892679979724 0.89008114546801
0.4669767 0.22177880549141823 0.8886360728707444
0.4689766 0.22983885949458738 0.8872830761282919
0.4709765 0.23683417407091606 0.8854000080593564
0.4729764 0.2443761014072242 0.8834729892428925
0.4749763 0.25236158654253843 0.8819707894520372
0.4769762 0.25973971095165754 0.8800697186712984
0.4789761 0.2673881685947884 0.8781297910769661
0.480976 0.27514406018448817 0.8762198394189162
0.4829759 0.28278035116168565 0.8742326520442552
0.4849758 0.29056777264017014 0.8721122959013435
0.4869757 0.2976144556244855 0.8695740364449852
0.4889756 0.30536172506741693 0.867250862434364
0.4909755 0.3131931557541139 0.865479037459348
0.4929754 0.32054762592389363 0.862897971359309
0.4949753 0.327689128849288 0.8606916745646833
0.4969752 0.33521105886003905 0.8579912401270218
0.4989751 0.34280359407282546 0.8559054880547343
0.500975 0.34978963721624945 0.8532897121941759
0.5029749 0.35707082339420987 0.8503365652640044
0.5049748 0.36437850150267703 0.8472106601109265
0.5069747 0.37147251970660405 0.8446802452266593
0.5089746 0.37850001813836687 0.8415118833874496
0.5109745 0.3860433161179962 0.838382228103897
0.5129744 0.3934759137283132 0.8357103919064685
0.5149743 0.4008393615843228 0.8326501594734499
0.5169742 0.408031430363588 0.8292058307681522
0.5189741 0.4150065019128445 0.8258123608301292
0.520974 0.4220411147726366 0.8225338300174562
0.5229739 0.42948459493206287 0.8188301272084002
0.5249738 0.43629192336035677 0.8153678496563264
0.5269737 0.4433686734917025 0.8113687665114283
0.5289736 0.4505551397433633 0.8077355425031983
0.5309735 0.4581332469630337 0.8035942759374606
0.5329734 0.46467976427717317 0.7998487958004765
0.5349733 0.47170626704958135 0.7960412122100804
0.5369732 0.478830209251247 0.7916800600460181
0.5389731 0.48568031853180704 0.7877817547255369
0.540973 0.49320848956622126 0.7836536998592731
0.5429729 0.5001009966075319 0.779829464793343
0.5449728 0.5073401960799471 0.775180877315295
0.5469727 0.5143874126620003 0.7709521858446015
0.5489726 0.5212813840246902 0.7664380985956366
0.5509725 0.5279595724968463 0.7621550201064514
0.5529724 0.5349689711898249 0.7576743282543007
0.5549723 0.5420502215697005 0.7531329602943818
0.5569722 0.5487769630584783 0.748605955095939
0.5589721 0.5558350748223385 0.7439812144475187
0.560972 0.5627205444864326 0.7393191278843021
0.5629719 0.5695322949950408 0.7348293305928533
0.5649718 0.5762611445635206 0.7303989567469351
0.5669717 0.5829360099551347 0.7256127536330389
0.5689716 0.5893744305824563 0.7205798570628745
0.5709715 0.5959472473822424 0.7154935732968754
0.5729714 0.6023348680678136 0.7109403445913285
0.5749713 0.6089309575808775 0.7057502495735875
0.5769712 0.615204307864943 0.7010558701204702
0.5789711 0.6216688116898487 0.6957528571215297
0.580971 0.6275379778921705 0.6907973198128293
0.5829709 0.6337435410947424 0.6855219300436777
0.5849708 0.639778788159282 0.6800762664123706
0.5869707 0.6458034331837058 0.6749927900871686
0.5889706 0.6520121082596512 0.6691163592450515
0.5909705 0.6577250176537741 0.6633704152365035
0.5929704 0.6640332965476013 0.657551672490434
0.5949703 0.6693744953489819 0.6519975634863675
0.5969702 0.6756216169232528 0.6458652178398488
0.5989701 0.6814946159297244 0.6398698198037501
0.60097 0.6868775917316977 0.6340616200157045
0.6029699 0.692596859101453 0.6280281202434829
0.6049698 0.6982843477698475 0.6215162939490415
0.6069697 0.7037735109286517 0.6157809649435142
0.6089696 0.7095846428817953 0.6097033306021585
0.6109695 0.7150632998473068 0.6032474849267243
0.6129694 0.7203190885651686 0.5970191109870134
0.6149693 0.7266411410887228 0.5908004927815546
0.6169692 0.7321917903840935 0.5842358895809134
0.6189691 0.7375887086063004 0.5779717099093786
0.620969 0.7423656475094426 0.571249564118397
0.6229689 0.747662155976292 0.5643754527574871
0.6249688 0.7531676872549813 0.5579894748371059
0.6269687 0.7585447422638253 0.5511236895075413
0.6289686 0.7636613386064209 0.5443574477616755
0.6309685 0.7689346992887456 0.5376993739659235
0.6329684 0.773710145696032 0.5311271287023833
0.6349683 0.7793330962455438 0.5244636093113979
0.6369682 0.7839358369273214 0.5174924645725987
0.6389681 0.7885241631946122 0.5109843402730161
0.640968 0.7941744930908968 0.50407431102349
0.6429679 0.7984401987393956 0.49715845619446364
0.6449678 0.8032810702534633 0.4900213605943527
0.6469677 0.8074398396023303 0.4832714224034394
0.6489676 0.8120659747886823 0.47654304721460916
0.6509675 0.8161685140136851 0.4690615343020533
0.6529674 0.8211576874011595 0.462157292348532
0.6549673 0.8247925126186068 0.45490789076980837
0.6569672 0.8290991429327003 0.44756745919541313
0.6589671 0.8332483630765021 0.439965729929082
0.660967 0.8373273587456806 0.4328650732094784
0.6629669 0.8409669445463864 0.42553682525738346
0.6649668 0.8452195221696387 0.418321264967115
0.6669667 0.8484766424296215 0.41093468847842407
0.6689666 0.852531661544721 0.40299011843350707
0.6709665 0.8558900985354814 0.395312082668963
0.6729664 0.859479783402481 0.3873481597235614
0.6749663 0.8632880086167253 0.3797779420601885
0.6769662 0.8665867981528294 0.3720799076707545
0.6789661 0.8703986966276196 0.3642099603935797
0.680966 0.8736666194517102 0.3566787109552076
0.6829659 0.8772432751373691 0.34879273180289605
0.6849658 0.8802648555258106 0.34072218874806165
0.6869657 0.8830047332376003 0.3325828400667753
0.6889656 0.8866296228864028 0.32441570114099416
0.6909655 0.8895679743822636 0.3165542037011096
0.6929654 0.8926874415911489 0.30860280886264946
0.6949653 0.8954612297081994 0.3002522897275733
0.6969652 0.8981855955911412 0.29203742751481854
0.6989651 0.9011326138482663 0.2843522263199048
0.700965 0.9038344491747086 0.27573109163688214
0.7029649 0.906525170871389 0.26771309497293616
0.7049648 0.9092985251419222 0.2596239016335785
0.7069647 0.9116205008431214 0.2513324361724345
0.7089646 0.9143428269054761 0.24326062450429525
0.7109645 0.916547324345779 0.2348724803893602
0.7129644 0.9192265139223934 0.22679103686519825
0.7149643 0.9212281500777053 0.21829186368881365
0.7169642 0.9230974136491076 0.2101378625679739
0.7189641 0.9256719593592608 0.2017851499492929
0.720964 0.9272805199806153 0.19384844642545604
0.7229639 0.9289523849231319 0.18533925208805127
0.7249638 0.9312321898845263 0.1772895334914477
0.7269637 0.9329063749266503 0.16867138798622208
0.7289636 0.9346476356687875 0.16056383004756075
0.7309635 0.9360889950491186 0.15194771970185555
0.7329634 0.937261329996779 0.1435633605874194
0.7349633 0.9384496226205207 0.13493194297121486
0.7369632 0.9398247373780624 0.12660300465652902
0.7389631 0.9411565816363988 0.11845063322748133
0.740963 0.9420572695916689 0.10998006808384121
0.7429629 0.9435404138784094 0.1017720400866158
0.7449628 0.9442936762971471 0.09300286357343489
0.7469627 0.9451424538498819 0.08489315773207287
0.7489626 0.9462126960638032 0.07584280622145392
0.7509625 0.9466562083356596 0.06737660840364942
0.7529624 0.9475216946470869 0.05887277647679107
0.7549623 0.9481341452864893 0.05022395146192956
0.7569622 0.9484937480333666 0.041744575171376294
0.7589621 0.9493488525647261 0.03306048910623233
0.760962 0.9495129320780351 0.024606458408564336
0.7629619 0.9495508105843774 0.015933491007583477
0.7649618 0.9500283773747453 0.007302410505190843
0.7669617 0.9502871592189285 -0.0009720641590056089
0.7689616 0.9502292198078102 -0.009796467010050831
0.7709615 0.9499587357377335 -0.018509200982935986
0.7729614 0.9501966474944363 -0.026787897898413536
0.7749613 0.950129441463361 -0.03535021392462187
0.7769612 0.9495363936487156 -0.043951226526010294
0.7789611 0.9492012927293747 -0.05238535821611439
0.780961 0.9491211001273375 -0.060814453733983045
0.7829609 0.9482923542299845 -0.0695492877999303
0.7849608 0.9479579084241553 -0.07795464826187268
0.7869607 0.9472321835317109 -0.08637320488239524
0.7889606 0.9462725495450162 -0.09527146502510109
0.7909605 0.9456572015001712 -0.10339459425381409
0.7929604 0.9448417872406912 -0.111826893920565
0.7949603 0.9437744709466719 -0.12046986431313969
0.7969602 0.9423877196020054 -0.1289236660581596
0.7989601 0.9410535905394188 -0.1373604665202116
0.80096 0.9406542382216819 -0.14575047740103428
0.8029599 0.9388552209205611 -0.1541628031154313
0.8049598 0.9373552119248147 -0.16228482286067547
0.8069597 0.9360705261759383 -0.17076690954558488
0.8089596 0.9346387124049547 -0.17935746046273363
0.8109595 0.9327635524876137 -0.1876463086396332
0.8129594 0.9308558030492377 -0.19644915792230166
0.8149593 0.9292913651906978 -0.20472327968604956
