! Created with skrf 1.8.0 (http://scikit-rf.org).
# GHz S RI R 50.0 
!freq ReS11 ImS11
0.001 -0.9535696204842691 0.004555963369350107
0.0029999 -0.9529992067638309 0.010499977324281318
0.0049998 -0.9528190356961384 0.016568096371709
0.0069997 -0.9522213531139401 0.022822207248628074
0.0089996 -0.9518281718772353 0.028948675038734474
0.0109995 -0.9514612042225 0.035094220724114014
0.0129994 -0.9509837078696768 0.04118713649658038
0.0149993 -0.9502459329566287 0.047572560568912015
0.0169992 -0.9497846993575583 0.053389599126792
0.0189991 -0.9493999054115789 0.05973631431160935
0.020999 -0.9486375794875369 0.06556351911171102
0.0229989 -0.9482124101892897 0.07141900892392908
0.0249988 -0.947661425968989 0.07767505595551377
0.0269987 -0.9469804150342137 0.08367569215644609
0.0289986 -0.9461401706470071 0.08972382700738862
0.0309985 -0.945402368390177 0.09568577527463581
0.0329984 -0.9448524323762502 0.10168487853947973
0.0349983 -0.9438261491386262 0.10779797686764686
0.0369982 -0.9432771453483705 0.11392038000630497
0.0389981 -0.9422002478704407 0.11977105328526837
0.040998 -0.9412360784922633 0.12567157543346583
0.0429979 -0.9399882548316542 0.13170141032475582
0.0449978 -0.9391069238842639 0.1378570819067715
0.0469977 -0.9384119199547896 0.14389769885003625
0.0489976 -0.9374621935513758 0.14963895646041853
0.0509975 -0.936323066871623 0.15567512213245555
0.0529974 -0.9354634608855354 0.16121299954031082
0.0549973 -0.93430874282615 0.16734708132166168
0.0569972 -0.9331757014952557 0.17327648491684688
0.0589971 -0.9319229641935283 0.1790738403443679
0.060997 -0.9308869554376211 0.1848956250633819
0.0629969 -0.9296929241036689 0.19077050691126324
0.0649968 -0.9279924811885341 0.1965469330265916
0.0669967 -0.9267783481807284 0.2024849553290513
0.0689966 -0.9254869982755773 0.20839147635415453
0.0709965 -0.923717781661474 0.21404169999596492
0.0729964 -0.922612236857854 0.22009588463647825
0.0749963 -0.921247516095046 0.22569228287659535
0.0769962 -0.9195227379499862 0.2315872179856571
0.0789961 -0.9179601210596384 0.2373228167554591
0.080996 -0.916530345573987 0.24318742739929727
0.0829959 -0.9149156857412472 0.24885352079986975
0.0849958 -0.9131777745026328 0.2545598585252063
0.0869957 -0.9113129335950739 0.2604002786240282
0.0889956 -0.9095365767011628 0.2661967116429088
0.0909955 -0.9077922571626487 0.27188069885373106
0.0929954 -0.9057975292486763 0.27769151845849793
0.0949953 -0.9044541756575379 0.28327934820772077
0.0969952 -0.9020516931085555 0.28912500697375443
0.0989951 -0.9003224707741379 0.29485790023419056
0.100995 -0.8985776207469888 0.30031449926380094
0.1029949 -0.8960573206011505 0.30601206844020207
0.1049948 -0.8941639783816455 0.3117350041695609
0.1069947 -0.8919848529478951 0.3175738709459207
0.1089946 -0.8900722497339604 0.32299437127041
0.1109945 -0.8879867585047433 0.32874689097728693
0.1129944 -0.8859822020983138 0.3343401144947035
0.1149943 -0.8835005268175893 0.3401145741785159
0.1169942 -0.8813643890456035 0.3459253812749341
0.1189941 -0.8793145233773138 0.35154426923305776
0.120994 -0.8770931841875428 0.35714817111277586
0.1229939 -0.8745820718885959 0.3625747187828847
0.1249938 -0.8725531995108926 0.36813874800315616
0.1269937 -0.8703640833664998 0.3736329432578546
0.1289936 -0.8679821984792954 0.37908248309988934
0.1309935 -0.8655149099157571 0.38461342966572254
0.1329934 -0.8627672728055883 0.389800257260993
0.1349933 -0.8606434226816828 0.39538175541006626
0.1369932 -0.8583054844075094 0.40095354946772355
0.1389931 -0.8555130035083375 0.40617773413651254
0.140993 -0.8531525249775457 0.4114230588978019
0.1429929 -0.850347989456897 0.416973141114136
0.1449928 -0.8478170214297147 0.42237265323312384
0.1469927 -0.8451583836096452 0.4274607880111815
0.1489926 -0.8422135643412328 0.43255664411117484
0.1509925 -0.839488671766663 0.43828093844818067
0.1529924 -0.8364447802450815 0.4431330057933792
0.1549923 -0.833788143103781 0.4480891686178955
0.1569922 -0.830438010689949 0.453512647696488
0.1589921 -0.8278905159203965 0.45892222284870376
0.160992 -0.8244922725510223 0.4642280923012003
0.1629919 -0.8215000332319441 0.4691845695018147
0.1649918 -0.8185560499590028 0.47447193739112753
0.1669917 -0.8150569563675063 0.47955798817833556
0.1689916 -0.8118782614605634 0.48463619274837094
0.1709915 -0.808912783999583 0.49022927550795514
0.1729914 -0.805570552111838 0.49530187327308217
0.1749913 -0.802117435730188 0.5004393665538378
0.1769912 -0.7990383863734504 0.5053642281478046
0.1789911 -0.7953310395769458 0.5104053234563913
0.180991 -0.7922424636001705 0.5158425266054167
0.1829909 -0.7887249143731293 0.5208946650839803
0.1849908 -0.7853331288455179 0.5259076379272005
0.1869907 -0.7820877543940844 0.5316697283152376
0.1889906 -0.7782557309622111 0.5366202465948797
0.1909905 -0.7747429406926073 0.5417654053159215
0.1929904 -0.771260115120824 0.5468228521018101
0.1949903 -0.7681483042307408 0.5517486415705303
0.1969902 -0.764856226421784 0.5567750964835417
0.1989901 -0.7614810506784775 0.5616079066014126
0.20099 -0.7578470193600166 0.5664939091213801
0.2029899 -0.7542795677899877 0.571436528620077
0.2049898 -0.7506386842453581 0.5764876281388676
0.2069897 -0.7466969481606164 0.5813036298574673
0.2089896 -0.7434803689723548 0.5861205164690246
0.2109895 -0.7395941369884319 0.5907412770651761
0.2129894 -0.7362430262702414 0.5957320632985796
0.2149893 -0.7319836550622264 0.6001597630969876
0.2169892 -0.7285795465066792 0.6051703220642511
0.2189891 -0.7245553281050647 0.6095654337461032
0.220989 -0.7208366886399892 0.6141383083980624
0.2229889 -0.7166863954736484 0.6187444477689966
0.2249888 -0.7129227103623159 0.6232959998373762
0.2269887 -0.7087543973860991 0.627596044718217
0.2289886 -0.7047121217936834 0.6320231295412537
0.2309885 -0.7007092852209656 0.6364289822686531
0.2329884 -0.6965330692057392 0.6408201583303341
0.2349883 -0.6924624599905005 0.6453173695522788
0.2369882 -0.6881062849831181 0.6497119748634869
0.2389881 -0.6839369505419114 0.6539386890396048
0.240988 -0.6794782054172581 0.6583073565307002
0.2429879 -0.6752375403205292 0.6625414406879679
0.2449878 -0.6706806813061517 0.6668285083658194
0.2469877 -0.6663830690299335 0.670958638482354
0.2489876 -0.6615752343832119 0.6755691095390749
0.2509875 -0.6572762186299452 0.6796862501820808
0.2529874 -0.6526024259806283 0.6838420271335883
0.2549873 -0.6480534547541462 0.6883390207804022
0.2569872 -0.6435305306476549 0.6926144461117221
0.2589871 -0.6388652074044099 0.6970378368321384
0.260987 -0.6340777808180477 0.7012607550274377
0.2629869 -0.6295163647338295 0.7052353934565261
0.2649868 -0.625010496302169 0.7096385321071106
0.2669867 -0.6204702026525397 0.7137057257034373
0.2689866 -0.6158227371555701 0.7177805534572554
0.2709865 -0.6113870058474982 0.7219580193814142
0.2729864 -0.606563320278016 0.7259793161131415
0.2749863 -0.6019840694879026 0.7301230460512375
0.2769862 -0.5969863676680022 0.7342046921563075
0.2789861 -0.5922261379872205 0.7380822755211756
0.280986 -0.5875746813571778 0.7421234839570326
0.2829859 -0.5828262551925496 0.745760941316993
0.2849858 -0.5783285798839817 0.7499186294013406
0.2869857 -0.5734079767055025 0.7535012129287614
0.2889856 -0.5685112359597025 0.7573013823832603
0.2909855 -0.5635489738827552 0.7608790637470288
0.2929854 -0.5586931179771358 0.7648999467252346
0.2949853 -0.5539919735320397 0.7683137324557919
0.2969852 -0.5484722924226738 0.7718777216742361
0.2989851 -0.5437789756548618 0.7754676979009473
0.300985 -0.5383750125454018 0.7785739164061998
0.3029849 -0.5333266890908622 0.7825572823657805
0.3049848 -0.5284591465477999 0.7855898268493801
0.3069847 -0.522828255652204 0.789085758382856
0.3089846 -0.517803541423886 0.7921214900037424
0.3109845 -0.512517892112072 0.7956276451810191
0.3129844 -0.5073484945761162 0.7987840601784785
0.3149843 -0.5021273519866051 0.801932494589296
0.3169842 -0.49672869180153906 0.8052131674953319
0.3189841 -0.4911949891728675 0.808558821055472
0.320984 -0.4855909584984323 0.8117819962099329
0.3229839 -0.48032803621863723 0.8153356227689109
0.3249838 -0.47462284556251455 0.818630010041718
0.3269837 -0.46897668973523154 0.8215689632276825
0.3289836 -0.4635459264212271 0.8248550051431116
0.3309835 -0.4577830391602393 0.8277683960192325
0.3329834 -0.45236464151701716 0.8306789515080568
0.3349833 -0.4469236045673799 0.8335729430023779
0.3369832 -0.44133683838846016 0.8369940026642713
0.3389831 -0.43542274407727233 0.839904155772201
0.340983 -0.42997781893179765 0.8428410605261017
0.3429829 -0.424209480256846 0.8461889274274113
0.3449828 -0.4183721914585039 0.8488385486490563
0.3469827 -0.4129538799069489 0.8519595624733451
0.3489826 -0.40719325857134925 0.8549431548645446
0.3509825 -0.40148581425265323 0.8577533126793453
0.3529824 -0.3954474208980136 0.8605559787080851
0.3549823 -0.3901078894001786 0.8636495205993557
0.3569822 -0.38422119957274103 0.8659789620188658
0.3589821 -0.37846018133787407 0.8684765248285217
0.360982 -0.37274318668827533 0.8711915552349766
0.3629819 -0.3669074958557483 0.8738706111701309
0.3649818 -0.36137520491186154 0.8759920539693045
0.3669817 -0.3554713307675378 0.878560590226564
0.3689816 -0.34966761936015245 0.8810175045811531
0.3709815 -0.34359674340937413 0.8833561417908535
0.3729814 -0.3380427595361846 0.8855518115147578
0.3749813 -0.332215019077078 0.8880298170525096
0.3769812 -0.3262237460460207 0.8905401295356502
0.3789811 -0.3203580396856329 0.8924996693377469
0.380981 -0.31438509779887386 0.8944620476321394
0.3829809 -0.30850421291787244 0.8964893183420931
0.3849808 -0.30235856825029633 0.8984773699223614
0.3869807 -0.29635994424914863 0.9009385659101073
0.3889806 -0.2902838763480975 0.9026920044274641
0.3909805 -0.2843552571942097 0.9044944753173856
0.3929804 -0.2778219700071977 0.9063236502219246
0.3949803 -0.27190307909735706 0.907824058016608
0.3969802 -0.26541586255469396 0.9098343466879945
0.3989801 -0.25892013238084105 0.911522672318958
0.40098 -0.2526833102866969 0.9128799869512141
0.4029799 -0.24643406002583015 0.9148322593406555
0.4049798 -0.23995005767941374 0.9165113660048358
0.4069797 -0.23381330371207681 0.918348873134108
0.4089796 -0.22783124772044044 0.9200625509562618
0.4109795 -0.2212990738799741 0.9215785279389647
0.4129794 -0.21467159572337877 0.9229815894895335
0.4149793 -0.20818043407431427 0.9248120455422632
0.4169792 -0.2017911552560863 0.9264271114988097
0.4189791 -0.19551930248622118 0.9278727660023589
0.420979 -0.18900016371728423 0.9291647474017218
0.4229789 -0.18270978022845558 0.9302867172386279
0.4249788 -0.1763150475790813 0.931731919731682
0.4269787 -0.16999115876716706 0.9329040548651019
0.4289786 -0.16329891335981056 0.9342300904293541
0.4309785 -0.15733487493356646 0.9355630561814898
0.4329784 -0.1505859760202678 0.936670747732206
0.4349783 -0.1441545263132767 0.9376987121274173
0.4369782 -0.13759286457118855 0.9387353105180628
0.4389781 -0.13128629720584672 0.939772147265593
0.440978 -0.12467384516570754 0.9408612836419159
0.4429779 -0.11842668152780618 0.941734283353882
0.4449778 -0.11184913146762133 0.9426672931088192
0.4469777 -0.10531712381871447 0.9433627909897393
0.4489776 -0.09854625006402007 0.9440752925077659
0.4509775 -0.09212872682390104 0.9446360252267716
0.4529774 -0.08570375717808984 0.9456465534248519
0.4549773 -0.07929072919896679 0.9462682361823648
0.4569772 -0.0724048345530219 0.9467417873400769
0.4589771 -0.0659870152543566 0.9473255257907506
0.460977 -0.059210818895997074 0.9479057007881063
0.4629769 -0.052437547043561086 0.9481216003023122
0.4649768 -0.04591235597101795 0.9482374105441107
0.4669767 -0.0390630906519963 0.9483571607269409
0.4689766 -0.03211021902271181 0.9489466541446739
0.4709765 -0.02624965172547409 0.9488638129632236
0.4729764 -0.019415796411091348 0.9494187849080533
0.4749763 -0.012751389906122821 0.9497948351859998
0.4769762 -0.00540788502025619 0.9495539088888032
0.4789761 0.0007541233161884667 0.9499459083369319
0.480976 0.007793520745335493 0.9500746465292771
0.4829759 0.014488031258621636 0.950226132002906
0.4849758 0.021050377429849297 0.9501988908015964
0.4869757 0.028161347216256905 0.9499162493557132
0.4889756 0.034726967785273594 0.9501241151083661
0.4909755 0.0413962209054274 0.9498362075701586
0.4929754 0.04794886938251866 0.9498072358419682
0.4949753 0.05434315099185617 0.9497588240250691
0.4969752 0.061349505309527506 0.9490902550650673
0.4989751 0.06782490023972024 0.949002742295898
0.500975 0.07440986344004308 0.9486028914298712
0.5029749 0.08082764863624539 0.9483270269262137
0.5049748 0.08727627481568184 0.9475547548708151
0.5069747 0.09399697111481094 0.9467658818838025
0.5089746 0.10028631325944055 0.9461313298568098
0.5109745 0.10740262219293685 0.9455008100393388
0.5129744 0.11385954004300933 0.9447118607751149
0.5149743 0.12047114223503974 0.9440584834982773
0.5169742 0.12738336057303992 0.9435151432225286
0.5189741 0.13354793159798242 0.9424477665777133
0.520974 0.14019073419222275 0.9414218481819255
0.5229739 0.14719427797851062 0.9400595335228991
0.5249738 0.15342477992495374 0.9389680180334024
0.5269737 0.16027927182689616 0.937794214212335
0.5289736 0.16680685488151584 0.9365465996702713
0.5309735 0.17380841216221846 0.9348877957994474
0.5329734 0.1805690083469667 0.9334922039070402
0.5349733 0.18717947370053437 0.9319944346967954
0.5369732 0.19403826932007615 0.9307212014787476
0.5389731 0.20045514571521567 0.9292996627882084
0.540973 0.20779167201129012 0.9278927580343957
0.5429729 0.21422589338236486 0.926271803156951
0.5449728 0.22110387445443513 0.9244169723190196
0.5469727 0.22783486044254164 0.9231566234422056
0.5489726 0.2349869986017368 0.9213573239444073
0.5509725 0.24160131876094182 0.9197204185159588
0.5529724 0.2483754909609696 0.9181010326991466
0.5549723 0.2553855960320725 0.9162715000484615
0.5569722 0.2618698104636764 0.9144342096578842
0.5589721 0.2687041580950154 0.9124468445086708
0.560972 0.275752644376363 0.9107821327927231
0.5629719 0.28254990215189674 0.9092915035368981
0.5649718 0.28913923677921793 0.907718370443046
0.5669717 0.29542882589140623 0.9057325193392497
0.5689716 0.3022672431235459 0.9034423980313963
0.5709715 0.30885886780516725 0.9014841480492376
0.5729714 0.31536487050976003 0.8996544276289282
0.5749713 0.3219382100307597 0.8976417107058732
0.5769712 0.32827054056454047 0.8953774564032647
0.5789711 0.33458449696056203 0.8933013346093125
0.580971 0.3408009209481182 0.8909426443625004
0.5829709 0.34702877795073367 0.8887009082055742
0.5849708 0.3536337440229095 0.8863995617981596
0.5869707 0.35961073968938767 0.8840009134235126
0.5889706 0.3664748305718386 0.8810704658484507
0.5909705 0.3722287224927725 0.8782187438220347
0.5929704 0.3785723505738251 0.8756559351927574
0.5949703 0.3848457879347402 0.8726147933455042
0.5969702 0.39132633964125246 0.869910013544398
0.5989701 0.39762387328439514 0.8665172058931989
0.60097 0.4038639110521806 0.86341851003253
0.6029699 0.4099757656106638 0.8601521773287225
0.6049698 0.4164477207607087 0.8570139742928926
0.6069697 0.42274128712036746 0.8538174493074201
0.6089696 0.42846324678485254 0.8510392296328021
0.6109695 0.4349458064913646 0.8474036620575234
0.6129694 0.44104558443857567 0.8441419024679748
0.6149693 0.4475586656685949 0.8415599147407126
0.6169692 0.45417185765900453 0.8378982839537009
0.6189691 0.46079168308513474 0.8343778551345519
0.620969 0.46640626575325755 0.831115702617445
0.6229689 0.4727081429234244 0.8272082288609828
0.6249688 0.4792750069969133 0.8242555348512969
0.6269687 0.4856089785033888 0.8201653415170945
0.6289686 0.4916160953434482 0.8166953693269093
0.6309685 0.49799219044147125 0.8129346997677377
0.6329684 0.504061874821475 0.8096414435462153
0.6349683 0.5105195388906276 0.806423279622561
0.6369682 0.5162490516796016 0.8025745476903001
0.6389681 0.5224407041860747 0.7989922913192011
0.640968 0.5284925610711243 0.7956023879813094
0.6429679 0.5341537090731818 0.7917254176791948
0.6449678 0.5401456293114469 0.7882744633945477
0.6469677 0.545803404279656 0.7841858404228519
0.6489676 0.5511555209256247 0.7804436414703474
0.6509675 0.5573529087480926 0.7764144681520067
0.6529674 0.5631395097952216 0.7727259469648544
0.6549673 0.5686410745279569 0.768365319391431
0.6569672 0.5741867124699879 0.7646072274279261
0.6589671 0.5798104200139592 0.7600171646992572
0.660967 0.585143892326261 0.7555536738240003
0.6629669 0.5903013253792572 0.7510282401490347
0.6649668 0.5953109794754865 0.7470467697773041
0.6669667 0.6013659781068015 0.7427162917736916
0.6689666 0.6062995845843048 0.7382803709876194
0.6709665 0.6115210957576366 0.7337330965019724
0.6729664 0.6170355909941925 0.728299203848263
0.6749663 0.6222129921461081 0.7239590060380887
0.6769662 0.6277952443456265 0.7190028508779572
0.6789661 0.6332165067708707 0.7141820483817392
0.680966 0.638074273580102 0.709172272622625
0.6829659 0.6434662725845204 0.7043682747792444
0.6849658 0.6490565422732824 0.6995031620064998
0.6869657 0.6541603142151151 0.6944214197376151
0.6889656 0.6592216651307159 0.6895427798957318
0.6909655 0.6641208817796996 0.6841188107309101
0.6929654 0.6696651892740569 0.6788149965194992
0.6949653 0.6748020615533683 0.673853982116778
0.6969652 0.6800924151800107 0.6683335083390152
0.6989651 0.685366276427012 0.6632315839451314
0.700965 0.6904337492537184 0.6578540470399389
0.7029649 0.6953406928819122 0.6524841564577897
0.7049648 0.700947037084108 0.647505099768668
0.7069647 0.7059883411740442 0.642015193187734
0.7089646 0.7109325986017077 0.6367329238473322
0.7109645 0.7161458924531555 0.6316488516499855
0.7129644 0.721238320403954 0.6264056453708989
0.7149643 0.725876561445234 0.6208519751671917
0.7169642 0.7306343932026469 0.6155164428954736
0.7189641 0.735454628351626 0.6107263575399533
0.720964 0.7396855257791826 0.6049302474878372
0.7229639 0.7440852022088283 0.5993315957995728
0.7249638 0.7494392042940525 0.594129696662233
0.7269637 0.7536494108633719 0.5885158808372329
0.7289636 0.7581199778435262 0.5832729826088258
0.7309635 0.7624447754030582 0.5775136460005729
0.7329634 0.7668094961085564 0.5720416593291062
0.7349633 0.7709101536174261 0.5663000875695593
0.7369632 0.7746194711850135 0.5608958847703227
0.7389631 0.779031761640746 0.5548510340175167
0.740963 0.7826474572087794 0.5489354641286546
0.7429629 0.7869788977894798 0.5429531576628216
0.7449628 0.7909063198230092 0.5374884942200377
0.7469627 0.7947334524419192 0.5317080076034478
0.7489626 0.7985901516338304 0.5252278953514081
0.7509625 0.8020209541114971 0.5188490096030177
0.7529624 0.8062364462813651 0.5129891971372786
0.7549623 0.8098158202612563 0.5070238494924991
0.7569622 0.8133724432833791 0.5006805541750652
0.7589621 0.8169897388208146 0.49426369071742154
0.760962 0.82035840624386 0.4882039522673889
0.7629619 0.8242331158067197 0.48102892935929004
0.7649618 0.8281361816720896 0.475331647633833
0.7669617 0.8313749464031672 0.4691635881857974
0.7689616 0.834868383592698 0.46212469374831905
0.7709615 0.8384409549920124 0.45576080547837194
0.7729614 0.8422037741173888 0.4494009818073793
0.7749613 0.8457280208673824 0.4431935488571906
0.7769612 0.8491010243287053 0.4362019148619829
0.7789611 0.8520858942952063 0.42964300941559863
0.780961 0.8554416648621023 0.4233318759267806
0.7829609 0.8586787834236971 0.4164667452593838
0.7849608 0.8621452821689086 0.410534090229678
0.7869607 0.8651376859806895 0.4035938069342523
0.7889606 0.8687051182480879 0.3965979724950061
0.7909605 0.871787449899053 0.3903691921936361
0.7929604 0.8747075351270454 0.38396227360903395
0.7949603 0.8774838958265557 0.3775034847044454
0.7969602 0.8803874236814079 0.37024511682397787
0.7989601 0.8831486810161641 0.36337451555620914
0.80096 0.886406280144209 0.3575578977254326
0.8029599 0.8888451317113354 0.35091642881119406
0.8049598 0.8914584755239058 0.34428650733974114
0.8069597 0.8942664287355552 0.3377097139541412
0.8089596 0.8966492304840059 0.33094314859905916
0.8109595 0.8990467374563507 0.323987209361093
0.8129594 0.901339254700971 0.3171507534860442
0.8149593 0.9038169739005066 0.31079247844266555
