! Created with skrf 1.8.0 (http://scikit-rf.org).
# GHz S RI R 50.0 
!freq ReS11 ImS11
0.001 -0.9151556958158917 0.004798444601583949
0.0029999 -0.9150027489666899 0.010082740750423168
0.0049998 -0.9141779702527416 0.01531490031342099
0.0069997 -0.9137735136642611 0.02077371785293952
0.0089996 -0.913383337081005 0.026481018739648428
0.0109995 -0.9130381697229795 0.03186006064324519
0.0129994 -0.9126426492220161 0.03712399488605926
0.0149993 -0.912187476928092 0.042735475894538875
0.0169992 -0.9116209477515744 0.04797758151199016
0.0189991 -0.910861941220647 0.05371771560922135
0.020999 -0.9104203399985971 0.058946256248253746
0.0229989 -0.9100715651747948 0.0643157701638498
0.0249988 -0.9091796701744422 0.06988397763752566
0.0269987 -0.9089651327316248 0.07504082146264314
0.0289986 -0.9080369556858351 0.0805865521401726
0.0309985 -0.9075015189530675 0.08603916300662276
0.0329984 -0.9067121350521089 0.09106416622830746
0.0349983 -0.9062608323216085 0.09672782505185942
0.0369982 -0.905642349197192 0.10226012715320457
0.0389981 -0.9049351122954686 0.10758677645514018
0.040998 -0.9041839057124592 0.11237915261488907
0.0429979 -0.9030793429036055 0.11811682849599026
0.0449978 -0.9025635008304652 0.12345971432264904
0.0469977 -0.9016883899235398 0.12894738475070494
0.0489976 -0.9009138940853113 0.13408924230602481
0.0509975 -0.8999561454104573 0.13955914340517112
0.0529974 -0.8993302099888394 0.14444153225190115
0.0549973 -0.8984416188502459 0.15021848541253516
0.0569972 -0.8971076573666322 0.15526887086506186
0.0589971 -0.896250796691582 0.16044964110421894
0.060997 -0.8952534884870929 0.16575919004125783
0.0629969 -0.8940957394175717 0.17092066108723256
0.0649968 -0.8930504678066469 0.17608667360640085
0.0669967 -0.8922519191021818 0.18143634454070126
0.0689966 -0.8910743759660693 0.18682296042698263
0.0709965 -0.8895770339829535 0.19185296667679086
0.0729964 -0.8887088521861319 0.1972188440967899
0.0749963 -0.8875495786851298 0.20230627369548498
0.0769962 -0.8858983636122387 0.20733938181201894
0.0789961 -0.8845803465116394 0.21270296113383708
0.080996 -0.883475801517265 0.21779109951253667
0.0829959 -0.8822392527632424 0.22297773644684835
0.0849958 -0.880504244187396 0.2282245839213379
0.0869957 -0.8792091687701464 0.2333484034833079
0.0889956 -0.8776102050813486 0.2386470050657148
0.0909955 -0.8761755736398433 0.24381641568819595
0.0929954 -0.8744520990734176 0.24902927845662698
0.0949953 -0.8733346308415249 0.2538509787858151
0.0969952 -0.8715789615948203 0.25913287344814784
0.0989951 -0.8700281226638965 0.2641772198935088
0.100995 -0.8680716134214754 0.2694936823593715
0.1029949 -0.8664781548362007 0.2743186672326923
0.1049948 -0.8649097390566826 0.27945133816279244
0.1069947 -0.8630600547986393 0.28483088080827784
0.1089946 -0.8612855416749864 0.2896351853942069
0.1109945 -0.8596768330880971 0.2951042780486534
0.1129944 -0.8576644740620966 0.2999873231261449
0.1149943 -0.8558447936773227 0.3052304192622167
0.1169942 -0.8541070537770877 0.3104036971619047
0.1189941 -0.8524723321307148 0.3155672328124829
0.120994 -0.8503417640505546 0.32068792666434165
0.1229939 -0.8485498202467102 0.32546981148345877
0.1249938 -0.8469146552461188 0.33030849226903386
0.1269937 -0.8449959822728007 0.33525581138659155
0.1289936 -0.8431403744810648 0.3406008871665694
0.1309935 -0.8408636653993016 0.3455006448531058
0.1329934 -0.8390277505789315 0.34992386964335453
0.1349933 -0.8369341533653438 0.35526480189920395
0.1369932 -0.8349690297273143 0.35993294393994363
0.1389931 -0.8329143565163085 0.3649844969343211
0.140993 -0.8307649294558145 0.3699284853697294
0.1429929 -0.82844223888399 0.37472171254018394
0.1449928 -0.8264759681780138 0.3794096598497553
0.1469927 -0.8241086813135688 0.3839568894105084
0.1489926 -0.8218093081578871 0.3888292829861061
0.1509925 -0.8193703287196044 0.3939583594352313
0.1529924 -0.817011356552521 0.39821268991023273
0.1549923 -0.8145126673333744 0.40274778993734633
0.1569922 -0.8117503664771952 0.407802995376605
0.1589921 -0.8095841701563016 0.41276407066625875
0.160992 -0.8066630149624331 0.4177508120176198
0.1629919 -0.8045842551164925 0.42233855956684696
0.1649918 -0.8018608724553422 0.426931479868222
0.1669917 -0.7989460804901185 0.4316562379557964
0.1689916 -0.7964879687216809 0.43629316194324264
0.1709915 -0.7939474283247197 0.4413822597480995
0.1729914 -0.79084363624578 0.44594309151290373
0.1749913 -0.7880402702789431 0.4504110094592073
0.1769912 -0.7856039687167328 0.4552531751485448
0.1789911 -0.7824656739376054 0.459916698330591
0.180991 -0.7797775268190877 0.4647122089690125
0.1829909 -0.7768495572069526 0.4697242028465076
0.1849908 -0.7743811597711165 0.47423335553329105
0.1869907 -0.7714461052594693 0.4791342428924642
0.1889906 -0.7683177987292726 0.4837208030964439
0.1909905 -0.765370406884469 0.48866741940165453
0.1929904 -0.7624711505982618 0.4934715472382469
0.1949903 -0.7598239572940375 0.4980303563998154
0.1969902 -0.7572203361045479 0.5024767038220126
0.1989901 -0.7543093074963634 0.5069378808581827
0.20099 -0.7514452264253788 0.5114849990222936
0.2029899 -0.7484312051827261 0.5161846459174018
0.2049898 -0.7454660690241126 0.5206946966608423
0.2069897 -0.742275009528019 0.524951194878019
0.2089896 -0.7391661847367386 0.5293889665255217
0.2109895 -0.7358385680876111 0.5337378685083121
0.2129894 -0.7331937726974899 0.5384444324198999
0.2149893 -0.7298118434456001 0.5424767555690102
0.2169892 -0.7269823849876219 0.5468593424912261
0.2189891 -0.7234166539057997 0.551444982059269
0.220989 -0.7207267332441304 0.5557073902359941
0.2229889 -0.7170202068370837 0.5595477495345562
0.2249888 -0.7139190531678636 0.5639658330161017
0.2269887 -0.7106526466553438 0.568266239879312
0.2289886 -0.7069219564323208 0.5724170712931864
0.2309885 -0.7034640540650645 0.5762153325862137
0.2329884 -0.7001074131369129 0.5803817132837156
0.2349883 -0.6967857066827272 0.5847489131780972
0.2369882 -0.6930384667210887 0.5889716060724195
0.2389881 -0.6894424075179268 0.5928985518322555
0.240988 -0.6857980263533933 0.5969893389550728
0.2429879 -0.6821398297313929 0.6011298803376232
0.2449878 -0.6782453756238859 0.6049544587298806
0.2469877 -0.6744495963152237 0.6088875261901764
0.2489876 -0.6708831920982375 0.6134265057771485
0.2509875 -0.6670149805450413 0.6170129721513948
0.2529874 -0.6631915589101743 0.6212176163500965
0.2549873 -0.659438483042992 0.6255097312291851
0.2569872 -0.655731032034843 0.6296029277755604
0.2589871 -0.6515912756064411 0.6337644800162183
0.260987 -0.6475899422910558 0.637518145251634
0.2629869 -0.643944244604166 0.6414747483870594
0.2649868 -0.6404211545097708 0.6454569398471915
0.2669867 -0.6364055718200818 0.6496175593485018
0.2689866 -0.6324205538414949 0.6532931749500406
0.2709865 -0.6285038212403337 0.6575806102134507
0.2729864 -0.6247796954099578 0.6613455054488543
0.2749863 -0.6207290874876632 0.6652286181617136
0.2769862 -0.6163950026963031 0.6690145293541645
0.2789861 -0.6126055669015189 0.6731485911953184
0.280986 -0.6086944159990387 0.6767258156178212
0.2829859 -0.6046827942187833 0.6803322085085207
0.2849858 -0.600627297505566 0.6842565684456513
0.2869857 -0.5968683509241818 0.6880412896153735
0.2889856 -0.5927282696562183 0.6915536558751788
0.2909855 -0.58838531512289 0.6950191291691866
0.2929854 -0.584417694570145 0.6989622630695554
0.2949853 -0.5801293861912908 0.7024229292973525
0.2969852 -0.5756029826204282 0.7058351899621198
0.2989851 -0.5717120949458511 0.70919083435815
0.300985 -0.5671304029462452 0.7123208269697568
0.3029849 -0.5627746043228863 0.715836896424815
0.3049848 -0.5588858142901146 0.7192061287926609
0.3069847 -0.554161363495205 0.722733899578869
0.3089846 -0.5499035444158391 0.7258946311112644
0.3109845 -0.5450363171432295 0.7291759621042964
0.3129844 -0.54077382963241 0.7325161534782854
0.3149843 -0.5363816079035312 0.7357176503804249
0.3169842 -0.5317948071863764 0.7390671637123399
0.3189841 -0.5270487526350986 0.7420823735076361
0.320984 -0.5226545519713451 0.7451155749657742
0.3229839 -0.5176726975549627 0.7489499984105968
0.3249838 -0.513007808545234 0.7520348290052582
0.3269837 -0.5081199000057942 0.7550911251078198
0.3289836 -0.5037533656302875 0.7584547113402902
0.3309835 -0.49869606054618537 0.7618082474175338
0.3329834 -0.4943052712014156 0.7644658225322298
0.3349833 -0.48947283725642243 0.767527489685629
0.3369832 -0.48470856440127585 0.7710145773224658
0.3389831 -0.48022177387008985 0.7738613055306959
0.340983 -0.4749772166942681 0.7771611426679143
0.3429829 -0.4702548503908215 0.7803726894421027
0.3449828 -0.4652099645376111 0.7834200606934594
0.3469827 -0.4606956449843246 0.7863473899612308
0.3489826 -0.4559068375754446 0.7895795790206456
0.3509825 -0.4509961296038588 0.7924690309062105
0.3529824 -0.4462963266700372 0.7954152613967844
0.3549823 -0.4412669531098519 0.798555699382098
0.3569822 -0.4363593476268497 0.8014446766835388
0.3589821 -0.4313201917794823 0.8040162082619335
0.360982 -0.42668976245819945 0.8066537068698773
0.3629819 -0.42154106325951995 0.80945894972714
0.3649818 -0.41659132543728694 0.8119218630818731
0.3669817 -0.41166896614301657 0.8148464931333971
0.3689816 -0.40666305081771237 0.8169911817197175
0.3709815 -0.4016309652568394 0.8199201398701443
0.3729814 -0.39693540827252255 0.8224766771083043
0.3749813 -0.3917625500602561 0.8250114998434646
0.3769812 -0.3865595577701399 0.8273138710041784
0.3789811 -0.3813560864495068 0.830044815936141
0.380981 -0.3764773750477974 0.8322165343011425
0.3829809 -0.3715992769289314 0.8344291315695231
0.3849808 -0.3661461896507559 0.8367660106404288
0.3869807 -0.36093923030730757 0.8391546293054852
0.3889806 -0.35585676897916063 0.8415623261515403
0.3909805 -0.3504218433635942 0.8437181129005459
0.3929804 -0.34492247757412065 0.8457197272274487
0.3949803 -0.33961491581993397 0.8478186990553782
0.3969802 -0.33450403166099046 0.8498187486830138
0.3989801 -0.328978367475496 0.8519188525435077
0.40098 -0.32334054495908326 0.8538092131450769
0.4029799 -0.3177941007840897 0.8561770965699955
0.4049798 -0.31244357087311875 0.8581367268205572
0.4069797 -0.3069762824631748 0.8600910919087671
0.4089796 -0.3015889003056359 0.8625890353788798
0.4109795 -0.2960039872920885 0.864284496134781
0.4129794 -0.2900983689651601 0.866340032821888
0.4149793 -0.2847265637866303 0.8681705119262275
0.4169792 -0.2792811323059334 0.8703977600331896
0.4189791 -0.27378035196158534 0.872333747960468
0.420979 -0.2680851493293951 0.8741916779343232
0.4229789 -0.2625254468717485 0.8754875123227658
0.4249788 -0.25711498212789363 0.8775978331746423
0.4269787 -0.25162733331050546 0.8792685715416222
0.4289786 -0.24606908638429847 0.8811219457770056
0.4309785 -0.24071255766787053 0.882619212991398
0.4329784 -0.23470419966661202 0.8844210114376264
0.4349783 -0.22921520202170173 0.8858841614467605
0.4369782 -0.22318814524229658 0.8876383832722823
0.4389781 -0.21770166541276698 0.8889794086119535
0.440978 -0.21227993821738222 0.8908182122832446
0.4429779 -0.2066278218746091 0.8919833422037033
0.4449778 -0.20094307561254993 0.8935825532228243
0.4469777 -0.1949635412682094 0.8947659938914252
0.4489776 -0.1893665227109897 0.8961285047091379
0.4509775 -0.18370939022270152 0.8970971303204219
0.4529774 -0.17797105337077807 0.898382895648881
0.4549773 -0.17216222739789225 0.9001143766874182
0.4569772 -0.1665573593547375 0.9010928258748693
0.4589771 -0.16071429105721483 0.9020108384303881
0.460977 -0.15464029338642873 0.9035941139700261
0.4629769 -0.14903032864780963 0.9043147538522934
0.4649768 -0.14281764471261102 0.9052263078199716
0.4669767 -0.13682056489895245 0.9061830739833248
0.4689766 -0.13089059332991115 0.9070753518278476
0.4709765 -0.12548573969979346 0.9077818865635955
0.4729764 -0.11949835422471335 0.9088048677242926
0.4749763 -0.11360328092976858 0.9099234456739893
0.4769762 -0.10746870588992988 0.9105916477412661
0.4789761 -0.10153816238899056 0.9114192285198492
0.480976 -0.09560512168023746 0.9123834650724197
0.4829759 -0.08949270980618532 0.9134560085289836
0.4849758 -0.08353656273172032 0.9140780953562743
0.4869757 -0.07737636804464203 0.9143461785873335
0.4889756 -0.07166341145966232 0.9153815737840886
0.4909755 -0.06559626368141444 0.9162314651157017
0.4929754 -0.059722700133649234 0.9165831099043272
0.4949753 -0.05401496928652312 0.9174107328371619
0.4969752 -0.047962261138024063 0.9174703952436447
0.4989751 -0.04209952838453312 0.9185217941713993
0.500975 -0.03654795601709042 0.9188769850560906
0.5029749 -0.03049511945655546 0.919101779402989
0.5049748 -0.02458931890002155 0.9190602945349517
0.5069747 -0.018411585008554464 0.9192399791303296
0.5089746 -0.013047952510134707 0.9192715528368738
0.5109745 -0.006837349352841578 0.9198126777164118
0.5129744 -0.0007745530105382689 0.9199798888860906
0.5149743 0.005307149588899079 0.9198300456951185
0.5169742 0.011277393992765387 0.9197485846611708
0.5189741 0.016995853356120236 0.9199150205361462
0.520974 0.023347840229156216 0.9201495337831994
0.5229739 0.029215588300052088 0.9194787401059479
0.5249738 0.03496688944321602 0.9189936840596722
0.5269737 0.0414445754581676 0.9188846198759156
0.5289736 0.04710209386100997 0.9188202921822367
0.5309735 0.05377782057082627 0.9183412113481345
0.5329734 0.05972776317664365 0.9177153031857457
0.5349733 0.06573001187516135 0.9172196613608242
0.5369732 0.07213224700924421 0.9166109144435681
0.5389731 0.07808088247205061 0.9163592837440007
0.540973 0.08444991824116024 0.9156587461729199
0.5429729 0.0905019174399769 0.9150825513022699
0.5449728 0.09691152008985747 0.9145873381074658
0.5469727 0.10308555939268607 0.9140143889278598
0.5489726 0.10962265536381992 0.91378000796668
0.5509725 0.11571698435915206 0.9128880868087776
0.5529724 0.12218969641043115 0.9122572553776217
0.5549723 0.12866192304839025 0.911631420863507
0.5569722 0.13445110822951378 0.9108326818973875
0.5589721 0.14077592263533217 0.9101032663157588
0.560972 0.1472351791300736 0.9093015330963328
0.5629719 0.15336749077586367 0.9087823275497104
0.5649718 0.15948877778599793 0.908389568315433
0.5669717 0.165722466950391 0.9076133125980613
0.5689716 0.1717905840239926 0.9062578826255618
0.5709715 0.17787074762612642 0.9055961957646124
0.5729714 0.18412990290366116 0.9047305983367613
0.5749713 0.1902028331194355 0.9039668511524154
0.5769712 0.196168991149829 0.9028053622952253
0.5789711 0.20190546009121746 0.9017419407056194
0.580971 0.207814774066042 0.9003742311518106
0.5829709 0.21357480024370584 0.8994483532335791
0.5849708 0.21959652352904002 0.8978771895534752
0.5869707 0.22498750594596942 0.8969493125312442
0.5889706 0.23140136992244106 0.8950822867684095
0.5909705 0.23756757454076785 0.893496436786044
0.5929704 0.24361379451538262 0.8917915310558693
0.5949703 0.24945715722784703 0.8902643485860002
0.5969702 0.2551070980080524 0.8882356860568931
0.5989701 0.26182809695588033 0.8867739145461867
0.60097 0.2675431644468204 0.8845991528554905
0.6029699 0.27331912708943895 0.8826675135224098
0.6049698 0.27960558672625513 0.8805881039862196
0.6069697 0.2852156967505056 0.8785975595079644
0.6089696 0.29159613128647827 0.8768477407154716
0.6109695 0.2973668014813394 0.8745248148723989
0.6129694 0.3032980844027128 0.872597826918964
0.6149693 0.309199747032006 0.8708549434932202
0.6169692 0.31586206964275537 0.8687557898267397
0.6189691 0.32232358353173834 0.8667527382326351
0.620969 0.328061196476348 0.8643628770986146
0.6229689 0.33413926053175563 0.8623145684303101
0.6249688 0.34010070818998794 0.8603433261194652
0.6269687 0.3462133842478616 0.8576788408297055
0.6289686 0.3523764257203013 0.8551448304926488
0.6309685 0.3585398004079262 0.8530205198098371
0.6329684 0.3643158768711472 0.8508260645615429
0.6349683 0.3707721730423213 0.8487816623485674
0.6369682 0.376358919715137 0.8463599496421544
0.6389681 0.3827963041740913 0.8445997671911813
0.640968 0.38850072472644515 0.8422242208484014
0.6429679 0.39405810286540993 0.839249361226985
0.6449678 0.39975639485508724 0.8374126373907653
0.6469677 0.4056664389780735 0.83462471175702
0.6489676 0.4109426930206673 0.8321873257791488
0.6509675 0.4165791366828777 0.8291894758699979
0.6529674 0.422644691367551 0.8272606855698517
0.6549673 0.4282573114707014 0.8240806393741619
0.6569672 0.43394032933163 0.8214030120135538
0.6589671 0.4394528947330161 0.8180438587211731
0.660967 0.444698707573827 0.8152859457863084
0.6629669 0.4501935903414656 0.8123603290893558
0.6649668 0.45560673886690034 0.8088418354335747
0.6669667 0.4606880033966433 0.8061013758581278
0.6689666 0.4664766016861916 0.8029571029076488
0.6709665 0.471331587215472 0.7992914756041437
0.6729664 0.47714408444008477 0.7958628930612947
0.6749663 0.4827689983347519 0.7927746246030669
0.6769662 0.4885582719305033 0.7891258383318684
0.6789661 0.4939291229164276 0.786043555171194
0.680966 0.49907047452961606 0.7821191549717028
0.6829659 0.5048691428065308 0.7785774147643649
0.6849658 0.510431698072205 0.7749415915903317
0.6869657 0.5157642675118693 0.771536222522001
0.6889656 0.5213720872839973 0.7675716443520024
0.6909655 0.5267740616512925 0.7636702839938179
0.6929654 0.5324026481395984 0.7597148593707581
0.6949653 0.5377969490056457 0.7560189836026578
0.6969652 0.5431497985601653 0.7518043992999401
0.6989651 0.5486491405528158 0.7482581183675496
0.700965 0.5546163892038404 0.7442590144881511
0.7029649 0.5595628534557311 0.740332922134556
0.7049648 0.5652512254354424 0.7366613043326765
0.7069647 0.57117823291894 0.7327570548312836
0.7089646 0.5764577289947209 0.7288833672931684
0.7109645 0.5819079343579739 0.7250692063051452
0.7129644 0.587425536384565 0.7214133655154596
0.7149643 0.5926790947881744 0.7172043030810954
0.7169642 0.5976673079496343 0.7132861873906713
0.7189641 0.6030016984501807 0.7097336728006234
0.720964 0.6078172338711532 0.7053542480026618
0.7229639 0.6127239925270309 0.701678612885492
0.7249638 0.6179651291576076 0.6968844465654727
0.7269637 0.6232236464098956 0.6932023023286241
0.7289636 0.6281431386951714 0.6889942456345106
0.7309635 0.6327415805812633 0.6848769203608285
0.7329634 0.6374795200818217 0.680764934325897
0.7349633 0.6422793781794014 0.6763160217742975
0.7369632 0.6471900854728455 0.6720682410205221
0.7389631 0.651401158718338 0.6674897613808387
0.740963 0.6559441176741606 0.6628133099492909
0.7429629 0.6609526642293185 0.6587843602363246
0.7449628 0.6655050935533793 0.6542000757031242
0.7469627 0.6696050499813075 0.6493436293217938
0.7489626 0.6743308300786548 0.6445637952316082
0.7509625 0.6782270699999753 0.6392195367887693
0.7529624 0.6826625861560885 0.6346100665451875
0.7549623 0.6872458025976448 0.6299156194064225
0.7569622 0.6918913534737092 0.6247684559736628
0.7589621 0.696074012564245 0.6199056119904003
0.760962 0.7002655579227506 0.6147583669247908
0.7629619 0.7045399767471772 0.6092155010750028
0.7649618 0.7093543492889826 0.604634636397435
0.7669617 0.713613795014667 0.5997754699639629
0.7689616 0.7178700240287184 0.5940592248945695
0.7709615 0.7225017198950326 0.5887129382356124
0.7729614 0.7266751311569207 0.5835345577142466
0.7749613 0.731050421863316 0.5785820675327948
0.7769612 0.7355986749158969 0.572981213367582
0.7789611 0.7392415605527815 0.567518105356808
0.780961 0.7436896457397957 0.5624785278792993
0.7829609 0.74779697804615 0.5570844077409538
0.7849608 0.75226228399673 0.5516542324902223
0.7869607 0.7563761519072489 0.5465752008969532
0.7889606 0.7603550910945654 0.5408896573262528
0.7909605 0.7645987937696065 0.5358415658300705
0.7929604 0.7686274237190425 0.5305400758267469
0.7949603 0.7725817696712826 0.5250100714187219
0.7969602 0.7761785085827424 0.5193757118568707
0.7989601 0.7799054306995853 0.5137737257154409
0.80096 0.7844625517073717 0.5092872598044883
0.8029599 0.7877497969089243 0.5032521501474512
0.8049598 0.7914749411747125 0.497658730663926
0.8069597 0.7950226942482436 0.49235003204258065
0.8089596 0.7983802374522605 0.48683166912668313
0.8109595 0.8019613122440662 0.4813602370389531
0.8129594 0.8053139414604376 0.4755764806934137
0.8149593 0.8086214854906566 0.47041502467681273
