! Created with skrf 1.8.0 (http://scikit-rf.org).
# GHz S RI R 50.0 
!freq ReS11 ImS11
0.001 -0.9313084465906487 0.004719182795520615
0.0029999 -0.9310118509542042 0.010035397822344146
0.0049998 -0.9304084748455925 0.015410373832631968
0.0069997 -0.9299853390435062 0.021264544963680458
0.0089996 -0.9294731229406145 0.026924145878744227
0.0109995 -0.9291635393524923 0.032395795981591105
0.0129994 -0.9287341154986056 0.03796900907156263
0.0149993 -0.9282215859665417 0.04351331159264649
0.0169992 -0.9277456752108183 0.04893773462090886
0.0189991 -0.926946407206044 0.05442854582255037
0.020999 -0.9266060983955279 0.06012773892329901
0.0229989 -0.9259454280632593 0.06557448743016568
0.0249988 -0.925736179868067 0.07103182865245442
0.0269987 -0.9250914338653612 0.07646181561762946
0.0289986 -0.9242942974887309 0.08202494824634075
0.0309985 -0.923579893446998 0.08749648100642926
0.0329984 -0.9231937139763624 0.09305606846769023
0.0349983 -0.9223592453821345 0.09844115374635444
0.0369982 -0.9217721202082156 0.10430435890101779
0.0389981 -0.9210130428521788 0.10953363400294387
0.040998 -0.9200390970454589 0.114930060208039
0.0429979 -0.9190856399654836 0.12030079032275878
0.0449978 -0.9184088441240722 0.12596266828543112
0.0469977 -0.9175969911957964 0.1315366587007619
0.0489976 -0.9168426851538264 0.1367939384592523
0.0509975 -0.9158083683973685 0.14233617878191562
0.0529974 -0.9152225364627797 0.1477342407209814
0.0549973 -0.9139274939600283 0.15296882156320954
0.0569972 -0.9130075915946827 0.15848637767893842
0.0589971 -0.9118178058284288 0.16356241222878015
0.060997 -0.9112241901666756 0.16908616858207495
0.0629969 -0.9097756402747198 0.17442053881761077
0.0649968 -0.9087315449230712 0.17972376344579505
0.0669967 -0.9077995404260069 0.18509956457625706
0.0689966 -0.9066129493790633 0.19055552638783654
0.0709965 -0.9050831327052115 0.19574458675593648
0.0729964 -0.9040345014776111 0.20120775900294532
0.0749963 -0.9030662098299266 0.20639716296018318
0.0769962 -0.9013438887385675 0.21166804881479298
0.0789961 -0.9001257262476131 0.21703947798145115
0.080996 -0.8986452581264227 0.22224193655487368
0.0829959 -0.89759756587469 0.22752912620438862
0.0849958 -0.8958026939606643 0.23285744011467413
0.0869957 -0.8944087912593255 0.23809643906613923
0.0889956 -0.8927586607206589 0.2433492928399007
0.0909955 -0.8913143612308209 0.24867019285328415
0.0929954 -0.8895974505040389 0.25408264242508427
0.0949953 -0.8884094334238607 0.2589521860096218
0.0969952 -0.88654888074159 0.2644155337907785
0.0989951 -0.8850924962634669 0.2695660825198331
0.100995 -0.8832495800620508 0.27475638678346886
0.1029949 -0.8811165315007146 0.27976315788964284
0.1049948 -0.8797900241974668 0.28530430362549003
0.1069947 -0.8777578128807393 0.2905938686083386
0.1089946 -0.8761206278139696 0.2955899256033595
0.1109945 -0.8744384436921626 0.3010136130935037
0.1129944 -0.8725745836500828 0.30592187211100275
0.1149943 -0.870556871436694 0.3113458565911104
0.1169942 -0.8685574979386468 0.31651116954706504
0.1189941 -0.8670428244209669 0.3217993952746418
0.120994 -0.8650768917697139 0.326986642892633
0.1229939 -0.8629448944406183 0.33191556892468604
0.1249938 -0.8611544774373133 0.33699174047611236
0.1269937 -0.8593070109325331 0.34185958356907803
0.1289936 -0.8574331093794444 0.34718051434717473
0.1309935 -0.8550485155901699 0.35225395159055606
0.1329934 -0.8529362824876446 0.3569438761291012
0.1349933 -0.8510059087303328 0.36218479164676526
0.1369932 -0.8490299013489571 0.36714818785225795
0.1389931 -0.8466375039148161 0.37208382750666197
0.140993 -0.8445684849438722 0.3771758411696883
0.1429929 -0.8424369986417198 0.3819577717645962
0.1449928 -0.8401086318276425 0.3870265978754549
0.1469927 -0.8376021998374437 0.39164226435031146
0.1489926 -0.8351434690764665 0.3967588549608531
0.1509925 -0.8329325671788153 0.40172227434874674
0.1529924 -0.8304154995634292 0.4060570167116706
0.1549923 -0.8277555849279424 0.41062139600818337
0.1569922 -0.8252432918435625 0.4159129921148379
0.1589921 -0.8230065611327513 0.420906506733552
0.160992 -0.81987888651471 0.4258482664833139
0.1629919 -0.8175153647175301 0.4305303104726624
0.1649918 -0.8148931244247622 0.43531914627356944
0.1669917 -0.811959943364128 0.44000553589235364
0.1689916 -0.809274391496887 0.4447039198035171
0.1709915 -0.8065806122073699 0.44998465851638186
0.1729914 -0.8035533987386588 0.4546227414506376
0.1749913 -0.8006901288843713 0.45918407694391905
0.1769912 -0.7980730801988519 0.46375295771190983
0.1789911 -0.7950449349997568 0.4688424684155314
0.180991 -0.7921931742600907 0.4735419699792167
0.1829909 -0.7891299505837535 0.47861399716569336
0.1849908 -0.786709040359776 0.48334599461849415
0.1869907 -0.7839977209962666 0.4882547520020456
0.1889906 -0.7803686644117226 0.4930766805543559
0.1909905 -0.7772921039029435 0.49798193302514326
0.1929904 -0.7745432556089229 0.5029175924535685
0.1949903 -0.7717721073816928 0.5073816569736559
0.1969902 -0.7690261257999526 0.5120006713287294
0.1989901 -0.7659826897950391 0.516459027366469
0.20099 -0.7629926850787677 0.5210592622454722
0.2029899 -0.7601641439972283 0.5258134438826203
0.2049898 -0.7568571648998064 0.5305406612626913
0.2069897 -0.7535728173268024 0.5348038586811998
0.2089896 -0.7506162030365636 0.5393879962725614
0.2109895 -0.7473477651303784 0.543917676676316
0.2129894 -0.744291497488391 0.5485772595251985
0.2149893 -0.7409738691734667 0.5526394395006936
0.2169892 -0.7377484771323097 0.5572223918971296
0.2189891 -0.7344584765275086 0.5617564100441436
0.220989 -0.7313393237114136 0.5659027541830584
0.2229889 -0.7277467960350438 0.5699713647359761
0.2249888 -0.7245852783580373 0.5743958034416906
0.2269887 -0.7208776824235061 0.5786506819939139
0.2289886 -0.7173335335248344 0.582844428012368
0.2309885 -0.7138785439379421 0.5866919759354831
0.2329884 -0.710479371966505 0.5909290508344441
0.2349883 -0.7068587866180404 0.595349938376615
0.2369882 -0.7031235650387614 0.5996778111185541
0.2389881 -0.6995740763367615 0.6036575435135298
0.240988 -0.6958402776158769 0.6079573322761399
0.2429879 -0.6919406353003271 0.6119034347609169
0.2449878 -0.6882262708081933 0.6160114398480707
0.2469877 -0.684372895519605 0.619764528523956
0.2489876 -0.6802546448805666 0.6242600385643599
0.2509875 -0.6764364246570117 0.6280806881992586
0.2529874 -0.6726331997861442 0.6322289438961815
0.2549873 -0.6687909649571288 0.6366263112292345
0.2569872 -0.6647884138291873 0.6406023635733613
0.2589871 -0.6608088422935553 0.6450912232135909
0.260987 -0.6567472321436671 0.6488335401868578
0.2629869 -0.6527829771353882 0.6526918115240667
0.2649868 -0.648880837989622 0.6567989134263706
0.2669867 -0.6451682663754003 0.6609433859420485
0.2689866 -0.6411226709569511 0.6648858744256341
0.2709865 -0.6370626435828788 0.6689447843935783
0.2729864 -0.6331433938964146 0.6726875608079396
0.2749863 -0.6292454355983917 0.6767940842965834
0.2769862 -0.6247311683691981 0.6807171067765531
0.2789861 -0.6207239634491187 0.684608183616566
0.280986 -0.6166602395745879 0.688327876293521
0.2829859 -0.6126245804359752 0.6921141013708133
0.2849858 -0.6085516263818335 0.695978723901737
0.2869857 -0.6045316253036276 0.6996863010521643
0.2889856 -0.6004031960269645 0.7033283561570403
0.2909855 -0.5959772216997665 0.706830567944445
0.2929854 -0.5918014699580265 0.7107120381022631
0.2949853 -0.5875401645690501 0.714276201991914
0.2969852 -0.5830710845296228 0.717575743065175
0.2989851 -0.578812064159466 0.7211608161131193
0.300985 -0.5738899052684262 0.7241166826186276
0.3029849 -0.5697356982850579 0.7277698474580068
0.3049848 -0.5657376288177587 0.7313393190527794
0.3069847 -0.5608751868138347 0.7345571691617733
0.3089846 -0.5565127225515546 0.7377874023545103
0.3109845 -0.5515383434497475 0.7411694632153001
0.3129844 -0.5472395166280813 0.7444016903733186
0.3149843 -0.542698103883635 0.7477019061119846
0.3169842 -0.5380218296048861 0.7509321927125784
0.3189841 -0.5332229312650651 0.7542307915175764
0.320984 -0.5286150109108586 0.757306492874404
0.3229839 -0.523511288116811 0.7611156001499544
0.3249838 -0.5189122427445503 0.7642300162672261
0.3269837 -0.5141480028604677 0.7675699436276828
0.3289836 -0.5094067681337925 0.7705446112577056
0.3309835 -0.5042593065772769 0.7738985910407126
0.3329834 -0.4998485361883461 0.7768611384828956
0.3349833 -0.49467822751119955 0.7799857106417729
0.3369832 -0.49009333138559413 0.7829864006063942
0.3389831 -0.48539451595070565 0.7859069240233051
0.340983 -0.4801944076929571 0.7893937323633015
0.3429829 -0.47538960318889667 0.7927621077829049
0.3449828 -0.4703883006436717 0.7953954537331964
0.3469827 -0.46532861320203345 0.7986737962088233
0.3489826 -0.46079153057322536 0.8018555394706867
0.3509825 -0.45563923305091186 0.8047419440830904
0.3529824 -0.4508170396891163 0.8076028629767013
0.3549823 -0.4458737887217727 0.8107466583268187
0.3569822 -0.440534024734884 0.8137245859552186
0.3589821 -0.43554563570883714 0.8161031413067701
0.360982 -0.4307548681694677 0.8186719375599518
0.3629819 -0.42560827797697043 0.8216267493439877
0.3649818 -0.4206409450954228 0.8240756908393981
0.3669817 -0.4154784385789642 0.826832318736586
0.3689816 -0.4102774258127702 0.8291743350160162
0.3709815 -0.4054258227049989 0.8319750614705735
0.3729814 -0.40054214606408517 0.8345596176091892
0.3749813 -0.39520665648495423 0.8370848269675912
0.3769812 -0.3899854810607568 0.8393996627882033
0.3789811 -0.3848168274872078 0.8419938001093308
0.380981 -0.37979637074814543 0.8442728433661926
0.3829809 -0.3747625957897536 0.8465416130708485
0.3849808 -0.3691827586386105 0.8489038499312558
0.3869807 -0.3640189209464008 0.8511529050413147
0.3889806 -0.35864698338530465 0.8535516700684801
0.3909805 -0.3531882727174569 0.8556244083418068
0.3929804 -0.3479147342444638 0.8579848594054664
0.3949803 -0.34218637762363596 0.8598729547258949
0.3969802 -0.3369774590337539 0.8615368792231753
0.3989801 -0.3312951990144501 0.8638115674134254
0.40098 -0.3254592858336429 0.8659020026578296
0.4029799 -0.32013355297581203 0.8679147679678745
0.4049798 -0.31451538502175963 0.8699077886583226
0.4069797 -0.30908838785775616 0.8719746816921772
0.4089796 -0.3034784162451178 0.8743674599681627
0.4109795 -0.2979290173719743 0.8760747996596391
0.4129794 -0.29194980455483277 0.8779444791607602
0.4149793 -0.2866493151253523 0.8799187055255989
0.4169792 -0.2809998372953251 0.8821235888665435
0.4189791 -0.2753277635536481 0.8839056175031873
0.420979 -0.26964548538489347 0.885715545168948
0.4229789 -0.2639994321960962 0.887132228115505
0.4249788 -0.2584111078431716 0.8889787433464097
0.4269787 -0.2528208027219386 0.8908104013332573
0.4289786 -0.2469098880187904 0.8925191331332508
0.4309785 -0.24157028440211337 0.8941917192560913
0.4329784 -0.23585640619130957 0.8957893488717212
0.4349783 -0.23006833012034167 0.8971874754820097
0.4369782 -0.22416555871798707 0.8990295516930764
0.4389781 -0.21855874235560924 0.90020376528294
0.440978 -0.21280008603047906 0.9020995850491716
0.4429779 -0.20736486886821934 0.9035327150631509
0.4449778 -0.20131794402371017 0.9049168304724058
0.4469777 -0.19570384060946058 0.9059620623920769
0.4489776 -0.18966572180721697 0.9072571930237149
0.4509775 -0.18399329470003273 0.9084459610249386
0.4529774 -0.1781217856791815 0.9096451121388913
0.4549773 -0.1724445677357096 0.9110523594615394
0.4569772 -0.16676767840577902 0.9120553993186521
0.4589771 -0.16087514544145928 0.9130529495970212
0.460977 -0.15457627287824116 0.9143989961946137
0.4629769 -0.14887736871948956 0.9151666516621582
0.4649768 -0.14269518119720148 0.9160571084228004
0.4669767 -0.13656462996070262 0.9168538571855506
0.4689766 -0.1307060708722399 0.9179485595600568
0.4709765 -0.12498722027355358 0.9184601947492346
0.4729764 -0.11883920697629377 0.9195652964948212
0.4749763 -0.11315913141463026 0.9205345827239971
0.4769762 -0.10681553488484484 0.9213240448459264
0.4789761 -0.10074812392639308 0.9218875421777927
0.480976 -0.09486370400155614 0.9230388990466408
0.4829759 -0.0889201716458748 0.9239460347576293
0.4849758 -0.08263263185841402 0.9245609911356486
0.4869757 -0.07661549433047632 0.9247016356584458
0.4889756 -0.07065367142473614 0.9257417099076306
0.4909755 -0.06463154913475005 0.926325255091498
0.4929754 -0.05865411788674417 0.9267521787430517
0.4949753 -0.05298617759456525 0.9275769943921937
0.4969752 -0.04712660047088637 0.9278493641503835
0.4989751 -0.04085738801708681 0.9283991103356759
0.500975 -0.034990807021250014 0.9286833721620203
0.5029749 -0.029038214361435943 0.9290202148080337
0.5049748 -0.023023537274605987 0.9290123273872245
0.5069747 -0.016962886357842398 0.9289775262678508
0.5089746 -0.011374084115224063 0.9289940018427406
0.5109745 -0.005023525226392812 0.9293824224973509
0.5129744 0.0008993235897300431 0.9294434267679335
0.5149743 0.007029537440990899 0.9293141894027709
0.5169742 0.012913101743060717 0.9292520768295471
0.5189741 0.018937973270598756 0.9294236746083331
0.520974 0.02516222067286561 0.9294743156257329
0.5229739 0.031073773219871856 0.9288508340739283
0.5249738 0.036873139351285306 0.9284271356113472
0.5269737 0.043404790857610155 0.9281917533904825
0.5289736 0.04918596105796381 0.9277084570376052
0.5309735 0.05581247948684414 0.9272934799813467
0.5329734 0.061829010437105765 0.9268275897625926
0.5349733 0.0676732887693397 0.9261016377374889
0.5369732 0.07434769633114041 0.9254201178039753
0.5389731 0.08019187002392533 0.9250735848484126
0.540973 0.08690253082687499 0.9244936073902835
0.5429729 0.09272993942730519 0.9238235483477653
0.5449728 0.0990874982154981 0.9231282785159743
0.5469727 0.10554209724749913 0.9226435846648753
0.5489726 0.11212841560821513 0.9222972468657249
0.5509725 0.1181318089802491 0.9212200622535714
0.5529724 0.12470714942175516 0.9205576476490909
0.5549723 0.13114283096972779 0.9200060973949801
0.5569722 0.1370134135515663 0.919260491574006
0.5589721 0.14320317504662652 0.9183378604091782
0.560972 0.14978292323396863 0.9175994983727626
0.5629719 0.15592578004367322 0.9170301907170417
0.5649718 0.1623023981899296 0.9164683522764093
0.5669717 0.16852958150411884 0.9154916485486381
0.5689716 0.17466911231692206 0.9142040410644432
0.5709715 0.18066121804960916 0.9134052468852074
0.5729714 0.1868069608518114 0.9126705726336497
0.5749713 0.19284349034191114 0.911634381569027
0.5769712 0.19929517219811838 0.9106041667798739
0.5789711 0.20465734865199922 0.9093770671158219
0.580971 0.21059864721665217 0.9081465928554443
0.5829709 0.21642032934463928 0.9069101948295263
0.5849708 0.22236789427289178 0.9054483477202686
0.5869707 0.22789757213676534 0.9042967898841805
0.5889706 0.23478489549770898 0.9024961460040304
0.5909705 0.24040279334621328 0.900851280828853
0.5929704 0.246369619207803 0.8991688765269352
0.5949703 0.25230665505791555 0.8976386187289914
0.5969702 0.25833449349508786 0.8953627345067494
0.5989701 0.2648986814971073 0.8939276826876423
0.60097 0.2703590037712787 0.891723125041558
0.6029699 0.2766533829483917 0.8896452944789374
0.6049698 0.2825170797563066 0.8875011578194776
0.6069697 0.28826024019316326 0.8855299215569372
0.6089696 0.2942327611909444 0.8837321886905845
0.6109695 0.3005342906227462 0.8813673291478814
0.6129694 0.30627730137994547 0.8794067352126926
0.6149693 0.31230792917926364 0.8778932370551659
0.6169692 0.3186540574076949 0.875200165090122
0.6189691 0.3251250391460483 0.8732280443039004
0.620969 0.33104521747243704 0.8709242604834322
0.6229689 0.3369217789289238 0.8685234861709369
0.6249688 0.3429814514644711 0.8665183575658357
0.6269687 0.3490743664443122 0.8638959604765762
0.6289686 0.3551613214861059 0.8616220259494182
0.6309685 0.36135988823435333 0.8590819012672443
0.6329684 0.36732409810918315 0.8569068555412273
0.6349683 0.373366205469068 0.854762699870115
0.6369682 0.37950011254126137 0.8525471636170858
0.6389681 0.3854995279899983 0.8504782402503651
0.640968 0.39154629729080875 0.8480997814507912
0.6429679 0.39667903784460046 0.8450598180331834
0.6449678 0.4028126796378655 0.8433484606892352
0.6469677 0.4084317743391895 0.8404802818826353
0.6489676 0.41380747511582067 0.8381007895473794
0.6509675 0.4197898482721285 0.8347868488634647
0.6529674 0.4254292175679235 0.832762459552777
0.6549673 0.43135636986893905 0.8295375264768712
0.6569672 0.4367318633325769 0.8268685421542505
0.6589671 0.44222716064951845 0.8236744738790802
0.660967 0.4476724688402125 0.8208623820064959
0.6629669 0.45310383282650557 0.8177962754136551
0.6649668 0.4581002552547391 0.8143438170007278
0.6669667 0.4634283448859195 0.8114946925068671
0.6689666 0.46919725671766394 0.8083586524816027
0.6709665 0.4741881036052225 0.8047676077405586
0.6729664 0.47970216114824643 0.8011436779770172
0.6749663 0.4854301289221613 0.7977511178162132
0.6769662 0.4908517144782614 0.7941733133337187
0.6789661 0.4963731322167556 0.7911461241580124
0.680966 0.5018227979312142 0.7874637567051291
0.6829659 0.507452872057918 0.7835725838633324
0.6849658 0.5127843682360357 0.7797224170499903
0.6869657 0.518358462043582 0.776325350111683
0.6889656 0.5236677102378113 0.7723601736811427
0.6909655 0.5289351063051896 0.7684020961188002
0.6929654 0.534774014838798 0.7644957306899334
0.6949653 0.5400991799712945 0.760818473310248
0.6969652 0.5455767586630657 0.7565106037825446
0.6989651 0.5512137115094241 0.7529701642497595
0.700965 0.5569674522274232 0.7489708855381721
0.7029649 0.561906900664663 0.7449969622270668
0.7049648 0.5675061302960756 0.7411705679977525
0.7069647 0.5736038238693392 0.7372623319885052
0.7089646 0.578714548197728 0.7334959286179159
0.7109645 0.5842154234265697 0.7295104945811681
0.7129644 0.5895189020192863 0.7257976590777542
0.7149643 0.5947058502201008 0.7217394529968874
0.7169642 0.5998452710105957 0.717681182095783
0.7189641 0.6051230455434772 0.7142113371767057
0.720964 0.6099024832382763 0.7096657510347568
0.7229639 0.6149000366700645 0.7058597869417422
0.7249638 0.6200028802411095 0.701582528243599
0.7269637 0.6250588633859617 0.6976460329399982
0.7289636 0.6298693770042662 0.6934579065342534
0.7309635 0.6345657286599106 0.6893829691260175
0.7329634 0.6394471216375229 0.6851767660664
0.7349633 0.6440017058752634 0.6806562524003855
0.7369632 0.6486370253490102 0.6764518158848538
0.7389631 0.6528662684034198 0.6719912141553055
0.740963 0.6574755919992538 0.6672955140270649
0.7429629 0.6627094201890285 0.6632236383552458
0.7449628 0.6669368614969594 0.6586201130057745
0.7469627 0.6709307221194507 0.6537686420900711
0.7489626 0.6757710861013917 0.6489605469879454
0.7509625 0.679427112263 0.6437011141548151
0.7529624 0.6839719138022244 0.6392154386939175
0.7549623 0.6885474523012515 0.6341851013662605
0.7569622 0.6928892491797687 0.6293268494428761
0.7589621 0.6971033495444916 0.6243631163960548
0.760962 0.7014043567367904 0.6192465515947952
0.7629619 0.7056890545327439 0.6135318613816366
0.7649618 0.7102433704906647 0.6089472342388897
0.7669617 0.7146385589745985 0.6039674538342218
0.7689616 0.7188619306591795 0.5983967525894436
0.7709615 0.7234349259173269 0.5929630839576607
0.7729614 0.7272906293927007 0.5880470509439838
0.7749613 0.731767714399519 0.5827932866435136
0.7769612 0.7363761859950991 0.5772530926135637
0.7789611 0.7400028592248874 0.571849336071154
0.780961 0.7441598344123441 0.5668794518278732
0.7829609 0.7483341936773316 0.5615339362686245
0.7849608 0.7524977895026247 0.5561194760681764
0.7869607 0.7567661894181414 0.5509821710545486
0.7889606 0.7608413256275993 0.545174947632509
0.7909605 0.7650197632788274 0.5406061153548214
0.7929604 0.7688709105287034 0.5352088242494927
0.7949603 0.7729055441199473 0.529765539832624
0.7969602 0.7765627539570786 0.5241088022949475
0.7989601 0.7804249867779272 0.5186040387390257
0.80096 0.7848086768530486 0.5139885408966037
0.8029599 0.788059926662094 0.5081457503402123
0.8049598 0.7915632882156663 0.5028410614148205
0.8069597 0.7952584375835986 0.497277006168401
0.8089596 0.7984208288776842 0.49189542465297087
0.8109595 0.8022471974737226 0.4866102277142378
0.8129594 0.8053374126919747 0.48068772147013944
