! Created with skrf 1.8.0 (http://scikit-rf.org).
# GHz S RI R 50.0 
!freq ReS11 ImS11
0.001 -0.8929810755676144 0.005439716004750724
0.0029999 -0.8929036538975291 0.010946379251923745
0.0049998 -0.8919143641621372 0.01620298939120235
0.0069997 -0.8914390084001641 0.021546756308081033
0.0089996 -0.8909535267295453 0.027427466092021076
0.0109995 -0.8906996478425222 0.03335243768514212
0.0129994 -0.8900552049396718 0.038902797494840616
0.0149993 -0.8897402951995395 0.04465013234772319
0.0169992 -0.8891067449020292 0.05016754493603358
0.0189991 -0.8882548015581577 0.05606421205051215
0.020999 -0.8879202580177602 0.061472978512293185
0.0229989 -0.8874387693157583 0.06703357770494753
0.0249988 -0.8864397333513394 0.07268878908133011
0.0269987 -0.8859524073498093 0.07819730538557901
0.0289986 -0.8854008657665695 0.08385081288801649
0.0309985 -0.884631219775935 0.08957217814606312
0.0329984 -0.8837732189655957 0.09470031956077304
0.0349983 -0.8831103996296229 0.10076549429598783
0.0369982 -0.8825216678824646 0.10641975443081692
0.0389981 -0.881793101195012 0.11195693870294064
0.040998 -0.880891078013631 0.11687357578776669
0.0429979 -0.8800268624809453 0.12290008473188055
0.0449978 -0.8791017655383103 0.12841526011644083
0.0469977 -0.8781115824278445 0.1339744904961272
0.0489976 -0.877350420883937 0.13957918126155913
0.0509975 -0.8764627801195846 0.14512760231283345
0.0529974 -0.8754443430502099 0.15043931967896929
0.0549973 -0.874538798131582 0.15603673511411256
0.0569972 -0.8734051024901346 0.16152275434748234
0.0589971 -0.8722374664244394 0.16686222324501757
0.060997 -0.8711191976844896 0.17241158153502953
0.0629969 -0.8698300716584699 0.17766095466380857
0.0649968 -0.868959773086375 0.1831259238094963
0.0669967 -0.8678136257473273 0.1886177570956991
0.0689966 -0.8665203545515312 0.1942181510604366
0.0709965 -0.8650050855840041 0.1994642738973095
0.0729964 -0.8640078697281643 0.20504249926496723
0.0749963 -0.862668855037875 0.21024966568035428
0.0769962 -0.8608306081924083 0.21561531156037841
0.0789961 -0.8596410732389459 0.22108155847741448
0.080996 -0.8582005183100013 0.22636085970961234
0.0829959 -0.8567582204813197 0.23190954152405163
0.0849958 -0.8549031442957311 0.23710224244304556
0.0869957 -0.8537002519308692 0.24252452372050246
0.0889956 -0.8516912664542585 0.24808779540198733
0.0909955 -0.85011856777031 0.25334659518837
0.0929954 -0.8483248080694309 0.25873532089977747
0.0949953 -0.8468827986127807 0.26396289200348655
0.0969952 -0.8448759593802752 0.26915661402988783
0.0989951 -0.8429619242275104 0.2747486376460028
0.100995 -0.8415082431220735 0.2798794041416139
0.1029949 -0.8395864809576525 0.28487263040412575
0.1049948 -0.837741435320707 0.29037046848188375
0.1069947 -0.8357343132321993 0.2956872355215085
0.1089946 -0.8340204837592069 0.3007286602715581
0.1109945 -0.8321124877777245 0.3063137078790782
0.1129944 -0.8299232883262444 0.31145858766361745
0.1149943 -0.8280878098287114 0.3168380424972374
0.1169942 -0.8261056877212792 0.32220415359771243
0.1189941 -0.8242046062884397 0.3274409920476759
0.120994 -0.8217705164459617 0.3327330076287928
0.1229939 -0.8199757112419257 0.33788528613728236
0.1249938 -0.8179602916316131 0.3429927852966403
0.1269937 -0.8157273516447258 0.3478248903860739
0.1289936 -0.8139467462776387 0.35333842938308196
0.1309935 -0.8115547443519726 0.3584479230446778
0.1329934 -0.8093525785061533 0.36306995738466546
0.1349933 -0.8069733068720262 0.36838162341492303
0.1369932 -0.8049740041824041 0.3734158833290798
0.1389931 -0.8026253732193783 0.3786476771763179
0.140993 -0.8002329583711912 0.38356642717361716
0.1429929 -0.7976480089207885 0.38852029682995115
0.1449928 -0.7954274335301348 0.39366967983565676
0.1469927 -0.7929940198807981 0.3981205391516733
0.1489926 -0.7902577928945917 0.4031789732270966
0.1509925 -0.7876877299802666 0.40837263830006454
0.1529924 -0.7852652969945999 0.41309385228586987
0.1549923 -0.7822849548462562 0.4176590428189049
0.1569922 -0.779358538922544 0.4226308352667432
0.1589921 -0.7768893374285758 0.4278235486217945
0.160992 -0.7738959874770109 0.4328442394898347
0.1629919 -0.7715017317110316 0.4373704515970351
0.1649918 -0.7684917152746726 0.4421873374067304
0.1669917 -0.7656190926665871 0.447111045903954
0.1689916 -0.7626482070740114 0.4517883959613878
0.1709915 -0.7598187461323616 0.45696063175330603
0.1729914 -0.7565786400842713 0.46163858101491273
0.1749913 -0.7535461552975287 0.4665889601221065
0.1769912 -0.750516531276053 0.4712789269295146
0.1789911 -0.7474468907183248 0.47590189908906316
0.180991 -0.7444572308542284 0.4810012551079661
0.1829909 -0.741216163977347 0.48593620459124254
0.1849908 -0.7383994301826872 0.4904780657783099
0.1869907 -0.7350921688369176 0.4955724688580075
0.1889906 -0.7319769359944261 0.5005192924645507
0.1909905 -0.7286362934575865 0.5052426923072775
0.1929904 -0.7252999066579525 0.5101909727202378
0.1949903 -0.722379169013828 0.5148350831962343
0.1969902 -0.7196547739438209 0.51949523055508
0.1989901 -0.7160882167343413 0.5239486638861195
0.20099 -0.713108529780325 0.528561375124545
0.2029899 -0.7098651285492005 0.5333327945832746
0.2049898 -0.7064563762453338 0.5379982517125477
0.2069897 -0.7030490410897544 0.5425181202085901
0.2089896 -0.6997076694720846 0.5467745497005775
0.2109895 -0.6963366102762012 0.551350965747716
0.2129894 -0.6931489581176264 0.5560497629399876
0.2149893 -0.6894159802784662 0.5602881791397414
0.2169892 -0.686209364381953 0.5647091792928852
0.2189891 -0.6824769974327431 0.5692780398303383
0.220989 -0.6792209395496658 0.5734493053509309
0.2229889 -0.675286615458494 0.5775588626150201
0.2249888 -0.6719152904949268 0.5820784156871236
0.2269887 -0.667954245972569 0.5862682297335716
0.2289886 -0.6642076573850545 0.5903931289444952
0.2309885 -0.6604922082886607 0.594307811328198
0.2329884 -0.6567139821102916 0.5986977587646376
0.2349883 -0.6530455052567345 0.6029770027105297
0.2369882 -0.6488283873414294 0.607059880914879
0.2389881 -0.6452312640917094 0.6111722045345598
0.240988 -0.6411830348409797 0.6152650549298058
0.2429879 -0.6369412876209362 0.6193605269497695
0.2449878 -0.6328785696067051 0.6232606426058864
0.2469877 -0.6289313247533302 0.6273399672047258
0.2489876 -0.6247751351023937 0.6315773895099036
0.2509875 -0.6208299462721794 0.6352784703967768
0.2529874 -0.6164449745635577 0.6394134727418584
0.2549873 -0.6123199031877098 0.6438534260964308
0.2569872 -0.6081583149337986 0.6477227179073102
0.2589871 -0.6037531958678963 0.651885231499789
0.260987 -0.5994795811113898 0.6557792230682761
0.2629869 -0.5953943210206492 0.659845052199931
0.2649868 -0.5910446364742884 0.6639320536434294
0.2669867 -0.5868669725831502 0.6677136461644948
0.2689866 -0.5827218094627997 0.6716752982681159
0.2709865 -0.5786882640909062 0.6756161439309966
0.2729864 -0.574167460003089 0.6793681809536085
0.2749863 -0.569551202806438 0.6831612108930263
0.2769862 -0.5654794340571903 0.687176658689236
0.2789861 -0.5609791612790287 0.6909961516800152
0.280986 -0.5567456337233848 0.6946060325836031
0.2829859 -0.5521171606698286 0.6982469723117078
0.2849858 -0.5480387305042739 0.7021250139477612
0.2869857 -0.5436131765296833 0.7058146279088638
0.2889856 -0.538876208379108 0.7092801644903042
0.2909855 -0.5346180292786161 0.7128665562474017
0.2929854 -0.5301364386686174 0.7166767200962828
0.2949853 -0.5253984357416442 0.7199415311921167
0.2969852 -0.5203712303313315 0.723097195002991
0.2989851 -0.5164442664082142 0.7267523720063807
0.300985 -0.5112533870936468 0.7297908068139048
0.3029849 -0.5065109292556045 0.7329130380511854
0.3049848 -0.5018305400000673 0.7364736996039317
0.3069847 -0.4970173488312458 0.7399601262575787
0.3089846 -0.49209700682774543 0.7427133007230976
0.3109845 -0.4870799432706366 0.7459428298331192
0.3129844 -0.48252375676719556 0.7494090904312228
0.3149843 -0.4775723073037176 0.7522589414502799
0.3169842 -0.4724322308554664 0.7552892375585504
0.3189841 -0.46755789979509144 0.7584293399138713
0.320984 -0.46260201347757485 0.7616755009032559
0.3229839 -0.4571237520055142 0.7651209103056011
0.3249838 -0.45236297281688514 0.7678216175271914
0.3269837 -0.4468616841000674 0.7710641374205565
0.3289836 -0.4420714370098574 0.774342285485059
0.3309835 -0.43671902914467664 0.7771314481121303
0.3329834 -0.43181576485875517 0.779993959619468
0.3349833 -0.42668250319055545 0.7829294685340669
0.3369832 -0.42145360873826593 0.7860996772060513
0.3389831 -0.41605730508166855 0.7890858160124696
0.340983 -0.4108690126191172 0.7918216143418066
0.3429829 -0.40589604739399443 0.7950832559584444
0.3449828 -0.4002455550581643 0.7976834471372637
0.3469827 -0.395408306049579 0.8007104208910173
0.3489826 -0.39003161261949937 0.8035993972739166
0.3509825 -0.3848310862481759 0.8064001458361545
0.3529824 -0.37922292194544804 0.8091651196170541
0.3549823 -0.37433675401405303 0.811912103473159
0.3569822 -0.36851551045330433 0.8146826395432604
0.3589821 -0.36330944391158576 0.8169049872016683
0.360982 -0.3578621389401671 0.8194964176540455
0.3629819 -0.3525638731761905 0.8221168714197314
0.3649818 -0.3473301133138558 0.8244797977730202
0.3669817 -0.34183693629086553 0.8269653230533605
0.3689816 -0.3361921753927958 0.8289840253314188
0.3709815 -0.3308283600866566 0.8316356749183559
0.3729814 -0.3258632332528059 0.8341049285027715
0.3749813 -0.3202813373420303 0.8361369166662264
0.3769812 -0.3144442349420365 0.8382854443551139
0.3789811 -0.3093252035650501 0.8407535205837157
0.380981 -0.30356892180457046 0.8427220468870472
0.3829809 -0.2979920910681715 0.8446688484162285
0.3849808 -0.29233669697874315 0.8466571267755162
0.3869807 -0.2867237341534535 0.849352578567438
0.3889806 -0.2809159149171271 0.8510377145556202
0.3909805 -0.275323507003951 0.8525527996144422
0.3929804 -0.2695016068954056 0.8543517441350278
0.3949803 -0.2636333188249128 0.8562876661197063
0.3969802 -0.25795437431865464 0.8579348534609158
0.3989801 -0.251633632495633 0.8597714976742054
0.40098 -0.24633925377996202 0.8613362052577054
0.4029799 -0.24012484454057234 0.863334651826171
0.4049798 -0.2342264848694613 0.865080412647114
0.4069797 -0.22838639743855668 0.8665300532445597
0.4089796 -0.22273627449805555 0.8685674842639755
0.4109795 -0.21650868683491492 0.8700643901311498
0.4129794 -0.21052360894460564 0.8716852835121203
0.4149793 -0.20466043993146418 0.8732230887514213
0.4169792 -0.19843009616879848 0.8753575038404439
0.4189791 -0.19261748995397826 0.8764640372058038
0.420979 -0.186444898911442 0.8781066091087784
0.4229789 -0.18039078088495436 0.8792851235393796
0.4249788 -0.17464688282028462 0.880762458520504
0.4269787 -0.16877215126089398 0.8821434167403843
0.4289786 -0.1624939325962943 0.8834864827541863
0.4309785 -0.15679030321419243 0.8849181360162505
0.4329784 -0.15038099357233056 0.8859965287175224
0.4349783 -0.1444990900896456 0.8871156951316476
0.4369782 -0.13814621847121025 0.8885513209326841
0.4389781 -0.13226691396446788 0.8896179860066145
0.440978 -0.12608796019534482 0.8906224856827359
0.4429779 -0.12024809316473085 0.8915380676643498
0.4449778 -0.11425650472093657 0.8928879409959888
0.4469777 -0.10791885553059796 0.8935008810253598
0.4489776 -0.10156661953522104 0.8941404866365276
0.4509775 -0.09564255736201141 0.8949977277830584
0.4529774 -0.0897096731168101 0.8959304500270171
0.4549773 -0.08335978491785477 0.8968812101889372
0.4569772 -0.07723945911408346 0.8974552883667805
0.4589771 -0.07129180329031173 0.8982319232311994
0.460977 -0.06457300037655514 0.8989274865075504
0.4629769 -0.058266112854753145 0.8993977808147072
0.4649768 -0.05193011681278667 0.8994580585319639
0.4669767 -0.045696197569323124 0.9002347819185764
0.4689766 -0.03895142062494747 0.9005301544177862
0.4709765 -0.03355459207444883 0.9006292081073541
0.4729764 -0.027067838785601706 0.901423981441195
0.4749763 -0.020613835449892055 0.9018939240689681
0.4769762 -0.014101304910357111 0.9018782304154973
0.4789761 -0.007964162977315108 0.9020873326720965
0.480976 -0.0014313894015031553 0.9027613867269378
0.4829759 0.005006515743840277 0.903055231684955
0.4849758 0.011417854889378513 0.9029079560971189
0.4869757 0.017963468248201185 0.9032506600827168
0.4889756 0.02408623158816786 0.9034919322848695
0.4909755 0.030519071883986663 0.9035475200578613
0.4929754 0.03663339820387237 0.9034198434550719
0.4949753 0.04286145268478046 0.9035162595133198
0.4969752 0.049394489646655805 0.9035054829660696
0.4989751 0.05548752906034016 0.9035596072120372
0.500975 0.061639660767587506 0.9035022991089215
0.5029749 0.06802340857356924 0.9031362499155081
0.5049748 0.07416119807466534 0.9023223073819688
0.5069747 0.08051792516899442 0.9019267004990764
0.5089746 0.08663970842287236 0.9015140584115341
0.5109745 0.09314656508846722 0.9015799627731536
0.5129744 0.0991434087050001 0.9008786131667519
0.5149743 0.10573059980408822 0.9000246435684507
0.5169742 0.11220181953396036 0.8994759766312848
0.5189741 0.11842165492223183 0.8991780978467895
0.520974 0.12476970890423267 0.8984287747085732
0.5229739 0.13124861874533592 0.8972105412768084
0.5249738 0.1370110343909614 0.8960621970876484
0.5269737 0.14377515517464057 0.8952492140384677
0.5289736 0.15008520792429003 0.8944167774490726
0.5309735 0.1567286057599863 0.8930432013518911
0.5329734 0.1631217399360211 0.8920289888101145
0.5349733 0.16955203748260628 0.8906050728644788
0.5369732 0.17606111878655797 0.889612154956384
0.5389731 0.18254388227225118 0.8882758947191816
0.540973 0.18889699068016993 0.8871816624714544
0.5429729 0.1952109345349747 0.8858483287931184
0.5449728 0.2020759522353625 0.8844093520772698
0.5469727 0.20833506423868792 0.8832524462896786
0.5489726 0.21525382708007862 0.8818912767173781
0.5509725 0.2217284736381507 0.8804015751058372
0.5529724 0.22803883559690574 0.8789616734231556
0.5549723 0.23461814982138396 0.8773635136454395
0.5569722 0.24121442796586126 0.8761719926524346
0.5589721 0.24749595444512557 0.8743764813886378
0.560972 0.2542754272887205 0.8728899855407337
0.5629719 0.2607873022891995 0.8715984705295039
0.5649718 0.26723273197644004 0.8703681228857436
0.5669717 0.27348762423403117 0.8684933722574485
0.5689716 0.28003028340481334 0.8666630738649892
0.5709715 0.28623640936039796 0.8650431203671459
0.5729714 0.29271874407606274 0.863369380605698
0.5749713 0.2988965437219283 0.8616328329506356
0.5769712 0.3050430438488177 0.8600204238462079
0.5789711 0.3113436414235391 0.8580108473398179
0.580971 0.31715175711107985 0.8559068394799764
0.5829709 0.3231122751326442 0.8539345735297441
0.5849708 0.329262855410528 0.8519840083394012
0.5869707 0.3351048573175939 0.8497252706569336
0.5889706 0.3417229833320337 0.8471209738981087
0.5909705 0.3476876319811001 0.8446808484864546
0.5929704 0.35389899500534144 0.8424461446380941
0.5949703 0.3600266923849835 0.839738172869137
0.5969702 0.36573028696586607 0.8370934967192916
0.5989701 0.3726619998251778 0.834421627667603
0.60097 0.37854737194750543 0.8315504408429668
0.6029699 0.38437472673586537 0.828562464799871
0.6049698 0.3905814354190786 0.8257895157706285
0.6069697 0.39681460280283426 0.8230294498474773
0.6089696 0.40247579591939375 0.820325465703034
0.6109695 0.40862898165245154 0.8172265497509458
0.6129694 0.41473844438099067 0.8141935474376709
0.6149693 0.42060790628528455 0.811429541400336
0.6169692 0.427483537124088 0.8085254031844444
0.6189691 0.43377761510076107 0.8052623662710482
0.620969 0.43957156144787657 0.8023216590845773
0.6229689 0.4457008819456136 0.7990274630588804
0.6249688 0.45144386267414593 0.7959556606879933
0.6269687 0.4581511542981233 0.7924576516684123
0.6289686 0.4642234616307788 0.789321369828879
0.6309685 0.4702989730915812 0.7857778492404901
0.6329684 0.4760828953345211 0.782396984568071
0.6349683 0.4825187158961963 0.779970568729584
0.6369682 0.48820320517038984 0.776332902281718
0.6389681 0.4943715836722004 0.7732341627429075
0.640968 0.5000236932511151 0.7695811634052802
0.6429679 0.5061578229295212 0.7665676061565634
0.6449678 0.511556456222431 0.7633261842715904
0.6469677 0.51718339699074 0.7593031981126949
0.6489676 0.5225363863863681 0.7558048385739838
0.6509675 0.5283047952132207 0.752175564121764
0.6529674 0.5343316389204066 0.748993753196715
0.6549673 0.5398967063715661 0.7446642492731773
0.6569672 0.5450889828531953 0.7412621165039501
0.6589671 0.5507759877823493 0.737141625232301
0.660967 0.5558001775061546 0.7329819387883694
0.6629669 0.5610846470564012 0.7289212655532384
0.6649668 0.5664029949658744 0.7248326109910683
0.6669667 0.5718961683570859 0.7207835687817757
0.6689666 0.5771029463893966 0.7168341674380132
0.6709665 0.5820102486755889 0.7124835152078434
0.6729664 0.5877695297246179 0.7076661813593909
0.6749663 0.593065793226689 0.7037643491257475
0.6769662 0.5985605464878727 0.6987946551209109
0.6789661 0.6038060148721647 0.6944191246119291
0.680966 0.6086616763730835 0.6898318819569949
0.6829659 0.6142419216952579 0.6850217667131783
0.6849658 0.6193444891757932 0.6806478417458877
0.6869657 0.6245889604243429 0.6759002163987857
0.6889656 0.6298185371229502 0.6710641379937892
0.6909655 0.6347619597638412 0.6662513044838002
0.6929654 0.6400882649682209 0.6610484353249555
0.6949653 0.6451569841956272 0.6565961037122053
0.6969652 0.650314081822055 0.6513597974899555
0.6989651 0.6551633005923772 0.6464916594224938
0.700965 0.6607193385942995 0.64149971143064
0.7029649 0.6657449997541082 0.6366227586448144
0.7049648 0.6711447649078754 0.6316329548971077
0.7069647 0.6761510958171264 0.6267740175101998
0.7089646 0.681402407269787 0.621900431294927
0.7109645 0.6863678532251448 0.6169346406218219
0.7129644 0.6915730307504812 0.6119433266443638
0.7149643 0.6962479036451277 0.6064879746911743
0.7169642 0.7009729191416111 0.601731653366228
0.7189641 0.7059284507994749 0.5969567621910474
0.720964 0.710195964700036 0.5915975757046354
0.7229639 0.7147420556224324 0.5863236313486568
0.7249638 0.7196353818775086 0.5810508416970306
0.7269637 0.7242415469716471 0.575771300587833
0.7289636 0.7288954920968855 0.5708306974342248
0.7309635 0.7330439020709405 0.5654961838650541
0.7329634 0.7372517141801982 0.5601594723912212
0.7349633 0.7417981887012671 0.554762151964351
0.7369632 0.7458048580942093 0.5494882227276376
0.7389631 0.74995839329317 0.5438937053143744
0.740963 0.7536105140782947 0.5382190063462166
0.7429629 0.7579626560952465 0.5327432231770025
0.7449628 0.7619132484260165 0.5270255160415971
0.7469627 0.7658992139643805 0.5218127290385461
0.7489626 0.7699135334636965 0.5155588322995308
0.7509625 0.7733773398919103 0.5093545718145951
0.7529624 0.7776168740530445 0.5038447347193185
0.7549623 0.7815329280222147 0.49823347339367036
0.7569622 0.7851650688544072 0.49206015980944595
0.7589621 0.7889777062116085 0.4857190202420656
0.760962 0.792494238976018 0.4801175583152004
0.7629619 0.7963619681210763 0.4732545446767211
0.7649618 0.8003408958720204 0.4676360212666017
0.7669617 0.8037675104767686 0.46174488228215926
0.7689616 0.8075815812508166 0.4548591139472111
0.7709615 0.8111260998441981 0.44875897402127013
0.7729614 0.8145656331767737 0.4421909810458419
0.7749613 0.8184078771161882 0.43645915023671833
0.7769612 0.8217541777342259 0.4300873058265691
0.7789611 0.8249390023988982 0.4234248462057905
0.780961 0.8283634081412624 0.4172747455831085
0.7829609 0.831526890372921 0.41086632934204903
0.7849608 0.8354593722862389 0.40468315138188715
0.7869607 0.8385667233563938 0.3981222682725457
0.7889606 0.8419732337266713 0.39171890087531047
0.7909605 0.8451047948128886 0.3857769897838765
0.7929604 0.848538384503305 0.379149708204901
0.7949603 0.8514730331964036 0.37293359590027353
0.7969602 0.8546366428387807 0.3657605465340871
0.7989601 0.8573097914240025 0.35960932714566274
0.80096 0.8607358292570338 0.35346611115833176
0.8029599 0.8633072210502784 0.3469024433109603
0.8049598 0.8660748895873885 0.34031548163079206
0.8069597 0.8686861992557409 0.3339175978569322
0.8089596 0.8713622887815655 0.3274786105705754
0.8109595 0.8740979819025093 0.32055083587728467
0.8129594 0.8765706490861727 0.313955741605186
0.8149593 0.8789953959250508 0.30734832366131315
