! Created with skrf 1.8.0 (http://scikit-rf.org).
# GHz S RI R 50.0 
!freq ReS11 ImS11
0.001 -0.9088882479055745 0.005522200806451784
0.0029999 -0.9082706703255392 0.010734025795969972
0.0049998 -0.9075963120886517 0.016539328255852526
0.0069997 -0.9070835593265408 0.02229780723712143
0.0089996 -0.9064995906421653 0.02832246317669595
0.0109995 -0.9060599193692971 0.03407650934609603
0.0129994 -0.9057205402189592 0.039804646336310395
0.0149993 -0.9051962404932784 0.04576253849152424
0.0169992 -0.9046544579207872 0.05134938035542433
0.0189991 -0.9038234004193705 0.05719059298195959
0.020999 -0.9035300615918737 0.062923739945187
0.0229989 -0.9028020640035075 0.06871683509353776
0.0249988 -0.901910722912506 0.07463845860687582
0.0269987 -0.9016305207204653 0.08011015177688269
0.0289986 -0.9008744229745174 0.08592981844350621
0.0309985 -0.9000529022157928 0.09174845829441054
0.0329984 -0.8991985112731963 0.09746331841528678
0.0349983 -0.8987779828540985 0.10333856591737313
0.0369982 -0.8979525619902701 0.10910477097072024
0.0389981 -0.8970600906290345 0.11485848872598911
0.040998 -0.8963099594720464 0.12033534229874171
0.0429979 -0.8952386745452313 0.12605560054703685
0.0449978 -0.8941660371878812 0.13193797602620747
0.0469977 -0.8935731822387104 0.13766164777197115
0.0489976 -0.892515212560862 0.1432184079324395
0.0509975 -0.8915620517046516 0.14899850501208772
0.0529974 -0.8906984102781789 0.1542364559211064
0.0549973 -0.8896936154574419 0.16004322501574805
0.0569972 -0.8884358694192792 0.16592490290908912
0.0589971 -0.8872283259650917 0.1712760181703301
0.060997 -0.886114068009821 0.17705006227598175
0.0629969 -0.884939396090271 0.18253580335488057
0.0649968 -0.8838600677848902 0.18815268119991088
0.0669967 -0.8826325975826804 0.19375904212029413
0.0689966 -0.8812728884947787 0.19944136174730112
0.0709965 -0.87966898177458 0.20479415130756345
0.0729964 -0.8787204080838797 0.21060789916912262
0.0749963 -0.8772793343015959 0.21597966551275227
0.0769962 -0.8755277844104292 0.22150279718072588
0.0789961 -0.8742715693807149 0.2270261292876003
0.080996 -0.8727519012481827 0.23250633673988552
0.0829959 -0.8712446813749208 0.2380111219355986
0.0849958 -0.8693612172596942 0.2435473422405515
0.0869957 -0.867938854991643 0.2489825397482907
0.0889956 -0.8660317458686303 0.2546582397274013
0.0909955 -0.8643791648983157 0.26011955427964406
0.0929954 -0.8626534170003954 0.26558246859286777
0.0949953 -0.8612593111759212 0.27088200607962515
0.0969952 -0.8592223110217138 0.27621682238987144
0.0989951 -0.857476463067303 0.2818401827824143
0.100995 -0.8554169863357706 0.28737861002326864
0.1029949 -0.8535207820646559 0.29287535839288126
0.1049948 -0.8515071584967316 0.2982596739825184
0.1069947 -0.8496738108236019 0.3037633526179358
0.1089946 -0.8478960944376963 0.30904792083387944
0.1109945 -0.8456151163474281 0.314480195502867
0.1129944 -0.8433819678855946 0.3201692534910813
0.1149943 -0.841302714898626 0.3254365659801179
0.1169942 -0.8393483590780566 0.33096308580154676
0.1189941 -0.8374594566798869 0.3363917867592224
0.120994 -0.8349981835291729 0.3418087392725461
0.1229939 -0.8330819079436748 0.34698858499367324
0.1249938 -0.8309923411156166 0.35228004263370744
0.1269937 -0.8289304453283658 0.35740909147445904
0.1289936 -0.826793686295761 0.36287509321174805
0.1309935 -0.8242952188585158 0.3681615627825676
0.1329934 -0.8218877783530918 0.37295233426893726
0.1349933 -0.819731571552688 0.3783441614644116
0.1369932 -0.8173075202755288 0.3836128579521434
0.1389931 -0.8150792032711739 0.3887341888674881
0.140993 -0.812634288065289 0.3939434605434805
0.1429929 -0.8099189451084818 0.39898486233220526
0.1449928 -0.80757916861467 0.40429224327329777
0.1469927 -0.8050810361020418 0.40937478202643063
0.1489926 -0.8022498662224248 0.4141830970352105
0.1509925 -0.799789864814187 0.4194720643242488
0.1529924 -0.7970906556751569 0.42406912725383566
0.1549923 -0.7940809251582248 0.42894571265368475
0.1569922 -0.790990530244885 0.43405747404365497
0.1589921 -0.7885111684654357 0.43928565631516625
0.160992 -0.7852581948967369 0.44448003337676245
0.1629919 -0.7827988781453245 0.4491626916946931
0.1649918 -0.779655703796419 0.4542598817739061
0.1669917 -0.7767195138395446 0.4591123098470395
0.1689916 -0.7736030092911894 0.46387803339875894
0.1709915 -0.7706677060571171 0.46928821244956326
0.1729914 -0.7673496614649029 0.47406499594543533
0.1749913 -0.7641632154658581 0.47911470530365985
0.1769912 -0.7611891474626619 0.4837708467461993
0.1789911 -0.7576377158780045 0.4888134620015952
0.180991 -0.7547229301562349 0.4938750600570611
0.1829909 -0.7517461897880013 0.49872164112697404
0.1849908 -0.7483344965514521 0.5034818396845883
0.1869907 -0.7454706233153079 0.5090067033873805
0.1889906 -0.7416774274641743 0.5139178426772509
0.1909905 -0.7382902380038712 0.5188166198556519
0.1929904 -0.7349944258629348 0.5237910989444735
0.1949903 -0.7319544085066074 0.5285081857487692
0.1969902 -0.729038248235765 0.5333802708259504
0.1989901 -0.7255187265533082 0.537886840334125
0.20099 -0.7223797345215307 0.5428503775342143
0.2029899 -0.7186870097937325 0.5474869650066948
0.2049898 -0.7155778894072211 0.5525196261790214
0.2069897 -0.711770661967095 0.5568313332234053
0.2089896 -0.7083207597500149 0.5611204627620404
0.2109895 -0.7047707246533486 0.5660463456936448
0.2129894 -0.7015364321027642 0.5708678823082314
0.2149893 -0.6977483185483215 0.5752590266363325
0.2169892 -0.6941977560073868 0.5795744313097767
0.2189891 -0.6907558358890347 0.5843296652199396
0.220989 -0.6871603453770999 0.5885131803522413
0.2229889 -0.6832610957937287 0.592727842621915
0.2249888 -0.679550750185034 0.5973224224327783
0.2269887 -0.6756238181580011 0.6015836776749895
0.2289886 -0.671627708256613 0.6058221937121567
0.2309885 -0.6677681459843227 0.6099529744587991
0.2329884 -0.6637631113867981 0.6143688881023255
0.2349883 -0.6598793354642851 0.6186288298909364
0.2369882 -0.6555403049893324 0.6228098226862753
0.2389881 -0.6519255536179985 0.6269423773852094
0.240988 -0.6477391027330246 0.6312135100148188
0.2429879 -0.6432604750799938 0.6354255739669019
0.2449878 -0.6392353224628778 0.6393262648271781
0.2469877 -0.6348681508930839 0.6434171872587467
0.2489876 -0.6305384111168306 0.6479106556071497
0.2509875 -0.6264902313522782 0.6517840906657323
0.2529874 -0.6220878238816804 0.6559036366016812
0.2549873 -0.6178351170582707 0.6602035256523541
0.2569872 -0.6134461874274477 0.6643175154228087
0.2589871 -0.6088838332631484 0.6686353248938887
0.260987 -0.6045069225975037 0.6726399469731552
0.2629869 -0.6002455396980626 0.6766850637174048
0.2649868 -0.5960523784570945 0.6807392932978036
0.2669867 -0.5914599481795302 0.6846918473829016
0.2689866 -0.5871825594023303 0.6888349757973954
0.2709865 -0.582857305578791 0.6927526607777896
0.2729864 -0.5785200788729836 0.6967152562925277
0.2749863 -0.5735863185506735 0.7007647497044139
0.2769862 -0.5691268710509165 0.7044282075353007
0.2789861 -0.564766806777161 0.7085838485572081
0.280986 -0.5601513263677208 0.7120420541136983
0.2829859 -0.5555856460364198 0.7160428354227862
0.2849858 -0.5510185505824589 0.7197359136006418
0.2869857 -0.5466962606236628 0.7234930278437492
0.2889856 -0.5416935011112916 0.7270520088162795
0.2909855 -0.5371347670023475 0.7305491627222582
0.2929854 -0.5326383733043564 0.7344820099015225
0.2949853 -0.5277433616091115 0.7378918244500087
0.2969852 -0.5227660136747004 0.7411829915124294
0.2989851 -0.5183590633108713 0.7445711167856944
0.300985 -0.5130264530908257 0.7477635416938114
0.3029849 -0.5081955048892354 0.7514329585596881
0.3049848 -0.5036176069252877 0.7546371650483223
0.3069847 -0.4983971438867899 0.7580403524928409
0.3089846 -0.49351014371306373 0.7610092701490929
0.3109845 -0.48810559481058036 0.7644191695056022
0.3129844 -0.4833163654223245 0.7673778484575425
0.3149843 -0.4781016557603789 0.7705106588032306
0.3169842 -0.47324658449078516 0.7737711881494238
0.3189841 -0.4677230057978798 0.7770087395373486
0.320984 -0.4626201418718858 0.7798977979421432
0.3229839 -0.45728001984226835 0.783599993460051
0.3249838 -0.4520127758821071 0.7864514715908435
0.3269837 -0.4465037540746756 0.7897632439287581
0.3289836 -0.441377652255993 0.7927849862014933
0.3309835 -0.4360748659821442 0.7956845082886538
0.3329834 -0.43059354522975596 0.7988425952868986
0.3349833 -0.4256626029739672 0.8012131541922449
0.3369832 -0.41992685516626166 0.8047888300396161
0.3389831 -0.4145785823120655 0.8076553272107918
0.340983 -0.4090163970003348 0.8105939543139735
0.3429829 -0.4039224384502698 0.8134797301916024
0.3449828 -0.39814165071821556 0.816459306846686
0.3469827 -0.3931816807552236 0.819403536919865
0.3489826 -0.3873807411168222 0.822221289946036
0.3509825 -0.3821503677045268 0.8250628332090506
0.3529824 -0.3764720282199691 0.82787514025774
0.3549823 -0.3712441271975148 0.8308976487534158
0.3569822 -0.3653538657156534 0.833289501339187
0.3589821 -0.35995108875677473 0.835733190576227
0.360982 -0.3546816564206084 0.8381065223218841
0.3629819 -0.3488569854906909 0.8409087971581154
0.3649818 -0.3435028589232216 0.8431466072643328
0.3669817 -0.3379901541376518 0.8456356525752176
0.3689816 -0.3321833685555541 0.8479558442928125
0.3709815 -0.3265721975735335 0.8503185762271287
0.3729814 -0.3212244834496698 0.8525303753445337
0.3749813 -0.315221824820493 0.85488313127876
0.3769812 -0.3095268629954535 0.8571251896898804
0.3789811 -0.3040535518690124 0.8591819052402955
0.380981 -0.29840937215280816 0.8613197615139351
0.3829809 -0.29263708243137293 0.8632887016213429
0.3849808 -0.2867779503753632 0.8652488316839744
0.3869807 -0.2808706402628822 0.8675993258179642
0.3889806 -0.27484831932625003 0.8695998929771142
0.3909805 -0.2690896855697937 0.8711983849342564
0.3929804 -0.2633372636748521 0.8730310371087273
0.3949803 -0.2571372275501965 0.8746935352158227
0.3969802 -0.25131891409155876 0.8765802492556592
0.3989801 -0.24492124631753134 0.8784329450524988
0.40098 -0.23885778235250546 0.879585664270065
0.4029799 -0.23290972514837835 0.8817749107675424
0.4049798 -0.22681103485795776 0.8833682346006104
0.4069797 -0.2207357020019114 0.8850862622288247
0.4089796 -0.21456160229915833 0.8867246661510532
0.4109795 -0.20869713243478014 0.8885474796846747
0.4129794 -0.20215301688534779 0.889871280332512
0.4149793 -0.19618883823071986 0.8912215474141287
0.4169792 -0.18999253655543724 0.8934525631045385
0.4189791 -0.18370077826087192 0.894656009016309
0.420979 -0.17772528542605615 0.8961193867262159
0.4229789 -0.17113612486382732 0.8970246392175715
0.4249788 -0.16536945038894885 0.8988129106893304
0.4269787 -0.15906652053531983 0.8998768329711865
0.4289786 -0.1528516876004657 0.9013938262323541
0.4309785 -0.1468040065292697 0.9025402603117313
0.4329784 -0.14032045024558454 0.9037074761672517
0.4349783 -0.1343079536490927 0.9048275359672037
0.4369782 -0.12774800533901298 0.9058904218307487
0.4389781 -0.12184882679617984 0.9069335831273172
0.440978 -0.11560998223077085 0.9081006780338932
0.4429779 -0.10923350434897208 0.9088444318629286
0.4449778 -0.10313042751859425 0.9097901593629565
0.4469777 -0.09687234675956163 0.9105799770844694
0.4489776 -0.09013420312335536 0.911120640528678
0.4509775 -0.08391344353745842 0.9119739248667176
0.4529774 -0.07793752407623741 0.9127691036425479
0.4549773 -0.07180433237501871 0.9134269103231923
0.4569772 -0.06490369997364584 0.9140133424321075
0.4589771 -0.05872841513352271 0.9146754417675275
0.460977 -0.052015135873970324 0.9153001767300846
0.4629769 -0.045499296494792556 0.9157234016718222
0.4649768 -0.039123059172016736 0.9158572957112965
0.4669767 -0.032665234102982416 0.9160330408227063
0.4689766 -0.025699511291452544 0.9168806691500035
0.4709765 -0.020160830295676276 0.9166604957619382
0.4729764 -0.013461971942629 0.9172596276253592
0.4749763 -0.0069339405799919394 0.9175917627732147
0.4769762 -0.00020934275905756458 0.9174772900718331
0.4789761 0.006068439183456391 0.9179839349588761
0.480976 0.012699830172603808 0.9181265279532351
0.4829759 0.01934105185666298 0.9184314615754037
0.4849758 0.025761510855193966 0.918444797345088
0.4869757 0.03250859614439812 0.9183790141223134
0.4889756 0.038980318861600194 0.9183499335317495
0.4909755 0.04546204837593078 0.918493151492163
0.4929754 0.051745487922721066 0.91839846469639
0.4949753 0.05816447253074536 0.9183026889472048
0.4969752 0.06482473235421168 0.917960458587666
0.4989751 0.07103112172046294 0.9180744534074765
0.500975 0.07739473332005344 0.9176813851064612
0.5029749 0.08384505011829908 0.9172455961813715
0.5049748 0.09012634266679852 0.9167041062391927
0.5069747 0.09660657655707006 0.9158206438420059
0.5089746 0.10298847476014296 0.9153371449880298
0.5109745 0.10955361007398054 0.9148624114451132
0.5129744 0.11574337065308891 0.9142797225434
0.5149743 0.12240710390658406 0.9134625525240825
0.5169742 0.1293187312375834 0.9129348988375738
0.5189741 0.13518779080660026 0.9119380405147561
0.520974 0.14198665548353187 0.9111784889479537
0.5229739 0.14847835095060874 0.9100282986175298
0.5249738 0.1546548687163205 0.9087986080903186
0.5269737 0.16119384737728493 0.9078296735259966
0.5289736 0.16768539634689114 0.9067772493464091
0.5309735 0.17454671792530196 0.905232690420499
0.5329734 0.18100476667968132 0.9038146575156661
0.5349733 0.18738346635438785 0.9025736926065969
0.5369732 0.19417919145546406 0.9012446093591235
0.5389731 0.20063958220861003 0.8998921543673929
0.540973 0.20774916495282178 0.8987230669460045
0.5429729 0.2139354863770627 0.8970832213139698
0.5449728 0.22047477818646188 0.8955091254251395
0.5469727 0.2272411376135955 0.8942399991946012
0.5489726 0.23418865361154081 0.8925327614044187
0.5509725 0.2405299264667627 0.8909552100697758
0.5529724 0.24721538909940613 0.8894555764385238
0.5549723 0.25378649135755216 0.8876011677930332
0.5569722 0.2603974780527527 0.8863078615403368
0.5589721 0.2669411509969232 0.8842750975382924
0.560972 0.2739160807941114 0.882674417809892
0.5629719 0.2805887296839544 0.8812473979407022
0.5649718 0.28723864035524904 0.8799030831158122
0.5669717 0.2934096105505834 0.8778060484710127
0.5689716 0.2999307246713947 0.8759397008176073
0.5709715 0.30650173574269746 0.8740677890283522
0.5729714 0.31301095933591444 0.8723538436599355
0.5749713 0.31939825803423494 0.870191230233803
0.5769712 0.325439213653649 0.8682453691300105
0.5789711 0.3320391708201241 0.8663903221277018
0.580971 0.33772868875167206 0.8639982485268292
0.5829709 0.3438242001118195 0.8617856975797257
0.5849708 0.35022021711365003 0.8595649628670361
0.5869707 0.35626770380794354 0.8574016129562615
0.5889706 0.36298284220201277 0.854539806850085
0.5909705 0.3688028631502557 0.8516173464991226
0.5929704 0.3750817682422879 0.849101242511775
0.5949703 0.381153255738868 0.8464125875176418
0.5969702 0.3877218050314324 0.8437418674310831
0.5989701 0.3937712289008418 0.8406444818640478
0.60097 0.3998402918437527 0.8377412170208136
0.6029699 0.4059724271781313 0.8347081807593194
0.6049698 0.41212848224705656 0.8314764477211085
0.6069697 0.4182163550425823 0.8284733407968791
0.6089696 0.4242499143425631 0.8258355244642872
0.6109695 0.43011598750594165 0.8223691540893981
0.6129694 0.4364965958670256 0.8192141980197556
0.6149693 0.442539064919875 0.8165466659916006
0.6169692 0.4495818852473906 0.8131273645653085
0.6189691 0.45564618821593506 0.8098227892741847
0.620969 0.4614091741054533 0.8064106956940018
0.6229689 0.46772785393472954 0.8027787141460077
0.6249688 0.4741974938170551 0.799932065838807
0.6269687 0.48013569456211613 0.796050125256013
0.6289686 0.4863303936363164 0.7926560689690486
0.6309685 0.49267555954581155 0.7893868140519031
0.6329684 0.49839643187737703 0.7856726788370061
0.6349683 0.5049214898888821 0.7827354376449497
0.6369682 0.51062473129383 0.7790593091103787
0.6389681 0.5166241764999601 0.7756181044541931
0.640968 0.5225335200006556 0.771861121045618
0.6429679 0.5283046143554899 0.7686132174071676
0.6449678 0.5342195602805261 0.7651254634879241
0.6469677 0.539676679718166 0.7611691766608231
0.6489676 0.5449284429164055 0.7574022870706062
0.6509675 0.5510225551736786 0.753483489957186
0.6529674 0.5567606654514786 0.7499177460760802
0.6549673 0.562334736672526 0.7457126531412214
0.6569672 0.5674496860137365 0.7418331034075064
0.6589671 0.5732645578850967 0.7375811263476775
0.660967 0.5787325171012796 0.7332410966901964
0.6629669 0.5836722386060349 0.7291256583343556
0.6649668 0.5887392140493743 0.7247754991112427
0.6669667 0.594198441750512 0.7205834330206586
0.6689666 0.5997049109408925 0.7163488417724195
0.6709665 0.6045332714692799 0.7119287958187104
0.6729664 0.6099793968348234 0.706646227861866
0.6749663 0.6152994945867979 0.702701383850594
0.6769662 0.6207874361219581 0.6976220569996668
0.6789661 0.6262303524456813 0.6927982161894688
0.680966 0.6311667032341601 0.6882767105034948
0.6829659 0.6366583122744539 0.6832665181535411
0.6849658 0.6420599209958754 0.6787979279650778
0.6869657 0.6470781668306812 0.673542034299995
0.6889656 0.6522076154080477 0.6685214570218615
0.6909655 0.6572109956914928 0.6633704030055069
0.6929654 0.6626735885105441 0.6582685808182945
0.6949653 0.6678600549568273 0.6531452435376692
0.6969652 0.6727960448161184 0.648024952595094
0.6989651 0.677959167135854 0.6429852981503157
0.700965 0.6829196192112698 0.6378137312956893
0.7029649 0.6879164241965708 0.6324773699127032
0.7049648 0.69331304687459 0.6274846526269423
0.7069647 0.6984705341156529 0.6222612820836934
0.7089646 0.7035459153792992 0.6172325956894142
0.7109645 0.7085697208842748 0.6121249917326609
0.7129644 0.7136787423376162 0.6068528065343441
0.7149643 0.7182989261213758 0.6013011594730302
0.7169642 0.7230687795423368 0.5959904646658443
0.7189641 0.7279092400214533 0.5912113628020148
0.720964 0.731978855245784 0.5858282471218668
0.7229639 0.7364372597043013 0.580234254697878
0.7249638 0.7412581376201757 0.57502172897565
0.7269637 0.7458880844269441 0.5697814308797522
0.7289636 0.7503928137810542 0.5642362238646218
0.7309635 0.7545318001058589 0.558661726764755
0.7329634 0.75897805838716 0.5534298607656412
0.7349633 0.7633281366842741 0.5474222923403341
0.7369632 0.7667479622251063 0.5421246334164591
0.7389631 0.7712317594680367 0.536252758461578
0.740963 0.7748185812041437 0.5303530415015879
0.7429629 0.7788904872765904 0.5249058469287604
0.7449628 0.7828866658978265 0.5189875273565121
0.7469627 0.7866088236333391 0.5134429656892352
0.7489626 0.7906630783310523 0.5070868906817997
0.7509625 0.7945856130562742 0.500734130262684
0.7529624 0.7981900306224403 0.4950572912203679
0.7549623 0.801872257189677 0.4890809682530169
0.7569622 0.8052056726470948 0.4828214009322931
0.7589621 0.8090911966781602 0.47641334735282526
0.760962 0.8124834737333706 0.47043828396149856
0.7629619 0.8163076169617621 0.46353798256563217
0.7649618 0.8202232278016235 0.4577471933904601
0.7669617 0.8234441256092686 0.4518145208356037
0.7689616 0.8270711305075892 0.444798011173065
0.7709615 0.8306538578053402 0.4384122216831444
0.7729614 0.834290256874632 0.43208438466747395
0.7749613 0.8377798596606678 0.4259361906614658
0.7769612 0.8410672797001144 0.41907083155133346
0.7789611 0.8440824128331824 0.4125002330807092
0.780961 0.8476968961118583 0.4061892539597043
0.7829609 0.8506992829745141 0.3994113481819367
0.7849608 0.8542802931256447 0.3931483344277294
0.7869607 0.8574468013149122 0.386454775165711
0.7889606 0.8605218722830497 0.3797549841662407
0.7909605 0.8638233821530072 0.37352894445868356
0.7929604 0.866642075899491 0.3669895715006847
0.7949603 0.8694496085035086 0.3606379750459542
0.7969602 0.8724249602327773 0.35343374400486366
0.7989601 0.8750293912120803 0.34701884368499986
0.80096 0.8781974872781833 0.34074177291934044
0.8029599 0.8807965200322688 0.3339299989758063
0.8049598 0.8831627996718966 0.32752936331976423
0.8069597 0.8860502980443273 0.3211236471895934
0.8089596 0.8885472842251876 0.31429262805285696
0.8109595 0.8908328798566667 0.30733546654571
0.8129594 0.8930672752310136 0.3006211029271133
0.8149593 0.895463509038316 0.29406336248544085
