! Created with skrf 1.8.0 (http://scikit-rf.org).
# GHz S RI R 50.0 
!freq ReS11 ImS11
0.001 0.9967361549605488 -0.005773155536821633
0.0029999 0.9949870805717638 -0.014234944984640154
0.0049998 0.9945452115543738 -0.02147141788180701
0.0069997 0.9935517231943966 -0.028091245142923948
0.0089996 0.992501681549907 -0.0348361213913269
0.0109995 0.9919770072817594 -0.04227868062380462
0.0129994 0.9916101836594062 -0.04928914893982377
0.0149993 0.991226395187889 -0.05667864494746068
0.0169992 0.9905081550166503 -0.06402275183159617
0.0189991 0.9899657925811645 -0.07142198711814685
0.020999 0.9894382136707572 -0.07864202452444295
0.0229989 0.9883966015557194 -0.08561628195202758
0.0249988 0.9877682863273198 -0.09324209300660628
0.0269987 0.9872734226265403 -0.10052384421690183
0.0289986 0.9863921956095842 -0.107694631138478
0.0309985 0.9853967271842888 -0.11500391443915194
0.0329984 0.9843089738480735 -0.1222447545154396
0.0349983 0.9834738810448783 -0.12956934767606357
0.0369982 0.982739934291311 -0.13696560893506363
0.0389981 0.9812673475155689 -0.1440119541382449
0.040998 0.980513668509073 -0.15129264955921712
0.0429979 0.9789998540702097 -0.15844648327855593
0.0449978 0.977694810000989 -0.16589564364371412
0.0469977 0.9765634317067536 -0.17313258778271284
0.0489976 0.9751786416796397 -0.1801839298818459
0.0509975 0.9733912225385852 -0.18740693055620014
0.0529974 0.971782120774715 -0.19460062512879833
0.0549973 0.9703064840464958 -0.20185904773544255
0.0569972 0.968934699600748 -0.20892262766337522
0.0589971 0.967243008819805 -0.21620348095808678
0.060997 0.9653821035806808 -0.22337303211244725
0.0629969 0.9638287426820961 -0.23064173584462766
0.0649968 0.9618695441747767 -0.23764782162303022
0.0669967 0.9602304310001852 -0.24479078737774804
0.0689966 0.9581948975662826 -0.25188977633589466
0.0709965 0.9559017076040749 -0.25902564325396843
0.0729964 0.954276468649307 -0.26631421771573266
0.0749963 0.9522323093023962 -0.2731471095641826
0.0769962 0.9500426207560736 -0.280157647871209
0.0789961 0.9478660820942 -0.28709561286934504
0.080996 0.9457559808010764 -0.2942911873964115
0.0829959 0.9431670794106913 -0.30122267390998825
0.0849958 0.9412508497548324 -0.30834262543085633
0.0869957 0.9385668694989279 -0.31513735437996426
0.0889956 0.9363739852227022 -0.32196289110226245
0.0909955 0.9337907964454124 -0.3287924905979507
0.0929954 0.9313811712634987 -0.3357417933998505
0.0949953 0.9288541276791885 -0.3426213357611337
0.0969952 0.9263661581290697 -0.34935056080569504
0.0989951 0.923398757180677 -0.35584771203752813
0.100995 0.9206705648869109 -0.36271780923666025
0.1029949 0.91800192153242 -0.3697100698195136
0.1049948 0.9152765880947403 -0.37617228243374895
0.1069947 0.9122121860355726 -0.3829200227240338
0.1089946 0.9093268174393232 -0.38974522220519714
0.1109945 0.9068454248648075 -0.39598699577912655
0.1129944 0.9036034729440401 -0.4027070667889593
0.1149943 0.9003483528544822 -0.4092409981594744
0.1169942 0.8971921560548258 -0.41571315013056226
0.1189941 0.8936601610138808 -0.42211441326153465
0.120994 0.8907018103829494 -0.4284242721647119
0.1229939 0.8871772060520888 -0.43511023707363916
0.1249938 0.8835923068710823 -0.44188880522514123
0.1269937 0.8804326002921574 -0.44796728738638625
0.1289936 0.8765923261965033 -0.4543370089761664
0.1309935 0.8733710133977971 -0.460626572921416
0.1329934 0.8697668160170324 -0.46723156462353277
0.1349933 0.8662798287405106 -0.473431329971538
0.1369932 0.8622119514642832 -0.47979941989509123
0.1389931 0.8582955515925185 -0.48599662300616303
0.140993 0.8545928468209415 -0.4923829646355875
0.1429929 0.8509722838294995 -0.4989527452320207
0.1449928 0.8469907050115407 -0.5052409700534597
0.1469927 0.8431349995781049 -0.511188612835958
0.1489926 0.8392383603059569 -0.517562519929939
0.1509925 0.8352074591474874 -0.5238274141232965
0.1529924 0.8314269756807515 -0.5298965564061403
0.1549923 0.8275887839890135 -0.5357356390963197
0.1569922 0.8235333092745434 -0.5421492223471289
0.1589921 0.8196196193906536 -0.5481036471487186
0.160992 0.8156223311181531 -0.5541701946670073
0.1629919 0.8115228581675279 -0.5596732817577096
0.1649918 0.807315138443217 -0.5656957492714109
0.1669917 0.8031925255897807 -0.5715698731587204
0.1689916 0.7989154642071441 -0.5770478303796599
0.1709915 0.7948027772307656 -0.5827292564885693
0.1729914 0.790704771127091 -0.5887220189915039
0.1749913 0.786202401618781 -0.594206699396245
0.1769912 0.7820177051816034 -0.5997530351741006
0.1789911 0.7774270748996691 -0.6053351865393349
0.180991 0.772760042250089 -0.6109478503695005
0.1829909 0.7686191980208728 -0.6161984464273766
0.1849908 0.763684107958839 -0.6216062716902641
0.1869907 0.7589661841669146 -0.6267580923504646
0.1889906 0.754573013179469 -0.6318308969766531
0.1909905 0.7498569717214081 -0.636881873838383
0.1929904 0.7449552745080259 -0.6418156580155102
0.1949903 0.7401633042978186 -0.6468714815657297
0.1969902 0.735338746789016 -0.6517792008370786
0.1989901 0.7302728824455131 -0.6570718025296851
0.20099 0.7251394948177691 -0.6622621132397549
0.2029899 0.7200883460405342 -0.6674959049908784
0.2049898 0.7149896675856258 -0.6724124330073635
0.2069897 0.7100640413869994 -0.6773423553438067
0.2089896 0.7047250281057289 -0.6821163801390402
0.2109895 0.6993381564780823 -0.6869155700386284
0.2129894 0.6942671662962686 -0.6920093434453077
0.2149893 0.6887585391944383 -0.6969892500105311
0.2169892 0.6833387939111693 -0.7020107960257976
0.2189891 0.6780005642123037 -0.7069941971059649
0.220989 0.672558680894538 -0.7119029257933646
0.2229889 0.6672664584147274 -0.7164947650210269
0.2249888 0.6621064838384864 -0.7210359951460619
0.2269887 0.6568375107854038 -0.7258461210670137
0.2289886 0.6515567440791579 -0.7303161049876264
0.2309885 0.6463002161541599 -0.7352198266708638
0.2329884 0.6406399208408395 -0.740179787555567
0.2349883 0.6353224020943771 -0.7438997661373005
0.2369882 0.6294984537445862 -0.7489464771066402
0.2389881 0.6242810304205616 -0.753318956136225
0.240988 0.6187426598378045 -0.7576862603726856
0.2429879 0.6136036040802679 -0.7621477485490488
0.2449878 0.607890835109972 -0.7662719333117652
0.2469877 0.6024574281568276 -0.7702512263614721
0.2489876 0.5967695329553498 -0.7747919766192557
0.2509875 0.591483844954278 -0.7785779014789194
0.2529874 0.5858114205756125 -0.7827285069604331
0.2549873 0.5806715953691499 -0.7866725162399857
0.2569872 0.5749288722960951 -0.7901318715187001
0.2589871 0.5689545138007338 -0.7943252317370865
0.260987 0.5634106473265474 -0.7981842139936971
0.2629869 0.5575280758960978 -0.8019324783957146
0.2649868 0.5517481032357688 -0.8053766656879563
0.2669867 0.5458373709791831 -0.8088500460301334
0.2689866 0.5398015664887093 -0.812272397075544
0.2709865 0.5341254104043315 -0.8157506869274664
0.2729864 0.5281868473007127 -0.8193522827443696
0.2749863 0.5224468334757487 -0.8226522512771638
0.2769862 0.5161974056803527 -0.8262396192894759
0.2789861 0.5101628952114723 -0.8295200792822433
0.280986 0.5039600894122995 -0.8330419608728675
0.2829859 0.4977306004712924 -0.8362014753307214
0.2849858 0.49179117757411306 -0.8395231569731879
0.2869857 0.4854357612256757 -0.8428217672966911
0.2889856 0.47955384936108086 -0.8458031365716082
0.2909855 0.47324049897208653 -0.848884048328005
0.2929854 0.46692270588814433 -0.8521883782789149
0.2949853 0.4603917545328979 -0.8552227437795509
0.2969852 0.4546508267699383 -0.8587326545340873
0.2989851 0.44855392873524713 -0.8620037478443503
0.300985 0.442299997745646 -0.8644932276419213
0.3029849 0.4362784805381725 -0.8676040691579321
0.3049848 0.42981437243598203 -0.870476986492245
0.3069847 0.42377204732699497 -0.8731183258237839
0.3089846 0.4175984097853301 -0.8763053972902147
0.3109845 0.41117875180380725 -0.8792342311911487
0.3129844 0.40483508453488554 -0.8821078616357765
0.3149843 0.3990163429044517 -0.884516335885514
0.3169842 0.393011637298387 -0.8872409733425053
0.3189841 0.38638621991153904 -0.8898567144732042
0.320984 0.3806366414073278 -0.8921902381303757
0.3229839 0.37421809810467993 -0.8948466916079545
0.3249838 0.3681714766292147 -0.8967898061729739
0.3269837 0.36165649749075796 -0.8991474720132047
0.3289836 0.35581081217975175 -0.9015417275866685
0.3309835 0.34944018174003827 -0.9035762192883923
0.3329834 0.34295663325306075 -0.9057825557534598
0.3349833 0.33687130328813 -0.9079918784320308
0.3369832 0.33060904510968203 -0.910064193044509
0.3389831 0.3240326267569552 -0.9118402824611136
0.340983 0.31797881256725924 -0.9136876833527526
0.3429829 0.3114190461398686 -0.915843010550675
0.3449828 0.30501592423314317 -0.9173822137019839
0.3469827 0.29886876114187594 -0.918867609544959
0.3489826 0.29228643519465974 -0.9206721196596603
0.3509825 0.28599717744497455 -0.9227153432908792
0.3529824 0.2795637061535893 -0.9241027009087966
0.3549823 0.2730095690366937 -0.9257257010518799
0.3569822 0.26647602176800955 -0.9270359313723437
0.3589821 0.2597920057362962 -0.9284852266391687
0.360982 0.2534000444483095 -0.9299152045285156
0.3629819 0.24689038478889475 -0.9311842775430716
0.3649818 0.24028746584857058 -0.9323766624921128
0.3669817 0.2338440452461418 -0.9337099168083103
0.3689816 0.2269827699140378 -0.9351492909982649
0.3709815 0.22065832388036088 -0.9366909345274901
0.3729814 0.21374661744974816 -0.937800820075354
0.3749813 0.20736416075536765 -0.9393374245567427
0.3769812 0.20093381351502324 -0.940348818409032
0.3789811 0.19401310030722496 -0.9415491296996136
0.380981 0.18767778366994547 -0.9430175869678091
0.3829809 0.18131919946123354 -0.9437897948995655
0.3849808 0.17474459840353634 -0.9449429218579365
0.3869807 0.16826245672585205 -0.9462271465105705
0.3889806 0.16185176902369564 -0.9467351249961824
0.3909805 0.1553873617821085 -0.9480347571348737
0.3929804 0.14892600829957314 -0.9486174638662441
0.3949803 0.14275760394303494 -0.9496049750357382
0.3969802 0.13581772828121524 -0.9503703217567938
0.3989801 0.12983798165588828 -0.9508810242138264
0.40098 0.12298582449446055 -0.951734172506844
0.4029799 0.11723499787069659 -0.9523802653862093
0.4049798 0.11074820487108819 -0.9529817450806541
0.4069797 0.10428810201488684 -0.9534266354945036
0.4089796 0.09802196416205143 -0.9536385060713791
0.4109795 0.09174407907954728 -0.953985114649429
0.4129794 0.08500118580248192 -0.9543552162550808
0.4149793 0.07879849943456232 -0.9547569778927539
0.4169792 0.07253194400159105 -0.9548274456168679
0.4189791 0.0659131016677916 -0.9551276811049921
0.420979 0.059974349478717964 -0.9551091302183137
0.4229789 0.053185207106080226 -0.9553125970955539
0.4249788 0.04698861581170373 -0.9553060912811725
0.4269787 0.04052959832428471 -0.9552697161821369
0.4289786 0.03430479055835164 -0.9553835081818449
0.4309785 0.027600645310096136 -0.9552707047560896
0.4329784 0.02134023500875476 -0.9548621569221364
0.4349783 0.014789279402671923 -0.954790847572096
0.4369782 0.009029825277256778 -0.9545318154454281
0.4389781 0.0024759109212903266 -0.954371886863278
0.440978 -0.004151588874893211 -0.9540668516166074
0.4429779 -0.010212804472134171 -0.9538540343970833
0.4449778 -0.016975975539413962 -0.9536019872660277
0.4469777 -0.023092350931207394 -0.9529744638829509
0.4489776 -0.029607155404691124 -0.9527847729935724
0.4509775 -0.03587333693173464 -0.9519303953672377
0.4529774 -0.042389720603545934 -0.9514404567729842
0.4549773 -0.048548325439920305 -0.9514336012895068
0.4569772 -0.05477919220663967 -0.9502839969456603
0.4589771 -0.06078889033743745 -0.9498268091422694
0.460977 -0.06727900047997735 -0.9493128644150373
0.4629769 -0.07348005538534422 -0.948427761422337
0.4649768 -0.07937784131116762 -0.9478668315482586
0.4669767 -0.08559255738380071 -0.9469341897269388
0.4689766 -0.09166023724580515 -0.9463906763941922
0.4709765 -0.09765459627229442 -0.9449557702967516
0.4729764 -0.10391218450784603 -0.944274673886197
0.4749763 -0.11020971156877468 -0.9433696417482174
0.4769762 -0.11618413231457667 -0.9424456202949018
0.4789761 -0.12214051008533108 -0.9412255298775629
0.480976 -0.12808338273155187 -0.9404110355417536
0.4829759 -0.13433733326878028 -0.9390562127360613
0.4849758 -0.14064735733849532 -0.9378910150732545
0.4869757 -0.14659281933217572 -0.936956156004131
0.4889756 -0.15285382219789584 -0.9352348600385325
0.4909755 -0.15869917661500185 -0.9337537626187975
0.4929754 -0.16501100733005872 -0.9325221476412107
0.4949753 -0.17106320172338085 -0.9309000828276648
0.4969752 -0.17748912722181523 -0.9291174108648368
0.4989751 -0.18280508008407487 -0.9275892709666977
0.500975 -0.18882325853006282 -0.9257615489940322
0.5029749 -0.1951493365737471 -0.9245804472551792
0.5049748 -0.2012852426249544 -0.9226649047505442
0.5069747 -0.20759662544645135 -0.9212917468948039
0.5089746 -0.2135332414015077 -0.9196399132555478
0.5109745 -0.21935454483418013 -0.9185316148226699
0.5129744 -0.22551668992445928 -0.9167770721211446
0.5149743 -0.23123720136536258 -0.9151344003629197
0.5169742 -0.23716452130600654 -0.9138661270170034
0.5189741 -0.2430811053896284 -0.9120301200368404
0.520974 -0.24956639025223362 -0.9103703021215714
0.5229739 -0.254964211842067 -0.9084940950408646
0.5249738 -0.2606240824326711 -0.9064057430875014
0.5269737 -0.2666939124229787 -0.9048206788685118
0.5289736 -0.2726848577725514 -0.9030896095303084
0.5309735 -0.27811826598855827 -0.9010583236567576
0.5329734 -0.2839260415274702 -0.8991696001160968
0.5349733 -0.2896519389368705 -0.8971825088397729
0.5369732 -0.2954904129336268 -0.895405401605833
0.5389731 -0.30096902864538 -0.8936150487600524
0.540973 -0.3064800467266208 -0.8913308608962071
0.5429729 -0.31193223072806076 -0.8890900169729272
0.5449728 -0.31748947918520504 -0.8866564337858841
0.5469727 -0.3224163900103983 -0.8845238179829363
0.5489726 -0.3283771306346565 -0.8824610075400534
0.5509725 -0.3332404420419141 -0.88012758581322
0.5529724 -0.33893114727513746 -0.8777964089396595
0.5549723 -0.34426859600631776 -0.8754559392582271
0.5569722 -0.3495915251779595 -0.8726426537559642
0.5589721 -0.35506367984216647 -0.8702550227658719
0.560972 -0.36003467009802853 -0.8677539571234596
0.5629719 -0.36532750286931315 -0.8649303731033828
0.5649718 -0.3705082192960593 -0.8619134492824356
0.5669717 -0.37593200502338747 -0.8594694087782212
0.5689716 -0.38118268231291424 -0.8563819834254659
0.5709715 -0.3867759854506492 -0.8536608799786587
0.5729714 -0.39164829130560214 -0.8508485458950842
0.5749713 -0.39705131288356665 -0.8475503898365934
0.5769712 -0.4024199038971294 -0.8446972469824955
0.5789711 -0.40846722815086395 -0.8417274704899649
0.580971 -0.41345658248977424 -0.8391758409839086
0.5829709 -0.41887211408422514 -0.8364357419956344
0.5849708 -0.4242370977570298 -0.8334280242253627
0.5869707 -0.4295263166035895 -0.8305349238742358
0.5889706 -0.4350490492266059 -0.8275508770542825
0.5909705 -0.43962841709980605 -0.8247174600429306
0.5929704 -0.4448716991422442 -0.8216525261402183
0.5949703 -0.45048661847584043 -0.8187161797996316
0.5969702 -0.45495138926581336 -0.8157607693199588
0.5989701 -0.4606296849698123 -0.8128117417383584
0.60097 -0.4653690676511489 -0.8098687854136974
0.6029699 -0.4701641739496531 -0.8067223491363712
0.6049698 -0.47546450899930537 -0.8036874907902174
0.6069697 -0.48088700132348744 -0.8006251425635235
0.6089696 -0.48544856964440586 -0.7972293011559856
0.6109695 -0.49007638112004087 -0.7942558893615597
0.6129694 -0.49487863003304466 -0.7913454028215449
0.6149693 -0.5000533547668172 -0.7877539063118185
0.6169692 -0.5048681577886047 -0.7848787301797984
0.6189691 -0.5091244069222121 -0.7816486054542913
0.620969 -0.5135113324961146 -0.7786100775762752
0.6229689 -0.5185377998037224 -0.7749301178847388
0.6249688 -0.5229064426297096 -0.7717377818244348
0.6269687 -0.5275748257069847 -0.7685549497165197
0.6289686 -0.532257475025974 -0.7645765383678884
0.6309685 -0.5365954437242288 -0.7613400313647986
0.6329684 -0.5412619591475728 -0.7577942313133312
0.6349683 -0.5454077312350454 -0.7535783177412955
0.6369682 -0.549302985405442 -0.7498892757385558
0.6389681 -0.5538420968026726 -0.7461171260896189
0.640968 -0.5586605253621962 -0.7418038572168889
0.6429679 -0.5626403170983716 -0.7380121461184931
0.6449678 -0.5679085772450249 -0.734108361194634
0.6469677 -0.5721055636863513 -0.7302686289044291
0.6489676 -0.5768315075665182 -0.7266456922819362
0.6509675 -0.5809623728387476 -0.7226344530859707
0.6529674 -0.5856047954677824 -0.719008719063289
0.6549673 -0.5896791715100627 -0.715247067208238
0.6569672 -0.5942562297321209 -0.7114257183944172
0.6589671 -0.5989469471397495 -0.7072923010666012
0.660967 -0.6035674624137851 -0.7031688589524887
0.6629669 -0.6078757638316161 -0.6992580126739378
0.6649668 -0.6120970913315793 -0.6958164381372577
0.6669667 -0.6163929858088011 -0.6920701387603203
0.6689666 -0.6210045388671658 -0.687751310497871
0.6709665 -0.6251331926548966 -0.6835711133273927
0.6729664 -0.6293296553002236 -0.6799914827224914
0.6749663 -0.6327833768345783 -0.6757073353952149
0.6769662 -0.6373173551410004 -0.6717009011045073
0.6789661 -0.6414865921213717 -0.6675440513579938
0.680966 -0.6453712443241024 -0.6642460249332857
0.6829659 -0.6494994336918025 -0.6601245671684266
0.6849658 -0.6530132738075577 -0.6555857129542351
0.6869657 -0.6571595513977745 -0.6517430708058457
0.6889656 -0.66109079403555 -0.6481362708620588
0.6909655 -0.6649124220855327 -0.6440265821161345
0.6929654 -0.6685185742432247 -0.6398452686664097
0.6949653 -0.6723481703119487 -0.6358527606775614
0.6969652 -0.6758674758877474 -0.631898514014071
0.6989651 -0.6794569623210528 -0.6278968154509836
0.700965 -0.6830582050930121 -0.62331751632609
0.7029649 -0.686550055421949 -0.619577199162942
0.7049648 -0.6900849468567672 -0.6148414495333083
0.7069647 -0.6929148634932314 -0.6106246517784988
0.7089646 -0.6965153912860469 -0.6061861189068138
0.7109645 -0.6997169751743477 -0.6016356171349507
0.7129644 -0.7028143785346131 -0.5970875573197074
0.7149643 -0.7062492053176225 -0.5922378896852929
0.7169642 -0.7096338039631286 -0.5881905437989838
0.7189641 -0.7132322442291598 -0.5834825117437555
0.720964 -0.7168044305449804 -0.5788231105907781
0.7229639 -0.7201104004125771 -0.5745293560070645
0.7249638 -0.7228519720676312 -0.5695186319728213
0.7269637 -0.7261874352041342 -0.564552013769045
0.7289636 -0.7293661803911587 -0.5597252486086045
0.7309635 -0.733036690108505 -0.5549376427175534
0.7329634 -0.7363253859746904 -0.5501376206540363
0.7349633 -0.7394719561125508 -0.5456584012295299
0.7369632 -0.7432312995409858 -0.5410840452941681
0.7389631 -0.7464331398186925 -0.5360108377647098
0.740963 -0.7497905196669802 -0.5314924405743242
0.7429629 -0.7528169215716224 -0.5267025905739136
0.7449628 -0.7557753026670543 -0.5217906876571772
0.7469627 -0.7593149262332154 -0.517627486176519
0.7489626 -0.7623929776968847 -0.5127726864721927
0.7509625 -0.7652703199726142 -0.5079064858299719
0.7529624 -0.7689498382061859 -0.5034761659765141
0.7549623 -0.7717448555650325 -0.49843433328296927
0.7569622 -0.7747566012799793 -0.4941516067943258
0.7589621 -0.7774862095050641 -0.4892107773296364
0.760962 -0.7804414705060428 -0.4841286956167064
0.7629619 -0.7830296436889691 -0.4796151842947959
0.7649618 -0.7858959545304642 -0.4748125125357896
0.7669617 -0.7882477996440589 -0.4703559778653777
0.7689616 -0.790969775877472 -0.46550562718856614
0.7709615 -0.7936837474124903 -0.4605666977381569
0.7729614 -0.796370169696702 -0.4558339583005807
0.7749613 -0.7991327125510697 -0.45115334339617397
0.7769612 -0.8015672031618528 -0.4461873497974623
0.7789611 -0.8040804745536889 -0.4414933393881813
0.780961 -0.8062614007202495 -0.43669962654531413
0.7829609 -0.8088650432258138 -0.43168637486972306
0.7849608 -0.81105507651891 -0.4266427699249672
0.7869607 -0.813680988739294 -0.42183247135954366
0.7889606 -0.8157292047321946 -0.41668602776968994
0.7909605 -0.818213348587448 -0.41196226735427494
0.7929604 -0.8204316520422902 -0.40668393395681535
0.7949603 -0.8224424723815973 -0.40139557128851844
0.7969602 -0.8249186073594215 -0.3964226511375296
0.7989601 -0.8267534483694958 -0.39135218217541357
0.80096 -0.8286926619451276 -0.3860930745781211
