! Created with skrf 1.8.0 (http://scikit-rf.org).
# GHz S RI R 50.0 
!freq ReS11 ImS11
0.001 -0.9037231115446567 0.005394812832977577
0.0029999 -0.9032838224471581 0.00998735886565811
0.0049998 -0.9026001539412482 0.015292023643308353
0.0069997 -0.9020945115011202 0.020606225726645756
0.0089996 -0.9015163349269133 0.02609273917176954
0.0109995 -0.9011637553776374 0.031149799076885264
0.0129994 -0.9010227691008188 0.036624875198446455
0.0149993 -0.9004489361720409 0.04197910613692643
0.0169992 -0.8998953628018475 0.047162109352155576
0.0189991 -0.8992573808376054 0.05249548390939532
0.020999 -0.8989388126925176 0.05771687377367897
0.0229989 -0.8983080447261255 0.06299212083659729
0.0249988 -0.8974167779154315 0.06835631656295905
0.0269987 -0.8975465636236458 0.073466695038594
0.0289986 -0.8965082253837452 0.07887894486887195
0.0309985 -0.8959051044396481 0.08413517797143527
0.0329984 -0.895277316750345 0.08936148222236491
0.0349983 -0.8949677304309673 0.09476859296945338
0.0369982 -0.8940305364925936 0.10008552759728839
0.0389981 -0.8933558344721705 0.10535573405130566
0.040998 -0.8927479868853128 0.11037982060266521
0.0429979 -0.8918090638948345 0.11564648692350239
0.0449978 -0.8908596304381693 0.12102697121717784
0.0469977 -0.890419454685523 0.12628500480362462
0.0489976 -0.8896429070383699 0.13138698034083718
0.0509975 -0.8886996976650388 0.13675156200433555
0.0529974 -0.8877018395631459 0.14158594067174884
0.0549973 -0.8871475932292683 0.14709523091980753
0.0569972 -0.8860844981536179 0.15227286569237353
0.0589971 -0.8850101896934247 0.15717120267855655
0.060997 -0.8840369004495432 0.16245070907924827
0.0629969 -0.8832681004959536 0.16748884572168088
0.0649968 -0.8821778231805889 0.1726871021876534
0.0669967 -0.8810859653260512 0.17783996393258092
0.0689966 -0.8799523433417598 0.18311318922928527
0.0709965 -0.8787422130510508 0.18808940947246638
0.0729964 -0.8778225546573821 0.193388393872574
0.0749963 -0.8766699651257535 0.19825492438371925
0.0769962 -0.8751303982161718 0.20324519673726538
0.0789961 -0.8740300990035975 0.2084923958066979
0.080996 -0.8725870009221817 0.213469008639188
0.0829959 -0.8714930075645098 0.2185427175120313
0.0849958 -0.8700316947001635 0.22385296298456858
0.0869957 -0.8686788824796624 0.22882711855940202
0.0889956 -0.8671323495098427 0.23376949776207884
0.0909955 -0.865611301127026 0.23899591465252912
0.0929954 -0.8642577980505444 0.24416821236879
0.0949953 -0.8630214272089107 0.24893366178703275
0.0969952 -0.8609859937717509 0.25394854122957033
0.0989951 -0.8598271995390864 0.25927356971059445
0.100995 -0.8580777974764592 0.26426567443334287
0.1029949 -0.8563074280379424 0.2692979739336398
0.1049948 -0.8546479583968125 0.27410299183063797
0.1069947 -0.8531446078292398 0.27944964354081564
0.1089946 -0.8513598258716578 0.2841246389626382
0.1109945 -0.8495526371040911 0.2893105125443712
0.1129944 -0.8477463396102463 0.2944831473622106
0.1149943 -0.8460823825160795 0.29950841512911147
0.1169942 -0.8442828481601551 0.304518427637949
0.1189941 -0.8427236037764655 0.30960692944115775
0.120994 -0.8407290893967571 0.31462287658027605
0.1229939 -0.839029151490312 0.3192698579629735
0.1249938 -0.8372189672754657 0.3242320981736709
0.1269937 -0.8354285032691876 0.3287947661165038
0.1289936 -0.8339213142656327 0.3342307308060144
0.1309935 -0.8315661616438615 0.33889144791129727
0.1329934 -0.829401091620171 0.3434949087891591
0.1349933 -0.827831704272981 0.3485238101104056
0.1369932 -0.825723459331672 0.3534373334588853
0.1389931 -0.8236856633223908 0.35822510072538316
0.140993 -0.8216774059375674 0.36293461948544753
0.1429929 -0.8195426660409335 0.36777598539656103
0.1449928 -0.8175562051694345 0.3726523610552288
0.1469927 -0.8151560478561162 0.37696511218047635
0.1489926 -0.8126880705779028 0.38185130700970027
0.1509925 -0.8108344627084573 0.3867624334659743
0.1529924 -0.8085132527745096 0.3911843142441003
0.1549923 -0.8057217231968512 0.395423872570036
0.1569922 -0.8031735874048423 0.4004197843002176
0.1589921 -0.8011978865985654 0.40527302192513043
0.160992 -0.7982966381375972 0.41007750791210057
0.1629919 -0.7961756744129439 0.41463839232380406
0.1649918 -0.7937540797460307 0.4191949689372957
0.1669917 -0.7909906776216531 0.42391373952965045
0.1689916 -0.7883405139926392 0.4283058120082033
0.1709915 -0.7860352267895327 0.43332139406571335
0.1729914 -0.7832172774862575 0.43802300223549456
0.1749913 -0.7803172274158428 0.44234089694659323
0.1769912 -0.7777319549517815 0.4469564647420713
0.1789911 -0.7745803293451781 0.45168216109373693
0.180991 -0.7723772753255158 0.4565513439941298
0.1829909 -0.769387055792109 0.46137457592105185
0.1849908 -0.7667071273237325 0.46559596126112096
0.1869907 -0.7646421366135487 0.47070147836682397
0.1889906 -0.7610719444677057 0.4753492885730616
0.1909905 -0.7581014587472262 0.48004682494445483
0.1929904 -0.7554622380274978 0.4846303237709305
0.1949903 -0.7529918011802793 0.4892835241019585
0.1969902 -0.7504024712794044 0.4937369272175627
0.1989901 -0.7475135292844786 0.49784224428522084
0.20099 -0.7446859381882694 0.5023731953296281
0.2029899 -0.7418843053249005 0.5072349649307658
0.2049898 -0.7388211640211527 0.5118067508037789
0.2069897 -0.7357000630314111 0.5157881658139981
0.2089896 -0.7329011979869678 0.5200457842111395
0.2109895 -0.729735377230597 0.5247558140056885
0.2129894 -0.7269127085461653 0.5292474336457961
0.2149893 -0.7237131964159976 0.533278758425999
0.2169892 -0.7209334258651509 0.5377606001156485
0.2189891 -0.7175427656502302 0.5420022251627075
0.220989 -0.7147069065644885 0.5461942477799925
0.2229889 -0.7114616031838337 0.5500263607978914
0.2249888 -0.7082884849007286 0.5544713094037798
0.2269887 -0.7048012617693046 0.5586836432727791
0.2289886 -0.7014200737319248 0.5626273768116018
0.2309885 -0.6980918553248753 0.5664916889756848
0.2329884 -0.6949788952843543 0.570675796248045
0.2349883 -0.6915147114362034 0.5749931315880423
0.2369882 -0.687795551624495 0.5791136112621335
0.2389881 -0.6846158325932513 0.583080809080226
0.240988 -0.6810040911963207 0.5871214870556427
0.2429879 -0.6772994859905809 0.591262434295638
0.2449878 -0.6736211855793334 0.5949250955327628
0.2469877 -0.670098077592394 0.5990208761628708
0.2489876 -0.6663441649499882 0.6032387237075141
0.2509875 -0.662509546826262 0.6068862817238702
0.2529874 -0.6589707518681025 0.6112322225899716
0.2549873 -0.6553797148286723 0.6153945348439682
0.2569872 -0.6515220916253134 0.6193138445390494
0.2589871 -0.6474572594864434 0.6233042948386913
0.260987 -0.6439059158963759 0.6274111269998467
0.2629869 -0.6402449710083299 0.6312046364638518
0.2649868 -0.636358637278478 0.6353747415766955
0.2669867 -0.6328248426697506 0.6391428166840529
0.2689866 -0.6288863855201018 0.6430327455216605
0.2709865 -0.625399473650478 0.647061382502565
0.2729864 -0.6215125846402015 0.6508419909382019
0.2749863 -0.6178571585208422 0.6547446725453426
0.2769862 -0.6134936468743935 0.6587208111338245
0.2789861 -0.6097790326650936 0.6624653137066845
0.280986 -0.6057340091930888 0.6661267481855608
0.2829859 -0.6022260143602051 0.6700401706547007
0.2849858 -0.597881761449994 0.6736763976950383
0.2869857 -0.5942727199924717 0.6774842650909038
0.2889856 -0.5902521968200265 0.6809246956504104
0.2909855 -0.5861136680385182 0.6845019709842549
0.2929854 -0.5821464953488482 0.6882681986493991
0.2949853 -0.5779479003343757 0.6917298589823654
0.2969852 -0.5736357358015106 0.6951607105648334
0.2989851 -0.569888795455083 0.6986283052017093
0.300985 -0.5653151696371873 0.7014928812159534
0.3029849 -0.5610029651016027 0.7050660386834403
0.3049848 -0.5573928797477501 0.708626162740422
0.3069847 -0.5527183397623855 0.7118206511440446
0.3089846 -0.5485681137316023 0.714986413951209
0.3109845 -0.543726210661929 0.7183312916393235
0.3129844 -0.5397355411960449 0.7215958231168819
0.3149843 -0.5351829302158344 0.7249462612359473
0.3169842 -0.5308067996984243 0.7282823791013345
0.3189841 -0.5261047522393304 0.731420629943059
0.320984 -0.5218311658435347 0.7345393432096526
0.3229839 -0.516964162815119 0.7381473461928253
0.3249838 -0.5125367852650459 0.7412932896167255
0.3269837 -0.5080310215414344 0.7444377125588354
0.3289836 -0.5032058332503824 0.7478479716947545
0.3309835 -0.49849530120083496 0.7508725599937567
0.3329834 -0.49389476145032957 0.7538313680095724
0.3349833 -0.48956503967823695 0.7568478204375457
0.3369832 -0.48448355262866977 0.760117485005722
0.3389831 -0.4801678777888363 0.7631645167240975
0.340983 -0.47524306937415994 0.7665126319909936
0.3429829 -0.47077817120527793 0.7696913483278994
0.3449828 -0.4659232185824141 0.7726064361603023
0.3469827 -0.4612109720970936 0.7756219355457519
0.3489826 -0.4566195152085699 0.778859753182678
0.3509825 -0.45191939202788134 0.7817089686205314
0.3529824 -0.4472288607976891 0.7846093612572932
0.3549823 -0.44225538011356497 0.7877747770376944
0.3569822 -0.4376402625608178 0.790955070317505
0.3589821 -0.43258268802176986 0.7932480369899274
0.360982 -0.4281226421968982 0.795871433725836
0.3629819 -0.42300630214036716 0.7989445215589448
0.3649818 -0.41830592972092495 0.8014826298434643
0.3669817 -0.413526697100948 0.8040790797954283
0.3689816 -0.4086202538089784 0.8064380940264932
0.3709815 -0.4036222336834363 0.8094123681549896
0.3729814 -0.39881369683115253 0.8118829288895433
0.3749813 -0.39373974964495306 0.8143859255589718
0.3769812 -0.3887420570829923 0.8167290626504755
0.3789811 -0.3838856541223948 0.8195584731536429
0.380981 -0.37901998094301775 0.8217851728303806
0.3829809 -0.37405582801824067 0.8240419096434498
0.3849808 -0.368853925026402 0.826398601228424
0.3869807 -0.36377254340131915 0.8289458138552052
0.3889806 -0.3586232773501744 0.8311532102104966
0.3909805 -0.353305193258838 0.8334008440917807
0.3929804 -0.3482299748812182 0.8356278750290549
0.3949803 -0.3429880509926371 0.8376215865552402
0.3969802 -0.33743752438075064 0.8395710731166661
0.3989801 -0.3325015165426189 0.8417229115961098
0.40098 -0.32651179421488463 0.843872090750286
0.4029799 -0.3213115705294765 0.8459816261600007
0.4049798 -0.3162692330419794 0.8480321678379358
0.4069797 -0.3106987004851007 0.8501826236310885
0.4089796 -0.30549486968605244 0.8526078439289674
0.4109795 -0.30018798963051746 0.8544468603143858
0.4129794 -0.2941305831729018 0.8563870541972356
0.4149793 -0.28881050122821333 0.8584452353867608
0.4169792 -0.2837330127357693 0.8608269117591072
0.4189791 -0.27812430057785015 0.862763972563769
0.420979 -0.27278720019252783 0.8644694644740757
0.4229789 -0.26710405862113135 0.8660547862285954
0.4249788 -0.2618538752602223 0.8680518579110227
0.4269787 -0.2562840725828878 0.8697197410919839
0.4289786 -0.2508555583904202 0.8716894269073892
0.4309785 -0.24542849485915819 0.8732924468282607
0.4329784 -0.23970821725537284 0.8749984191588455
0.4349783 -0.23422095535460022 0.8765533264008121
0.4369782 -0.22850938418954253 0.8784968915248408
0.4389781 -0.22319077308005034 0.8798203714776683
0.440978 -0.2177759953669436 0.8816891238606909
0.4429779 -0.21205328562906708 0.882789022416089
0.4449778 -0.20663935886408344 0.88457556019119
0.4469777 -0.200954519681189 0.8858564970501617
0.4489776 -0.1951163965052031 0.887261605909388
0.4509775 -0.18948392802479916 0.8884356846761564
0.4529774 -0.18393273573136834 0.8897276576481326
0.4549773 -0.17842039747979857 0.891190972429403
0.4569772 -0.17268412272276254 0.8924095006465578
0.4589771 -0.1671428759451575 0.8935040720898914
0.460977 -0.1612760922752023 0.8949438081580188
0.4629769 -0.1553294251956286 0.8957244517767426
0.4649768 -0.1495437947952692 0.8968813905348785
0.4669767 -0.14360120969834544 0.8977455989117918
0.4689766 -0.1375866615252165 0.8987998774868596
0.4709765 -0.13236490925542502 0.8995714891979085
0.4729764 -0.126284274732367 0.9007328736462611
0.4749763 -0.12038152663142812 0.9018947306876745
0.4769762 -0.11451817733683393 0.9026410221166287
0.4789761 -0.1086943826973164 0.9033958677823415
0.480976 -0.1029166370134772 0.9048052505312175
0.4829759 -0.0969995190376926 0.9057611821979602
0.4849758 -0.09099297402084723 0.9065959291672581
0.4869757 -0.08506573226583067 0.9067298140068443
0.4889756 -0.0792426705632193 0.9080207624267576
0.4909755 -0.07328094594569111 0.9089034113208776
0.4929754 -0.06744853541172328 0.909240459017036
0.4949753 -0.06205079739757219 0.9102192646494989
0.4969752 -0.05601958923746339 0.9105265079143559
0.4989751 -0.05005691985514664 0.9115155947319538
0.500975 -0.04464318946745678 0.9117340696747549
0.5029749 -0.03871216585562181 0.9123516145868281
0.5049748 -0.032790085111044295 0.9123735480317539
0.5069747 -0.026748508213579866 0.9124894069916677
0.5089746 -0.021262387003343836 0.9127032639095455
0.5109745 -0.015156009623612288 0.9132376423476561
0.5129744 -0.009336465427379113 0.9134151783266911
0.5149743 -0.0032051620495260925 0.9135155042907449
0.5169742 0.002691446728157656 0.9135393848518707
0.5189741 0.008331887347058153 0.9137141269819041
0.520974 0.014498716961742597 0.913780055507445
0.5229739 0.020402272040884177 0.913463877950348
0.5249738 0.026022654972092503 0.9133378459688732
0.5269737 0.032177803059750154 0.913084531985281
0.5289736 0.0381503477694128 0.9129651227521329
0.5309735 0.044553144169064286 0.9127477366098422
0.5329734 0.05052075819749437 0.9121705650732754
0.5349733 0.056474943340398126 0.9117050326659876
0.5369732 0.06288571648803074 0.911092227792335
0.5389731 0.06868019749854157 0.9109247508077482
0.540973 0.07526700191132082 0.9107361839950344
0.5429729 0.0811553676159151 0.9100288030905024
0.5449728 0.0871746019821016 0.9095739721878658
0.5469727 0.09364719515832 0.909297931644224
0.5489726 0.09982855032732835 0.908857399705262
0.5509725 0.10605448808053096 0.9081723207015207
0.5529724 0.11241122336099522 0.9076710550630858
0.5549723 0.11858234104305909 0.907255539823132
0.5569722 0.12451676742784566 0.9064481271747646
0.5589721 0.13087458511790925 0.905688510453023
0.560972 0.1372566443258204 0.9050675874808704
0.5629719 0.1434292355071677 0.9049505619011532
0.5649718 0.14945850717103915 0.9044613239321996
0.5669717 0.15561723737713937 0.9037724010350516
0.5689716 0.1614769541749501 0.9028430993961692
0.5709715 0.16760522436297765 0.9019981855848507
0.5729714 0.17390683858383876 0.9015000669903422
0.5749713 0.17992506773004233 0.9004192133477729
0.5769712 0.18573436687397601 0.8997255186215819
0.5789711 0.19169268643317375 0.8987377548632298
0.580971 0.19738137626873975 0.8973180674416674
0.5829709 0.2029132752193538 0.8964301481801001
0.5849708 0.20904275450049944 0.89512809768653
0.5869707 0.21452072869357866 0.894203705672045
0.5889706 0.22114644492700397 0.8924396978583341
0.5909705 0.22696663633752795 0.8910867293522409
0.5929704 0.23269581520212346 0.889443389676152
0.5949703 0.23832682754199394 0.8879680381297261
0.5969702 0.24472363991898496 0.8861532904585181
0.5989701 0.2510478058372518 0.8847940992217346
0.60097 0.256751477059066 0.8826645221073413
0.6029699 0.2624827635443111 0.880956936463176
0.6049698 0.268633976463922 0.8787157735686528
0.6069697 0.2742673758516384 0.8771106887756819
0.6089696 0.280746898877398 0.8754775737258839
0.6109695 0.2861494833615024 0.8731882350276323
0.6129694 0.2923092194178864 0.8714024930189819
0.6149693 0.29843826114823785 0.8699910600924646
0.6169692 0.3046487349942583 0.8676639423719383
0.6189691 0.3110035735742103 0.8658956419411412
0.620969 0.31688945573629734 0.8635879331780534
0.6229689 0.3230682328740328 0.8615801384280921
0.6249688 0.3291045228750522 0.8597281047528403
0.6269687 0.33498288052082514 0.857129139331652
0.6289686 0.3412299272027731 0.8550488947717735
0.6309685 0.34750171942392566 0.8530412892547193
0.6329684 0.3530241747123081 0.8506978769412842
0.6349683 0.35950129708555884 0.848975013525569
0.6369682 0.36537538490728927 0.8467612337685475
0.6389681 0.3712322493050406 0.8447178533355214
0.640968 0.37734092160194493 0.8426342631293664
0.6429679 0.3826071766136686 0.8399678257844749
0.6449678 0.38858257625681286 0.8381047625862161
0.6469677 0.39433208870697684 0.835562035497154
0.6489676 0.3997201752124521 0.8331027986481578
0.6509675 0.4055977102843461 0.8302589986509133
0.6529674 0.41138362776645465 0.8281981458645167
0.6549673 0.41700682212542617 0.8253737573441107
0.6569672 0.42249570407823167 0.822575307198649
0.6589671 0.42792071978502333 0.8197014885165602
0.660967 0.4337285412512476 0.8168374470343178
0.6629669 0.43864290054863714 0.8141988488146862
0.6649668 0.44393175884972225 0.8109074899584686
0.6669667 0.4491640403733901 0.8080352391991241
0.6689666 0.455257827364157 0.8051155995997727
0.6709665 0.4599232245155633 0.8018375122698306
0.6729664 0.4658183312065378 0.7983266571814717
0.6749663 0.47146633323086745 0.7950404687743279
0.6769662 0.4770585595433061 0.7916842418524878
0.6789661 0.4826152326192113 0.7885851328839547
0.680966 0.4876568251657805 0.7851929436018622
0.6829659 0.4935417336372396 0.7815037451782172
0.6849658 0.4991771758520559 0.7780110033391034
0.6869657 0.5047103988418838 0.7746587512533444
0.6889656 0.5102228452906786 0.7708230958627951
0.6909655 0.515519892707009 0.7668261952193547
0.6929654 0.521206060769058 0.7632549982844594
0.6949653 0.5268771358553652 0.759761548419094
0.6969652 0.5321604543726807 0.75554564201158
0.6989651 0.5376195802789253 0.7520847229484174
0.700965 0.5435155251863096 0.7481611409985132
0.7029649 0.5487039022743987 0.7445281635511016
0.7049648 0.5542957172233148 0.7407635798488253
0.7069647 0.5602287206863612 0.7370765081643497
0.7089646 0.5657361889467343 0.7332991028449298
0.7109645 0.5712203839841141 0.7296914819847344
0.7129644 0.5763335016442062 0.7261200590939596
0.7149643 0.5816776279426988 0.7220489728143231
0.7169642 0.5870421759696438 0.7182488973931728
0.7189641 0.5924236794863917 0.7146320742038071
0.720964 0.5970126720475186 0.71046635194876
0.7229639 0.6021277445852591 0.7065117164253066
0.7249638 0.6071197194116755 0.7025258247871448
0.7269637 0.6124479517805896 0.6986999156052777
0.7289636 0.6171146897146205 0.6946575995938709
0.7309635 0.6221237082941634 0.6905830883226167
0.7329634 0.6268201273533177 0.6867159734147643
0.7349633 0.6318309574356669 0.6820575954679676
0.7369632 0.636216000883667 0.6781345894337527
0.7389631 0.6409874824826713 0.6738488517743721
0.740963 0.6453865017593154 0.6692018466690117
0.7429629 0.6503471127665845 0.6651687413254769
0.7449628 0.6548437936236402 0.6606102552883347
0.7469627 0.6589695140191283 0.6560007188752125
0.7489626 0.6638223843811676 0.6512819356600553
0.7509625 0.668008307948727 0.6462879564775669
0.7529624 0.6724898404193342 0.6418157906397972
0.7549623 0.6770656938994047 0.637065264652587
0.7569622 0.6815675001989666 0.63215043433402
0.7589621 0.6858631842972387 0.6272544952740178
0.760962 0.6901540979661821 0.6222421790851724
0.7629619 0.6946234008252284 0.6168579989909266
0.7649618 0.6994578055399977 0.6121312223112134
0.7669617 0.7035691609330132 0.6074246651635669
0.7689616 0.70806223895815 0.6020145105389544
0.7709615 0.712591368026865 0.5966729312300494
0.7729614 0.7166677862132491 0.5918619070735528
0.7749613 0.7213838897139053 0.5868033842848615
0.7769612 0.7260341303013849 0.5814251351249773
0.7789611 0.7295696450957317 0.5759299169436521
0.780961 0.7341924973023032 0.571150179876748
0.7829609 0.7384360222524993 0.5659360890214669
0.7849608 0.7426630685359593 0.5606132559387291
0.7869607 0.7469147197364376 0.5555418044180409
0.7889606 0.7512126310151566 0.5497365638942915
0.7909605 0.755608208328567 0.5452760656692623
0.7929604 0.7592238678724197 0.5400783641126826
0.7949603 0.7635215752282438 0.5345168267947481
0.7969602 0.7672615809483567 0.5289141706331855
0.7989601 0.771229495941302 0.5233617408084061
0.80096 0.7755187239927176 0.5188482979323786
0.8029599 0.7789141921370802 0.5130692980644985
0.8049598 0.7826564878528877 0.5078748368281201
0.8069597 0.7860990866327318 0.5025028469513002
0.8089596 0.7895582197313069 0.49699913524254596
0.8109595 0.793297433537932 0.49171386108533155
0.8129594 0.7967019122941587 0.4860280103724307
0.8149593 0.799966064894824 0.4808066744169902
