! Created with skrf 1.8.0 (http://scikit-rf.org).
# GHz S RI R 50.0 
!freq ReS11 ImS11
0.001 -0.9493074307279395 0.005845924801294737
0.0029999 -0.9485012258256468 0.013635257874559839
0.0049998 -0.9483175644454527 0.021829781192652845
0.0069997 -0.9474164444421076 0.030289811292318086
0.0089996 -0.9469618071122954 0.038738366490827784
0.0109995 -0.9463275443117095 0.046545666036295535
0.0129994 -0.9455565587597883 0.05492467689403275
0.0149993 -0.9445368330984717 0.06339962045273018
0.0169992 -0.9437946843046783 0.07118450441068286
0.0189991 -0.9429338292118111 0.07961677456175048
0.020999 -0.9420700722650004 0.08747248176810461
0.0229989 -0.9411231584229485 0.09549547151005938
0.0249988 -0.9401572513011793 0.10371734533794423
0.0269987 -0.939122667445406 0.1118600004889049
0.0289986 -0.9378436737062453 0.11989217223165646
0.0309985 -0.9365219425940888 0.1278335501570435
0.0329984 -0.9354417652377638 0.1356044261239911
0.0349983 -0.9338831009871349 0.1438514755563407
0.0369982 -0.9326965265515181 0.15208099919104504
0.0389981 -0.9310289958904139 0.16001974163562388
0.040998 -0.9296278606205728 0.16767873190203708
0.0429979 -0.9277373640180823 0.1758495253461342
0.0449978 -0.9260521837260696 0.18368893953855656
0.0469977 -0.9245257183600004 0.1917711565674493
0.0489976 -0.9228053570866993 0.1993748572324483
0.0509975 -0.9211783826938189 0.2074566465656639
0.0529974 -0.9192637691310406 0.21517578667856346
0.0549973 -0.9171319082253814 0.22325660711299813
0.0569972 -0.915317741812815 0.23082089543374892
0.0589971 -0.9133246874926125 0.23854658475892868
0.060997 -0.9112041375830165 0.24620217810944606
0.0629969 -0.9088749712188907 0.2539552187524319
0.0649968 -0.9066456899615297 0.2616293180759462
0.0669967 -0.904336927760826 0.2692886156891308
0.0689966 -0.9019527747466145 0.27711387610819094
0.0709965 -0.8992768888135767 0.2847763963179702
0.0729964 -0.8970285086660443 0.29243916646818796
0.0749963 -0.8945445549414767 0.2998255100304397
0.0769962 -0.8915520680184443 0.3076574821176651
0.0789961 -0.8888526585677025 0.3150961479246525
0.080996 -0.8863183980173166 0.32258906458047065
0.0829959 -0.8833847949083969 0.3302268558228481
0.0849958 -0.880307222713874 0.3378449130139826
0.0869957 -0.877233050252217 0.3450309022289722
0.0889956 -0.8741715727848615 0.3528194210496465
0.0909955 -0.8711177904898657 0.36011449382815486
0.0929954 -0.8678402593521914 0.36759681601006167
0.0949953 -0.8648405961644121 0.3750460985273552
0.0969952 -0.8613710483958971 0.38246856840394367
0.0989951 -0.8579868359760361 0.38953369082138456
0.100995 -0.8546238879792614 0.3969463682540707
0.1029949 -0.8509352558126364 0.40403608794694373
0.1049948 -0.8474779542782073 0.411501980116266
0.1069947 -0.8435848811574826 0.41905737480487015
0.1089946 -0.8401640361407527 0.42607410486971875
0.1109945 -0.8364437472751347 0.43335804793439536
0.1129944 -0.832777797283017 0.4406871309675305
0.1149943 -0.8284412626361588 0.4478945703097726
0.1169942 -0.8248529441998194 0.4552357141588026
0.1189941 -0.8211516251003758 0.4623703762288329
0.120994 -0.8169720627799291 0.46922065176154226
0.1229939 -0.8129152107786352 0.47625548649808724
0.1249938 -0.8090199773343009 0.48317983308225504
0.1269937 -0.8050948582377021 0.4901712394329553
0.1289936 -0.8011355651327902 0.49711570396712756
0.1309935 -0.7964741839352614 0.5039509463796865
0.1329934 -0.792245098739942 0.5107713893830176
0.1349933 -0.7881586559198925 0.5175733252993675
0.1369932 -0.7837226080750738 0.5243926120779165
0.1389931 -0.7792519063261605 0.530837659815951
0.140993 -0.7749052685009931 0.5378554529882296
0.1429929 -0.7700551142044525 0.544407651032687
0.1449928 -0.7654304825193015 0.5510221786836401
0.1469927 -0.760958077753401 0.5570656420852608
0.1489926 -0.755860744774475 0.5638974801322014
0.1509925 -0.750936286985178 0.570258114629203
0.1529924 -0.7459665144107369 0.576301439404991
0.1549923 -0.7411678616777362 0.5823258567917161
0.1569922 -0.7356871466306152 0.5890007769653866
0.1589921 -0.7305773569185401 0.595553379184807
0.160992 -0.7249350852407945 0.601703999333471
0.1629919 -0.7201794258282971 0.6078017557106349
0.1649918 -0.7145081576547807 0.6140112566057723
0.1669917 -0.7091343695620416 0.6201666922972636
0.1689916 -0.7035541323826553 0.626254253732666
0.1709915 -0.6981235513367697 0.6325844942425155
0.1729914 -0.6922388380095854 0.6385271942749549
0.1749913 -0.6867100320195988 0.6443021837167613
0.1769912 -0.6809056018360703 0.650298505260845
0.1789911 -0.6751377432829705 0.6563226269161783
0.180991 -0.6693780007280972 0.6623619687519563
0.1829909 -0.6634755500818693 0.6683992677528469
0.1849908 -0.6575317858859872 0.6745375557789306
0.1869907 -0.6514807889900867 0.6806387829309894
0.1889906 -0.6453592189243561 0.6864270692036605
0.1909905 -0.6390657402302877 0.6922211823829909
0.1929904 -0.6334268271848912 0.6980152445319148
0.1949903 -0.6276056530884088 0.7034919811293059
0.1969902 -0.6217248030305265 0.7095274438006335
0.1989901 -0.6155198781615591 0.714830321113879
0.20099 -0.6094056255164724 0.7205997391414407
0.2029899 -0.6031986066542138 0.7260219741171953
0.2049898 -0.5967385646146902 0.7312631538230568
0.2069897 -0.590559762452973 0.7367455592521793
0.2089896 -0.5842703789784706 0.7418637802916019
0.2109895 -0.5776475497219082 0.7470212582948652
0.2129894 -0.5713458946386557 0.752347743390394
0.2149893 -0.5650420458003002 0.7572220959890616
0.2169892 -0.5585509129931727 0.7624724691992744
0.2189891 -0.5518495193635399 0.7672277553741464
0.220989 -0.545328452529186 0.7720791641867855
0.2229889 -0.538317709605735 0.7766973670220341
0.2249888 -0.5314974966502563 0.7814073177110749
0.2269887 -0.5247721402326813 0.785967476988018
0.2289886 -0.5179820857049239 0.7905542059686789
0.2309885 -0.5109879480681487 0.7948141696833965
0.2329884 -0.5039771678943814 0.7992898244089643
0.2349883 -0.4969895140054446 0.8037886657093467
0.2369882 -0.4894154539467577 0.80818759589355
0.2389881 -0.48264615175251385 0.8124736438268014
0.240988 -0.4752223413256737 0.8165084750488996
0.2429879 -0.4679641038006144 0.8205264024139163
0.2449878 -0.46039556255379777 0.8244008504223926
0.2469877 -0.45308942453029255 0.8285761602698236
0.2489876 -0.44546021409895137 0.8327477688276538
0.2509875 -0.43798286799842706 0.8365892389594128
0.2529874 -0.4303021947105827 0.8405114067024082
0.2549873 -0.42253892914454455 0.8448453747269384
0.2569872 -0.4150420378323481 0.8489700239331748
0.2589871 -0.4072768426858665 0.8524491066291882
0.260987 -0.3997114488530284 0.8561571802538064
0.2629869 -0.39196517234358247 0.8596708644845349
0.2649868 -0.3844302672925976 0.8636004764671525
0.2669867 -0.37661334295687376 0.8673666110146568
0.2689866 -0.36859682832428664 0.8709108239071346
0.2709865 -0.36078140129449204 0.8743187248015561
0.2729864 -0.35300472464825905 0.8777790262858488
0.2749863 -0.345281504354889 0.8811185499420258
0.2769862 -0.3369835378613174 0.8843529197527983
0.2789861 -0.32914805471537867 0.8875464370603727
0.280986 -0.3214736171394483 0.8909406146740146
0.2829859 -0.31342750874497655 0.8936826734958462
0.2849858 -0.30561110078383313 0.8969363518415135
0.2869857 -0.2975695300894744 0.8994679912295725
0.2889856 -0.28946646251866465 0.902452698863575
0.2909855 -0.2815479072633363 0.9051091489182547
0.2929854 -0.27329123493173096 0.9079380259482067
0.2949853 -0.26525998142093093 0.9103606958545958
0.2969852 -0.2569061988268756 0.9126796068092611
0.2989851 -0.24879091633908623 0.9151278616272419
0.300985 -0.2403617111120346 0.9167884548776055
0.3029849 -0.23198040980434834 0.9193818360021838
0.3049848 -0.22400254473158726 0.9211387732428257
0.3069847 -0.21534717092708586 0.9231440655186547
0.3089846 -0.20722743116643463 0.9249912766672531
0.3109845 -0.19846016930875965 0.9270449852830281
0.3129844 -0.19026387028786673 0.9285345833894233
0.3149843 -0.1818539082871919 0.930350372883264
0.3169842 -0.1733824773570543 0.9319410949357566
0.3189841 -0.1645911879353505 0.9342141205995833
0.320984 -0.1560952264073716 0.9352724008635949
0.3229839 -0.14647211871145305 0.9365903156847113
0.3249838 -0.13834037150693185 0.9382411975256754
0.3269837 -0.12968758549499526 0.9392657026370044
0.3289836 -0.12063621879668236 0.940530922983353
0.3309835 -0.11185480789088187 0.9416841715204783
0.3329834 -0.10331710981258203 0.9429622214974639
0.3349833 -0.0945876787607028 0.9439648994506005
0.3369832 -0.0854186099424547 0.9450251167863803
0.3389831 -0.07674061544273864 0.9458165991630259
0.340983 -0.06776294281617334 0.9469971457444186
0.3429829 -0.05881392691389009 0.9478965743721897
0.3449828 -0.049823994920320386 0.9481172970176472
0.3469827 -0.041010091724880564 0.9491888022444588
0.3489826 -0.03201424611027498 0.9500756916358092
0.3509825 -0.02353548978918038 0.9503247781731566
0.3529824 -0.014285874689191683 0.9505598613114113
0.3549823 -0.005708509114447294 0.950837310165183
0.3569822 0.0035071937010065692 0.9511212529160675
0.3589821 0.012383018459253835 0.9512029406943024
0.360982 0.02106916312733844 0.9515184338297084
0.3629819 0.030067488264165488 0.9513581826409423
0.3649818 0.03850856071065758 0.9509885286933697
0.3669817 0.04742324653113218 0.950936316046404
0.3689816 0.056111481238961015 0.950825243726738
0.3709815 0.06500281617722575 0.9499691249608501
0.3729814 0.07387479548245943 0.9496659456904714
0.3749813 0.0827424328245728 0.9490704635618309
0.3769812 0.09150665733282178 0.9485811609604845
0.3789811 0.10035508844311178 0.947844387610184
0.380981 0.10926646442854403 0.9471931113990749
0.3829809 0.11820704701541317 0.9462504636849229
0.3849808 0.1270635199388484 0.9449563880102925
0.3869807 0.13621166331946577 0.9435599082470624
0.3889806 0.1446118572499025 0.9422479427610428
0.3909805 0.15385713896511255 0.9409234644544937
0.3929804 0.16271002075132002 0.9394364383256228
0.3949803 0.1715358322268711 0.9375408902595259
0.3969802 0.18055111235162893 0.9360628243959325
0.3989801 0.1896585659020844 0.9339655517623802
0.40098 0.19863771089209512 0.9322704712928475
0.4029799 0.20759459539800462 0.9305335737165128
0.4049798 0.21660152886050899 0.9287294835720289
0.4069797 0.2255613856001843 0.9266041673771648
0.4089796 0.2344675498788837 0.9245803841424917
0.4109795 0.24327193772896624 0.9227408413224151
0.4129794 0.25250339641002123 0.9201283885742613
0.4149793 0.26118021929510926 0.9178836394251664
0.4169792 0.27046241875889543 0.9153751423988191
0.4189791 0.2792090325973861 0.9129282530980243
0.420979 0.28795786319622135 0.9102980670636222
0.4229789 0.2968643995129532 0.9076340494221019
0.4249788 0.30562583893318385 0.9050726999465852
0.4269787 0.3142736224240902 0.9023782302027176
0.4289786 0.3230395944047103 0.8992553011955433
0.4309785 0.33143607115438295 0.8967112380061619
0.4329784 0.3404583901035769 0.8934070380516094
0.4349783 0.3491811987244934 0.8902649564971373
0.4369782 0.3577548595184214 0.8864629845341968
0.4389781 0.36618230651591865 0.8834358321031941
0.440978 0.37516322721423434 0.8801016428552648
0.4429779 0.38325909267172314 0.8767088069865663
0.4449778 0.392015565840206 0.8730096272699502
0.4469777 0.4001312443907213 0.8694574866104822
0.4489776 0.40860809429820316 0.8653496936350136
0.4509775 0.41759545309896756 0.8616974573186814
0.4529774 0.4258733553431781 0.8577717050270812
0.4549773 0.4337437816186691 0.8538280062989212
0.4569772 0.442423977198149 0.8494735770360996
0.4589771 0.45078206490813516 0.8450536476755428
0.460977 0.458976943464806 0.840861607152251
0.4629769 0.4674602902128725 0.8361683301118014
0.4649768 0.47543255966028036 0.831564984397247
0.4669767 0.48363568163867976 0.8267204178009625
0.4689766 0.49198526756388783 0.8222205153684206
0.4709765 0.4998352845409223 0.8175509083393309
0.4729764 0.5078352770676058 0.8129912844493138
0.4749763 0.5160408968400472 0.8081663362054623
0.4769762 0.5243522048309023 0.8027579236327462
0.4789761 0.5322826547586548 0.7980566015690386
0.480976 0.5401339699463361 0.7927897600890536
0.4829759 0.5481219438584473 0.787551151268209
0.4849758 0.5559583701710893 0.7821278183442322
0.4869757 0.5635528778286856 0.7765802024249161
0.4889756 0.5711403733591527 0.7712778243843881
0.4909755 0.579172914080549 0.7657753065162036
0.4929754 0.5867665491121308 0.7602011327414055
0.4949753 0.5941059300839806 0.7549180458804206
0.4969752 0.6017684739154585 0.7491810030736296
0.4989751 0.6092554605617161 0.7434110128603948
0.500975 0.6164018113905337 0.7378094196451711
0.5029749 0.6236547809509102 0.7315202979984942
0.5049748 0.6304673006410093 0.7255871613128037
0.5069747 0.6376652407495218 0.7194174407267484
0.5089746 0.644758676085149 0.7137014815920119
0.5109745 0.6518418753746833 0.7070104610016881
0.5129744 0.6590537685133981 0.7007098944890258
0.5149743 0.6661756348464125 0.6940477623549217
0.5169742 0.6728258348910491 0.6875119673454911
0.5189741 0.6796345486174163 0.681131040857764
0.520974 0.686124747019099 0.6744647009387058
0.5229739 0.6928230126673421 0.6673657363687986
0.5249738 0.6993954403659389 0.6604014188505306
0.5269737 0.7058311504120747 0.653616154277866
0.5289736 0.7124504663522734 0.6466676346931024
0.5309735 0.7191342742966226 0.6391138949399894
0.5329734 0.7250544442512323 0.63179234183979
0.5349733 0.731346273298306 0.6247413338122157
0.5369732 0.7377682989857063 0.6171069317215189
0.5389731 0.7438990846367856 0.6099826650101428
0.540973 0.750340216739138 0.6026385250684363
0.5429729 0.7566418609052035 0.5950963696069248
0.5449728 0.7621839242914913 0.5874354622070203
0.5469727 0.7683441627688447 0.5796899079508894
0.5489726 0.77400148765895 0.5720657329410234
0.5509725 0.7798235169683858 0.5640387272518361
0.5529724 0.7855412810366212 0.5560636629069653
0.5549723 0.7914682258943381 0.5482770112161662
0.5569722 0.7969299090483367 0.5404869137531658
0.5589721 0.8025383716076202 0.5326595196637443
0.560972 0.8079233879971575 0.524470999712475
0.5629719 0.813535700650305 0.5165368036154658
0.5649718 0.8190954607558768 0.5085336012069896
0.5669717 0.8242517716216349 0.5006395440718342
0.5689716 0.8292505265516554 0.4922842606919924
0.5709715 0.8340699690099739 0.4839843514570342
0.5729714 0.8389593816191707 0.47583084995345465
0.5749713 0.8438568125009577 0.46743119984420745
0.5769712 0.8484306178711886 0.45923877288958276
0.5789711 0.8534524296054578 0.45119669664840545
0.580971 0.8579232739429694 0.44263912229538044
0.5829709 0.8623300564034547 0.4339093260438308
0.5849708 0.8664758328027202 0.42553194872262523
0.5869707 0.8710227206529204 0.417074873001105
0.5889706 0.8751699800854661 0.4080647623958731
0.5909705 0.8787384162524448 0.39949374382232317
0.5929704 0.8827282284590838 0.3905937631356219
0.5949703 0.8865945031266759 0.38155152795873315
0.5969702 0.8905315732395606 0.3729891030551515
0.5989701 0.8941667878547903 0.3638166139070144
0.60097 0.8976358760798955 0.35460452011984755
0.6029699 0.9009143421095855 0.34589661930566984
0.6049698 0.9046219454216825 0.33649103102309297
0.6069697 0.908222875967449 0.3273672358040554
0.6089696 0.9113531699015726 0.3181750441003969
0.6109695 0.914310974817148 0.30899889740954367
0.6129694 0.9172721368011828 0.2998730429779374
0.6149693 0.9214485155624398 0.2908277554258015
0.6169692 0.9242337149398905 0.2813989156876987
0.6189691 0.9265480375992322 0.2720484963326065
0.620969 0.929244137759314 0.26295500527844434
0.6229689 0.9320834125564943 0.2532725800695424
0.6249688 0.9346964877126075 0.24372487821798325
0.6269687 0.9371666118594675 0.23452299535302112
0.6289686 0.9393461736200833 0.2251329904095118
0.6309685 0.941279710141362 0.2153152088145499
0.6329684 0.9439329141821771 0.20619854978694274
0.6349683 0.9460350281259592 0.19672104125839426
0.6369682 0.9479280403815639 0.18735612881134395
0.6389681 0.949755612637691 0.17792923872912342
0.640968 0.9522134127051529 0.16783213243630876
0.6429679 0.9533297334831787 0.158732228855126
0.6449678 0.9551631345628167 0.14945452242772092
0.6469677 0.9562426413030785 0.13973602225720463
0.6489676 0.9582357188070397 0.13019930838396065
0.6509675 0.9586598514704812 0.12050983662101662
0.6529674 0.9603401921267978 0.11070883352593515
0.6549673 0.9611167936774954 0.10147213150635662
0.6569672 0.9623220205100382 0.09167225909342741
0.6589671 0.9632779821108137 0.08181340172378358
0.660967 0.9639410068036348 0.0719966659420514
0.6629669 0.9643469573193563 0.06274396999062776
0.6649668 0.9650430241342784 0.05299534234561656
0.6669667 0.9658666412553756 0.043465115828275384
0.6689666 0.9659103698952913 0.03350605400834655
0.6709665 0.9662214469908863 0.023790853750564653
0.6729664 0.966509789442934 0.014341958108857824
0.6749663 0.9666073373257673 0.004633482069742791
0.6769662 0.9666310158781631 -0.005085227236024
0.6789661 0.9665530543081345 -0.014750539822701893
0.680966 0.9658476720436567 -0.024332960124803373
0.6829659 0.9660105107896834 -0.03403713247890429
0.6849658 0.9657046263704493 -0.043874410318104046
0.6869657 0.9652623079569108 -0.053356876466872344
0.6889656 0.9648243986915429 -0.06304514401517244
0.6909655 0.9639376183294996 -0.07277065053350543
0.6929654 0.9631467574541884 -0.08247909025633954
0.6949653 0.96235423868226 -0.09200822918037259
0.6969652 0.9611230823510769 -0.10147197102888753
0.6989651 0.9602934019074568 -0.11104249682602174
0.700965 0.9590626204750355 -0.12065544601165655
0.7029649 0.9578710905276365 -0.13027099799898742
0.7049648 0.956591585969945 -0.139380326992753
0.7069647 0.9552144765083432 -0.14908895181396786
0.7089646 0.9533896660593681 -0.15800654727953023
0.7109645 0.9520065396010403 -0.16773374247564588
0.7129644 0.949862013233797 -0.1771325554676946
0.7149643 0.9479262253897186 -0.18669620735683212
0.7169642 0.9459580387703381 -0.19570716725797693
0.7189641 0.9445980672679093 -0.20530768937116567
0.720964 0.9420128596630204 -0.21432743786141384
0.7229639 0.9396940823886993 -0.22382578688614146
0.7249638 0.937504132538719 -0.23309173609302902
0.7269637 0.9349731585305161 -0.24229897701546865
0.7289636 0.9323517406516445 -0.2515523138192832
0.7309635 0.9294278793772851 -0.2605851072819983
0.7329634 0.9272352878972464 -0.26992619893099723
0.7349633 0.9239307061673756 -0.2792246568847365
0.7369632 0.9213651291613951 -0.28821150459382305
0.7389631 0.917882475273254 -0.2976217171712843
0.740963 0.9151590600305947 -0.30676767730976684
0.7429629 0.911706215858459 -0.31583337781570664
0.7449628 0.9090534985646163 -0.3250088653007558
0.7469627 0.9057292833493313 -0.3340008933043441
0.7489626 0.9021856099842415 -0.3430822119097905
0.7509625 0.8986693212597587 -0.351581798872746
0.7529624 0.8954117759955078 -0.36099567474669086
0.7549623 0.891868108907545 -0.36989390971847985
0.7569622 0.8884093454181883 -0.37830237790068866
0.7589621 0.8845077718979114 -0.3870840339545314
0.760962 0.8810749052034493 -0.3957735459125395
0.7629619 0.8768884619216814 -0.40452669009845216
0.7649618 0.8732832358048154 -0.4130848003589935
0.7669617 0.8693475529169269 -0.4206128694676693
0.7689616 0.8652064745391554 -0.42929362916686903
0.7709615 0.8607263477610869 -0.4380289548259996
0.7729614 0.8564317522959514 -0.44591152109160304
0.7749613 0.8527291624832595 -0.4541776570099489
0.7769612 0.8479520452970178 -0.4631302950713996
0.7789611 0.84330341380526 -0.47028834949613507
0.780961 0.838884275007252 -0.47842723272534493
0.7829609 0.833891593351865 -0.4864040623160328
0.7849608 0.8293769222562455 -0.49420185756200713
0.7869607 0.824392759976388 -0.5023990040661708
0.7889606 0.8191558046153822 -0.5100269775521175
0.7909605 0.8139637086976088 -0.5175395370531694
0.7929604 0.8090727490354057 -0.5256257532081675
0.7949603 0.8038021831965241 -0.5331848668438814
0.7969602 0.7979337748240632 -0.5409007324861832
0.7989601 0.7924781607156512 -0.5482487024499297
0.80096 0.7872544710095889 -0.5559524020949483
0.8029599 0.7817378388098309 -0.5632182193810794
0.8049598 0.7760395202195438 -0.570823074436675
0.8069597 0.7703732905618026 -0.578633355629579
0.8089596 0.7641514314614877 -0.5857743789976243
0.8109595 0.7585078553270265 -0.5935175701822532
0.8129594 0.7524772483381137 -0.6006204516557956
0.8149593 0.7467698605219601 -0.6081177049898766
