! Created with skrf 1.8.0 (http://scikit-rf.org).
# GHz S RI R 50.0 
!freq ReS11 ImS11
0.001 -0.948994809984011 0.004977913291644902
0.0029999 -0.9483774679496056 0.01126501199562406
0.0049998 -0.9481580191918907 0.01783538728790235
0.0069997 -0.9474425437898175 0.02447075394726425
0.0089996 -0.9471745518656702 0.0312360761147076
0.0109995 -0.9466359339276379 0.037779954349125525
0.0129994 -0.946012909772288 0.044301070996564586
0.0149993 -0.9452834231030125 0.051154126529831784
0.0169992 -0.9447664991092332 0.057389561091105976
0.0189991 -0.9442004329260815 0.06423996394296799
0.020999 -0.943488064700372 0.07051760412769154
0.0229989 -0.9429334370946177 0.07698118177893461
0.0249988 -0.9422818951159856 0.08359931651667515
0.0269987 -0.9414285008229898 0.08984419652374205
0.0289986 -0.9406791115128593 0.09666831299700268
0.0309985 -0.9397350387524472 0.1028900385610241
0.0329984 -0.9390967923051464 0.10941973077795027
0.0349983 -0.9379691118291869 0.11588743620715172
0.0369982 -0.9372511009171232 0.12253499988177752
0.0389981 -0.9360998810833783 0.12879247401921917
0.040998 -0.9352014510025899 0.13492889625697788
0.0429979 -0.9336537109092108 0.14155952003236913
0.0449978 -0.9326754904235288 0.14810500083364628
0.0469977 -0.9316982405258822 0.15470499396381912
0.0489976 -0.9305488976906592 0.1607768523958182
0.0509975 -0.9293930710735773 0.1673144124629531
0.0529974 -0.9282147017583392 0.1734511614710948
0.0549973 -0.9268822427940461 0.17989294075448925
0.0569972 -0.9256341710065248 0.1862149690842067
0.0589971 -0.9243152926460332 0.19239977047742246
0.060997 -0.923016773040665 0.19868292892112252
0.0629969 -0.9215008594623728 0.20497842540804115
0.0649968 -0.9198051176278715 0.2111669056982678
0.0669967 -0.918389186477496 0.21749091380276112
0.0689966 -0.9168287094378396 0.22386373416728392
0.0709965 -0.9149031827432755 0.2299611364852322
0.0729964 -0.9135566840062811 0.23630468968478652
0.0749963 -0.9119889102611867 0.24238711698177587
0.0769962 -0.9098728013905877 0.24880588438358026
0.0789961 -0.9081799198167962 0.2547863925227961
0.080996 -0.9065608570052686 0.26107741250865796
0.0829959 -0.9046001450384729 0.26727112606235126
0.0849958 -0.9025528100651881 0.27328466978435895
0.0869957 -0.9005782249416368 0.2794709125838799
0.0889956 -0.8985716484388442 0.28580788846017435
0.0909955 -0.8964738336933039 0.29191650514715217
0.0929954 -0.8941383695704271 0.2978936460659056
0.0949953 -0.8925337689670834 0.30401028330848123
0.0969952 -0.8901774202496118 0.3101417839291178
0.0989951 -0.8878222717493433 0.316306661291004
0.100995 -0.8857162507545775 0.3221804449568193
0.1029949 -0.8830113788280416 0.32811577665235125
0.1049948 -0.8807478998955126 0.3342502302577705
0.1069947 -0.8782385367634855 0.34070691853034735
0.1089946 -0.8760370566130061 0.34627733990073495
0.1109945 -0.8735895096102293 0.35236768795041173
0.1129944 -0.8711192886135449 0.35836455947482004
0.1149943 -0.8684263921003728 0.3645921144970088
0.1169942 -0.8659175203555516 0.3707095202403505
0.1189941 -0.8636558396046518 0.37674632970478045
0.120994 -0.8609315302667478 0.38254486262868964
0.1229939 -0.8582673849385505 0.3884540558720222
0.1249938 -0.8556702367520084 0.3943056780328133
0.1269937 -0.853270924497598 0.4001603512653193
0.1289936 -0.8504491839536095 0.405765737297306
0.1309935 -0.8475094077315194 0.4118515000282261
0.1329934 -0.8446476840973848 0.41764292301456013
0.1349933 -0.8419535621118598 0.42324403101551145
0.1369932 -0.8392662852160483 0.42886171546209695
0.1389931 -0.8360329101203755 0.4348471782576368
0.140993 -0.8332816568968191 0.44049455802366966
0.1429929 -0.83002730455755 0.44605986877406323
0.1449928 -0.8271361166053269 0.4517915384455587
0.1469927 -0.8240489166445043 0.4572794444525208
0.1489926 -0.8206649446589115 0.46265964854626523
0.1509925 -0.8175543397691131 0.4685748813161204
0.1529924 -0.8140264409247895 0.473737672417246
0.1549923 -0.8111271114713727 0.47896440839615917
0.1569922 -0.8071897583171125 0.4846172175306454
0.1589921 -0.8039524007459546 0.4904049152305357
0.160992 -0.8003544952261381 0.4960291701800095
0.1629919 -0.7969975285135996 0.5013621117277138
0.1649918 -0.7933020408184679 0.5067066332743383
0.1669917 -0.7895242469410482 0.5122394911081432
0.1689916 -0.7859806899445231 0.5174318345288157
0.1709915 -0.7823419899689517 0.5232201481544796
0.1729914 -0.7785609798047441 0.528439310200976
0.1749913 -0.7745900803491956 0.5337683979824822
0.1769912 -0.7708521123535946 0.5391974288437591
0.1789911 -0.7668870640353701 0.5445298945980449
0.180991 -0.763095376105879 0.5499370709684989
0.1829909 -0.7591259311461477 0.5553360979722132
0.1849908 -0.7553963641881067 0.5606405082053426
0.1869907 -0.751390457624377 0.5664742378905308
0.1889906 -0.747094153327376 0.5717135066078853
0.1909905 -0.7429797960185157 0.5773185908761526
0.1929904 -0.7391599442271329 0.5822943156168445
0.1949903 -0.7354268242871661 0.5875354455800321
0.1969902 -0.7315503759701838 0.592598690567299
0.1989901 -0.7277580216929714 0.5976377379422746
0.20099 -0.7234899391439952 0.6027903834660717
0.2029899 -0.7194103863786426 0.6082089815889585
0.2049898 -0.7152081563317668 0.6133416086942821
0.2069897 -0.7107929928269139 0.6181422524149767
0.2089896 -0.70690150774437 0.6231884678529318
0.2109895 -0.7024967451051206 0.6278782748052577
0.2129894 -0.6982656763834637 0.6331141356553455
0.2149893 -0.6938358607801174 0.6375892008857055
0.2169892 -0.6897941585855711 0.6427944197596324
0.2189891 -0.685266699116871 0.6474656410145224
0.220989 -0.6808083372733535 0.6521378538565588
0.2229889 -0.6759915569980837 0.656786517064862
0.2249888 -0.6717092195076717 0.6614002577863373
0.2269887 -0.6670483302990797 0.6660099456090338
0.2289886 -0.6623448216994913 0.6703795003884744
0.2309885 -0.6577343050224589 0.6748422195077893
0.2329884 -0.6529743697021484 0.6793030077331973
0.2349883 -0.6482240436212832 0.683795564254909
0.2369882 -0.6430037059863419 0.6884225428096892
0.2389881 -0.6384038120054487 0.6929166078379401
0.240988 -0.6333986145541578 0.6971573797414973
0.2429879 -0.6283642187197409 0.7014914801436856
0.2449878 -0.6233959679009365 0.7056535729483377
0.2469877 -0.6182844654778401 0.7100718267684694
0.2489876 -0.613145263376967 0.7144903309637279
0.2509875 -0.6080937037972015 0.7187040254396908
0.2529874 -0.60268552508228 0.7231474074385681
0.2549873 -0.5972733798809858 0.72756680995926
0.2569872 -0.5924326081234872 0.7318948293008501
0.2589871 -0.5870077439174372 0.736138663383287
0.260987 -0.581546397299081 0.740289339940566
0.2629869 -0.5763966475875484 0.7444695792579733
0.2649868 -0.5713592817696229 0.7485162020022604
0.2669867 -0.5661835509596123 0.753065887958731
0.2689866 -0.5607084976804017 0.757026519573247
0.2709865 -0.5554487557540176 0.7610002162428094
0.2729864 -0.5500937627265462 0.7650779116681024
0.2749863 -0.5446099914814548 0.7691906628770561
0.2769862 -0.5389466950187642 0.7730891892683672
0.2789861 -0.5334618695514135 0.7770140559399464
0.280986 -0.5282126885687569 0.7809932909868161
0.2829859 -0.5226675438285322 0.7846459810174022
0.2849858 -0.5173174162517455 0.7884965022700021
0.2869857 -0.5119369466452689 0.7921320996170261
0.2889856 -0.5062138764200496 0.7958925585258116
0.2909855 -0.500663929429125 0.7995674423262269
0.2929854 -0.49520888022241527 0.8032693220447071
0.2949853 -0.48962636404041815 0.8063934303168211
0.2969852 -0.48361553417468606 0.8098566180741605
0.2989851 -0.4780822083260664 0.8133481332187296
0.300985 -0.4719649847713379 0.8164179054231425
0.3029849 -0.4663052819356788 0.8200762478345831
0.3049848 -0.46051151342835767 0.8231841036616956
0.3069847 -0.4543906137974811 0.8263272950405448
0.3089846 -0.44873119770302905 0.8293552199494504
0.3109845 -0.4424386605475291 0.8328120080240744
0.3129844 -0.43661936807844726 0.835525915451609
0.3149843 -0.43062831578200483 0.8385804933512103
0.3169842 -0.42462785477941783 0.8415737735323312
0.3189841 -0.41845118031602757 0.8445904010009189
0.320984 -0.4124373597302199 0.8479746564406528
0.3229839 -0.4054476756057641 0.8511175465949276
0.3249838 -0.3995533007209085 0.8539788668700224
0.3269837 -0.39313607614627955 0.8567612201856216
0.3289836 -0.3869281660710165 0.8595654340075378
0.3309835 -0.380628415268242 0.8622448969576365
0.3329834 -0.3744917080079473 0.8650169495313741
0.3349833 -0.36789080496552 0.8677363425066309
0.3369832 -0.3619197724326629 0.8706397368342392
0.3389831 -0.3554313274116541 0.8733834498491069
0.340983 -0.34895727047476854 0.8762594829608897
0.3429829 -0.34265740777412945 0.8789583308511424
0.3449828 -0.33572810534661574 0.8814439004200478
0.3469827 -0.3296788529880109 0.8842239224274562
0.3489826 -0.3231216570964871 0.8870374203573594
0.3509825 -0.3170573917713122 0.8892208135984173
0.3529824 -0.3102228923133238 0.8918471757362715
0.3549823 -0.3038983220645556 0.8944691272769617
0.3569822 -0.29685458809123244 0.8965006227276211
0.3589821 -0.29088876499133737 0.898416175713979
0.360982 -0.2842531093011428 0.9006643437865836
0.3629819 -0.27768976330225087 0.9029876774405649
0.3649818 -0.2714071734298297 0.9048600027339877
0.3669817 -0.26486386560015307 0.9069881010213073
0.3689816 -0.2583635180733947 0.9089777269218364
0.3709815 -0.2514903618051671 0.9108520179241311
0.3729814 -0.2451483856751654 0.9126838279369787
0.3749813 -0.2388103225981033 0.9144742071315916
0.3769812 -0.23179316754381485 0.9164347002711133
0.3789811 -0.22536944392973227 0.9182971645463681
0.380981 -0.21891042141194655 0.9198539844739859
0.3829809 -0.21220654267794675 0.9212750471812076
0.3849808 -0.2051846001569434 0.9232621925982909
0.3869807 -0.19841922548148877 0.9245885475635723
0.3889806 -0.19163664643542647 0.9259961894539239
0.3909805 -0.18466409105130083 0.9272747399970325
0.3929804 -0.17811723678503116 0.9283992087209966
0.3949803 -0.1708713433541155 0.9293789037437333
0.3969802 -0.16404099963542984 0.9310415534003383
0.3989801 -0.15654488873688582 0.9317124558350176
0.40098 -0.14971785144200778 0.9328240417408198
0.4029799 -0.14296899010088507 0.9340384657667781
0.4049798 -0.1357271361763357 0.9353750685620832
0.4069797 -0.12864366846110006 0.936500273154981
0.4089796 -0.12186569210017972 0.937331577856785
0.4109795 -0.11495655453920936 0.9383553100687418
0.4129794 -0.10712567244608254 0.9390837191607192
0.4149793 -0.10064562553562335 0.9401126638158724
0.4169792 -0.09322645354655948 0.9411768213457142
0.4189791 -0.08597415441889199 0.9419882051486579
0.420979 -0.07921805884576329 0.9422079928557134
0.4229789 -0.07200542474069917 0.9429436464542111
0.4249788 -0.06485835886109786 0.9437069751967259
0.4269787 -0.05807750636655888 0.9446004961937363
0.4289786 -0.05067760619953753 0.944903817676702
0.4309785 -0.04399369959435232 0.9454852380817074
0.4329784 -0.03659655735917426 0.9458841620262877
0.4349783 -0.029604846648871128 0.9461979014577178
0.4369782 -0.02212640781784834 0.9463721437272429
0.4389781 -0.015369237590493613 0.9466807180500824
0.440978 -0.008041473625352749 0.9472427481534592
0.4429779 -0.0012185662184046112 0.9472061617547081
0.4449778 0.006188426903261622 0.947091700457603
0.4469777 0.013165010550643733 0.9471404883941715
0.4489776 0.020613359732246622 0.9468598728016526
0.4509775 0.027469527269137164 0.946810771349477
0.4529774 0.034826205575963595 0.9466863279842974
0.4549773 0.04176902703138446 0.9467463682959385
0.4569772 0.04903935961714842 0.9464794892359175
0.4589771 0.056194475015954606 0.9461263596879986
0.460977 0.06357636030986064 0.9456155232360381
0.4629769 0.07088625790474447 0.9450574877281811
0.4649768 0.07802238042975083 0.9443725605438738
0.4669767 0.08567872104467572 0.9437999095280599
0.4689766 0.09283082924556829 0.9431626208658673
0.4709765 0.09953439850660462 0.9423814970663231
0.4729764 0.10710948317496431 0.9418759208394565
0.4749763 0.11393188850837724 0.9412840707955332
0.4769762 0.12195159687625091 0.9403187801351731
0.4789761 0.12880134086624936 0.9394207249994936
0.480976 0.13628553326381743 0.938605399394534
0.4829759 0.14357370457931143 0.9377915661471218
0.4849758 0.15091140429533176 0.9367995685002696
0.4869757 0.15811905532118314 0.9355413903417509
0.4889756 0.16522289046756766 0.9345369325742603
0.4909755 0.172692483797581 0.9333221039292976
0.4929754 0.17966616783647313 0.9324126561109014
0.4949753 0.18681462340727317 0.9312172253131306
0.4969752 0.1938595512755594 0.9296084546021849
0.4989751 0.20124273687949773 0.9285484670209998
0.500975 0.2079143879397043 0.9271886293663555
0.5029749 0.21514172361837353 0.9258313499097716
0.5049748 0.22193983089640987 0.9238290637694817
0.5069747 0.2291533846427462 0.9218868004195128
0.5089746 0.23579513207890546 0.9204825792050507
0.5109745 0.24317452879154222 0.9188842761634587
0.5129744 0.25018166503698047 0.9170817829359973
0.5149743 0.2572202423154012 0.9149720134038112
0.5169742 0.26444477295267466 0.9132341157021424
0.5189741 0.27111844130344676 0.9111472998577175
0.520974 0.2784854044084381 0.908815798598398
0.5229739 0.28522498273357344 0.9065029132351645
0.5249738 0.29226349725121414 0.9045147591143032
0.5269737 0.2992749032543941 0.9019729528247306
0.5289736 0.3060096145958642 0.8994004454264153
0.5309735 0.3135808033418574 0.8968709100943191
0.5329734 0.3203359098197432 0.8940255180897558
0.5349733 0.3272397679377161 0.8916708267065455
0.5369732 0.3345550521387656 0.8889894047067022
0.5389731 0.3412345175558919 0.8860970115293986
0.540973 0.3486136263781319 0.8836800798560669
0.5429729 0.35563771345813744 0.8807918798856177
0.5449728 0.3627099675400938 0.8781785633911984
0.5469727 0.3696635242886118 0.8752836957582459
0.5489726 0.37700632977551624 0.8723436952768686
0.5509725 0.3835223000657469 0.8691311253757595
0.5529724 0.39093305781189874 0.8661391268686618
0.5549723 0.3978779568078824 0.86318040019376
0.5569722 0.4045144185239001 0.859944165505994
0.5589721 0.411830302501768 0.8568539092742474
0.560972 0.41898263347678866 0.8538921682748027
0.5629719 0.42587026739219086 0.8509007044774476
0.5649718 0.43259224204056856 0.8479684853301598
0.5669717 0.4392760963307325 0.8446054081764911
0.5689716 0.4461918993566799 0.8411449532009102
0.5709715 0.45286541665713104 0.8377235877802128
0.5729714 0.45943134735611013 0.834650634088549
0.5749713 0.46613375913659766 0.8310528878816197
0.5769712 0.47274164370838934 0.8276952979314757
0.5789711 0.4789533381979681 0.8243512975212158
0.580971 0.4851927684665899 0.8205280814676534
0.5829709 0.49167660196853363 0.8170701691571389
0.5849708 0.49856189430939035 0.8132758813856912
0.5869707 0.5044446113243354 0.8094067937264181
0.5889706 0.510960377525324 0.8051330845970085
0.5909705 0.5169795299470312 0.8011360122860194
0.5929704 0.5231743373167912 0.7969236027306793
0.5949703 0.5295643226663378 0.7928434077215945
0.5969702 0.5358412040902558 0.7882873357428615
0.5989701 0.5423081813140667 0.7838318781914546
0.60097 0.548221552874748 0.7793254215720576
0.6029699 0.5540419451195447 0.7748200283517476
0.6049698 0.5607974476110282 0.7704287366652182
0.6069697 0.5664061555316812 0.7657150116883215
0.6089696 0.5726179400299992 0.7615343680587909
0.6109695 0.5785813643628559 0.7564483262889383
0.6129694 0.5842966845484965 0.7520156504162449
0.6149693 0.5910957192934359 0.7477393085578361
0.6169692 0.5975288647526622 0.7423695029259396
0.6189691 0.6035736003542882 0.7378456006070916
0.620969 0.6091078674552078 0.7325985670889121
0.6229689 0.615405085538584 0.7278068174888019
0.6249688 0.6214826738690797 0.7226973517149042
0.6269687 0.6275243265976799 0.7176346122919248
0.6289686 0.6333775992792413 0.712587729501075
0.6309685 0.6392247687675457 0.707524961475926
0.6329684 0.6446799315584965 0.7026218410921171
0.6349683 0.6511750301763981 0.6977471091473942
0.6369682 0.6564454714218475 0.6924296685906448
0.6389681 0.6621826603082369 0.6876524919366316
0.640968 0.668287732801062 0.6822698918315667
0.6429679 0.6736357391346265 0.6772924032809124
0.6449678 0.6791187520456211 0.6720510713367494
0.6469677 0.6842535809331054 0.6664768315857129
0.6489676 0.6895733232044117 0.6617265944985715
0.6509675 0.6950576973666123 0.6557540797256141
0.6529674 0.7005050640480558 0.6504370006981941
0.6549673 0.7053383165322307 0.6452022614964181
0.6569672 0.7106583212778654 0.6390912534369366
0.6589671 0.715764823842637 0.6335153119878744
0.660967 0.7205664311754016 0.6273997091409282
0.6629669 0.7251108051304841 0.6220819904465029
0.6649668 0.7302095361890917 0.6166792277554211
0.6669667 0.735049708304264 0.610408805021722
0.6689666 0.7398256981572184 0.604738023621716
0.6709665 0.7444673943835395 0.59862483887378
0.6729664 0.7493814939556805 0.5919649772356697
0.6749663 0.7537257368302994 0.5860747715706021
0.6769662 0.7583992761169126 0.5795213753782952
0.6789661 0.7634366607958807 0.5734118018460865
0.680966 0.7678270769715697 0.5668878544696695
0.6829659 0.7724959572819314 0.5609068458634477
0.6849658 0.7772458777021772 0.5545571855160558
0.6869657 0.7813197364464936 0.5481904521822536
0.6889656 0.7858280721778009 0.541557980039998
0.6909655 0.79026668048014 0.5349647466797094
0.6929654 0.7948147459318429 0.5282228988065367
0.6949653 0.7990069764085534 0.5216506140746551
0.6969652 0.8033975582340476 0.5147432558912923
0.6989651 0.8076618982027712 0.5083998758228397
0.700965 0.8121856030511556 0.5015347057855118
0.7029649 0.8161869614546641 0.49501666328030514
0.7049648 0.8203611130561663 0.4881072703487356
0.7069647 0.824628292470118 0.4813256294594577
0.7089646 0.828484567036014 0.4746482640872772
0.7109645 0.8330067538994775 0.4679655432367401
0.7129644 0.8367769721814639 0.4612711501302166
0.7149643 0.8407026183527796 0.45421523971460115
0.7169642 0.844338165099543 0.4476563960141725
0.7189641 0.8483528040831406 0.4412005883949669
0.720964 0.8514700301406384 0.4340984730723955
0.7229639 0.8549758064699721 0.42748128877148267
0.7249638 0.8591147031311476 0.4203175408590711
0.7269637 0.8625431088655197 0.4135788840463735
0.7289636 0.8657588677664113 0.4068465882606864
0.7309635 0.8690458466682627 0.3997973017095949
0.7329634 0.8724133675995271 0.3929341668137246
0.7349633 0.8753544363667957 0.38586566397940686
0.7369632 0.8782507900752301 0.3787080607463096
0.7389631 0.881519901268331 0.37149562402318137
0.740963 0.8840964057626213 0.3644664555923417
0.7429629 0.8873013204074887 0.3571799300848858
0.7449628 0.8900457745699855 0.3505243252038605
0.7469627 0.8925901072214903 0.34316327208065445
0.7489626 0.8954402206755273 0.3356281926607795
0.7509625 0.8977081677676575 0.3281224742624494
0.7529624 0.9008595641343067 0.320831668449266
0.7549623 0.9030999624262186 0.3136608000839743
0.7569622 0.9053111309163626 0.30600868210563764
0.7589621 0.908036014505921 0.298605149155688
0.760962 0.9103259290539883 0.2911865117165214
0.7629619 0.9123943586021128 0.283301169960981
0.7649618 0.9148871188613076 0.27608266200437326
0.7669617 0.9170170383468533 0.2686075816912025
0.7689616 0.9189157369663612 0.2609438827675753
0.7709615 0.9214661178812489 0.25318018730938285
0.7729614 0.9235291136849165 0.24578467033407947
0.7749613 0.9256132052877185 0.2382069594370828
0.7769612 0.927660206308771 0.23044884072009203
0.7789611 0.929177108273149 0.22281477380867626
0.780961 0.9310115792902209 0.214873202941771
0.7829609 0.9329989525653967 0.2074268984176531
0.7849608 0.9347231178065668 0.19975323329483796
0.7869607 0.9363695138744831 0.19217990230251042
0.7889606 0.937908403851687 0.1841132241392903
0.7909605 0.9392795028036449 0.17670383941501203
0.7929604 0.9410891865141949 0.1691317405499973
0.7949603 0.9422264053977665 0.161438200965848
0.7969602 0.9432314532309439 0.1536541319979303
0.7989601 0.9440590439336791 0.14583065498555178
0.80096 0.9463418600829849 0.13859174676101088
0.8029599 0.946847680851312 0.13079844019757866
0.8049598 0.9482327718511167 0.12326472874147845
0.8069597 0.9494193108222482 0.11546350261497348
0.8089596 0.9499139499618632 0.10787994145021852
0.8109595 0.9510577853752659 0.09994548096360428
0.8129594 0.9517598818671417 0.09228046162251645
0.8149593 0.9524968701182659 0.08414227745675054
