! Created with skrf 1.8.0 (http://scikit-rf.org).
# GHz S RI R 50.0 
!freq ReS11 ImS11
0.001 -0.913427209898178 0.00566948482464395
0.0029999 -0.9130912466758381 0.012281992898887241
0.0049998 -0.9122204471464008 0.018924412846752475
0.0069997 -0.911453138376337 0.025590008754966267
0.0089996 -0.9111727258141187 0.032830217866933416
0.0109995 -0.9107016259179553 0.03951620506448507
0.0129994 -0.9101570993494879 0.04630995367962505
0.0149993 -0.9096068862266169 0.05306739917514485
0.0169992 -0.9087355878341633 0.05976346128173061
0.0189991 -0.9078249373057445 0.06671123954755075
0.020999 -0.9072608404958672 0.07331242769205046
0.0229989 -0.9066577035396237 0.08001518517160366
0.0249988 -0.9055153228545175 0.08697320325476429
0.0269987 -0.9050597131624901 0.09355677233976961
0.0289986 -0.9039595203086596 0.10028859674737131
0.0309985 -0.9030456470249533 0.10705862997092547
0.0329984 -0.9021066649957534 0.11363757555767671
0.0349983 -0.9012165850682031 0.12041706938902078
0.0369982 -0.9002369370928981 0.12727463552976986
0.0389981 -0.8992459842853181 0.13386994620748827
0.040998 -0.8981704158208005 0.14039921021064852
0.0429979 -0.8966679990994304 0.14705308487571575
0.0449978 -0.8957307821024192 0.15378259818969087
0.0469977 -0.8943537413958067 0.16048428462082656
0.0489976 -0.8932054105451939 0.16698303773698486
0.0509975 -0.891859781630107 0.17372179993265974
0.0529974 -0.8906442592093228 0.18034231486184651
0.0549973 -0.8893324907354374 0.1866330049846375
0.0569972 -0.8876051987928825 0.1933441982431343
0.0589971 -0.8861921108403968 0.1998300046348291
0.060997 -0.8846615757522798 0.20639428519173691
0.0629969 -0.883055510788305 0.2129052282192955
0.0649968 -0.8814324466314001 0.21930107555822526
0.0669967 -0.8798929733503082 0.225799029037933
0.0689966 -0.8781406114875243 0.23247196385249447
0.0709965 -0.8760063187239607 0.23884350448883648
0.0729964 -0.8745401421324979 0.24536212380113148
0.0749963 -0.8727990465737836 0.251623532575329
0.0769962 -0.8705447499892165 0.2582682601655526
0.0789961 -0.8685363645524937 0.2644587960758194
0.080996 -0.8667791985989957 0.27097932297521643
0.0829959 -0.8645529553291001 0.27739282828660855
0.0849958 -0.8622191283037637 0.2835234547555791
0.0869957 -0.8601242235809727 0.2900745753854551
0.0889956 -0.8576989155059739 0.29648722249129916
0.0909955 -0.8555291854362997 0.30301943739054665
0.0929954 -0.8529935415060396 0.30913219173473594
0.0949953 -0.8508145850375562 0.3155604324483687
0.0969952 -0.8485387304578613 0.32151298551734575
0.0989951 -0.8457355979387168 0.3282259883217146
0.100995 -0.8433190127064675 0.3342623299993231
0.1029949 -0.8408165004575913 0.340387601874979
0.1049948 -0.8382965574449693 0.3466491555559929
0.1069947 -0.8355902485917519 0.3532380294822592
0.1089946 -0.8330076342781053 0.35940142671757835
0.1109945 -0.8303318297558215 0.36585122636414436
0.1129944 -0.827422803229914 0.3715906257799642
0.1149943 -0.8245353676181795 0.3778859571460304
0.1169942 -0.8218747906745411 0.38427096990386694
0.1189941 -0.8191664181450964 0.39043365055316986
0.120994 -0.8159811695817129 0.39660896300976284
0.1229939 -0.8132009893573583 0.4026478664675269
0.1249938 -0.8105270349161552 0.40853161246173003
0.1269937 -0.8073879620119498 0.4145601603305268
0.1289936 -0.8046084850056574 0.42074770987112853
0.1309935 -0.8013308665687167 0.4266520928467837
0.1329934 -0.7983148739015313 0.4325562184790393
0.1349933 -0.7950754245290373 0.4385415213449373
0.1369932 -0.7918411889824558 0.4442995217370866
0.1389931 -0.7888124210862371 0.4501350940826089
0.140993 -0.7853881281729292 0.456198016920782
0.1429929 -0.782037514597471 0.4619303414830853
0.1449928 -0.7786497703761414 0.46752768799551453
0.1469927 -0.7752556605056308 0.4733159343118064
0.1489926 -0.7714234261488664 0.47909177073283893
0.1509925 -0.7680425704030474 0.4847647661542571
0.1529924 -0.7645251756135466 0.49006119576931834
0.1549923 -0.7604788176803687 0.4955735495170888
0.1569922 -0.7567221492530113 0.5012470179872431
0.1589921 -0.752832240818341 0.5070300588721902
0.160992 -0.7489543003318301 0.51290026026591
0.1629919 -0.7454164786952787 0.5183368225455192
0.1649918 -0.7413534779268129 0.5239489864704415
0.1669917 -0.7370949684582505 0.5292955726598023
0.1689916 -0.7331247712694703 0.5350134955756655
0.1709915 -0.7291771932520851 0.5404209562912581
0.1729914 -0.7243991223309795 0.5457210865891605
0.1749913 -0.7204438037721955 0.5513424874328494
0.1769912 -0.7163189495254088 0.5567837233023287
0.1789911 -0.7119339398274245 0.5623532490833062
0.180991 -0.7077561171363056 0.5675629136490742
0.1829909 -0.7036276639991426 0.5732634820776137
0.1849908 -0.6992231199644756 0.5786491786669685
0.1869907 -0.6949107175909871 0.5841764937343918
0.1889906 -0.6901702968219132 0.5897029769889628
0.1909905 -0.6854753614046842 0.5952807691778232
0.1929904 -0.6810325088177727 0.6006016973830848
0.1949903 -0.6768720520175147 0.6059028373525461
0.1969902 -0.6727944744852603 0.6111100628288634
0.1989901 -0.6681988468819969 0.6162307194442611
0.20099 -0.6638788434021216 0.6212388975548246
0.2029899 -0.6591240269657632 0.626710836887817
0.2049898 -0.6543806995968311 0.6316857806898144
0.2069897 -0.6496749890275048 0.6366146156960387
0.2089896 -0.6448094553184256 0.6415822212141792
0.2109895 -0.6402385346729218 0.6463130948050323
0.2129894 -0.6356214087382361 0.6515668592312955
0.2149893 -0.630655484810702 0.6562103367174849
0.2169892 -0.6259421494430412 0.6612163154337115
0.2189891 -0.6211368033166872 0.6661342083575863
0.220989 -0.6163567851006936 0.6705083728605016
0.2229889 -0.6111661836756432 0.675071300990766
0.2249888 -0.6060166106978255 0.6798160906796761
0.2269887 -0.6008004904083276 0.6844889431526492
0.2289886 -0.5955925366765807 0.688805632707364
0.2309885 -0.5907547325176901 0.693037202320394
0.2329884 -0.5852555690202376 0.6975578402927602
0.2349883 -0.5800444638445498 0.7022058244197686
0.2369882 -0.5744056422077166 0.7067002818323882
0.2389881 -0.5691495679693307 0.7108805869687113
0.240988 -0.5637405772126748 0.7151777413362257
0.2429879 -0.5579929504130301 0.7194385541843734
0.2449878 -0.5522907418332542 0.7234921102662673
0.2469877 -0.5469474459407054 0.7276331845293007
0.2489876 -0.541340883798456 0.7321678621098245
0.2509875 -0.5354691288146165 0.7362048846621426
0.2529874 -0.5297809471309645 0.7403540037782599
0.2549873 -0.523916088483613 0.7446612927626804
0.2569872 -0.5182666735778353 0.7490822399020618
0.2589871 -0.5120268949086191 0.7529872895011479
0.260987 -0.5063158016814646 0.7569883402555672
0.2629869 -0.5005968621513044 0.7611500306666946
0.2649868 -0.49507396946042204 0.7650976221814461
0.2669867 -0.4889525598529569 0.7692024668605126
0.2689866 -0.483241027648635 0.7731431898002232
0.2709865 -0.4773060787204367 0.7771694427882319
0.2729864 -0.4711619943864415 0.7810762189568391
0.2749863 -0.46523629970694436 0.7846221969231985
0.2769862 -0.4592157750445239 0.7886957118173589
0.2789861 -0.4530352425868682 0.7922438477704056
0.280986 -0.4473506063591044 0.7960363198843636
0.2829859 -0.4410395379591795 0.7993762909201503
0.2849858 -0.43525261805216436 0.8034223964128571
0.2869857 -0.42891585545336 0.806659043884682
0.2889856 -0.4228393182186736 0.8100184130836978
0.2909855 -0.41674533022877647 0.8134724671607392
0.2929854 -0.4105288466327562 0.8170085828369861
0.2949853 -0.40429922168246907 0.8200402256528255
0.2969852 -0.39771754464562303 0.8230217248425699
0.2989851 -0.39168806413047297 0.8262821572198437
0.300985 -0.38513778751957417 0.8292121706190606
0.3029849 -0.3786274878418206 0.8322327253259327
0.3049848 -0.372241541170741 0.8352222490409029
0.3069847 -0.36572821993207766 0.8380290677377105
0.3089846 -0.3591412909583701 0.8409072647233113
0.3109845 -0.3524742322518391 0.8437187151878399
0.3129844 -0.34577046342700474 0.8462878272870001
0.3149843 -0.33938941128681877 0.8492572710710791
0.3169842 -0.3325845045951863 0.8515987756286604
0.3189841 -0.32574448212977747 0.8544618279897763
0.320984 -0.3190335338817719 0.8571985016040594
0.3229839 -0.3119006046430674 0.8596713601906715
0.3249838 -0.30507339856814697 0.8623396123946327
0.3269837 -0.2983503808085247 0.8646509752881016
0.3289836 -0.2915635060616649 0.867330161183768
0.3309835 -0.2842032848336492 0.8696932860382177
0.3329834 -0.27779923955233654 0.8719604526050408
0.3349833 -0.2707504649591648 0.874336505007859
0.3369832 -0.26379611308967205 0.8770678048320428
0.3389831 -0.2569950753391715 0.8787835255272894
0.340983 -0.24947800990191907 0.8813176569484993
0.3429829 -0.24268002475138004 0.8835655709326782
0.3449828 -0.23520896991241674 0.8859544830214086
0.3469827 -0.22843028761426584 0.8879434153396847
0.3489826 -0.2214188598192753 0.8901719092806722
0.3509825 -0.21432023694208405 0.8920391991936111
0.3529824 -0.20735310449788116 0.8943153532194106
0.3549823 -0.20007435509293503 0.8957263533808377
0.3569822 -0.1928201551485929 0.8975496147858016
0.3589821 -0.18581148929894187 0.8994679947884446
0.360982 -0.17855059572268778 0.9012134395957011
0.3629819 -0.1712598256562493 0.9025043708271003
0.3649818 -0.16438336444620288 0.9039951575066638
0.3669817 -0.1572539125912857 0.905792182108304
0.3689816 -0.15018518598071978 0.9068937930694229
0.3709815 -0.14304741401859056 0.9082366890932507
0.3729814 -0.1359436613876595 0.9098189297264063
0.3749813 -0.12853616814237676 0.9109830408509052
0.3769812 -0.12108460728570379 0.9121159848690434
0.3789811 -0.11415067055856182 0.913286686008611
0.380981 -0.10668268085717916 0.9142433624802729
0.3829809 -0.09978970222177481 0.9150624805650033
0.3849808 -0.09212241100021853 0.9161287949210849
0.3869807 -0.08471046133139024 0.9170777109139527
0.3889806 -0.07740337206417827 0.9175527023448602
0.3909805 -0.06978337052911915 0.9181748394550406
0.3929804 -0.06264602393980581 0.9183975383403783
0.3949803 -0.05521501495720613 0.91937185694063
0.3969802 -0.047387881619140565 0.919727663136719
0.3989801 -0.03957505641434655 0.9199899034978841
0.40098 -0.03248096788855597 0.9203125298447008
0.4029799 -0.024597855242587237 0.9207140180858072
0.4049798 -0.016901109267498552 0.9214444353176711
0.4069797 -0.009267109881056466 0.9213291885302946
0.4089796 -0.001767590351488801 0.9218343116864863
0.4109795 0.005988894796334621 0.921912333947857
0.4129794 0.013887915019874443 0.9221067035731763
0.4149793 0.021018301149904033 0.9221736683267393
0.4169792 0.0289737592638169 0.9224276087084726
0.4189791 0.03643903146665357 0.9219417861047066
0.420979 0.04421852629894201 0.9219069845455312
0.4229789 0.05191022246905236 0.9216420914297375
0.4249788 0.059383120793763025 0.9216245415810901
0.4269787 0.06684359045409811 0.9213936559644698
0.4289786 0.07468278977411921 0.921161062795392
0.4309785 0.08187047274487645 0.9206130226353928
0.4329784 0.09001456224704048 0.9201921579780941
0.4349783 0.09745270439448527 0.9195526756597537
0.4369782 0.10538679464206477 0.9187940606095326
0.4389781 0.1128114427612598 0.9179773982207995
0.440978 0.12057380389439129 0.9176713402128039
0.4429779 0.12781335820090695 0.916654620229371
0.4449778 0.13564951303618686 0.9160238455050215
0.4469777 0.14351042135867675 0.9147180605913234
0.4489776 0.15067916626320493 0.9135723558277978
0.4509775 0.15839900296491605 0.9123915377328013
0.4529774 0.16609006519142605 0.911515111468408
0.4549773 0.17353728567641533 0.9105680155482627
0.4569772 0.1814342746171297 0.909009325551862
0.4589771 0.18883107763175677 0.9074888286506905
0.460977 0.19666650574964412 0.9063724533096772
0.4629769 0.20433767783022588 0.9045607283002035
0.4649768 0.2122731989680022 0.902590755408323
0.4669767 0.21975253707921139 0.9011340167544948
0.4689766 0.22767290457830683 0.8996506674450363
0.4709765 0.23471952825661047 0.8976392689170474
0.4729764 0.2423315623831797 0.8958761622705579
0.4749763 0.2502726827885149 0.8943825074428555
0.4769762 0.2577299322657621 0.8922158244365697
0.4789761 0.2655015820810809 0.8901214825395541
0.480976 0.2732118739459264 0.88825205196694
0.4829759 0.2811365499316683 0.8862548162913878
0.4849758 0.28834534345627366 0.8838392028660792
0.4869757 0.2957517982056031 0.8814899978887646
0.4889756 0.3032742912626108 0.8792300973568139
0.4909755 0.31130245287153674 0.8772970707677158
0.4929754 0.3186515957843571 0.8747113695119926
0.4949753 0.3256039495810479 0.8724683422515649
0.4969752 0.33326597598373303 0.8698761346013667
0.4989751 0.3407716127753338 0.867663273984872
0.500975 0.34789852197811044 0.8650537657831527
0.5029749 0.35525023443553844 0.8620571181486869
0.5049748 0.3623549171889013 0.8590023246872642
0.5069747 0.3695689083726729 0.8562739559891475
0.5089746 0.3764751614832714 0.8530446500017466
0.5109745 0.38420573062123897 0.8501218542672849
0.5129744 0.3916318913355163 0.8473415188788948
0.5149743 0.3988364041412913 0.8440767692095539
0.5169742 0.4060706724028025 0.8406471416101469
0.5189741 0.41317348643990753 0.8373544252961285
0.520974 0.42012067244707757 0.834131198356836
0.5229739 0.42742277898629955 0.8302070753093197
0.5249738 0.4342478659599641 0.8266267205789827
0.5269737 0.4415337484041102 0.8227774287932554
0.5289736 0.4485631198704073 0.81917986623927
0.5309735 0.4560424976567227 0.8149624775593252
0.5329734 0.4627777136122138 0.8112511612070927
0.5349733 0.46981728935040123 0.8072930426874032
0.5369732 0.47676639185068986 0.8030849450619473
0.5389731 0.48367595868400004 0.7991914301676368
0.540973 0.4909673716056686 0.7951357408039816
0.5429729 0.49789836302517904 0.7911733459300067
0.5449728 0.5051813832787204 0.7864560656254165
0.5469727 0.5122279283708235 0.7823644283709981
0.5489726 0.5190625715522135 0.7781314341996814
0.5509725 0.525740419203419 0.7734273505091839
0.5529724 0.5329034994714433 0.7689855849760161
0.5549723 0.5395702340747877 0.7644687223797969
0.5569722 0.5466112816005443 0.7599357787986589
0.5589721 0.5535911353810883 0.7553402814156908
0.560972 0.5603507521744262 0.750635258612443
0.5629719 0.5671665820607427 0.7462338925525969
0.5649718 0.5736443125549028 0.741749480037221
0.5669717 0.5805073270549503 0.7370327625868528
0.5689716 0.5869744973518106 0.7318027734343344
0.5709715 0.5935555352553163 0.727080690187023
0.5729714 0.599720486680431 0.7221848317432407
0.5749713 0.6064994677063785 0.717475068024379
0.5769712 0.6126345701496342 0.7125894238298971
0.5789711 0.6188900544452506 0.7073621458699371
0.580971 0.6248851225215332 0.702495413256171
0.5829709 0.631294263545161 0.6972995629965779
0.5849708 0.6370552397730587 0.692071439019146
0.5869707 0.6431255369669807 0.6867565070330517
0.5889706 0.6488727045063758 0.6810608627495902
0.5909705 0.6548404943264612 0.6752762706418144
0.5929704 0.6612318462240807 0.6696768976293249
0.5949703 0.6667036312847341 0.6638273544274982
0.5969702 0.6723728458136045 0.6579955216721016
0.5989701 0.6787053022093825 0.6520161973298423
0.60097 0.6840225144262992 0.6462592313898206
0.6029699 0.6895854999870619 0.6400824329959008
0.6049698 0.695170895029673 0.6340936646519899
0.6069697 0.700788651251551 0.6281887248019294
0.6089696 0.7066928923759613 0.6219145258701695
0.6109695 0.7119860873070921 0.615862203541721
0.6129694 0.7173045371240385 0.6093633366275637
0.6149693 0.7231651315488682 0.6036004691933777
0.6169692 0.7288219351867342 0.5971485169020754
0.6189691 0.7344039687188452 0.5905834788803571
0.620969 0.7393189543911536 0.5842664518251959
0.6229689 0.7445291113811985 0.5776828929774375
0.6249688 0.7498337152465523 0.5712121368799824
0.6269687 0.7553768792695922 0.5642496105286161
0.6289686 0.7604270146837145 0.5577988106093569
0.6309685 0.7654800655861993 0.5510504934013476
0.6329684 0.7704487412528586 0.5447011595375088
0.6349683 0.7760003868202232 0.5379909211128783
0.6369682 0.7805689212841838 0.5312752580265786
0.6389681 0.7855364928563795 0.5245740977989745
0.640968 0.7907196611752012 0.518027925134782
0.6429679 0.795208917970307 0.5110344018642123
0.6449678 0.7999001093088017 0.5042899021389843
0.6469677 0.8041441882589082 0.4974249473101671
0.6489676 0.8086529666896715 0.4910099630506771
0.6509675 0.8128231266311937 0.4835839900817615
0.6529674 0.8179179379508387 0.4767271133309455
0.6549673 0.8214878895988946 0.4695569908212697
0.6569672 0.8259627889812458 0.462346288911407
0.6589671 0.8301800622426598 0.45520469306551276
0.660967 0.8339225756388974 0.44807783528576656
0.6629669 0.8378635884239155 0.4408827659970717
0.6649668 0.841807193726613 0.4331692890742974
0.6669667 0.8454000400584846 0.42659519249776084
0.6689666 0.8494666560406081 0.41879478159727573
0.6709665 0.8526356458861889 0.41193914263529147
0.6729664 0.8566248011460009 0.403532464389181
0.6749663 0.8603425010086931 0.3958522500921988
0.6769662 0.8636830967822451 0.38830228067505934
0.6789661 0.8676115304769012 0.3806063664453472
0.680966 0.8707127076829743 0.37318778557225524
0.6829659 0.8743950786278629 0.3653470105736014
0.6849658 0.8773062584472326 0.35740611202435085
0.6869657 0.8801252977037644 0.3494683918197426
0.6889656 0.8838941322559747 0.34151996039004867
0.6909655 0.8868106764019411 0.33386778300407643
0.6929654 0.8898845353523831 0.32594254136630363
0.6949653 0.892646489020134 0.3178237817984606
0.6969652 0.8956148593351335 0.30969505198328134
0.6989651 0.8984889685328887 0.3022960791955943
0.700965 0.9013895602911636 0.29370094145089565
0.7029649 0.9041232995651217 0.2859351288621148
0.7049648 0.9068407761530943 0.27785789775101943
0.7069647 0.9093332936401898 0.269819635590136
0.7089646 0.9120679530497844 0.26191284078953314
0.7109645 0.9144434874097355 0.2536634967603596
0.7129644 0.9171880427955955 0.24585092688351118
0.7149643 0.9191757587956111 0.23766605467476146
0.7169642 0.9213085991871834 0.2295104470501881
0.7189641 0.9239158662389259 0.22166078330571024
0.720964 0.9255999296859375 0.2134713443001357
0.7229639 0.927613843596608 0.20538813117258578
0.7249638 0.929736826668174 0.1970442088449169
0.7269637 0.9314193825178319 0.188715757564953
0.7289636 0.933174855079769 0.1808574560168616
0.7309635 0.934790654572772 0.17274378130163454
0.7329634 0.9363459396290009 0.16448658519076043
0.7349633 0.9376682535817497 0.15592230182403338
0.7369632 0.9393116844185185 0.14773188082340077
0.7389631 0.9406792415103804 0.13960004108294538
0.740963 0.9416751951286746 0.1313348071292669
0.7429629 0.9428770315281984 0.12312717245564499
0.7449628 0.9442105582779856 0.11499379279906952
0.7469627 0.9449172726777977 0.10684905577239412
0.7489626 0.9459947172334351 0.0980492859903071
0.7509625 0.9467683412003052 0.08960754537289131
0.7529624 0.9475363104821611 0.08161915021610334
0.7549623 0.9486878268008618 0.07313711528831401
0.7569622 0.9492428337222659 0.06480137023727668
0.7589621 0.9501129093638462 0.056095340149952336
0.760962 0.9506051716531672 0.04775048199536594
0.7629619 0.950782654924428 0.03936838831939257
0.7649618 0.9513393641615747 0.030785277958675753
0.7669617 0.9517778773850916 0.02288345655235759
0.7689616 0.9516912166885411 0.014329063209567394
0.7709615 0.9519161170173543 0.00581769612513737
0.7729614 0.9518561763228456 -0.002901005317446338
0.7749613 0.9521299524624052 -0.010957517551409335
0.7769612 0.9518590052670421 -0.019163508661512493
0.7789611 0.9517021016306607 -0.027521491631336603
0.780961 0.9517201840351552 -0.035915584406382935
0.7829609 0.9511063902345872 -0.04441140414368486
0.7849608 0.9510569926158661 -0.05295262252818641
0.7869607 0.9504856468227474 -0.060990191947996444
0.7889606 0.9498400913409573 -0.06938198597578445
0.7909605 0.9496844706789747 -0.07735487300209151
0.7929604 0.9489221642846004 -0.08591451588665788
0.7949603 0.9481216912248005 -0.09414769681840512
0.7969602 0.9466671856044945 -0.10289620028926108
0.7989601 0.9457934950905844 -0.1108610716800765
0.80096 0.945419158117688 -0.11908112887948935
0.8029599 0.944224063780405 -0.1273362488724129
0.8049598 0.9428679976290031 -0.1355724227867452
0.8069597 0.9419130318174082 -0.1440850315469558
0.8089596 0.9406616196500672 -0.15252569086958312
0.8109595 0.9390114022970486 -0.1604404510036179
0.8129594 0.937777160801113 -0.168976717180871
0.8149593 0.9362460219274985 -0.1768231521652906
