! Created with skrf 1.8.0 (http://scikit-rf.org).
# GHz S RI R 50.0 
!freq ReS11 ImS11
0.001 0.9966929133429975 -0.006003049527935575
0.0029999 0.9953106187783367 -0.01423391458841481
0.0049998 0.9945686582101639 -0.021277161072383845
0.0069997 0.9935971268865205 -0.02785848348756812
0.0089996 0.9925593233186482 -0.03449015297710586
0.0109995 0.9919919339128384 -0.041861383792562205
0.0129994 0.9917636602367313 -0.04890264050331111
0.0149993 0.9912409527149337 -0.055984638420414
0.0169992 0.9905150402243377 -0.063208859250527
0.0189991 0.9899695971506327 -0.0703566217560687
0.020999 0.9895440432193144 -0.07773391979410679
0.0229989 0.9886609768139804 -0.08455836800580219
0.0249988 0.9877626126395651 -0.09207711184581674
0.0269987 0.987342976338919 -0.0992264726416421
0.0289986 0.9865762186132316 -0.10639109036705609
0.0309985 0.9856575833293485 -0.11372193382591794
0.0329984 0.984506221463979 -0.12069510278703977
0.0349983 0.983737765843225 -0.1277525973706249
0.0369982 0.9829905806640197 -0.13527844170670283
0.0389981 0.9815395355412067 -0.1426280710971911
0.040998 0.9810717800993061 -0.14936258609713102
0.0429979 0.9794291676249854 -0.15647696653912235
0.0449978 0.9781439084679078 -0.16376437713058187
0.0469977 0.9771594305780974 -0.17102321944055882
0.0489976 0.9757563978026317 -0.17787719848272268
0.0509975 0.9740810261155918 -0.18506006689646531
0.0529974 0.972861437030862 -0.19236962617640793
0.0549973 0.9711615617360625 -0.19934856935375966
0.0569972 0.9697666176371836 -0.2063396826104245
0.0589971 0.9682324996347984 -0.21351549843308942
0.060997 0.9662804828500589 -0.2206103374862168
0.0629969 0.9647955603226575 -0.2278273153907068
0.0649968 0.9629311645146494 -0.23469799035262384
0.0669967 0.9614370460512245 -0.24173651071214589
0.0689966 0.9594135981454396 -0.24878696525341962
0.0709965 0.9572106276414475 -0.2558929387754871
0.0729964 0.9557027314548976 -0.26308296375804224
0.0749963 0.9536550659972169 -0.26974732025596015
0.0769962 0.9515911698724712 -0.27680465910724494
0.0789961 0.9495099476172781 -0.28362793924333235
0.080996 0.9474769632314971 -0.29058494906223187
0.0829959 0.9449950233706829 -0.2975321094727902
0.0849958 0.9430887185774308 -0.30456428948257247
0.0869957 0.9405596645272737 -0.3113556908263219
0.0889956 0.9384581428599327 -0.31817421161038045
0.0909955 0.9359111336248802 -0.32493240459718103
0.0929954 0.933698273537288 -0.3317440915595485
0.0949953 0.9311526475931706 -0.3385190393397475
0.0969952 0.928737121569121 -0.34536926838439136
0.0989951 0.9258176802544084 -0.3519619706974266
0.100995 0.9232729787831736 -0.35838069833310704
0.1029949 0.9206905427651927 -0.36538017685229135
0.1049948 0.9179000196259015 -0.37200614471723437
0.1069947 0.9149264068529017 -0.37872547247543675
0.1089946 0.9123501211541234 -0.38541288096984677
0.1109945 0.9098175521635594 -0.39174740551689025
0.1129944 0.906763189772727 -0.39843504491077236
0.1149943 0.9036047528811262 -0.4047286568437017
0.1169942 0.9006332069013677 -0.4112080099786506
0.1189941 0.8971751056590669 -0.41747942778668484
0.120994 0.8942312143837081 -0.42392835925054884
0.1229939 0.8909204460063105 -0.4306382967178885
0.1249938 0.8874657067399109 -0.4372042875661788
0.1269937 0.8843980638857711 -0.44333974424019956
0.1289936 0.8806870330122646 -0.4496407843593073
0.1309935 0.8776416048536302 -0.4559351199239752
0.1329934 0.8740634238696606 -0.46238159013423397
0.1349933 0.8707709167682764 -0.46869134294319487
0.1369932 0.8667825910857314 -0.4750646927420114
0.1389931 0.8629840401786878 -0.4811617746636876
0.140993 0.8594053452126724 -0.4874568100430161
0.1429929 0.8559405462240984 -0.4939644518523927
0.1449928 0.8521532016934542 -0.5001533902644424
0.1469927 0.848446546560997 -0.5062119377567255
0.1489926 0.8446980888977945 -0.5125845974958445
0.1509925 0.8409269935892508 -0.5187174945085221
0.1529924 0.8370946066307849 -0.5247963096360999
0.1549923 0.8333514748364635 -0.5308899725664254
0.1569922 0.8295359693806162 -0.5372168057402718
0.1589921 0.8259012820431932 -0.543118798436669
0.160992 0.8219007708239361 -0.5489480221466704
0.1629919 0.8178020655720118 -0.554719538783204
0.1649918 0.8138731361765592 -0.5606196641781283
0.1669917 0.8095897570358714 -0.5667822550586195
0.1689916 0.805923962711104 -0.5718101781201529
0.1709915 0.8016917818016119 -0.5777660140120711
0.1729914 0.7976564725768028 -0.5837328567512653
0.1749913 0.7931918764177217 -0.5894351941197852
0.1769912 0.7891857889740221 -0.5950148622596872
0.1789911 0.7848725818466857 -0.6001602288902371
0.180991 0.7803832688570389 -0.6059650449449272
0.1829909 0.776231598464978 -0.6113020397642727
0.1849908 0.7715409427261308 -0.6167818836701457
0.1869907 0.7668951285149703 -0.6220668336412641
0.1889906 0.7626431285699592 -0.6271003605419788
0.1909905 0.7580552899292652 -0.6321558234630558
0.1929904 0.7533367790218622 -0.6370018921965703
0.1949903 0.7486459507060873 -0.6421834231293142
0.1969902 0.7439773500518508 -0.6470667457238809
0.1989901 0.7390192219213939 -0.652405996934373
0.20099 0.7339131819038033 -0.6577143930194199
0.2029899 0.7293152784706229 -0.6626942852440175
0.2049898 0.7241026494198146 -0.6678645859618195
0.2069897 0.719336100300543 -0.6728573440198767
0.2089896 0.7141895227010966 -0.6777291837076566
0.2109895 0.7089872393486338 -0.6826607849245812
0.2129894 0.704111759074334 -0.6877966352937467
0.2149893 0.6987264020301343 -0.6926729841261026
0.2169892 0.6934531015401229 -0.6977181373687947
0.2189891 0.6882783041358111 -0.7024951961599151
0.220989 0.6829896961474183 -0.7075723030801739
0.2229889 0.6777969427052856 -0.7124664362271675
0.2249888 0.6727939509174274 -0.7171149406157338
0.2269887 0.6676227946997297 -0.7220708321896733
0.2289886 0.6625181222824401 -0.7266049050261825
0.2309885 0.6574265559254963 -0.7315343350842834
0.2329884 0.651917625136279 -0.7364882817185595
0.2349883 0.6463991341541925 -0.7404909803924612
0.2369882 0.6412646227388946 -0.7456381238117855
0.2389881 0.6358363784356434 -0.7500861524285777
0.240988 0.6309886584197415 -0.754261219940004
0.2429879 0.6254883723894432 -0.7589195932521695
0.2449878 0.6199071246766458 -0.7631952465196669
0.2469877 0.6146575788896206 -0.7672458671273931
0.2489876 0.6092118215265444 -0.7718894129618472
0.2509875 0.6037209258296383 -0.775684401946628
0.2529874 0.5983497564004155 -0.7800953088333528
0.2549873 0.5934396072745374 -0.7840047644302733
0.2569872 0.5876327644337208 -0.7876431961891559
0.2589871 0.5820557665918282 -0.7919160262097665
0.260987 0.5765133478270115 -0.795881062062067
0.2629869 0.5707487379195441 -0.7997370616410115
0.2649868 0.5650614317150242 -0.8033492470859225
0.2669867 0.5594087638953884 -0.8071995164879274
0.2689866 0.5534235010901842 -0.8104725383981402
0.2709865 0.5478592909427347 -0.8141474957883558
0.2729864 0.5420850342483206 -0.8177372925620784
0.2749863 0.5364121533794917 -0.8212585191174829
0.2769862 0.5305098688904346 -0.8251215535171096
0.2789861 0.5243534182048587 -0.828526585886019
0.280986 0.5182992095542247 -0.8319615183672945
0.2829859 0.5121361013201924 -0.8354138772448877
0.2849858 0.5065629427326325 -0.8386187292994367
0.2869857 0.500258145695938 -0.8421998143715799
0.2889856 0.49451292464712054 -0.8452594462094885
0.2909855 0.4881905504785729 -0.8485389199778883
0.2929854 0.48211656324381125 -0.8521612845591647
0.2949853 0.4759022940773467 -0.8550423518139594
0.2969852 0.4701217995908739 -0.8587949645298693
0.2989851 0.46399567779506173 -0.8621998070398325
0.300985 0.4579333796036836 -0.8650260859369758
0.3029849 0.45204679660014624 -0.8680111534005036
0.3049848 0.44551049716377145 -0.8711371100944004
0.3069847 0.4398260893860929 -0.8738156908650018
0.3089846 0.4336667061894063 -0.8771477845899082
0.3109845 0.4276908373546176 -0.8799863532707863
0.3129844 0.42119791154176744 -0.883139648444068
0.3149843 0.4152570738756579 -0.8859585509040231
0.3169842 0.4094376683837544 -0.888872694568968
0.3189841 0.40315934053400443 -0.8918374166860822
0.320984 0.39743906419574865 -0.8940069540974741
0.3229839 0.3911823222997977 -0.8967629345467826
0.3249838 0.38483425965751983 -0.8990442064379823
0.3269837 0.37845904233021127 -0.901469146983717
0.3289836 0.37262358045202254 -0.9040337907718093
0.3309835 0.3665837213553334 -0.9063935256866043
0.3329834 0.3602169142819103 -0.9084210533142133
0.3349833 0.3540212326128534 -0.9109413307906532
0.3369832 0.34784452573265917 -0.9132072462862832
0.3389831 0.3415565844537177 -0.9152852262496722
0.340983 0.33540177991223136 -0.9172659039599651
0.3429829 0.32890669513258763 -0.9194311479017878
0.3449828 0.3225735100644798 -0.921327808340298
0.3469827 0.31675838220740515 -0.9230556190624509
0.3489826 0.31028742877983717 -0.9248030129654509
0.3509825 0.3037921906860849 -0.9266578447175867
0.3529824 0.2973990246623818 -0.9288556595518862
0.3549823 0.2910666097841263 -0.9306146828650512
0.3569822 0.28479263974994923 -0.9321660151265706
0.3589821 0.2780072733224086 -0.9337645744531027
0.360982 0.27161833735970536 -0.9354605260185227
0.3629819 0.26528470629518675 -0.936928591466649
0.3649818 0.2589345202815022 -0.9379961848789247
0.3669817 0.25181416308567517 -0.9397473909613949
0.3689816 0.24519147939384797 -0.9413121700872092
0.3709815 0.23887463592992467 -0.9432629626284521
0.3729814 0.23257002192868997 -0.9445315637541303
0.3749813 0.2258970568455504 -0.9461571860985951
0.3769812 0.21926357716665412 -0.9472490447629106
0.3789811 0.21286023371380705 -0.9488473881650962
0.380981 0.20657968101656599 -0.9503331838623039
0.3829809 0.2001099320825625 -0.9517119004692169
0.3849808 0.1935049774742783 -0.9528849572946231
0.3869807 0.1870764289290807 -0.9541415120236115
0.3889806 0.18058521268151068 -0.9547437677943044
0.3909805 0.1741297499386904 -0.9564459806598427
0.3929804 0.167612705080147 -0.9571756939342162
0.3949803 0.16158812518236734 -0.9584464880112905
0.3969802 0.1548006084925832 -0.9595413656735264
0.3989801 0.1487670390813163 -0.9602966528095744
0.40098 0.14210136523563716 -0.9611043588586682
0.4029799 0.13607833215712759 -0.9620479039731569
0.4049798 0.1296588030022356 -0.9628402432981329
0.4069797 0.12324883972047299 -0.9634990036489386
0.4089796 0.11731803344053687 -0.9640272375371728
0.4109795 0.11063379157629381 -0.9644751456126935
0.4129794 0.1043360682704177 -0.9651835859616
0.4149793 0.09805712752894359 -0.9656622689104337
0.4169792 0.09172260402036675 -0.9660598291944571
0.4189791 0.08527017444258894 -0.966538034142407
0.420979 0.07895149924635214 -0.9667808432692463
0.4229789 0.07219334446253084 -0.9670618903641117
0.4249788 0.06610194049743442 -0.9674612260442155
0.4269787 0.05973866577360949 -0.9674437685111129
0.4289786 0.053163566387745866 -0.96789626065616
0.4309785 0.04693536978020286 -0.96764465603534
0.4329784 0.040683568922292135 -0.9678158538498236
0.4349783 0.033845510198149034 -0.9678708004795441
0.4369782 0.028227951598101722 -0.9677915228940674
0.4389781 0.02131300520761343 -0.9680116744320376
0.440978 0.014912086757997767 -0.9678739595173562
0.4429779 0.008925188877107807 -0.9674140161927905
0.4449778 0.002252832749714887 -0.9675566550515731
0.4469777 -0.004000001078520089 -0.967348322521119
0.4489776 -0.0106546958756953 -0.9673499065082507
0.4509775 -0.017119149961143408 -0.9667205895067446
0.4529774 -0.022833054733912162 -0.9664489231588447
0.4549773 -0.02940839595294364 -0.966481358963928
0.4569772 -0.03615612339483497 -0.9657076187782865
0.4589771 -0.04177876196958526 -0.9652483238042159
0.460977 -0.04850754372704044 -0.9652302234841078
0.4629769 -0.05452221672751918 -0.9644295320744225
0.4649768 -0.06065151968705038 -0.9641357835955462
0.4669767 -0.06688876550665701 -0.9632968832290557
0.4689766 -0.07311271394714057 -0.9630211075838672
0.4709765 -0.07914780200539781 -0.9619052058206543
0.4729764 -0.08542148261840493 -0.9613319718425933
0.4749763 -0.09179121854695443 -0.9605681354894667
0.4769762 -0.09799898676443708 -0.9599523517608622
0.4789761 -0.10399262104745874 -0.9589023373978646
0.480976 -0.10980898327640831 -0.9582950859288787
0.4829759 -0.11622671772563209 -0.9572184292108712
0.4849758 -0.12226453389397982 -0.9562070134189886
0.4869757 -0.12883095311084047 -0.955651763584982
0.4889756 -0.13475111514230434 -0.9540478975826581
0.4909755 -0.14068174770483785 -0.952884926192559
0.4929754 -0.1470065117456858 -0.9517924540764664
0.4949753 -0.15310850742452217 -0.950470323808136
0.4969752 -0.15963816444212733 -0.948871876098565
0.4989751 -0.16527926450594493 -0.9475953573638503
0.500975 -0.1715259176145259 -0.9459699542546895
0.5029749 -0.17752324084534357 -0.9451186196565726
0.5049748 -0.18397709732307801 -0.9432761092208534
0.5069747 -0.19033735997389678 -0.9421576280956112
0.5089746 -0.19610672657897643 -0.9409256346777679
0.5109745 -0.2023254604513541 -0.9396404672294126
0.5129744 -0.2083574353465404 -0.9385972512774907
0.5149743 -0.21408719713943591 -0.9368948781631935
0.5169742 -0.22032344620727606 -0.9354925319770231
0.5189741 -0.22606139475157844 -0.934176139292036
0.520974 -0.23245051684480356 -0.9328027381361194
0.5229739 -0.23838773922658615 -0.9310483142994695
0.5249738 -0.24408687732079778 -0.9291124796613358
0.5269737 -0.25045608861531105 -0.9276407855761525
0.5289736 -0.2565020577005339 -0.9262598003047493
0.5309735 -0.261894266033376 -0.9245809949937027
0.5329734 -0.26792523945401703 -0.9227842852706494
0.5349733 -0.2735849972854095 -0.921363027313524
0.5369732 -0.2796363704939387 -0.9193126915444336
0.5389731 -0.28532902348522077 -0.9176872011227671
0.540973 -0.29079078961554167 -0.9156301321165902
0.5429729 -0.29659481233265383 -0.9134832547716625
0.5449728 -0.30203590915101863 -0.9113925919944907
0.5469727 -0.3071860833057553 -0.9094227896036985
0.5489726 -0.3131860744259378 -0.9076029158777671
0.5509725 -0.3184223441310826 -0.9055545458703763
0.5529724 -0.32386999087574203 -0.9033819189879148
0.5549723 -0.3297099470332243 -0.9013144369560808
0.5569722 -0.33470845495988755 -0.8988780966447056
0.5589721 -0.3404091916860393 -0.8965031011324648
0.560972 -0.3456077315663528 -0.8939123689031354
0.5629719 -0.3509409950349957 -0.8914278235891935
0.5649718 -0.35622352929924134 -0.8889134428409928
0.5669717 -0.3618431274007925 -0.8864137926506105
0.5689716 -0.36718704146472303 -0.883688242637608
0.5709715 -0.373051767393424 -0.8809311663334537
0.5729714 -0.37809691277358515 -0.878400135113322
0.5749713 -0.38351121196940824 -0.8751669273041922
0.5769712 -0.38900924663714515 -0.8726339111258039
0.5789711 -0.3948172683286521 -0.870039325690361
0.580971 -0.400593159076009 -0.8672957255450108
0.5829709 -0.406273985459803 -0.8647561009955455
0.5849708 -0.41170642211249175 -0.8619514351457841
0.5869707 -0.41716354950233336 -0.8593142320428704
0.5889706 -0.42256909477472515 -0.8564561263138742
0.5909705 -0.4272647428430828 -0.8536751017882523
0.5929704 -0.43274866088761677 -0.8508779458585126
0.5949703 -0.4384689075335848 -0.8479976079338706
0.5969702 -0.443335499170892 -0.8454617057181845
0.5989701 -0.44895172596606314 -0.8425888655932666
0.60097 -0.4539154193844815 -0.8399255694736867
0.6029699 -0.4592447468676182 -0.8364886642031218
0.6049698 -0.46439801621749716 -0.8339420016519482
0.6069697 -0.46983691954136847 -0.8310415744701034
0.6089696 -0.47473381640323464 -0.8280399342260937
0.6109695 -0.47959493201257203 -0.8249562405416854
0.6129694 -0.4845753536628903 -0.8220234088594986
0.6149693 -0.48984774128445036 -0.8188471308897887
0.6169692 -0.4948967062618942 -0.8163266597968146
0.6189691 -0.4994757190032709 -0.8131155527118397
0.620969 -0.5039937924975476 -0.8100013420373151
0.6229689 -0.5091975725741289 -0.8066974998990879
0.6249688 -0.5137838046358666 -0.8036826367715939
0.6269687 -0.5185248958039624 -0.8005113471131561
0.6289686 -0.5237148812843829 -0.7968470897103254
0.6309685 -0.5281376173708429 -0.7938925235116643
0.6329684 -0.5325755035990212 -0.7904656480067723
0.6349683 -0.5368841148208674 -0.7866432298551904
0.6369682 -0.5411537991685574 -0.7827615394983999
0.6389681 -0.5460143374545765 -0.7788174796714559
0.640968 -0.550879327039587 -0.7749904297247898
0.6429679 -0.5551693150510358 -0.7712440795099949
0.6449678 -0.5604141639455051 -0.7675506240036558
0.6469677 -0.5647365523058738 -0.7640511653269182
0.6489676 -0.5699614941824598 -0.7604726273044159
0.6509675 -0.574284547533837 -0.7563828065729273
0.6529674 -0.5789615981349413 -0.7530116846975955
0.6549673 -0.5835414928469363 -0.7493601321034847
0.6569672 -0.5879309027873628 -0.7455468340628244
0.6589671 -0.5928307349602827 -0.7418404705021141
0.660967 -0.5977496704369332 -0.737969382934172
0.6629669 -0.6020610676929652 -0.7342995548312985
0.6649668 -0.6071173416705172 -0.7305780139241792
0.6669667 -0.6114086717406056 -0.7268850989553818
0.6689666 -0.6161510931807664 -0.7232373213661263
0.6709665 -0.6201507353564788 -0.7189167603284966
0.6729664 -0.6250187988076973 -0.7151123841671807
0.6749663 -0.6286048913982724 -0.7109125449702997
0.6769662 -0.6331800092126326 -0.7074436700957282
0.6789661 -0.6373829139117652 -0.7035474110351252
0.680966 -0.642197913567042 -0.6997995142666065
0.6829659 -0.6460382553069525 -0.6961031048445816
0.6849658 -0.6500554368599083 -0.6918924775322867
0.6869657 -0.6541909417813826 -0.6883557118014837
0.6889656 -0.6581354126802612 -0.6842291791201578
0.6909655 -0.6624718763072465 -0.6806283384398535
0.6929654 -0.6663243532128998 -0.6765612517820823
0.6949653 -0.6703511840733332 -0.6726984752300103
0.6969652 -0.6740726617114727 -0.6688344323560962
0.6989651 -0.6778539518137491 -0.664889969194086
0.700965 -0.6816047498087646 -0.6605682481134386
0.7029649 -0.685289073782921 -0.6568527641278505
0.7049648 -0.6888307321732039 -0.6522220504708858
0.7069647 -0.6922944236348068 -0.6481238599365121
0.7089646 -0.695689411061375 -0.6440360863193366
0.7109645 -0.6995307629541326 -0.6392815748785634
0.7129644 -0.7030719765324241 -0.6347399171703785
0.7149643 -0.7064210731498928 -0.62986730908196
0.7169642 -0.710177276419437 -0.6258234641526966
0.7189641 -0.7138361272675157 -0.6213756214340997
0.720964 -0.7172606314407853 -0.6166020511507974
0.7229639 -0.7211128251402872 -0.6122375756579584
0.7249638 -0.7239530102050706 -0.607425510646383
0.7269637 -0.7274814269281907 -0.6025300221116722
0.7289636 -0.7311564129733255 -0.598007435501708
0.7309635 -0.7348758679557252 -0.5933788710173242
0.7329634 -0.7384533173968405 -0.5886636658050323
0.7349633 -0.7420728337405346 -0.5842244578455571
0.7369632 -0.7456944042622504 -0.579822511321284
0.7389631 -0.7492590646966469 -0.574667367541282
0.740963 -0.7528489529519902 -0.5701181496046248
0.7429629 -0.756260785012983 -0.5653004827505508
0.7449628 -0.7594997330065774 -0.560721857302007
0.7469627 -0.7631269464707949 -0.5562544884468443
0.7489626 -0.7665228789948697 -0.551508002016619
0.7509625 -0.7698493951067316 -0.5468389689989654
0.7529624 -0.7736370309721887 -0.5424360574468272
0.7549623 -0.7766956211740893 -0.5376064917723244
0.7569622 -0.7800868203077802 -0.5332597492173715
0.7589621 -0.7829769011222909 -0.528433650924994
0.760962 -0.7861533231286414 -0.5235848698226688
0.7629619 -0.7890638602707656 -0.5189315699724062
0.7649618 -0.7922326845492224 -0.5142754986199689
0.7669617 -0.7947491079331898 -0.5097811682248463
0.7689616 -0.7978128185297348 -0.5050596619915252
0.7709615 -0.800627859198314 -0.5004590552855956
0.7729614 -0.8034820869316848 -0.4958628396967486
0.7749613 -0.8066011912080377 -0.4909063040064593
0.7769612 -0.8091337261892122 -0.4860118674254634
0.7789611 -0.812040558390659 -0.48146213195909726
0.780961 -0.8145918849278204 -0.4766929081820892
0.7829609 -0.8172807528830163 -0.47164997138991877
0.7849608 -0.8198316323877114 -0.4667054759203226
0.7869607 -0.8226610361529076 -0.4617637489920166
0.7889606 -0.8251663193815197 -0.456912179759198
0.7909605 -0.8275575760513321 -0.4519486479775343
0.7929604 -0.830443453788391 -0.4466301657526706
0.7949603 -0.8325037401701129 -0.4418979622683922
0.7969602 -0.8349872893506463 -0.4364267381104747
0.7989601 -0.8371986005393147 -0.4315569760408484
0.80096 -0.83926645962798 -0.4263230405974899
