! Created with skrf 1.8.0 (http://scikit-rf.org).
# GHz S RI R 50.0 
!freq ReS11 ImS11
0.001 -0.9233072068982541 0.005361469939155223
0.0029999 -0.9229003137420227 0.011477906629454394
0.0049998 -0.922212995330832 0.01775284378123662
0.0069997 -0.9217361889176787 0.02417954289262767
0.0089996 -0.9211177904781126 0.03070134013575085
0.0109995 -0.9207838712043468 0.03713085488796514
0.0129994 -0.9203367657446371 0.0434881715181126
0.0149993 -0.9197383715635842 0.049796579559520875
0.0169992 -0.9190520884043485 0.05609144777427466
0.0189991 -0.9183145832727944 0.06243701761567219
0.020999 -0.9178161466018291 0.06886422340979015
0.0229989 -0.9169204706439286 0.07509590199126304
0.0249988 -0.9162195205592755 0.08155718195560899
0.0269987 -0.9158843446797349 0.08778940612520537
0.0289986 -0.9148818768341904 0.09395754269018375
0.0309985 -0.9137900247559061 0.10026795642344571
0.0329984 -0.9131482487182218 0.10676694620492773
0.0349983 -0.9124463557854553 0.11297161629060613
0.0369982 -0.9116242539594108 0.11944707207562295
0.0389981 -0.9103892059506614 0.12562238269021597
0.040998 -0.909748062657259 0.13157904913312174
0.0429979 -0.9082696540289343 0.13780874342131558
0.0449978 -0.9072305038703734 0.14422810758393256
0.0469977 -0.9062326793577508 0.15059933309295703
0.0489976 -0.9053346224648958 0.1566898297429355
0.0509975 -0.9039021527795371 0.16292325883781505
0.0529974 -0.9028908125802282 0.16942923837621063
0.0549973 -0.9016123534424954 0.17510337961206784
0.0569972 -0.9002639725702504 0.18145030051272926
0.0589971 -0.8987995186368056 0.18728972379483194
0.060997 -0.897450776190086 0.19353774971795035
0.0629969 -0.8962866935100375 0.1996519159699626
0.0649968 -0.8948362684292714 0.20563904270678557
0.0669967 -0.8933873834725238 0.21173750211302386
0.0689966 -0.8918539175062807 0.2180430047723741
0.0709965 -0.8900893264557174 0.22398601316776506
0.0729964 -0.8886176791579319 0.2301380088015723
0.0749963 -0.8871015248982673 0.23603833951164266
0.0769962 -0.8851919485453033 0.24223853164315384
0.0789961 -0.8835055491570872 0.2482015115756243
0.080996 -0.8817110112537102 0.25422984613254374
0.0829959 -0.8798829654114085 0.26028512000239157
0.0849958 -0.8779351301518074 0.26617083233868444
0.0869957 -0.8760421315915968 0.2721427670167967
0.0889956 -0.8737156240656666 0.2782700030610149
0.0909955 -0.871932196714287 0.28417399846377145
0.0929954 -0.8699074779742284 0.29026913639138796
0.0949953 -0.8680369687728464 0.2959774349413278
0.0969952 -0.8657193911156766 0.3019510790112712
0.0989951 -0.8637460206016786 0.30793539025013816
0.100995 -0.8613293430216092 0.3136895661548361
0.1029949 -0.8590373455147332 0.31952617919295484
0.1049948 -0.8568635009483052 0.32553457823635923
0.1069947 -0.8544397951007978 0.33178679113166176
0.1089946 -0.8523440344402011 0.33723334287062223
0.1109945 -0.8499939723362904 0.3432804131434287
0.1129944 -0.8473721501757147 0.34907365076112434
0.1149943 -0.8450653050486686 0.35499164783460807
0.1169942 -0.8424785528799863 0.3609459504183008
0.1189941 -0.8401675370790431 0.36665672271230265
0.120994 -0.8375534506728074 0.3726070501753545
0.1229939 -0.8350726971960706 0.37812126816846864
0.1249938 -0.8325361665096126 0.3839129556090106
0.1269937 -0.8299829214665226 0.38939001536828594
0.1289936 -0.8276690454696397 0.39532081752143317
0.1309935 -0.8245272080500868 0.40114252371756726
0.1329934 -0.8218341890390845 0.40643373077273165
0.1349933 -0.8190933005713352 0.4121010487652105
0.1369932 -0.8167009775244806 0.41787247226434504
0.1389931 -0.8135344973660574 0.42341904958428683
0.140993 -0.8106203005038217 0.42906560067664634
0.1429929 -0.8078674577496572 0.43428029242825594
0.1449928 -0.8046418190499425 0.44016599840018167
0.1469927 -0.8018242585507981 0.44531040925164733
0.1489926 -0.7983981377714505 0.450891032367194
0.1509925 -0.7955909667365534 0.4564194310290623
0.1529924 -0.7922643112129133 0.4614149187971291
0.1549923 -0.7887806976683149 0.46646664913690106
0.1569922 -0.7854945181593681 0.4720741524504166
0.1589921 -0.7824209589555511 0.4778803534521695
0.160992 -0.7784973800961688 0.4830259119637083
0.1629919 -0.7755427125878007 0.4883481340140948
0.1649918 -0.772034375149139 0.4936571477733392
0.1669917 -0.7683777419508114 0.4989646809864995
0.1689916 -0.7649216954080261 0.5038521241689711
0.1709915 -0.7612254929827944 0.5096512668929399
0.1729914 -0.7575537137247594 0.5147539110893299
0.1749913 -0.7538266670303015 0.5200462906992176
0.1769912 -0.7500469434037695 0.5251047924345487
0.1789911 -0.7464534028161424 0.5305010772366654
0.180991 -0.7427713286020454 0.5357490234293767
0.1829909 -0.7386984271635235 0.5410242735891646
0.1849908 -0.7354289221544804 0.5462868291416612
0.1869907 -0.731690677393924 0.5517801826247887
0.1889906 -0.7272050622436158 0.5571055221280747
0.1909905 -0.7232493885357092 0.5623946995670333
0.1929904 -0.7194573730309068 0.5674447272122197
0.1949903 -0.7159557229454319 0.5725157902402582
0.1969902 -0.7120897172151665 0.5776117414968461
0.1989901 -0.708190842829805 0.5824242622430411
0.20099 -0.7042516945879346 0.5873681063676233
0.2029899 -0.7004079049745019 0.592661115722947
0.2049898 -0.6959877712456344 0.5975051051282996
0.2069897 -0.6920448076873219 0.6023324304679648
0.2089896 -0.6880850466442757 0.6071317755691545
0.2109895 -0.6838295292658688 0.6119178301445581
0.2129894 -0.6796227895849583 0.616985624399873
0.2149893 -0.6754274373763768 0.6213786178034454
0.2169892 -0.6713569623838115 0.6263865882105168
0.2189891 -0.6671200762119788 0.6310800255274476
0.220989 -0.662744404407568 0.6355078110302619
0.2229889 -0.6582702671929609 0.6398130826162081
0.2249888 -0.6540844610518698 0.6447271207975066
0.2269887 -0.649218137963624 0.6492069472802167
0.2289886 -0.6447742690010613 0.6534176729205581
0.2309885 -0.6403106846235926 0.6578638706672567
0.2329884 -0.6356953132897877 0.6622024188852252
0.2349883 -0.6310885554996682 0.6668439323060638
0.2369882 -0.6260622561926003 0.6711264266850481
0.2389881 -0.6216631416090861 0.6754939812934546
0.240988 -0.6169162391291483 0.6797057109714466
0.2429879 -0.6117677501175679 0.6836952029128389
0.2449878 -0.6071007262399293 0.687929144255257
0.2469877 -0.6019973020433818 0.6922886792407182
0.2489876 -0.5969444068595249 0.696612314727108
0.2509875 -0.5920369139639631 0.7008029687220103
0.2529874 -0.5868988301813517 0.704791282157811
0.2549873 -0.5818364708170172 0.7095236238527225
0.2569872 -0.576850912204118 0.7132774283640684
0.2589871 -0.5717009247560648 0.7177865148937647
0.260987 -0.5665498413693555 0.7218622132452936
0.2629869 -0.561321380386917 0.725797871145354
0.2649868 -0.5565052932441291 0.7299909160868069
0.2669867 -0.5511679241680778 0.7341277349712135
0.2689866 -0.5461312776417263 0.7383066140399586
0.2709865 -0.5408190267790131 0.7422023091964423
0.2729864 -0.5357962130330955 0.7462261436496781
0.2749863 -0.5303977298481121 0.7500723802044128
0.2769862 -0.5250458122912539 0.7541505099274073
0.2789861 -0.5196840965592505 0.7579570433697302
0.280986 -0.5143429645979843 0.7616559334443415
0.2829859 -0.5091656772439325 0.7653586935133977
0.2849858 -0.5038806974314614 0.7692796726685155
0.2869857 -0.49853891579384485 0.7728523912476224
0.2889856 -0.49291704097539146 0.7763485044851567
0.2909855 -0.4875573938179861 0.7800621072663202
0.2929854 -0.48232510347206287 0.7835288449295765
0.2949853 -0.4765710580627005 0.7869549728455343
0.2969852 -0.470899801343009 0.7901009236592782
0.2989851 -0.4654654691959239 0.7935750366500154
0.300985 -0.45938859836544665 0.7964627226285438
0.3029849 -0.45406182490803854 0.7997628321394511
0.3049848 -0.44837373864226776 0.8032772687473454
0.3069847 -0.4426638374657915 0.8062397471518707
0.3089846 -0.4367057154670145 0.8092493883179332
0.3109845 -0.43076842940606064 0.8124065840426288
0.3129844 -0.4250288110793265 0.8154939480083716
0.3149843 -0.4193711762892749 0.8182161735807308
0.3169842 -0.41325493861925144 0.8211503001327953
0.3189841 -0.40734442544786514 0.8242298459250308
0.320984 -0.40140907212285937 0.827552961798821
0.3229839 -0.3948238530355525 0.8304856701882375
0.3249838 -0.3890275793652706 0.8334003988457519
0.3269837 -0.3830025737960815 0.8362250897355813
0.3289836 -0.37674878025111064 0.8392307986165501
0.3309835 -0.3706530932953801 0.8415876630335432
0.3329834 -0.36444921053309054 0.8445092264348257
0.3349833 -0.358315578545745 0.8473199491168659
0.3369832 -0.35246708722501974 0.8501344305558807
0.3389831 -0.34592738675809814 0.8526378375471101
0.340983 -0.33957165505707493 0.8555946478128402
0.3429829 -0.33333924098744533 0.8583300360006496
0.3449828 -0.32712759774377803 0.8606907064858718
0.3469827 -0.32100586640204876 0.8634320236672434
0.3489826 -0.314622011309342 0.8660642663226502
0.3509825 -0.3085771707234577 0.8684186402854189
0.3529824 -0.3021669814787855 0.8710938776394037
0.3549823 -0.2958315570836877 0.8734316996108208
0.3569822 -0.28893808679583943 0.8755560050175231
0.3589821 -0.28326264016613284 0.8775828822454758
0.360982 -0.27673624660412355 0.8799008017119481
0.3629819 -0.27000373640951814 0.8818840888296334
0.3649818 -0.26388158346006135 0.8839437361817617
0.3669817 -0.25780940531434116 0.8859371080011881
0.3689816 -0.2510445145163128 0.8879192855450049
0.3709815 -0.24483590520835352 0.8897616881779621
0.3729814 -0.23853032010239855 0.8918697219355866
0.3749813 -0.23211185956614838 0.8935687646502013
0.3769812 -0.22518021579802389 0.8954107097678464
0.3789811 -0.21907237445654243 0.8972159874668678
0.380981 -0.2127695039602342 0.8987862864072736
0.3829809 -0.20588591306808307 0.9001891973876527
0.3849808 -0.1990488241860382 0.9018685946617166
0.3869807 -0.19281555931805439 0.9034792445875549
0.3889806 -0.18630350831722298 0.9049726639345339
0.3909805 -0.17930484317878193 0.9062112253081216
0.3929804 -0.17272015299787066 0.9074402052518423
0.3949803 -0.16585424350155348 0.908526300214245
0.3969802 -0.15900766665585073 0.9099007929786607
0.3989801 -0.1520118534948914 0.9106266189234735
0.40098 -0.14500501684676217 0.9119776681616382
0.4029799 -0.1385444197991591 0.913176827777381
0.4049798 -0.13150760320857802 0.9141472435109822
0.4069797 -0.12446341255170576 0.9154515422741603
0.4089796 -0.11761278591823424 0.9163490113771543
0.4109795 -0.11103436119551009 0.9175331336804956
0.4129794 -0.10373700523866744 0.918132402958084
0.4149793 -0.09720566081437973 0.9192444048016422
0.4169792 -0.0900048489875665 0.9203851240658314
0.4189791 -0.08261570354027571 0.9211323386282164
0.420979 -0.07612861475701257 0.9212601175935102
0.4229789 -0.06901002543694441 0.9222558875740592
0.4249788 -0.06193746028787725 0.922915166511176
0.4269787 -0.055366213398127063 0.923711708763838
0.4289786 -0.04809971320269942 0.9242671474765413
0.4309785 -0.041311328372078064 0.9248693586579992
0.4329784 -0.03425271507372254 0.9252114592554354
0.4349783 -0.027476444375948844 0.9256321877168232
0.4369782 -0.02015810715492484 0.9257449150995825
0.4389781 -0.013342999337047648 0.9260901456935485
0.440978 -0.00613902950190668 0.9266210510721733
0.4429779 0.000530244380449317 0.9268241225389202
0.4449778 0.007709436477441409 0.9266252492387346
0.4469777 0.014482557879095264 0.9268034352777523
0.4489776 0.021704155948582146 0.9264793450348812
0.4509775 0.02850401242257653 0.9265264896856754
0.4529774 0.03566913145716978 0.9263177660452873
0.4549773 0.04258665491483035 0.9264386439500291
0.4569772 0.04972782750723139 0.9262644547047072
0.4589771 0.05684441187664128 0.9256188308540343
0.460977 0.06380917350302408 0.9254168227026388
0.4629769 0.07107677842024945 0.9249248822814989
0.4649768 0.07808315870928867 0.9242224906851682
0.4669767 0.08549485087543021 0.9233558137451776
0.4689766 0.09273050950350724 0.9233732305008521
0.4709765 0.09922037423267088 0.9225332919465259
0.4729764 0.10664041016985001 0.9219508081247926
0.4749763 0.11370414371262592 0.9212776827547979
0.4769762 0.12115843861149575 0.9206753054246506
0.4789761 0.12810728110634914 0.919685901482975
0.480976 0.13525800213342534 0.9189810606058281
0.4829759 0.14236572273903036 0.9183714782109441
0.4849758 0.14969252286626333 0.9173614631748422
0.4869757 0.1568693700178891 0.9162259477884522
0.4889756 0.16369656111182407 0.9151436175579881
0.4909755 0.17097530311566453 0.9140295589629225
0.4929754 0.17803511391181004 0.9132317133110884
0.4949753 0.18491942897455324 0.9119935792006453
0.4969752 0.19167453570942336 0.9106968211498498
0.4989751 0.199005782997073 0.9095813838678771
0.500975 0.20576961800420585 0.9083165230691145
0.5029749 0.21273338422721552 0.9067043846938305
0.5049748 0.21955730227522538 0.9049198066991433
0.5069747 0.22685526420091628 0.9031867871166267
0.5089746 0.23335150619102352 0.9016829009724279
0.5109745 0.24034502528666085 0.9001064474052491
0.5129744 0.24727243759966405 0.8983612582047609
0.5149743 0.25443943609936825 0.8963188326184047
0.5169742 0.2612587817203184 0.8946676896729437
0.5189741 0.26811914595105907 0.8928689471607119
0.520974 0.2752945678889551 0.890777604603412
0.5229739 0.2818917631820683 0.8883363311604576
0.5249738 0.2886908155534372 0.8860913406602168
0.5269737 0.2957819160265204 0.8839981919825579
0.5289736 0.3023651315057165 0.8811934853408192
0.5309735 0.30987245469338276 0.8786937920892228
0.5329734 0.31652078527733535 0.8762515576484005
0.5349733 0.32311937611533836 0.8739637756505255
0.5369732 0.3304963713215268 0.8712691067239492
0.5389731 0.33708526304938224 0.8684284617052067
0.540973 0.34424890830994453 0.8660569391030946
0.5429729 0.3512439315761712 0.8633804666890627
0.5449728 0.3581091289110547 0.8606656867680109
0.5469727 0.36524370676227375 0.8576465340426428
0.5489726 0.3722965291682405 0.8550755022568334
0.5509725 0.3787757395093233 0.8519230321421228
0.5529724 0.3859263166788437 0.8488335757823483
0.5549723 0.39275660949595975 0.8461119032822606
0.5569722 0.39964213004116145 0.8430755875042335
0.5589721 0.4066133230694217 0.840039454878621
0.560972 0.4136395789567261 0.8371627947279603
0.5629719 0.42050926513237 0.8342621699002442
0.5649718 0.42731454739317165 0.8312757170650873
0.5669717 0.4340460101311826 0.8280678960144378
0.5689716 0.4407819612633379 0.824607435494285
0.5709715 0.44738667263168536 0.8215622253452121
0.5729714 0.45384205346962153 0.8183278455744059
0.5749713 0.460295102167207 0.8149896284051604
0.5769712 0.46720538148923824 0.8115698971884623
0.5789711 0.473318345308767 0.8082283701735276
0.580971 0.4794613982138983 0.8046850496738325
0.5829709 0.48578085595568954 0.801276033724794
0.5849708 0.49226678289067205 0.7976009418368244
0.5869707 0.49811040002638474 0.7939712539922084
0.5889706 0.5045873721781248 0.7897972055440092
0.5909705 0.5105201308718541 0.7857695115993556
0.5929704 0.5171481705661941 0.7815711053108559
0.5949703 0.5235639051955084 0.7778607214752654
0.5969702 0.5293770582876187 0.7731232977763929
0.5989701 0.5359434822233838 0.7688874116089606
0.60097 0.5418514107386615 0.7644236166439137
0.6029699 0.5476798678015181 0.760102202335395
0.6049698 0.5541799446852963 0.7555622449498013
0.6069697 0.5599599707502031 0.7510561736244781
0.6089696 0.5660503222889238 0.7469368336138646
0.6109695 0.5721837568546625 0.7421068972007382
0.6129694 0.5776589048112315 0.7376404331761276
0.6149693 0.5844018670204537 0.7333427824518607
0.6169692 0.5905436959595072 0.728332563674726
0.6189691 0.5965428986985127 0.7236057702377295
0.620969 0.6019606659380856 0.7184764062030611
0.6229689 0.6083074272592636 0.7138123708540974
0.6249688 0.6139605030381267 0.7088727479592061
0.6269687 0.6201889205244939 0.7038959247457217
0.6289686 0.6260919569071419 0.6987909308888877
0.6309685 0.6319198396378148 0.6939331270427967
0.6329684 0.6375150583549282 0.689038483497443
0.6349683 0.6436291556886033 0.6843342988629131
0.6369682 0.649131333468094 0.6789891114336899
0.6389681 0.6547386973509899 0.6741938477155998
0.640968 0.6607170066177941 0.6690825449316403
0.6429679 0.6660619919427514 0.6641499133220463
0.6449678 0.6716332222046119 0.6589616255078706
0.6469677 0.6764469784921627 0.6533669688539623
0.6489676 0.681988461597501 0.6487417572770383
0.6509675 0.6873359358973822 0.6428748950328195
0.6529674 0.6927643558645984 0.6377210563067003
0.6549673 0.6978377518355591 0.6323932050526471
0.6569672 0.7029761784564957 0.6265054591109938
0.6589671 0.7079785779251352 0.6208666308401102
0.660967 0.7129336555161034 0.6150867569894957
0.6629669 0.7175541432118955 0.6095754532862684
0.6649668 0.7225870376954484 0.6038207182807993
0.6669667 0.7269079779815295 0.5984887027228115
0.6689666 0.7320880081031842 0.5926897361493692
0.6709665 0.7366538661741749 0.5864655162772363
0.6729664 0.7411132895652459 0.5802750575560197
0.6749663 0.7461663485527384 0.5742595792138725
0.6769662 0.7504897310079989 0.5677424896200743
0.6789661 0.7555471136654743 0.56176082267276
0.680966 0.7602824131210164 0.5558095820378297
0.6829659 0.7648244371390444 0.5493555445656801
0.6849658 0.7694379247145273 0.5430583059375806
0.6869657 0.7736300053677855 0.536486289095559
0.6889656 0.7778579961450345 0.5298285275306632
0.6909655 0.7825099400751468 0.5233557376546449
0.6929654 0.7868902909323464 0.5171090954792541
0.6949653 0.791009391960566 0.5105203293519702
0.6969652 0.7954982749146526 0.5036085307545097
0.6989651 0.7997721777072571 0.4973424622454109
0.700965 0.804094521038383 0.4905569265151931
0.7029649 0.8080707090360275 0.483833756444245
0.7049648 0.8123442042905065 0.4774063031998776
0.7069647 0.8167603113328841 0.4706640861792559
0.7089646 0.8206593281527442 0.46404427267388254
0.7109645 0.8248464121353244 0.45725067050098833
0.7129644 0.8288860282071293 0.45063660159874563
0.7149643 0.8327645036724183 0.4438123996179009
0.7169642 0.8363552075522451 0.4371509748754753
0.7189641 0.8404502997697838 0.4307729510916032
0.720964 0.8435300385699617 0.4237489750127339
0.7229639 0.8472862021080274 0.41726425948937856
0.7249638 0.8510713191283215 0.41009732829517487
0.7269637 0.8547727478267885 0.40329128203020614
0.7289636 0.8579815768551571 0.39651472243759706
0.7309635 0.8611640240071212 0.38958456857263013
0.7329634 0.8645064927569205 0.3829231828987177
0.7349633 0.8675155086718589 0.37585739286486525
0.7369632 0.8705239980064963 0.36873477504554353
0.7389631 0.8736225715233286 0.3616989521910729
0.740963 0.8762556310833635 0.3545689706890055
0.7429629 0.8795627904582184 0.3476639609160292
0.7449628 0.8823412331828548 0.3407106242052858
0.7469627 0.8845967715548301 0.3334596041372735
0.7489626 0.8876375849393777 0.3259433029862174
0.7509625 0.8896492879080126 0.3186186746959212
0.7529624 0.8930279257443904 0.3111511459236601
0.7549623 0.8953277505064329 0.30397647867353084
0.7569622 0.8972699725055082 0.2964722430736989
0.7589621 0.9002252985513259 0.2891678372970403
0.760962 0.9024317433517446 0.28162972967504124
0.7629619 0.9045765755549835 0.2740022075612406
0.7649618 0.9070047824805948 0.26663352637238263
0.7669617 0.9093145188763271 0.25913251889162936
0.7689616 0.9113292529377326 0.25141441302154166
0.7709615 0.9136813088163064 0.2438469194074462
0.7729614 0.9157854672529077 0.23644699865949037
0.7749613 0.9176539934387402 0.22890305303754982
0.7769612 0.9197454540336222 0.2211449240664081
0.7789611 0.9214142450744668 0.2136313299550474
0.780961 0.9229177339703516 0.20591862153698653
0.7829609 0.9249396446666956 0.19830555073551615
0.7849608 0.926859051622317 0.19064746585162112
0.7869607 0.9285893869406602 0.1830090928428839
0.7889606 0.9301063936315384 0.17507743512777738
0.7909605 0.9315499321177747 0.16761760326559308
0.7929604 0.9333298504346872 0.1601240181468942
0.7949603 0.9346540850222825 0.15254993676102985
0.7969602 0.9357531051403145 0.1445964729527201
0.7989601 0.9365572289568048 0.13700540281354412
0.80096 0.9387736671055351 0.12964019185558728
0.8029599 0.9393683768400759 0.12187351302076907
0.8049598 0.9407457225062672 0.11440940417395504
0.8069597 0.9418295147251257 0.10644888839495534
0.8089596 0.9425471737807318 0.09859278231781152
0.8109595 0.9435705907151313 0.09085295779098768
0.8129594 0.9440996961977856 0.08322666309480549
