! Created with skrf 1.8.0 (http://scikit-rf.org).
# GHz S RI R 50.0 
!freq ReS11 ImS11
0.001 -0.9635187657305413 0.005580489293557412
0.0029999 -0.9629183644660883 0.01363024168852859
0.0049998 -0.9626300146297337 0.022224503810660413
0.0069997 -0.961807353798143 0.030012588031542387
0.0089996 -0.9612339841781806 0.03843800580670034
0.0109995 -0.9608086957131293 0.04667835857756168
0.0129994 -0.9598581686802342 0.054965522428501494
0.0149993 -0.9591259750585027 0.0632132439161983
0.0169992 -0.958382766604 0.0712796744908309
0.0189991 -0.9573597421988156 0.0795413465954221
0.020999 -0.9563599583065752 0.0877086530737131
0.0229989 -0.955558125089943 0.09577300432706579
0.0249988 -0.9545199922195449 0.10411651341311319
0.0269987 -0.9535458169107254 0.11217187191709124
0.0289986 -0.9521501151971391 0.12017376844195876
0.0309985 -0.9508844731904904 0.1280874922339254
0.0329984 -0.9497569946392187 0.1365087161689188
0.0349983 -0.948234981993137 0.14439788687749688
0.0369982 -0.9470589434070716 0.15262608935118419
0.0389981 -0.9454897032616866 0.16063250049081088
0.040998 -0.9439996284218546 0.16835633781641132
0.0429979 -0.9422576955003162 0.1766675820376621
0.0449978 -0.9403754983649992 0.18438917316543965
0.0469977 -0.9391835588010284 0.1924821567228942
0.0489976 -0.9372315492716612 0.20028398139716083
0.0509975 -0.9356726640244787 0.20829012301084304
0.0529974 -0.9340060356676578 0.21600662424424288
0.0549973 -0.931614413669182 0.22389737340722668
0.0569972 -0.9300584944153091 0.2318920370559439
0.0589971 -0.9278204324151071 0.23954277393846826
0.060997 -0.9257765230098443 0.24724242730636292
0.0629969 -0.9236454912479138 0.25510299559123173
0.0649968 -0.9211719618549206 0.2628309410439948
0.0669967 -0.9188559572405606 0.2705753405118905
0.0689966 -0.9165517153252617 0.2783645797850373
0.0709965 -0.9139526207285503 0.2861318363572051
0.0729964 -0.9116227046397173 0.29386159258917066
0.0749963 -0.9090979300396484 0.30125479944429345
0.0769962 -0.9060785901794817 0.3090987925222902
0.0789961 -0.9034251815650747 0.3166302787661272
0.080996 -0.9008782391872472 0.32415096833454726
0.0829959 -0.8979675218925975 0.3318446036059347
0.0849958 -0.8948677586321939 0.33960330802301686
0.0869957 -0.8917876185831425 0.3467424586739253
0.0889956 -0.8886227182815254 0.3546538175309233
0.0909955 -0.8857111529976368 0.361995594477594
0.0929954 -0.8825398567941806 0.36963436146483886
0.0949953 -0.8795611933459891 0.3769516302026882
0.0969952 -0.8760747321548474 0.3843079961025459
0.0989951 -0.8725407249658669 0.3916036260947335
0.100995 -0.8694615218515163 0.3989772790666746
0.1029949 -0.8654938797891847 0.4064144306806607
0.1049948 -0.8620288827269731 0.4137868034100884
0.1069947 -0.8583388273711396 0.4214732753027406
0.1089946 -0.8548245848568722 0.428572803337194
0.1109945 -0.85100407707231 0.4359995412245158
0.1129944 -0.8472558117593225 0.44331450279106666
0.1149943 -0.8432323679597273 0.45042814039896883
0.1169942 -0.8395408698823366 0.4578578924571178
0.1189941 -0.8357362467432162 0.4650098855086302
0.120994 -0.8315681795156553 0.4719852958726045
0.1229939 -0.8276117577223051 0.4790390732593716
0.1249938 -0.8236999844907407 0.486058378752335
0.1269937 -0.819764808093453 0.49296299435375857
0.1289936 -0.8159412408447433 0.5001456187826202
0.1309935 -0.8113076923935545 0.5071022466800722
0.1329934 -0.8069250527934878 0.5139360806232478
0.1349933 -0.8026904342657956 0.5208541383691524
0.1369932 -0.7983352226160254 0.5275290550285505
0.1389931 -0.7936986473755091 0.5342341271270331
0.140993 -0.7893665082566381 0.5413136469577151
0.1429929 -0.78473118946353 0.5475957252284069
0.1449928 -0.7800230229218444 0.554562006270623
0.1469927 -0.7752764477848845 0.560879205069224
0.1489926 -0.770469120808039 0.567407802027573
0.1509925 -0.7656237984741766 0.5738289779906633
0.1529924 -0.7606889649086148 0.5802528742489097
0.1549923 -0.755540317177104 0.5860804233663655
0.1569922 -0.7502247076591642 0.5928121563763639
0.1589921 -0.7451497239449985 0.5993975228556399
0.160992 -0.7395355549531331 0.6056783100336336
0.1629919 -0.7348143215900331 0.6117709505681285
0.1649918 -0.729333544828111 0.6180342155542026
0.1669917 -0.7236654698999668 0.6243305786828256
0.1689916 -0.7180750860284669 0.6304107845423406
0.1709915 -0.7124843464928251 0.6368771636398716
0.1729914 -0.706645362630389 0.6429300907082542
0.1749913 -0.7011902199197284 0.6486273944158251
0.1769912 -0.6955195275533339 0.6549444173750346
0.1789911 -0.6895292980235271 0.660906668106043
0.180991 -0.6837357766035375 0.6670727379713938
0.1829909 -0.6779084075914361 0.6732093118444752
0.1849908 -0.6718708104308136 0.6792592462479059
0.1869907 -0.6661754561967924 0.6854499082717146
0.1889906 -0.6597195130976632 0.6913257731942118
0.1909905 -0.6533613293787671 0.6972337385382406
0.1929904 -0.6477793578243137 0.7031601512524268
0.1949903 -0.6418903439292842 0.7088962776256478
0.1969902 -0.6361689084415774 0.7146720949475813
0.1989901 -0.6298721661801712 0.7201814763794404
0.20099 -0.6237772887901704 0.7257467156292855
0.2029899 -0.6174322297532573 0.7313678744985159
0.2049898 -0.6109484593534646 0.7368055521747605
0.2069897 -0.6046510823444415 0.7423283656809849
0.2089896 -0.5984933754598867 0.7476675669420059
0.2109895 -0.5917784262860659 0.7529537062833295
0.2129894 -0.5854541597178244 0.7579504235757079
0.2149893 -0.5791679427214917 0.7630784957760679
0.2169892 -0.5727062320207349 0.7683605549128015
0.2189891 -0.5659462961168823 0.7731585677673691
0.220989 -0.5595682621420134 0.7781069968165355
0.2229889 -0.5524035179550842 0.7828244820486048
0.2249888 -0.5454601952814493 0.7875189582592393
0.2269887 -0.5387992215268296 0.7924042988810736
0.2289886 -0.5318848205431745 0.7968761566649366
0.2309885 -0.525095641556407 0.8010976194109565
0.2329884 -0.5179941228514197 0.8057305263725144
0.2349883 -0.5108633101115728 0.8103642666685305
0.2369882 -0.5032388996495268 0.8146278979979547
0.2389881 -0.4964878675557569 0.8191548830802321
0.240988 -0.48896733644455914 0.8232268973658252
0.2429879 -0.48162851903192727 0.8272446771183717
0.2449878 -0.47435508569016244 0.8315494412224333
0.2469877 -0.46666982450585415 0.8354906313212421
0.2489876 -0.45926232650189214 0.8399811347542656
0.2509875 -0.4516014312045652 0.8437832905459114
0.2529874 -0.443689023989806 0.8476998854017554
0.2549873 -0.435931622618816 0.8520253097161582
0.2569872 -0.42857449601298525 0.8561174166278347
0.2589871 -0.4207149976052025 0.8598971322474711
0.260987 -0.4129798919478646 0.8635781077124731
0.2629869 -0.40532950959766245 0.8673171520693378
0.2649868 -0.3977134599829264 0.8712862459971643
0.2669867 -0.3897382123679849 0.8749457053631241
0.2689866 -0.3817049359013669 0.8787273728752274
0.2709865 -0.373991776650431 0.882198908225664
0.2729864 -0.36632239700074304 0.8858506432129679
0.2749863 -0.35830460948421256 0.8892045967759054
0.2769862 -0.3501334121333523 0.8922572997631135
0.2789861 -0.3420586597939564 0.8957435116253581
0.280986 -0.3343008261194379 0.8991293094331397
0.2829859 -0.32625302473829576 0.9020048524962132
0.2849858 -0.31831862876359396 0.9053073248876558
0.2869857 -0.3102529880828881 0.9079343223552306
0.2889856 -0.3021543232956506 0.9110026985191462
0.2909855 -0.29414860696270345 0.9137348072689728
0.2929854 -0.2858177384037427 0.9165543586312282
0.2949853 -0.27773546513314523 0.9189879610270996
0.2969852 -0.2693853667257516 0.9213864599871581
0.2989851 -0.2613586645788235 0.924060955524251
0.300985 -0.25279950910130483 0.9257414934223874
0.3029849 -0.24442975728267033 0.9282197638360109
0.3049848 -0.23631314646082596 0.9300801510189566
0.3069847 -0.2277597647116992 0.93225070169738
0.3089846 -0.2192423766491005 0.9341554559753887
0.3109845 -0.21033721796224308 0.9361671325362381
0.3129844 -0.20233893552808202 0.9378741317694146
0.3149843 -0.1935718486987641 0.9395104721000188
0.3169842 -0.18504386454679878 0.9412325210051674
0.3189841 -0.176314928685036 0.943502196991738
0.320984 -0.16750833575193713 0.9448440664030466
0.3229839 -0.1582386171246502 0.9461721584065477
0.3249838 -0.1494909651705174 0.947843471667503
0.3269837 -0.1410901207491601 0.9488957876385228
0.3289836 -0.1317726415858962 0.9502466431362845
0.3309835 -0.12298438978854814 0.9514181745332473
0.3329834 -0.11422847902008663 0.9527440775153617
0.3349833 -0.10559952282531432 0.9539341871573951
0.3369832 -0.09635156842786263 0.9550513603105325
0.3389831 -0.08759838877908276 0.9559207894162121
0.340983 -0.07850065953912778 0.9570535810697198
0.3429829 -0.06964301294817535 0.9579727543978843
0.3449828 -0.06078876084048127 0.9587020778175137
0.3469827 -0.05179547138324258 0.9594292440479103
0.3489826 -0.04297323717173504 0.9603884746523973
0.3509825 -0.033883520511177156 0.9608357691603358
0.3529824 -0.025163220862256943 0.9610566885571818
0.3549823 -0.016129840325340532 0.9613221133954974
0.3569822 -0.006826514469848497 0.9616754011454238
0.3589821 0.002074486279459215 0.9618153144709956
0.360982 0.010947255773085546 0.962394760832957
0.3629819 0.019841714926284636 0.9621982087217044
0.3649818 0.028390092383023684 0.9619582691429228
0.3669817 0.03741597549058012 0.9617276579300204
0.3689816 0.04626424801854999 0.9615042857090336
0.3709815 0.055004088211111274 0.9610804941443345
0.3729814 0.0641781710274466 0.9605638201186166
0.3749813 0.07311844486260868 0.9600067205225787
0.3769812 0.08203590289085844 0.9597171492249036
0.3789811 0.09097033964130277 0.9591134722435891
0.380981 0.09990607413764369 0.958337182566551
0.3829809 0.10892029594804406 0.9573471127363344
0.3849808 0.11774334173444437 0.9560566812669843
0.3869807 0.12707045117304352 0.954714936220979
0.3889806 0.13576466048697358 0.9534019803711682
0.3909805 0.14465394482479726 0.9522905117445675
0.3929804 0.15384610245259522 0.9508360577502566
0.3949803 0.1626444378424547 0.9492003165238674
0.3969802 0.17186484807593877 0.9473822277414787
0.3989801 0.1808987710594388 0.9453532398650965
0.40098 0.19020301099415404 0.9436294925268098
0.4029799 0.199344012612679 0.9421233763942244
0.4049798 0.20818160772109418 0.9402021420824527
0.4069797 0.21729855229170544 0.9381752362463177
0.4089796 0.22647259532993178 0.9361659091928315
0.4109795 0.23534748997402774 0.934300659518075
0.4129794 0.24425574412683046 0.9318765206429084
0.4149793 0.2535401311475576 0.9295758884598744
0.4169792 0.26252231430609 0.9270988595345908
0.4189791 0.27135490030939957 0.9247272418243272
0.420979 0.2804069834852858 0.9221478915376802
0.4229789 0.28928771604360876 0.9193464325503024
0.4249788 0.2981696195178457 0.9169010052648474
0.4269787 0.30689015805671527 0.9141582096054376
0.4289786 0.3158653699151101 0.9112345391954202
0.4309785 0.3245083810101006 0.9084301107488088
0.4329784 0.3334438729031288 0.9053335853028007
0.4349783 0.34227318382562477 0.902153301947417
0.4369782 0.3509470557842869 0.8984415097077282
0.4389781 0.35946295798196526 0.8953732918807114
0.440978 0.36820465622280113 0.8920997518963064
0.4429779 0.3766421242959609 0.8886391106539795
0.4449778 0.385591300099903 0.8849556985466606
0.4469777 0.39370505630903196 0.8813889872085421
0.4489776 0.4023558783149978 0.8775670728721823
0.4509775 0.41156942351085396 0.8738346140337054
0.4529774 0.4196300281686347 0.8698158106710464
0.4549773 0.427689840546952 0.8658842824072042
0.4569772 0.4366325116050254 0.8614601846433376
0.4589771 0.4450897189497353 0.8571922626932917
0.460977 0.4534409103332136 0.8530062313703373
0.4629769 0.4618512251054608 0.8482214597033351
0.4649768 0.4698800525251372 0.8436350159129494
0.4669767 0.47812760656365494 0.8388880803449448
0.4689766 0.48646785470004933 0.8344219167380507
0.4709765 0.49485669603185767 0.8297376100851763
0.4729764 0.5025469314144797 0.8250546020355451
0.4749763 0.5110920240110304 0.8203838521941755
0.4769762 0.5192932687536025 0.814948646211655
0.4789761 0.5276210202717352 0.8100865349793354
0.480976 0.5353571790353227 0.8050795929445983
0.4829759 0.5433604639736942 0.7996941816613252
0.4849758 0.5513549821632071 0.7944129960959523
0.4869757 0.5590648786695325 0.7891619248305792
0.4889756 0.5667887522725005 0.7834541764954426
0.4909755 0.5747411979829696 0.7781407558569586
0.4929754 0.5824780018163036 0.772744127558788
0.4949753 0.5899577088311719 0.7670593565948801
0.4969752 0.597688447968969 0.7614189368065643
0.4989751 0.6052810146612723 0.7556766892318608
0.500975 0.6125669650502494 0.7498202526015886
0.5029749 0.6199688547561584 0.7438764015416198
0.5049748 0.6268609781080392 0.73759630396647
0.5069747 0.6340745716274679 0.731656995289838
0.5089746 0.6412916772662567 0.7256083040842244
0.5109745 0.6483829253369836 0.719034810495438
0.5129744 0.655848347848577 0.712800966595773
0.5149743 0.6627630157444211 0.7062504258537587
0.5169742 0.6696587704186745 0.6996086584568888
0.5189741 0.6765552190283203 0.6930681475982714
0.520974 0.683106581734846 0.6864735097820727
0.5229739 0.6899861507855032 0.6795462123154818
0.5249738 0.696371244034663 0.6723907605777985
0.5269737 0.7031340887849736 0.6655666278860566
0.5289736 0.7098485530040561 0.6584721704804167
0.5309735 0.7165656086781793 0.6509281183679861
0.5329734 0.722749483393226 0.643786562025908
0.5349733 0.7291155063466543 0.6365139511118652
0.5369732 0.735556805361664 0.6288562328748768
0.5389731 0.7415375840293428 0.6219275768738961
0.540973 0.7483001825736467 0.6144710972673858
0.5429729 0.7544856046872958 0.6067540110600852
0.5449728 0.7601999566237299 0.599121143460077
0.5469727 0.7665331443688331 0.59136655231268
0.5489726 0.7721742491301038 0.5836725256063139
0.5509725 0.7782013729777112 0.5756787251043975
0.5529724 0.783955273782243 0.5677267426469682
0.5549723 0.7899739255480731 0.5598503317851806
0.5569722 0.7956557562976359 0.5521047180676445
0.5589721 0.8012307904879887 0.5442390553876231
0.560972 0.806870348308474 0.536153063418414
0.5629719 0.8123511953798784 0.5280908227647743
0.5649718 0.818107876647606 0.5199864769194945
0.5669717 0.823276297275422 0.512194042976069
0.5689716 0.828322564204628 0.503704982586483
0.5709715 0.8332982441105574 0.4952631541487387
0.5729714 0.8383474003727636 0.4873886794442138
0.5749713 0.8432440571785775 0.47888156192445996
0.5769712 0.8476751858695655 0.4707758087683763
0.5789711 0.85301340486433 0.4624464473545761
0.580971 0.8574749508309224 0.45400587005617665
0.5829709 0.8619813930092511 0.4452721719554163
0.5849708 0.8663496939272781 0.43657992356021785
0.5869707 0.8705964432940425 0.4283435391115685
0.5889706 0.8751184674568204 0.4190537934554677
0.5909705 0.8784706434038001 0.41064729978516845
0.5929704 0.8828417970485997 0.40148814553288725
0.5949703 0.8865215861461537 0.3926477209410349
0.5969702 0.8908073905811068 0.3836366749724723
0.5989701 0.8946342836007576 0.3747827017159305
0.60097 0.8978936388711337 0.3653358852969289
0.6029699 0.9014057801783896 0.3567723811968988
0.6049698 0.9050533360212112 0.3472418710207536
0.6069697 0.9087062486487213 0.3382240042274295
0.6089696 0.9120998043519374 0.32881096412725863
0.6109695 0.9149360951119574 0.3198140788390935
0.6129694 0.9180775490213665 0.31048432887974015
0.6149693 0.9219827195647895 0.3014980228450921
0.6169692 0.9251059754247795 0.29199177110754815
0.6189691 0.9274384320840569 0.2826075557206642
0.620969 0.9302767806444671 0.27357277276508174
0.6229689 0.9331293006635435 0.2636896146480709
0.6249688 0.9358112652780647 0.2542989976838539
0.6269687 0.938193413832246 0.24505366212054458
0.6289686 0.9405900070961966 0.2354600602721097
0.6309685 0.9427007896444113 0.22575104203954127
0.6329684 0.9453695261696689 0.21656835952993653
0.6349683 0.947482542277514 0.20707549731569896
0.6369682 0.9493864926996524 0.19759395058795393
0.6389681 0.9513991936119406 0.18802508141373062
0.640968 0.9539041705297062 0.1780807246218887
0.6429679 0.9550188632934637 0.16924141963136918
0.6449678 0.9569234425260585 0.15926491445332225
0.6469677 0.9580419014599977 0.14984084571931955
0.6489676 0.9601206277392585 0.1400517338138117
0.6509675 0.9605754767106813 0.1309174578839012
0.6529674 0.9624278306113797 0.12064231380435204
0.6549673 0.9632175793452522 0.1110964583917137
0.6569672 0.9643633853488874 0.10164453927672751
0.6589671 0.9655935474332851 0.0918505125113096
0.660967 0.9660354694948415 0.08189231186478094
0.6629669 0.9669025303431263 0.07264054740104221
0.6649668 0.9671905322967468 0.0629869951676281
0.6669667 0.9679057014319249 0.053471937405956814
0.6689666 0.9685309517993983 0.043567458715016535
0.6709665 0.9688716134434266 0.0334148909026794
0.6729664 0.9691288189547403 0.023974871914614844
0.6749663 0.9692732616545814 0.013812357445001033
0.6769662 0.9692492924625397 0.004348340703839024
0.6789661 0.9692168527107404 -0.005294068668401462
0.680966 0.9689079416133982 -0.015059344403372452
0.6829659 0.9688305918256407 -0.02484755112277911
0.6849658 0.9686288051813586 -0.03445986744402303
0.6869657 0.9681462219914441 -0.04408472884915408
0.6889656 0.9679123795007261 -0.05387565508052481
0.6909655 0.966948489982226 -0.06338266291598155
0.6929654 0.9663581476899362 -0.07346109646693114
0.6949653 0.9655907667528311 -0.08278048151365242
0.6969652 0.9643415739752319 -0.09239736944212712
0.6989651 0.9635294242870891 -0.10192251348223968
0.700965 0.9624726521431856 -0.11158485274180859
0.7029649 0.9614540393136136 -0.12133729287258047
0.7049648 0.9600606978730537 -0.13029939461930817
0.7069647 0.9588515789497448 -0.14020955383242123
0.7089646 0.9572467388477156 -0.14932797056640817
0.7109645 0.955644986230732 -0.15893827810875089
0.7129644 0.9537896728748756 -0.16811253118815764
0.7149643 0.9517305484019002 -0.17762436262013354
0.7169642 0.9498442748871637 -0.18700521560996242
0.7189641 0.9484536577554579 -0.19657469730736826
0.720964 0.945960874804774 -0.20582775389984648
0.7229639 0.9436357991747447 -0.2154208599745438
0.7249638 0.9415263471406751 -0.22436933054593416
0.7269637 0.9390720487578107 -0.2334173151747531
0.7289636 0.9363898929057529 -0.24299570002688295
0.7309635 0.9335341144558797 -0.2523149477832084
0.7329634 0.9313324056164572 -0.2617097914171753
0.7349633 0.9281031046147132 -0.27091202251756397
0.7369632 0.9259920851434748 -0.28004876202914897
0.7389631 0.9224592353554318 -0.2892577748673361
0.740963 0.9195575942228508 -0.2983839508855386
0.7429629 0.9164759414273389 -0.30724483054787693
0.7449628 0.9136994757631437 -0.3165447450517479
0.7469627 0.9104387222237051 -0.3255277551220525
0.7489626 0.9070625308965803 -0.3347370915489281
0.7509625 0.9035631573025555 -0.3435361762328048
0.7529624 0.9005171672483059 -0.3527267901286585
0.7549623 0.8970074592689123 -0.36152982643509346
0.7569622 0.8934180912705425 -0.3703973449355608
0.7589621 0.889629022794484 -0.3790980161162695
0.760962 0.8860925072197697 -0.38772958447113587
0.7629619 0.88208628958753 -0.39647154235913745
0.7649618 0.8786565389845428 -0.4049288230150687
0.7669617 0.8744871886896547 -0.4128212259872988
0.7689616 0.8705389210921076 -0.421427477437345
0.7709615 0.8661049826041262 -0.43028515625669667
0.7729614 0.862106953020873 -0.43810319887540183
0.7749613 0.8582348572629696 -0.4462745536296682
0.7769612 0.8538007831455426 -0.4551407446477494
0.7789611 0.8489194415279185 -0.46248126545866197
0.780961 0.8446177161457848 -0.47059570319818567
0.7829609 0.8397477602656139 -0.4785119111541253
0.7849608 0.8352958306500459 -0.4866817613401889
0.7869607 0.8304086219069202 -0.4946036946435223
0.7889606 0.825144027184001 -0.5022665206160585
0.7909605 0.8202568988854688 -0.5098787283593708
0.7929604 0.8154688073331707 -0.5178536783042996
0.7949603 0.8101369901884328 -0.5257425843936816
0.7969602 0.8042701329506774 -0.5334150673709898
0.7989601 0.7990916870803202 -0.5406729908907345
0.80096 0.7937399524211959 -0.5485770751397036
0.8029599 0.7881982745157028 -0.5558152354279768
0.8049598 0.7829451748355647 -0.5632622883611301
0.8069597 0.7769461154907262 -0.5713151532517172
0.8089596 0.7708692120139263 -0.5786277405801206
0.8109595 0.7652744139468388 -0.5863165079204862
0.8129594 0.7593705145103175 -0.5935218556250692
0.8149593 0.753740202028007 -0.601003023797303
