! Created with skrf 1.8.0 (http://scikit-rf.org).
# GHz S RI R 50.0 
!freq ReS11 ImS11
0.001 -0.9528327340242523 0.0045709548632299835
0.0029999 -0.9521614540561971 0.009554895999905347
0.0049998 -0.9521717073575277 0.015465784385813142
0.0069997 -0.9514789133355921 0.02122509011913623
0.0089996 -0.9511978638850985 0.026993200899283844
0.0109995 -0.9508966984688998 0.032691370722170945
0.0129994 -0.9503707603750862 0.038305440896472136
0.0149993 -0.9497881725065106 0.04422305269822341
0.0169992 -0.9493678324196171 0.049668319523654504
0.0189991 -0.9489299125513253 0.05557854740925837
0.020999 -0.948264934145263 0.06087893339671488
0.0229989 -0.9478810506138574 0.06641949019644211
0.0249988 -0.9473925548329538 0.07215809169318867
0.0269987 -0.9466539529297978 0.07762263493165694
0.0289986 -0.9461185105012081 0.08356735979112961
0.0309985 -0.945288275538903 0.08884399223548678
0.0329984 -0.9449490508262692 0.09455180009453158
0.0349983 -0.9440036070255193 0.10018153183915579
0.0369982 -0.9435747338545974 0.10578027911261259
0.0389981 -0.942536303225732 0.11127592754086056
0.040998 -0.9417982923116681 0.11673606468207202
0.0429979 -0.9405435865678657 0.12235927960685225
0.0449978 -0.9398034655844882 0.1280236635761868
0.0469977 -0.9391625678572043 0.13374555679441147
0.0489976 -0.938279924076685 0.1389913953841792
0.0509975 -0.937395355373899 0.1445862235985593
0.0529974 -0.9364274141492404 0.15003679058789748
0.0549973 -0.9358802062572279 0.15560455565220724
0.0569972 -0.9346214511243911 0.160893604329034
0.0589971 -0.9334857897889869 0.1662600084170563
0.060997 -0.9325922238996844 0.1716735227533812
0.0629969 -0.9315646085897796 0.1771532496879912
0.0649968 -0.9300467705274608 0.18248138878101602
0.0669967 -0.9290674730812909 0.18805572050372385
0.0689966 -0.9279688108892192 0.19347272888817832
0.0709965 -0.9263306464404539 0.19877878335678598
0.0729964 -0.9254262041348362 0.2043592101809184
0.0749963 -0.9242425958953401 0.2095530696248439
0.0769962 -0.9227064721433746 0.21496129953927953
0.0789961 -0.9213558121902411 0.22045412600363212
0.080996 -0.9201358400938611 0.22585344551948452
0.0829959 -0.9186765185248464 0.23112722257400461
0.0849958 -0.9172420075926635 0.23644479293361045
0.0869957 -0.9155969065143674 0.24177267319631418
0.0889956 -0.9138927899368166 0.24718679834439372
0.0909955 -0.9124766019608291 0.25256817520563546
0.0929954 -0.9107893004107865 0.25797620698781704
0.0949953 -0.9097110041912397 0.2632153154675437
0.0969952 -0.9075563076370351 0.2686754903265308
0.0989951 -0.9060457150254415 0.27370040533315654
0.100995 -0.9044228617475188 0.2791174125776693
0.1029949 -0.9022927635357578 0.2843501322215086
0.1049948 -0.9008279498531231 0.28952930817504036
0.1069947 -0.8989580431327753 0.295057925065101
0.1089946 -0.8971414139875955 0.30026342624193114
0.1109945 -0.895413240399564 0.30556248769277494
0.1129944 -0.8935157077041266 0.3107103636930837
0.1149943 -0.891449315889396 0.31628605569018703
0.1169942 -0.8896387940932828 0.32153426020451115
0.1189941 -0.8878215757046818 0.32695007566520246
0.120994 -0.885910125762258 0.3321647331830658
0.1229939 -0.8838119454790558 0.33701017858230403
0.1249938 -0.8818705534161547 0.3424812454405852
0.1269937 -0.8799995673793566 0.3472768745279082
0.1289936 -0.8780269482360054 0.35266241734195575
0.1309935 -0.8761601220864749 0.35774793303138663
0.1329934 -0.8734689383938421 0.3626488942372687
0.1349933 -0.8717888509041141 0.3679567242985039
0.1369932 -0.8697497885176617 0.3730768888391133
0.1389931 -0.8673430349650861 0.3780972461636267
0.140993 -0.8653118261821507 0.3830543901112124
0.1429929 -0.8628346867192068 0.3882007228837558
0.1449928 -0.8607392960680079 0.3932984111942573
0.1469927 -0.8584935056791849 0.39782029530731655
0.1489926 -0.8559048332978816 0.4028347475205369
0.1509925 -0.8534965817904789 0.4081813220643441
0.1529924 -0.8509731718263759 0.41255592223618975
0.1549923 -0.8484254294225827 0.41726311469888244
0.1569922 -0.8456081039905272 0.4225833797774173
0.1589921 -0.8434201487237052 0.42750661942854834
0.160992 -0.8403875926367491 0.43267930867124244
0.1629919 -0.8379157875294436 0.4373410996266906
0.1649918 -0.8353800348380329 0.44221143815830355
0.1669917 -0.8325202475674297 0.4470504919186455
0.1689916 -0.8294534380752492 0.45178739508403293
0.1709915 -0.8270342098153036 0.457146744526575
0.1729914 -0.8240087535747963 0.4617147113340556
0.1749913 -0.8212148479798621 0.4666987477710923
0.1769912 -0.8185094765288942 0.4714327128565635
0.1789911 -0.8152581199038731 0.47630212386114534
0.180991 -0.812504764546057 0.4813855436025775
0.1829909 -0.8094879927063988 0.48640215332316133
0.1849908 -0.80671506538091 0.4907662303332213
0.1869907 -0.8037750035110347 0.49613178953287657
0.1889906 -0.8005347253704882 0.5010385258344587
0.1909905 -0.7974843522555131 0.5061463703526426
0.1929904 -0.794675733999938 0.5108509069977337
0.1949903 -0.7919433455056301 0.5154831106535259
0.1969902 -0.7890198388829641 0.5202815929358962
0.1989901 -0.7860395921803058 0.5249006727244682
0.20099 -0.7828748103470476 0.5296905085922894
0.2029899 -0.7798732135352527 0.5344369428054079
0.2049898 -0.776591887291195 0.5391340934034462
0.2069897 -0.7734931424007196 0.5435995466757089
0.2089896 -0.7704405231529142 0.5483120766564086
0.2109895 -0.767252249621301 0.5527614933297035
0.2129894 -0.7642115640025222 0.557619216368226
0.2149893 -0.7606999494001061 0.561544290680401
0.2169892 -0.757587567400883 0.5664456418436643
0.2189891 -0.754306296988836 0.570851214624894
0.220989 -0.750849332670424 0.575342358722206
0.2229889 -0.7472407999541861 0.579638758218191
0.2249888 -0.7440028252649691 0.5838792218488382
0.2269887 -0.7404218552881233 0.5882400165693673
0.2289886 -0.736865111999057 0.5925494487209504
0.2309885 -0.7336265595662919 0.5965656459913318
0.2329884 -0.7298270160334982 0.6008031615054743
0.2349883 -0.7263132569914537 0.6051712207781387
0.2369882 -0.7224832460903768 0.6096880214132473
0.2389881 -0.7189142683061671 0.6137810458698476
0.240988 -0.7149225562813312 0.618041384833103
0.2429879 -0.7111620731914399 0.6221312392184075
0.2449878 -0.7072624623034637 0.6264160860094493
0.2469877 -0.7036480988398286 0.6302674899397069
0.2489876 -0.6993823556957551 0.634804732241334
0.2509875 -0.6955746700239186 0.6386228878889947
0.2529874 -0.6917710796225016 0.6429652005209768
0.2549873 -0.6876284754062555 0.6473438419082799
0.2569872 -0.6836783531180287 0.651551633638246
0.2589871 -0.679590414036753 0.6559777474335194
0.260987 -0.6757806691087288 0.6597134857301182
0.2629869 -0.6715867540854802 0.6638873981674147
0.2649868 -0.6675117081138149 0.6681571893110027
0.2669867 -0.6637872734562178 0.6722705178315481
0.2689866 -0.6599215211327629 0.6763913290533388
0.2709865 -0.6557416241950269 0.6804052717238366
0.2729864 -0.651705204624502 0.6841889410557171
0.2749863 -0.6477243637844919 0.688445779421188
0.2769862 -0.6432696965110759 0.6924201354938211
0.2789861 -0.6391113326379272 0.6964922375187262
0.280986 -0.635204921381219 0.7002116830198875
0.2829859 -0.630828403467354 0.7040406308327591
0.2849858 -0.6269868004011774 0.708172382214147
0.2869857 -0.622699002474405 0.7117366651131534
0.2889856 -0.6185775733386398 0.7155269304169396
0.2909855 -0.6142065275432482 0.7191264868910077
0.2929854 -0.6099067517908399 0.7230809393867019
0.2949853 -0.6057272374146581 0.7266759308930222
0.2969852 -0.6009844244028366 0.7301733713760238
0.2989851 -0.5969133326195403 0.7338270993155098
0.300985 -0.5920324095769224 0.7370454219344692
0.3029849 -0.5876909505164454 0.7409227794402413
0.3049848 -0.5835106407229235 0.7441064942466086
0.3069847 -0.5785216577653602 0.747680187358665
0.3089846 -0.5742004516845101 0.75090065860027
0.3109845 -0.5695126985645044 0.7546928420467507
0.3129844 -0.5648709488294282 0.7576189679665924
0.3149843 -0.5602270605918772 0.7610471967931641
0.3169842 -0.5555508788600784 0.7644664591988258
0.3189841 -0.5508972661006365 0.7678424198261684
0.320984 -0.5459897919247854 0.7708771582220221
0.3229839 -0.5408490179445061 0.7751111512200148
0.3249838 -0.5363552732685412 0.7781643721791084
0.3269837 -0.531290982864372 0.7814421869015005
0.3289836 -0.52623777772754 0.7846966195553472
0.3309835 -0.5213014024245978 0.7878376294702644
0.3329834 -0.5166763406330909 0.7908314537344104
0.3349833 -0.5116614604442855 0.7940123683986641
0.3369832 -0.5068059347103739 0.7973584773652391
0.3389831 -0.5017944439662245 0.8004198911008087
0.340983 -0.4970885123336824 0.8039428417287743
0.3429829 -0.4918920921716572 0.8073419649132989
0.3449828 -0.4868686791099414 0.8098941508900442
0.3469827 -0.48203376358086447 0.8133879750296507
0.3489826 -0.4770775682700711 0.8167084098354741
0.3509825 -0.47190371066053116 0.8196991469893917
0.3529824 -0.46674380588749254 0.8226098009135884
0.3549823 -0.4621016923639645 0.8257714033126848
0.3569822 -0.45666219594810165 0.8288499267814926
0.3589821 -0.45150885905685584 0.8312673518469196
0.360982 -0.44665987188157763 0.833912084909994
0.3629819 -0.44151057641773694 0.8369203583011708
0.3649818 -0.43646538216490666 0.8395783990992292
0.3669817 -0.43127354192119915 0.8423687324988057
0.3689816 -0.4261882352655826 0.844803771148411
0.3709815 -0.4207506942233947 0.8476347034835271
0.3729814 -0.41574339345808964 0.850316400032164
0.3749813 -0.410905425819388 0.8529040755164178
0.3769812 -0.40558038496486876 0.8555597715059078
0.3789811 -0.4000494636449997 0.8580948012948583
0.380981 -0.3950295028021555 0.8603605271317549
0.3829809 -0.38991134171152625 0.862780292095152
0.3849808 -0.3842350423919344 0.8650269290924946
0.3869807 -0.3788826550475814 0.8678716336059932
0.3889806 -0.37357768113989703 0.8698857503797056
0.3909805 -0.3680021679738512 0.8722493066484592
0.3929804 -0.36265146370964085 0.8743343741444198
0.3949803 -0.3570791480787389 0.8762066446007232
0.3969802 -0.3513715458636389 0.8784134556629866
0.3989801 -0.34569151026215567 0.8806780173844064
0.40098 -0.33993577812996967 0.8825884105189594
0.4029799 -0.3344370927122687 0.8847464076134849
0.4049798 -0.32896030361070405 0.887049977647455
0.4069797 -0.32304922246891166 0.8890211812625608
0.4089796 -0.31759035114839007 0.8915350015739096
0.4109795 -0.3117477884029183 0.893340831796123
0.4129794 -0.3058460037992405 0.8952867930236186
0.4149793 -0.30039150720267355 0.8973858026777886
0.4169792 -0.2944265911867087 0.8995159394727439
0.4189791 -0.2887986736187563 0.9016233437429299
0.420979 -0.2830808407206056 0.9032780533507433
0.4229789 -0.2771907138076435 0.9047031502514992
0.4249788 -0.271610156684007 0.906762633438181
0.4269787 -0.2659699279640215 0.9085784320805994
0.4289786 -0.25996010847116513 0.9104752848238804
0.4309785 -0.2546781568537843 0.9120468737732402
0.4329784 -0.24861421217900487 0.9138363450703441
0.4349783 -0.24288845610482096 0.9156219340381123
0.4369782 -0.23675550679311963 0.9171443027934836
0.4389781 -0.23130867634276964 0.9184681029668358
0.440978 -0.2252482410962077 0.9203987185545311
0.4429779 -0.21973009561182888 0.9218597253845453
0.4449778 -0.21357631915556774 0.9232871014280565
0.4469777 -0.20784222610328787 0.9244489772994173
0.4489776 -0.20162013395846637 0.9258527331896759
0.4509775 -0.19594564411142756 0.9271364163744467
0.4529774 -0.1897784809797595 0.9282654152471891
0.4549773 -0.18424920641417838 0.9298142993108294
0.4569772 -0.17830312058887812 0.9309554645829862
0.4589771 -0.17203890951924147 0.9320278215990705
0.460977 -0.16610060741414467 0.9334861355247448
0.4629769 -0.16004462064056713 0.9341666182591919
0.4649768 -0.1540303684157103 0.935092068488528
0.4669767 -0.1474310193279941 0.9359538323233993
0.4689766 -0.1416191898755143 0.9370609196969774
0.4709765 -0.13581997758143632 0.9376629440531075
0.4729764 -0.1296128205879593 0.9387285608615243
0.4749763 -0.12365980534504817 0.9398132812718202
0.4769762 -0.11715954711940213 0.9405870909093867
0.4789761 -0.1111975256770949 0.9415656289211847
0.480976 -0.10504134524996435 0.9425273214906429
0.4829759 -0.09883037254841832 0.9433662567814823
0.4849758 -0.09263007167602896 0.9441197535499978
0.4869757 -0.08652143122268813 0.9447187284166514
0.4889756 -0.08029499201494503 0.9454089646493156
0.4909755 -0.07417287467322395 0.946198243979057
0.4929754 -0.06803681601505224 0.9465770366075168
0.4949753 -0.06224427221828593 0.9473926301071661
0.4969752 -0.05608417484539706 0.9476158618891951
0.4989751 -0.04979854064726805 0.9483081097215964
0.500975 -0.043936019126925616 0.9485111143954726
0.5029749 -0.03789501992542499 0.949041427528219
0.5049748 -0.03182832541081534 0.9489991901367241
0.5069747 -0.025496680416968003 0.9492500790284665
0.5089746 -0.020117941238925352 0.9494275047522123
0.5109745 -0.013344852765127185 0.9495645769157861
0.5129744 -0.00746509247706496 0.9496051502884302
0.5149743 -0.0013226548330755872 0.9498410591407886
0.5169742 0.005072109751343971 0.9497834768663584
0.5189741 0.011009105365598095 0.94972464305319
0.520974 0.017146780325955423 0.9497759823191184
0.5229739 0.023453456680994786 0.9493488067202085
0.5249738 0.02960627068614331 0.9490183602256383
0.5269737 0.03582853293720336 0.9486990446497696
0.5289736 0.04193106797856217 0.9483598203112007
0.5309735 0.04864248092727879 0.9480483149150745
0.5329734 0.05480547517530468 0.9472811358789606
0.5349733 0.06111712786317554 0.9467321172911366
0.5369732 0.0676838224820302 0.9461956856095101
0.5389731 0.07392863024611546 0.9457140196330379
0.540973 0.0804465466649608 0.9453322777631744
0.5429729 0.0867908683807601 0.9448027893088784
0.5449728 0.09303513875587609 0.9440448063976528
0.5469727 0.09969588658992713 0.9432614070551629
0.5489726 0.10621450373630406 0.9430593321723952
0.5509725 0.1126176625853119 0.9419886776255513
0.5529724 0.11922708979552428 0.9415791393851018
0.5549723 0.12544163456108634 0.9409483139181152
0.5569722 0.13185951163914458 0.9399855932553932
0.5589721 0.1383099657273215 0.9392501130909056
0.560972 0.14510409716461595 0.9385060860361425
0.5629719 0.15139383072312082 0.9378661745071303
0.5649718 0.15775617415606405 0.9374802691213445
0.5669717 0.16389963433743215 0.9365011461832434
0.5689716 0.17033301044491173 0.9353519888401872
0.5709715 0.17646296778241777 0.934241845359726
0.5729714 0.18290057109166646 0.9335561776925853
0.5749713 0.18916799799638842 0.93262849685778
0.5769712 0.1951211863947672 0.9314967903339277
0.5789711 0.20100557515743261 0.9303195413615922
0.580971 0.20715968040973684 0.929070048264522
0.5829709 0.21311115410715273 0.9279970573995312
0.5849708 0.21947147852164328 0.9264713819934467
0.5869707 0.22515110137410851 0.9251804795405133
0.5889706 0.23187219297417497 0.9236312151190066
0.5909705 0.23772240719980867 0.9218326585947035
0.5929704 0.24372583877185008 0.9201021683446222
0.5949703 0.24983718347857828 0.9184563938144374
0.5969702 0.2562712138291918 0.9163889344841962
0.5989701 0.26247192524726715 0.9147042684713071
0.60097 0.2684142480212796 0.9123936488763994
0.6029699 0.27468117780953855 0.9103963826301426
0.6049698 0.28090586378909144 0.9083510949388308
0.6069697 0.28682971799788876 0.9062712687243516
0.6089696 0.29296997354555443 0.9045512838447715
0.6109695 0.29897732695220736 0.9020218892248831
0.6129694 0.3052280242045628 0.8999565126205589
0.6149693 0.3116806839660342 0.8984993673504478
0.6169692 0.31813087953274 0.8960499463451735
0.6189691 0.32480042539587 0.893932226294562
0.620969 0.33077910803019955 0.89170748970361
0.6229689 0.33691489028962945 0.8892947817535526
0.6249688 0.3432056319271952 0.8871125742176883
0.6269687 0.3495477592574277 0.8845878087934536
0.6289686 0.35548960290065934 0.8821104974777211
0.6309685 0.3620296023439231 0.8795123838977201
0.6329684 0.3679349251939113 0.8772759223614128
0.6349683 0.3742645329114422 0.8756064244878478
0.6369682 0.38040333908399127 0.8728587709180415
0.6389681 0.3865121261648862 0.8706868683238146
0.640968 0.3930133863893124 0.8683775343361405
0.6429679 0.39803978962128944 0.8656989844384191
0.6449678 0.4044233096458463 0.8634880259882867
0.6469677 0.4101286970135898 0.8607147305528553
0.6489676 0.4158014408899259 0.8583743777779819
0.6509675 0.42164332851396386 0.8550209165483493
0.6529674 0.4278920690451252 0.8527338597009205
0.6549673 0.4334640027464647 0.8497542088353265
0.6569672 0.43928284434309917 0.8468713026979815
0.6589671 0.4448422524479335 0.8440392942796119
0.660967 0.45047231004224747 0.8404803650857039
0.6629669 0.4558611518792921 0.8373812338195277
0.6649668 0.4610948368207543 0.8340338132636422
0.6669667 0.4668902217339914 0.8310675844678309
0.6689666 0.4725168817712476 0.8278879987539939
0.6709665 0.4774968474707279 0.8246130944225007
0.6729664 0.4836455946016988 0.8205463710000294
0.6749663 0.48918803122123594 0.8169157806423857
0.6769662 0.4950031607353849 0.8134482480748034
0.6789661 0.5007621221479325 0.8101216294693465
0.680966 0.5056908735230596 0.8062048122673943
0.6829659 0.5116359893068192 0.8024904124007557
0.6849658 0.5177295122808975 0.7988527559778946
0.6869657 0.5230631949687565 0.7952123365031998
0.6889656 0.5286165528217758 0.7910675919138915
0.6909655 0.5339883402033035 0.787179083376564
0.6929654 0.5398581705832453 0.7828906754513711
0.6949653 0.5455765465192652 0.7790805531354007
0.6969652 0.5510888481770496 0.7749149452898623
0.6989651 0.556904314202999 0.7712785641471155
0.700965 0.5627424521208406 0.7670057887299292
0.7029649 0.5679589041213222 0.7631011214003395
0.7049648 0.5737404242628539 0.7591614635427897
0.7069647 0.5797271727689828 0.7551563703586476
0.7089646 0.5851633598395256 0.7510441539440752
0.7109645 0.5909663872392789 0.7472636045724094
0.7129644 0.5961924646297605 0.7435596516225123
0.7149643 0.6017170563339931 0.7391217168814543
0.7169642 0.606968356972121 0.7352028493242584
0.7189641 0.6122417005721102 0.7314756050400647
0.720964 0.6172279469860067 0.7268864731869069
0.7229639 0.622224768117621 0.7228382759586416
0.7249638 0.6279076708585608 0.718924016810025
0.7269637 0.6329171882572704 0.7145908116503954
0.7289636 0.6374346566029577 0.7102467213684516
0.7309635 0.642616537133073 0.7060174618061892
0.7329634 0.6475237748578696 0.7017407422055205
0.7349633 0.6521943894973754 0.6970497022383039
0.7369632 0.6567438585014255 0.6928283330429831
0.7389631 0.6616160958866161 0.6881761826899188
0.740963 0.6662417541512896 0.6832071543175154
0.7429629 0.6716645883692665 0.6789296076233757
0.7449628 0.6759427012417938 0.6742950661231262
0.7469627 0.6803000834084332 0.6694004749350371
0.7489626 0.6849282612843226 0.6644865947723743
0.7509625 0.6888691217087869 0.6588593931902827
0.7529624 0.6935786300384237 0.654195130836523
0.7549623 0.6980501891656884 0.6490384590971905
0.7569622 0.7025883992415964 0.6438957821657737
0.7589621 0.7069034097091627 0.6388527028411133
0.760962 0.711323952580153 0.6335457069574374
0.7629619 0.715721547903365 0.6277051468155439
0.7649618 0.7205146980235231 0.6228894766686242
0.7669617 0.7247053405472104 0.6182320125840245
0.7689616 0.7290427539006403 0.6121878067719633
0.7709615 0.7337498339975475 0.6066782779999949
0.7729614 0.7379643130050828 0.6015828715234987
0.7749613 0.7426185507208067 0.5963913389082538
0.7769612 0.7474770690920887 0.5906400193896767
0.7789611 0.7509471481631558 0.5848919465897722
0.780961 0.7554786316026828 0.5798484599449221
0.7829609 0.7598959382760244 0.5742969224046939
0.7849608 0.7639943655829262 0.5687299826705033
0.7869607 0.7683448597793177 0.5634460126782074
0.7889606 0.772762992286378 0.5573293544042391
0.7909605 0.7769808688137576 0.5525963862710913
0.7929604 0.7808065157983198 0.547255276770356
0.7949603 0.7849687115109285 0.5415762320561895
0.7969602 0.7885992133456017 0.5355403114243459
0.7989601 0.7927443275488835 0.5295048889642381
0.80096 0.7970647885118056 0.5249251312785636
0.8029599 0.8004540765057404 0.5191018676301367
0.8049598 0.8041157572710139 0.5134151850971915
0.8069597 0.8077223343693635 0.5077686238497335
0.8089596 0.8110599120475177 0.50195059976549
0.8109595 0.8148046879939763 0.49652234898995545
0.8129594 0.8182711727697326 0.4904479419341259
0.8149593 0.8213378062062786 0.4849500035165504
