! Created with skrf 1.8.0 (http://scikit-rf.org).
# GHz S RI R 50.0 
!freq ReS11 ImS11
0.001 0.996744318750966 -0.006086431855151937
0.0029999 0.9953073549392311 -0.014273687889870594
0.0049998 0.9945292405603575 -0.02154815993183152
0.0069997 0.9934558070605884 -0.02808642033695744
0.0089996 0.9925430674897332 -0.03508304519052864
0.0109995 0.9919416816087314 -0.04244048364710188
0.0129994 0.9917994531427716 -0.04963346625306296
0.0149993 0.9911140168436806 -0.05689898947395315
0.0169992 0.9906652896014225 -0.06395743686944064
0.0189991 0.9900441621320267 -0.07152907690191625
0.020999 0.9891815809768938 -0.0787618569267747
0.0229989 0.9888633714273407 -0.08626016469140116
0.0249988 0.987841682973737 -0.09347911740482667
0.0269987 0.9871928142834347 -0.10077256559856919
0.0289986 0.9864540801501033 -0.10798197225723455
0.0309985 0.9854677840959098 -0.1154276633700735
0.0329984 0.9843190152800635 -0.12264650322958479
0.0349983 0.9834523761204924 -0.13002477106293336
0.0369982 0.9827704436169717 -0.1372151322408458
0.0389981 0.9812166452531341 -0.14498377985737462
0.040998 0.9805230081841204 -0.15168633757720695
0.0429979 0.9790841305249761 -0.15915004676908215
0.0449978 0.977693975829031 -0.16642161644011116
0.0469977 0.9764662778038167 -0.17362980597828026
0.0489976 0.9752378950172723 -0.18070742089585423
0.0509975 0.9734421744135664 -0.18806914446730882
0.0529974 0.9720908985177952 -0.19500346989909287
0.0549973 0.970560287440511 -0.20261607553647323
0.0569972 0.9689824485844287 -0.20966374191143963
0.0589971 0.9672608465270554 -0.21696039612611423
0.060997 0.9653108732086051 -0.22404294939679595
0.0629969 0.9638051117982519 -0.23141184978569304
0.0649968 0.961748940560363 -0.23837915652149372
0.0669967 0.9602304587123511 -0.24558314781224538
0.0689966 0.958152392253101 -0.25279521037500546
0.0709965 0.955866866434821 -0.2598691051877409
0.0729964 0.9543678470452459 -0.2671798288308622
0.0749963 0.9521562213412994 -0.2739637493128224
0.0769962 0.9499882616772735 -0.281130860927369
0.0789961 0.947816944846231 -0.28803564265671544
0.080996 0.9455527884262368 -0.2952099639729982
0.0829959 0.9431265710587805 -0.3021318289530027
0.0849958 0.9411172298205248 -0.30931038598888166
0.0869957 0.9384970048312011 -0.31616939381822545
0.0889956 0.9363766547596317 -0.32298328772818685
0.0909955 0.9337463882474896 -0.3298475862252905
0.0929954 0.9313980556803151 -0.3368480288773188
0.0949953 0.928731788810141 -0.3436686536608491
0.0969952 0.9262129193247635 -0.3505354198013677
0.0989951 0.92327724931363 -0.35727572776573857
0.100995 0.9204985780218651 -0.3641644458955559
0.1029949 0.9178193662944244 -0.3712669750943613
0.1049948 0.9150534030415387 -0.37727929669970733
0.1069947 0.9119312989720122 -0.3840862636544173
0.1089946 0.9092695807521392 -0.3908971517470348
0.1109945 0.9067199546977585 -0.397151020101315
0.1129944 0.9034545326187999 -0.4038889687323297
0.1149943 0.9001409324698405 -0.41051255188435615
0.1169942 0.896995449320276 -0.41713896958693125
0.1189941 0.8935088683500947 -0.4233341470624746
0.120994 0.8904351933945049 -0.4297154002349309
0.1229939 0.8870430279749136 -0.43647936533818993
0.1249938 0.8835920991247934 -0.4431289467925171
0.1269937 0.8801088681986139 -0.4494601305420463
0.1289936 0.8764078431451999 -0.4558354066211304
0.1309935 0.8732270590891675 -0.4621415659597899
0.1329934 0.8694897473136256 -0.4686141187990804
0.1349933 0.8661073929324417 -0.4749227277023301
0.1369932 0.8620411975983238 -0.481200915300478
0.1389931 0.858054716084425 -0.4874995448765777
0.140993 0.8542713612550188 -0.4938882315568127
0.1429929 0.8507898910364126 -0.50057191379437
0.1449928 0.8466765976639177 -0.506718912036094
0.1469927 0.8429427388575157 -0.5126381619312269
0.1489926 0.8389905524285295 -0.5190749024286547
0.1509925 0.8351344906610426 -0.5253331770431128
0.1529924 0.8311405964112102 -0.531424508863541
0.1549923 0.8272915641777677 -0.5375036923957707
0.1569922 0.8232766503856098 -0.5437345242331582
0.1589921 0.8194267960791206 -0.5498259736769173
0.160992 0.8152931433857185 -0.5556189529256115
0.1629919 0.8111243585458445 -0.5614746925307642
0.1649918 0.8070231802831965 -0.5674207564340443
0.1669917 0.802767134270192 -0.5733633945498823
0.1689916 0.7988303652817297 -0.5786629809438414
0.1709915 0.7942974845480559 -0.5845149206232065
0.1729914 0.7904778506459335 -0.5904454745990034
0.1749913 0.7855957539711932 -0.5961757707396786
0.1769912 0.7813970812264628 -0.6018564372796267
0.1789911 0.7770287465598374 -0.6069664802660536
0.180991 0.7726012975261223 -0.6126796511189756
0.1829909 0.7681548267479811 -0.6181531388703146
0.1849908 0.7633037411933307 -0.6234943475788867
0.1869907 0.7587753557082327 -0.6287408255948256
0.1889906 0.7541468841758714 -0.6338004043617089
0.1909905 0.7494125794214943 -0.6388135067249295
0.1929904 0.7445926538374565 -0.6436738726311333
0.1949903 0.7397838443254353 -0.648743779673917
0.1969902 0.734990452709508 -0.6537265959216982
0.1989901 0.7298819607861231 -0.658946457966006
0.20099 0.7246917335379981 -0.6642115588270661
0.2029899 0.7198066322901671 -0.6691528689123192
0.2049898 0.714422978359922 -0.6744003997942012
0.2069897 0.7096082973450027 -0.6792873427612017
0.2089896 0.7044501776637656 -0.6841612542769898
0.2109895 0.6989255997366983 -0.6889615932696014
0.2129894 0.6938802510768515 -0.694017689624459
0.2149893 0.6883252071414947 -0.6990370738150513
0.2169892 0.6829149812309057 -0.7040294605639725
0.2189891 0.677670034090804 -0.7089323637816265
0.220989 0.6721703375413033 -0.7139501102778012
0.2229889 0.6666791057994602 -0.7184918229092004
0.2249888 0.6614932826847626 -0.7230072743845615
0.2269887 0.6562547083082857 -0.7278967497674018
0.2289886 0.6509748921915329 -0.7325179725299438
0.2309885 0.6458618267496504 -0.7373640892066027
0.2329884 0.6403029654062122 -0.742373629764403
0.2349883 0.6347930628672337 -0.7461260049424683
0.2369882 0.6291661004056579 -0.7512860190194686
0.2389881 0.6240471675926358 -0.7553843799608309
0.240988 0.618339818978757 -0.7598974421442382
0.2429879 0.6131115105630941 -0.7643160930577443
0.2449878 0.6074194780154705 -0.768434087000852
0.2469877 0.6020707998617738 -0.7723888850622311
0.2489876 0.5963031334425317 -0.7769494031190579
0.2509875 0.5910903429782574 -0.7807216067221796
0.2529874 0.5853960930221088 -0.7850776863108043
0.2549873 0.5803474707695571 -0.7889239020694615
0.2569872 0.574339004832573 -0.7925944413376076
0.2589871 0.56857035623341 -0.7965874660964456
0.260987 0.5631048809696393 -0.8005117250509738
0.2629869 0.5572518166853685 -0.8042010306890283
0.2649868 0.5514843585227086 -0.80773195259552
0.2669867 0.5454916792994897 -0.8112153332068133
0.2689866 0.5393810162460568 -0.8146149107215481
0.2709865 0.5337517132047385 -0.8181737893776335
0.2729864 0.527924537206542 -0.8217640172220864
0.2749863 0.5218733058706291 -0.8249753413225593
0.2769862 0.5158213136028155 -0.8289624560187906
0.2789861 0.5097264464629788 -0.8320656497578421
0.280986 0.5035924592181409 -0.8354496521066596
0.2829859 0.49727731378308104 -0.8387770220001464
0.2849858 0.49148643819294086 -0.8421013954785184
0.2869857 0.48516089370746407 -0.8453957265838278
0.2889856 0.4792131899911991 -0.8481763480243645
0.2909855 0.4726481057603566 -0.8514447621182956
0.2929854 0.46661244249520256 -0.854741453243464
0.2949853 0.4600952979258578 -0.8577847535033383
0.2969852 0.45461125183298995 -0.8613216197952954
0.2989851 0.4481558958254289 -0.8645335562856089
0.300985 0.4419701134678041 -0.8670575896631412
0.3029849 0.43594196005913 -0.8702044088374851
0.3049848 0.4294355136765378 -0.8730616206267869
0.3069847 0.4235686770137567 -0.8757128775432175
0.3089846 0.4175255728730878 -0.8788766388505165
0.3109845 0.41104652695486155 -0.8818300541837838
0.3129844 0.40446396709272114 -0.8845373736139183
0.3149843 0.3987071041175206 -0.8871550061329494
0.3169842 0.3927971346366669 -0.8899578061319
0.3189841 0.38626825258053815 -0.892240008919133
0.320984 0.3804522636547539 -0.8948345307339223
0.3229839 0.3741295318517162 -0.8974117104530211
0.3249838 0.36790871912330453 -0.8996868620698112
0.3269837 0.3614860886216903 -0.9019567656317837
0.3289836 0.35542779876159586 -0.9043533978559837
0.3309835 0.34940737495560276 -0.906431034293355
0.3329834 0.3426988742220739 -0.9083549595268114
0.3349833 0.3367129298890014 -0.9108097860297668
0.3369832 0.3302713572342061 -0.9125584356703595
0.3389831 0.3237900930626441 -0.9145750291725092
0.340983 0.31775943965161113 -0.9164789296016492
0.3429829 0.31120318229489125 -0.9185862202514166
0.3449828 0.3048686479059585 -0.9204436972201029
0.3469827 0.29873135979636206 -0.9217207021140823
0.3489826 0.2921406519053391 -0.9235271015242991
0.3509825 0.2858387690227378 -0.9255764465308803
0.3529824 0.2795043181611772 -0.9271145704643847
0.3549823 0.27311286136807716 -0.9286752247566651
0.3569822 0.266326080606862 -0.9300396461945216
0.3589821 0.25971483096438536 -0.9314423706773673
0.360982 0.25332892116227684 -0.9329527421254047
0.3629819 0.246762481771662 -0.9344003539144411
0.3649818 0.24031661547097244 -0.9355331153190718
0.3669817 0.23357765344123876 -0.9366349038584386
0.3689816 0.22684158372521168 -0.9384518514822171
0.3709815 0.22062928390559058 -0.9397573926779268
0.3729814 0.21383618399385232 -0.9409681779285396
0.3749813 0.2072836408804562 -0.9424321538995483
0.3769812 0.2009393293570489 -0.9433978275461551
0.3789811 0.1941213004079438 -0.9448725126018843
0.380981 0.18791729222615636 -0.9462014763036016
0.3829809 0.1814707359046714 -0.9470947131416888
0.3849808 0.17489249050950098 -0.9482089391717488
0.3869807 0.16818305946445922 -0.9493591319186396
0.3889806 0.16188093516322932 -0.9499244315596831
0.3909805 0.15555531983096046 -0.9512716208302252
0.3929804 0.14908558965481486 -0.9519431092037021
0.3949803 0.1429394957620023 -0.9529906908299765
0.3969802 0.13596111577764625 -0.953583184182623
0.3989801 0.1301902621283115 -0.954404184678029
0.40098 0.12328397058506291 -0.9549671774019554
0.4029799 0.11741544522854933 -0.9558341439359086
0.4049798 0.11070608590395874 -0.9564385355696234
0.4069797 0.10445681504116466 -0.9569716624637903
0.4089796 0.09840962266123808 -0.9572609306051012
0.4109795 0.09196021969740309 -0.9577245140914946
0.4129794 0.08519559169018998 -0.9579057755589431
0.4149793 0.07925997291979653 -0.9582539213552
0.4169792 0.07278557163237868 -0.9584730231476414
0.4189791 0.06630348613449479 -0.9587133030566686
0.420979 0.060273920042489645 -0.958978347754176
0.4229789 0.05363440546118968 -0.9589870321199218
0.4249788 0.047289587311279926 -0.9590723600700993
0.4269787 0.04097607627003623 -0.9589527108598589
0.4289786 0.03446595836292499 -0.958951216482711
0.4309785 0.02840730037042498 -0.959161288844166
0.4329784 0.021755274152913562 -0.9589348106796928
0.4349783 0.015392719335718737 -0.9586490489836044
0.4369782 0.009759310092539043 -0.9583132842785329
0.4389781 0.0025898837483841926 -0.9584185946778121
0.440978 -0.003780931709841881 -0.9582197417084969
0.4429779 -0.009630789517959835 -0.9576298836024922
0.4449778 -0.016381911966350228 -0.9574992999487445
0.4469777 -0.02290149035420183 -0.956991963860097
0.4489776 -0.028948702014785187 -0.9569261386116154
0.4509775 -0.03502410758337893 -0.9559975352971921
0.4529774 -0.041683170649591934 -0.9556648742429641
0.4549773 -0.04796102530067611 -0.9555654905212256
0.4569772 -0.05406940861648024 -0.9543649898833715
0.4589771 -0.06015857174142899 -0.9538921404343723
0.460977 -0.06657285943511289 -0.9535179789054422
0.4629769 -0.07246652519485579 -0.9526956681347786
0.4649768 -0.0787057224234785 -0.9521126429619488
0.4669767 -0.08489678519386448 -0.951160666574157
0.4689766 -0.09090598209700054 -0.9507701795047406
0.4709765 -0.09687613543264842 -0.9494895957260789
0.4729764 -0.10315038744250986 -0.9485791196279475
0.4749763 -0.10939748813958888 -0.9477571894406628
0.4769762 -0.11563145108809189 -0.9470097018346645
0.4789761 -0.12130887550747325 -0.9458308987167766
0.480976 -0.12719597254780646 -0.9449149259242989
0.4829759 -0.13357549670004415 -0.9435472466602381
0.4849758 -0.13943045373033025 -0.942604574917214
0.4869757 -0.14596336510410945 -0.9416568113386908
0.4889756 -0.15196579510723712 -0.9400227763963085
0.4909755 -0.15782768408317152 -0.9386695515708037
0.4929754 -0.16401647542527342 -0.9373351584980139
0.4949753 -0.17001906107568487 -0.9357347449381042
0.4969752 -0.17654837340998822 -0.9342432181751059
0.4989751 -0.18192687044657146 -0.9326700222176886
0.500975 -0.1882886773474548 -0.9308201070411364
0.5029749 -0.19413665302909866 -0.9297637000475004
0.5049748 -0.2004123665154382 -0.9278821474666012
0.5069747 -0.2065961456436236 -0.9265863772603073
0.5089746 -0.21256525164661288 -0.9248219903528203
0.5109745 -0.2184411151816767 -0.923710795690499
0.5129744 -0.22446841233934772 -0.9222641429305232
0.5149743 -0.22999581621786264 -0.9205175097831166
0.5169742 -0.236012733349028 -0.919117336219285
0.5189741 -0.2417738868363603 -0.9174975447339776
0.520974 -0.2482729641893111 -0.9158674308926693
0.5229739 -0.25385257562814845 -0.9140310698612468
0.5249738 -0.259479882837162 -0.9120471200161885
0.5269737 -0.26553087475125864 -0.9104792607663307
0.5289736 -0.2713708970342792 -0.9087850236736902
0.5309735 -0.2768140744244273 -0.9066997157844281
0.5329734 -0.2827050033023987 -0.9047376709451902
0.5349733 -0.2886598278555764 -0.9029633562027016
0.5369732 -0.2942359092717556 -0.9011757048738634
0.5389731 -0.29973095477743456 -0.8993238953108256
0.540973 -0.30525149100673055 -0.8971402159909656
0.5429729 -0.3107615972895088 -0.895011841336378
0.5449728 -0.316140590024616 -0.8926063273443114
0.5469727 -0.32109441887953605 -0.8905823713688732
0.5489726 -0.3268351691206116 -0.8886468913181632
0.5509725 -0.33186791304359353 -0.886274920588737
0.5529724 -0.3376264484938567 -0.8841890833565189
0.5549723 -0.34312629735541145 -0.8819767437745988
0.5569722 -0.34832692323412456 -0.879140258987874
0.5589721 -0.3536693161898125 -0.8767003211413887
0.560972 -0.3586630040343353 -0.8741409970094958
0.5629719 -0.3637045654741776 -0.871597737041223
0.5649718 -0.3688114679870143 -0.8688308631447329
0.5669717 -0.37447143206023664 -0.8660888295222765
0.5689716 -0.3796230289888586 -0.8632755086075062
0.5709715 -0.3852884492887337 -0.8604567708627645
0.5729714 -0.39049709405752786 -0.8578221772928982
0.5749713 -0.39552030651219133 -0.8543178101988531
0.5769712 -0.4007027432814401 -0.8519121264296182
0.5789711 -0.4068654193502132 -0.8489265463450294
0.580971 -0.41198435046309934 -0.8463687379817897
0.5829709 -0.41700734090372393 -0.843612611328391
0.5849708 -0.42257018408870756 -0.8406169985378467
0.5869707 -0.42828809784272265 -0.8377820172174408
0.5889706 -0.4331322131966891 -0.8351281564652675
0.5909705 -0.4382106538611749 -0.8320168641762764
0.5929704 -0.4432606331303658 -0.8293392815303522
0.5949703 -0.44883812619849256 -0.8262312413616701
0.5969702 -0.45363272359161705 -0.8235081864027536
0.5989701 -0.4589817928904176 -0.8205012132645021
0.60097 -0.46388352255234766 -0.8176539672375364
0.6029699 -0.4688793245797724 -0.8143985850991364
0.6049698 -0.4738182582732548 -0.8115052474245928
0.6069697 -0.4791340247501069 -0.8087127758130779
0.6089696 -0.4840828894247869 -0.8052864434096565
0.6109695 -0.48845741992100866 -0.8023437515794408
0.6129694 -0.49336816507332165 -0.7992980096443241
0.6149693 -0.4984755774992693 -0.7960179444492987
0.6169692 -0.5032139369245046 -0.7931386363857577
0.6189691 -0.5075027468789777 -0.7899262079645504
0.620969 -0.5120782615930133 -0.7868327919158754
0.6229689 -0.5169584699771069 -0.783470405910699
0.6249688 -0.52139938576376 -0.7802729466395177
0.6269687 -0.5259882524536966 -0.7770974971845274
0.6289686 -0.5307562660229139 -0.7731516405955998
0.6309685 -0.5348867368836716 -0.7702162129542367
0.6329684 -0.5394800061581233 -0.7666053755831558
0.6349683 -0.5438561331409112 -0.7623645663001982
0.6369682 -0.5478984428193139 -0.759047656700656
0.6389681 -0.5522909384020531 -0.7549998134629641
0.640968 -0.5571384427839561 -0.7512500913523772
0.6429679 -0.5612385299015766 -0.7470867156772036
0.6449678 -0.5663715072167045 -0.7435223188440051
0.6469677 -0.5708177440498476 -0.7395941970477089
0.6489676 -0.5752572714428003 -0.7361669553251632
0.6509675 -0.5793984202607856 -0.7320514983971143
0.6529674 -0.5841145807186564 -0.7284401991158561
0.6549673 -0.5885278342878947 -0.7249157383064525
0.6569672 -0.5924240700601591 -0.7210689504454998
0.6589671 -0.5974629325114525 -0.7171238965886192
0.660967 -0.6019162695796912 -0.713232743543413
0.6629669 -0.6062481613448594 -0.7091304916460245
0.6649668 -0.6107981612524295 -0.7057798173076621
0.6669667 -0.615113945662536 -0.7021750600761933
0.6689666 -0.6194726973039598 -0.6982113736783723
0.6709665 -0.6235905507379385 -0.6939912871610336
0.6729664 -0.6281183664127269 -0.6903814713471835
0.6749663 -0.6314140325658022 -0.6859917885755432
0.6769662 -0.6358083671715318 -0.6825543660855692
0.6789661 -0.6398882007415846 -0.6780465376956296
0.680966 -0.6442102251450781 -0.6748577712695583
0.6829659 -0.6480213979736857 -0.6709447331629945
0.6849658 -0.6519475615090017 -0.6665974648109544
0.6869657 -0.6558303156679988 -0.6625659778636516
0.6889656 -0.6598669069777896 -0.659189535089993
0.6909655 -0.6635019536456174 -0.6550525055624385
0.6929654 -0.6673899184409937 -0.6510798109541995
0.6949653 -0.6711734078411761 -0.647157815629402
0.6969652 -0.6748202827954681 -0.6432734994360614
0.6989651 -0.6783144872753003 -0.6394757917287419
0.700965 -0.6816806263303239 -0.6351657831860347
0.7029649 -0.68542962758961 -0.6312286104050812
0.7049648 -0.6887457446660786 -0.6265534382183822
0.7069647 -0.6920373681122136 -0.6224325032641955
0.7089646 -0.6951254936678719 -0.6183067677290813
0.7109645 -0.6989386298759671 -0.613457943777469
0.7129644 -0.7020405337203821 -0.6091519637226137
0.7149643 -0.7052275980661518 -0.6043942908533986
0.7169642 -0.7086509317300884 -0.6003528354983794
0.7189641 -0.712345663796134 -0.595903988724569
0.720964 -0.7159089871186575 -0.5912632918445302
0.7229639 -0.719039007121432 -0.5864932772447126
0.7249638 -0.7219039655113916 -0.5820674923044822
0.7269637 -0.7252953524889598 -0.5770747373650577
0.7289636 -0.7286167174218671 -0.5725066063121963
0.7309635 -0.7321908650840607 -0.5677908498447539
0.7329634 -0.7356813401278275 -0.5630321695147812
0.7349633 -0.7388161256877158 -0.5586643357664264
0.7369632 -0.7425300950506444 -0.554018230057804
0.7389631 -0.7456932214134657 -0.549190666684025
0.740963 -0.749246139563661 -0.5447187261227651
0.7429629 -0.7522310535649714 -0.5399021158010961
0.7449628 -0.7552375995147511 -0.5353510590763467
0.7469627 -0.7588175900574843 -0.5310428824968648
0.7489626 -0.7619780055973456 -0.5263413478928928
0.7509625 -0.7647984701694952 -0.5217004730863445
0.7529624 -0.7684817691433521 -0.5172425095479871
0.7549623 -0.7715158538358323 -0.512502682968561
0.7569622 -0.7745394403084548 -0.5081964951890816
0.7589621 -0.7772656899481005 -0.5032957327733566
0.760962 -0.7803713600268295 -0.49819694434381157
0.7629619 -0.7829202430587334 -0.493941393417748
0.7649618 -0.7857455264838635 -0.4892031848418664
0.7669617 -0.7882296147640319 -0.4848152971062108
0.7689616 -0.7910821524736411 -0.4799855440593114
0.7709615 -0.7938067077569602 -0.4753687152513664
0.7729614 -0.7963798871174667 -0.4707445402744262
0.7749613 -0.7992626321585101 -0.46600336599928543
0.7769612 -0.8016711070837094 -0.4612695749705985
0.7789611 -0.8043694618473477 -0.4564533842090141
0.780961 -0.8066614402550313 -0.4518580888940663
0.7829609 -0.8094255245813191 -0.4470339287133718
0.7849608 -0.8114874383281837 -0.4420090141148008
0.7869607 -0.8141427483709794 -0.43716949875446476
0.7889606 -0.8166318843807007 -0.4322612948539879
0.7909605 -0.8189677284852271 -0.42752038413147986
0.7929604 -0.821495935741084 -0.4222125074703542
0.7949603 -0.8231629989640001 -0.41716028800957344
0.7969602 -0.8255713551520173 -0.41222308087580434
0.7989601 -0.8278943394307632 -0.4074255436332067
0.80096 -0.8295772106086823 -0.4020936819443656
0.8029599 -0.8318763497153353 -0.3972309055226803
