! Created with skrf 1.8.0 (http://scikit-rf.org).
# GHz S RI R 50.0 
!freq ReS11 ImS11
0.001 0.9965914476477424 -0.005843341000844986
0.0029999 0.995055855201006 -0.014107980961295265
0.0049998 0.9944654992155291 -0.021256125301284283
0.0069997 0.9936202023626846 -0.02796077844718906
0.0089996 0.992617906584468 -0.03478075055652547
0.0109995 0.992122947444766 -0.04220676330669644
0.0129994 0.991878047626764 -0.049296303786838164
0.0149993 0.9911668559930451 -0.05677998226775573
0.0169992 0.9906624290103512 -0.0638402498986636
0.0189991 0.9902062107968587 -0.07124286905671526
0.020999 0.9896133109144961 -0.07866334249699769
0.0229989 0.9888292356203545 -0.08572084400911995
0.0249988 0.9880201082140694 -0.09309163614755558
0.0269987 0.9873643426842552 -0.1003238664905805
0.0289986 0.9867256818256912 -0.1077198375145309
0.0309985 0.9856475656129912 -0.11496363758364181
0.0329984 0.9845714931398667 -0.12211295125839419
0.0349983 0.9838019050382747 -0.12929881218108455
0.0369982 0.9830123607547182 -0.1367252039261604
0.0389981 0.9815361976026042 -0.14413121589787786
0.040998 0.9810424836935332 -0.15119340828620076
0.0429979 0.9793271282506385 -0.15840523222057168
0.0449978 0.9781345630289472 -0.1658209608917824
0.0469977 0.9769252376549118 -0.17302065219656404
0.0489976 0.9756317766932285 -0.17997929503308968
0.0509975 0.9739473351776979 -0.18736565594502494
0.0529974 0.9725964905382967 -0.1944606310244516
0.0549973 0.9709993439912517 -0.20174397963230825
0.0569972 0.9695212203730779 -0.20892458004113693
0.0589971 0.967852848874033 -0.21618249628974437
0.060997 0.9659631485102582 -0.22333052469033784
0.0629969 0.9643908419641846 -0.2306380551258696
0.0649968 0.9624358149587078 -0.23767692758970135
0.0669967 0.9609055707442608 -0.24484197000621047
0.0689966 0.9589405564849861 -0.2519986359476599
0.0709965 0.9566399217131841 -0.2591217975504715
0.0729964 0.9551488092601848 -0.2664396410580201
0.0749963 0.9530234667883564 -0.2731767551274907
0.0769962 0.9508388977266328 -0.28026892358470673
0.0789961 0.948799418963157 -0.2873211793800319
0.080996 0.946565557752979 -0.2942984446477184
0.0829959 0.9442154679632925 -0.3013132893625962
0.0849958 0.9422554477042785 -0.3084050608869462
0.0869957 0.939610504648247 -0.3152365810516305
0.0889956 0.9374040698352175 -0.32215537397659394
0.0909955 0.9348705679166728 -0.32894690470804333
0.0929954 0.9326793879738384 -0.3358660843730674
0.0949953 0.9300547420469536 -0.3427822076272815
0.0969952 0.9274044035194109 -0.3499520353604407
0.0989951 0.9247488634358068 -0.35607771662521676
0.100995 0.9219458802700584 -0.3632368204427511
0.1029949 0.9193199723097437 -0.3702370763776659
0.1049948 0.9165064600355272 -0.37662508325051736
0.1069947 0.9136620050256155 -0.3830270955123434
0.1089946 0.9107869270520635 -0.3902265940426372
0.1109945 0.908347901087512 -0.39649169175620386
0.1129944 0.9050840692244797 -0.40317915941320714
0.1149943 0.9018676632129623 -0.4098119902994045
0.1169942 0.8988362794752016 -0.4162337406791302
0.1189941 0.8953191165044434 -0.42244578305630925
0.120994 0.8923574156247019 -0.4290343398517359
0.1229939 0.888930239367528 -0.4357579127624615
0.1249938 0.8855181823570543 -0.44243133666898354
0.1269937 0.8822560042710642 -0.4487066741959249
0.1289936 0.8784394219205501 -0.455081907489828
0.1309935 0.8753195074700423 -0.4614182256432505
0.1329934 0.8717549536827426 -0.4679556543322244
0.1349933 0.8682965476228196 -0.4742671632327325
0.1369932 0.8643675708507785 -0.4805471493474017
0.1389931 0.8605129028314163 -0.4868697132745128
0.140993 0.8567199947585363 -0.493410013827074
0.1429929 0.8532596264921842 -0.49996990741507447
0.1449928 0.849297940902264 -0.5061309366773136
0.1469927 0.8454694837339638 -0.512212692188245
0.1489926 0.841608818971237 -0.5186173881468372
0.1509925 0.8378329480306761 -0.5249421317604711
0.1529924 0.8339810819746185 -0.5311102773755715
0.1549923 0.8302590577792593 -0.5375137676725327
0.1569922 0.8261830483865589 -0.5436081544990509
0.1589921 0.8223486053590231 -0.5496155709378839
0.160992 0.8181811329524837 -0.5554265119541404
0.1629919 0.8141705203393556 -0.561206351426195
0.1649918 0.810005656280222 -0.5672085706898519
0.1669917 0.8057751022007734 -0.573428479006807
0.1689916 0.801997808508497 -0.5787576118120095
0.1709915 0.7976395257589902 -0.5843514756458317
0.1729914 0.7935066159497284 -0.5905487113330499
0.1749913 0.7890338300632996 -0.596240617589284
0.1769912 0.7849273723861492 -0.6018355108396712
0.1789911 0.7802755983938645 -0.607219587376173
0.180991 0.77585863398015 -0.6130598450155094
0.1829909 0.7714937481862878 -0.6184459832955078
0.1849908 0.7669123977900254 -0.6237594973043107
0.1869907 0.7621397394822502 -0.6289743310763164
0.1889906 0.7578188059629997 -0.6342929721872841
0.1909905 0.7532130052101697 -0.6392259840337566
0.1929904 0.7482432828827947 -0.6442703512964544
0.1949903 0.7435624707914253 -0.649433033146191
0.1969902 0.738758567294169 -0.6545893492303804
0.1989901 0.7337191185200241 -0.6597707073061535
0.20099 0.7285362850085066 -0.6651368946135081
0.2029899 0.7236644139318082 -0.670441421769997
0.2049898 0.7184637150342378 -0.6753833791410412
0.2069897 0.7136772277830468 -0.6803252470637413
0.2089896 0.7082654163059899 -0.6853009403261723
0.2109895 0.7030082096703175 -0.690288296848349
0.2129894 0.697880342561951 -0.6952760435923352
0.2149893 0.6924198138900988 -0.7003325288084133
0.2169892 0.6870745935829806 -0.7055783430896719
0.2189891 0.6817259657820186 -0.7105125870752647
0.220989 0.6764750139495012 -0.7153371205417545
0.2229889 0.671272687709959 -0.7200055183848215
0.2249888 0.6661812574927612 -0.724966388002313
0.2269887 0.6607218125858756 -0.7298884150496939
0.2289886 0.655468660503289 -0.7344556844250144
0.2309885 0.6502287338672179 -0.7393537518613261
0.2329884 0.6447143718198526 -0.7441633066440184
0.2349883 0.6391518460819848 -0.7484769534456344
0.2369882 0.6337259285467636 -0.7534639070077714
0.2389881 0.6282698822245817 -0.7580342453720499
0.240988 0.6228531736494852 -0.7622318753806173
0.2429879 0.6177738602087358 -0.7668758521224914
0.2449878 0.6120495726513111 -0.7709375441193105
0.2469877 0.6065805188132875 -0.7753175839390283
0.2489876 0.6010668116726497 -0.7799533226270671
0.2509875 0.5956412494603118 -0.7837061618775607
0.2529874 0.5900097994189264 -0.7880700009079648
0.2549873 0.5849400554951099 -0.7920936145042348
0.2569872 0.5790370042713293 -0.795692043909981
0.2589871 0.5731907749299274 -0.7998918868359217
0.260987 0.5676253933947126 -0.8039736197421059
0.2629869 0.5617446421323936 -0.8078233803999497
0.2649868 0.5560826029088961 -0.8115363402810947
0.2669867 0.5500939165328086 -0.8152545938769625
0.2689866 0.5441984553425057 -0.8184311690854376
0.2709865 0.5384888083645376 -0.8221334886263824
0.2729864 0.5325276199379915 -0.8256352817285472
0.2749863 0.5265341360222859 -0.8294314568415407
0.2769862 0.5205644344099738 -0.8332874066344415
0.2789861 0.5144809954022201 -0.8364486481504995
0.280986 0.5083293457797561 -0.8398677497046919
0.2829859 0.5022194170269775 -0.8433502464229518
0.2849858 0.49623208852366363 -0.8468367529928924
0.2869857 0.4900577458415574 -0.8501450380490283
0.2889856 0.48389379810170574 -0.8531674342375798
0.2909855 0.4774287320667336 -0.8564324576847357
0.2929854 0.471248188305998 -0.8598188128320275
0.2949853 0.46477815954828294 -0.8631652435382899
0.2969852 0.45893268998677433 -0.8667538298396795
0.2989851 0.45272158307577975 -0.8700440904764842
0.300985 0.4465634040839776 -0.8727298901335473
0.3029849 0.44032927969839303 -0.8756791371782652
0.3049848 0.43386591199304236 -0.8790530811616972
0.3069847 0.42794264654850017 -0.8817931985228066
0.3089846 0.4217368152872528 -0.8849517164674804
0.3109845 0.41559326508476135 -0.8877932180364395
0.3129844 0.40908175427119975 -0.8909151884694128
0.3149843 0.40299205874378224 -0.893548496279286
0.3169842 0.3970754573264091 -0.8965285539022988
0.3189841 0.39067093371948763 -0.8988839318167824
0.320984 0.3845315303900527 -0.9016905181037866
0.3229839 0.3781911171465103 -0.9043819070543176
0.3249838 0.3719356084396536 -0.9064924631340828
0.3269837 0.36565961895399823 -0.9090026686909292
0.3289836 0.3594290055954715 -0.9115827852672412
0.3309835 0.35337252312604983 -0.913843209717202
0.3329834 0.34675909306252667 -0.915958047281789
0.3349833 0.34057487914166834 -0.9183009024395944
0.3369832 0.3340791327143005 -0.9203959053929845
0.3389831 0.3279114967142278 -0.922472411174068
0.340983 0.32154438797113055 -0.9245032828326866
0.3429829 0.31499702057066087 -0.9266007583842233
0.3449828 0.30842273672946163 -0.9283960092367677
0.3469827 0.30252606366364493 -0.9301256245930112
0.3489826 0.29572947057647186 -0.9318888389808421
0.3509825 0.2895743193071946 -0.9339623457341417
0.3529824 0.2827979474289204 -0.9355469786388062
0.3549823 0.2762841983708808 -0.9376815436503699
0.3569822 0.26975165676595125 -0.9389137414575788
0.3589821 0.2629040531236994 -0.9406866876306132
0.360982 0.25608952001816887 -0.9420343276734355
0.3629819 0.24993084010566868 -0.9434457335315674
0.3649818 0.24310943624753992 -0.9447472101989446
0.3669817 0.23630650668903194 -0.9462563762999218
0.3689816 0.2296981487033372 -0.9478610860624023
0.3709815 0.22342585002307147 -0.9495294189073018
0.3729814 0.2164663663020877 -0.95073879613784
0.3749813 0.20979302295933988 -0.952524762130529
0.3769812 0.20345375383267855 -0.9533148084983959
0.3789811 0.19667030834411792 -0.9548434487054578
0.380981 0.19023782995403335 -0.9562391329608326
0.3829809 0.18349586193810646 -0.9573401961992296
0.3849808 0.1769332385550178 -0.958462464171509
0.3869807 0.17012949280414172 -0.9599320785442053
0.3889806 0.16375966022407706 -0.9605055227704595
0.3909805 0.1572424404321982 -0.9620451032011784
0.3929804 0.15064998934686746 -0.9626570394543958
0.3949803 0.1441998795527893 -0.9639885294211937
0.3969802 0.13754573110336785 -0.9649657767039415
0.3989801 0.13143276021904832 -0.9656113833601927
0.40098 0.12452889100940576 -0.966370999922584
0.4029799 0.1183841350459705 -0.9671864136342827
0.4049798 0.11180545637713397 -0.9679686170654211
0.4069797 0.10533686260572236 -0.968480554261383
0.4089796 0.09929257508378353 -0.9688891399747229
0.4109795 0.09262732964680474 -0.9694602890560133
0.4129794 0.08589115829176004 -0.9697830482907267
0.4149793 0.07956602505764669 -0.9704071873379165
0.4169792 0.07309382680182511 -0.9705319549986412
0.4189791 0.06641605604745852 -0.9714586418905274
0.420979 0.060510072481088924 -0.971025809229923
0.4229789 0.05338777166039114 -0.9714190840907194
0.4249788 0.04725047285272228 -0.9715003021909113
0.4269787 0.04058639218413525 -0.9715913724698667
0.4289786 0.033989233439829424 -0.9720578985894333
0.4309785 0.0274786376692573 -0.9718322661889247
0.4329784 0.02119825868471913 -0.9716082189765448
0.4349783 0.014676168278736409 -0.9716651967175448
0.4369782 0.008771462961071355 -0.9713997393385614
0.4389781 0.0019359642160311288 -0.9714872758448978
0.440978 -0.004862853104388082 -0.9713163857671948
0.4429779 -0.011002077029000142 -0.9709037830574812
0.4449778 -0.017798293507627544 -0.9708322593942939
0.4469777 -0.02426649750536787 -0.9706341492470417
0.4489776 -0.030777650330789323 -0.9704834377268337
0.4509775 -0.03719815482502282 -0.9694645269955466
0.4529774 -0.043773360138168294 -0.9691976809378833
0.4549773 -0.04999909106527639 -0.968923259123288
0.4569772 -0.05652681156276113 -0.9682581390939652
0.4589771 -0.06280337100958656 -0.9675616143194717
0.460977 -0.06927301928415724 -0.9675176453575812
0.4629769 -0.07565886733688203 -0.9669075787932562
0.4649768 -0.0816235277243072 -0.966246269604496
0.4669767 -0.08806891028097127 -0.9657671255328032
0.4689766 -0.09417028268061933 -0.9647932605677572
0.4709765 -0.10052152486278064 -0.9636673578837966
0.4729764 -0.10690317966656135 -0.9630459146063745
0.4749763 -0.11333273246248508 -0.9622715420419996
0.4769762 -0.11965914853474721 -0.9614135138058565
0.4789761 -0.1256774697453057 -0.9602530268567715
0.480976 -0.13164196170711512 -0.9595185713441965
0.4829759 -0.13791111222595598 -0.9582226474689213
0.4849758 -0.1443411277497927 -0.9572202259745779
0.4869757 -0.15065502355836718 -0.9565253877089598
0.4889756 -0.15694043808234368 -0.9548225847604465
0.4909755 -0.16304651574731888 -0.9535213438802465
0.4929754 -0.16942519509386444 -0.9522719381554932
0.4949753 -0.17552373179197236 -0.9507466049388605
0.4969752 -0.18211367448978202 -0.9490761119853702
0.4989751 -0.18783839125441154 -0.9475438356026237
0.500975 -0.19428278786692665 -0.9461252332769141
0.5029749 -0.20048275141189464 -0.9446045160500145
0.5049748 -0.20681946537918217 -0.9427716879706747
0.5069747 -0.2132818514290581 -0.9414638213367108
0.5089746 -0.21959271126228055 -0.9400458366894776
0.5109745 -0.22538179112207818 -0.939267929047895
0.5129744 -0.2314130114451779 -0.937502498280136
0.5149743 -0.23760408496425825 -0.9357696414708493
0.5169742 -0.24377794922891033 -0.9343025032438519
0.5189741 -0.24975553515495558 -0.9325940111959996
0.520974 -0.25643428432952375 -0.9311466625446
0.5229739 -0.2620132348989997 -0.9293028205892314
0.5249738 -0.2679311146961353 -0.927402957668018
0.5269737 -0.27438798967114864 -0.925501424959914
0.5289736 -0.280170151884478 -0.9241077143754399
0.5309735 -0.2859496111487211 -0.9221785897449343
0.5329734 -0.2918567390937083 -0.9201746575948542
0.5349733 -0.29794061152126794 -0.9186657529890921
0.5369732 -0.3037109239831416 -0.9166747835265376
0.5389731 -0.30953100007347445 -0.9148828817722875
0.540973 -0.31520797304104786 -0.912579534626094
0.5429729 -0.3207512425045218 -0.910388432263392
0.5449728 -0.32648204536651415 -0.9080024544554625
0.5469727 -0.3317423902666638 -0.9061452249303867
0.5489726 -0.337784894225073 -0.9040822812252106
0.5509725 -0.342868980548982 -0.9018984400623734
0.5529724 -0.34869033712744174 -0.8995588135162298
0.5549723 -0.35436666527322574 -0.897299451269131
0.5569722 -0.3598008609710438 -0.8943428699510084
0.5589721 -0.3655480317574565 -0.8918853855659835
0.560972 -0.37042184833095443 -0.8893939553554832
0.5629719 -0.3760160104528522 -0.8869709431461344
0.5649718 -0.38112225639008074 -0.8839313278346723
0.5669717 -0.38705661456238627 -0.8814016698222744
0.5689716 -0.39237404515462104 -0.8783169584501749
0.5709715 -0.39827707673158746 -0.8757261601404875
0.5729714 -0.4031064667756066 -0.8727341523796898
0.5749713 -0.40899768119610574 -0.8694423802976619
0.5769712 -0.4145159710290427 -0.8667160498597781
0.5789711 -0.4202773602440964 -0.8641103022170664
0.580971 -0.4260907298977518 -0.8611185354676442
0.5829709 -0.43163023410559037 -0.8583743806206122
0.5849708 -0.4371438919102054 -0.8553716736127543
0.5869707 -0.4425353716223054 -0.852730191090007
0.5889706 -0.4483730653546981 -0.8495567049668519
0.5909705 -0.4531057369753574 -0.8468163763783653
0.5929704 -0.4586225720259867 -0.8436739410052159
0.5949703 -0.46430922280656267 -0.8408168628875894
0.5969702 -0.4690197177807192 -0.837896468335318
0.5989701 -0.4748212798080407 -0.8349497969828475
0.60097 -0.47998290923837506 -0.831967564419389
0.6029699 -0.4853034629788236 -0.8287979523627478
0.6049698 -0.49045112354885034 -0.8257786859953591
0.6069697 -0.49593313821474627 -0.8227420651707809
0.6089696 -0.5008887402552058 -0.8193865177526058
0.6109695 -0.5059665909033444 -0.8164925009610629
0.6129694 -0.5106881241848747 -0.8133125118538596
0.6149693 -0.5162546949404476 -0.8101110201243059
0.6169692 -0.5208051822457145 -0.8072511854531439
0.6189691 -0.5253279089808711 -0.8038840713784529
0.620969 -0.5300804403056181 -0.8006065684776866
0.6229689 -0.5355014800005377 -0.7973191414788542
0.6249688 -0.5400496419149532 -0.7938328660400996
0.6269687 -0.5447246432399796 -0.7906901052106233
0.6289686 -0.5497100491166351 -0.786864325575803
0.6309685 -0.5542168453457125 -0.7836292697829064
0.6329684 -0.5590258616389072 -0.779879759331617
0.6349683 -0.5632273064525288 -0.7757593921927282
0.6369682 -0.5673168544036655 -0.7718929262106076
0.6389681 -0.572182598412356 -0.7679113845632763
0.640968 -0.5771293581205319 -0.763786495184162
0.6429679 -0.5816113080978058 -0.760147735528209
0.6449678 -0.5868365685228023 -0.7558803727969319
0.6469677 -0.5911601592028822 -0.7520480339193014
0.6489676 -0.5963020071929062 -0.7483278532985331
0.6509675 -0.6003237036066937 -0.7444089804061759
0.6529674 -0.6051767140036924 -0.740694353432438
0.6549673 -0.6099697023270633 -0.7367219317122055
0.6569672 -0.6145211428242378 -0.7327966084531365
0.6589671 -0.6192391591949666 -0.7289347222560372
0.660967 -0.6242176125268226 -0.724711374893222
0.6629669 -0.6290700859401991 -0.7211572087925872
0.6649668 -0.6334921613251853 -0.717205398481774
0.6669667 -0.6379752000611045 -0.7133697665344743
0.6689666 -0.6426997414404618 -0.70927536157505
0.6709665 -0.6466339021926544 -0.7047592466271674
0.6729664 -0.6513611341583251 -0.7009607541592112
0.6749663 -0.6550799430222063 -0.6968576959317989
0.6769662 -0.6597116926335138 -0.6927991059306596
0.6789661 -0.6644790079545203 -0.689098673978153
0.680966 -0.6683207269713389 -0.6849209129453173
0.6829659 -0.6726117272745749 -0.681135518999781
0.6849658 -0.6763846298637863 -0.6767040843329236
0.6869657 -0.6808129669216526 -0.6725243382762122
0.6889656 -0.6847753104661117 -0.6689127484491372
0.6909655 -0.6887282875582509 -0.6649755120013645
0.6929654 -0.6925258501581101 -0.660625537180205
0.6949653 -0.6965666007026629 -0.6566701256447195
0.6969652 -0.7003548342818937 -0.6524810935722256
0.6989651 -0.7041030744272637 -0.6483563095368454
0.700965 -0.7075684961433858 -0.6437635183032415
0.7029649 -0.7116551283501719 -0.639850270904603
0.7049648 -0.7148652311990626 -0.6351134994500233
0.7069647 -0.718378430822755 -0.6306602471178431
0.7089646 -0.7218476677671654 -0.626541711978552
0.7109645 -0.7255312137640809 -0.6215637844842984
0.7129644 -0.7289782866227814 -0.6170377651506791
0.7149643 -0.732391231734908 -0.6119957384563969
0.7169642 -0.7361346566121872 -0.6076178961012715
0.7189641 -0.7397732638981911 -0.6030594286705273
0.720964 -0.7434851406696994 -0.5981466406642262
0.7229639 -0.7466298543537049 -0.5934825401468282
0.7249638 -0.7496763939112046 -0.5886380704866799
0.7269637 -0.7534784333258866 -0.5838796683189228
0.7289636 -0.7570001977086004 -0.5788970137284332
0.7309635 -0.7607626995265582 -0.5739066907506045
0.7329634 -0.7642082048369291 -0.56915364396302
0.7349633 -0.7676307491824245 -0.5643807052217369
0.7369632 -0.7714774869117174 -0.5595454956787927
0.7389631 -0.7751272329127931 -0.5546466317091551
0.740963 -0.7784511543423376 -0.5495739673140286
0.7429629 -0.7815404272224612 -0.5448448286349648
0.7449628 -0.7849814761457933 -0.5400417590917657
0.7469627 -0.7885746117982407 -0.5354016352196085
0.7489626 -0.7917022272615558 -0.5305516021416516
0.7509625 -0.7951301849799886 -0.5254545792954298
0.7529624 -0.7987382927377438 -0.5208286622380349
0.7549623 -0.8018285533980288 -0.5158351758991215
0.7569622 -0.804999045293888 -0.5114657820221448
0.7589621 -0.8078767003133556 -0.506533279788641
0.760962 -0.8109679041366751 -0.5015641508879756
0.7629619 -0.8137363761270693 -0.49672229118166816
0.7649618 -0.8169617062058045 -0.4916546637636181
0.7669617 -0.8193436891131768 -0.48719491265363485
0.7689616 -0.8224767257383329 -0.48255614915674155
0.7709615 -0.8254384225434759 -0.4773812471364706
0.7729614 -0.8280880083141487 -0.47245652151183615
0.7749613 -0.8310626499209846 -0.4674690305662771
0.7769612 -0.8337384978280233 -0.46255824169726406
0.7789611 -0.8363990841331942 -0.4576195317763845
0.780961 -0.8389829287231648 -0.45281552050970697
0.7829609 -0.8415284203674039 -0.447688967441396
0.7849608 -0.8437526694479911 -0.44232570863308085
0.7869607 -0.8466109639180324 -0.43728356030962395
0.7889606 -0.8491394890362128 -0.4321344802569869
0.7909605 -0.8514680773248243 -0.42710934739633
0.7929604 -0.8539020944999307 -0.4216546807328116
0.7949603 -0.8561905340155813 -0.41666513052889675
0.7969602 -0.8586434321929804 -0.411020105982695
0.7989601 -0.8605790993624444 -0.4057231536422239
0.80096 -0.862725174326947 -0.40052258498643684
