! Created with skrf 1.8.0 (http://scikit-rf.org).
# GHz S RI R 50.0 
!freq ReS11 ImS11
0.001 -0.928609001148955 0.0061243752198964045
0.0029999 -0.9279124229021094 0.013632037572957022
0.0049998 -0.9273379081245178 0.021727671865028955
0.0069997 -0.9267122870336791 0.029685060839091622
0.0089996 -0.9260132981155486 0.03784342026615441
0.0109995 -0.9254187963831421 0.04570434687469767
0.0129994 -0.9248923909365967 0.05357768933993948
0.0149993 -0.9240328458220084 0.06159922041714932
0.0169992 -0.9230816574348761 0.06930335778859749
0.0189991 -0.9222636628437915 0.07731516236160917
0.020999 -0.921402787219132 0.08515408733818608
0.0229989 -0.9202464869677636 0.09282984979290011
0.0249988 -0.9193234374150622 0.10085665679165529
0.0269987 -0.9185353810211228 0.10854640952243627
0.0289986 -0.9172978535723879 0.11647574774369691
0.0309985 -0.9158462183240815 0.12418122168813078
0.0329984 -0.91493084150661 0.13189243157322433
0.0349983 -0.9134985768531941 0.13985701875937973
0.0369982 -0.9124038190962344 0.1476731350033334
0.0389981 -0.9107232347431177 0.15531509987597308
0.040998 -0.9093793780038743 0.16293613922541483
0.0429979 -0.907530304669527 0.1706164591220153
0.0449978 -0.906082106701747 0.17835974385868614
0.0469977 -0.9045364196609048 0.18627167546460688
0.0489976 -0.9029980917054452 0.19363152378571813
0.0509975 -0.9011367364202845 0.20144457448468744
0.0529974 -0.8995296808343292 0.20936355047709265
0.0549973 -0.8974746369102933 0.21659829231039143
0.0569972 -0.8955092743709672 0.22416681618013246
0.0589971 -0.8936126119273198 0.23157266550003908
0.060997 -0.8915602689548096 0.2390421179598752
0.0629969 -0.8894732532845401 0.24665249406881576
0.0649968 -0.887362302465399 0.2540989017382279
0.0669967 -0.8851747386808755 0.26145784067826927
0.0689966 -0.8827772993091406 0.2690847824379766
0.0709965 -0.8802927158844863 0.276630854266847
0.0729964 -0.877957091933005 0.28396336688809437
0.0749963 -0.8757425495342803 0.29119808530510066
0.0769962 -0.8728045822823572 0.29872829706373544
0.0789961 -0.8703321400337783 0.3060475312218782
0.080996 -0.8676434138947154 0.3133623087361712
0.0829959 -0.8648749274054529 0.32061944460331754
0.0849958 -0.8619949626227659 0.3281658867949451
0.0869957 -0.8591065671982777 0.3352106074321851
0.0889956 -0.8560307038969722 0.34274476873171045
0.0909955 -0.8530952627845038 0.349769332182677
0.0929954 -0.8499768936899238 0.35691532708297735
0.0949953 -0.8473275002335812 0.36422660619328096
0.0969952 -0.8436973759186003 0.37176267018888687
0.0989951 -0.8404915368033926 0.37839025652312064
0.100995 -0.8373862126767518 0.38562925803545234
0.1029949 -0.8336018976660132 0.39245804436315923
0.1049948 -0.8305036346316511 0.39987920329436233
0.1069947 -0.8267791072976015 0.4071529073852963
0.1089946 -0.8234288566624459 0.4140843071559745
0.1109945 -0.8199350851934146 0.4212648578430235
0.1129944 -0.8161170454834297 0.4282062367095982
0.1149943 -0.8124329345282115 0.43538785839408184
0.1169942 -0.8087722286267514 0.4425277859230323
0.1189941 -0.8051468501750262 0.4492514966217868
0.120994 -0.8011494676207906 0.4560899189062461
0.1229939 -0.7973895310398593 0.46295266875234575
0.1249938 -0.7935500155502188 0.46972401178135836
0.1269937 -0.7898190095848454 0.47645466785869156
0.1289936 -0.7860399361157172 0.48332760495986343
0.1309935 -0.7816206314493727 0.48980881564205075
0.1329934 -0.777531050546041 0.49662263057654354
0.1349933 -0.7732743158406159 0.5032559791060058
0.1369932 -0.7692990020935266 0.5099782111772329
0.1389931 -0.7649113131423344 0.5163282832100479
0.140993 -0.7606119304904537 0.5231888731511686
0.1429929 -0.7562964301435897 0.529348750967612
0.1449928 -0.7516446085117817 0.5357607151957109
0.1469927 -0.7470280651109681 0.5421487067076759
0.1489926 -0.7422428783808144 0.548558955545872
0.1509925 -0.737665154440449 0.5547153427921996
0.1529924 -0.7330454468717434 0.5607092085901866
0.1549923 -0.7281171442898136 0.5667193687324663
0.1569922 -0.7229755544369064 0.573071850646161
0.1589921 -0.7177890309232976 0.5795110788592691
0.160992 -0.7126684385625286 0.5854963251216326
0.1629919 -0.7079091662375524 0.5914939539510192
0.1649918 -0.7026427171956527 0.5976601984811577
0.1669917 -0.6974052442136354 0.6034340290245831
0.1689916 -0.6921197615122674 0.6095313148456788
0.1709915 -0.6864128408450259 0.6158218466611423
0.1729914 -0.6810778997282194 0.6217027591562604
0.1749913 -0.6756902714504944 0.6274234966842881
0.1769912 -0.6702362022211906 0.6331803921004083
0.1789911 -0.6644085163136273 0.6391463302633817
0.180991 -0.6588155194549257 0.6450901871688319
0.1829909 -0.6533749446182421 0.6510266664829862
0.1849908 -0.6476104651773924 0.6568800896108287
0.1869907 -0.6422813211773697 0.6628248881339339
0.1889906 -0.6359677253337881 0.6687551872425774
0.1909905 -0.629814150417812 0.674332653385463
0.1929904 -0.6242247489156454 0.6802810700561064
0.1949903 -0.6186666310972556 0.6857274573175656
0.1969902 -0.61293094804111 0.6915626444180606
0.1989901 -0.6070747468540332 0.6966667109134357
0.20099 -0.6010348531930336 0.7019409772559243
0.2029899 -0.5954434604672301 0.7079201508959777
0.2049898 -0.5889720601965853 0.7128154732370617
0.2069897 -0.5830427007365682 0.7180878893349739
0.2089896 -0.5768539940533297 0.7233589605463118
0.2109895 -0.5704666099347134 0.728497282120049
0.2129894 -0.5641916168523081 0.7336474976692677
0.2149893 -0.5581826107004175 0.7385356005324243
0.2169892 -0.5518860461866671 0.7435692657688955
0.2189891 -0.5454248917835258 0.74860402825873
0.220989 -0.5391566707946529 0.7529918067637043
0.2229889 -0.5326672801286374 0.7577174048107231
0.2249888 -0.525891761220746 0.7624671919047538
0.2269887 -0.5192513518033965 0.7669596852891559
0.2289886 -0.5126222343132338 0.7714760876498206
0.2309885 -0.5058299572181558 0.7757419686046444
0.2329884 -0.49913858529779986 0.7802010794462968
0.2349883 -0.4922120279754393 0.7847678817919608
0.2369882 -0.4850327207163305 0.7890355347976175
0.2389881 -0.4783332984572979 0.7933352296430455
0.240988 -0.47126755032656953 0.7974498866391238
0.2429879 -0.46414314351518493 0.8013429853952576
0.2449878 -0.45704543412575876 0.8054105568435481
0.2469877 -0.44973463196908925 0.8094870155968495
0.2489876 -0.44227979712848986 0.8135331847752926
0.2509875 -0.43493545972206316 0.8174844791732592
0.2529874 -0.4275687740524993 0.8213088035320747
0.2549873 -0.4200567905912779 0.8257429398836927
0.2569872 -0.4127237249666258 0.8293648199136965
0.2589871 -0.4051380857994993 0.833262940091553
0.260987 -0.39766232368758664 0.8369837289124075
0.2629869 -0.3903856010971868 0.8406622729866322
0.2649868 -0.3828312809693406 0.8444801741981843
0.2669867 -0.375266168460372 0.8481463536828856
0.2689866 -0.3674640991151997 0.8515727625157126
0.2709865 -0.3601101564808993 0.8552783535732161
0.2729864 -0.352220476687523 0.8584909487075715
0.2749863 -0.3447383725395439 0.8620981676466257
0.2769862 -0.33686934352625914 0.8653583016348835
0.2789861 -0.329163137104138 0.8686310560478279
0.280986 -0.3215474400492872 0.8717385553197255
0.2829859 -0.31382669428365917 0.8748483628006503
0.2849858 -0.3060152670155149 0.8780614000418291
0.2869857 -0.2982259195556232 0.8807623982031394
0.2889856 -0.29030797212380416 0.8837010775166341
0.2909855 -0.2825350627891537 0.8863885193578009
0.2929854 -0.27448513270561015 0.8891892516372942
0.2949853 -0.2665332224863612 0.8916066505832078
0.2969852 -0.258618064650893 0.894036651977287
0.2989851 -0.25068159984021243 0.8965475939524032
0.300985 -0.24237564560687486 0.8982698587592964
0.3029849 -0.23448513806630117 0.9004502392256524
0.3049848 -0.2263330765037743 0.9029049753404323
0.3069847 -0.21810063491702963 0.9048888704931156
0.3089846 -0.20992902184498363 0.9068565856430344
0.3109845 -0.20149506333798867 0.9086227471640234
0.3129844 -0.19330295498631245 0.910421163892938
0.3149843 -0.18508248903077784 0.9123121373624928
0.3169842 -0.17675389959250665 0.9136136997553477
0.3189841 -0.16838858837420323 0.9160085076028974
0.320984 -0.15955452038438855 0.9174160568021339
0.3229839 -0.15067040203422513 0.9190235499683695
0.3249838 -0.14214745956290809 0.9207388462759346
0.3269837 -0.13393841867394024 0.9217864470761622
0.3289836 -0.12498208844439687 0.9232721740251113
0.3309835 -0.1164054297518092 0.9244310269910256
0.3329834 -0.10806752104333672 0.9257709910766162
0.3349833 -0.09946287447110251 0.9270162054849997
0.3369832 -0.09064243683966917 0.9282380064678406
0.3389831 -0.08210315415239648 0.9290877632401963
0.340983 -0.07332910910702173 0.9301759685018205
0.3429829 -0.0643759629390462 0.9313999528846209
0.3449828 -0.05597020572885178 0.9317247936195301
0.3469827 -0.04700431462113347 0.9326710048042991
0.3489826 -0.038154941362657825 0.9337513676678968
0.3509825 -0.029463726148041988 0.934283619304788
0.3529824 -0.021057860376679192 0.9345141813219041
0.3549823 -0.012256162782876374 0.9349498542073741
0.3569822 -0.0030759004867586294 0.9352844819073552
0.3589821 0.005451561757324485 0.9355739280968423
0.360982 0.014259295304749054 0.9355900488933067
0.3629819 0.02276976506302346 0.9352840098196786
0.3649818 0.031392024716369545 0.9356153513712722
0.3669817 0.04017503267604533 0.9357191785814497
0.3689816 0.04891595061904907 0.935298308739535
0.3709815 0.05722046967634236 0.9349476435151842
0.3729814 0.06627232971522012 0.9349738892949261
0.3749813 0.07497070520996792 0.934333115897397
0.3769812 0.08372028473968524 0.9337623182487178
0.3789811 0.09237287064581559 0.9331639453820519
0.380981 0.10130618660261966 0.9328489378109512
0.3829809 0.10997897859966808 0.9318947496058021
0.3849808 0.11892232750803301 0.9307166530475397
0.3869807 0.1276412852917576 0.9296166527602604
0.3889806 0.13630388782849528 0.9284226897042804
0.3909805 0.14529782990384932 0.9271728337104187
0.3929804 0.1540651516247865 0.9260334272034844
0.3949803 0.1629881416480344 0.924189831075731
0.3969802 0.17194375689083335 0.9227676408931593
0.3989801 0.18077028308483756 0.9207385276798715
0.40098 0.18978274140116108 0.9193251025211716
0.4029799 0.19872248619191255 0.9178778060606361
0.4049798 0.20727811351645659 0.9158154136928044
0.4069797 0.2163562355496096 0.9139882502427752
0.4089796 0.22521703928954992 0.9121344896502607
0.4109795 0.23409220025011052 0.9105696777040113
0.4129794 0.24301273663051134 0.9080728832626979
0.4149793 0.2518835237572973 0.9058997297874327
0.4169792 0.26071720593967734 0.9035094293440765
0.4189791 0.26958450568508396 0.9010545483874787
0.420979 0.27831690276503823 0.8985602325772702
0.4229789 0.287299075788807 0.8963756542583177
0.4249788 0.2959955267686838 0.8938233144750438
0.4269787 0.3046176234348556 0.8912315728401847
0.4289786 0.3133026812008736 0.8883501396181847
0.4309785 0.32183636962996 0.8857553400029827
0.4329784 0.3306846812109277 0.8826977004086117
0.4349783 0.33919117684547584 0.8796300138938864
0.4369782 0.34785768694817853 0.8761411497144775
0.4389781 0.3563910952400754 0.8731204469160031
0.440978 0.36517816673246384 0.8700865334476224
0.4429779 0.3734864217928192 0.8666418082873836
0.4449778 0.38206648245807673 0.8629539040156347
0.4469777 0.39019269008086943 0.859652865640321
0.4489776 0.39860500428800816 0.8555250054752167
0.4509775 0.4076596095206328 0.852286474551139
0.4529774 0.4158407268237999 0.8485155141066215
0.4549773 0.4238808912919112 0.8445460028783223
0.4569772 0.4323045010979616 0.8404112005463927
0.4589771 0.44073182272776157 0.836099729599045
0.460977 0.44889373398703797 0.8319493709215103
0.4629769 0.45736124193460104 0.8276457278102696
0.4649768 0.4653349277601468 0.8229802820210499
0.4669767 0.4736421284721535 0.8183320894497238
0.4689766 0.4821972985636705 0.8139560932374599
0.4709765 0.48984418211784336 0.8095417818211336
0.4729764 0.49794615861441544 0.8048674127371603
0.4749763 0.506370534926684 0.8002391008586598
0.4769762 0.5144190201190011 0.7950975746005084
0.4789761 0.5227221351008385 0.7903021436004007
0.480976 0.5303452011270227 0.7852220306473203
0.4829759 0.5383364896273851 0.7801742831789384
0.4849758 0.5462084404757821 0.7748871951295399
0.4869757 0.5539122528571213 0.7695563296846227
0.4889756 0.5615681030936353 0.7642477903107918
0.4909755 0.5695092011850764 0.7588251748714786
0.4929754 0.5772432801451657 0.7534759124480207
0.4949753 0.5845471259884499 0.7481141158091511
0.4969752 0.592241258179736 0.7428520759035044
0.4989751 0.5996680973453793 0.73695114361074
0.500975 0.6070385073512168 0.7314179872838159
0.5029749 0.6142388040695107 0.7251518404522379
0.5049748 0.6212346666686683 0.7192894130559186
0.5069747 0.628643878810424 0.7131235004139791
0.5089746 0.6357434615079669 0.7072737915140949
0.5109745 0.6426332527471624 0.7010328481931426
0.5129744 0.6501754255380446 0.6947082833603858
0.5149743 0.6571224738471826 0.6882390908421959
0.5169742 0.6637438331957304 0.6817085130356562
0.5189741 0.6708455337274049 0.6753782303423077
0.520974 0.6776812378865668 0.6688477687853918
0.5229739 0.6841247863599842 0.6616236337929143
0.5249738 0.6904877943140817 0.6550158702038755
0.5269737 0.697266970380254 0.6481440497345652
0.5289736 0.7039181702994627 0.6411985053947586
0.5309735 0.710658348799949 0.6336958738851546
0.5329734 0.7166184383942946 0.6264572013184555
0.5349733 0.7228818753200171 0.6196602610157688
0.5369732 0.7295913868591082 0.6119391961721181
0.5389731 0.7356005699383471 0.6052032791009401
0.540973 0.7421772550144098 0.5974035595976775
0.5429729 0.7486296072813061 0.590157816852813
0.5449728 0.7541739106360187 0.5825211905256833
0.5469727 0.7604145135305438 0.5747112551269367
0.5489726 0.7661614225819047 0.5672449138558445
0.5509725 0.7721693520246613 0.5592133855145499
0.5529724 0.7778620222270796 0.551279851143978
0.5549723 0.7837783041719717 0.5435627513603131
0.5569722 0.789638252256877 0.5356907124410527
0.5589721 0.795090377539324 0.5277664574227463
0.560972 0.8005757989200373 0.5198143084493553
0.5629719 0.8062633723114351 0.51201613356739
0.5649718 0.8118104691132177 0.5038563708760947
0.5669717 0.8169683634626645 0.4958997500056001
0.5689716 0.8218457198743321 0.4874444462732194
0.5709715 0.8271892931493672 0.479361604144541
0.5729714 0.8321461522722802 0.4712450739721365
0.5749713 0.8369618760744287 0.46295589013865013
0.5769712 0.8418903980396161 0.45441366187660975
0.5789711 0.8469284594399122 0.4464486256617207
0.580971 0.8514366494091153 0.4379377942617125
0.5829709 0.8557571472382689 0.4294703139517823
0.5849708 0.8599726158511235 0.42093495434787587
0.5869707 0.8644347727300059 0.41278866038932366
0.5889706 0.8690436956134154 0.40319716399663635
0.5909705 0.8724398460590452 0.39478392444404753
0.5929704 0.8767630907886172 0.38557404049606425
0.5949703 0.8805804473323848 0.37678389722229993
0.5969702 0.8843516087957731 0.36827097851918417
0.5989701 0.8884008843399798 0.3585882635370558
0.60097 0.8919472628856543 0.34973119621296206
0.6029699 0.8953216444439848 0.340669986020945
0.6049698 0.8988627441789243 0.3315418477790428
0.6069697 0.9025746866837189 0.32250416629965095
0.6089696 0.9057353275771619 0.31325760896719546
0.6109695 0.9089572732574854 0.30383516461335647
0.6129694 0.9119793317870893 0.29471533666792626
0.6149693 0.9156891860085261 0.2856744317204526
0.6169692 0.9187989051099303 0.2761025636034619
0.6189691 0.9211589598447876 0.26685957028694807
0.620969 0.9238288926494349 0.2574535040119742
0.6229689 0.9267925261749551 0.24790260188683322
0.6249688 0.9294309804804853 0.23855259428463768
0.6269687 0.931904594361939 0.22905810296714424
0.6289686 0.9341795158861328 0.2194754685385904
0.6309685 0.9362704580790596 0.20982261628413373
0.6329684 0.9389338284099682 0.2005262544679341
0.6349683 0.9409693223123266 0.1910891945965668
0.6369682 0.9429217097991055 0.181515070377882
0.6389681 0.9449108637492034 0.1717756058826061
0.640968 0.9471987494597225 0.16183267046561062
0.6429679 0.9483795977455559 0.15279513959913965
0.6449678 0.9502772126042108 0.1429963980755811
0.6469677 0.9513249465494888 0.13345747466813096
0.6489676 0.9534052968942699 0.12363058911171226
0.6509675 0.9538595016284919 0.1140850249091557
0.6529674 0.9554940383328658 0.10443754951829431
0.6549673 0.9562804126583982 0.0946292006781207
0.6569672 0.9575558260474112 0.0850898887303086
0.6589671 0.9584020230415927 0.07505338971125372
0.660967 0.9592381564374013 0.06520328358196828
0.6629669 0.9597620051399303 0.05588363461235922
0.6649668 0.9603589882784876 0.046330587139660956
0.6669667 0.9607600538614435 0.03656146382206979
0.6689666 0.9611555713471398 0.026412216228459264
0.6709665 0.9613581929036839 0.016250842412691535
0.6729664 0.9614285951104823 0.007222041454528157
0.6749663 0.9617025005394957 -0.0031491925830898944
0.6769662 0.9615994048930117 -0.012592722030431741
0.6789661 0.961514347317891 -0.022276074185625033
0.680966 0.9613992225769629 -0.03214838084268738
0.6829659 0.9609825318169053 -0.04185541569630688
0.6849658 0.9606893376124623 -0.051709858427430824
0.6869657 0.9601426489290641 -0.06148545087325554
0.6889656 0.9597714612554252 -0.07099979903274907
0.6909655 0.9588946122651 -0.0805554861929666
0.6929654 0.9582573869094406 -0.09082518113992893
0.6949653 0.9572511892925124 -0.10022276211154002
0.6969652 0.9559932639738913 -0.10983948181015604
0.6989651 0.9550753959136602 -0.11960141161796332
0.700965 0.953899922428114 -0.12924598050502809
0.7029649 0.9524736752248217 -0.13894715473391417
0.7049648 0.9512983522645382 -0.14816805112059228
0.7069647 0.9497681032635193 -0.15779555552501145
0.7089646 0.9479628942464975 -0.16705982636872893
0.7109645 0.9462767965870672 -0.17689950915481148
0.7129644 0.944090320288151 -0.18619261930366604
0.7149643 0.9421872334834875 -0.19577425072839788
0.7169642 0.9400338417388425 -0.20475096344348395
0.7189641 0.938740477578371 -0.21454976735922646
0.720964 0.936133424196316 -0.22398540555043664
0.7229639 0.9336927484573498 -0.23355438484614766
0.7249638 0.9313092454885707 -0.24262356235857388
0.7269637 0.9286802847401283 -0.2519985528224564
0.7289636 0.9260083650205618 -0.261421190613393
0.7309635 0.9228376978954148 -0.27072836748298323
0.7329634 0.9207090074642633 -0.280009733042364
0.7349633 0.9173336544467594 -0.2892209302776265
0.7369632 0.914659258411039 -0.2984304491531514
0.7389631 0.9109826789773644 -0.30760108541626996
0.740963 0.9082282945134228 -0.316791209605009
0.7429629 0.9050130657467881 -0.3259167594555787
0.7449628 0.9020317729937081 -0.3353221085188706
0.7469627 0.8984775527588462 -0.3441006575304667
0.7489626 0.8949188296385026 -0.3535460422157074
0.7509625 0.8914247474517655 -0.3618686877126218
0.7529624 0.8878206987824383 -0.37167665013331175
0.7549623 0.884404875964072 -0.3804639921429083
0.7569622 0.8805930540828582 -0.38907614947888414
0.7589621 0.8767765619994755 -0.39786109043831147
0.760962 0.8729081325745607 -0.40664705374483995
0.7629619 0.868709180347657 -0.41549827840814507
0.7649618 0.8648722735616878 -0.4242035441145397
0.7669617 0.8606117358268451 -0.43187167213662875
0.7689616 0.8563628652497433 -0.44051429287184773
0.7709615 0.8520123877277586 -0.44921234731316206
0.7729614 0.84755140661449 -0.45716876396677064
0.7749613 0.8435543081105923 -0.46548643678317525
0.7769612 0.8387375236713714 -0.47429474239495
0.7789611 0.8339998963483956 -0.48172252182824715
0.780961 0.8292999206003204 -0.48982522857437516
0.7829609 0.8242296541681189 -0.49767017312917167
0.7849608 0.8195299469820636 -0.5056860844959609
0.7869607 0.8144506655846055 -0.5136991644824023
0.7889606 0.8092984686329795 -0.5213423454092712
0.7909605 0.8038977300305492 -0.5291782885346441
0.7929604 0.798931634836034 -0.5368028197865293
0.7949603 0.792987978646357 -0.5446269444425009
0.7969602 0.7874574009025855 -0.5524792074537975
0.7989601 0.7818896484278182 -0.5598554417691776
0.80096 0.776331403954264 -0.5674413344455722
0.8029599 0.770652095245855 -0.5747703257732206
0.8049598 0.7650721571115225 -0.5821574994520913
0.8069597 0.7587764446192279 -0.5901292659562543
0.8089596 0.7526479810348291 -0.5971434906923213
0.8109595 0.7467956989884584 -0.6049629465231333
0.8129594 0.7404859990356456 -0.6120698611821497
