! Created with skrf 1.8.0 (http://scikit-rf.org).
# GHz S RI R 50.0 
!freq ReS11 ImS11
0.001 -0.8814828972311473 0.006108071942447407
0.0029999 -0.881041684787317 0.011550733760204969
0.0049998 -0.8803229818290117 0.0174564141620846
0.0069997 -0.8795974316381288 0.023501338292063197
0.0089996 -0.8788396051457732 0.02960441273326061
0.0109995 -0.8784200838797811 0.035649707142301215
0.0129994 -0.8780827601124281 0.041538740150621055
0.0149993 -0.8774830532356689 0.0477264647881703
0.0169992 -0.876890360236305 0.053602670500045135
0.0189991 -0.8761246971429466 0.05972306740207859
0.020999 -0.8756499439214338 0.06564487607168681
0.0229989 -0.8749450587384655 0.0716230802567449
0.0249988 -0.8737879658454879 0.07767228318011753
0.0269987 -0.8735748824051632 0.08384743564190164
0.0289986 -0.872733279449111 0.08959544441134468
0.0309985 -0.8718384719372114 0.09554655575530699
0.0329984 -0.8709257550931787 0.10120883963891265
0.0349983 -0.8703361473239158 0.1075873864649853
0.0369982 -0.8694649319779671 0.11357386780301179
0.0389981 -0.868559627327077 0.11947168815323028
0.040998 -0.8676640587448106 0.12512845250404267
0.0429979 -0.8666016476983952 0.1311192098021484
0.0449978 -0.8652613978242277 0.13709771686539912
0.0469977 -0.8646194089840916 0.143148368349283
0.0489976 -0.8637739616016501 0.14898296906399872
0.0509975 -0.862497830512995 0.1549388407789501
0.0529974 -0.8615170652380989 0.1606477975096485
0.0549973 -0.8604013351758427 0.16664862148236173
0.0569972 -0.8592298845868936 0.17253725336882353
0.0589971 -0.8577306303812482 0.17806451770730014
0.060997 -0.8565039693646531 0.1839755535015604
0.0629969 -0.8554372319780174 0.18980496750085019
0.0649968 -0.8540553959169853 0.19555376873136668
0.0669967 -0.8526259921463082 0.20137260063829335
0.0689966 -0.8511528038609997 0.2072808457845532
0.0709965 -0.8496943965483812 0.21293211841458048
0.0729964 -0.8483005847174242 0.21885973129896777
0.0749963 -0.8467981714913444 0.22435980297450484
0.0769962 -0.8448841276457788 0.23012356909816797
0.0789961 -0.8434466915047691 0.23585761711650582
0.080996 -0.841668142348657 0.24144963648794832
0.0829959 -0.8400498543136433 0.24732114319450102
0.0849958 -0.8382796797775534 0.25299861556369196
0.0869957 -0.8364388799432526 0.25869680416663837
0.0889956 -0.8343939297194541 0.26447748441175106
0.0909955 -0.8325649088620904 0.27011467450905774
0.0929954 -0.8308422416254386 0.27603831576504734
0.0949953 -0.828888327730216 0.2815857139947103
0.0969952 -0.826500598956502 0.2870302309553213
0.0989951 -0.8245926921438178 0.2926680843721254
0.100995 -0.8228199392804009 0.29840207506812483
0.1029949 -0.8206368027667162 0.30406978968909804
0.1049948 -0.8183688503299572 0.3094898126188865
0.1069947 -0.8164345936193435 0.3154251540364045
0.1089946 -0.8140256298037424 0.32072089396552383
0.1109945 -0.8118664450985953 0.32624657090114884
0.1129944 -0.8095138803151225 0.3321449870304348
0.1149943 -0.8074485771468314 0.33775685211945433
0.1169942 -0.8050164103404963 0.3433443886730773
0.1189941 -0.8028139578768724 0.34886759812570706
0.120994 -0.8003682761810598 0.3544664089854586
0.1229939 -0.7980400735140672 0.3598033735878792
0.1249938 -0.7957585234389379 0.3651772813350745
0.1269937 -0.7931101105217445 0.37068266578557485
0.1289936 -0.7913902282279395 0.3760901404357515
0.1309935 -0.7884051169465244 0.38159489992602064
0.1329934 -0.7855770333843013 0.38681709157307054
0.1349933 -0.7833367550325537 0.3920801460762848
0.1369932 -0.7805523884127087 0.3976734116891809
0.1389931 -0.7779530062113582 0.40291500351900195
0.140993 -0.7751095883086958 0.4084769088261922
0.1429929 -0.7727319810000381 0.41328464868128023
0.1449928 -0.769786626933722 0.4188950824419483
0.1469927 -0.7669075268686424 0.4239868580850519
0.1489926 -0.7636387492782722 0.4289951263488393
0.1509925 -0.7613310739336352 0.43451222677355805
0.1529924 -0.7582027043507017 0.4390728716598183
0.1549923 -0.7546995941495177 0.4443087794738965
0.1569922 -0.7515226223655226 0.4492979646343567
0.1589921 -0.7487781109838765 0.4547848466767603
0.160992 -0.7453327785279805 0.4599157290793644
0.1629919 -0.7425365508180302 0.4649562608374514
0.1649918 -0.7392658460416698 0.4700152694529981
0.1669917 -0.7358021358561375 0.47511116882739673
0.1689916 -0.7323640313365523 0.47985869411311893
0.1709915 -0.729182231150771 0.4853404647634179
0.1729914 -0.7255662417139175 0.4903775250891977
0.1749913 -0.7220917027658651 0.4952985754697699
0.1769912 -0.7186030961241534 0.5003119146863864
0.1789911 -0.7149888523323001 0.5051653443639005
0.180991 -0.7118219449590674 0.5104101699687249
0.1829909 -0.7080524745536341 0.5153953289759403
0.1849908 -0.7043359227559405 0.5201156825520653
0.1869907 -0.7015550362367377 0.5256252710400748
0.1889906 -0.6970976087575328 0.5309115097793503
0.1909905 -0.6932558184524314 0.5358952241105606
0.1929904 -0.6897924689492587 0.5406524132958225
0.1949903 -0.686600621153424 0.5456798414752373
0.1969902 -0.6830824356439636 0.5505861457515061
0.1989901 -0.679273781394558 0.5549945162016134
0.20099 -0.6757578486488247 0.5599228662383666
0.2029899 -0.6720461421004571 0.5649511105722688
0.2049898 -0.6679047898291322 0.569734729727375
0.2069897 -0.6642088790553203 0.5741650698993935
0.2089896 -0.6606433476389563 0.5787866240497619
0.2109895 -0.6564792179677263 0.583669958184378
0.2129894 -0.6526831413810722 0.588544111579008
0.2149893 -0.6485747596515491 0.5928823426099763
0.2169892 -0.6449775332873293 0.5975452560266398
0.2189891 -0.6406794684685408 0.6018623724789444
0.220989 -0.6367229512590461 0.6062782806089505
0.2229889 -0.6327710937599937 0.6104156357633136
0.2249888 -0.6287280403473359 0.615207480266915
0.2269887 -0.6240645762028404 0.6193744976041189
0.2289886 -0.6199134941896299 0.6236146256778614
0.2309885 -0.6157137643924262 0.6277703779424304
0.2329884 -0.611327606252651 0.6320963144091168
0.2349883 -0.6070227308392796 0.6365520851019114
0.2369882 -0.6021716850108751 0.6406757608517891
0.2389881 -0.5981947286746542 0.6450823860506291
0.240988 -0.593573749759559 0.6490226226622724
0.2429879 -0.5887821170797537 0.6530080378753662
0.2449878 -0.5843912382607744 0.6570852625996388
0.2469877 -0.5795832315106898 0.6612114360440213
0.2489876 -0.5748288699635725 0.6653452537125226
0.2509875 -0.5700937813853607 0.6693650574601859
0.2529874 -0.5654483400271088 0.6735974719840335
0.2549873 -0.5606784347780444 0.677800218190734
0.2569872 -0.5557872399440966 0.6816812780599709
0.2589871 -0.5507652978994977 0.6858593530972201
0.260987 -0.5462917534648838 0.6899906744902106
0.2629869 -0.5413067812904584 0.6937940225890673
0.2649868 -0.536581769141471 0.6979200110650724
0.2669867 -0.5316042575645873 0.701773422173693
0.2689866 -0.5270081264624542 0.7057456177912581
0.2709865 -0.5220509071364251 0.70980205330181
0.2729864 -0.5171704102753177 0.7136259229700586
0.2749863 -0.5122458172804245 0.7175406756018463
0.2769862 -0.5071152635012413 0.7211883167211278
0.2789861 -0.5020675030203858 0.7252098588564353
0.280986 -0.4971879355269852 0.7287811995308286
0.2829859 -0.492355808565369 0.7323903441507742
0.2849858 -0.48715533105270503 0.7359579439393861
0.2869857 -0.4823507457738287 0.7397094227789753
0.2889856 -0.47691154834018895 0.7430875486130203
0.2909855 -0.4720595663533331 0.7466144871325621
0.2929854 -0.4667705309190773 0.7501483952712114
0.2949853 -0.4616460362157952 0.7534320038168169
0.2969852 -0.4563161678363208 0.756786585185771
0.2989851 -0.4511853715318628 0.7600852271601076
0.300985 -0.4454322425694335 0.7629450937441928
0.3029849 -0.4403327254551265 0.7662947416506944
0.3049848 -0.43515558704088075 0.7695354254397492
0.3069847 -0.42962508257697474 0.7726129033896033
0.3089846 -0.42387084092450705 0.7754508934461196
0.3109845 -0.4182309842281419 0.7783452516711162
0.3129844 -0.4130653272050988 0.7816657097334435
0.3149843 -0.4074062215603173 0.7843215362742993
0.3169842 -0.4016926348342305 0.7872860758695192
0.3189841 -0.39616760994559325 0.7905368888864716
0.320984 -0.39054967661150475 0.7934687102098774
0.3229839 -0.38422905820954795 0.7965669176311987
0.3249838 -0.378724573902863 0.7992237597135665
0.3269837 -0.37297637786878063 0.8024691631066174
0.3289836 -0.36699883000634764 0.8051264669905179
0.3309835 -0.3612668099632268 0.8075474892385506
0.3329834 -0.3553377218831401 0.8105343325583733
0.3349833 -0.3497233914695238 0.8131818951917544
0.3369832 -0.343896652265382 0.8160297751041227
0.3389831 -0.3379722780771237 0.8183789682825293
0.340983 -0.33192453865124605 0.8214916109725471
0.3429829 -0.3262124267765284 0.8240414334400612
0.3449828 -0.3201636056753464 0.8264915389310918
0.3469827 -0.3140406265574194 0.8293531637043662
0.3489826 -0.30830045011489315 0.8319527640863024
0.3509825 -0.3023948441385748 0.8343811319531479
0.3529824 -0.2963441710017573 0.8368751480647858
0.3549823 -0.29028354454547683 0.8395760629581016
0.3569822 -0.2841436358496884 0.8416813020480203
0.3589821 -0.2782392312914367 0.8437730756693648
0.360982 -0.2724485658848292 0.8460562141411434
0.3629819 -0.26598822119637666 0.8482482389426131
0.3649818 -0.26002000956008586 0.8504369642355236
0.3669817 -0.25429428002912885 0.8522923697402982
0.3689816 -0.2480042474369981 0.8542938016026035
0.3709815 -0.24181898382695047 0.8564439398448597
0.3729814 -0.23584245251072866 0.8583850125291054
0.3749813 -0.2296452887472376 0.8600574281654277
0.3769812 -0.22318916965971908 0.8619317475995817
0.3789811 -0.2172331147214548 0.8640615041337179
0.380981 -0.21132510235498522 0.865435257195673
0.3829809 -0.20475447407615105 0.866964587752796
0.3849808 -0.1984141198978235 0.8688315027780874
0.3869807 -0.19244520374583624 0.8704901580794246
0.3889806 -0.18575021450571064 0.872017956631601
0.3909805 -0.17916505521054993 0.873328411248855
0.3929804 -0.17307261306030375 0.8746403655317623
0.3949803 -0.16647963389327516 0.8758880300159466
0.3969802 -0.15989948223456352 0.8772564848264142
0.3989801 -0.15338429404487933 0.878297172739808
0.40098 -0.14666652105277578 0.8797011898965832
0.4029799 -0.1402521468321342 0.8808101115817258
0.4049798 -0.1337169074093622 0.8820588928920507
0.4069797 -0.12690627177149705 0.883586993580378
0.4089796 -0.12066032853762436 0.8844407115629782
0.4109795 -0.11413234588878313 0.8856856683496779
0.4129794 -0.10714413205567543 0.8864907105826879
0.4149793 -0.10064518935139892 0.8879245138658659
0.4169792 -0.09386888726217472 0.8890261483674688
0.4189791 -0.08702116994557987 0.8900196183125343
0.420979 -0.08084088320577204 0.890313523891275
0.4229789 -0.07391117745890124 0.8914624496209697
0.4249788 -0.06725114545560411 0.8922293522030474
0.4269787 -0.06060948445263033 0.8927852348099351
0.4289786 -0.05400083525486987 0.893535511272816
0.4309785 -0.04735551356581833 0.8942584235138868
0.4329784 -0.04056029193851632 0.8948985862078137
0.4349783 -0.034038636729031124 0.8955023356658555
0.4369782 -0.02705579338614547 0.8959074957745802
0.4389781 -0.020449201862137216 0.8963565444946309
0.440978 -0.013831108018265814 0.8968283816043392
0.4429779 -0.007180129581228545 0.8971169831859918
0.4449778 -0.00032258917193710157 0.8975415340841174
0.4469777 0.006490437186079924 0.8974294367688265
0.4489776 0.013290564446437005 0.8975769745953788
0.4509775 0.019871581623252102 0.8978230472727796
0.4529774 0.026541755621127844 0.8977861702745213
0.4549773 0.03319648605135961 0.8978239937458711
0.4569772 0.04009074098063439 0.8977220210396102
0.4589771 0.0471240931135179 0.8976974746382679
0.460977 0.05410957436896319 0.8976341364035738
0.4629769 0.06092143764884713 0.8971421953194417
0.4649768 0.06770703464858766 0.896831301156912
0.4669767 0.07464724339444415 0.8961339283766906
0.4689766 0.08183058193895835 0.8962609375588835
0.4709765 0.08789640079754638 0.8955072861097643
0.4729764 0.09509435279980538 0.8952731526671187
0.4749763 0.10203700106161084 0.8947865251001148
0.4769762 0.10902015106500576 0.8941299374869038
0.4789761 0.11575736299750011 0.8937063248699222
0.480976 0.12292643148483678 0.8933435970755795
0.4829759 0.1297235944089315 0.8926537879023733
0.4849758 0.13700630716122594 0.892089984069057
0.4869757 0.14374491423307978 0.8909480099217524
0.4889756 0.1504758726322887 0.8903108439847354
0.4909755 0.1575995506281167 0.8895033471087488
0.4929754 0.16431276238568673 0.8886743158748407
0.4949753 0.17114442430281926 0.8879020705650156
0.4969752 0.17777596260866999 0.8866899684848494
0.4989751 0.1847116831985347 0.8859497187643004
0.500975 0.19122473153744707 0.8846696593194179
0.5029749 0.1980793038935541 0.8835941536664504
0.5049748 0.20472561162298897 0.8818709678410541
0.5069747 0.21158729918168304 0.8804641458557797
0.5089746 0.21813652431765296 0.8791755559482989
0.5109745 0.22478177512967623 0.8778660375409365
0.5129744 0.23171563469549594 0.8763725255961625
0.5149743 0.23866269496594436 0.8743875218084198
0.5169742 0.24547590780013032 0.873049868977658
0.5189741 0.25198658959553727 0.871474428718115
0.520974 0.25892675636165813 0.8695285488130692
0.5229739 0.26544920044893155 0.8674324718449273
0.5249738 0.27216621370149874 0.8656504573250988
0.5269737 0.2788598804819848 0.8637315466669816
0.5289736 0.28557642994990146 0.8612998439915394
0.5309735 0.2927223171079828 0.859024002650683
0.5329734 0.2994093184139326 0.8567585295972269
0.5349733 0.3059253082765582 0.8546194920761042
0.5369732 0.31302576116392933 0.8521837398153369
0.5389731 0.31928644145692575 0.8497624103122506
0.540973 0.32673036635985314 0.8477380673255996
0.5429729 0.333437372508587 0.845073181694522
0.5449728 0.33994028219152694 0.8427762036310642
0.5469727 0.3472119078156005 0.8401231958863314
0.5489726 0.3538688196710095 0.8375314854799344
0.5509725 0.36051029586068967 0.8347984382493577
0.5529724 0.36742653081099425 0.8320416308663979
0.5549723 0.37426310561770826 0.8298513015318755
0.5569722 0.38081314077932793 0.8267206541557184
0.5589721 0.3877377445064442 0.8239045300081259
0.560972 0.3946200299172122 0.8212094857002562
0.5629719 0.401597543454826 0.8189239969221851
0.5649718 0.40802087645300805 0.8162130923519212
0.5669717 0.4145505478240449 0.813205585847444
0.5689716 0.42126211352538456 0.810348710791446
0.5709715 0.42784042668678085 0.8071812312197623
0.5729714 0.43423704646860406 0.8043312218378026
0.5749713 0.44075296923510726 0.8010660941438564
0.5769712 0.4472085530971103 0.7982971952493092
0.5789711 0.45365472710947563 0.794957434962055
0.580971 0.45931496370239366 0.7916000398972106
0.5829709 0.465535596892301 0.7883749555867197
0.5849708 0.4720318173185747 0.7849882807618459
0.5869707 0.47810391545990577 0.7817942961475997
0.5889706 0.48439051372905384 0.7777099764355379
0.5909705 0.490433655751275 0.7740528842165085
0.5929704 0.49682887037164536 0.7702403083152058
0.5949703 0.5027713630819716 0.7665733853487497
0.5969702 0.5092431865710602 0.7622790806682019
0.5989701 0.515503842294057 0.7584798478178819
0.60097 0.5213639827331669 0.7540787518235352
0.6029699 0.5271571333002067 0.7502329149887
0.6049698 0.5336435169502184 0.7456190399471958
0.6069697 0.5392600352505967 0.7418536526454161
0.6089696 0.5455143481382633 0.7378607051058623
0.6109695 0.5513971797091437 0.7331254071775458
0.6129694 0.5568541579338268 0.7288812695309753
0.6149693 0.5636585304144436 0.7250422682354095
0.6169692 0.570131116527848 0.7202370325100177
0.6189691 0.5759154668270132 0.7160210947079182
0.620969 0.5814123526210566 0.7110726192804001
0.6229689 0.5878001166065788 0.7066642747746528
0.6249688 0.5935056085949477 0.7020750377169909
0.6269687 0.5994509173391822 0.6971918855242363
0.6289686 0.6055243096221864 0.6925539368719087
0.6309685 0.6116385467194003 0.6880034934589685
0.6329684 0.6168402034720833 0.6831715905697665
0.6349683 0.6233558976546583 0.6788977310529889
0.6369682 0.6287227714619665 0.6738317645286082
0.6389681 0.6341327120233302 0.6688266970941211
0.640968 0.6402466289958324 0.664366760572323
0.6429679 0.6457654681579897 0.6597483639546649
0.6449678 0.6512554602577088 0.6547311177585039
0.6469677 0.6560827019786544 0.6493129858467896
0.6489676 0.6616100047320277 0.6448928955407062
0.6509675 0.6670011621843399 0.6397522916097479
0.6529674 0.6724825095834477 0.6344199560030748
0.6549673 0.6774645886386597 0.6295273840552772
0.6569672 0.6825440363604874 0.623875402955756
0.6589671 0.6878819030707135 0.6186192140752355
0.660967 0.6926796125156149 0.6129131339383918
0.6629669 0.6972247860390024 0.6078636918240099
0.6649668 0.7022899483231809 0.6024903297053193
0.6669667 0.7069452980292092 0.5969256648957846
0.6689666 0.7122689363449627 0.591279706245348
0.6709665 0.7167082072185688 0.5854948839134808
0.6729664 0.7214815262629652 0.5795385360922481
0.6749663 0.7262181778549903 0.5738396260055937
0.6769662 0.7307969277459982 0.5674486248321073
0.6789661 0.7357919168448518 0.5616246326171594
0.680966 0.7402251416512167 0.5560300738843886
0.6829659 0.745358272470653 0.5498296358932883
0.6849658 0.7501227573281422 0.543804746847795
0.6869657 0.7542921393876865 0.5375233309646342
0.6889656 0.759019029142586 0.5310220078663386
0.6909655 0.7634637619612402 0.5248642368756449
0.6929654 0.7678892979862842 0.5187015622127943
0.6949653 0.7724553014162389 0.5124232427385049
0.6969652 0.7767880189289817 0.5057411484577942
0.6989651 0.7808532806621111 0.49974775329081833
0.700965 0.7853289052831388 0.49302448560867607
0.7029649 0.7898271952219319 0.486683025707794
0.7049648 0.7940386969376726 0.48038510806712736
0.7069647 0.7984325314565747 0.47391048555039056
0.7089646 0.8027455410294342 0.46736287279511757
0.7109645 0.8070864312170801 0.46100424808115137
0.7129644 0.8110209476404118 0.4543993620392188
0.7149643 0.8150145981399027 0.4477617977326074
0.7169642 0.8186747687506101 0.44152685463917096
0.7189641 0.822833314231433 0.43502863116078905
0.720964 0.8259826957931886 0.42838063318185043
0.7229639 0.8297252465344945 0.4218719609569504
0.7249638 0.8337064421751336 0.41507236237306433
0.7269637 0.8374150120989674 0.40864367174944377
0.7289636 0.8407982136346857 0.4016316480543898
0.7309635 0.8440255893189642 0.39504181987376613
0.7329634 0.847613757226767 0.38860403695464485
0.7349633 0.8507681380853658 0.38151621608487274
0.7369632 0.8537377487602624 0.374714384622466
0.7389631 0.8573253254647395 0.36780994101813136
0.740963 0.8598953113112375 0.36096703856194523
0.7429629 0.8630186052158054 0.3542955784483206
0.7449628 0.8660875048982858 0.34750883114174935
0.7469627 0.8686580365010537 0.3406777024359714
0.7489626 0.871905818998795 0.33318090574122305
0.7509625 0.8745653944595654 0.32552332365310804
0.7529624 0.8775565583317602 0.3186932852855741
0.7549623 0.8800864009855152 0.3119007827225796
0.7569622 0.8822140824075158 0.3043086805957377
0.7589621 0.8853283194240077 0.2969677019084416
0.760962 0.8877659950259411 0.2897499020051815
0.7629619 0.890071851285448 0.28219460569035837
0.7649618 0.8926498717992277 0.27504138014086
0.7669617 0.8948237869280261 0.26768254296290916
0.7689616 0.8972556539737875 0.2600321186830863
0.7709615 0.899708342694483 0.25253801802981035
0.7729614 0.9019065156205628 0.245391229711655
0.7749613 0.9039590810307956 0.23799909317854323
0.7769612 0.9063141822455527 0.23040114911840168
0.7789611 0.9079651627039972 0.22284244906077477
0.780961 0.9098387996434536 0.21537239591737103
0.7829609 0.9118566416771118 0.20794641548757734
0.7849608 0.9141572256439096 0.2002879637946374
0.7869607 0.9158413659191571 0.1929723172497702
0.7889606 0.9175728252844791 0.18498034225325585
0.7909605 0.919244804777219 0.17773865079881765
0.7929604 0.9211183809936921 0.1704114649585068
0.7949603 0.9224066379296584 0.16269296582024786
0.7969602 0.923691699535182 0.155096488427784
0.7989601 0.9246670278775068 0.14739417328477042
0.80096 0.9268314911368224 0.14026915955956287
0.8029599 0.92765256894424 0.13262030917306664
0.8049598 0.9291444278918951 0.12533935303724214
0.8069597 0.9305567588092585 0.11771644266548428
0.8089596 0.9313511016991376 0.1096892502283986
0.8109595 0.9323606493288882 0.10241804335148685
0.8129594 0.9331815382932649 0.09443753308378372
0.8149593 0.9343253238940493 0.08707277420845552
