! Created with skrf 1.8.0 (http://scikit-rf.org).
# GHz S RI R 50.0 
!freq ReS11 ImS11
0.001 -0.9482328053562729 0.005367084776592865
0.0029999 -0.9476418515563644 0.011963816587584247
0.0049998 -0.9475559894890815 0.019300053176411244
0.0069997 -0.9468166279881367 0.026491046930174053
0.0089996 -0.94625918807824 0.033760522154724644
0.0109995 -0.9457330612617749 0.04059426017218157
0.0129994 -0.9451325654915426 0.04771632059139865
0.0149993 -0.9443456510335806 0.05506150005748277
0.0169992 -0.9437222763335312 0.061861959009804374
0.0189991 -0.9430140251647741 0.06921447193751677
0.020999 -0.9423618919485385 0.0759434605395176
0.0229989 -0.9416402502170524 0.08289458071776867
0.0249988 -0.9409435855228651 0.09002050040169698
0.0269987 -0.940094354268868 0.09701576998404067
0.0289986 -0.939140460356481 0.10417357962226459
0.0309985 -0.9380633124864056 0.11101218160099857
0.0329984 -0.9372503863004092 0.1179414809630001
0.0349983 -0.9360523596921866 0.1249107341315146
0.0369982 -0.9352206036723333 0.13209523593796296
0.0389981 -0.9338568439477134 0.13879063754270576
0.040998 -0.9327924451740064 0.14546999113956138
0.0429979 -0.9311717518143681 0.15254585039776394
0.0449978 -0.9299733902608952 0.15962518609222268
0.0469977 -0.928900210437302 0.16665745431514145
0.0489976 -0.9275647995080698 0.1732938657825348
0.0509975 -0.9262820721136241 0.18029502429392588
0.0529974 -0.9249726202104447 0.1870152565391036
0.0549973 -0.9233926489362083 0.19388675598099694
0.0569972 -0.9219087797109706 0.20071712324187452
0.0589971 -0.9203498486208146 0.2073840552997456
0.060997 -0.9187277857638485 0.2141640336918991
0.0629969 -0.9170702152719301 0.22091811013246687
0.0649968 -0.9152073374126172 0.22759503575069312
0.0669967 -0.9135044679122557 0.23435572366443921
0.0689966 -0.9116669680328688 0.24124495246053623
0.0709965 -0.909577749546762 0.24783446665705897
0.0729964 -0.9078624669387609 0.2545566400393354
0.0749963 -0.9060748214787679 0.26110115730523753
0.0769962 -0.9036716371680176 0.2680611253304262
0.0789961 -0.9016934749039325 0.27447370063933474
0.080996 -0.89976672678398 0.28116817915137654
0.0829959 -0.8974896717350941 0.28792301341002596
0.0849958 -0.8950647330609045 0.29439589472887606
0.0869957 -0.8929304064344081 0.30098813834873855
0.0889956 -0.8904498220446482 0.30789193926805214
0.0909955 -0.888132064733334 0.3143746120313589
0.0929954 -0.88546981189381 0.3207683262580315
0.0949953 -0.8835947534635524 0.3273934119553655
0.0969952 -0.8807795303372189 0.33379455305299655
0.0989951 -0.8780150586740232 0.34058583722224184
0.100995 -0.8758364836527804 0.3468435331180507
0.1029949 -0.8726357934523594 0.3530905903952538
0.1049948 -0.8701469486077397 0.3598000245653841
0.1069947 -0.8672286961295798 0.3663988652259477
0.1089946 -0.8645475794761508 0.3727852672908556
0.1109945 -0.8617516513243332 0.3791793229109478
0.1129944 -0.858755169297785 0.3854492518765326
0.1149943 -0.8557721632153 0.3920438584431144
0.1169942 -0.8528723697335026 0.3986340755851403
0.1189941 -0.8500436539105819 0.4050383021920557
0.120994 -0.8468589502348219 0.4113702753168943
0.1229939 -0.8439076090702275 0.4175423469578311
0.1249938 -0.840855983139229 0.42381412992964557
0.1269937 -0.8380488936812741 0.43002201479403784
0.1289936 -0.8348550726991955 0.43643411505432234
0.1309935 -0.8313920582162403 0.44250648530424547
0.1329934 -0.8280252463878411 0.44860603237754054
0.1349933 -0.825040369653891 0.4547405669987765
0.1369932 -0.8217481026095169 0.46064749845416
0.1389931 -0.8182464255198879 0.46679859165603493
0.140993 -0.8148861135113536 0.47312911067836644
0.1429929 -0.8112070126355152 0.4789212707151603
0.1449928 -0.8075389654534121 0.48503010316829703
0.1469927 -0.8042375751027091 0.4904937297654683
0.1489926 -0.8001805520321845 0.4965830917362517
0.1509925 -0.7966011211957608 0.5024945818491414
0.1529924 -0.7927119368593866 0.5080589705057432
0.1549923 -0.7889639594691379 0.5138587438850429
0.1569922 -0.7848557881870073 0.5197661794507771
0.1589921 -0.7809486956615644 0.5255566612735153
0.160992 -0.7768294002753547 0.5316234428335705
0.1629919 -0.7728552209612626 0.5372564449810574
0.1649918 -0.7686686401617948 0.5430665959882167
0.1669917 -0.7642648623697934 0.5485739351873937
0.1689916 -0.7600904994450368 0.5543895201082369
0.1709915 -0.7559791279027496 0.5601327788723135
0.1729914 -0.7515286402201017 0.5656392156934972
0.1749913 -0.7471001976246551 0.5713420433030606
0.1769912 -0.7428249161253662 0.5771215635068364
0.1789911 -0.7379419647212895 0.5826369317572452
0.180991 -0.7337297133476302 0.5883715568467264
0.1829909 -0.7291770453260386 0.5937940711620421
0.1849908 -0.7245278126365687 0.5994809796515773
0.1869907 -0.7200814925155364 0.6054379267718915
0.1889906 -0.7152549377721887 0.6111172663039666
0.1909905 -0.710475864256218 0.6167042665341885
0.1929904 -0.7060195719778907 0.6222389405245627
0.1949903 -0.7016044794015159 0.6275571479692654
0.1969902 -0.6971172040594736 0.6332050470194163
0.1989901 -0.6922751550046354 0.6381672567468547
0.20099 -0.6877254356754421 0.6435874337523052
0.2029899 -0.6829006433127538 0.6490809518881998
0.2049898 -0.6780460511655791 0.6542404325594747
0.2069897 -0.6730101239569422 0.6593532096897639
0.2089896 -0.6683878744562912 0.6644862438393448
0.2109895 -0.6634073894349358 0.6695412455896919
0.2129894 -0.658276532791048 0.6746412537835432
0.2149893 -0.6532604781221908 0.6793661948140646
0.2169892 -0.6485424186907034 0.6847310202948035
0.2189891 -0.6432923275188366 0.6895261932350722
0.220989 -0.6383071689593032 0.6941390281043176
0.2229889 -0.6326582108641824 0.6989003059843306
0.2249888 -0.6274108418758885 0.7036385276314527
0.2269887 -0.6221687522496792 0.7083845169154919
0.2289886 -0.6167985365293364 0.7131574709380873
0.2309885 -0.6116989948267789 0.7173517706268974
0.2329884 -0.6058788581877671 0.7218116617972651
0.2349883 -0.600790822738636 0.7266936932340843
0.2369882 -0.5946594905817515 0.7311796501236089
0.2389881 -0.589369023972276 0.7355725810863274
0.240988 -0.5834920544991017 0.7399750610048251
0.2429879 -0.5777535974896891 0.7442657796819729
0.2449878 -0.571995131089689 0.7484623720710962
0.2469877 -0.5659954965723777 0.752823062121112
0.2489876 -0.5601039866954798 0.7573614121322685
0.2509875 -0.5541802929665902 0.7614588658276205
0.2529874 -0.5481835027299048 0.7657287732273236
0.2549873 -0.5421072077561097 0.7701534765798196
0.2569872 -0.5361376837649232 0.7746588959188121
0.2589871 -0.5300213222294854 0.7789997248191175
0.260987 -0.5238057867674278 0.7828728230962503
0.2629869 -0.5179478786824188 0.7870027471269341
0.2649868 -0.5119916208778105 0.7910289423179429
0.2669867 -0.5059470111775645 0.7953921601208499
0.2689866 -0.49972184158028277 0.7992720434951432
0.2709865 -0.49354698203499114 0.8034733496603963
0.2729864 -0.48759274488503734 0.8072613304222525
0.2749863 -0.48129703810325863 0.8112935124285847
0.2769862 -0.4746824023272588 0.8150939014911295
0.2789861 -0.46837673343528163 0.8189004129636663
0.280986 -0.4624192731082054 0.8226765494188316
0.2829859 -0.4561330287375144 0.8263108217572905
0.2849858 -0.44983234940930944 0.829977569376434
0.2869857 -0.4435281237322961 0.8333916943999967
0.2889856 -0.4370092521526696 0.8369282786729674
0.2909855 -0.4306352240623828 0.8403587527432975
0.2929854 -0.42425664645283256 0.8440025325858629
0.2949853 -0.4179406450274671 0.8471073548926048
0.2969852 -0.41096213919276803 0.8501959685842718
0.2989851 -0.40470723790217766 0.8536555755416614
0.300985 -0.39760303690161175 0.8564212769025802
0.3029849 -0.39107434312303296 0.8596893380717648
0.3049848 -0.3846240022417212 0.8624703942165781
0.3069847 -0.3775451381979699 0.8652291530745203
0.3089846 -0.3710409343660379 0.8681495906911304
0.3109845 -0.36388934824825675 0.8711976866988272
0.3129844 -0.3574441562461878 0.8735402136455326
0.3149843 -0.3503678237007173 0.876474238937982
0.3169842 -0.3433293901421252 0.8790176390744397
0.3189841 -0.3364402994884337 0.8819557068591609
0.320984 -0.3295486268813546 0.8849774564382034
0.3229839 -0.32189496355102637 0.8874291125039752
0.3249838 -0.31472647330230985 0.8900647461499427
0.3269837 -0.30773162908969953 0.8925800062599991
0.3289836 -0.30066341086979054 0.8948177710698975
0.3309835 -0.2931611042266471 0.897270462349251
0.3329834 -0.2864875962693376 0.8995788331168296
0.3349833 -0.27911747690576144 0.9020223300396523
0.3369832 -0.27198525395365575 0.9043826911044636
0.3389831 -0.2646122676961254 0.9063453095626351
0.340983 -0.25743042652164266 0.9089711680840175
0.3429829 -0.24995823518280638 0.911318947516956
0.3449828 -0.2425279722935826 0.9133216752171486
0.3469827 -0.23525010548269926 0.9154239465221317
0.3489826 -0.22797142879167392 0.9177476851668311
0.3509825 -0.22075410624045624 0.9197642816764153
0.3529824 -0.21330238758327497 0.9216849442954862
0.3549823 -0.20611876742613927 0.9231640225208977
0.3569822 -0.19830293033304416 0.9250233777181791
0.3589821 -0.19108065504570818 0.9268423257809687
0.360982 -0.18394409425110583 0.9284280525223787
0.3629819 -0.17647461263018388 0.9299415344722688
0.3649818 -0.1693620697892043 0.9314024553839431
0.3669817 -0.16168555559995687 0.9329340879035107
0.3689816 -0.1544515142335445 0.9343218703526122
0.3709815 -0.14684898901191218 0.9354999024459223
0.3729814 -0.1396011980569848 0.9367734637481918
0.3749813 -0.13200949620876998 0.9380669829000462
0.3769812 -0.12447555707389214 0.9392449185855385
0.3789811 -0.11730455607346618 0.9403470998284751
0.380981 -0.10966173556301122 0.9411793709436499
0.3829809 -0.10233019302611646 0.9421742471635175
0.3849808 -0.09443268335590642 0.9430724351508418
0.3869807 -0.08670099154202265 0.943853365629818
0.3889806 -0.07920665053069009 0.9443495056762206
0.3909805 -0.07164081241122586 0.9448963157086268
0.3929804 -0.06401580407404378 0.9452587526670695
0.3949803 -0.05626456813277447 0.9457131844505654
0.3969802 -0.048472311080081196 0.9463484506216275
0.3989801 -0.04003905635680466 0.9464503292371247
0.40098 -0.03267763430095991 0.9465605389990887
0.4029799 -0.02479170998754207 0.9467490767083414
0.4049798 -0.01680509716531659 0.947505000228129
0.4069797 -0.009127097432074623 0.9475004744139155
0.4089796 -0.0014619782268282498 0.9477457148315542
0.4109795 0.006349514566630304 0.9479724095850073
0.4129794 0.014816282170591387 0.9477704282886579
0.4149793 0.022350731438235637 0.9479174585921507
0.4169792 0.03050835361162988 0.9477463137566371
0.4189791 0.038172461728275944 0.9472927746231248
0.420979 0.04612946566614275 0.9470924444142382
0.4229789 0.053838888950734076 0.9468698012664448
0.4249788 0.061696911543636324 0.9468789778613838
0.4269787 0.06950977305417239 0.9464625534992704
0.4289786 0.07738244719648317 0.9457835445447447
0.4309785 0.08490834706399564 0.9455221429124485
0.4329784 0.0930740416912891 0.944801442080883
0.4349783 0.10098599011908628 0.9441619101609026
0.4369782 0.10892137433612126 0.943177964418205
0.4389781 0.1164792336908563 0.942607953637698
0.440978 0.12456484545562044 0.9418030980378992
0.4429779 0.13200061351918346 0.9407534425992179
0.4449778 0.14016792110496398 0.9397820231854305
0.4469777 0.1479572085829021 0.938374777976388
0.4489776 0.15558728747835412 0.937342831712793
0.4509775 0.16367876910691326 0.9362527998545549
0.4529774 0.1713089781708428 0.9348138883470195
0.4549773 0.1791408927369655 0.9337364816939981
0.4569772 0.18687661527779828 0.9323127181450326
0.4589771 0.19478513922935975 0.9304988136885343
0.460977 0.20270330526088717 0.9290563030601414
0.4629769 0.21062712975649256 0.9271738686974846
0.4649768 0.21845949293908473 0.925600626822884
0.4669767 0.22640258366630778 0.9233235050476287
0.4689766 0.2343814748324377 0.9216622839523717
0.4709765 0.24175981275548747 0.9196319009255285
0.4729764 0.2494656487737611 0.91787599891067
0.4749763 0.25755914361451926 0.916031618775422
0.4769762 0.2655124685156246 0.9135536285137996
0.4789761 0.2729358843166251 0.9115128238334207
0.480976 0.2810698781717609 0.90939720285774
0.4829759 0.2889922300025249 0.907439128254896
0.4849758 0.2966446218092236 0.904799063170292
0.4869757 0.3042167633880577 0.9021172872858901
0.4889756 0.3119236398970103 0.8999131308642114
0.4909755 0.31992767290535806 0.8974850046078265
0.4929754 0.3274413011574093 0.8948942937191031
0.4949753 0.33467931281326196 0.8923679803239302
0.4969752 0.342545229815016 0.8894290759752087
0.4989751 0.35002584535141534 0.887068304863221
0.500975 0.3575320464363804 0.8844561503558664
0.5029749 0.36490885555205804 0.8813328272736756
0.5049748 0.37202296193424855 0.8782550437510218
0.5069747 0.37941866940069446 0.8750220514256193
0.5089746 0.38667189334681107 0.8719820590112346
0.5109745 0.39440896573169076 0.8686717420351779
0.5129744 0.4018869731666238 0.865400645882521
0.5149743 0.4093656845245795 0.8621847069121642
0.5169742 0.41673896224581236 0.8586527627795892
0.5189741 0.42374805708816443 0.8550505798776111
0.520974 0.4309137351900618 0.851322946026804
0.5229739 0.43844255839705426 0.8476135337989205
0.5249738 0.4455334742890522 0.8438774369134369
0.5269737 0.4525670539015907 0.8396647150417893
0.5289736 0.4597463018076983 0.8359388478735921
0.5309735 0.4674553886279945 0.8315334224844396
0.5329734 0.4741357369574796 0.8275631556197943
0.5349733 0.4812657231980458 0.823512497194499
0.5369732 0.4884989280032586 0.8190244482430257
0.5389731 0.49563734973457046 0.8148178557218696
0.540973 0.5029911396777645 0.8105161370639044
0.5429729 0.5100722098723461 0.8064257800165259
0.5449728 0.5172451246547675 0.8016400934745919
0.5469727 0.5244994335165133 0.7972956366173893
0.5489726 0.5312916600221506 0.7928259092454683
0.5509725 0.5381696843904675 0.7877699931179576
0.5529724 0.5452525562645734 0.7831951359802634
0.5549723 0.5524336400957244 0.7783408394040547
0.5569722 0.5591544287812867 0.773645726173664
0.5589721 0.5664101969104048 0.7689299946632976
0.560972 0.5733503033371731 0.7641010864656522
0.5629719 0.5801117093598912 0.7592990591240303
0.5649718 0.5868634837604444 0.7546461665584311
0.5669717 0.5935700613162698 0.7497554516955246
0.5689716 0.6002071671298232 0.7444373934657285
0.5709715 0.6066377508492742 0.7392881783850074
0.5729714 0.6130097263751945 0.7344031208740263
0.5749713 0.6197535227677349 0.7292677659935669
0.5769712 0.6260850739937156 0.724067522308441
0.5789711 0.6321587741147419 0.7189401338460968
0.580971 0.6384154738869559 0.7137663983490901
0.5829709 0.644884605939046 0.708378793580866
0.5849708 0.6511194365520624 0.7027022057085672
0.5869707 0.6568127667670363 0.697200123082464
0.5889706 0.6629374390992243 0.6914779939657649
0.5909705 0.6688115894609793 0.6856160604465977
0.5929704 0.6748449771052349 0.679633238850607
0.5949703 0.6804906321645932 0.6735032860527234
0.5969702 0.6864468702771994 0.6676709375617873
0.5989701 0.6922902180768712 0.661295105251291
0.60097 0.6978338800275667 0.6554256902363066
0.6029699 0.7035071128777605 0.6488818323770829
0.6049698 0.7091553622716839 0.6427133087044506
0.6069697 0.7147593616001852 0.6364584407077347
0.6089696 0.7204565173295618 0.630379278054381
0.6109695 0.7259615850424287 0.6237825523531014
0.6129694 0.7312804259730457 0.6173060838756907
0.6149693 0.7375921610408613 0.6112266867114375
0.6169692 0.7429561719115616 0.6041276120237521
0.6189691 0.7485283111554721 0.5976150890490363
0.620969 0.7534526047616238 0.5912660145363433
0.6229689 0.7585614335423032 0.5844046470633337
0.6249688 0.7641125855799559 0.5774903814669607
0.6269687 0.769447710185599 0.5706135675269883
0.6289686 0.7744328320445021 0.5638959045805779
0.6309685 0.7793060255395767 0.5569046978932413
0.6329684 0.7844894119742859 0.5503214326147199
0.6349683 0.7899162097552885 0.5435417293542412
0.6369682 0.794624196057661 0.5364000448304398
0.6389681 0.7992016631442175 0.5296346407526236
0.640968 0.8047222541834791 0.5228011121352452
0.6429679 0.8091438222097443 0.5157091073781936
0.6449678 0.8140991521766542 0.5087140217483974
0.6469677 0.818010716441089 0.5016988683928356
0.6489676 0.8226220247286745 0.4949588925695933
0.6509675 0.8268471092282754 0.48713412407245904
0.6529674 0.8317667313938958 0.4800855006037912
0.6549673 0.8354582571405618 0.47264336062991646
0.6569672 0.8397591296171864 0.4653982040034139
0.6589671 0.8438629750493299 0.4578238782775105
0.660967 0.8476460777260671 0.4505661008416093
0.6629669 0.8514745880289613 0.44316515779756777
0.6649668 0.8555685878856487 0.43608573714032206
0.6669667 0.8590166240251127 0.42869324491315247
0.6689666 0.8629047937841285 0.42090277353431904
0.6709665 0.8668284133720325 0.4132459861343711
0.6729664 0.8700707773968569 0.4049234471732611
0.6749663 0.873394398350507 0.3971793982165468
0.6769662 0.8768691477085417 0.3893104436096651
0.6789661 0.8807866374730696 0.3813473390685858
0.680966 0.8837049886141636 0.3737010586300103
0.6829659 0.8872199874469417 0.3658512610139082
0.6849658 0.8904539833208616 0.35754955859934506
0.6869657 0.8930021606977996 0.34951646320337937
0.6889656 0.8965781414923757 0.341392341051338
0.6909655 0.8993506076904738 0.3335477957873595
0.6929654 0.9024026078607615 0.32543008228289905
0.6949653 0.9051781666134555 0.3171009608734979
0.6969652 0.9080006983356133 0.30878720490187206
0.6989651 0.911035022406528 0.3009231992257556
0.700965 0.9136251538552318 0.2923725840256498
0.7029649 0.9163379165835582 0.28444156755587097
0.7049648 0.9189884202465575 0.27612562912551797
0.7069647 0.9212751405470644 0.26785394653144573
0.7089646 0.9239165141745304 0.25997331869428064
0.7109645 0.9262902951000643 0.25149754745065644
0.7129644 0.9289127618853761 0.2434568684404066
0.7149643 0.9307871465472194 0.235100275687941
0.7169642 0.9328797317785625 0.22675700626369766
0.7189641 0.9353863631751548 0.218690960882793
0.720964 0.9368574155946023 0.21041234663763436
0.7229639 0.9386534144355168 0.20216067393325307
0.7249638 0.9409280432162419 0.19368591690450399
0.7269637 0.9424319443422041 0.18550288821097602
0.7289636 0.9439558595510934 0.17731559681020795
0.7309635 0.9456955120562581 0.16890019729222508
0.7329634 0.9471472480688242 0.16065934171910112
0.7349633 0.948320903147488 0.15205411913709466
0.7369632 0.9495709282297169 0.14365693934317278
0.7389631 0.9508196907028523 0.1353907346575305
0.740963 0.9519113560632897 0.1268637565339437
0.7429629 0.953132567714353 0.11836913450153527
0.7449628 0.9541296888870914 0.10985046078136039
0.7469627 0.9551311542025879 0.10185544081100084
0.7489626 0.9558171073543494 0.09277905760736485
0.7509625 0.9564186277065831 0.08429464950549319
0.7529624 0.9571568306754428 0.07603838434183015
0.7549623 0.9579344307493011 0.0672110420777497
0.7569622 0.9583336024619877 0.05885810482548343
0.7589621 0.9591904549352311 0.05034714617139809
0.760962 0.9596054231548808 0.04179475376508119
0.7629619 0.9595712104465017 0.0330992679119167
0.7649618 0.9600713796388621 0.02459063104863738
0.7669617 0.9603495262106087 0.016422646616416348
0.7689616 0.9603160641123207 0.007752280262724766
0.7709615 0.9603254015489155 -0.0008407937756333833
0.7729614 0.9603468326336356 -0.009355258089194733
0.7749613 0.9604699510423872 -0.017861938185027446
0.7769612 0.960060489561312 -0.026333881501344733
0.7789611 0.9597499596659911 -0.034774029716712944
0.780961 0.9595366882821729 -0.04326955481961398
0.7829609 0.95885901041652 -0.05192062934448528
0.7849608 0.9584985867870051 -0.060286262337652566
0.7869607 0.9578519628901938 -0.0685834406464853
0.7889606 0.9570372311092881 -0.07749683240517977
0.7909605 0.9565798067261271 -0.0852907607406411
0.7929604 0.9557365882213162 -0.09379214865018158
0.7949603 0.9547351979266194 -0.10241925463631878
0.7969602 0.9533268448359388 -0.1108397492329665
0.7989601 0.9523230195729409 -0.11908621368656336
0.80096 0.9519201533153779 -0.12755746328148726
0.8029599 0.9503645568327672 -0.13567452925310447
0.8049598 0.9489748451245309 -0.14418457460208536
0.8069597 0.9477632273535804 -0.15259308888402706
0.8089596 0.9463059929574971 -0.16099322494996388
0.8109595 0.9447114312449142 -0.1692875419481436
0.8129594 0.9430786370491984 -0.17809731118693078
0.8149593 0.9414988649982219 -0.18640411509317953
