! Created with skrf 1.8.0 (http://scikit-rf.org).
# GHz S RI R 50.0 
!freq ReS11 ImS11
0.001 -0.9201568855235362 0.005845050031114766
0.0029999 -0.9196970861346455 0.012249227891318583
0.0049998 -0.9189446483641664 0.01909883964214136
0.0069997 -0.9183586974047306 0.02595577874455681
0.0089996 -0.9177313115685648 0.0331237699976122
0.0109995 -0.9174200962165084 0.03997234273867936
0.0129994 -0.9168828535894842 0.046823188781195985
0.0149993 -0.9161262292299954 0.05375322983121813
0.0169992 -0.915361851150444 0.060499094931011244
0.0189991 -0.9145802264003055 0.06727161465985106
0.020999 -0.9139560482366282 0.07427470281104588
0.0229989 -0.9129676369527816 0.080930281547781
0.0249988 -0.9120925451241076 0.08803705808756188
0.0269987 -0.9117416995439384 0.09461292912051009
0.0289986 -0.9105571414218245 0.10150538351734485
0.0309985 -0.9094814385892198 0.10822048892945726
0.0329984 -0.9087998865694413 0.1149320677039491
0.0349983 -0.9077955436232202 0.12174862092783424
0.0369982 -0.906824441050844 0.12872825425906043
0.0389981 -0.9055031767037927 0.13535531096047582
0.040998 -0.9045082979016574 0.142047411276923
0.0429979 -0.9029821319006425 0.14854779095332388
0.0449978 -0.9018677513346633 0.15550690518063628
0.0469977 -0.9006611219405072 0.16239718012294307
0.0489976 -0.8995407871672608 0.16882162161891326
0.0509975 -0.8980197618268919 0.17564637655411414
0.0529974 -0.8967413037672686 0.18217045351643774
0.0549973 -0.8954680409873971 0.18883661282186287
0.0569972 -0.8937830408984517 0.19554747853305604
0.0589971 -0.8921087878208531 0.2019473564977588
0.060997 -0.8906899476839024 0.20860132395636657
0.0629969 -0.8891448374764978 0.2151699973475518
0.0649968 -0.8874348475000904 0.22161772836955426
0.0669967 -0.8858101350411646 0.2280709879206773
0.0689966 -0.8840374063526556 0.2348818360365665
0.0709965 -0.8819533327277339 0.24133450223583724
0.0729964 -0.8802268243964978 0.24782052613228048
0.0749963 -0.8785041857712718 0.25421009344314116
0.0769962 -0.8763670211027879 0.26094126916142546
0.0789961 -0.8743433836174781 0.26715420436329523
0.080996 -0.8722450873698524 0.27372578502771927
0.0829959 -0.870154242660224 0.28018834767309014
0.0849958 -0.8679529915596672 0.2864154832650268
0.0869957 -0.8655995578116401 0.2929710804511233
0.0889956 -0.8631229076167802 0.29947623209128865
0.0909955 -0.8610900850711359 0.30597206263765814
0.0929954 -0.8585619088348749 0.3122993876179652
0.0949953 -0.8562646142727083 0.3184623989944694
0.0969952 -0.8535834877581892 0.3248981062032192
0.0989951 -0.8513352561955237 0.3315049267387515
0.100995 -0.8486470052914501 0.3373897690228007
0.1029949 -0.8458799674312506 0.3435832341798101
0.1049948 -0.8435332964110028 0.3500137892126614
0.1069947 -0.8407177544290588 0.35664800979992317
0.1089946 -0.8380808232781103 0.36290521500837675
0.1109945 -0.8354623178569539 0.36899567866006144
0.1129944 -0.8325070604534831 0.37518837947003364
0.1149943 -0.8297657282094988 0.38146082052155356
0.1169942 -0.8268255678065484 0.38791109095111354
0.1189941 -0.8239918250068742 0.39398698712107116
0.120994 -0.821029705134999 0.40030452581261944
0.1229939 -0.8181356312670484 0.40626667570027497
0.1249938 -0.8152107605497269 0.4123656795875209
0.1269937 -0.8121541757631292 0.41834203722386337
0.1289936 -0.8094371056446147 0.4245424688028483
0.1309935 -0.806011352346029 0.4305478600604149
0.1329934 -0.8028152455444905 0.4364506387968841
0.1349933 -0.7997743942786067 0.44247067319877753
0.1369932 -0.796481424870276 0.44843484927034577
0.1389931 -0.7931178658010183 0.4542712943987518
0.140993 -0.7896672442602285 0.4603020926285864
0.1429929 -0.7867279954665237 0.46598145934567614
0.1449928 -0.7828051832622552 0.4719542032453845
0.1469927 -0.7793550314855392 0.47757267827079014
0.1489926 -0.7755021315915375 0.4833959404946325
0.1509925 -0.7723037727614227 0.48905154514579435
0.1529924 -0.7685822800553893 0.49435022304915976
0.1549923 -0.7644449782445181 0.49986414081658914
0.1569922 -0.760826728415824 0.5057273310072705
0.1589921 -0.7567998161643056 0.5116469425858283
0.160992 -0.7528306797294699 0.5173235390909834
0.1629919 -0.7491434005438717 0.5226764198304646
0.1649918 -0.7453561943549912 0.5284996218502723
0.1669917 -0.7409623746674591 0.5339088825215039
0.1689916 -0.7368205660235173 0.5395204154021871
0.1709915 -0.7327135377723176 0.5450294913253888
0.1729914 -0.728126358674682 0.5503804260439271
0.1749913 -0.7239713123296697 0.5559040969650794
0.1769912 -0.7197805978825489 0.5612381874357288
0.1789911 -0.7154581706040578 0.5669973452865884
0.180991 -0.7113368346618093 0.5724135986638512
0.1829909 -0.7068936941477002 0.5778373263515759
0.1849908 -0.7024083177057066 0.5834405647557488
0.1869907 -0.6984345738127566 0.5892088959772038
0.1889906 -0.6932839138750021 0.5946008646359543
0.1909905 -0.6886325483631975 0.6000546183673618
0.1929904 -0.6842866861226266 0.6055577140316273
0.1949903 -0.679938294520478 0.6107705129865939
0.1969902 -0.6757605966626926 0.6160179232849216
0.1989901 -0.6711088178106211 0.6209772782755212
0.20099 -0.6666699768892034 0.6262907179194908
0.2029899 -0.6621115305614036 0.6316619941728623
0.2049898 -0.6571334663934243 0.636469742119395
0.2069897 -0.6523759546450818 0.6415085919422613
0.2089896 -0.6477077232578748 0.6467270165469575
0.2109895 -0.6429155778052178 0.6512424137353608
0.2129894 -0.6380161838209383 0.6564818489835884
0.2149893 -0.6331890112710329 0.661210136269705
0.2169892 -0.6284299101872586 0.6663875150338676
0.2189891 -0.6235689969305809 0.6712230283608377
0.220989 -0.6185885313842601 0.6754776835958698
0.2229889 -0.6135945780805491 0.6801997031879411
0.2249888 -0.6083591947572269 0.6849100303969087
0.2269887 -0.6030578501116018 0.6894281518090764
0.2289886 -0.5977228149679958 0.6938548739317139
0.2309885 -0.5929507104601858 0.6981770615400782
0.2329884 -0.5874174802861627 0.702638271908991
0.2349883 -0.5821405146870954 0.7072896237593975
0.2369882 -0.5763329192347575 0.7118004308627484
0.2389881 -0.5713073648479806 0.7161214768414218
0.240988 -0.5656103266345862 0.7203762791647643
0.2429879 -0.5598711434023383 0.7244802718510355
0.2449878 -0.5542918335111409 0.7286897643097876
0.2469877 -0.548680777168255 0.7328328627939892
0.2489876 -0.5428316671963934 0.7371744052043472
0.2509875 -0.5369828948751855 0.7411985787961813
0.2529874 -0.5313595159868101 0.7455203433780269
0.2549873 -0.5253823572569923 0.7498781289718045
0.2569872 -0.5195897349897222 0.7540194453453952
0.2589871 -0.5135057353780669 0.758266830395527
0.260987 -0.5077797193379788 0.7622692897610114
0.2629869 -0.5018441136820055 0.7661999684090849
0.2649868 -0.496169231533943 0.7701827200336042
0.2669867 -0.4903457970085654 0.7743923101768708
0.2689866 -0.4841487061853479 0.7782990655832306
0.2709865 -0.47839083156859363 0.782257544295366
0.2729864 -0.4721453072355556 0.7860978462989123
0.2749863 -0.46631829721635093 0.78980774556909
0.2769862 -0.46011842091371014 0.793823423361063
0.2789861 -0.4539034016473666 0.7972548571794094
0.280986 -0.44804988086011316 0.8009816640172184
0.2829859 -0.44186066831824294 0.8045191573830895
0.2849858 -0.43591449546697947 0.808323178627126
0.2869857 -0.42953430549378036 0.8116772899310972
0.2889856 -0.4233714894390561 0.8151133829595325
0.2909855 -0.4173298077160138 0.818559992131921
0.2929854 -0.4108532287547823 0.8220323401073383
0.2949853 -0.40448546095039145 0.8251339757645224
0.2969852 -0.3982419026090868 0.8281055367453585
0.2989851 -0.3920383644857132 0.8313135582222475
0.300985 -0.3851720541083043 0.8341331077328074
0.3029849 -0.3789019576506527 0.836897996648629
0.3049848 -0.3724615425378032 0.8403416979982027
0.3069847 -0.3658296197923088 0.8427962664700838
0.3089846 -0.35932714339614963 0.8456729462042001
0.3109845 -0.35248829869655446 0.8485391882840764
0.3129844 -0.3458441169995122 0.8510571760487993
0.3149843 -0.3393485945509343 0.8538658540032604
0.3169842 -0.3324453506681755 0.8563015310354177
0.3189841 -0.32565879102543366 0.8589913742718013
0.320984 -0.31898007078120527 0.862054389663046
0.3229839 -0.31145203494731205 0.864481187918229
0.3249838 -0.30479878476476485 0.8671784408317418
0.3269837 -0.29783096297339645 0.8697167993171133
0.3289836 -0.2910898022008989 0.8720219645511621
0.3309835 -0.2837197363966775 0.8743844559139072
0.3329834 -0.2771369777865152 0.8767142668669846
0.3349833 -0.2700096709518055 0.8792348614123412
0.3369832 -0.26323995194018257 0.8814976872633136
0.3389831 -0.25613392342604435 0.88336019030037
0.340983 -0.249136980707335 0.885878056992156
0.3429829 -0.24188853690756737 0.8882091372692165
0.3449828 -0.23478088217821577 0.8903023716674816
0.3469827 -0.22746161786282645 0.8922000852959386
0.3489826 -0.220526664528901 0.8947180983569625
0.3509825 -0.21344919836383597 0.8963937505835248
0.3529824 -0.20635924438184358 0.8986828639398801
0.3549823 -0.19916597036916636 0.8999961867567755
0.3569822 -0.1916222739601106 0.9020158674097584
0.3589821 -0.18486414581904623 0.9037031536450439
0.360982 -0.1774646205934704 0.9052803268255851
0.3629819 -0.17010137585466814 0.9067147371214104
0.3649818 -0.163313621270189 0.9081908899683528
0.3669817 -0.1560479357913092 0.9098541140569918
0.3689816 -0.14872914451952038 0.9110602894407127
0.3709815 -0.1417772561510734 0.9124882923594743
0.3729814 -0.13451116781713393 0.9137426626936701
0.3749813 -0.12715213056641755 0.91504977382414
0.3769812 -0.11972311036439616 0.9160835859018028
0.3789811 -0.11288386174472707 0.9172953732289018
0.380981 -0.10533235305604906 0.9181634705635506
0.3829809 -0.09822097157169862 0.9187736971367367
0.3849808 -0.09051175462390686 0.9200785233967084
0.3869807 -0.08344247208830136 0.9208377444958933
0.3889806 -0.07574255428392385 0.921284121899156
0.3909805 -0.06809827216910234 0.9220122814693782
0.3929804 -0.06096386475589975 0.922381921032064
0.3949803 -0.05339424038555737 0.9230800374939054
0.3969802 -0.04572641155837826 0.9232162597291513
0.3989801 -0.03786653783431709 0.9235216397400017
0.40098 -0.030392376878587056 0.9239978780491638
0.4029799 -0.02271345858167948 0.9243463315510652
0.4049798 -0.01496580304782041 0.9249134492714665
0.4069797 -0.007387914830888506 0.9248099241445291
0.4089796 0.00021956245901170492 0.9251801163098584
0.4109795 0.007716829917272978 0.9253937483720049
0.4129794 0.015687762736314323 0.9253656049668755
0.4149793 0.023160115519257493 0.9255466979045561
0.4169792 0.031055495352876644 0.9256110925671289
0.4189791 0.0384985186251568 0.9249631896128679
0.420979 0.04624109344309226 0.9249007349254262
0.4229789 0.05395430523448891 0.9248798270975138
0.4249788 0.061488254587376806 0.9245743052885097
0.4269787 0.06910735598757203 0.9243706172907021
0.4289786 0.07689076484327041 0.9240147244952834
0.4309785 0.08428809244245654 0.9234638785053857
0.4329784 0.09215129925729965 0.9231068676347253
0.4349783 0.09972184078585435 0.9222690455047676
0.4369782 0.10747403704575328 0.9216750565685969
0.4389781 0.11504692228501642 0.9207089877028724
0.440978 0.12306975847128637 0.9204335270746774
0.4429779 0.13032177343765106 0.9194096475025724
0.4449778 0.13806755013369015 0.9186304779717984
0.4469777 0.14571363199820264 0.9172793327103206
0.4489776 0.15312182813600633 0.9161512313871887
0.4509775 0.1609441819819303 0.9150561820457801
0.4529774 0.16865673595156416 0.9138440726324001
0.4549773 0.17618581226265687 0.9129642278397601
0.4569772 0.1837375628622911 0.9113971133073476
0.4589771 0.1914266538901201 0.9099117975536265
0.460977 0.19925407319174884 0.9084802384960364
0.4629769 0.20690092292336917 0.9068159243766813
0.4649768 0.2145854769769252 0.9047348110389374
0.4669767 0.2223763750148911 0.9032351354627836
0.4689766 0.23030227922256213 0.9017600008110773
0.4709765 0.23730470445390633 0.8997383571162588
0.4729764 0.2450206144204578 0.8979360533936613
0.4749763 0.2528232871533024 0.8964295482697152
0.4769762 0.26063979741736965 0.8940622326184221
0.4789761 0.26807543570122655 0.8920040144644943
0.480976 0.2758815144492346 0.8901454805066716
0.4829759 0.283672175160312 0.8880874623824799
0.4849758 0.2914508813817389 0.8857897816975709
0.4869757 0.2984476592029129 0.8831703510772435
0.4889756 0.30604013060348334 0.8809672562476538
0.4909755 0.31387945953312574 0.8788285344710836
0.4929754 0.3214393490278179 0.8762814631503913
0.4949753 0.32845410146971227 0.8739288572159987
0.4969752 0.3360529818018444 0.8714484292080595
0.4989751 0.34346857008909526 0.8690321697661791
0.500975 0.35082793306255555 0.8662351535929237
0.5029749 0.3581796366947785 0.8634227472350462
0.5049748 0.36525488869922473 0.8603249349580299
0.5069747 0.3727229912215929 0.8572330514381586
0.5089746 0.37950405274866317 0.8540984668922271
0.5109745 0.3871666604040879 0.8511209407631676
0.5129744 0.39458087925653174 0.848252278902298
0.5149743 0.401858657333322 0.8450144343652902
0.5169742 0.4089086184613108 0.8415765298783369
0.5189741 0.41619159031381414 0.8382537274512134
0.520974 0.42323073136658423 0.8348380643369376
0.5229739 0.43041007537620113 0.8310362684454907
0.5249738 0.43731204398548845 0.8274384096827019
0.5269737 0.4444063413933746 0.8234451380065285
0.5289736 0.45145527448238526 0.8195946306343939
0.5309735 0.4590838669010619 0.8153013589562965
0.5329734 0.4659607993034839 0.8117393307241292
0.5349733 0.47254499257544 0.8078835487692791
0.5369732 0.4797240775357727 0.8034019682908946
0.5389731 0.48666634675841797 0.7994661901208059
0.540973 0.4940364815307272 0.7952912597730941
0.5429729 0.5009956705016653 0.7914337035816057
0.5449728 0.5080407765097847 0.7865847575511971
0.5469727 0.5152373487100597 0.7824448244375787
0.5489726 0.5219903162710301 0.778142131715535
0.5509725 0.5287146686468779 0.7734103105586698
0.5529724 0.5357650282377293 0.7688429533013849
0.5549723 0.5425519436272117 0.7642496033730938
0.5569722 0.5496634927753186 0.7597712643799739
0.5589721 0.5565585565896429 0.7551252062830005
0.560972 0.5633700183136365 0.7504722308801309
0.5629719 0.5701063479079281 0.7460077562117767
0.5649718 0.5768123981533386 0.7412840412949017
0.5669717 0.5835539765756776 0.7364683488786478
0.5689716 0.5900807061271943 0.7313653688029826
0.5709715 0.596634368356646 0.7263689803409955
0.5729714 0.6027318811842582 0.7216929293309764
0.5749713 0.6093573594563552 0.716766030647426
0.5769712 0.6158549446518337 0.7116310892315514
0.5789711 0.621840679552046 0.7066527813757275
0.580971 0.6279620324292372 0.7016774437521711
0.5829709 0.6342026926209566 0.6963807004992717
0.5849708 0.6402384476899211 0.6909920774159714
0.5869707 0.6458820833155211 0.685787455467296
0.5889706 0.6523461863066915 0.6797904078113449
0.5909705 0.6577823200864272 0.674291473078642
0.5929704 0.6642562608387327 0.6684967536697212
0.5949703 0.6698148595821726 0.6626346625019487
0.5969702 0.6753429178286046 0.6567483828387009
0.5989701 0.6816851863290536 0.6505487461704468
0.60097 0.6869766292395273 0.6449624007022271
0.6029699 0.6926509528970648 0.6385250313017279
0.6049698 0.6981577177635825 0.6325113114448523
0.6069697 0.7037790656831309 0.6264916208636848
0.6089696 0.7093844035911436 0.6204923295906568
0.6109695 0.7150561770987763 0.6141047040101512
0.6129694 0.7203514838504635 0.6076986254719529
0.6149693 0.7264448278646065 0.6017180637843392
0.6169692 0.7316933019100154 0.5951888172593087
0.6189691 0.7372577196505526 0.5885433193542695
0.620969 0.7422289883564139 0.5822601244125849
0.6229689 0.7473552052637326 0.5754383455184094
0.6249688 0.7527463255843907 0.5688603272558926
0.6269687 0.7582599879172063 0.5619227476743291
0.6289686 0.7632651483822237 0.5554703840832091
0.6309685 0.768296770677103 0.5486359497611115
0.6329684 0.7733325073134295 0.5421888889517181
0.6349683 0.7785787049885176 0.5355647150932599
0.6369682 0.7835324941618848 0.5285353513829819
0.6389681 0.788219863752877 0.5219233085020263
0.640968 0.7936799866939618 0.5150100956303517
0.6429679 0.7978352786688545 0.5082370265453455
0.6449678 0.8027957467526713 0.5011169911325637
0.6469677 0.8068263039033299 0.4942654198297508
0.6489676 0.8113300817544872 0.48795231239073544
0.6509675 0.8157711416341663 0.48022604968493765
0.6529674 0.8205687186952887 0.4734626159302791
0.6549673 0.8242653914097807 0.46594462273266457
0.6569672 0.8285515077312454 0.45884850614415557
0.6589671 0.8326903711401026 0.451365770506211
0.660967 0.8366812379342716 0.4443916022380283
0.6629669 0.8405250042813219 0.43660060918099863
0.6649668 0.8443006521344782 0.4300121555952594
0.6669667 0.8480121448775356 0.4224022899558908
0.6689666 0.8518722620038641 0.41504856062151596
0.6709665 0.8551895891848169 0.4074791895306145
0.6729664 0.8588932119913931 0.3994715206564608
0.6749663 0.8625978389856295 0.39164539735662834
0.6769662 0.8658065383566537 0.38402238272029443
0.6789661 0.8697676596631907 0.37626882623449837
0.680966 0.8732500759860194 0.368699461175612
0.6829659 0.8765344834955704 0.3607606509849456
0.6849658 0.8794704054463949 0.3527771846775484
0.6869657 0.8822248323456995 0.3447043234689768
0.6889656 0.8857600532244247 0.3369036746335808
0.6909655 0.8886723967326985 0.329150448987209
0.6929654 0.8919552186233364 0.321020951895727
0.6949653 0.8946139787359447 0.3128834369835484
0.6969652 0.8975572625852347 0.30461985400515906
0.6989651 0.9006170118823591 0.2968604708859206
0.700965 0.9033323810639949 0.2884602964259818
0.7029649 0.9059636251759432 0.28059687222634244
0.7049648 0.9087981858400583 0.27249166775747063
0.7069647 0.9110611209840556 0.2640773351373622
0.7089646 0.9138187232038505 0.2563446167545148
0.7109645 0.9160520533882895 0.24783169250417286
0.7129644 0.9187574850850942 0.24002107485925983
0.7149643 0.9207094798272982 0.23175430005903402
0.7169642 0.9228428856120504 0.22366526340487894
0.7189641 0.9254394785482155 0.21560750316190083
0.720964 0.9270369693796732 0.20717787636147367
0.7229639 0.9290156156588563 0.1987498891065813
0.7249638 0.9312006347863289 0.19062128863766437
0.7269637 0.932699183447179 0.18251146438247343
0.7289636 0.93428054557938 0.17430963143243902
0.7309635 0.9359760697803023 0.1658373774980654
0.7329634 0.937518334686636 0.1578363614693037
0.7349633 0.9385379925163806 0.1495913571611891
0.7369632 0.94005064665962 0.14089991556699266
0.7389631 0.9412650396468161 0.13291105680980345
0.740963 0.9423891791254381 0.12447751165539953
0.7429629 0.943955820647206 0.11617853365215619
0.7449628 0.9449252579710148 0.10762995712745867
0.7469627 0.9456498889239748 0.09949634913948609
0.7489626 0.9466560051543708 0.09068312207091012
0.7509625 0.9469210708801211 0.08268734830069045
0.7529624 0.9482712950776666 0.0740225314584948
0.7549623 0.9489261341184491 0.06524999779378765
0.7569622 0.9495124424556902 0.05700848767874478
0.7589621 0.9502808932884692 0.04840596316033641
0.760962 0.9507580543012243 0.039724003246634776
0.7629619 0.950778421575698 0.031201632228546883
0.7649618 0.9512472360849469 0.02270679582256684
0.7669617 0.9514973453076521 0.014315463217891004
0.7689616 0.9515009983609817 0.005996302196494913
0.7709615 0.9516486636091118 -0.002607178082983677
0.7729614 0.9517476499189509 -0.011084489701004535
0.7749613 0.9517681187593803 -0.019489607981769505
0.7769612 0.9515316008333189 -0.028043822036215416
0.7789611 0.9513098375954975 -0.03636821883317009
0.780961 0.9511750785521406 -0.044720957942316536
0.7829609 0.9504799230179753 -0.05344110076304647
0.7849608 0.950240461101755 -0.06184823339465233
0.7869607 0.9495805855446091 -0.07009469250484913
0.7889606 0.9487755717875682 -0.07880282335359562
0.7909605 0.9485566681702504 -0.08675085527932377
0.7929604 0.9476686842575047 -0.09533538346071928
0.7949603 0.9467970614905867 -0.1037918971020939
0.7969602 0.9455968214016472 -0.11235332494245166
0.7989601 0.9445542197883517 -0.12045603475794493
0.80096 0.9440573130038507 -0.12890647918572562
0.8029599 0.9424742173633676 -0.13718024467230044
0.8049598 0.9412420539887004 -0.1453554910384828
0.8069597 0.9400406475461193 -0.15395237503566814
0.8089596 0.9387673644266399 -0.1624719913273984
0.8109595 0.936995658951657 -0.17073100965984173
0.8129594 0.9355635713881219 -0.17926884841691976
