! Created with skrf 1.8.0 (http://scikit-rf.org).
# GHz S RI R 50.0 
!freq ReS11 ImS11
0.001 -0.9034330428686781 0.005558725242560886
0.0029999 -0.9033022350368443 0.01152984138086565
0.0049998 -0.902359945262692 0.017386596692457165
0.0069997 -0.9015664939134319 0.023418575784487417
0.0089996 -0.9013801095795855 0.029805646438159063
0.0109995 -0.9010504810959253 0.03580686541165022
0.0129994 -0.9005115216958611 0.04215244653020496
0.0149993 -0.8996948074880339 0.04831238990340318
0.0169992 -0.8993647872613986 0.05438297853389847
0.0189991 -0.8984466008788771 0.06067986131271044
0.020999 -0.8978649865394593 0.066585228234097
0.0229989 -0.8972616340051478 0.07272741696246879
0.0249988 -0.8964514965877647 0.07892050564717151
0.0269987 -0.8960611213797044 0.08485226938704576
0.0289986 -0.8948879804154756 0.09109215601106496
0.0309985 -0.8942628212970718 0.09717503936252919
0.0329984 -0.8934611264877252 0.10294563708824477
0.0349983 -0.8926688694718248 0.10931861174561636
0.0369982 -0.8916139687557495 0.11548453219290772
0.0389981 -0.8910205556427925 0.12154684842304998
0.040998 -0.8901963712875153 0.12725230715659505
0.0429979 -0.8887145392905874 0.13343066857375394
0.0449978 -0.8879482891273599 0.13934328388686087
0.0469977 -0.8869244324854788 0.14557927486620453
0.0489976 -0.8859093907649623 0.15151044999994878
0.0509975 -0.8846050368864844 0.15758852161359035
0.0529974 -0.8837379054699827 0.16341249647137895
0.0549973 -0.8829217109037037 0.16954211328372384
0.0569972 -0.8811229305410153 0.1753367769996266
0.0589971 -0.8798272864969909 0.18118251595797671
0.060997 -0.8787840885778349 0.1871166056828842
0.0629969 -0.8773460727748924 0.19298913214698124
0.0649968 -0.8759000630840079 0.19884564399619356
0.0669967 -0.8748234836856824 0.20483235627211496
0.0689966 -0.8733673619934434 0.21088004660691
0.0709965 -0.8715550403793527 0.21657400408518857
0.0729964 -0.870122932429459 0.22256799469636718
0.0749963 -0.868902061486875 0.22823277487364102
0.0769962 -0.8668850375649942 0.23410017331910088
0.0789961 -0.8652111808923663 0.2400011311513085
0.080996 -0.8635237212751976 0.24570700083903424
0.0829959 -0.8620147267881616 0.25173508125100624
0.0849958 -0.8599835440362839 0.25730204386670047
0.0869957 -0.858113661786565 0.2631357785238341
0.0889956 -0.8560962108799917 0.26917419958099675
0.0909955 -0.8544058059329566 0.2748553347186236
0.0929954 -0.8522898643628586 0.2807121993657138
0.0949953 -0.8502959874251571 0.28645867404396214
0.0969952 -0.8482960030969305 0.29199406471313083
0.0989951 -0.8461228489750954 0.298074016779818
0.100995 -0.844104439976988 0.30359541829159753
0.1029949 -0.8420805557902403 0.3089945026267979
0.1049948 -0.8400197874644119 0.31491376198697757
0.1069947 -0.8377553406987878 0.3209042285644475
0.1089946 -0.8354216975598902 0.3261732467659379
0.1109945 -0.8334677639875011 0.33214711726033824
0.1129944 -0.8309482824205359 0.3377569476090586
0.1149943 -0.8285924695781736 0.3435226615048813
0.1169942 -0.826178040928094 0.3492842466400592
0.1189941 -0.8242108964244111 0.3549684035337911
0.120994 -0.821478196679663 0.3606190226563433
0.1229939 -0.8189968174628544 0.3660023348459849
0.1249938 -0.8169086594662968 0.3715253968689679
0.1269937 -0.8144082798233271 0.37714808659974897
0.1289936 -0.8122005166432954 0.382727947024886
0.1309935 -0.8092433128510185 0.38807579750540433
0.1329934 -0.8068521770418775 0.3934780359830908
0.1349933 -0.8041832184568399 0.3990822365193158
0.1369932 -0.8016730878973269 0.4044133304748499
0.1389931 -0.7989209469908893 0.40978869791337236
0.140993 -0.7960599072897475 0.4157677833034214
0.1429929 -0.7933162872341113 0.42066814749221865
0.1449928 -0.7903351041829123 0.4260880940371946
0.1469927 -0.7877342982786975 0.43118004087341055
0.1489926 -0.7844593692593009 0.4367002362032072
0.1509925 -0.7816491377160614 0.44205251675550955
0.1529924 -0.7785991813430186 0.4467801343379512
0.1549923 -0.775423802920233 0.45200893091154387
0.1569922 -0.7720607382986584 0.45724675361987116
0.1589921 -0.7689162566155934 0.4627146335399862
0.160992 -0.7654851866868362 0.46797916197253786
0.1629919 -0.7628992191444315 0.4732582340831436
0.1649918 -0.7593372319157646 0.4781941139671289
0.1669917 -0.7557402860206947 0.4833589599359154
0.1689916 -0.752571837541407 0.48829220524103845
0.1709915 -0.7493309960354081 0.49399630304987663
0.1729914 -0.7454022327574222 0.49882280146112024
0.1749913 -0.7417838313014614 0.5040842758074583
0.1769912 -0.7385650739671181 0.5091788607286314
0.1789911 -0.7350157924686302 0.5142675050630319
0.180991 -0.7313166568224252 0.5193413712170984
0.1829909 -0.7276056034333364 0.5245701991055911
0.1849908 -0.724379552468164 0.5295407873727294
0.1869907 -0.7205743495645273 0.5350934275717545
0.1889906 -0.7165179816134719 0.5401633800708743
0.1909905 -0.7128462015404227 0.5454589888526563
0.1929904 -0.7091738892518449 0.5504438565673682
0.1949903 -0.7054897545993064 0.5554008413202198
0.1969902 -0.7020752720336069 0.5603432699623292
0.1989901 -0.6983685632293053 0.5650658392120678
0.20099 -0.6948923501945443 0.5700038898177984
0.2029899 -0.6908679088931458 0.5749707774909594
0.2049898 -0.6866680345908991 0.5799173327974068
0.2069897 -0.6831664421752992 0.5845519437418455
0.2089896 -0.6792029793248839 0.5893129179052381
0.2109895 -0.675034181358127 0.5938341423912156
0.2129894 -0.6713542414235188 0.5990051143828968
0.2149893 -0.6672976438746143 0.6033669163419323
0.2169892 -0.663413736003785 0.6081691741463269
0.2189891 -0.658851287648391 0.61258180809938
0.220989 -0.6551170700827702 0.6172416212425141
0.2229889 -0.6508554660990545 0.6214262219856058
0.2249888 -0.6467509471182007 0.626149058752628
0.2269887 -0.6420490309925486 0.6305568992201376
0.2289886 -0.6379441287406834 0.6349576796266044
0.2309885 -0.6336956122939487 0.6391431126942926
0.2329884 -0.6289991824169383 0.6434296620815527
0.2349883 -0.6248774987567587 0.6480979428974705
0.2369882 -0.6200646768312723 0.6524211634206689
0.2389881 -0.6155548853525732 0.6566509410881688
0.240988 -0.610966457730826 0.6607289635745806
0.2429879 -0.60627557468496 0.6648426219765463
0.2449878 -0.6015875117801824 0.6689274298230036
0.2469877 -0.5968013394615802 0.6729855363919719
0.2489876 -0.5919540894134606 0.6775232378942515
0.2509875 -0.5872242285863589 0.6816680911019684
0.2529874 -0.5823756353500711 0.685731344212753
0.2549873 -0.5774030950970082 0.6901154156589061
0.2569872 -0.5726913793524153 0.6941992661099301
0.2589871 -0.5676734746352275 0.6985005666098411
0.260987 -0.5626654257876034 0.7024212891877416
0.2629869 -0.5575611238039142 0.7064321144810605
0.2649868 -0.5530866464791628 0.7107181412096697
0.2669867 -0.5478448110857741 0.714768431856794
0.2689866 -0.5430906473440674 0.7186642095257845
0.2709865 -0.5381505234692149 0.722763241660595
0.2729864 -0.5332022142641263 0.7269005215820155
0.2749863 -0.5279760989829956 0.7306294398064966
0.2769862 -0.5227951347827605 0.7342906527455912
0.2789861 -0.5178348941679631 0.7385070145471491
0.280986 -0.5128750438577744 0.7423010238921252
0.2829859 -0.5075420444091427 0.7455918708268967
0.2849858 -0.502672497007938 0.7496323219602522
0.2869857 -0.4976730547219977 0.7533644655700651
0.2889856 -0.49217766140756547 0.7568927892218155
0.2909855 -0.48697230011008824 0.7601892943145372
0.2929854 -0.4816542036243846 0.7639271293577302
0.2949853 -0.4766170784357361 0.7674666118928076
0.2969852 -0.470911995013947 0.7706909190868757
0.2989851 -0.46575583444015706 0.7740292603302162
0.300985 -0.45994258436585983 0.7771232968829948
0.3029849 -0.45475938335590443 0.7805617095666257
0.3049848 -0.44932599584925426 0.7836105095129404
0.3069847 -0.44361232013882607 0.7867672054841421
0.3089846 -0.4379545156746112 0.789927290407656
0.3109845 -0.43243365606348716 0.7930400887444211
0.3129844 -0.4268369935576772 0.7961496359972373
0.3149843 -0.42117102216505736 0.7988651285252213
0.3169842 -0.41534114617544077 0.8019476501059101
0.3189841 -0.40963537908876524 0.8051443920047463
0.320984 -0.4039540624462074 0.8081522946309615
0.3229839 -0.39749669876120386 0.8114016851673437
0.3249838 -0.39185752746483 0.8140540232772409
0.3269837 -0.38600659729289843 0.8169880229529991
0.3289836 -0.3800142574765533 0.8199133300788641
0.3309835 -0.37404246666588675 0.8226852918404991
0.3329834 -0.36830058573180846 0.8254821571241473
0.3349833 -0.3621288811030997 0.8282030507385302
0.3369832 -0.3564391440341402 0.8313569320321537
0.3389831 -0.3502395763013458 0.8339023126177841
0.340983 -0.3440698039132123 0.8367751473782649
0.3429829 -0.3380978955787946 0.8393977642691786
0.3449828 -0.3318836816707859 0.8420012816036997
0.3469827 -0.32598512503823807 0.8450433522778765
0.3489826 -0.31983738192508077 0.8475476867975007
0.3509825 -0.3137112831143414 0.8499108273053754
0.3529824 -0.3076693196756722 0.8526075564132447
0.3549823 -0.30156848327180785 0.8553234259554191
0.3569822 -0.2950247485320866 0.8573884674939527
0.3589821 -0.2892483574405603 0.8594754535781477
0.360982 -0.28297855522317195 0.8620917623358683
0.3629819 -0.27685321909230215 0.8642386843344838
0.3649818 -0.27049148809311496 0.8661913093575774
0.3669817 -0.26449656200545835 0.8683487926924724
0.3689816 -0.25818043577984173 0.8703154896883782
0.3709815 -0.2518251498469455 0.8724079858592733
0.3729814 -0.24574651776641226 0.8743161053108479
0.3749813 -0.23965140733078796 0.8762828265313679
0.3769812 -0.2328524033947761 0.8782690452623441
0.3789811 -0.22675151546282205 0.8802699651257574
0.380981 -0.2205548525930492 0.8815812333579937
0.3829809 -0.2140891156287444 0.8832811323987058
0.3849808 -0.20755175215704272 0.8851201035770213
0.3869807 -0.20113341963148873 0.8868373242734273
0.3889806 -0.1947208445616105 0.8883687914813408
0.3909805 -0.18778535903522212 0.8898395811224054
0.3929804 -0.18148533807114708 0.8907699698838988
0.3949803 -0.1747430453365754 0.8921261473020462
0.3969802 -0.16834483113398566 0.8940307778964538
0.3989801 -0.16129614427231462 0.8947865727718401
0.40098 -0.15483794323107927 0.8959443736849407
0.4029799 -0.14799847514241257 0.897294655549259
0.4049798 -0.1413741062673417 0.8985924314839947
0.4069797 -0.13445754445248034 0.90004604843183
0.4089796 -0.12811435616152703 0.9008707991602786
0.4109795 -0.12090937346666451 0.9022454007474506
0.4129794 -0.11400512432900498 0.9031490968231922
0.4149793 -0.10739461947551016 0.9043521004335613
0.4169792 -0.10050067948506979 0.9055293003875239
0.4189791 -0.09379368350786531 0.9064650342066669
0.420979 -0.08701945306442174 0.9068688436023402
0.4229789 -0.08010486981835625 0.9078585028363184
0.4249788 -0.07320178299078274 0.9086930783360343
0.4269787 -0.0667491527781368 0.9095207862397195
0.4289786 -0.059901704625851114 0.9103512012003221
0.4309785 -0.0530600384837001 0.9107196039387769
0.4329784 -0.04599289936351965 0.911425345855302
0.4349783 -0.039341462271162295 0.9121394715997921
0.4369782 -0.032036857543764174 0.9122994223084431
0.4389781 -0.02530195637008975 0.9127907632827927
0.440978 -0.01850021832502314 0.9133632999253072
0.4429779 -0.011843867632371198 0.9137661739818792
0.4449778 -0.004754470854550087 0.9138753258953795
0.4469777 0.002251176081646152 0.9139405214294012
0.4489776 0.009100855923994948 0.9140741021627213
0.4509775 0.015759822226889774 0.9140882296797892
0.4529774 0.022879594408702582 0.9139524326278112
0.4549773 0.02989714923721418 0.9143918650927993
0.4569772 0.0366076269180386 0.9144476425308407
0.4589771 0.04381369603710835 0.9139694318445797
0.460977 0.0509129724268082 0.9139148162779357
0.4629769 0.05786708476488747 0.9135535725657672
0.4649768 0.06500348309824817 0.9130313217926178
0.4669767 0.07206452591172624 0.9123057518783849
0.4689766 0.07940069580843467 0.9124122416903585
0.4709765 0.08566013172983727 0.911871625508593
0.4729764 0.09298864733851621 0.911436599962631
0.4749763 0.09983640474036007 0.9108541832684993
0.4769762 0.10724232565529293 0.9105744758588025
0.4789761 0.11428418178009835 0.9097335978745116
0.480976 0.12149788140029838 0.9091037267835583
0.4829759 0.12869218960060608 0.9085446279004082
0.4849758 0.13592068145424982 0.90778588208981
0.4869757 0.14293674433381437 0.9068695999806888
0.4889756 0.14964073870315803 0.9058675386618129
0.4909755 0.1569515394579616 0.9050542121926182
0.4929754 0.16380307760952625 0.9043241036880503
0.4949753 0.17070007246994534 0.9033316961418885
0.4969752 0.1775631346919383 0.902036189648298
0.4989751 0.18475090743236888 0.9013468411906513
0.500975 0.19135549473176122 0.9001991615902
0.5029749 0.1983210768817163 0.8987711598178424
0.5049748 0.20514776546016764 0.8969028010172551
0.5069747 0.21238350602031647 0.8955432613194453
0.5089746 0.2187551832642225 0.8942231778424217
0.5109745 0.2258141993100329 0.8928391981868047
0.5129744 0.232739603791486 0.8912752118120919
0.5149743 0.23994464286635936 0.8894001481883427
0.5169742 0.24679518152788074 0.8878641378647478
0.5189741 0.25353097690545634 0.8861412669883554
0.520974 0.26088296564319946 0.8843538461568907
0.5229739 0.26731382377911805 0.8820717854949441
0.5249738 0.27407736243582864 0.8798681146333905
0.5269737 0.2813944480761338 0.8779366597019975
0.5289736 0.2879295588492192 0.8756735676032296
0.5309735 0.29544416174369714 0.8733166542155766
0.5329734 0.30215755444760173 0.8707757926902246
0.5349733 0.3088632663301604 0.8686244417246187
0.5369732 0.3161321654280661 0.8662454963574803
0.5389731 0.3224955792837567 0.8636274066928602
0.540973 0.32966431765908283 0.8612861708318483
0.5429729 0.3368707048493886 0.8588182926743357
0.5449728 0.34380254792415427 0.8563682194715764
0.5469727 0.3508577184185106 0.8534777135551429
0.5489726 0.35805453923724906 0.8509810257550313
0.5509725 0.36464596061072757 0.8482043277779371
0.5529724 0.3717121675938947 0.8450904477103075
0.5549723 0.37867868989750986 0.8425526094029642
0.5569722 0.38535216995344496 0.8397231830291649
0.5589721 0.3925013066726755 0.8367221886380306
0.560972 0.39938891339931654 0.8337870627840189
0.5629719 0.4064872965964874 0.8312012411743165
0.5649718 0.4129602355417628 0.8284731720460399
0.5669717 0.4199659517847056 0.8254931858745014
0.5689716 0.4267609762731913 0.8221235576891707
0.5709715 0.4334227716573347 0.819110205286354
0.5729714 0.4400252164552668 0.8159287337918083
0.5749713 0.4465645343294889 0.8129052995323225
0.5769712 0.45316594752688133 0.8097187481132142
0.5789711 0.4595956159127664 0.8063633272608551
0.580971 0.46565109000009647 0.8029443221660119
0.5829709 0.47208475050359194 0.7996147227708208
0.5849708 0.47872122194494593 0.7959921946111755
0.5869707 0.48472462856247417 0.7927664693082257
0.5889706 0.4910573998053449 0.7883293194102856
0.5909705 0.49743403296979194 0.7846743232488915
0.5929704 0.5038494623907462 0.7806368790600692
0.5949703 0.510337272375988 0.7768700078790566
0.5969702 0.5160729043211154 0.7724669489955288
0.5989701 0.5228939680236411 0.7682952843111447
0.60097 0.5287962041934084 0.7639719283607413
0.6029699 0.5348669188485746 0.7597868544288339
0.6049698 0.5414954299719332 0.755273200326567
0.6069697 0.5471234173722528 0.751095166464106
0.6089696 0.5534559317810867 0.746889234877936
0.6109695 0.5596407548561351 0.7422395403152596
0.6129694 0.5651265610386859 0.7378511112449071
0.6149693 0.5718222066066768 0.7334527245766571
0.6169692 0.5785560858046679 0.728816677260612
0.6189691 0.5845627611518917 0.7242679411496202
0.620969 0.5901213141375229 0.7191728156959168
0.6229689 0.5966464750782513 0.7146897248837842
0.6249688 0.6023059376654046 0.7100403721955325
0.6269687 0.6087807409618822 0.704836148477491
0.6289686 0.6147371026598063 0.6998670819574402
0.6309685 0.6205316142116962 0.6951957412312344
0.6329684 0.6262045029871477 0.6903270373501558
0.6349683 0.6327011981419537 0.6857208971463128
0.6369682 0.6379326160238308 0.6802893777294928
0.6389681 0.6439570251997591 0.6753399856497534
0.640968 0.6499173959994569 0.670703523998375
0.6429679 0.6555758812296999 0.6656362832268844
0.6449678 0.6608501673721358 0.6607303104951476
0.6469677 0.6659703279300292 0.6549556359560205
0.6489676 0.6715593668090059 0.6506290252657027
0.6509675 0.6769720786993716 0.6448384864212863
0.6529674 0.6826158949704104 0.6397940307510462
0.6549673 0.6876951295433622 0.6344211720946006
0.6569672 0.6930876669669801 0.6286135671301201
0.6589671 0.6982542363620294 0.6229885341080663
0.660967 0.7031878542162769 0.6172354413718812
0.6629669 0.7079071432477492 0.6117145160341392
0.6649668 0.7131718763910723 0.6063564534510536
0.6669667 0.7177395467552825 0.6005801256103448
0.6689666 0.7229351902919745 0.5948524081876588
0.6709665 0.7274188046597632 0.5887039463651057
0.6729664 0.7322395893991746 0.5826182935656746
0.6749663 0.7372838803086952 0.576786821783471
0.6769662 0.7419123806559486 0.5701821884548359
0.6789661 0.7469152488203468 0.5642267321700128
0.680966 0.7514401052547343 0.5577745802204148
0.6829659 0.7563218518809088 0.5518286317577811
0.6849658 0.7611469210656793 0.5456408061145374
0.6869657 0.7652019210441107 0.5392359658216784
0.6889656 0.7700602117920238 0.5325565355988298
0.6909655 0.7746742792384466 0.5262548323034303
0.6929654 0.7790780417427532 0.5197387774970328
0.6949653 0.7834673182752987 0.5130777368328846
0.6969652 0.7879518767842048 0.5063027721192148
0.6989651 0.7921635859702522 0.5001267192471452
0.700965 0.7967107452111621 0.49310531204178093
0.7029649 0.800952453532835 0.4865021541473902
0.7049648 0.8052966314828256 0.47995571788849367
0.7069647 0.8097046508419703 0.4733145205686593
0.7089646 0.8137420681540751 0.46670966370044764
0.7109645 0.8182030995761737 0.4599876113919088
0.7129644 0.8223687245428755 0.4532608222597122
0.7149643 0.8263210997808128 0.4464128840206054
0.7169642 0.8299466939709333 0.4401200722542066
0.7189641 0.8342790833742028 0.4333200463566279
0.720964 0.8373070291605095 0.426420859225997
0.7229639 0.8413417337462576 0.4196538076384046
0.7249638 0.8449621913973566 0.4125962452035974
0.7269637 0.848991299838862 0.4056988542910992
0.7289636 0.8523418295185682 0.3988315979638737
0.7309635 0.8555371479788286 0.39189492236936163
0.7329634 0.8590142512652059 0.38502460165105323
0.7349633 0.8622036933611552 0.37792846489919873
0.7369632 0.8654242360977898 0.3709754951725225
0.7389631 0.8685554334538138 0.363626308782362
0.740963 0.8712022763186126 0.356581337346408
0.7429629 0.8746219254722368 0.3495426970756321
0.7449628 0.8774702068662372 0.342671052629568
0.7469627 0.8798623282960851 0.3353172891062506
0.7489626 0.8831020690721589 0.3278497429946174
0.7509625 0.8853749803228173 0.3201807174049277
0.7529624 0.8885149470101839 0.31279169490963604
0.7549623 0.8911092726211748 0.30574498991854954
0.7569622 0.8932214321326389 0.2979503509855502
0.7589621 0.8962846182647607 0.29041647238466883
0.760962 0.8985926553195284 0.28329336595079835
0.7629619 0.9007913033182073 0.2752787552798173
0.7649618 0.9033510050234521 0.267957611960197
0.7669617 0.9056124381310475 0.2604745203278811
0.7689616 0.9077937887456671 0.2525293153900504
0.7709615 0.9101701249209981 0.24481266014279257
0.7729614 0.9123345337715452 0.23715554694167745
0.7749613 0.9142898373738018 0.2298015664029126
0.7769612 0.9164305226919798 0.22202293561908848
0.7789611 0.9182109889193456 0.21432445313761522
0.780961 0.9201065884053882 0.2063174823506262
0.7829609 0.9217871780822472 0.19884407393484146
0.7849608 0.9240880444703393 0.1909854791301491
0.7869607 0.9257109628251446 0.18335950593789274
0.7889606 0.9272193773818254 0.17527686706636467
0.7909605 0.9288559296592583 0.16773182869277672
0.7929604 0.9307759240574116 0.16004241285492882
0.7949603 0.9319756963203737 0.15225785199619615
0.7969602 0.9329662878433329 0.1442570313371454
0.7989601 0.9338226464156195 0.13647402895678346
0.80096 0.9361335057874851 0.12905952113516286
0.8029599 0.9368258786765198 0.12117264981916454
0.8049598 0.938062387248707 0.11347089877943282
0.8069597 0.9393072463228866 0.10551422438773045
0.8089596 0.9400320075744657 0.09762401278761096
0.8109595 0.9409637913747563 0.08976561763534077
0.8129594 0.9417227425027822 0.08185429538718386
0.8149593 0.942620008380707 0.07389739371861972
