! Created with skrf 1.8.0 (http://scikit-rf.org).
# GHz S RI R 50.0 
!freq ReS11 ImS11
0.001 -0.9341753218563619 0.004830476362998082
0.0029999 -0.9336851040633937 0.01041482704496207
0.0049998 -0.9331476442127108 0.016441240748643657
0.0069997 -0.9326156635626812 0.022370868542095697
0.0089996 -0.9322586269729978 0.02867336642567793
0.0109995 -0.9318580578320919 0.03463599822542375
0.0129994 -0.9314481135846504 0.040639615761332785
0.0149993 -0.9308976097121077 0.0466343465548162
0.0169992 -0.9302982657398668 0.05229534687909995
0.0189991 -0.9294656215094029 0.058372265406083146
0.020999 -0.9290736931392866 0.06440625103929092
0.0229989 -0.9285641753632432 0.07026398148251832
0.0249988 -0.9279953036182357 0.0762311246865272
0.0269987 -0.9273252358758606 0.08198771118185864
0.0289986 -0.9265169859607287 0.08799739276430531
0.0309985 -0.9256438381230515 0.09396949220814019
0.0329984 -0.9252356225223028 0.0998788431483367
0.0349983 -0.9242831569537016 0.10586174393372441
0.0369982 -0.9238089620152437 0.11194779436555465
0.0389981 -0.9227155398711481 0.11782420410935204
0.040998 -0.9216923043002686 0.12330553396401778
0.0429979 -0.9206384371408093 0.12909998804711126
0.0449978 -0.920068741511221 0.13509880858190923
0.0469977 -0.9189996141624891 0.14122693921879598
0.0489976 -0.9180816518276704 0.14686133773410692
0.0509975 -0.91687684437021 0.15271873154891194
0.0529974 -0.9164408022630978 0.15858243617523016
0.0549973 -0.9149685275180942 0.16434606821623612
0.0569972 -0.9136631948712881 0.17008788373186598
0.0589971 -0.9124767363377765 0.17566684459956117
0.060997 -0.9115626190026677 0.18148877728959092
0.0629969 -0.9101681544055429 0.1872408636982331
0.0649968 -0.9088547992198827 0.1928343618590964
0.0669967 -0.9078846527603158 0.19866500258472564
0.0689966 -0.906363326644583 0.20456308582248606
0.0709965 -0.9048584081023647 0.2101207487025847
0.0729964 -0.9037397505627608 0.21590569828583953
0.0749963 -0.9023043567484634 0.22145504606464234
0.0769962 -0.9004960641009532 0.2272278149636573
0.0789961 -0.898991103172572 0.23288549801513048
0.080996 -0.8976010959778091 0.23853078741042316
0.0829959 -0.8960745563219769 0.24420161083757905
0.0849958 -0.8940940687458435 0.249835795325577
0.0869957 -0.8925269145699832 0.25542146990100295
0.0889956 -0.8907690944996899 0.2611826798733739
0.0909955 -0.8889824268632222 0.2667572467237008
0.0929954 -0.8869478816619085 0.27262291512520015
0.0949953 -0.8856305714198845 0.2777667298757591
0.0969952 -0.8836126715915851 0.28339242287512645
0.0989951 -0.8817120483515763 0.2890550371254321
0.100995 -0.879642580531842 0.2947454188352217
0.1029949 -0.8775744857129089 0.30029267763685435
0.1049948 -0.8757175231897995 0.30607582279400974
0.1069947 -0.8735830488548882 0.3115112579694679
0.1089946 -0.8716701471104701 0.3170071115765771
0.1109945 -0.869682301877512 0.32269789707858576
0.1129944 -0.8672918894846354 0.3283160401983769
0.1149943 -0.8651631746063896 0.33376316451958055
0.1169942 -0.8630535598430511 0.3393182990003241
0.1189941 -0.8611569616457873 0.3450069474304148
0.120994 -0.8588121146422978 0.3505283433205002
0.1229939 -0.8564564078884789 0.35575656640651987
0.1249938 -0.854579516730785 0.3611523971905587
0.1269937 -0.8522791653449094 0.36643408914902825
0.1289936 -0.8501221668088836 0.3723120569105584
0.1309935 -0.8473555784322634 0.3774695339381427
0.1329934 -0.8452213127138131 0.382411769745645
0.1349933 -0.8428487805960736 0.38792700244877926
0.1369932 -0.8405672723931557 0.39345300896585583
0.1389931 -0.8379648054683692 0.3984410520200939
0.140993 -0.8356608325072896 0.40376857310340986
0.1429929 -0.8331013601219349 0.4090752674100103
0.1449928 -0.8304421236483676 0.41426167257375457
0.1469927 -0.8276302615119064 0.41974331028477296
0.1489926 -0.8249641577576868 0.424516730580288
0.1509925 -0.822219262940093 0.43005289998939367
0.1529924 -0.8192141006158294 0.4347963920925188
0.1549923 -0.816599526757821 0.43943412048387603
0.1569922 -0.8133776572958331 0.44502295701475747
0.1589921 -0.8108068188620748 0.4503809269090313
0.160992 -0.80712708868257 0.455427205744371
0.1629919 -0.8047388790589153 0.4604212291015916
0.1649918 -0.8014746981028095 0.46560572910493875
0.1669917 -0.7982514852859895 0.4705338217863044
0.1689916 -0.7954001737195472 0.47543817790865633
0.1709915 -0.7921877523876237 0.4810725192627986
0.1729914 -0.7887023613374092 0.485864119881396
0.1749913 -0.7855161079744397 0.4910326084740113
0.1769912 -0.782512583489256 0.49578912685964294
0.1789911 -0.7789235245307432 0.500913036977401
0.180991 -0.7757421665759738 0.506160860678774
0.1829909 -0.7722277402026853 0.5112790533834267
0.1849908 -0.7694712348787397 0.5159963702520453
0.1869907 -0.766019753065315 0.5216697507644109
0.1889906 -0.762167608935499 0.5263986452263127
0.1909905 -0.7588018345235193 0.5315399431736585
0.1929904 -0.7554790903144359 0.5368479316726994
0.1949903 -0.7524259725829182 0.5415846638166646
0.1969902 -0.74909649771883 0.5464066490745817
0.1989901 -0.7458711182371393 0.5512997583700234
0.20099 -0.7421776463182002 0.5561181678719416
0.2029899 -0.7387498711151178 0.5609241520679675
0.2049898 -0.7351240560129834 0.5655966185584473
0.2069897 -0.731471689236095 0.5706956924070301
0.2089896 -0.7279015678311243 0.5750689495703011
0.2109895 -0.7243966573079653 0.5799292525248351
0.2129894 -0.7207527830654219 0.5846685391560326
0.2149893 -0.71695936685695 0.5891129685455141
0.2169892 -0.7134334428629612 0.5938853681631963
0.2189891 -0.709624461270036 0.5984410452093869
0.220989 -0.7060221392503209 0.6027200750683129
0.2229889 -0.7019664733448012 0.6070716805733906
0.2249888 -0.6983417464676145 0.6117987537924452
0.2269887 -0.6940010503572849 0.6158728851530039
0.2289886 -0.6901527320630075 0.6203588678447673
0.2309885 -0.6861732480634112 0.6247274400534886
0.2329884 -0.6821178829586372 0.6290400972739244
0.2349883 -0.6779743897457776 0.6334670154463097
0.2369882 -0.6737981297943063 0.6378773059960033
0.2389881 -0.6697000802665627 0.6419962172832286
0.240988 -0.6653486781136018 0.6462232414500756
0.2429879 -0.6608526454191894 0.650378484315764
0.2449878 -0.6568388038178283 0.6546511665893792
0.2469877 -0.6521549053420354 0.6586777026057801
0.2489876 -0.6478278866227266 0.66314435795558
0.2509875 -0.6437028554471794 0.6672853087988647
0.2529874 -0.6390888470134064 0.6713306817761102
0.2549873 -0.6345476591766919 0.6757625716972598
0.2569872 -0.6300290394100725 0.6799778849675776
0.2589871 -0.6257610945492756 0.6845246627163382
0.260987 -0.6209400908577491 0.6884765736693345
0.2629869 -0.616474574706577 0.6924911531353228
0.2649868 -0.6121802856388395 0.6966469991237407
0.2669867 -0.6075690078173823 0.7007761651122788
0.2689866 -0.6030134064053547 0.704993690017111
0.2709865 -0.5984090250817212 0.7087262270911163
0.2729864 -0.5942047530934269 0.7130947389252152
0.2749863 -0.589541939616461 0.7169185474440164
0.2769862 -0.5845052977350027 0.720789779897283
0.2789861 -0.5798705120943445 0.7247852320465258
0.280986 -0.5753238057612966 0.7286475834243161
0.2829859 -0.5706325571109097 0.7324118243685774
0.2849858 -0.5659734329137734 0.736385333881411
0.2869857 -0.561405410388907 0.7399339539033039
0.2889856 -0.5563588720672371 0.7437485153584836
0.2909855 -0.551697753605295 0.7472002747344633
0.2929854 -0.5469374980647862 0.7511095378398158
0.2949853 -0.5420304410489172 0.7547407735409747
0.2969852 -0.536927953381178 0.7579220425536175
0.2989851 -0.532334467010018 0.7615818345186122
0.300985 -0.5267634005057897 0.7644207824553452
0.3029849 -0.5221016615030643 0.7684866623664013
0.3049848 -0.5172359660585422 0.771509607271304
0.3069847 -0.5116762731805982 0.7749264233262664
0.3089846 -0.5067690646392166 0.7781387966986539
0.3109845 -0.5013268536774522 0.7816175979047675
0.3129844 -0.49634961046923487 0.7846907089885489
0.3149843 -0.49100315580420556 0.7876316980832158
0.3169842 -0.48606815646983914 0.790956410619531
0.3189841 -0.4804664924914348 0.7940710946138893
0.320984 -0.4750609859104269 0.7971909433614819
0.3229839 -0.46959662395068763 0.8007202351001834
0.3249838 -0.4640915922475784 0.8038325807461254
0.3269837 -0.45882421021203973 0.8070834210524607
0.3289836 -0.4533402817929638 0.8101327867014466
0.3309835 -0.4476572740020168 0.8132380631338632
0.3329834 -0.4424555092895857 0.8161398366849842
0.3349833 -0.43704471480804663 0.8188504488423021
0.3369832 -0.4314214473121476 0.8223261939396069
0.3389831 -0.42590620466605156 0.8251269678353442
0.340983 -0.42030972426960983 0.8281967932421024
0.3429829 -0.4148475259165789 0.8312653148965942
0.3449828 -0.40902451998191314 0.8340350318741229
0.3469827 -0.4037629778078944 0.8371870549613274
0.3489826 -0.3979940001785648 0.8400691686248069
0.3509825 -0.39262885174619516 0.8427840762578844
0.3529824 -0.3865752404010515 0.8454104601862817
0.3549823 -0.38145900076784556 0.8485034248184169
0.3569822 -0.37522264900754393 0.8508231240437925
0.3589821 -0.3699494263055357 0.853243647126005
0.360982 -0.36420596616740986 0.8560850140694138
0.3629819 -0.35846142146823573 0.8586714307209122
0.3649818 -0.353024439280721 0.8607989423329084
0.3669817 -0.3472859196121365 0.863188000725534
0.3689816 -0.341232410779482 0.865679976193455
0.3709815 -0.3357731731738906 0.8678800343016061
0.3729814 -0.33015370719991377 0.8703253193046074
0.3749813 -0.32429230925482294 0.8724806182314011
0.3769812 -0.31835907730620183 0.8750009862955429
0.3789811 -0.3125183590906813 0.8770507583836078
0.380981 -0.30679305991392625 0.8788748891623824
0.3829809 -0.30072750034354556 0.880963872850027
0.3849808 -0.29489282576901715 0.8829204753128206
0.3869807 -0.28900145882653056 0.8853041248840927
0.3889806 -0.28310158753881604 0.8871164034186454
0.3909805 -0.276943902994194 0.8888589866450529
0.3929804 -0.2711200238011589 0.8906857046824552
0.3949803 -0.26471442733057293 0.8925126073514971
0.3969802 -0.25880411022285027 0.8940380171332093
0.3989801 -0.25246408136356957 0.8959461118770264
0.40098 -0.24615246640737876 0.8973353991296812
0.4029799 -0.23995695293845154 0.8991044456362132
0.4049798 -0.2334915740769885 0.90091247765921
0.4069797 -0.2275930089314615 0.9028652342012777
0.4089796 -0.22132366801399422 0.9044028913075657
0.4109795 -0.21500032317232756 0.9057731161208843
0.4129794 -0.2086068664014425 0.9074287791371862
0.4149793 -0.20231554392774984 0.9087281385317052
0.4169792 -0.19625024651405934 0.9106168846169703
0.4189791 -0.18985403615751367 0.911912372345131
0.420979 -0.18368113204651793 0.913178722407919
0.4229789 -0.177362083027621 0.9145240065714767
0.4249788 -0.17085081592013202 0.9159995293182108
0.4269787 -0.1648824334911415 0.9171177971996658
0.4289786 -0.1581114562354352 0.9184847065634228
0.4309785 -0.15229199130341414 0.9198035551393023
0.4329784 -0.14580347405064897 0.9206770134533462
0.4349783 -0.13952781025011962 0.9219928897648452
0.4369782 -0.13283779285838843 0.9229014804885733
0.4389781 -0.12670596929229475 0.9239194536436703
0.440978 -0.12026348207238464 0.9251318842768508
0.4429779 -0.11411431703292918 0.925934670491878
0.4449778 -0.10765883964841932 0.9268220725955377
0.4469777 -0.10114848753517958 0.9274353484751403
0.4489776 -0.09454128679782531 0.9280092786642866
0.4509775 -0.08833777984416696 0.9287861825761127
0.4529774 -0.08191578310726218 0.9294535754274671
0.4549773 -0.07545029065165927 0.9302628613727754
0.4569772 -0.06868199383690624 0.9307867666507533
0.4589771 -0.06241500894915623 0.9315243012265266
0.460977 -0.05570698152310382 0.9319340247926869
0.4629769 -0.04909286848526391 0.932177625817495
0.4649768 -0.04255602714155587 0.932190582018202
0.4669767 -0.03587528863273667 0.9326138353352835
0.4689766 -0.029080912377918954 0.9331732526086965
0.4709765 -0.023191071362537726 0.9329233510443897
0.4729764 -0.016428567827499192 0.9337553184752211
0.4749763 -0.009830303370250076 0.9340864231571696
0.4769762 -0.0027696172414183075 0.9336306278085678
0.4789761 0.0035966923353249955 0.9340900496680471
0.480976 0.010168745319528771 0.9343186376364101
0.4829759 0.016774938998342835 0.9345182627415081
0.4849758 0.023354953195276557 0.9345403760491311
0.4869757 0.03023574406307345 0.9343226915333993
0.4889756 0.036703989016339034 0.9343610496067671
0.4909755 0.043263582324497195 0.9341305077336657
0.4929754 0.04976093486211006 0.9341731793376841
0.4949753 0.05617878997625208 0.9341619074243994
0.4969752 0.06274796150783375 0.9336937121671804
0.4989751 0.06930862957907061 0.9333875397393412
0.500975 0.07562633649488709 0.9333909375287494
0.5029749 0.0824498711654405 0.9325663094340407
0.5049748 0.08868503342227463 0.9319734346489607
0.5069747 0.09520350658623111 0.9310143538824142
0.5089746 0.10163907166389918 0.9306416787339653
0.5109745 0.10820906444702903 0.9302662027536832
0.5129744 0.1146176772825202 0.9293031209466124
0.5149743 0.12129090260059405 0.9282665788964632
0.5169742 0.1282159125649467 0.928007461601352
0.5189741 0.13444411941963985 0.9270210134910969
0.520974 0.14103184896138068 0.9261208733535209
0.5229739 0.1476574284491058 0.9247243471105462
0.5249738 0.15392439730897162 0.9234636454592837
0.5269737 0.1606132367354824 0.9224341308015203
0.5289736 0.16711582299975156 0.9211483604516754
0.5309735 0.17408138700460302 0.9196799009123158
0.5329734 0.18042997067801947 0.9182645345462437
0.5349733 0.18706216879758758 0.9167373229900371
0.5369732 0.19386619260198823 0.9155477880719682
0.5389731 0.20024891013919174 0.9142475504651166
0.540973 0.20756770589587326 0.9127522454803114
0.5429729 0.21383375962441167 0.9111676303319668
0.5449728 0.22073474632627077 0.9095473537815931
0.5469727 0.22734416612510752 0.9082886967749747
0.5489726 0.234143054757275 0.9065027888801596
0.5509725 0.24073243871207822 0.904620178508913
0.5529724 0.2475818331150578 0.903324625430383
0.5549723 0.2543954032203598 0.9013553347044545
0.5569722 0.2609606748889827 0.8998915593494865
0.5589721 0.26753909275542004 0.8979722829559494
0.560972 0.2744263104800997 0.8961973434463271
0.5629719 0.28129504342786266 0.8947831506494763
0.5649718 0.28797606443190377 0.893057387472464
0.5669717 0.2940419093833264 0.891195762815499
0.5689716 0.3007572242382569 0.8888328312625082
0.5709715 0.30731100556169555 0.8871475288250869
0.5729714 0.3138784458077123 0.8851625367417265
0.5749713 0.32013837806449214 0.8833189765275805
0.5769712 0.3265427640961116 0.8810165566858005
0.5789711 0.332676681792991 0.8789683052081745
0.580971 0.3387008509341711 0.8765774349925832
0.5829709 0.34506314744325395 0.8745590511767669
0.5849708 0.35148078052444187 0.8722178687470363
0.5869707 0.35721834507613365 0.8697603830903519
0.5889706 0.3640502627997699 0.8670112522436442
0.5909705 0.3697156251792224 0.8640578771399038
0.5929704 0.37625330549992997 0.8615614439772302
0.5949703 0.38219181047725453 0.8586495742826857
0.5969702 0.3886215328905015 0.8559020999740479
0.5989701 0.3953255077739931 0.8527132266933647
0.60097 0.40118555896124586 0.8496417267310343
0.6029699 0.407088236187457 0.8463601375811349
0.6049698 0.41365073281198556 0.8433605332028588
0.6069697 0.41973850663950407 0.8401683698202176
0.6089696 0.42595331061217045 0.8373800544390078
0.6109695 0.43201318114573084 0.8340332606837395
0.6129694 0.4384484593296041 0.8306959489295083
0.6149693 0.44411472609795555 0.8280335165322497
0.6169692 0.4511064134283075 0.8244625461394501
0.6189691 0.45744127393031 0.8209284872200805
0.620969 0.4631120813849668 0.8179345311524785
0.6229689 0.46941886545281447 0.8139922438551171
0.6249688 0.4756817428592107 0.8109450134163946
0.6269687 0.48209912135261257 0.8071124448167621
0.6289686 0.4882423853550256 0.8037107113926901
0.6309685 0.4943535513507353 0.7999088161277731
0.6329684 0.5002929706133754 0.796485836448218
0.6349683 0.506614136856534 0.7934262632010071
0.6369682 0.5122970869324689 0.789550550390968
0.6389681 0.5186047020164968 0.7862420204169964
0.640968 0.5242679790431871 0.7823669946476941
0.6429679 0.530108776740766 0.779168151334007
0.6449678 0.5360647289538911 0.7756938907370599
0.6469677 0.5415730021354855 0.7714905451184174
0.6489676 0.5468588631310733 0.7678672440763594
0.6509675 0.5528578051147973 0.7639136742930777
0.6529674 0.558572526571989 0.7602742496316477
0.6549673 0.5643276173148293 0.755865210285123
0.6569672 0.5695976076390739 0.7519785136850455
0.6589671 0.5752997193381529 0.7475889837017381
0.660967 0.5803731530289198 0.743240428650269
0.6629669 0.5856546199028159 0.7388607138143608
0.6649668 0.5908755450544804 0.7344920774876911
0.6669667 0.5962579797669584 0.730277436837324
0.6689666 0.6013300563448799 0.7262505644005114
0.6709665 0.6065864225586891 0.7216864405832811
0.6729664 0.6120200355206027 0.7164681578966235
0.6749663 0.6173129111853568 0.7122212985981339
0.6769662 0.6227491376307253 0.7070389851112624
0.6789661 0.6282713446152927 0.7023195589891285
0.680966 0.6329680119848748 0.6976929102632752
0.6829659 0.6384281371774235 0.692594796249626
0.6849658 0.643816798697267 0.6878207561224521
0.6869657 0.6489472878167515 0.6827684915412191
0.6889656 0.6540127897605522 0.678050802334679
0.6909655 0.6588306253449164 0.6727044125927477
0.6929654 0.6644355106171728 0.6674634174518609
0.6949653 0.6695345230870892 0.6624054134470422
0.6969652 0.6746635012658201 0.657179798502815
0.6989651 0.6796975264481572 0.6519053174101794
0.700965 0.6849955201200701 0.6467472303368137
0.7029649 0.689865477135612 0.6414955205032707
0.7049648 0.6952026307105983 0.6362746353209459
0.7069647 0.7002009896400869 0.6309258269290917
0.7089646 0.7052840027707566 0.6260995844557359
0.7109645 0.7103672130764984 0.6208439698595152
0.7129644 0.7155364837761218 0.6156420714710731
0.7149643 0.7200873766093036 0.6099603105455882
0.7169642 0.7247031718583355 0.6050058058175418
0.7189641 0.7295478179121796 0.6001146169024014
0.720964 0.7337368118744767 0.5943725938123686
0.7229639 0.7380190384009249 0.589082345512671
0.7249638 0.7433169082567451 0.583496976866091
0.7269637 0.7476879543624569 0.5781244492865966
0.7289636 0.7518797713809643 0.5731247780425988
0.7309635 0.7564913190374707 0.5670443294893525
0.7329634 0.7609107346167221 0.5615669383834773
0.7349633 0.7648110580557587 0.5561062260476484
0.7369632 0.7683906406518883 0.5507923156410585
0.7389631 0.7726909233437255 0.5449334775662008
0.740963 0.776407840128113 0.5388772030755129
0.7429629 0.7807172893933291 0.5333371690188803
0.7449628 0.7844771022923147 0.5274605982586397
0.7469627 0.7884199630498259 0.5219594215402722
0.7489626 0.7921504762639381 0.5154189024180781
0.7509625 0.7953909373282859 0.5091762151294553
0.7529624 0.7999098069739063 0.5034989344343668
0.7549623 0.8034818904684974 0.4974117941914204
0.7569622 0.8067106177544651 0.4909579111974199
0.7589621 0.8105662242578864 0.48475922265680715
0.760962 0.8141496030412634 0.4786812920615906
0.7629619 0.8177666857600111 0.47175899848575376
0.7649618 0.821648310123444 0.46598865282345026
0.7669617 0.8248799533558377 0.46006013856581796
0.7689616 0.8284848306698217 0.4529067419075958
0.7709615 0.8320319978502423 0.44661936002313585
0.7729614 0.8356226150747994 0.4402650041007318
0.7749613 0.8389990527692903 0.4341048953417924
0.7769612 0.8424565848146505 0.4272231758215243
0.7789611 0.845366180938013 0.4207815668583079
0.780961 0.8487730071966307 0.4144504701870749
0.7829609 0.8518538614742267 0.40769486932429144
0.7849608 0.8554946891614801 0.4015091028288482
0.7869607 0.8584082567958871 0.3948847987587405
0.7889606 0.8617546126600998 0.388090919042559
0.7909605 0.8649792881368578 0.3818514439993661
0.7929604 0.8679822660778487 0.37518575013046696
0.7949603 0.8707193118734221 0.36904899592943907
0.7969602 0.8737046046599692 0.36189496250667275
0.7989601 0.8762891598381509 0.35548584498391844
0.80096 0.8794882931987806 0.3490510799447076
0.8029599 0.8820328935671977 0.3423909155061142
0.8049598 0.8844217758294097 0.335878699792561
0.8069597 0.887145293162193 0.32932946523615897
0.8089596 0.8896573550107826 0.3226406585673493
0.8109595 0.892128452211746 0.3157267115333961
0.8129594 0.8943440934697784 0.30916431025979296
0.8149593 0.8968019916224228 0.3024549881284152
