! Created with skrf 1.8.0 (http://scikit-rf.org).
# GHz S RI R 50.0 
!freq ReS11 ImS11
0.001 -0.9304312998179564 0.005077121695576879
0.0029999 -0.9299699697735951 0.011011186060289134
0.0049998 -0.9293377532981189 0.01752097337396087
0.0069997 -0.928845818196086 0.02395256196562131
0.0089996 -0.9283477228459273 0.030411728526781992
0.0109995 -0.9279771631463607 0.03675580787969096
0.0129994 -0.9274645295656058 0.04313927215082502
0.0149993 -0.9268790044848303 0.04946389977365376
0.0169992 -0.9262852437207009 0.0557687875835663
0.0189991 -0.9253692465442351 0.062053254263548865
0.020999 -0.9249773247734191 0.06841501084242174
0.0229989 -0.9243318934742544 0.07461971018329232
0.0249988 -0.9236068731216293 0.08100829494483654
0.0269987 -0.9230572191874941 0.08716833169727015
0.0289986 -0.9221642441048629 0.09349141445708711
0.0309985 -0.9212129687572554 0.09979220569496891
0.0329984 -0.9205001568174406 0.10622963114772865
0.0349983 -0.9196871097266597 0.11238332255660918
0.0369982 -0.9190907606746707 0.11893882713473526
0.0389981 -0.9179023742303795 0.12510290530230142
0.040998 -0.9170797740202633 0.1308704204568412
0.0429979 -0.9156360724178474 0.13715191309083263
0.0449978 -0.9149489185717075 0.14345709740354773
0.0469977 -0.9136230274394396 0.15008469446125894
0.0489976 -0.9126931810188511 0.15603006609921977
0.0509975 -0.9113964906242514 0.16224207964452447
0.0529974 -0.9106537111215495 0.1685949688121356
0.0549973 -0.9093021364177515 0.1745749935875852
0.0569972 -0.9077480746283092 0.18073033989014833
0.0589971 -0.9064808257621095 0.1866292028190617
0.060997 -0.9052697804157809 0.1928034174909457
0.0629969 -0.9038716150495655 0.19891386462067573
0.0649968 -0.9024090795147817 0.20487024243187546
0.0669967 -0.9013102122586863 0.21110896440198945
0.0689966 -0.899606752003157 0.21730466243975333
0.0709965 -0.8978860064791906 0.22321502295546602
0.0729964 -0.8965924019223664 0.22933788610513078
0.0749963 -0.8950292708694804 0.2352290824550403
0.0769962 -0.8929469178092618 0.24137377707584926
0.0789961 -0.8913004965258352 0.24731008418913958
0.080996 -0.8897686064398801 0.2533712488983759
0.0829959 -0.8879218223049533 0.25948544623449277
0.0849958 -0.8858061444953085 0.26529492253819703
0.0869957 -0.8839964221362221 0.2712118936105869
0.0889956 -0.8819336126762984 0.2773995303215048
0.0909955 -0.8800168069636675 0.28324642669318223
0.0929954 -0.8777936370476257 0.2893233399472007
0.0949953 -0.87616964729438 0.2950396436597071
0.0969952 -0.8739728840409977 0.30080982678906143
0.0989951 -0.8717782431285782 0.3071025858845536
0.100995 -0.8694520708069933 0.31282635570925754
0.1029949 -0.8672133774232794 0.31868442303149697
0.1049948 -0.865087570681196 0.3247458173962821
0.1069947 -0.8627609569446638 0.33081431025186997
0.1089946 -0.8605303325014598 0.3363535654667988
0.1109945 -0.8582548557966696 0.34248039318046497
0.1129944 -0.8555598777609258 0.34831286678431894
0.1149943 -0.8532114645392357 0.35409934720315156
0.1169942 -0.8507886053764124 0.36010089562912106
0.1189941 -0.8486083310992114 0.36597481084870664
0.120994 -0.8459641845443673 0.3717533702705853
0.1229939 -0.8433545785304072 0.37726823339563426
0.1249938 -0.8411346952241266 0.38302298108003363
0.1269937 -0.8385955488814393 0.3885768561539906
0.1289936 -0.8360984517946074 0.3947169970480279
0.1309935 -0.8330076507395306 0.400195695265588
0.1329934 -0.8306753653615867 0.4056166482582142
0.1349933 -0.8279190314540356 0.4111966229145048
0.1369932 -0.8252963213753459 0.41702622322844757
0.1389931 -0.8223724165527274 0.42237785937677236
0.140993 -0.8196509631534508 0.4281382723445977
0.1429929 -0.8167914213595936 0.43347613692789283
0.1449928 -0.813704565142774 0.438886699209022
0.1469927 -0.8106933102332707 0.4446791373638908
0.1489926 -0.807652482917802 0.4498016107779763
0.1509925 -0.8045706137175621 0.4555443756959759
0.1529924 -0.8012360694679704 0.4605382900448689
0.1549923 -0.7979916320698882 0.4656486277957115
0.1569922 -0.7946196795150504 0.47124687918596603
0.1589921 -0.7914275776099982 0.47702448946892123
0.160992 -0.7875573197227114 0.4821318958577619
0.1629919 -0.784916758305047 0.48756594761211075
0.1649918 -0.7813120921725685 0.49272932499060207
0.1669917 -0.7775925414824826 0.4981417821826339
0.1689916 -0.7743286851684806 0.5030595154270212
0.1709915 -0.7707958647096874 0.5088456377431851
0.1729914 -0.7668544242076458 0.5139254573423987
0.1749913 -0.7632205836901886 0.5193475516988785
0.1769912 -0.7595326862729482 0.5246258933379057
0.1789911 -0.7558326317173436 0.5298236444315498
0.180991 -0.7522999573991723 0.5350848319718111
0.1829909 -0.748433642792522 0.5404136431332313
0.1849908 -0.7450821246723277 0.545765830472653
0.1869907 -0.7411139998211802 0.5512652420234794
0.1889906 -0.7369253344941818 0.5563224773820554
0.1909905 -0.7329893338155142 0.5618668486242919
0.1929904 -0.7292657710734711 0.5670170823689418
0.1949903 -0.7256179744795157 0.5720614217565552
0.1969902 -0.7219683727431723 0.5770526322005674
0.1989901 -0.7181739063063417 0.582055728037139
0.20099 -0.7141529940470076 0.5871329936277858
0.2029899 -0.7102849505094764 0.5922385402134542
0.2049898 -0.7059860244794562 0.5969854700831666
0.2069897 -0.7021133090360561 0.6021697527942295
0.2089896 -0.6980578717685416 0.6068380049641411
0.2109895 -0.6939321370376917 0.6117063378865529
0.2129894 -0.6897223860803631 0.6167442573249304
0.2149893 -0.6857037833581626 0.6211644008700284
0.2169892 -0.6816247969307757 0.626231395923596
0.2189891 -0.6773739770454418 0.6308820052549488
0.220989 -0.6730743754662657 0.6353883608587172
0.2229889 -0.6687304033911015 0.639685331725113
0.2249888 -0.6644180778799345 0.6445461354087483
0.2269887 -0.6595613980239743 0.6490063375391399
0.2289886 -0.6552814414553959 0.653357512729451
0.2309885 -0.6508284048890808 0.657837522742104
0.2329884 -0.6460955507919733 0.6622214538985128
0.2349883 -0.641597233110155 0.6669231472239406
0.2369882 -0.636690692616452 0.6713546995011649
0.2389881 -0.6321648804665378 0.6756807831425471
0.240988 -0.6273318907708796 0.6796181236419813
0.2429879 -0.62239271331958 0.6838587501202972
0.2449878 -0.6177095193086667 0.6882223453254497
0.2469877 -0.6125861755580161 0.6925097113975813
0.2489876 -0.6076612407358037 0.6969741364243244
0.2509875 -0.6028223576447218 0.7012008333304612
0.2529874 -0.5976994423820663 0.7054613800788043
0.2549873 -0.5925335673094185 0.7097572876058412
0.2569872 -0.5876354755064271 0.7139104671234476
0.2589871 -0.5826991732874787 0.718525771668661
0.260987 -0.5773571236667299 0.7224415643878461
0.2629869 -0.5723351639845594 0.7265474794511144
0.2649868 -0.5672876828952218 0.7308612178681941
0.2669867 -0.5624044577619169 0.7350762476305568
0.2689866 -0.5571547217333529 0.7391960535217849
0.2709865 -0.5519514177788888 0.742963474957397
0.2729864 -0.546791924574008 0.747391898378092
0.2749863 -0.5415993340868943 0.7510701537869199
0.2769862 -0.5362250113587164 0.7551337191125721
0.2789861 -0.5308686720716714 0.7590247044884687
0.280986 -0.5257099230268798 0.7629557918544516
0.2829859 -0.5204837247649109 0.7664764620591185
0.2849858 -0.5151152331683705 0.7704268152981595
0.2869857 -0.5099608724870986 0.774045345606832
0.2889856 -0.5044624274733566 0.7776921494916563
0.2909855 -0.49901325916259764 0.7814262547611119
0.2929854 -0.49388672078354673 0.7848408265797787
0.2949853 -0.488244715328956 0.7882740492104775
0.2969852 -0.4825835248036082 0.791698827954323
0.2989851 -0.47709675968730836 0.7951459361885658
0.300985 -0.4711032506278837 0.7980376912567094
0.3029849 -0.465742036689279 0.8017725098426556
0.3049848 -0.46015831119218575 0.8047349842229419
0.3069847 -0.45419928035124246 0.8080122279987135
0.3089846 -0.44853375122482314 0.8112704348919462
0.3109845 -0.442514860743876 0.8144182588049078
0.3129844 -0.436780881338736 0.8175348574826072
0.3149843 -0.4309964628636145 0.8201841228314047
0.3169842 -0.4250373332045115 0.8233127533166619
0.3189841 -0.41910607353517926 0.8265164629135656
0.320984 -0.4131419698676415 0.8294418478222314
0.3229839 -0.4064700096471797 0.8326652767602465
0.3249838 -0.4008035921653602 0.8356035684906017
0.3269837 -0.3948763869920992 0.8386270891895568
0.3289836 -0.38844721677584504 0.8416744505648773
0.3309835 -0.38207441196239333 0.8442581170059155
0.3329834 -0.37654478160612853 0.8470684787869031
0.3349833 -0.3701562398840062 0.8497421181856696
0.3369832 -0.3641035427349576 0.8528402963585906
0.3389831 -0.3579505089844779 0.8554051681356138
0.340983 -0.3516089766750448 0.8586172048882978
0.3429829 -0.3455776195528226 0.8610286381255591
0.3449828 -0.3389576223328524 0.8637288102303643
0.3469827 -0.33282568190705164 0.8666769822805049
0.3489826 -0.32651666105509924 0.8692934908311513
0.3509825 -0.32057610312389434 0.8716702971186024
0.3529824 -0.313927081866639 0.8741867664418281
0.3549823 -0.3078925911819735 0.8768497773344934
0.3569822 -0.30102536331463847 0.8789838951833124
0.3589821 -0.295162685669295 0.8809586840814234
0.360982 -0.28883331179973204 0.8836110808206753
0.3629819 -0.28217025371598115 0.8857798991170505
0.3649818 -0.2758984892871911 0.8876350205642556
0.3669817 -0.2698099324546832 0.8895732075251335
0.3689816 -0.26322527171436194 0.8917207135310372
0.3709815 -0.2568768828131406 0.893642403716055
0.3729814 -0.25055249338856367 0.895871066307294
0.3749813 -0.24406605026192 0.897484789221705
0.3769812 -0.23734778432961604 0.8995909997502396
0.3789811 -0.23102951281670764 0.9014480011986522
0.380981 -0.22482142003289654 0.9027934754641027
0.3829809 -0.21795521982031463 0.9044620610239029
0.3849808 -0.21139870383164666 0.9063794724960643
0.3869807 -0.2048018022395359 0.907813899427931
0.3889806 -0.1982460259916543 0.9094977823191062
0.3909805 -0.19111587450603035 0.9107885767998111
0.3929804 -0.1846768390421563 0.9121561518912826
0.3949803 -0.177785589100666 0.9133447521656719
0.3969802 -0.17119390691403275 0.9146197799745409
0.3989801 -0.16398848967342228 0.9157138989729844
0.40098 -0.15695412915905677 0.9169479881712849
0.4029799 -0.15050210060026903 0.9180634209644886
0.4049798 -0.14340532712188203 0.9193616832994331
0.4069797 -0.13642503220319105 0.9208898280241338
0.4089796 -0.12966209219415623 0.9216302481515785
0.4109795 -0.1227131040455332 0.92273607663961
0.4129794 -0.11546376968736889 0.9238119231542721
0.4149793 -0.10894361576382752 0.9248075118667551
0.4169792 -0.10201443155327493 0.9259064958553935
0.4189791 -0.09460576844315696 0.9268795148291332
0.420979 -0.08811038802551847 0.9271617366671153
0.4229789 -0.08107781230574496 0.9280551428894286
0.4249788 -0.07381343633596901 0.9289041410835368
0.4269787 -0.06737891427040288 0.9297761067259642
0.4289786 -0.06009949373614164 0.9301995709088688
0.4309785 -0.05341210908331148 0.931006839701918
0.4329784 -0.046211752423922406 0.9312967483002849
0.4349783 -0.03937560286083551 0.9319751134562501
0.4369782 -0.03195068449766347 0.9321693076562193
0.4389781 -0.02530220292677971 0.9325625655539537
0.440978 -0.017969022109075687 0.9331414495277521
0.4429779 -0.01139846850146281 0.9333105898049445
0.4449778 -0.004147802517573601 0.9334278470485425
0.4469777 0.0027675862763477145 0.9334287368866888
0.4489776 0.010061935623750122 0.933327709905814
0.4509775 0.016756467873324906 0.9333902060112157
0.4529774 0.023993802138877647 0.9331721665772585
0.4549773 0.031142333384032647 0.9334148898101137
0.4569772 0.03830084878074863 0.933336432584269
0.4589771 0.04529803515053346 0.933127904791697
0.460977 0.05239231375821596 0.932844631365658
0.4629769 0.0595733589872445 0.932221390210278
0.4649768 0.06669645234450505 0.9317066979613913
0.4669767 0.07416358111155134 0.9308286057535118
0.4689766 0.0813355500154733 0.9308634257368319
0.4709765 0.08801771855205676 0.9301660912608304
0.4729764 0.09536026170181444 0.9297838589124334
0.4749763 0.10237165846869396 0.9292648304612362
0.4769762 0.10999888801456267 0.9284409644562852
0.4789761 0.11703919327743148 0.9276441024935009
0.480976 0.12422806703656643 0.9271125108338257
0.4829759 0.13142572368882144 0.9265951222514226
0.4849758 0.13867217842423651 0.9255873427032381
0.4869757 0.145749977756875 0.924543517937837
0.4889756 0.15280505207057904 0.9235732794544516
0.4909755 0.1600943449191613 0.9225325628392316
0.4929754 0.1671000547519014 0.9217599067517057
0.4949753 0.1741744943898751 0.9207788587469303
0.4969752 0.18090632248598543 0.9194568804059694
0.4989751 0.18835273350684748 0.9182374196695519
0.500975 0.1949144558356288 0.9174617247362717
0.5029749 0.20216410066501433 0.9156189535848489
0.5049748 0.20902119414993858 0.9139088970007717
0.5069747 0.21607053186737257 0.9122111395096978
0.5089746 0.2227908156515374 0.91087881098698
0.5109745 0.22982510714882437 0.9095102562258128
0.5129744 0.23671910717149464 0.9075164411455656
0.5149743 0.24396600038042693 0.9056538750705451
0.5169742 0.2510276830869465 0.9041748198509793
0.5189741 0.25780344034205555 0.9022940767644896
0.520974 0.2651747799285813 0.9001767518048265
0.5229739 0.27165585793427194 0.8978543904522054
0.5249738 0.2785670955828453 0.8958636254976797
0.5269737 0.2856811215764624 0.8937322152117365
0.5289736 0.2924185097327431 0.8910767147599069
0.5309735 0.29994264568742185 0.8887213649257025
0.5329734 0.3066275062494888 0.8861665245485337
0.5349733 0.31337462058982524 0.8838234968955889
0.5369732 0.32072528018091995 0.8813537910709447
0.5389731 0.327223314018443 0.8788092312788695
0.540973 0.3347759961015529 0.8763642089240633
0.5429729 0.34178265057881935 0.8734942106980959
0.5449728 0.3487268850211801 0.8711399241462362
0.5469727 0.35590346389351635 0.8682740169029107
0.5489726 0.3630209626006615 0.8655684473441038
0.5509725 0.36950386670516616 0.8624698412910642
0.5529724 0.37675360814306524 0.8596704868002579
0.5549723 0.3838635010007017 0.8569203699093755
0.5569722 0.39069771381631835 0.853923820326122
0.5589721 0.39779902396341466 0.8509433109546957
0.560972 0.4048119211703616 0.8480797153582854
0.5629719 0.41174928013330153 0.8454000136151498
0.5649718 0.41858624040504855 0.8422387201464311
0.5669717 0.4251842508609549 0.8394113348870782
0.5689716 0.43203717162726485 0.8358284399298197
0.5709715 0.43863585283527806 0.8328853469581828
0.5729714 0.4454050966744452 0.8295387076657116
0.5749713 0.4519193418370942 0.826482837992062
0.5769712 0.45878022684858705 0.8229755332698973
0.5789711 0.46487347489836206 0.8197316666536696
0.580971 0.47100128265987484 0.8160751367914504
0.5829709 0.47771025124697625 0.8128095232342669
0.5849708 0.4842026491946782 0.8093028597340302
0.5869707 0.48988805030516985 0.8056206751278745
0.5889706 0.49663612664376505 0.8014593356963894
0.5909705 0.5028766516516645 0.7972978977863511
0.5929704 0.5092945864150481 0.7933777162307967
0.5949703 0.5153553587970258 0.7895693237682836
0.5969702 0.5217943819132728 0.7850115405159174
0.5989701 0.5284220304251281 0.7807833970446694
0.60097 0.5342252646479091 0.7763800474589476
0.6029699 0.5401815883730505 0.7719280968471641
0.6049698 0.5469645220983398 0.7676685557144168
0.6069697 0.5525028219172321 0.7632200974825143
0.6089696 0.5590972094802527 0.758975799323518
0.6109695 0.5652321049709365 0.7541688374937533
0.6129694 0.5708041597920036 0.7497709557772286
0.6149693 0.5773798846241439 0.7455910649365687
0.6169692 0.5836202848732941 0.7406493421561577
0.6189691 0.5898412937751998 0.7360276980347569
0.620969 0.5955364460389029 0.7310830739650276
0.6229689 0.6020030649174549 0.7262746849143774
0.6249688 0.6075239328303212 0.7213990872604534
0.6269687 0.6140701998455793 0.7163984318976719
0.6289686 0.62012858191957 0.7115269290943371
0.6309685 0.6258348046037776 0.7065254576850618
0.6329684 0.6313688170589057 0.7017024006701906
0.6349683 0.6377837366604333 0.6969950082556806
0.6369682 0.6431912031363192 0.6915980838972045
0.6389681 0.6489256208883162 0.6871224225924178
0.640968 0.655114558873644 0.6818726633293284
0.6429679 0.6604646362011123 0.6771206673080474
0.6449678 0.666099598772329 0.6719556007468347
0.6469677 0.6709924509907247 0.6662481195323127
0.6489676 0.6766698767445798 0.6617640440536691
0.6509675 0.6820391423426209 0.6560371566787006
0.6529674 0.6875266946214886 0.6507967927114681
0.6549673 0.692742467737214 0.6454699194335617
0.6569672 0.6978707787147689 0.639669090953742
0.6589671 0.7031879047234186 0.6341103342114679
0.660967 0.7077200027221767 0.6282420527568905
0.6629669 0.7126494930565968 0.6226191070203697
0.6649668 0.7181424733968118 0.617047912365106
0.6669667 0.7222896279392406 0.6115301263197936
0.6689666 0.7274348025215094 0.6058991067980626
0.6709665 0.7322395017141756 0.599876543513349
0.6729664 0.7369073139054415 0.5936781999139794
0.6749663 0.7418052074565804 0.5876705081071004
0.6769662 0.7464220472411826 0.5811085701675376
0.6789661 0.7514893379498488 0.5750692718685969
0.680966 0.7560795223004236 0.5692632851684454
0.6829659 0.7608024175274289 0.5627820086198566
0.6849658 0.7655617235564286 0.5563657923292018
0.6869657 0.7699461565618322 0.5499428894825753
0.6889656 0.7744945725335948 0.543588127539529
0.6909655 0.7790254339335831 0.5368499095273489
0.6929654 0.7834490734715015 0.530562311694438
0.6949653 0.7877880571487591 0.524107147079726
0.6969652 0.7922934103219896 0.5172104421069058
0.6989651 0.796485025257438 0.5108214573745087
0.700965 0.8009178988093975 0.5040195980730267
0.7029649 0.8052544369452472 0.49746243194143436
0.7049648 0.8094365356143378 0.49089401684210976
0.7069647 0.8137752150023433 0.48425831768416755
0.7089646 0.8179811763480906 0.4777494260908021
0.7109645 0.8224478204207158 0.470882370133868
0.7129644 0.8264383559246593 0.4642837721708417
0.7149643 0.830276526714733 0.45747722879686203
0.7169642 0.8341916898961589 0.4508572486700298
0.7189641 0.8381986731208776 0.44447623492657784
0.720964 0.8413614760221985 0.437399924947224
0.7229639 0.8450979636859614 0.43104068737972834
0.7249638 0.8491317744863909 0.42351784754173794
0.7269637 0.8527704777894625 0.4171663643314919
0.7289636 0.8560328185599541 0.4106838690449399
0.7309635 0.8594577410952156 0.4032072118802964
0.7329634 0.8630414500255623 0.3962690983787045
0.7349633 0.865962947663195 0.38925488108720413
0.7369632 0.8689244121203562 0.38248898793924224
0.7389631 0.8722937043435505 0.3755700035592209
0.740963 0.8748882901285304 0.36830582701296105
0.7429629 0.8784728976533919 0.3615468466801771
0.7449628 0.8811481825523831 0.3544596849856316
0.7469627 0.8838611428040235 0.34715885527541146
0.7489626 0.8866393893605223 0.33972070556206924
0.7509625 0.8886578795616235 0.3322828738924063
0.7529624 0.892349297161726 0.32490178402790026
0.7549623 0.8946376874787714 0.31775126788340796
0.7569622 0.8967202327201219 0.31014699274431967
0.7589621 0.8997849937793726 0.30288995615221187
0.760962 0.9021535727155766 0.2953201063708937
0.7629619 0.9043626205856391 0.28776436108102116
0.7649618 0.9068585199330403 0.28047689073602455
0.7669617 0.9092485538567686 0.2731617952379524
0.7689616 0.911385813424813 0.26523049822682787
0.7709615 0.9138713944818715 0.25759228746965585
0.7729614 0.9159860883455231 0.25019141980725335
0.7749613 0.9180295305116034 0.24265152661173756
0.7769612 0.9203259607129982 0.23503701101336535
0.7789611 0.9218638806073775 0.22741011062906707
0.780961 0.9236340778619099 0.21955124724857308
0.7829609 0.9257988154737259 0.21205290138353938
0.7849608 0.9277993186706259 0.20433135307111272
0.7869607 0.9295456258364023 0.196893083559576
0.7889606 0.9311084020100542 0.18867744008120402
0.7909605 0.9326393691162382 0.18135379307304028
0.7929604 0.9346133414632317 0.1738561267898398
0.7949603 0.9359209075252993 0.16617019786457682
0.7969602 0.9370646835787695 0.15830268735135397
0.7989601 0.937961782241841 0.15060587676283996
0.80096 0.9401084696735722 0.14313170044143356
0.8029599 0.9408508651074082 0.1353709286448501
0.8049598 0.94222083073142 0.12798267021963416
0.8069597 0.9434380603743959 0.11997707550677879
0.8089596 0.944104599464587 0.11215595532534098
0.8109595 0.9452210757874082 0.10461623262841402
0.8129594 0.9460515017532455 0.09690656839014723
0.8149593 0.9469653109016067 0.08889173393881379
