! Created with skrf 1.8.0 (http://scikit-rf.org).
# GHz S RI R 50.0 
!freq ReS11 ImS11
0.001 -0.9645812457684746 0.005039882687081176
0.0029999 -0.9639979109334705 0.01215857459891296
0.0049998 -0.9635842729390032 0.019382986091020037
0.0069997 -0.9629941804087949 0.026608483180872264
0.0089996 -0.962498308050599 0.033848657610001345
0.0109995 -0.9620966082495993 0.04130402439818209
0.0129994 -0.9613557755044932 0.04868911045817736
0.0149993 -0.9608865861914702 0.05585095737379779
0.0169992 -0.9601290283561211 0.06302874673339975
0.0189991 -0.959257484739677 0.0704991672807886
0.020999 -0.9584944313290408 0.0776741114721017
0.0229989 -0.9577954164950917 0.08478863406089376
0.0249988 -0.9569815421043325 0.09207920528008513
0.0269987 -0.9562356920112695 0.09934828817103314
0.0289986 -0.9550876608402915 0.10643478637382633
0.0309985 -0.9540496556232315 0.11354200756505634
0.0329984 -0.9532102568000862 0.12055635938408701
0.0349983 -0.9519056900775833 0.12780058292023241
0.0369982 -0.950956306249711 0.13503311073092827
0.0389981 -0.9497670053183926 0.14198490941630487
0.040998 -0.9484089121948538 0.1490339300380278
0.0429979 -0.9471159856485574 0.15599837678901185
0.0449978 -0.9455607717461694 0.16319627828960315
0.0469977 -0.9447507610874651 0.17036313216462262
0.0489976 -0.9431046567534518 0.17729825997904888
0.0509975 -0.9417818661850421 0.18445873422826617
0.0529974 -0.9406075010916264 0.19130562251884364
0.0549973 -0.9386504292395498 0.19830927311142224
0.0569972 -0.937552293879999 0.20528146988641596
0.0589971 -0.9357290013125542 0.21217846573162064
0.060997 -0.9341414781283277 0.21901805909635616
0.0629969 -0.9324648166260177 0.2260416385858077
0.0649968 -0.9304514218300055 0.23290405750094528
0.0669967 -0.9285684204292619 0.239725691522666
0.0689966 -0.9268020003210691 0.24677622174651892
0.0709965 -0.924601554909212 0.253591319597399
0.0729964 -0.9227888784658979 0.26040164313182146
0.0749963 -0.9209876487135273 0.26713914279441003
0.0769962 -0.918550164188217 0.27409667267671006
0.0789961 -0.91635737153271 0.28073245856189316
0.080996 -0.9145111918972425 0.28763702263975977
0.0829959 -0.9121664141194372 0.2943966153829856
0.0849958 -0.9097865398815538 0.3011091121507912
0.0869957 -0.9073101360073453 0.30777322473700314
0.0889956 -0.9048203353868209 0.31476371572867895
0.0909955 -0.9023751599196717 0.32158744707758913
0.0929954 -0.899889829532245 0.3281619277220225
0.0949953 -0.8978026671389648 0.3347766639459162
0.0969952 -0.8949001631221741 0.34132763445669206
0.0989951 -0.892188167217014 0.3479850635964625
0.100995 -0.8897016670344462 0.35464998314337454
0.1029949 -0.8864827425641868 0.3612537513737165
0.1049948 -0.8837997820897752 0.36801777829615473
0.1069947 -0.880720420729027 0.37470422121326985
0.1089946 -0.8781187391763208 0.3811474867977711
0.1109945 -0.8752642297992442 0.3879090349377883
0.1129944 -0.8721694288318973 0.3944673329362891
0.1149943 -0.8689980601166692 0.40084013937336266
0.1169942 -0.866014835008422 0.4076483159931035
0.1189941 -0.8631619416676692 0.41413819687100367
0.120994 -0.859748463274241 0.42069735930866875
0.1229939 -0.8568183399333968 0.4268613682801675
0.1249938 -0.8536775175391448 0.4332715451979066
0.1269937 -0.8507912496047594 0.43963292335847887
0.1289936 -0.8476691146641364 0.4461907901337451
0.1309935 -0.8440394627378024 0.4524562703819207
0.1329934 -0.8406168343888828 0.45852344999961836
0.1349933 -0.837388204670755 0.46480567519828825
0.1369932 -0.8338723752825914 0.4709507836400386
0.1389931 -0.8302236021868832 0.4772187907649159
0.140993 -0.8267076497683579 0.4836737677019458
0.1429929 -0.8231320499625072 0.48954312667521227
0.1449928 -0.8195585685284278 0.4956639451811447
0.1469927 -0.8156931499688564 0.5016374960735703
0.1489926 -0.8120184877995301 0.5075563542583105
0.1509925 -0.8081188977903877 0.5138967462758433
0.1529924 -0.8038997258319953 0.5192270006207464
0.1549923 -0.8001795865069742 0.5249854665313746
0.1569922 -0.7959585049071768 0.5310596421807947
0.1589921 -0.7915673166331382 0.5370886607267487
0.160992 -0.7875911575305258 0.5431968332230912
0.1629919 -0.7835463387784254 0.548926277705414
0.1649918 -0.779291530535358 0.5547730410286743
0.1669917 -0.774714153717857 0.5604307431958193
0.1689916 -0.77035051581325 0.5663146376083088
0.1709915 -0.7660823567332977 0.5723734418759229
0.1729914 -0.7615648767582037 0.577858533678083
0.1749913 -0.7570175358953163 0.5835896268412043
0.1769912 -0.75257423716475 0.5895710702516526
0.1789911 -0.7476839074955411 0.595172843383956
0.180991 -0.7432619131984426 0.6009270929500078
0.1829909 -0.7386299922289518 0.6064942631237877
0.1849908 -0.7339518119484423 0.6120903337231947
0.1869907 -0.7294320352707815 0.6183572078996187
0.1889906 -0.7241342283711826 0.6240828092785037
0.1909905 -0.7193500989478856 0.6297554602863461
0.1929904 -0.7145913082850553 0.6354551246976504
0.1949903 -0.710155482975553 0.6407779922308587
0.1969902 -0.7056370743193962 0.6465081882741338
0.1989901 -0.7005973952585387 0.6517297554758598
0.20099 -0.6959597758273627 0.6569315322712242
0.2029899 -0.6908822654247475 0.6626179314532984
0.2049898 -0.6858941577739658 0.6676494497702766
0.2069897 -0.680792243077573 0.6731768156127623
0.2089896 -0.6759895797132678 0.6783960217854549
0.2109895 -0.6707073534445024 0.6836608791392847
0.2129894 -0.6658518962484907 0.6885204501752152
0.2149893 -0.6606486719765349 0.6934988180073848
0.2169892 -0.6555964995424332 0.6987705914325443
0.2189891 -0.6502096581321903 0.7035876614819174
0.220989 -0.6449344891697227 0.7084227589798708
0.2229889 -0.6393122880380449 0.7132778588002169
0.2249888 -0.6339208535973493 0.7178511803832827
0.2269887 -0.628461355894111 0.7227811147779155
0.2289886 -0.6229557119717586 0.7274962812980295
0.2309885 -0.6176654211902505 0.7317747103156866
0.2329884 -0.6120348900951201 0.7362835649740329
0.2349883 -0.6064974076466738 0.7411816691692126
0.2369882 -0.6004091641485804 0.7457578901885198
0.2389881 -0.5948224751194505 0.7499789417358846
0.240988 -0.5887949914306453 0.754650662509931
0.2429879 -0.5827842844479649 0.7588625245508577
0.2449878 -0.5770407452918416 0.7633031750133726
0.2469877 -0.5708581910053911 0.767596052812552
0.2489876 -0.5647456058401964 0.7719894335493984
0.2509875 -0.5588468529983609 0.7763195447072254
0.2529874 -0.5525675394708165 0.7807516294098078
0.2549873 -0.5462266197740437 0.7849160333516259
0.2569872 -0.540149362806763 0.7895260702915586
0.2589871 -0.5339674905676799 0.7939655321444673
0.260987 -0.5275447128943122 0.7977537004022314
0.2629869 -0.5214707585642958 0.8019667302719319
0.2649868 -0.5153369420323154 0.8060647064129727
0.2669867 -0.5092383988629205 0.8103651020458986
0.2689866 -0.5027934338485939 0.8144759957423295
0.2709865 -0.49645454194675076 0.8185384045716062
0.2729864 -0.4904100819142539 0.8224375573770104
0.2749863 -0.48376383912068455 0.8265589400455495
0.2769862 -0.4771638708532183 0.830227068669277
0.2789861 -0.47061282828618356 0.8342197458992952
0.280986 -0.46451231347508426 0.8378595588659282
0.2829859 -0.45811800784082135 0.8415498197888436
0.2849858 -0.4515837201632109 0.8453397468364814
0.2869857 -0.4452232572079838 0.8485860574325007
0.2889856 -0.4385527890031085 0.8521025935064932
0.2909855 -0.4321047170979455 0.8557269853912903
0.2929854 -0.42558906540910685 0.8592363378683623
0.2949853 -0.4188832559056077 0.8623282131881108
0.2969852 -0.4119503384684122 0.8654807765775516
0.2989851 -0.4054766866022903 0.8688570941591075
0.300985 -0.3983254810388915 0.8715585555611598
0.3029849 -0.3917662856091054 0.8747207942410986
0.3049848 -0.38502790786757124 0.8777432731574522
0.3069847 -0.37767139715750336 0.8803335680984576
0.3089846 -0.37119420893952026 0.883350327288871
0.3109845 -0.3637998360241565 0.8862665758553013
0.3129844 -0.35690646685879907 0.8889058205466697
0.3149843 -0.34978756599271094 0.8916309103071179
0.3169842 -0.34270816356479306 0.894028399329851
0.3189841 -0.3354228259643897 0.8973045035174305
0.320984 -0.3286546656697372 0.899937486020303
0.3229839 -0.32105006888461873 0.9023897004011103
0.3249838 -0.31358735012667616 0.9048869673720072
0.3269837 -0.30655549473816235 0.9073431691234363
0.3289836 -0.2992196332449011 0.9096623046424449
0.3309835 -0.291349080348471 0.9120077928051348
0.3329834 -0.28435333933184814 0.9143739584355418
0.3349833 -0.27722246703032366 0.9167463953975357
0.3369832 -0.2695606070261026 0.9192808613054877
0.3389831 -0.2622110349128996 0.9213716052894666
0.340983 -0.25463359639968397 0.923674946963414
0.3429829 -0.2473285950224386 0.9260608764367126
0.3449828 -0.2398887044167774 0.9280844930075738
0.3469827 -0.2325237034363051 0.9299115167872306
0.3489826 -0.2251449335463056 0.9321778658536515
0.3509825 -0.21766235019560176 0.9342113821921961
0.3529824 -0.2102322754761464 0.9361571043047966
0.3549823 -0.20271063741237574 0.9377364958913795
0.3569822 -0.19502294845888454 0.9393535603236451
0.3589821 -0.18731896810309973 0.9409767048810849
0.360982 -0.1800441582663442 0.9428347725877657
0.3629819 -0.17247726310023204 0.9443498263900852
0.3649818 -0.16533547213434405 0.9455895634010242
0.3669817 -0.15748166497910523 0.9470760453749897
0.3689816 -0.15000888587014755 0.9481056905226897
0.3709815 -0.14259667783435873 0.9496450367005151
0.3729814 -0.13520980148848868 0.9507748858788397
0.3749813 -0.1272237327367436 0.9516593240987771
0.3769812 -0.11962101916929278 0.9527597929956898
0.3789811 -0.11233490282147782 0.9539815900504444
0.380981 -0.10454046544904624 0.9550186546394044
0.3829809 -0.09689574833700974 0.9558412098192511
0.3849808 -0.08922394581414259 0.9563713052531703
0.3869807 -0.081298762413955 0.9570317511593638
0.3889806 -0.07324617007212286 0.9575810276076264
0.3909805 -0.06597591897683304 0.9579984840615314
0.3929804 -0.05788548551901487 0.958368156535455
0.3949803 -0.05036194823867199 0.958838098698561
0.3969802 -0.04245186174819096 0.9590769004040605
0.3989801 -0.033988202209474155 0.9590783381844222
0.40098 -0.026275500229995193 0.95917377762856
0.4029799 -0.018325230607526652 0.9595312790523688
0.4049798 -0.010134042299720227 0.9600575601690896
0.4069797 -0.0023770977950402106 0.9599408002000641
0.4089796 0.005495112947300931 0.9600616205082843
0.4109795 0.013272837859702692 0.9600628002616886
0.4129794 0.021657975175646764 0.9599813207611874
0.4149793 0.029613501261130257 0.9599276653207403
0.4169792 0.03773752573540897 0.9597997815501232
0.4189791 0.0454680876029536 0.9591973473635905
0.420979 0.05352894166573786 0.958926804858669
0.4229789 0.061369855641121566 0.9582799158485845
0.4249788 0.0693379986167376 0.9583308649185889
0.4269787 0.07732660879910956 0.9578906264592167
0.4289786 0.08522393543142631 0.9572697721552506
0.4309785 0.09296220855939444 0.9568661541677691
0.4329784 0.10105161347586566 0.955961938604177
0.4349783 0.10893439757441584 0.9552992549736196
0.4369782 0.1170857607188993 0.9540774476193533
0.4389781 0.12479745976500123 0.9533960666724307
0.440978 0.13288507907269187 0.9524148329496436
0.4429779 0.14056432072207709 0.9513770769033385
0.4449778 0.14868418756863783 0.9502472291179019
0.4469777 0.1564883037310359 0.9486485469271365
0.4489776 0.164199043096475 0.9477633435223345
0.4509775 0.17254390543940404 0.9464671355624875
0.4529774 0.1804491276337866 0.9450018546448808
0.4549773 0.18776901183463887 0.9436863127841003
0.4569772 0.19608558899712752 0.9419966473775278
0.4589771 0.20419430275390915 0.940398867894821
0.460977 0.21196314319774343 0.9385002078390902
0.4629769 0.21994486447805411 0.9365001237191628
0.4649768 0.22783835209422348 0.9348766933740711
0.4669767 0.23576705059471176 0.9325178484301405
0.4689766 0.24362054915485098 0.930744215841355
0.4709765 0.2514886849792958 0.9287535446708981
0.4729764 0.2588121262671249 0.9265966599667427
0.4749763 0.26710737671673446 0.924797380613642
0.4769762 0.2753188279379731 0.9223085383592953
0.4789761 0.28297093681832036 0.919961507536412
0.480976 0.29074675182261334 0.917849183840985
0.4829759 0.29879948188553157 0.9158454738887885
0.4849758 0.306612563327332 0.9131429636622095
0.4869757 0.3139563451167746 0.9103483426743794
0.4889756 0.3219935860114043 0.9077905947995379
0.4909755 0.32975240862780414 0.9053100937319845
0.4929754 0.3373388356272933 0.9024987489435663
0.4949753 0.34475113585468853 0.8999264443228738
0.4969752 0.35255929692602617 0.8968230391162895
0.4989751 0.3601884647448268 0.8945348763421056
0.500975 0.3677720726481581 0.8915427223764507
0.5029749 0.3751586152616319 0.8884751312519068
0.5049748 0.38235285965250726 0.8851140345016895
0.5069747 0.3897575090224198 0.8817400410738829
0.5089746 0.39698490050134083 0.878687779807629
0.5109745 0.4047298421970669 0.875226812785172
0.5129744 0.4123275738158094 0.8721319445174756
0.5149743 0.4196371678731504 0.8685038195928083
0.5169742 0.4270561055787052 0.8648646995895211
0.5189741 0.4342019972824972 0.8611113857919176
0.520974 0.44120837570595395 0.8572079319827796
0.5229739 0.44893996086975585 0.8534701836664949
0.5249738 0.45577564128855513 0.849448203045814
0.5269737 0.4631009897942032 0.8452528659336642
0.5289736 0.4703349849222465 0.8412455520126896
0.5309735 0.4778741190781097 0.8367400462578396
0.5329734 0.4848171268929997 0.8328899237303856
0.5349733 0.49195840522208717 0.8285523886908728
0.5369732 0.49923361326394644 0.8239626490950308
0.5389731 0.5060476959220683 0.8195107170669393
0.540973 0.513726752081258 0.8154097622967668
0.5429729 0.5204780099343796 0.8108654014352225
0.5449728 0.5278546865393373 0.8059456095094192
0.5469727 0.5350673029508909 0.801517047415257
0.5489726 0.5417748992328644 0.7969034589091218
0.5509725 0.5487254718687071 0.7918475836993941
0.5529724 0.5559632140172228 0.7870989134741153
0.5549723 0.5630096484882265 0.7822447551769702
0.5569722 0.569753169339637 0.7774121945652697
0.5589721 0.5767612318182397 0.7725278000680704
0.560972 0.5838967924742617 0.7676713482923624
0.5629719 0.590522239592399 0.7626720963476258
0.5649718 0.5974134781992405 0.7578677244755806
0.5669717 0.6040497213509615 0.7527703325667233
0.5689716 0.6107532762717056 0.7475223139537928
0.5709715 0.6170985270472679 0.7423161213967209
0.5729714 0.62349744703332 0.7373357807490002
0.5749713 0.630207542270398 0.7319822807077871
0.5769712 0.6364009703019211 0.7269178282638924
0.5789711 0.6425526235431172 0.7213512483582487
0.580971 0.6487905598013355 0.7160530818655447
0.5829709 0.6550824526504794 0.7106791311782318
0.5849708 0.6613162078148651 0.704843155470739
0.5869707 0.6669151999006239 0.6992176716215293
0.5889706 0.6731195204696069 0.6933619612366603
0.5909705 0.6790062121781311 0.6873809695169648
0.5929704 0.6850148242495394 0.6813540198834224
0.5949703 0.6902034827711336 0.6752417164555466
0.5969702 0.6965562739043836 0.6689188502965906
0.5989701 0.7024279813483955 0.6625710964748994
0.60097 0.7078656400441529 0.6565408861524715
0.6029699 0.713356651433239 0.6501351913041569
0.6049698 0.7189799113957891 0.6436889628948204
0.6069697 0.7245135972289716 0.6375441889714425
0.6089696 0.7304349229712145 0.6309796689693092
0.6109695 0.7357278445959408 0.6246236227621594
0.6129694 0.7410294784087785 0.6178252518148617
0.6149693 0.7470507282329738 0.6116457899362014
0.6169692 0.7525877197580795 0.6046624435112005
0.6189691 0.7579896389991505 0.5979412760202393
0.620969 0.762897865874476 0.5915411031228841
0.6229689 0.7680442510586882 0.5844340327383706
0.6249688 0.7734721795157344 0.5775160073682406
0.6269687 0.7786103973906416 0.5705406257466058
0.6289686 0.7835284886215963 0.5638205590480668
0.6309685 0.7885337678879897 0.556714347983201
0.6329684 0.7936080480772707 0.5501833292021895
0.6349683 0.7988785934499361 0.5432138483459129
0.6369682 0.8036151482813979 0.5361207420166691
0.6389681 0.8080950610765116 0.5292451802049392
0.640968 0.8137490053835531 0.5220718098031166
0.6429679 0.817771924047654 0.5153939969358872
0.6449678 0.8228498273202106 0.5080298051712926
0.6469677 0.8265610314585844 0.501065621531245
0.6489676 0.8311518589155268 0.49402414072276835
0.6509675 0.835006862544702 0.4867296477508733
0.6529674 0.8403546978517553 0.4789744822123232
0.6549673 0.8437805299693399 0.4716213982702486
0.6569672 0.8479987747157954 0.46430195726134954
0.6589671 0.8520241622885474 0.4568096105743891
0.660967 0.8557041594840975 0.4491674454396007
0.6629669 0.8596892142594585 0.44213548560674376
0.6649668 0.863366049896022 0.4348518252252417
0.6669667 0.8667715541832851 0.4270967990534252
0.6689666 0.8706449116319248 0.419391885480048
0.6709665 0.874287909694365 0.4118538067345371
0.6729664 0.8776268601129306 0.4034789276965637
0.6749663 0.881141082135088 0.39531229643035987
0.6769662 0.8843470524735038 0.3875373473420323
0.6789661 0.8881343713382621 0.3795302164139562
0.680966 0.8914259449577163 0.3719815398755577
0.6829659 0.8944354911799542 0.3639373250010448
0.6849658 0.897438042015355 0.3558689310303549
0.6869657 0.900115743504269 0.347695136664919
0.6889656 0.903584962095904 0.33945742234824783
0.6909655 0.9064190878492169 0.33163392787296275
0.6929654 0.9093662985478042 0.3234411902545883
0.6949653 0.9120278619481389 0.31508677088145715
0.6969652 0.9147300725396356 0.3067161280379043
0.6989651 0.917600789609581 0.29881367735493786
0.700965 0.9202316413291168 0.29023492940863915
0.7029649 0.9230286087285433 0.2822506502846549
0.7049648 0.9254908415594878 0.27381659353765214
0.7069647 0.9278877324370515 0.26560473746678825
0.7089646 0.9303658962111919 0.2575123110464079
0.7109645 0.9325295388322087 0.24913842298326944
0.7129644 0.9350455864228837 0.24108247251679044
0.7149643 0.9370252090817126 0.23264387070692216
0.7169642 0.9389977748795493 0.22432705151122517
0.7189641 0.9413581026071056 0.21637612424410613
0.720964 0.9427979230182255 0.20782974052144393
0.7229639 0.9445551256934869 0.1995613264165822
0.7249638 0.9466149715589001 0.19105475095116828
0.7269637 0.94805208439927 0.18295996412255539
0.7289636 0.9496829080276359 0.17482561767827579
0.7309635 0.9512055650154396 0.16602798327874563
0.7329634 0.9524790643133517 0.1579586429125978
0.7349633 0.9537199382897704 0.14925554847982564
0.7369632 0.954771898626928 0.14087152509833134
0.7389631 0.9562201488927896 0.13248161260545893
0.740963 0.9570950085690019 0.12408641983351193
0.7429629 0.9581073206162792 0.11572614038358324
0.7449628 0.9589728266911027 0.10718119475735632
0.7469627 0.9597411451684712 0.09892331977666591
0.7489626 0.9606288570635948 0.09007736574699225
0.7509625 0.9611744867938783 0.08139941506191384
0.7529624 0.9620908394821607 0.07343738775961703
0.7549623 0.9626219526267883 0.06471921080141535
0.7569622 0.9629672336848444 0.05611733230324361
0.7589621 0.9635502930167896 0.04745684394888297
0.760962 0.9638279233594356 0.03894429433361715
0.7629619 0.9637301785646732 0.030387757800369657
0.7649618 0.9641014572823907 0.021749706638691517
0.7669617 0.9642839511305372 0.013415282762358906
0.7689616 0.9642855005576662 0.004919529848229971
0.7709615 0.9641595135221939 -0.0035893151383451366
0.7729614 0.9640518220482961 -0.012159704753192821
0.7749613 0.9640506298094803 -0.020536007489688715
0.7769612 0.9638221318014962 -0.02883820279805599
0.7789611 0.963418495119316 -0.037365104544437505
0.780961 0.9630972886669183 -0.0455365558525226
0.7829609 0.9623162686818512 -0.05436592818730156
0.7849608 0.961944366385996 -0.062858983619059
0.7869607 0.961255673918409 -0.0711229672070233
0.7889606 0.9604305861971576 -0.07986933672569631
0.7909605 0.9601136061442589 -0.08768299902296907
0.7929604 0.9590857542908758 -0.09634637537432039
0.7949603 0.9582010564487327 -0.10480648044657526
0.7969602 0.9564478971647056 -0.11356865767214747
0.7989601 0.955295576901409 -0.12154994789694527
0.80096 0.9550644700190701 -0.1300183670642873
0.8029599 0.9533078776633823 -0.1383268857048176
0.8049598 0.9518081449227227 -0.14647856540466336
0.8069597 0.9505552326803111 -0.15520172893805667
0.8089596 0.9491571563170322 -0.1637422838219023
0.8109595 0.9473088627385738 -0.17166728526175073
0.8129594 0.9456622559219297 -0.18034719267790608
0.8149593 0.9441564189874353 -0.18842503344087214
