# GHZ S RI R 50.0
0.3 -0.493549 2.404106
0.3011484375 0.2740335 2.10506
0.302296875 0.8100877 1.669541
0.3034453125 1.132474 1.184613
0.30459375 1.279594 0.7072693
0.3057421875 1.288774 0.2737344
0.306890625 1.195695 -0.09526058
0.3080390625 1.031403 -0.3921141
0.3091875 0.8215545 -0.6145386
0.3103359375 0.5847442 -0.7670089
0.311484375 0.3353477 -0.8520504
0.3126328125 0.08610762 -0.8739441
0.31378125 -0.1515222 -0.8372124
0.3149296875 -0.369516 -0.7447772
0.316078125 -0.5551799 -0.6026331
0.3172265625 -0.6992222 -0.4158941
0.318375 -0.7894651 -0.1935544
0.3195234375 -0.8150501 0.0511874
0.320671875 -0.7655645 0.2998361
0.3218203125 -0.6386412 0.5279984
0.32296875 -0.4401434 0.7099991
0.3241171875 -0.1886777 0.8176166
0.325265625 0.08851526 0.83591
0.3264140625 0.3556243 0.761135
0.3275625 0.5820331 0.6021391
0.3287109375 0.7425724 0.3806439
0.329859375 0.8233956 0.1238669
0.3310078125 0.8217208 -0.1405389
0.33215625 0.7432801 -0.3914272
0.3333046875 0.597279 -0.6102043
0.334453125 0.3935207 -0.7839838
0.3356015625 0.1434518 -0.9012231
0.33675 -0.1428637 -0.9525666
0.3378984375 -0.4578768 -0.9273434
0.339046875 -0.7889819 -0.8133718
0.3401953125 -1.125546 -0.5889069
0.34134375 -1.446394 -0.2259082
0.3424921875 -1.71711 0.3233832
0.343640625 -1.86195 1.139591
0.3447890625 -1.68454 2.371256
0.3459375 -0.544238 4.227302
0.3470859375 3.977614 5.755064
0.348234375 8.326454 -2.341132
0.3493828125 1.639983 -5.338927
0.35053125 -1.082731 -3.491549
0.3516796875 -1.846606 -1.920008
0.352828125 -1.925501 -0.7942923
0.3539765625 -1.702368 -0.005725301
0.355125 -1.338877 0.5156586
0.3562734375 -0.9257129 0.8211027
0.357421875 -0.518707 0.9555373
0.3585703125 -0.153704 0.9586453
0.35971875 0.1488823 0.8667433
0.3608671875 0.3818714 0.7115844
0.362015625 0.5420321 0.5195647
0.3631640625 0.6349516 0.3106735
0.3643125 0.6658729 0.1006821
0.3654609375 0.6415122 -0.09802746
0.366609375 0.5689818 -0.2756313
0.3677578125 0.4551096 -0.4239517
0.36890625 0.3083196 -0.535857
0.3700546875 0.1366187 -0.6041914
0.371203125 -0.04990124 -0.6234066
0.3723515625 -0.2386808 -0.5894839
0.3735 -0.4151773 -0.499924
0.3746484375 -0.5635141 -0.3566804
0.375796875 -0.664524 -0.1688275
0.3769453125 -0.7040279 0.05029991
0.37809375 -0.6705798 0.2791851
0.3792421875 -0.5615501 0.49202
0.380390625 -0.3850892 0.6615039
0.3815390625 -0.1590243 0.7672949
0.3826875 0.0924083 0.7961011
0.3838359375 0.3428648 0.7450089
0.384984375 0.5677761 0.6196491
0.3861328125 0.7493887 0.4316745
0.38728125 0.8726485 0.1965776
0.3884296875 0.9285461 -0.07036393
0.389578125 0.9116334 -0.3529317
0.3907265625 0.8182547 -0.6365646
0.391875 0.645573 -0.9053464
0.3930234375 0.3889686 -1.143854
0.394171875 0.04724921 -1.330046
0.3953203125 -0.3851922 -1.440675
0.39646875 -0.9118345 -1.438836
0.3976171875 -1.532518 -1.271373
0.398765625 -2.238376 -0.8490565
0.3999140625 -2.979372 -0.0259149
0.4010625 -3.591503 1.471389
0.4022109375 -3.450633 4.087514
0.403359375 -0.3034428 7.593607
0.4045078125 7.030105 5.695385
0.40565625 7.160837 -1.511366
0.4068046875 3.535412 -3.897514
0.407953125 1.013552 -3.80583
0.4091015625 -0.4444046 -3.064245
0.41025 -1.240718 -2.20035
0.4113984375 -1.605297 -1.382698
0.412546875 -1.684097 -0.6750697
0.4136953125 -1.576869 -0.09959356
0.41484375 -1.353414 0.3389311
0.4159921875 -1.066398 0.6482184
0.417140625 -0.7538212 0.8412546
0.4182890625 -0.4418623 0.934436
0.4194375 -0.1490105 0.9435407
0.4205859375 0.1117604 0.8847125
0.421734375 0.3317432 0.7714242
0.4228828125 0.5053411 0.617256
0.42403125 0.6284851 0.4342654
0.4251796875 0.6986094 0.2341534
0.426328125 0.7144145 0.02866794
0.4274765625 0.6763913 -0.169746
0.428625 0.5879247 -0.348618
0.4297734375 0.4545563 -0.4949578
0.430921875 0.285372 -0.5968763
0.4320703125 0.09566497 -0.645009
0.43321875 -0.09931595 -0.6347828
0.4343671875 -0.2806708 -0.5666263
0.435515625 -0.4301118 -0.4482072
0.4366640625 -0.5344801 -0.2926188
0.4378125 -0.5849788 -0.1169774
0.4389609375 -0.5803518 0.06051919
0.440109375 -0.5245559 0.2231047
0.4412578125 -0.4274677 0.3576602
0.44240625 -0.3005754 0.45563
0.4435546875 -0.1561551 0.5123895
0.444703125 -0.005867934 0.5274296
0.4458515625 0.1391674 0.5022765
0.447 0.2705494 0.4410021
0.4481484375 0.3807549 0.3485593
0.449296875 0.4625289 0.2313695
0.4504453125 0.5118949 0.09594382
0.45159375 0.5249515 -0.04984311
0.4527421875 0.4987069 -0.1964265
0.453890625 0.4325528 -0.3349985
0.4550390625 0.3282293 -0.4546088
0.4561875 0.1897194 -0.5440228
0.4573359375 0.0248447 -0.5928196
0.458484375 -0.1546756 -0.592114
0.4596328125 -0.3336261 -0.5364358
0.46078125 -0.4938699 -0.4250231
0.4619296875 -0.617129 -0.2644759
0.463078125 -0.6882888 -0.0668775
0.4642265625 -0.6956088 0.148728
0.465375 -0.6359008 0.3609671
0.4665234375 -0.5121583 0.5501501
0.467671875 -0.334538 0.6980497
0.4688203125 -0.1165646 0.7899452
0.46996875 0.1246821 0.8174521
0.4711171875 0.3720676 0.7756938
0.472265625 0.6086821 0.664211
0.4734140625 0.8162576 0.4865213
0.4745625 0.9816386 0.2451459
0.4757109375 1.086681 -0.05277263
0.476859375 1.113672 -0.3996249
0.4780078125 1.043051 -0.7823164
0.47915625 0.8499076 -1.185427
0.4803046875 0.5041962 -1.582319
0.481453125 -0.03472258 -1.930312
0.4826015625 -0.8140959 -2.152722
0.48375 -1.898027 -2.101409
0.4848984375 -3.314008 -1.449243
0.486046875 -4.760211 0.5009277
0.4871953125 -4.400186 4.400598
0.48834375 0.3977884 6.673099
0.4894921875 4.084426 3.709015
0.490640625 4.141483 0.6194529
0.4917890625 3.080812 -1.023269
0.4929375 1.949072 -1.732484
0.4940859375 0.9855311 -1.924642
0.495234375 0.2269979 -1.824359
0.4963828125 -0.3335668 -1.558535
0.49753125 -0.7166317 -1.207765
0.4986796875 -0.9445682 -0.8264648
0.499828125 -1.041778 -0.450518
0.5009765625 -1.032915 -0.105903
0.502125 -0.939696 0.190712
0.5032734375 -0.784808 0.429093
0.504421875 -0.5868672 0.6034123
0.5055703125 -0.3640621 0.7105228
0.50671875 -0.132777 0.751053
0.5078671875 0.09093977 0.7279095
0.509015625 0.2928951 0.6471103
0.5101640625 0.4601232 0.5164664
0.5113125 0.5810644 0.3468213
0.5124609375 0.6471019 0.1515407
0.513609375 0.6526204 -0.05289208
0.5147578125 0.5975135 -0.2485097
0.51590625 0.4860232 -0.4177076
0.5170546875 0.3285539 -0.5435622
0.518203125 0.1403569 -0.6148634
0.5193515625 -0.05863417 -0.6239182
0.5205 -0.2500628 -0.5713141
0.5216484375 -0.4153297 -0.4627673
0.522796875 -0.5383858 -0.3108321
0.5239453125 -0.6097712 -0.1290062
0.52509375 -0.6241044 0.06609188
0.5262421875 -0.5806162 0.2577332
0.527390625 -0.4824432 0.4306697
0.5285390625 -0.3361044 0.571437
0.5296875 -0.1503601 0.668313
0.5308359375 0.06344808 0.7108517
0.531984375 0.2927918 0.6911136
0.5331328125 0.522497 0.6028711
0.53428125 0.735162 0.4414219
0.5354296875 0.9106972 0.2044756
0.536578125 1.025005 -0.1067031
0.5377265625 1.049643 -0.4878156
0.538875 0.9462026 -0.9273294
0.5400234375 0.6652848 -1.403762
0.541171875 0.1327506 -1.874405
0.5423203125 -0.7745801 -2.236097
0.54346875 -2.251225 -2.198595
0.5446171875 -4.35363 -0.785568
0.545765625 -4.580766 3.693401
0.5469140625 0.547973 5.359331
0.5480625 2.857996 2.564883
0.5492109375 2.728513 0.5602594
0.550359375 2.087561 -0.4897651
0.5515078125 1.413216 -1.003112
0.55265625 0.8114712 -1.205311
0.5538046875 0.3073232 -1.214957
0.554953125 -0.09556086 -1.100564
0.5561015625 -0.3979486 -0.9084293
0.55725 -0.6054138 -0.6715368
0.5583984375 -0.7245189 -0.4151933
0.559546875 -0.7639758 -0.1600805
0.5606953125 -0.7327313 0.07724499
0.56184375 -0.6424388 0.283668
0.5629921875 -0.5046111 0.4478699
0.564140625 -0.3325836 0.5617411
0.5652890625 -0.1411887 0.619749
0.5664375 0.05430756 0.6200317
0.5675859375 0.2379922 0.5632142
0.568734375 0.3946607 0.4563145
0.5698828125 0.5106963 0.3088053
0.57103125 0.5759585 0.1344479
0.5721796875 0.5853604 -0.05001534
0.573328125 0.5380852 -0.2271019
0.5744765625 0.4400775 -0.379961
0.575625 0.3014971 -0.494977
0.5767734375 0.1361876 -0.5626314
0.577921875 -0.04036007 -0.5775686
0.5790703125 -0.2129451 -0.5404251
0.58021875 -0.3662113 -0.4552966
0.5813671875 -0.4893605 -0.3298397
0.582515625 -0.5724086 -0.1740318
0.5836640625 -0.6093289 0.001107225
0.5848125 -0.5962579 0.1824383
0.5859609375 -0.53242 0.3576912
0.587109375 -0.4197904 0.5141131
0.5882578125 -0.2628603 0.6390082
0.58940625 -0.06836732 0.7201722
0.5905546875 0.1531546 0.7464337
0.591703125 0.3880301 0.7080572
0.5928515625 0.6196319 0.5986185
0.594 0.8274644 0.4135531
0.5951484375 0.9880765 0.1552968
0.596296875 1.076332 -0.1689453
0.5974453125 1.066184 -0.5441101
0.59859375 0.9306731 -0.9465408
0.5997421875 0.6472836 -1.339861
0.600890625 0.19204 -1.681386
0.6020390625 -0.454154 -1.903295
0.6031875 -1.307991 -1.909111
0.6043359375 -2.363787 -1.524857
0.605484375 -3.503087 -0.4290322
0.6066328125 -4.104277 1.872588
0.60778125 -2.321232 4.931605
0.6089296875 1.870586 5.035512
0.610078125 3.764745 2.186565
0.6112265625 3.366055 -0.03086491
0.612375 2.400519 -1.148361
0.6135234375 1.472283 -1.604221
0.614671875 0.7002848 -1.69769
0.6158203125 0.09255255 -1.584857
0.61696875 -0.3640552 -1.352627
0.6181171875 -0.6853272 -1.053264
0.619265625 -0.8853354 -0.7226126
0.6204140625 -0.9764642 -0.3876806
0.6215625 -0.9726489 -0.07111523
0.6227109375 -0.8875195 0.209101
0.623859375 -0.7378544 0.4375279
0.6250078125 -0.5418465 0.6035762
0.62615625 -0.3192081 0.700687
0.6273046875 -0.09038867 0.7273296
0.628453125 0.1249868 0.6879435
0.6296015625 0.3102179 0.5923337
0.63075 0.4520892 0.4537213
0.6318984375 0.5432536 0.2875258
0.633046875 0.5804265 0.1106267
0.6341953125 0.565699 -0.06131229
0.63534375 0.5055248 -0.2152672
0.6364921875 0.4084381 -0.3406439
0.637640625 0.2849669 -0.4304803
0.6387890625 0.1461969 -0.4811947
0.6399375 0.003811919 -0.4911688
0.6410859375 -0.1327274 -0.463053
0.642234375 -0.2537627 -0.4003157
0.6433828125 -0.3521619 -0.3085917
0.64453125 -0.4210156 -0.1947767
0.6456796875 -0.4562542 -0.06737673
0.646828125 -0.4554551 0.06484694
0.6479765625 -0.4179917 0.1920256
0.649125 -0.3465759 0.304402
0.6502734375 -0.2456062 0.3932083
0.651421875 -0.1221507 0.4503904
0.6525703125 0.01415217 0.4700514
0.65371875 0.1520121 0.4495735
0.6548671875 0.2800319 0.3893201
0.656015625 0.3860356 0.2929161
0.6571640625 0.4603311 0.1684262
0.6583125 0.495618 0.02551956
0.6594609375 0.4874672 -0.1226139
0.660609375 0.4363422 -0.2638135
0.6617578125 0.3454831 -0.3862852
0.66290625 0.2214349 -0.4787633
0.6640546875 0.07412562 -0.5337314
0.665203125 -0.08614541 -0.5447732
0.6663515625 -0.2472137 -0.509858
0.6675 -0.3965567 -0.4294257
0.6686484375 -0.522168 -0.3065868
0.669796875 -0.612878 -0.1472293
0.6709453125 -0.6581612 0.03980676
0.67209375 -0.6495357 0.2429871
0.6732421875 -0.5808662 0.4485802
0.674390625 -0.44812 0.6399065
0.6755390625 -0.251917 0.7986549
0.6766875 0.003297085 0.9038475
0.6778359375 0.3064446 0.9337808
0.678984375 0.6398252 0.8671011
0.6801328125 0.9783974 0.6837623
0.68128125 1.286808 0.3660156
0.6824296875 1.517849 -0.1009377
0.683578125 1.602996 -0.7252564
0.6847265625 1.439699 -1.500099
0.685875 0.8565386 -2.367534
0.6870234375 -0.4120203 -3.095031
0.688171875 -2.531651 -2.917263
0.6893203125 -4.339339 -0.6393152
0.69046875 -3.406375 2.336575
0.6916171875 -1.083354 3.193753
0.692765625 0.5107053 2.618467
0.6939140625 1.266311 1.735931
0.6950625 1.51608 0.9294132
0.6962109375 1.484271 0.2820901
0.697359375 1.295819 -0.204623
0.6985078125 1.023713 -0.5460133
0.69965625 0.7135017 -0.7595612
0.7008046875 0.3980505 -0.8606405
0.701953125 0.1000902 -0.8669057
0.7031015625 -0.1631586 -0.7945693
0.70425 -0.3760171 -0.6598962
0.7053984375 -0.5300351 -0.4815213
0.706546875 -0.6198929 -0.2782708
0.7076953125 -0.644258 -0.06829828
0.70884375 -0.6067461 0.129812
0.7099921875 -0.515805 0.3007213
0.711140625 -0.3827925 0.4310819
0.7122890625 -0.2223079 0.5125224
0.7134375 -0.05009933 0.5407175
0.7145859375 0.1174269 0.5163069
0.715734375 0.2662096 0.4446836
0.7168828125 0.384003 0.3343256
0.71803125 0.4618276 0.1964421
0.7191796875 0.4950719 0.04408658
0.720328125 0.4822041 -0.109995
0.7214765625 0.4247403 -0.2528103
0.722625 0.3280625 -0.372959
0.7237734375 0.1995959 -0.4603882
0.724921875 0.04921544 -0.5076587
0.7260703125 -0.1125623 -0.5091407
0.72721875 -0.2720383 -0.4622141
0.7283671875 -0.4164104 -0.3673516
0.729515625 -0.5316647 -0.2278772
0.7306640625 -0.6046667 -0.05129205
0.7318125 -0.6229064 0.1502738
0.7329609375 -0.5774152 0.363021
0.734109375 -0.4610993 0.5677145
0.7352578125 -0.2725142 0.7425208
0.73640625 -0.01453812 0.8637375
0.7375546875 0.301239 0.9050161
0.738703125 0.658749 0.8409796
0.7398515625 1.032986 0.6405641
0.741 1.386026 0.2699989
0.7421484375 1.655154 -0.3150895
0.743296875 1.717656 -1.174636
0.7444453125 1.283874 -2.348942
0.74559375 -0.3067744 -3.535963
0.7467421875 -3.342459 -2.852037
0.747890625 -4.116852 0.6790571
0.7490390625 -2.000146 2.368084
0.7501875 -0.3948663 2.319808
0.7513359375 0.4939413 1.791413
0.752484375 0.9336303 1.210609
0.7536328125 1.106314 0.6830238
0.75478125 1.110403 0.2354564
0.7559296875 1.003584 -0.1263722
0.757078125 0.8249428 -0.4008437
0.7582265625 0.602089 -0.5896278
0.759375 0.3590822 -0.696
0.7605234375 0.1161418 -0.7255603
0.761671875 -0.1088087 -0.6860526
0.7628203125 -0.3005529 -0.5889151
0.76396875 -0.4475988 -0.4470997
0.7651171875 -0.5418369 -0.2766077
0.766265625 -0.5798315 -0.09369612
0.7674140625 -0.5628791 0.08532607
0.7685625 -0.4957241 0.2456734
0.7697109375 -0.3882164 0.3748531
0.770859375 -0.2519071 0.4641307
0.7720078125 -0.09892182 0.508791
0.77315625 0.05634263 0.5072575
0.7743046875 0.2020839 0.4621682
0.775453125 0.3267317 0.3784991
0.7766015625 0.4215063 0.2643982
0.77775 0.4800259 0.1290758
0.7788984375 0.4984488 -0.01701692
0.780046875 0.4751856 -0.163098
0.7811953125 0.4114159 -0.2981558
0.78234375 0.3112114 -0.4116649
0.7834921875 0.1804645 -0.4938335
0.784640625 0.02836058 -0.5374215
0.7857890625 -0.1348119 -0.5358716
0.7869375 -0.2959051 -0.4866627
0.7880859375 -0.4417375 -0.3896556
0.789234375 -0.5578535 -0.2490809
0.7903828125 -0.631852 -0.07342096
0.79153125 -0.6520879 0.1254073
0.7926796875 -0.6117023 0.3318194
0.793828125 -0.5069952 0.5273769
0.7949765625 -0.3405022 0.6933636
0.796125 -0.1195761 0.8106251
0.7972734375 0.1434141 0.8619276
0.798421875 0.4315705 0.8335433
0.7995703125 0.72393 0.7131508
0.80071875 0.9959049 0.4930744
0.8018671875 1.218097 0.1676202
0.803015625 1.356272 -0.266152
0.8041640625 1.35931 -0.8067918
0.8053125 1.155524 -1.443556
0.8064609375 0.6229575 -2.130598
0.807609375 -0.4294704 -2.704809
0.8087578125 -2.173842 -2.643208
0.80990625 -3.971176 -0.90545
0.8110546875 -3.584265 2.04763
0.812203125 -1.284464 3.271627
0.8133515625 0.490303 2.766038
0.8145 1.333379 1.825691
0.8156484375 1.600897 0.9595721
0.816796875 1.556767 0.2707463
0.8179453125 1.345472 -0.2397109
0.81909375 1.048141 -0.588974
0.8202421875 0.7167388 -0.7985559
0.821390625 0.3860306 -0.8877705
0.8225390625 0.08251219 -0.8776054
0.8236875 -0.1758315 -0.7895091
0.8248359375 -0.3765978 -0.6449198
0.825984375 -0.5142528 -0.4657153
0.8271328125 -0.5885626 -0.2715709
0.82828125 -0.6027719 -0.07913466
0.8294296875 -0.5651942 0.09598786
0.830578125 -0.4854177 0.2436631
0.8317265625 -0.3744646 0.3561447
0.832875 -0.2439489 0.4295116
0.8340234375 -0.1051869 0.4623927
0.835171875 0.03122224 0.4560544
0.8363203125 0.1558344 0.4142775
0.83746875 0.2607048 0.3418026
0.8386171875 0.3392811 0.2461009
0.839765625 0.3876198 0.1347951
0.8409140625 0.4026013 0.01682903
0.8420625 0.3841968 -0.09911806
0.8432109375 0.3342196 -0.2038023
0.844359375 0.2571693 -0.289516
0.8455078125 0.1593193 -0.3489997
0.84665625 0.04911857 -0.3773704
0.8478046875 -0.06403181 -0.3726953
0.848953125 -0.1704506 -0.3350936
0.8501015625 -0.260837 -0.2682662
0.85125 -0.3273158 -0.1782691
0.8523984375 -0.3642996 -0.07327424
0.853546875 -0.368833 0.03757884
0.8546953125 -0.3414228 0.1446634
0.85584375 -0.2841546 0.2389155
0.8569921875 -0.2022305 0.312944
0.858140625 -0.102507 0.3606373
0.8592890625 0.007140057 0.3784072
0.8604375 0.1185832 0.3641704
0.8615859375 0.2227754 0.3189135
0.862734375 0.3123 0.2450323
0.8638828125 0.3790486 0.1468265
0.86503125 0.4168637 0.03053962
0.8661796875 0.4211947 -0.09624451
0.867328125 0.3884522 -0.2244166
0.8684765625 0.3179012 -0.3438441
0.869625 0.2102916 -0.4433344
0.8707734375 0.07071581 -0.5126334
0.871921875 -0.09346045 -0.5401869
0.8730703125 -0.2716834 -0.5175215
0.87421875 -0.4497322 -0.4376193
0.8753671875 -0.6101223 -0.2963628
0.876515625 -0.7332448 -0.09397015
0.8776640625 -0.7974169 0.1639698
0.8788125 -0.777398 0.4663721
0.8799609375 -0.6460419 0.7956238
0.881109375 -0.3697363 1.119812
0.8822578125 0.09366877 1.383563
0.88340625 0.7896616 1.473895
0.8845546875 1.710353 1.14748
0.885703125 2.51514 -0.003258413
0.8868515625 2.119414 -1.825797
0.888 0.3292488 -2.576821
0.8891484375 -1.019741 -1.863073
0.890296875 -1.435898 -0.8951777
0.8914453125 -1.362232 -0.1647751
0.89259375 -1.100672 0.3071424
0.8937421875 -0.7839287 0.581558
0.894890625 -0.4686941 0.7108283
0.8960390625 -0.1823771 0.7333538
0.8971875 0.06024105 0.6783271
0.8983359375 0.2516904 0.5681415
0.899484375 0.3872036 0.4220207
0.9006328125 0.4660144 0.2573905
0.90178125 0.4903731 0.09007169
0.9029296875 0.4653411 -0.06591631
0.904078125 0.3985182 -0.1986997
0.9052265625 0.3003489 -0.2991922
0.906375 0.1824508 -0.3618837
0.9075234375 0.05670455 -0.3848434
0.908671875 -0.06449282 -0.3691898
0.9098203125 -0.170939 -0.3193288
0.91096875 -0.2542135 -0.242509
0.9121171875 -0.3087 -0.1472995
0.913265625 -0.3313853 -0.04333996
0.9144140625 -0.3224194 0.06001114
0.9155625 -0.2837697 0.154057
0.9167109375 -0.2203343 0.2314157
0.917859375 -0.1376204 0.2858961
0.9190078125 -0.0431786 0.3136262
0.92015625 0.05519842 0.3125447
0.9213046875 0.1494804 0.2825612
0.922453125 0.2318106 0.22563
0.9236015625 0.2947802 0.1455508
0.92475 0.3319015 0.04834835
0.9258984375 0.3389897 -0.05850896
0.927046875 0.3126937 -0.165838
0.9281953125 0.2534831 -0.2641259
0.92934375 0.1636003 -0.342932
0.9304921875 0.04880834 -0.3929659
0.931640625 -0.0821268 -0.4063887
0.9327890625 -0.2182712 -0.3773263
0.9339375 -0.346128 -0.3036517
0.9350859375 -0.4516374 -0.1866001
0.936234375 -0.5207677 -0.03204832
0.9373828125 -0.5401762 0.1503775
0.93853125 -0.4984863 0.3466366
0.9396796875 -0.386658 0.539216
0.940828125 -0.1990883 0.7049076
0.9419765625 0.06610651 0.8155047
0.943125 0.403297 0.834475
0.9442734375 0.7927385 0.7119433
0.945421875 1.181502 0.3827981
0.9465703125 1.443957 -0.2157414
0.94771875 1.33336 -1.055874
0.9488671875 0.5841988 -1.799606
0.950015625 -0.5875679 -1.834417
0.9511640625 -1.407465 -1.092617
0.9523125 -1.545259 -0.1894825
0.9534609375 -1.254048 0.4620518
0.954609375 -0.8200403 0.8120107
0.9557578125 -0.3886935 0.9304788
0.95690625 -0.02053322 0.8934277
0.9580546875 0.2633776 0.7581422
0.959203125 0.4585349 0.5660276
0.9603515625 0.5691005 0.3501857
0.9615 0.6031783 0.1343035
0.9626484375 0.5721108 -0.06234975
0.963796875 0.4896747 -0.2258257
0.9649453125 0.3711691 -0.3471574
0.96609375 0.2316984 -0.4221302
0.9672421875 0.08574508 -0.4499423
0.968390625 -0.05372529 -0.4345098
0.9695390625 -0.1758436 -0.3818867
0.9706875 -0.2726983 -0.3000427
0.9718359375 -0.3388662 -0.1978524
0.972984375 -0.3718496 -0.08531121
0.9741328125 -0.3716102 0.02827624
0.97528125 -0.3396078 0.1341848
0.9764296875 -0.2802373 0.2248148
0.977578125 -0.1990256 0.2937666
0.9787265625 -0.1024899 0.3364058
0.979875 0.001164039 0.3499834
0.9810234375 0.1043627 0.3333658
0.982171875 0.1985763 0.2879574
0.9833203125 0.276121 0.217007
0.98446875 0.3303623 0.1258931
0.9856171875 0.3560754 0.02186303
0.986765625 0.3500349 -0.08623256
0.9879140625 0.3122384 -0.1896127
0.9890625 0.2446023 -0.2785396
0.9902109375 0.1520842 -0.3447125
0.991359375 0.04231054 -0.3813126
0.9925078125 -0.07566423 -0.3840189
0.99365625 -0.1915558 -0.3515224
0.9948046875 -0.2954456 -0.2847578
0.995953125 -0.3774546 -0.1884246
0.9971015625 -0.4294381 -0.06893161
0.99825 -0.4452291 0.06456572
0.9993984375 -0.4216636 0.2024467
1.000546875 -0.3568277 0.333447
1.0016953125 -0.2525056 0.4462981
