# GHZ S RI R 50.0
0.3 1.311422 -2.19979
0.3011484375 0.546432 -2.892025
0.302296875 -0.5982634 -3.410506
0.3034453125 -2.222818 -3.593522
0.30459375 -4.513166 -3.022685
0.3057421875 -7.399917 -0.3998811
0.306890625 -7.416406 6.528769
0.3080390625 1.037722 9.342414
0.3091875 4.967204 4.482168
0.3103359375 4.654125 1.129387
0.311484375 3.618341 -0.5560204
0.3126328125 2.604699 -1.40313
0.31378125 1.717207 -1.80838
0.3149296875 0.9535747 -1.950596
0.316078125 0.3007125 -1.916028
0.3172265625 -0.2505933 -1.749237
0.318375 -0.6969882 -1.479824
0.3195234375 -1.035231 -1.130418
0.320671875 -1.254216 -0.7248217
0.3218203125 -1.344027 -0.2925478
0.32296875 -1.303218 0.1295943
0.3241171875 -1.140462 0.5024902
0.325265625 -0.8804422 0.7919655
0.3264140625 -0.5601091 0.972701
0.3275625 -0.2212146 1.03836
0.3287109375 0.09790055 0.9975591
0.329859375 0.3677331 0.8717874
0.3310078125 0.5731853 0.6869861
0.33215625 0.7059386 0.4702501
0.3333046875 0.7707484 0.2423741
0.334453125 0.7730701 0.02103679
0.3356015625 0.7228703 -0.1818345
0.33675 0.6286219 -0.3573305
0.3378984375 0.4988632 -0.5002501
0.339046875 0.3433586 -0.6045377
0.3401953125 0.1690102 -0.6680037
0.34134375 -0.01529289 -0.6870508
0.3424921875 -0.2009025 -0.6601888
0.343640625 -0.3775224 -0.5855507
0.3447890625 -0.5324752 -0.4646365
0.3459375 -0.6535761 -0.3002635
0.3470859375 -0.7262515 -0.1010059
0.348234375 -0.7385025 0.1188199
0.3493828125 -0.6817412 0.3408453
0.35053125 -0.5555142 0.5389556
0.3516796875 -0.3685764 0.6911463
0.352828125 -0.1408577 0.7766823
0.3539765625 0.1024375 0.7854865
0.355125 0.3346854 0.718404
0.3562734375 0.5325341 0.5854346
0.357421875 0.6801129 0.4028986
0.3585703125 0.7677707 0.1894591
0.35971875 0.7933375 -0.03610091
0.3608671875 0.7582287 -0.2589972
0.362015625 0.6671607 -0.4642124
0.3631640625 0.5259833 -0.6429577
0.3643125 0.342197 -0.7835574
0.3654609375 0.1216399 -0.8793291
0.366609375 -0.1273024 -0.9207674
0.3677578125 -0.3942885 -0.8998893
0.36890625 -0.6685353 -0.8071172
0.3700546875 -0.934357 -0.63407
0.371203125 -1.171018 -0.3724252
0.3723515625 -1.350589 -0.01824071
0.3735 -1.438584 0.4278738
0.3746484375 -1.390746 0.951953
0.375796875 -1.156429 1.526321
0.3769453125 -0.6824349 2.097086
0.37809375 0.08935938 2.57876
0.3792421875 1.212211 2.833837
0.380390625 2.729351 2.624532
0.3815390625 4.587358 1.472636
0.3826875 6.119061 -1.575715
0.3838359375 4.252556 -6.616766
0.384984375 -2.244664 -7.249278
0.3861328125 -4.925042 -3.006929
0.38728125 -4.239993 -0.06919489
0.3884296875 -2.970268 1.287518
0.389578125 -1.835927 1.813218
0.3907265625 -0.9333514 1.915636
0.391875 -0.2433969 1.795086
0.3930234375 0.2696851 1.553814
0.394171875 0.6364582 1.247825
0.3953203125 0.8783081 0.9110619
0.39646875 1.012239 0.5663941
0.3976171875 1.051851 0.2317731
0.398765625 1.007865 -0.07971504
0.3999140625 0.8910521 -0.3512061
0.4010625 0.7125108 -0.571344
0.4022109375 0.4876286 -0.7276154
0.403359375 0.2343608 -0.8101699
0.4045078125 -0.02513162 -0.8128155
0.40565625 -0.2671856 -0.7378834
0.4068046875 -0.4670792 -0.5957013
0.407953125 -0.6069772 -0.4035188
0.4091015625 -0.6757377 -0.1856605
0.41025 -0.672308 0.03279437
0.4113984375 -0.6038132 0.2290629
0.412546875 -0.4848608 0.3866515
0.4136953125 -0.3323257 0.4953164
0.41484375 -0.1637499 0.5515691
0.4159921875 0.005837256 0.5569797
0.417140625 0.1636417 0.5169049
0.4182890625 0.2994187 0.4377235
0.4194375 0.4066621 0.3278016
0.4205859375 0.4795019 0.1953743
0.421734375 0.5143481 0.04876586
0.4228828125 0.5091887 -0.1023264
0.42403125 0.4628657 -0.248529
0.4251796875 0.3766074 -0.3803284
0.426328125 0.2526823 -0.487422
0.4274765625 0.09758818 -0.5580461
0.428625 -0.08053412 -0.5823929
0.4297734375 -0.2687132 -0.5514484
0.430921875 -0.4496147 -0.4592916
0.4320703125 -0.6030492 -0.3058857
0.43321875 -0.7071102 -0.09815885
0.4343671875 -0.7416416 0.1486675
0.435515625 -0.691632 0.4125637
0.4366640625 -0.549199 0.6634657
0.4378125 -0.3150693 0.8722838
0.4389609375 0.0001870243 1.008257
0.440109375 0.3808379 1.041955
0.4412578125 0.8063383 0.9458668
0.44240625 1.249265 0.6821327
0.4435546875 1.666559 0.1997481
0.444703125 1.970169 -0.5953581
0.4458515625 1.900691 -1.837053
0.447 0.7002613 -3.438878
0.4481484375 -2.432417 -3.523144
0.449296875 -3.898031 -0.3624842
0.4504453125 -2.46378 1.662045
0.45159375 -0.9986107 2.027641
0.4527421875 -0.04451368 1.798512
0.453890625 0.5340409 1.397178
0.4550390625 0.8607716 0.9572839
0.4561875 1.007526 0.5290395
0.4573359375 1.017241 0.1384571
0.458484375 0.9197026 -0.1958226
0.4596328125 0.7426333 -0.4566631
0.46078125 0.5116452 -0.6348907
0.4619296875 0.2550712 -0.7239279
0.463078125 0.000912087 -0.7262101
0.4642265625 -0.2263371 -0.6514613
0.465375 -0.4062309 -0.5163434
0.4665234375 -0.5266115 -0.3420238
0.467671875 -0.5828417 -0.1499859
0.4688203125 -0.5776235 0.03919919
0.46996875 -0.5187126 0.2092471
0.4711171875 -0.4176496 0.3468774
0.472265625 -0.2865959 0.4455352
0.4734140625 -0.1378227 0.5011501
0.4745625 0.01602128 0.512756
0.4757109375 0.164404 0.4820527
0.476859375 0.2976716 0.4128465
0.4780078125 0.4071091 0.3098239
0.47915625 0.4848113 0.1800164
0.4803046875 0.524853 0.03130979
0.481453125 0.5221871 -0.1264708
0.4826015625 0.4742709 -0.2820231
0.48375 0.3809356 -0.4223293
0.4848984375 0.2456785 -0.5347638
0.486046875 0.07615969 -0.6053674
0.4871953125 -0.1154489 -0.6239015
0.48834375 -0.3123647 -0.5817082
0.4894921875 -0.4956484 -0.4775962
0.490640625 -0.645126 -0.315271
0.4917890625 -0.7425771 -0.1059023
0.4929375 -0.7733735 0.1325043
0.4940859375 -0.7297961 0.3801712
0.495234375 -0.6095985 0.6147479
0.4963828125 -0.4168448 0.8141295
0.49753125 -0.1607575 0.9587215
0.4986796875 0.1438312 1.03018
0.499828125 0.483328 1.014079
0.5009765625 0.8349156 0.8967894
0.502125 1.180785 0.6646248
0.5032734375 1.491243 0.3014428
0.504421875 1.725357 -0.2081307
0.5055703125 1.827951 -0.8876763
0.50671875 1.692898 -1.76055
0.5078671875 1.130294 -2.820239
0.509015625 -0.2568402 -3.918007
0.5101640625 -3.045068 -4.216901
0.5113125 -6.306181 -1.325886
0.5124609375 -5.103206 3.655951
0.513609375 -1.274447 4.846727
0.5147578125 1.049982 3.734193
0.51590625 2.022212 2.339383
0.5170546875 2.275623 1.151383
0.518203125 2.14947 0.2288795
0.5193515625 1.818377 -0.4423229
0.5205 1.385462 -0.8910763
0.5216484375 0.9183134 -1.146694
0.522796875 0.4643612 -1.239917
0.5239453125 0.05736428 -1.203594
0.52509375 -0.2814746 -1.068823
0.5262421875 -0.541335 -0.8668476
0.527390625 -0.7182321 -0.6246204
0.5285390625 -0.8145518 -0.3663212
0.5296875 -0.8361225 -0.1110251
0.5308359375 -0.7921396 0.1252398
0.531984375 -0.6925942 0.3301574
0.5331328125 -0.5496753 0.4926758
0.53428125 -0.3756324 0.6078143
0.5354296875 -0.1830433 0.6703999
0.536578125 0.01442562 0.679071
0.5377265625 0.2035632 0.6345695
0.538875 0.3713112 0.5412957
0.5400234375 0.5055214 0.4059373
0.541171875 0.5949638 0.2395438
0.5423203125 0.6336043 0.05513686
0.54346875 0.6171513 -0.1315167
0.5446171875 0.5472885 -0.3048618
0.545765625 0.4305487 -0.4498661
0.5469140625 0.2774177 -0.5531455
0.5480625 0.1021242 -0.6068834
0.5492109375 -0.08006972 -0.6069124
0.550359375 -0.2520381 -0.5548993
0.5515078125 -0.4009933 -0.4568701
0.55265625 -0.5153823 -0.3215983
0.5538046875 -0.5870526 -0.1606942
0.554953125 -0.6117263 0.01439277
0.5561015625 -0.5874727 0.1886896
0.55725 -0.5162248 0.3521447
0.5583984375 -0.4022886 0.4920662
0.559546875 -0.2515882 0.5985767
0.5606953125 -0.07284128 0.6621258
0.56184375 0.1232136 0.6753607
0.5629921875 0.3227017 0.6336274
0.564140625 0.5114279 0.5340661
0.5652890625 0.6735411 0.3782595
0.5664375 0.7920491 0.1715027
0.5675859375 0.8502882 -0.07500038
0.568734375 0.8337871 -0.3451016
0.5698828125 0.7329161 -0.6170261
0.57103125 0.5425196 -0.8648961
0.5721796875 0.2671573 -1.060426
0.573328125 -0.08198909 -1.174444
0.5744765625 -0.4847727 -1.180547
0.575625 -0.9124041 -1.054894
0.5767734375 -1.329531 -0.7775773
0.577921875 -1.69218 -0.3308601
0.5790703125 -1.941471 0.3036517
0.58021875 -1.984217 1.136139
0.5813671875 -1.661613 2.168738
0.582515625 -0.6782788 3.281901
0.5836640625 1.379755 3.912621
0.5848125 4.0991 2.571554
0.5859609375 4.680427 -0.8515831
0.587109375 2.656876 -2.956914
0.5882578125 0.6257101 -3.091151
0.58940625 -0.6111412 -2.461759
0.5905546875 -1.242883 -1.687781
0.591703125 -1.493433 -0.9666951
0.5928515625 -1.502928 -0.3521553
0.594 -1.357683 0.1397144
0.5951484375 -1.113278 0.5092106
0.596296875 -0.8116671 0.7585742
0.5974453125 -0.4875636 0.8933908
0.59859375 -0.169792 0.9239218
0.5997421875 0.1174257 0.8649653
0.600890625 0.3548582 0.7338191
0.6020390625 0.5287263 0.5513417
0.6031875 0.6331574 0.3409716
0.6043359375 0.6677889 0.1233255
0.605484375 0.6383355 -0.08106399
0.6066328125 0.5555311 -0.2573535
0.60778125 0.4318328 -0.3939551
0.6089296875 0.2818533 -0.484153
0.610078125 0.120177 -0.5257754
0.6112265625 -0.03988051 -0.5198674
0.612375 -0.186731 -0.4708974
0.6135234375 -0.3101906 -0.3849531
0.614671875 -0.4022634 -0.2708527
0.6158203125 -0.4576015 -0.1373207
0.61696875 -0.4731341 0.005046422
0.6181171875 -0.4475624 0.1454985
0.619265625 -0.3828176 0.2732874
0.6204140625 -0.2832079 0.3775467
0.6215625 -0.1555373 0.4492699
0.6227109375 -0.01013696 0.4803754
0.623859375 0.1411586 0.4662956
0.6250078125 0.2843488 0.405648
0.62615625 0.4051191 0.3016875
0.6273046875 0.4904381 0.1619134
0.628453125 0.5297253 -0.002100345
0.6296015625 0.5157906 -0.175527
0.63075 0.4469315 -0.3417299
0.6318984375 0.325545 -0.4837415
0.633046875 0.1601318 -0.5863173
0.6341953125 -0.03784274 -0.6361676
0.63534375 -0.2535416 -0.6234565
0.6364921875 -0.4698004 -0.5420216
0.637640625 -0.6681388 -0.3885775
0.6387890625 -0.8271051 -0.1624964
0.6399375 -0.9235246 0.1348901
0.6410859375 -0.9288921 0.4959981
0.642234375 -0.8019611 0.9108856
0.6433828125 -0.4840775 1.352961
0.64453125 0.1201853 1.752895
0.6456796875 1.142104 1.905632
0.646828125 2.569523 1.253227
0.6479765625 3.31225 -0.9405223
0.649125 1.571149 -2.977552
0.6502734375 -0.5727354 -2.689162
0.651421875 -1.489616 -1.567859
0.6525703125 -1.635312 -0.5978788
0.65371875 -1.444157 0.08618335
0.6548671875 -1.117721 0.5272163
0.656015625 -0.7492022 0.7776076
0.6571640625 -0.387624 0.8788916
0.6583125 -0.06279091 0.8643463
0.6594609375 0.2060155 0.7637313
0.660609375 0.4085787 0.6045832
0.6617578125 0.5401115 0.4109195
0.66290625 0.602322 0.2051463
0.6640546875 0.6006338 0.005999666
0.665203125 0.5444685 -0.1714597
0.6663515625 0.4453652 -0.3162385
0.6675 0.3151781 -0.4204768
0.6686484375 0.1672827 -0.4802491
0.669796875 0.01411988 -0.4946394
0.6709453125 -0.1324469 -0.4656687
0.67209375 -0.2617056 -0.397624
0.6732421875 -0.3644429 -0.2970603
0.674390625 -0.4330932 -0.1722338
0.6755390625 -0.4627229 -0.03421491
0.6766875 -0.4510338 0.1065568
0.6778359375 -0.3983299 0.2378777
0.678984375 -0.3091138 0.3484561
0.6801328125 -0.1902353 0.4281556
0.68128125 -0.05192926 0.4690894
0.6824296875 0.09397963 0.4665509
0.683578125 0.2329962 0.4206938
0.6847265625 0.3534564 0.3342986
0.685875 0.4434362 0.2147914
0.6870234375 0.4943746 0.07237118
0.688171875 0.5012416 -0.08024319
0.6893203125 0.462704 -0.2303942
0.69046875 0.3810126 -0.3650023
0.6916171875 0.26242 -0.4721952
0.692765625 0.1145513 -0.5432542
0.6939140625 -0.05195695 -0.5701077
0.6950625 -0.2239188 -0.548963
0.6962109375 -0.3901913 -0.4779408
0.697359375 -0.5365614 -0.3583772
0.6985078125 -0.6497651 -0.1944776
0.69965625 -0.7169348 0.005786689
0.7008046875 -0.7270624 0.2316861
0.701953125 -0.6686151 0.4685146
0.7031015625 -0.5351508 0.6983395
0.70425 -0.3231707 0.8988316
0.7053984375 -0.03388473 1.044795
0.706546875 0.3251402 1.107503
0.7076953125 0.7377219 1.054703
0.70884375 1.17536 0.8546086
0.7099921875 1.597633 0.4677837
0.711140625 1.935277 -0.1463654
0.7122890625 2.068677 -1.026111
0.7134375 1.777031 -2.176104
0.7145859375 0.6692515 -3.409228
0.715734375 -1.642454 -3.887653
0.7168828125 -4.123258 -2.100904
0.71803125 -4.158294 0.9909564
0.7191796875 -2.365215 2.620439
0.720328125 -0.6773404 2.769216
0.7214765625 0.4236732 2.299927
0.722625 1.047271 1.664667
0.7237734375 1.340624 1.033038
0.724921875 1.410312 0.4678148
0.7260703125 1.325986 -0.004639197
0.72721875 1.139622 -0.3784046
0.7283671875 0.8869848 -0.6507937
0.729515625 0.5999352 -0.822338
0.7306640625 0.3019352 -0.9009618
0.7318125 0.01713891 -0.8931449
0.7329609375 -0.2373875 -0.8110546
0.734109375 -0.446377 -0.6681709
0.7352578125 -0.5968153 -0.4821144
0.73640625 -0.6838194 -0.2706944
0.7375546875 -0.7049326 -0.05274192
0.738703125 -0.6636515 0.1535596
0.7398515625 -0.5682589 0.3317825
0.741 -0.430546 0.4695999
0.7421484375 -0.2648363 0.5588161
0.743296875 -0.08664728 0.594948
0.7444453125 0.08861751 0.5792271
0.74559375 0.2478316 0.5163842
0.7467421875 0.3787887 0.4139971
0.747890625 0.4738431 0.2821084
0.7490390625 0.5069528 0.12675
0.7501875 0.5165398 -0.02395079
0.7513359375 0.4845821 -0.169697
0.752484375 0.4138839 -0.3003829
0.7536328125 0.3105559 -0.4065002
0.75478125 0.1815027 -0.4800045
0.7559296875 0.03590805 -0.5154357
0.757078125 -0.1153279 -0.5087888
0.7582265625 -0.2613631 -0.459742
0.759375 -0.3901314 -0.3696536
0.7605234375 -0.4903352 -0.2440508
0.761671875 -0.552034 -0.09110032
0.7628203125 -0.5676557 0.0776511
0.76396875 -0.5328746 0.2491136
0.7651171875 -0.4475848 0.4076558
0.766265625 -0.3151751 0.5393137
0.7674140625 -0.1443939 0.6300936
0.7685625 0.05312085 0.6686385
0.7697109375 0.2621822 0.6477712
0.770859375 0.4653646 0.564037
0.7720078125 0.6455111 0.4179114
0.77315625 0.784664 0.2149182
0.7743046875 0.8665049 -0.03576503
0.775453125 0.8747143 -0.3213536
0.7766015625 0.7957094 -0.6255758
0.77775 0.6144484 -0.9274909
0.7788984375 0.3176182 -1.199632
0.780046875 -0.1099514 -1.404162
0.7811953125 -0.6826761 -1.482547
0.78234375 -1.406277 -1.336007
0.7834921875 -2.233497 -0.7848913
0.784640625 -2.921843 0.4612801
0.7857890625 -2.624774 2.527359
0.7869375 -0.285232 3.994159
0.7880859375 2.231346 2.857144
0.789234375 2.802379 0.8476717
0.7903828125 2.278464 -0.4798206
0.79153125 1.51895 -1.127913
0.7926796875 0.8123178 -1.352445
0.793828125 0.2330052 -1.325179
0.7949765625 -0.2058381 -1.150906
0.796125 -0.5110621 -0.8966098
0.7972734375 -0.6935281 -0.6080503
0.798421875 -0.7695587 -0.3185087
0.7995703125 -0.7575485 -0.05285395
0.80071875 -0.6762192 0.1723436
0.8018671875 -0.5458022 0.3466424
0.803015625 -0.3843868 0.4646909
0.8041640625 -0.2097207 0.5260978
0.8053125 -0.03677778 0.5341656
0.8064609375 0.1211291 0.4944364
0.807609375 0.2543095 0.4152834
0.8087578125 0.3541993 0.3063886
0.80990625 0.4165688 0.178138
0.8110546875 0.4386113 0.04134948
0.812203125 0.4204316 -0.09211873
0.8133515625 0.3648873 -0.2126622
0.8145 0.2776206 -0.3100086
0.8156484375 0.166201 -0.3767712
0.816796875 0.04083281 -0.4069816
0.8179453125 -0.08804926 -0.397937
0.81909375 -0.2081846 -0.3503602
0.8202421875 -0.3084974 -0.2678174
0.821390625 -0.3791703 -0.1578771
0.8225390625 -0.4134155 -0.03034297
0.8236875 -0.4065794 0.1030581
0.8248359375 -0.3585262 0.2297488
0.825984375 -0.2729608 0.3379657
0.8271328125 -0.1560575 0.4168044
0.82828125 -0.01695305 0.458036
0.8294296875 0.1330345 0.455605
0.830578125 0.2817281 0.4066508
0.8317265625 0.4160382 0.3117059
0.832875 0.5226834 0.173057
0.8340234375 0.588558 -0.003240563
0.835171875 0.6009638 -0.2086552
0.8363203125 0.5467839 -0.4301748
0.83746875 0.4130841 -0.6514782
0.8386171875 0.1868705 -0.8487847
0.839765625 -0.1442733 -0.9868685
0.8409140625 -0.5884343 -1.010959
0.8420625 -1.135238 -0.828448
0.8432109375 -1.705041 -0.2847278
0.844359375 -1.987324 0.8008441
0.8455078125 -1.270111 2.189281
0.84665625 0.5447044 2.529895
0.8478046875 1.765279 1.405693
0.848953125 1.828975 0.1839373
0.8501015625 1.389193 -0.5577866
0.85125 0.8599901 -0.8967532
0.8523984375 0.3863541 -0.9824253
0.853546875 0.007054418 -0.9153452
0.8546953125 -0.272399 -0.7597799
0.85584375 -0.4565054 -0.5591422
0.8569921875 -0.5556399 -0.3437622
0.858140625 -0.5824352 -0.1358802
0.8592890625 -0.5503451 0.05014739
0.8604375 -0.4731557 0.2036295
0.8615859375 -0.3641368 0.3185469
0.862734375 -0.2363239 0.3919801
0.8638828125 -0.1015453 0.4235741
0.86503125 0.02946502 0.4161735
0.8661796875 0.1475669 0.3740026
0.867328125 0.244626 0.3028227
0.8684765625 0.3151181 0.209885
0.869625 0.355109 0.10349
0.8707734375 0.3625045 -0.00737717
0.871921875 0.3380053 -0.1136219
0.8730703125 0.2842676 -0.2070191
0.87421875 0.206504 -0.27969
0.8753671875 0.1117787 -0.3257628
0.876515625 0.008575563 -0.3416066
0.8776640625 -0.09406739 -0.3261788
0.8788125 -0.1868145 -0.2814193
0.8799609375 -0.261475 -0.2115538
0.881109375 -0.3120515 -0.1233091
0.8822578125 -0.3343856 -0.02470159
0.88340625 -0.3267972 0.0757413
0.8845546875 -0.2906862 0.1695404
0.885703125 -0.2289085 0.248723
0.8868515625 -0.1469212 0.3072491
0.888 -0.05116719 0.3403503
0.8891484375 0.05109904 0.3452776
0.890296875 0.1520241 0.3207901
0.8914453125 0.2435815 0.2680874
0.89259375 0.3187344 0.1900884
0.8937421875 0.370475 0.09145696
0.894890625 0.3932845 -0.02142408
0.8960390625 0.3831158 -0.1405816
0.8971875 0.3376758 -0.2571374
0.8983359375 0.2571846 -0.3607278
0.899484375 0.1446673 -0.4408078
0.9006328125 0.006307407 -0.4879262
0.90178125 -0.1488769 -0.4931644
0.9029296875 -0.3088883 -0.4499076
0.904078125 -0.4591158 -0.3551888
0.9052265625 -0.5838402 -0.2099812
0.906375 -0.6664842 -0.0196327
0.9075234375 -0.6903445 0.2056641
0.908671875 -0.641791 0.4507858
0.9098203125 -0.5076596 0.6949187
0.91096875 -0.2788171 0.9122962
0.9121171875 0.0497953 1.068626
0.913265625 0.4780588 1.119554
0.9144140625 0.9903682 0.9996735
0.9155625 1.534861 0.616527
0.9167109375 1.958889 -0.1452318
0.917859375 1.911537 -1.305078
0.9190078125 0.9341549 -2.410797
0.92015625 -0.6985756 -2.499765
0.9213046875 -1.797531 -1.492706
0.922453125 -1.959862 -0.3260963
0.9236015625 -1.601743 0.4850245
0.92475 -1.085635 0.9217869
0.9258984375 -0.5786346 1.088276
0.927046875 -0.1421456 1.074196
0.9281953125 0.2031589 0.9453313
0.92934375 0.4533813 0.7460938
0.9304921875 0.6104249 0.5117117
0.931640625 0.6818161 0.2683999
0.9327890625 0.678044 0.0381845
0.9339375 0.6120536 -0.1624966
0.9350859375 0.4994278 -0.3218113
0.936234375 0.3551766 -0.4324428
0.9373828125 0.1956897 -0.4917564
0.93853125 0.03622627 -0.5013271
0.9396796875 -0.1103789 -0.4663528
0.940828125 -0.2340142 -0.3944222
0.9419765625 -0.3268127 -0.2950552
0.943125 -0.3851995 -0.1786274
0.9442734375 -0.4068712 -0.05568251
0.945421875 -0.3935687 0.06407909
0.9465703125 -0.3483421 0.1719039
0.94771875 -0.2769506 0.2601645
0.9488671875 -0.1854751 0.3236156
0.950015625 -0.08161495 0.3582926
0.9511640625 0.02617878 0.3621836
0.9523125 0.1299893 0.335572
0.9534609375 0.22139 0.281127
0.954609375 0.2935933 0.2029103
0.9557578125 0.3400929 0.1070113
0.95690625 0.3569932 0.001382356
0.9580546875 0.3423176 -0.104952
0.959203125 0.2971198 -0.203499
0.9603515625 0.2243174 -0.2848088
0.9615 0.1298773 -0.3416226
0.9626484375 0.02181692 -0.3687175
0.963796875 -0.09073775 -0.3625717
0.9649453125 -0.1979774 -0.323109
0.96609375 -0.2902548 -0.2531653
0.9672421875 -0.3593576 -0.1576361
0.968390625 -0.3984547 -0.0439037
0.9695390625 -0.4034368 0.07902212
0.9706875 -0.3722951 0.2014368
0.9718359375 -0.3050571 0.3134954
0.972984375 -0.2050927 0.4056807
0.9741328125 -0.077425 0.4684601
0.97528125 0.07051399 0.4939248
0.9764296875 0.2291489 0.4755683
0.977578125 0.3870432 0.4082107
0.9787265625 0.5306238 0.2891188
0.979875 0.6439112 0.1184631
0.9810234375 0.709936 -0.1004506
0.982171875 0.7076678 -0.3597426
0.9833203125 0.6143795 -0.6450362
0.98446875 0.4039453 -0.9312631
0.9856171875 0.0449561 -1.176631
0.986765625 -0.4919309 -1.304039
0.9879140625 -1.211406 -1.16879
0.9890625 -1.98462 -0.5190036
0.9902109375 -2.276878 0.8436303
0.991359375 -1.280384 2.239434
0.9925078125 0.3924156 2.319177
0.99365625 1.345992 1.4159
0.9948046875 1.514171 0.4882191
0.995953125 1.302314 -0.1602402
0.9971015625 0.9617479 -0.5460459
0.99825 0.6023341 -0.7359903
0.9993984375 0.2734204 -0.7863597
1.000546875 -0.003709973 -0.7402582
1.0016953125 -0.2201693 -0.6298555
