# GHZ S RI R 50.0
0.3 -1.330393 -0.07535646
0.3011484375 -1.196911 0.4114778
0.302296875 -0.9038745 0.7749591
0.3034453125 -0.5324981 0.9778491
0.30459375 -0.152122 1.026471
0.3057421875 0.1838897 0.9496516
0.306890625 0.4476681 0.7843732
0.3080390625 0.6286629 0.5669442
0.3091875 0.7266855 0.327653
0.3103359375 0.7497618 0.09044071
0.311484375 0.7081102 -0.1280325
0.3126328125 0.6145477 -0.3162426
0.31378125 0.4795451 -0.4644542
0.3149296875 0.3159181 -0.5670732
0.316078125 0.1343842 -0.6207641
0.3172265625 -0.05257896 -0.622065
0.318375 -0.2319717 -0.5712965
0.3195234375 -0.3896774 -0.4699061
0.320671875 -0.5098288 -0.3254043
0.3218203125 -0.5798232 -0.1495019
0.32296875 -0.5893336 0.03992597
0.3241171875 -0.5364004 0.2208268
0.325265625 -0.4279273 0.371009
0.3264140625 -0.2801993 0.4733495
0.3275625 -0.1129144 0.5191199
0.3287109375 0.05005299 0.5088409
0.329859375 0.1934018 0.4510442
0.3310078125 0.305178 0.3581229
0.33215625 0.3809727 0.2437295
0.3333046875 0.4184889 0.1210106
0.334453125 0.4214785 -0.0007386603
0.3356015625 0.3935264 -0.1133236
0.33675 0.3395628 -0.2116318
0.3378984375 0.2652751 -0.2904641
0.339046875 0.1750689 -0.3475108
0.3401953125 0.07381494 -0.3800457
0.34134375 -0.03210511 -0.3860906
0.3424921875 -0.1379549 -0.3646308
0.343640625 -0.2363281 -0.3151453
0.3447890625 -0.3203882 -0.2388442
0.3459375 -0.3816222 -0.1389439
0.3470859375 -0.4131342 -0.02086229
0.348234375 -0.4072439 0.1058765
0.3493828125 -0.3612049 0.2274535
0.35053125 -0.2761007 0.3320024
0.3516796875 -0.1601448 0.4038751
0.352828125 -0.0267861 0.4337194
0.3539765625 0.1090826 0.4187642
0.355125 0.2306424 0.3614781
0.3562734375 0.3257132 0.2708966
0.357421875 0.3869837 0.1586234
0.3585703125 0.4115095 0.03612397
0.35971875 0.3998837 -0.08419023
0.3608671875 0.3558652 -0.193919
0.362015625 0.2850932 -0.2859358
0.3631640625 0.1931311 -0.3547186
0.3643125 0.08646956 -0.3967895
0.3654609375 -0.02822288 -0.4094268
0.366609375 -0.1442471 -0.3914788
0.3677578125 -0.2546002 -0.3423609
0.36890625 -0.3512371 -0.262598
0.3700546875 -0.4256262 -0.154659
0.371203125 -0.4692479 -0.02372133
0.3723515625 -0.4727677 0.1225943
0.3735 -0.4300192 0.2728078
0.3746484375 -0.3373334 0.4103779
0.375796875 -0.1962147 0.5172427
0.3769453125 -0.01755621 0.5743406
0.37809375 0.1802786 0.5669534
0.3792421875 0.371068 0.4872992
0.380390625 0.5267243 0.3401726
0.3815390625 0.6221208 0.1425401
0.3826875 0.640802 -0.07936294
0.3838359375 0.5793433 -0.2944766
0.384984375 0.4461491 -0.4745327
0.3861328125 0.2602136 -0.5967925
0.38728125 0.04459802 -0.6476126
0.3884296875 -0.1725755 -0.6228482
0.389578125 -0.3675018 -0.5275309
0.3907265625 -0.5178884 -0.374606
0.391875 -0.6086837 -0.1819094
0.3930234375 -0.6307588 0.02778777
0.394171875 -0.5825878 0.2314271
0.3953203125 -0.4712327 0.4072253
0.39646875 -0.3098065 0.5355919
0.3976171875 -0.1152687 0.6041353
0.398765625 0.08927156 0.6040316
0.3999140625 0.281744 0.536727
0.4010625 0.4408181 0.408406
0.4022109375 0.5455195 0.2357703
0.403359375 0.585422 0.03844342
0.4045078125 0.5547406 -0.1581429
0.40565625 0.4586732 -0.3290928
0.4068046875 0.3127704 -0.4523273
0.407953125 0.1392222 -0.5144981
0.4091015625 -0.03823231 -0.5124671
0.41025 -0.1962364 -0.4529228
0.4113984375 -0.3179671 -0.3498892
0.412546875 -0.3941585 -0.2204959
0.4136953125 -0.4231471 -0.08315202
0.41484375 -0.409308 0.04805519
0.4159921875 -0.3597597 0.1618517
0.417140625 -0.2841803 0.250231
0.4182890625 -0.1913288 0.3104005
0.4194375 -0.09053972 0.3408508
0.4205859375 0.01044962 0.3423045
0.421734375 0.104571 0.3172471
0.4228828125 0.1864492 0.2693047
0.42403125 0.2515203 0.201808
0.4251796875 0.295081 0.1205108
0.426328125 0.3149407 0.03057184
0.4274765625 0.3087958 -0.06164481
0.428625 0.2765584 -0.1486899
0.4297734375 0.2200886 -0.2234781
0.430921875 0.1429619 -0.2787019
0.4320703125 0.05204199 -0.307973
0.43321875 -0.04393496 -0.3080257
0.4343671875 -0.1352098 -0.2779425
0.435515625 -0.211928 -0.2208594
0.4366640625 -0.2660564 -0.143506
0.4378125 -0.2926395 -0.05457383
0.4389609375 -0.2901482 0.03590893
0.440109375 -0.2609631 0.1189506
0.4412578125 -0.2096637 0.1870433
0.44240625 -0.1428615 0.2355687
0.4435546875 -0.06733105 0.2620375
0.444703125 0.01070022 0.2659221
0.4458515625 0.08450094 0.2487793
0.447 0.1496728 0.2127504
0.4481484375 0.2022444 0.1610129
0.449296875 0.238767 0.09765977
0.4504453125 0.2571871 0.02636695
0.45159375 0.2554746 -0.0472182
0.4527421875 0.2335907 -0.1188773
0.453890625 0.1921408 -0.1828941
0.4550390625 0.1329099 -0.2340943
0.4561875 0.05948912 -0.2669286
0.4573359375 -0.02265101 -0.2772714
0.458484375 -0.1065414 -0.2620327
0.4596328125 -0.183887 -0.2208867
0.46078125 -0.2460788 -0.1560182
0.4619296875 -0.2853902 -0.07338879
0.463078125 -0.2964968 0.01879699
0.4642265625 -0.2775321 0.1102955
0.465375 -0.2303058 0.1911892
0.4665234375 -0.1602438 0.2528202
0.467671875 -0.07510863 0.2892053
0.4688203125 0.01627395 0.2976114
0.46996875 0.1048825 0.2782855
0.4711171875 0.182789 0.2338608
0.472265625 0.2442412 0.1691995
0.4734140625 0.283998 0.08981103
0.4745625 0.2993471 0.002310207
0.4757109375 0.2892125 -0.08650298
0.476859375 0.2539028 -0.1698282
0.4780078125 0.195186 -0.2406632
0.47915625 0.1169493 -0.2929665
0.4803046875 0.02433581 -0.3208855
0.481453125 -0.07568546 -0.3202216
0.4826015625 -0.1736598 -0.2886136
0.48375 -0.2608549 -0.2260534
0.4848984375 -0.326214 -0.1368089
0.486046875 -0.3612124 -0.02655462
0.4871953125 -0.3584255 0.09251586
0.48834375 -0.315118 0.2074872
0.4894921875 -0.2338498 0.3040279
0.490640625 -0.1225229 0.3685206
0.4917890625 0.005643745 0.3915692
0.4929375 0.1353112 0.3695335
0.4940859375 0.2497399 0.3047314
0.495234375 0.3352493 0.2056465
0.4963828125 0.3822481 0.08437655
0.49753125 0.3865208 -0.04403657
0.4986796875 0.3489229 -0.164892
0.499828125 0.274969 -0.26581
0.5009765625 0.1747039 -0.3363183
0.502125 0.05860158 -0.3711677
0.5032734375 -0.06098277 -0.3674817
0.504421875 -0.1720714 -0.3270358
0.5055703125 -0.2642419 -0.2547556
0.50671875 -0.3289938 -0.1579626
0.5078671875 -0.3601423 -0.04645251
0.509015625 -0.3548835 0.0690605
0.5101640625 -0.3135194 0.1766587
0.5113125 -0.240058 0.2656108
0.5124609375 -0.1427351 0.3264684
0.513609375 -0.03088488 0.3526666
0.5147578125 0.08263169 0.3412768
0.51590625 0.1861323 0.2936982
0.5170546875 0.2669587 0.2160154
0.518203125 0.3171612 0.1175674
0.5193515625 0.3322498 0.01007658
0.5205 0.3120441 -0.09359836
0.5216484375 0.2609906 -0.1826705
0.522796875 0.1865577 -0.2491416
0.5239453125 0.09834593 -0.2877136
0.52509375 0.005719247 -0.2966367
0.5262421875 -0.08219683 -0.2779427
0.527390625 -0.1580309 -0.2354483
0.5285390625 -0.2163319 -0.1743228
0.5296875 -0.2533643 -0.1009517
0.5308359375 -0.2676011 -0.02201102
0.531984375 -0.2590406 0.05632694
0.5331328125 -0.2290107 0.1280297
0.53428125 -0.1805079 0.1875831
0.5354296875 -0.1172759 0.2307552
0.536578125 -0.04459018 0.2542181
0.5377265625 0.03213839 0.2557628
0.538875 0.1059767 0.2349287
0.5400234375 0.1709187 0.1931009
0.541171875 0.2211449 0.133597
0.5423203125 0.2512245 0.06131937
0.54346875 0.2582365 -0.01706084
0.5446171875 0.2410376 -0.09413018
0.545765625 0.2010215 -0.1622249
0.5469140625 0.1423052 -0.2147388
0.5480625 0.07084722 -0.2468147
0.5492109375 -0.006369232 -0.2554171
0.550359375 -0.08204165 -0.2406383
0.5515078125 -0.1489886 -0.2043997
0.55265625 -0.2018639 -0.1506799
0.5538046875 -0.2365227 -0.08439875
0.554953125 -0.2505488 -0.01153162
0.5561015625 -0.2431255 0.06202753
0.55725 -0.2151173 0.1302463
0.5583984375 -0.168945 0.1879804
0.559546875 -0.1076641 0.2308409
0.5606953125 -0.03624348 0.2547533
0.56184375 0.04008841 0.2574587
0.5629921875 0.1154722 0.2379179
0.564140625 0.1836396 0.1963978
0.5652890625 0.2380903 0.1351724
0.5664375 0.2728294 0.05875844
0.5675859375 0.2834276 -0.02707172
0.568734375 0.2668505 -0.1143546
0.5698828125 0.2230621 -0.1945085
0.57103125 0.1548235 -0.2585734
0.5721796875 0.06822426 -0.2988405
0.573328125 -0.02888598 -0.3099685
0.5744765625 -0.1259895 -0.2893451
0.575625 -0.2128239 -0.2385173
0.5767734375 -0.2801276 -0.1618572
0.577921875 -0.3201027 -0.06710712
0.5790703125 -0.3284045 0.03637525
0.58021875 -0.3043208 0.1381167
0.5813671875 -0.2492676 0.2283083
0.582515625 -0.168055 0.2981393
0.5836640625 -0.06798923 0.3404441
0.5848125 0.04199491 0.3499177
0.5859609375 0.1521941 0.3243697
0.587109375 0.2508317 0.2647949
0.5882578125 0.3274711 0.1752099
0.58940625 0.3734566 0.0631304
0.5905546875 0.3812672 -0.06165038
0.591703125 0.3473678 -0.1853283
0.5928515625 0.272241 -0.2941715
0.594 0.1623196 -0.3739239
0.5951484375 0.02863167 -0.412584
0.596296875 -0.113045 -0.4028648
0.5974453125 -0.2445823 -0.3435567
0.59859375 -0.3482341 -0.2409109
0.5997421875 -0.4093727 -0.107759
0.600890625 -0.419558 0.03811293
0.6020390625 -0.3780823 0.177004
0.6031875 -0.2918446 0.2908534
0.6043359375 -0.1737122 0.3656335
0.605484375 -0.04053347 0.3946233
0.6066328125 0.0903726 0.3770731
0.60778125 0.2039969 0.3183478
0.6089296875 0.2886621 0.2287724
0.610078125 0.3377681 0.1204687
0.6112265625 0.3491569 0.006479269
0.612375 0.3246757 -0.1013575
0.6135234375 0.2695316 -0.1929228
0.614671875 0.1911952 -0.261156
0.6158203125 0.09900504 -0.3005041
0.61696875 0.001090523 -0.3096625
0.6181171875 -0.09194481 -0.2894216
0.619265625 -0.173229 -0.2425483
0.6204140625 -0.2354477 -0.1744074
0.6215625 -0.2730123 -0.09213258
0.6227109375 -0.283567 -0.003438881
0.623859375 -0.266377 0.08282381
0.6250078125 -0.2242526 0.1582119
0.62615625 -0.1615466 0.2161427
0.6273046875 -0.08520984 0.2507185
0.628453125 -0.003797266 0.2597809
0.6296015625 0.07493852 0.2435914
0.63075 0.1426189 0.2046037
0.6318984375 0.1938816 0.1480041
0.633046875 0.2244614 0.0806067
0.6341953125 0.2329401 0.009151177
0.63534375 0.2200753 -0.05952701
0.6364921875 0.1884567 -0.1195002
0.637640625 0.141997 -0.1663351
0.6387890625 0.08539008 -0.1969414
0.6399375 0.02376029 -0.2097443
0.6410859375 -0.03754985 -0.2046218
0.642234375 -0.09386999 -0.1826887
0.6433828125 -0.1412084 -0.1462102
0.64453125 -0.1760137 -0.09840716
0.6456796875 -0.1958638 -0.04277547
0.646828125 -0.1989613 0.01585785
0.6479765625 -0.1852782 0.0730064
0.649125 -0.1555701 0.1237381
0.6502734375 -0.1123076 0.1639103
0.651421875 -0.05897192 0.1897855
0.6525703125 5.773461E-05 0.1987607
0.65371875 0.05918826 0.1896617
0.6548671875 0.1129881 0.1631884
0.656015625 0.1565211 0.1217983
0.6571640625 0.1854154 0.06913186
0.6583125 0.1971061 0.01047386
0.6594609375 0.1906344 -0.04886716
0.660609375 0.1666754 -0.1030916
0.6617578125 0.127995 -0.147341
0.66290625 0.07817036 -0.1781181
0.6640546875 0.02193873 -0.1924731
0.665203125 -0.03570304 -0.1899672
0.6663515625 -0.08988573 -0.1707798
0.6675 -0.1359982 -0.1367639
0.6686484375 -0.1704176 -0.09086286
0.669796875 -0.190024 -0.03716772
0.6709453125 -0.193325 0.02037708
0.67209375 -0.1797923 0.07683525
0.6732421875 -0.1501097 0.1274403
0.674390625 -0.1062766 0.1676463
0.6755390625 -0.05194668 0.1934275
0.6766875 0.008278289 0.2019876
0.6778359375 0.06946554 0.192053
0.678984375 0.1254342 0.1635365
0.6801328125 0.1708062 0.1187431
0.68128125 0.20059 0.06149799
0.6824296875 0.2111109 -0.002939428
0.683578125 0.2012945 -0.06789726
0.6847265625 0.1714417 -0.1270968
0.685875 0.1245492 -0.1741888
0.6870234375 0.06539597 -0.2044785
0.688171875 -0.0003967143 -0.2151182
0.6893203125 -0.06613273 -0.2049535
0.69046875 -0.1254303 -0.1753883
0.6916171875 -0.1728828 -0.1290071
0.692765625 -0.2042071 -0.07067931
0.6939140625 -0.2163917 -0.005700756
0.6950625 -0.2087068 0.06000131
0.6962109375 -0.1816423 0.1208013
0.697359375 -0.1374099 0.1706675
0.6985078125 -0.0798307 0.2054594
0.69965625 -0.01403829 0.2216739
0.7008046875 0.05414202 0.2172363
0.701953125 0.118931 0.1919279
0.7031015625 0.173556 0.1476805
0.70425 0.2125039 0.08800954
0.7053984375 0.2313459 0.01827562
0.706546875 0.2275753 -0.05483412
0.7076953125 0.200749 -0.12401
0.70884375 0.1529422 -0.1816614
0.7099921875 0.08882716 -0.221644
0.711140625 0.01473022 -0.2393382
0.7122890625 -0.06127134 -0.2324717
0.7134375 -0.131117 -0.2018082
0.7145859375 -0.1880442 -0.1502119
0.715734375 -0.2251995 -0.08400366
0.7168828125 -0.2396475 -0.009404067
0.71803125 -0.2299993 0.06544232
0.7191796875 -0.197767 0.1331824
0.720328125 -0.1463385 0.1871707
0.7214765625 -0.08113831 0.2226068
0.722625 -0.00883677 0.2359863
0.7237734375 0.06394298 0.2267845
0.724921875 0.1304301 0.1959016
0.7260703125 0.183883 0.1464093
0.72721875 0.2197871 0.08290073
0.7283671875 0.234667 0.01132634
0.729515625 0.2269306 -0.06144424
0.7306640625 0.1969468 -0.1284642
0.7318125 0.1477559 -0.1829771
0.7329609375 0.08384394 -0.2198771
0.734109375 0.01153049 -0.2348011
0.7352578125 -0.0619048 -0.2265249
0.73640625 -0.1289394 -0.1955866
0.7375546875 -0.1827467 -0.1452864
0.738703125 -0.2176605 -0.08098284
0.7398515625 -0.2307465 -0.009493452
0.741 -0.220835 0.06181414
0.7421484375 -0.1896359 0.1257959
0.743296875 -0.1407963 0.1764737
0.7444453125 -0.07966606 0.2092
0.74559375 -0.0123383 0.2215779
0.7467421875 0.05481401 0.2133187
0.747890625 0.1154902 0.185719
0.7490390625 0.1584617 0.1362971
0.7501875 0.1909875 0.08222908
0.7513359375 0.2062458 0.02169119
0.752484375 0.2030355 -0.04054448
0.7536328125 0.1817742 -0.09888908
0.75478125 0.1444554 -0.1488681
0.7559296875 0.09404224 -0.18562
0.757078125 0.03459445 -0.2060478
0.7582265625 -0.02875487 -0.2082488
0.759375 -0.09034057 -0.1913652
0.7605234375 -0.1447632 -0.1564074
0.761671875 -0.1866921 -0.1063239
0.7628203125 -0.2117438 -0.0450335
0.76396875 -0.2172432 0.02144308
0.7651171875 -0.2019223 0.08715031
0.766265625 -0.1669055 0.1455622
0.7674140625 -0.1153175 0.190999
0.7685625 -0.05201897 0.2184283
0.7697109375 0.01716264 0.2254004
0.770859375 0.08554444 0.2108576
0.7720078125 0.146473 0.176096
0.77315625 0.1944844 0.1241775
0.7743046875 0.2248161 0.05998684
0.775453125 0.2346946 -0.01108578
0.7766015625 0.2226745 -0.08249091
0.77775 0.1894952 -0.1480584
0.7788984375 0.1373388 -0.2014329
0.780046875 0.07088356 -0.237342
0.7811953125 -0.005348198 -0.2520681
0.78234375 -0.08402959 -0.2428173
0.7834921875 -0.1582975 -0.2092244
0.784640625 -0.2201038 -0.1524192
0.7857890625 -0.2625072 -0.07734291
0.7869375 -0.2797042 0.01008831
0.7880859375 -0.2676616 0.1011427
0.789234375 -0.225631 0.1859832
0.7903828125 -0.1560398 0.2544947
0.79153125 -0.06524014 0.2971079
0.7926796875 0.03709779 0.3074031
0.793828125 0.1392822 0.2817729
0.7949765625 0.2281863 0.2217903
0.796125 0.2921248 0.1336906
0.7972734375 0.3222514 0.02761723
0.798421875 0.3140767 -0.08300567
0.7995703125 0.2679494 -0.184415
0.80071875 0.1897083 -0.2635836
0.8018671875 0.089325 -0.3107086
0.803015625 -0.02047253 -0.3205677
0.8041640625 -0.1259955 -0.2924241
0.8053125 -0.214297 -0.2307988
0.8064609375 -0.275379 -0.1442394
0.807609375 -0.303314 -0.04354871
0.8087578125 -0.2954758 0.05863035
0.80990625 -0.2551826 0.1505266
0.8110546875 -0.1877779 0.2220349
0.812203125 -0.1022353 0.2663115
0.8133515625 -0.00922015 0.2793447
0.8145 0.08094317 0.2611264
0.8156484375 0.1579444 0.2156742
0.816796875 0.2143659 0.1490562
0.8179453125 0.2449639 0.06970578
0.81909375 0.2478123 -0.01285275
0.8202421875 0.2242911 -0.08956818
0.821390625 0.178526 -0.152369
0.8225390625 0.117258 -0.1954592
0.8236875 0.047714 -0.2158974
0.8248359375 -0.02199014 -0.2131941
0.825984375 -0.08486267 -0.1895933
0.8271328125 -0.1351805 -0.1489303
0.82828125 -0.1690756 -0.09700526
0.8294296875 -0.184768 -0.0393109
0.830578125 -0.1823605 0.01813396
0.8317265625 -0.1635288 0.07043954
0.832875 -0.1311055 0.1130472
0.8340234375 -0.08898943 0.1433253
0.835171875 -0.04126206 0.159414
0.8363203125 0.007853042 0.160828
0.83746875 0.05411369 0.1481671
0.8386171875 0.09374308 0.1231034
0.839765625 0.1238502 0.08810015
0.8409140625 0.1422353 0.0465088
0.8420625 0.1474002 0.002104265
0.8432109375 0.1392416 -0.04141293
0.844359375 0.1187351 -0.08011095
0.8455078125 0.0880627 -0.1105977
0.84665625 0.0499496 -0.1300653
0.8478046875 0.00835871 -0.1371494
0.848953125 -0.03298261 -0.1313563
0.8501015625 -0.06984548 -0.1134994
0.85125 -0.09920638 -0.0858065
0.8523984375 -0.1183759 -0.05100954
0.853546875 -0.1260445 -0.01294394
0.8546953125 -0.121952 0.02478552
0.85584375 -0.1070837 0.0588501
0.8569921875 -0.08333921 0.08644563
0.858140625 -0.05321755 0.1054012
0.8592890625 -0.01953279 0.1144412
0.8604375 0.01461486 0.1134861
0.8615859375 0.04656419 0.1027428
0.862734375 0.07349323 0.08373393
0.8638828125 0.09357429 0.05791771
0.86503125 0.1054015 0.02789341
0.8661796875 0.10805 -0.003954018
0.867328125 0.10141 -0.03502522
0.8684765625 0.0862857 -0.06277782
0.869625 0.06373607 -0.08492967
0.8707734375 0.03571743 -0.0993581
0.871921875 0.004839782 -0.1051047
0.8730703125 -0.02638186 -0.101297
0.87421875 -0.05491443 -0.08855256
0.8753671875 -0.07859985 -0.06784367
0.876515625 -0.09480239 -0.04117887
0.8776640625 -0.1020853 -0.01100065
0.8788125 -0.100014 0.01973027
0.8799609375 -0.08900557 0.04817244
0.881109375 -0.07011597 0.07185015
0.8822578125 -0.04532063 0.08865788
0.88340625 -0.01703328 0.09728005
0.8845546875 0.01209948 0.09723347
0.885703125 0.03963657 0.0887858
0.8868515625 0.06339851 0.07285875
0.888 0.0813693 0.05108335
0.8891484375 0.09218155 0.02523471
0.890296875 0.09536827 -0.002450045
0.8914453125 0.09050391 -0.02988251
0.89259375 0.07826892 -0.05466882
0.8937421875 0.05927299 -0.07517205
0.894890625 0.03517013 -0.08946911
0.8960390625 0.007837044 -0.0964276
0.8971875 -0.02084851 -0.09532841
0.8983359375 -0.04818913 -0.08584412
0.899484375 -0.07201647 -0.06859279
0.9006328125 -0.08999949 -0.04468214
0.90178125 -0.1003173 -0.01622282
0.9029296875 -0.1016872 0.01459228
0.904078125 -0.09375831 0.04485708
0.9052265625 -0.07666042 0.07173143
0.906375 -0.05203376 0.09244277
0.9075234375 -0.02187532 0.1048101
0.908671875 0.01087934 0.1075529
0.9098203125 0.04332452 0.1001365
0.91096875 0.07230932 0.08283832
0.9121171875 0.09478463 0.05753199
0.913265625 0.1087 0.02637454
0.9144140625 0.1125039 -0.007913612
0.9155625 0.1057769 -0.04203631
0.9167109375 0.08896704 -0.07284564
0.917859375 0.06315904 -0.09730435
0.9190078125 0.0308472 -0.1131053
0.92015625 -0.005204908 -0.1185319
0.9213046875 -0.04176357 -0.1126525
0.922453125 -0.07530449 -0.09561736
0.9236015625 -0.1023267 -0.06848311
0.92475 -0.1200962 -0.03373875
0.9258984375 -0.1261112 0.005385987
0.927046875 -0.1195731 0.04514886
0.9281953125 -0.1005199 0.08147218
0.92934375 -0.07035141 0.110179
0.9304921875 -0.03201707 0.1278484
0.931640625 0.01033671 0.1323679
0.9327890625 0.05230115 0.122842
0.9339375 0.08926386 0.1001069
0.9350859375 0.1166997 0.06651776
0.936234375 0.1318582 0.02597627
0.9373828125 0.1331849 -0.0173619
0.93853125 0.1204564 -0.05852992
0.9396796875 0.09534028 -0.09328569
0.940828125 0.06084486 -0.1180726
0.9419765625 0.02056116 -0.1305237
0.943125 -0.02114699 -0.1297328
0.9442734375 -0.0602544 -0.1160784
0.945421875 -0.09294195 -0.09124143
0.9465703125 -0.1160324 -0.05773478
0.94771875 -0.1276824 -0.01890179
0.9488671875 -0.1270202 0.02130765
0.950015625 -0.1139098 0.05924007
0.9511640625 -0.08995894 0.09137424
0.9523125 -0.05737923 0.1146093
0.9534609375 -0.01915562 0.1267215
0.954609375 0.02091692 0.1265078
0.9557578125 0.05908567 0.1138253
0.95690625 0.09150919 0.08987612
0.9580546875 0.1149116 0.05694652
0.959203125 0.1269993 0.01852943
0.9603515625 0.1264062 -0.02192406
0.9615 0.1131597 -0.06002644
0.9626484375 0.08872572 -0.0920987
0.963796875 0.05557445 -0.1148039
0.9649453125 0.0172451 -0.1261605
0.96609375 -0.02258374 -0.1250428
0.9672421875 -0.05985733 -0.1117261
0.968390625 -0.09102698 -0.08767696
0.9695390625 -0.1133752 -0.05546163
0.9706875 -0.1248217 -0.01810861
0.9718359375 -0.1244527 0.02084883
0.972984375 -0.1122749 0.05781359
0.9741328125 -0.08963421 0.08950929
0.97528125 -0.05831918 0.1129799
0.9764296875 -0.02132555 0.1261277
0.977578125 0.01830153 0.1275415
0.9787265625 0.05692049 0.1169705
0.979875 0.09101652 0.09470404
0.9810234375 0.1171594 0.06274672
0.982171875 0.1325073 0.02369962
0.9833203125 0.135017 -0.01900729
0.98446875 0.1239714 -0.06113398
