# GHZ S RI R 50.0
0.3 -2.163348 -7.080704
0.3011484375 -7.99518 -5.105076
0.302296875 -9.369929 2.938305
0.3034453125 -3.656159 6.777469
0.30459375 0.4081804 5.606868
0.3057421875 2.07508 3.694071
0.306890625 2.584025 2.113512
0.3080390625 2.567001 0.9360321
0.3091875 2.30788 0.08261914
0.3103359375 1.933496 -0.5195431
0.311484375 1.510785 -0.9319042
0.3126328125 1.073517 -1.189672
0.31378125 0.643115 -1.322625
0.3149296875 0.2336688 -1.349964
0.316078125 -0.1429755 -1.283891
0.3172265625 -0.4749491 -1.135388
0.318375 -0.7498956 -0.9148983
0.3195234375 -0.9519201 -0.6370805
0.320671875 -1.066349 -0.3175402
0.3218203125 -1.082548 0.01758009
0.32296875 -0.9974449 0.3383128
0.3241171875 -0.8191636 0.611323
0.325265625 -0.5694436 0.8076931
0.3264140625 -0.2816434 0.9091234
0.3275625 0.01093299 0.9130208
0.3287109375 0.2735842 0.8294707
0.329859375 0.4853351 0.6794577
0.3310078125 0.6335493 0.4867319
0.33215625 0.7152301 0.274151
0.3333046875 0.7350494 0.06082796
0.334453125 0.6997945 -0.1390615
0.3356015625 0.6186934 -0.3152764
0.33675 0.5008178 -0.460515
0.3378984375 0.3546705 -0.5697975
0.339046875 0.1883466 -0.6394332
0.3401953125 0.01004289 -0.6671776
0.34134375 -0.1715302 -0.6497916
0.3424921875 -0.3470325 -0.5864649
0.343640625 -0.5051123 -0.4768325
0.3447890625 -0.6338184 -0.3237961
0.3459375 -0.7200891 -0.1323849
0.3470859375 -0.749859 0.08641414
0.348234375 -0.7117241 0.3164484
0.3493828125 -0.6006892 0.5333449
0.35053125 -0.4185121 0.712708
0.3516796875 -0.1816839 0.8278989
0.352828125 0.08778138 0.8620976
0.3539765625 0.3588651 0.8072262
0.355125 0.6010666 0.6679359
0.3562734375 0.7901408 0.4597932
0.357421875 0.9100511 0.2020159
0.3585703125 0.9502572 -0.0803438
0.35971875 0.9096637 -0.3682008
0.3608671875 0.7904808 -0.6416309
0.362015625 0.5962676 -0.8834991
0.3631640625 0.3319708 -1.078472
0.3643125 0.001501772 -1.210557
0.3654609375 -0.3885516 -1.260057
0.366609375 -0.8308055 -1.201034
0.3677578125 -1.315119 -0.9961634
0.36890625 -1.813062 -0.5922095
0.3700546875 -2.262829 0.09485732
0.371203125 -2.512289 1.170903
0.3723515625 -2.184349 2.728191
0.3735 -0.4845183 4.418358
0.3746484375 2.971724 4.334343
0.375796875 5.021806 0.9917896
0.3769453125 3.742563 -1.970498
0.37809375 1.704872 -2.876212
0.3792421875 0.1795807 -2.671334
0.380390625 -0.7563226 -2.058899
0.3815390625 -1.240302 -1.352893
0.3826875 -1.400582 -0.6918728
0.3838359375 -1.341735 -0.1385863
0.384984375 -1.144604 0.2814526
0.3861328125 -0.874518 0.5675598
0.38728125 -0.5779492 0.7310044
0.3884296875 -0.2878022 0.7914229
0.389578125 -0.02571141 0.7685615
0.3907265625 0.1951002 0.6820829
0.391875 0.3676194 0.5504913
0.3930234375 0.4868435 0.3893135
0.394171875 0.5543706 0.2123287
0.3953203125 0.5697395 0.03187302
0.39646875 0.5359411 -0.1403577
0.3976171875 0.4565838 -0.2936864
0.398765625 0.3371385 -0.4171124
0.3999140625 0.1858723 -0.5008498
0.4010625 0.01348449 -0.5356212
0.4022109375 -0.1646528 -0.5145994
0.403359375 -0.3318189 -0.4354306
0.4045078125 -0.4678721 -0.3021235
0.40565625 -0.5541961 -0.1252256
0.4068046875 -0.575851 0.07635169
0.407953125 -0.5251915 0.2791633
0.4091015625 -0.4053217 0.4571117
0.41025 -0.2273797 0.5860592
0.4113984375 -0.01055174 0.649962
0.412546875 0.2222036 0.6384774
0.4136953125 0.4479856 0.5495502
0.41484375 0.6434185 0.3866567
0.4159921875 0.789681 0.1563689
0.417140625 0.8661562 -0.1312304
0.4182890625 0.8506576 -0.4655949
0.4194375 0.7175938 -0.8273056
0.4205859375 0.4281444 -1.190721
0.421734375 -0.06884536 -1.50092
0.4228828125 -0.8385367 -1.631371
0.42403125 -1.88595 -1.30131
0.4251796875 -2.840861 -0.03667453
0.426328125 -2.49195 2.049961
0.4274765625 -0.4898719 3.069031
0.428625 1.208961 2.360772
0.4297734375 1.851322 1.188899
0.430921875 1.836434 0.2123732
0.4320703125 1.517575 -0.4663806
0.43321875 1.076261 -0.8809971
0.4343671875 0.6073564 -1.079058
0.435515625 0.1713413 -1.102554
0.4366640625 -0.1976253 -0.9958122
0.4378125 -0.4768257 -0.7987764
0.4389609375 -0.6578388 -0.5512127
0.440109375 -0.7421243 -0.2884446
0.4412578125 -0.7419137 -0.03724471
0.44240625 -0.6728287 0.18199
0.4435546875 -0.5532064 0.3568838
0.444703125 -0.400377 0.4805515
0.4458515625 -0.2303495 0.5521532
0.447 -0.05728202 0.573076
0.4481484375 0.107294 0.5477378
0.449296875 0.2535939 0.4816942
0.4504453125 0.3739437 0.38163
0.45159375 0.4618959 0.2553793
0.4527421875 0.5121667 0.1110293
0.453890625 0.5212613 -0.04155947
0.4550390625 0.4875719 -0.1917002
0.4561875 0.4122035 -0.3281058
0.4573359375 0.2988797 -0.4390405
0.458484375 0.1554281 -0.5128059
0.4596328125 -0.006463533 -0.5410696
0.46078125 -0.1721538 -0.5184599
0.4619296875 -0.3249417 -0.4448038
0.463078125 -0.4484168 -0.3265618
0.4642265625 -0.5292675 -0.1748824
0.465375 -0.5593339 -0.005959365
0.4665234375 -0.5367697 0.1635493
0.467671875 -0.4644553 0.3176107
0.4688203125 -0.3508339 0.4423175
0.46996875 -0.2074493 0.5281972
0.4711171875 -0.04613743 0.5702165
0.472265625 0.1204998 0.565977
0.4734140625 0.2810507 0.5159772
0.4745625 0.423595 0.4246638
0.4757109375 0.5403987 0.2956682
0.476859375 0.620989 0.1364926
0.4780078125 0.6588556 -0.04538521
0.47915625 0.6466898 -0.2399838
0.4803046875 0.5800546 -0.4346353
0.481453125 0.4557174 -0.6159759
0.4826015625 0.2745406 -0.7674322
0.48375 0.04034046 -0.8707118
0.4848984375 -0.2366894 -0.9069369
0.486046875 -0.5394781 -0.8583161
0.4871953125 -0.8432741 -0.7091272
0.48834375 -1.11745 -0.4507944
0.4894921875 -1.323162 -0.08313473
0.490640625 -1.418834 0.3835477
0.4917890625 -1.359748 0.9246547
0.4929375 -1.098136 1.502983
0.4940859375 -0.5857005 2.058583
0.495234375 0.2404265 2.497167
0.4963828125 1.445248 2.637288
0.49753125 3.020833 2.115371
0.4986796875 4.522832 0.2806923
0.499828125 4.292263 -2.962348
0.5009765625 1.237725 -4.943069
0.502125 -1.65597 -3.958348
0.5032734375 -2.739529 -2.093443
0.504421875 -2.7352 -0.5993087
0.5055703125 -2.300606 0.3948563
0.50671875 -1.727275 1.002232
0.5078671875 -1.136181 1.32765
0.509015625 -0.5798241 1.4453
0.5101640625 -0.08719373 1.406726
0.5113125 0.3243409 1.249949
0.5124609375 0.6425738 1.007909
0.513609375 0.859809 0.7102364
0.5147578125 0.9734504 0.386312
0.51590625 0.9859326 0.06477554
0.5170546875 0.9069615 -0.2292271
0.518203125 0.7529135 -0.4702217
0.5193515625 0.5452015 -0.6446229
0.5205 0.3082834 -0.7433804
0.5216484375 0.06609202 -0.7654558
0.522796875 -0.1592974 -0.7178512
0.5239453125 -0.3504984 -0.6117342
0.52509375 -0.4957369 -0.4627834
0.5262421875 -0.5880799 -0.2872035
0.527390625 -0.6258491 -0.1006408
0.5285390625 -0.6114212 0.08204626
0.5296875 -0.5487589 0.2484414
0.5308359375 -0.4462009 0.3879823
0.531984375 -0.3122352 0.4927485
0.5331328125 -0.1566125 0.5564945
0.53428125 0.009632988 0.5757069
0.5354296875 0.1755035 0.5483751
0.536578125 0.3284945 0.4761666
0.5377265625 0.4573997 0.3620171
0.538875 0.5504623 0.2138764
0.5400234375 0.5979689 0.04170436
0.541171875 0.5936561 -0.1417762
0.5423203125 0.533625 -0.3208482
0.54346875 0.4197482 -0.4788496
0.5446171875 0.2590435 -0.5987989
0.545765625 0.06380376 -0.6668823
0.5469140625 -0.150078 -0.6728981
0.5480625 -0.3630922 -0.6113946
0.5492109375 -0.5538528 -0.485035
0.550359375 -0.7048435 -0.2992297
0.5515078125 -0.797506 -0.06755605
0.55265625 -0.8190992 0.196019
0.5538046875 -0.7589031 0.4724685
0.554953125 -0.610211 0.7381364
0.5561015625 -0.3665218 0.9711096
0.55725 -0.02969088 1.140904
0.5583984375 0.4015872 1.210066
0.559546875 0.9151873 1.126406
0.5606953125 1.480692 0.8136507
0.56184375 2.006329 0.1577445
0.5629921875 2.244633 -0.9598982
0.564140625 1.643643 -2.439206
0.5652890625 -0.2755087 -3.276674
0.5664375 -2.271795 -2.220697
0.5675859375 -2.687076 -0.3547769
0.568734375 -2.029567 0.8892722
0.5698828125 -1.154692 1.409412
0.57103125 -0.3921286 1.475273
0.5721796875 0.1788923 1.292704
0.573328125 0.5613368 0.98735
0.5744765625 0.7760155 0.6358072
0.575625 0.8494387 0.2891203
0.5767734375 0.8114209 -0.01852504
0.577921875 0.6918828 -0.2665862
0.5790703125 0.5193212 -0.4445193
0.58021875 0.3198967 -0.5493517
0.5813671875 0.1158889 -0.5849566
0.582515625 -0.07483246 -0.5587147
0.5836640625 -0.2380346 -0.4818682
0.5848125 -0.3642599 -0.3662021
0.5859609375 -0.446832 -0.2249026
0.587109375 -0.4830715 -0.07072098
0.5882578125 -0.4726657 0.08341724
0.58940625 -0.4183901 0.2257436
0.5905546875 -0.3249327 0.3447652
0.591703125 -0.2002309 0.4309631
0.5928515625 -0.05411176 0.4766213
0.594 0.1019394 0.4761457
0.5951484375 0.2527497 0.4272325
0.596296875 0.3850546 0.331755
0.5974453125 0.4844057 0.1962551
0.59859375 0.5385891 0.03106551
0.5997421875 0.5386387 -0.1497217
0.600890625 0.4797361 -0.3271743
0.6020390625 0.3636842 -0.484264
0.6031875 0.1973755 -0.6029137
0.6043359375 -0.00709294 -0.6673713
0.605484375 -0.2337648 -0.6660542
0.6066328125 -0.4631372 -0.591903
0.60778125 -0.6743456 -0.4420734
0.6089296875 -0.8457643 -0.2183816
0.610078125 -0.9529947 0.07398822
0.6112265625 -0.9708024 0.424375
0.612375 -0.8697244 0.8155882
0.6135234375 -0.6120145 1.220681
0.614671875 -0.1502984 1.589841
0.6158203125 0.5750794 1.822178
0.61696875 1.59717 1.706309
0.6181171875 2.755049 0.837589
0.619265625 3.223989 -1.106952
0.6204140625 1.825549 -3.058839
0.6215625 -0.4188208 -3.179084
0.6227109375 -1.723095 -2.045862
0.623859375 -2.044685 -0.8410978
0.6250078125 -1.8566 0.0617881
0.62615625 -1.452166 0.6511437
0.6273046875 -0.980333 0.9842166
0.628453125 -0.516133 1.117148
0.6296015625 -0.1018915 1.099494
0.63075 0.2370904 0.9725981
0.6318984375 0.4896418 0.7733713
0.633046875 0.6523749 0.5346103
0.6341953125 0.7288017 0.2840925
0.63534375 0.7289377 0.04469343
0.6364921875 0.6649541 -0.1662567
0.637640625 0.5522312 -0.3373303
0.6387890625 0.4063115 -0.4608203
0.6399375 0.2418599 -0.5343856
0.6410859375 0.07278854 -0.55801
0.642234375 -0.08894652 -0.535172
0.6433828125 -0.2324144 -0.4713907
0.64453125 -0.3489006 -0.3741282
0.6456796875 -0.4320456 -0.2517718
0.646828125 -0.4771539 -0.1138904
0.6479765625 -0.4823041 0.02867913
0.649125 -0.4476258 0.1653638
0.6502734375 -0.376544 0.286089
0.651421875 -0.2742445 0.3807518
0.6525703125 -0.149121 0.4420199
0.65371875 -0.01270881 0.4640883
0.6548671875 0.1244141 0.4455428
0.656015625 0.2497703 0.3878012
0.6571640625 0.3526113 0.2961504
0.6583125 0.4235332 0.1785768
0.6594609375 0.456993 0.0456173
0.660609375 0.450351 -0.09074169
0.6617578125 0.404721 -0.2190161
0.66290625 0.3241491 -0.3286371
0.6640546875 0.2157131 -0.4106655
0.665203125 0.08830044 -0.4589972
0.6663515625 -0.04857282 -0.4694795
0.6675 -0.1842941 -0.4411812
0.6686484375 -0.3084273 -0.3755812
0.669796875 -0.4112954 -0.2761505
0.6709453125 -0.4846736 -0.1493372
0.67209375 -0.5210364 -0.002970543
0.6732421875 -0.5147253 0.1526273
0.674390625 -0.4635942 0.3061846
0.6755390625 -0.3670471 0.445127
0.6766875 -0.2287303 0.5553868
0.6778359375 -0.05609507 0.625181
0.678984375 0.1399767 0.643245
0.6801328125 0.3437863 0.600654
0.68128125 0.5381129 0.4935829
0.6824296875 0.7016416 0.3246565
0.683578125 0.8154573 0.09924735
0.6847265625 0.8606777 -0.1682679
0.685875 0.8214772 -0.4595068
0.6870234375 0.6866502 -0.7502264
0.688171875 0.4488676 -1.011832
0.6893203125 0.1075793 -1.211843
0.69046875 -0.3305065 -1.311305
0.6916171875 -0.8542164 -1.263595
0.692765625 -1.429432 -1.005523
0.6939140625 -1.98904 -0.4529175
0.6950625 -2.370245 0.4923439
0.6962109375 -2.219867 1.85221
0.697359375 -0.9979813 3.207418
0.6985078125 1.205037 3.366585
0.69965625 2.798418 1.841999
0.7008046875 2.875649 0.02322706
0.701953125 2.125949 -1.117169
0.7031015625 1.228844 -1.602389
0.70425 0.4468698 -1.666262
0.7053984375 -0.1594313 -1.491744
0.706546875 -0.5865375 -1.188336
0.7076953125 -0.8513476 -0.8268609
0.70884375 -0.97389 -0.454411
0.7099921875 -0.9764509 -0.1053938
0.711140625 -0.8839412 0.1953527
0.7122890625 -0.7202223 0.4310952
0.7134375 -0.5119822 0.5927621
0.7145859375 -0.2831449 0.678133
0.715734375 -0.05603161 0.6907527
0.7168828125 0.1506208 0.6385697
0.71803125 0.322474 0.5347444
0.7191796875 0.4492683 0.3929871
0.720328125 0.52565 0.2287933
0.7214765625 0.5502476 0.05709332
0.722625 0.5252926 -0.1081706
0.7237734375 0.4560163 -0.2549415
0.724921875 0.3502531 -0.3726481
0.7260703125 0.2175842 -0.4534989
0.72721875 0.06915262 -0.4921154
0.7283671875 -0.0832825 -0.4861954
0.729515625 -0.2271666 -0.4361776
0.7306640625 -0.3507161 -0.3454868
0.7318125 -0.442738 -0.2211669
0.7329609375 -0.4942581 -0.07311339
0.734109375 -0.4989259 0.08677683
0.7352578125 -0.4537101 0.243783
0.73640625 -0.3603188 0.3831479
0.7375546875 -0.2245734 0.4900199
0.738703125 -0.05707433 0.5517674
0.7398515625 0.128107 0.5589767
0.741 0.3143153 0.5065053
0.7421484375 0.4833028 0.3937109
0.743296875 0.6165906 0.2251722
0.7444453125 0.6967109 0.009966454
0.74559375 0.7081051 -0.2381328
0.7467421875 0.6359586 -0.5015715
0.747890625 0.4685907 -0.7573347
0.7490390625 0.1859234 -0.9381594
0.7501875 -0.190718 -1.072642
0.7513359375 -0.6829225 -1.069782
0.752484375 -1.270686 -0.8291184
0.7536328125 -1.845368 -0.1839745
0.75478125 -2.03257 1.023474
0.7559296875 -1.094741 2.398098
0.757078125 0.7963354 2.509928
0.7582265625 1.890917 1.271308
0.759375 1.86787 0.05497546
0.7605234375 1.386556 -0.6684885
0.761671875 0.8288535 -0.9963014
0.7628203125 0.3280964 -1.067642
0.76396875 -0.07573876 -0.9797456
0.7651171875 -0.3740124 -0.7954763
0.766265625 -0.567571 -0.5603641
0.7674140625 -0.6646637 -0.3073471
0.7685625 -0.6760066 -0.06371707
0.7697109375 -0.6169686 0.1515071
0.770859375 -0.5038996 0.3237548
0.7720078125 -0.3545716 0.4445
0.77315625 -0.1863787 0.5102987
0.7743046875 -0.01578565 0.5223745
0.775453125 0.142944 0.4848549
0.7766015625 0.2784213 0.4053066
0.77775 0.3808904 0.2937216
0.7788984375 0.4452192 0.1605958
0.780046875 0.4678369 0.01708085
0.7811953125 0.4480874 -0.1251096
0.78234375 0.3887825 -0.2547799
0.7834921875 0.2940245 -0.3619214
0.784640625 0.1717909 -0.4374152
0.7857890625 0.03117026 -0.4744926
0.7869375 -0.116386 -0.4688213
0.7880859375 -0.2587739 -0.4188397
0.789234375 -0.3829431 -0.3270176
0.7903828125 -0.4764804 -0.1988487
0.79153125 -0.5292695 -0.04419588
0.7926796875 -0.5332662 0.1246019
0.793828125 -0.4848462 0.2922323
0.7949765625 -0.3849495 0.4430329
0.796125 -0.2387773 0.5619892
0.7972734375 -0.05630348 0.6349635
0.798421875 0.1490073 0.6517679
0.7995703125 0.3611468 0.6049456
0.80071875 0.56221 0.4917934
0.8018671875 0.733157 0.3134958
0.803015625 0.8552028 0.07454942
0.8041640625 0.9072077 -0.2150281
0.8053125 0.8703516 -0.5416239
0.8064609375 0.7200571 -0.885124
0.807609375 0.4316848 -1.215879
0.8087578125 -0.02366446 -1.484619
0.80990625 -0.6746875 -1.607944
0.8110546875 -1.524121 -1.429031
0.812203125 -2.442183 -0.6835063
0.8133515625 -2.898479 0.8814604
0.8145 -1.924788 2.717564
0.8156484375 0.1978025 3.174682
0.816796875 1.684745 2.139854
0.8179453125 2.077843 0.8597631
0.81909375 1.864633 -0.09467639
0.8202421875 1.419362 -0.6851578
0.821390625 0.9235418 -0.9912468
0.8225390625 0.4581622 -1.091791
0.8236875 0.06058547 -1.047523
0.8248359375 -0.253238 -0.906033
0.825984375 -0.4776396 -0.7051588
0.8271328125 -0.6153413 -0.4759268
0.82828125 -0.6735898 -0.2428066
0.8294296875 -0.6630339 -0.02506022
0.830578125 -0.5971199 0.1634302
0.8317265625 -0.489168 0.3132716
0.832875 -0.3538263 0.4187868
0.8340234375 -0.2043687 0.4784039
0.835171875 -0.05317676 0.4933796
0.8363203125 0.08916019 0.4673672
0.83746875 0.2129988 0.4055664
0.8386171875 0.3112698 0.3152861
0.839765625 0.378116 0.204841
0.8409140625 0.4107437 0.08347806
0.8420625 0.4075092 -0.03943971
0.8432109375 0.3706725 -0.1541522
0.844359375 0.3035572 -0.2519179
0.8455078125 0.2122707 -0.3251624
0.84665625 0.1050643 -0.3679581
0.8478046875 -0.008809667 -0.3778459
0.848953125 -0.1192992 -0.3539886
0.8501015625 -0.2168581 -0.2993238
0.85125 -0.2931071 -0.2192204
0.8523984375 -0.3419768 -0.1212095
0.853546875 -0.3596941 -0.0143366
0.8546953125 -0.3456666 0.09213005
0.85584375 -0.3016697 0.1890563
0.8569921875 -0.2322297 0.2686965
0.858140625 -0.1432971 0.3247241
0.8592890625 -0.04221237 0.3533232
0.8604375 0.06307372 0.3522435
0.8615859375 0.1642667 0.3212436
0.862734375 0.2540214 0.2627589
0.8638828125 0.3245289 0.1802094
0.86503125 0.3703854 0.07902361
0.8661796875 0.3865053 -0.03385673
0.867328125 0.3696648 -0.1501122
0.8684765625 0.3186904 -0.2608743
0.869625 0.2347517 -0.3566277
0.8707734375 0.1218633 -0.4274364
0.871921875 -0.01362453 -0.464663
0.8730703125 -0.1622089 -0.4603259
0.87421875 -0.3120208 -0.4092898
0.8753671875 -0.4493885 -0.309633
0.876515625 -0.5580809 -0.1630474
0.8776640625 -0.6225166 0.02380805
0.8788125 -0.6283255 0.2404115
0.8799609375 -0.5608566 0.4702779
0.881109375 -0.4096988 0.692494
0.8822578125 -0.1656533 0.8794062
0.88340625 0.1759348 0.994072
0.8845546875 0.6104857 0.9836673
0.885703125 1.11132 0.769031
0.8868515625 1.582719 0.2382218
0.888 1.760298 -0.6939988
0.8891484375 1.182991 -1.782295
0.890296875 -0.1691553 -2.163848
0.8914453125 -1.275646 -1.475187
0.89259375 -1.565205 -0.4908741
0.8937421875 -1.342229 0.2354895
0.894890625 -0.9460462 0.6447594
0.8960390625 -0.5383919 0.818994
0.8971875 -0.1802043 0.8350075
0.8983359375 0.1074783 0.7490369
0.899484375 0.3191243 0.5999641
0.9006328125 0.4554026 0.4173563
0.90178125 0.5208441 0.2240527
0.9029296875 0.5234071 0.03821736
0.904078125 0.4731201 -0.124928
0.9052265625 0.3819481 -0.2542481
0.906375 0.2637861 -0.3431744
0.9075234375 0.1323476 -0.3880959
0.908671875 0.001087074 -0.3903113
0.9098203125 -0.1179788 -0.354011
0.91096875 -0.215254 -0.2863595
0.9121171875 -0.2841809 -0.1962309
0.913265625 -0.3209905 -0.09358609
0.9144140625 -0.3247991 0.01169773
0.9155625 -0.29782 0.1103401
0.9167109375 -0.2436097 0.1941456
0.917859375 -0.1686152 0.2569095
0.9190078125 -0.07939912 0.2939556
0.92015625 0.01608438 0.3027025
0.9213046875 0.1098299 0.2826988
0.922453125 0.1937856 0.2353943
0.9236015625 0.2603248 0.1645648
0.92475 0.3035192 0.0755297
0.9258984375 0.3179667 -0.02462394
0.927046875 0.3010379 -0.1271786
0.9281953125 0.2518477 -0.2226404
0.92934375 0.1729798 -0.3012102
0.9304921875 0.06957824 -0.3537033
0.931640625 -0.05040936 -0.3720949
0.9327890625 -0.1762405 -0.3513126
0.9339375 -0.2957081 -0.2886502
0.9350859375 -0.3951017 -0.1855839
0.936234375 -0.4612025 -0.04757452
0.9373828125 -0.4820901 0.1157149
0.93853125 -0.4472097 0.291528
0.9396796875 -0.3492163 0.4620829
0.940828125 -0.1848591 0.6072294
0.9419765625 0.04537765 0.7012833
0.943125 0.3327497 0.7129607
0.9442734375 0.655491 0.6051282
0.945421875 0.9665268 0.3338166
0.9465703125 1.172045 -0.1356764
0.94771875 1.110563 -0.7736782
0.9488671875 0.6109047 -1.379466
0.950015625 -0.2625529 -1.558796
0.9511640625 -1.046403 -1.119532
0.9523125 -1.343821 -0.3750755
0.9534609375 -1.202199 0.2723948
0.954609375 -0.8461459 0.6726674
0.9557578125 -0.4451086 0.8426147
0.95690625 -0.08276217 0.8450224
0.9580546875 0.205762 0.7360959
0.959203125 0.4096135 0.5616757
0.9603515625 0.5294639 0.3564397
0.9615 0.5719103 0.1474483
0.9626484375 0.5485476 -0.04529895
0.963796875 0.4729373 -0.2067627
0.9649453125 0.3602032 -0.3273586
0.96609375 0.2259671 -0.4023698
0.9672421875 0.08437983 -0.4311769
0.968390625 -0.05130043 -0.4172808
0.9695390625 -0.1699394 -0.3664709
0.9706875 -0.2643156 -0.2867145
0.9718359375 -0.3284673 -0.1871424
0.972984375 -0.3597333 -0.0773504
0.9741328125 -0.3580529 0.0333224
0.97528125 -0.3256092 0.1361877
0.9764296875 -0.2662723 0.223803
0.977578125 -0.185629 0.2898938
0.9787265625 -0.09038349 0.3295848
0.979875 0.01166221 0.3404361
0.9810234375 0.1124735 0.3215479
0.982171875 0.2039283 0.2742289
0.9833203125 0.2784007 0.2018886
0.98446875 0.3288879 0.1100837
0.9856171875 0.3507986 0.006269993
0.986765625 0.3405587 -0.100855
0.9879140625 0.2989327 -0.2020182
0.9890625 0.2277373 -0.2878675
0.9902109375 0.1324459 -0.3498376
0.991359375 0.02062454 -0.3816404
0.9925078125 -0.09802646 -0.3787533
0.99365625 -0.2136137 -0.3400315
0.9948046875 -0.3152434 -0.2668372
0.995953125 -0.3934492 -0.1639956
0.9971015625 -0.439809 -0.0388104
0.99825 -0.4478806 0.09985289
0.9993984375 -0.4144859 0.2411969
1.000546875 -0.3379875 0.3734767
