# GHZ S RI R 50.0
0.3 -2.121161 -7.109433
0.3011484375 -8.002707 -5.191139
0.302296875 -9.465858 2.923813
0.3034453125 -3.683313 6.831079
0.30459375 0.4138518 5.638516
0.3057421875 2.09274 3.705431
0.306890625 2.595038 2.11665
0.3080390625 2.57642 0.9333637
0.3091875 2.312627 0.08209136
0.3103359375 1.936615 -0.5223252
0.311484375 1.51218 -0.9337718
0.3126328125 1.074191 -1.192346
0.31378125 0.6427377 -1.326043
0.3149296875 0.2334445 -1.351664
0.316078125 -0.1437285 -1.285082
0.3172265625 -0.4768553 -1.136217
0.318375 -0.7505794 -0.9165825
0.3195234375 -0.952241 -0.6379495
0.320671875 -1.067281 -0.3184125
0.3218203125 -1.083655 0.01731956
0.32296875 -0.9985529 0.3378357
0.3241171875 -0.8203192 0.6109596
0.325265625 -0.570732 0.8078758
0.3264140625 -0.2819708 0.9099467
0.3275625 0.01038981 0.9137795
0.3287109375 0.2737968 0.8305739
0.329859375 0.4856274 0.6804324
0.3310078125 0.63437 0.4876474
0.33215625 0.7165334 0.2741413
0.3333046875 0.7357841 0.0603688
0.334453125 0.7005321 -0.1391254
0.3356015625 0.6195553 -0.315521
0.33675 0.501066 -0.4613584
0.3378984375 0.3546706 -0.5706162
0.339046875 0.1883064 -0.6401764
0.3401953125 0.009882498 -0.667569
0.34134375 -0.1711146 -0.6505398
0.3424921875 -0.3468167 -0.5873533
0.343640625 -0.5053101 -0.4779913
0.3447890625 -0.634479 -0.3244489
0.3459375 -0.7209511 -0.1324263
0.3470859375 -0.7506787 0.08612546
0.348234375 -0.7127541 0.316081
0.3493828125 -0.6012782 0.5337184
0.35053125 -0.4199787 0.712496
0.3516796875 -0.1819443 0.8290515
0.352828125 0.0870804 0.8627918
0.3539765625 0.3588907 0.8081852
0.355125 0.6012995 0.6691645
0.3562734375 0.7903039 0.4612319
0.357421875 0.9100229 0.203966
0.3585703125 0.951061 -0.07921982
0.35971875 0.9109011 -0.3677544
0.3608671875 0.7922745 -0.6404828
0.362015625 0.5981215 -0.8832781
0.3631640625 0.3348558 -1.078568
0.3643125 0.0058484 -1.211575
0.3654609375 -0.3838602 -1.262317
0.366609375 -0.8273229 -1.205066
0.3677578125 -1.311785 -1.002975
0.36890625 -1.812099 -0.6020489
0.3700546875 -2.266773 0.07988251
0.371203125 -2.526749 1.158866
0.3723515625 -2.219898 2.720273
0.3735 -0.5332217 4.448493
0.3746484375 2.97339 4.420834
0.375796875 5.099957 1.017667
0.3769453125 3.789484 -2.008
0.37809375 1.712866 -2.912588
0.3792421875 0.1711735 -2.694233
0.380390625 -0.769076 -2.071384
0.3815390625 -1.251946 -1.357889
0.3826875 -1.410725 -0.6917574
0.3838359375 -1.348801 -0.1370122
0.384984375 -1.150247 0.2841037
0.3861328125 -0.8781164 0.5708405
0.38728125 -0.5799927 0.7349522
0.3884296875 -0.2883593 0.7949615
0.389578125 -0.02542379 0.7721891
0.3907265625 0.1960527 0.6851543
0.391875 0.3686165 0.5529531
0.3930234375 0.4890711 0.3909652
0.394171875 0.5567336 0.2131734
0.3953203125 0.5720974 0.0325624
0.39646875 0.5383372 -0.1404239
0.3976171875 0.4586405 -0.2945322
0.398765625 0.3394583 -0.4182368
0.3999140625 0.1877693 -0.5024207
0.4010625 0.01513852 -0.5376216
0.4022109375 -0.1639007 -0.517194
0.403359375 -0.3315723 -0.438305
0.4045078125 -0.4684632 -0.3050427
0.40565625 -0.5556133 -0.1275601
0.4068046875 -0.5777768 0.07398876
0.407953125 -0.5280648 0.2772961
0.4091015625 -0.4086958 0.4555649
0.41025 -0.2312045 0.5860986
0.4113984375 -0.01472147 0.6507447
0.412546875 0.2182598 0.6409379
0.4136953125 0.4441604 0.5534322
0.41484375 0.6415471 0.3916502
0.4159921875 0.7888507 0.1631063
0.417140625 0.8676304 -0.1233306
0.4182890625 0.8555226 -0.4559738
0.4194375 0.7263619 -0.8182584
0.4205859375 0.442452 -1.184213
0.421734375 -0.04628939 -1.50033
0.4228828125 -0.8090896 -1.646884
0.42403125 -1.862582 -1.345418
0.4251796875 -2.866663 -0.1070897
0.426328125 -2.581478 2.030725
0.4274765625 -0.5433806 3.131176
0.428625 1.220076 2.417193
0.4297734375 1.881181 1.210795
0.430921875 1.861271 0.214791
0.4320703125 1.534214 -0.4712235
0.43321875 1.086229 -0.8888955
0.4343671875 0.6125683 -1.08713
0.435515625 0.1728617 -1.110206
0.4366640625 -0.1984205 -1.001189
0.4378125 -0.4789797 -0.8031925
0.4389609375 -0.6601319 -0.5546647
0.440109375 -0.7450407 -0.2900555
0.4412578125 -0.7449084 -0.03785669
0.44240625 -0.6754544 0.182842
0.4435546875 -0.555047 0.3578461
0.444703125 -0.4019434 0.4815878
0.4458515625 -0.231628 0.5533457
0.447 -0.05813679 0.5744509
0.4481484375 0.1073018 0.5487877
0.449296875 0.2537629 0.4830797
0.4504453125 0.3744509 0.3828424
0.45159375 0.46255 0.2562056
0.4527421875 0.5128769 0.1118498
0.453890625 0.522204 -0.04100909
0.4550390625 0.4886752 -0.1914338
0.4561875 0.4131694 -0.3280197
0.4573359375 0.3000337 -0.4389554
0.458484375 0.1562815 -0.5132797
0.4596328125 -0.005785982 -0.5419276
0.46078125 -0.1716654 -0.5194002
0.4619296875 -0.3245443 -0.445755
0.463078125 -0.4483278 -0.3275477
0.4642265625 -0.5293135 -0.1759311
0.465375 -0.5598961 -0.006790895
0.4665234375 -0.5374313 0.1628586
0.467671875 -0.4652613 0.3168875
0.4688203125 -0.351988 0.4419629
0.46996875 -0.2084952 0.5283419
0.4711171875 -0.04702773 0.5704167
0.472265625 0.119812 0.5664832
0.4734140625 0.2800421 0.5173579
0.4745625 0.4235085 0.4257225
0.4757109375 0.5399581 0.2968752
0.476859375 0.6214311 0.1371043
0.4780078125 0.6591828 -0.04420312
0.47915625 0.6476114 -0.2386304
0.4803046875 0.581239 -0.4339118
0.481453125 0.4575113 -0.6153734
0.4826015625 0.2760477 -0.7670661
0.48375 0.04219837 -0.8708801
0.4848984375 -0.2346215 -0.9079052
0.486046875 -0.5372943 -0.8598121
0.4871953125 -0.8416939 -0.7116303
0.48834375 -1.116205 -0.4541384
0.4894921875 -1.322856 -0.08697087
0.490640625 -1.420275 0.3798334
0.4917890625 -1.362962 0.9195133
0.4929375 -1.105004 1.497776
0.4940859375 -0.5953652 2.055088
0.495234375 0.2276371 2.497565
0.4963828125 1.427913 2.648521
0.49753125 3.009872 2.138924
0.4986796875 4.537809 0.3244152
0.499828125 4.349259 -2.947172
0.5009765625 1.274365 -4.987535
0.502125 -1.665724 -3.99668
0.5032734375 -2.761187 -2.107004
0.504421875 -2.752087 -0.6004216
0.5055703125 -2.311427 0.3996572
0.50671875 -1.733293 1.008262
0.5078671875 -1.138992 1.333696
0.509015625 -0.5801271 1.451148
0.5101640625 -0.08630508 1.410246
0.5113125 0.3261974 1.253282
0.5124609375 0.6447671 1.010167
0.513609375 0.8623066 0.711561
0.5147578125 0.9755801 0.3869113
0.51590625 0.9879885 0.06446806
0.5170546875 0.9088116 -0.2296198
0.518203125 0.7545002 -0.471332
0.5193515625 0.5465696 -0.6459174
0.5205 0.3089485 -0.7446122
0.5216484375 0.06631727 -0.7667884
0.522796875 -0.1598347 -0.7189326
0.5239453125 -0.3513665 -0.6126482
0.52509375 -0.4963179 -0.4637281
0.5262421875 -0.5889665 -0.2878044
0.527390625 -0.6267771 -0.1010828
0.5285390625 -0.6122118 0.08182953
0.5296875 -0.5498112 0.2487873
0.5308359375 -0.4471321 0.388749
0.531984375 -0.3134061 0.4933375
0.5331328125 -0.1574807 0.5575318
0.53428125 0.00912056 0.5765496
0.5354296875 0.1750323 0.5494459
0.536578125 0.3284292 0.4771541
0.5377265625 0.457229 0.3635417
0.538875 0.5507227 0.2153499
0.5400234375 0.5986822 0.04282459
0.541171875 0.5946442 -0.1409839
0.5423203125 0.5350779 -0.3206251
0.54346875 0.4214611 -0.4788958
0.5446171875 0.2604305 -0.5995735
0.545765625 0.06539854 -0.6677489
0.5469140625 -0.1487433 -0.6742276
0.5480625 -0.3616283 -0.6135146
0.5492109375 -0.5533993 -0.4874418
0.550359375 -0.7045124 -0.3022888
0.5515078125 -0.7980645 -0.07022449
0.55265625 -0.8205323 0.1928423
0.5538046875 -0.7617522 0.4687694
0.554953125 -0.6140176 0.7357
0.5561015625 -0.3729947 0.9697033
0.55725 -0.03684966 1.141317
0.5583984375 0.3930957 1.213659
0.559546875 0.9069344 1.135366
0.5606953125 1.474653 0.8283217
0.56184375 2.008449 0.1841106
0.5629921875 2.26857 -0.9303084
0.564140625 1.699922 -2.432364
0.5652890625 -0.2270109 -3.333666
0.5664375 -2.294367 -2.28749
0.5675859375 -2.7375 -0.3719209
0.568734375 -2.063853 0.9021427
0.5698828125 -1.170684 1.429512
0.57103125 -0.3969948 1.492999
0.5721796875 0.181549 1.306354
0.573328125 0.5670588 0.9965754
0.5744765625 0.782993 0.6412492
0.575625 0.8561401 0.2918309
0.5767734375 0.8175887 -0.01833037
0.577921875 0.6969517 -0.2680969
0.5790703125 0.5227563 -0.4469761
0.58021875 0.3225573 -0.5522776
0.5813671875 0.1175027 -0.5879807
0.582515625 -0.07417537 -0.5619633
0.5836640625 -0.238271 -0.4847114
0.5848125 -0.3650038 -0.3688771
0.5859609375 -0.4481276 -0.227048
0.587109375 -0.4848703 -0.07245288
0.5882578125 -0.4750096 0.08219661
0.58940625 -0.4206698 0.2250805
0.5905546875 -0.3273989 0.3449617
0.591703125 -0.2024582 0.4317404
0.5928515625 -0.05607663 0.4779228
0.594 0.09991364 0.4779149
0.5951484375 0.2516056 0.4293894
0.596296875 0.3844928 0.3341888
0.5974453125 0.4846275 0.1985759
0.59859375 0.5391005 0.0333405
0.5997421875 0.5397177 -0.1468133
0.600890625 0.4816801 -0.3251668
0.6020390625 0.3664244 -0.4828274
0.6031875 0.2002203 -0.6022768
0.6043359375 -0.003659338 -0.6674975
0.605484375 -0.2300567 -0.667468
0.6066328125 -0.4596523 -0.5944461
0.60778125 -0.6713043 -0.4459693
0.6089296875 -0.8435144 -0.2233011
0.610078125 -0.9523578 0.06750415
0.6112265625 -0.9729576 0.4163633
0.612375 -0.8748757 0.8072887
0.6135234375 -0.6221058 1.213212
0.614671875 -0.166319 1.585949
0.6158203125 0.5522785 1.827074
0.61696875 1.572417 1.728753
0.6181171875 2.748758 0.8875363
0.619265625 3.27066 -1.057042
0.6204140625 1.897289 -3.076895
0.6215625 -0.4030216 -3.233411
0.6227109375 -1.739774 -2.080184
0.623859375 -2.06741 -0.8542067
0.6250078125 -1.874084 0.06159308
0.62615625 -1.463998 0.6557418
0.6273046875 -0.9867829 0.9909638
0.628453125 -0.5192785 1.124278
0.6296015625 -0.1029106 1.105515
0.63075 0.2381457 0.9771667
0.6318984375 0.4915901 0.7767126
0.633046875 0.65479 0.5366204
0.6341953125 0.7311965 0.2855365
0.63534375 0.731001 0.04524973
0.6364921875 0.6668168 -0.1663739
0.637640625 0.553754 -0.3380903
0.6387890625 0.4073766 -0.4614677
0.6399375 0.2427699 -0.5351068
0.6410859375 0.07315218 -0.5589111
0.642234375 -0.08872187 -0.5360513
0.6433828125 -0.2322878 -0.472349
0.64453125 -0.3493191 -0.3750477
0.6456796875 -0.4327377 -0.2524489
0.646828125 -0.4779266 -0.1146298
0.6479765625 -0.4833194 0.02829919
0.649125 -0.4484619 0.1658106
0.6502734375 -0.3772518 0.2860576
0.651421875 -0.2749646 0.3810256
0.6525703125 -0.1501835 0.4421532
0.65371875 -0.01328729 0.4647337
0.6548671875 0.124088 0.4462171
0.656015625 0.249695 0.388548
0.6571640625 0.3526385 0.2967777
0.6583125 0.4238135 0.1791951
0.6594609375 0.4574948 0.04615496
0.660609375 0.4510264 -0.09020719
0.6617578125 0.4054044 -0.2186961
0.66290625 0.3249876 -0.3285913
0.6640546875 0.216277 -0.4109068
0.665203125 0.08884943 -0.459417
0.6663515625 -0.04809153 -0.4699952
0.6675 -0.1838184 -0.4420913
0.6686484375 -0.3083755 -0.3765508
0.669796875 -0.4113589 -0.2768416
0.6709453125 -0.4852253 -0.1499371
0.67209375 -0.5215077 -0.003840129
0.6732421875 -0.5155626 0.1519565
0.674390625 -0.4646297 0.305773
0.6755390625 -0.3678743 0.4450563
0.6766875 -0.2298842 0.5556082
0.6778359375 -0.05715574 0.6258059
0.678984375 0.1388109 0.6438843
0.6801328125 0.3428913 0.6018115
0.68128125 0.5369485 0.4955245
0.6824296875 0.7013645 0.3262993
0.683578125 0.815552 0.1013631
0.6847265625 0.8615172 -0.1661705
0.685875 0.8230804 -0.4575081
0.6870234375 0.6890004 -0.7482057
0.688171875 0.4523314 -1.010596
0.6893203125 0.1125121 -1.211697
0.69046875 -0.3253849 -1.312794
0.6916171875 -0.8482175 -1.268356
0.692765625 -1.424937 -1.01405
0.6939140625 -1.987598 -0.4659478
0.6950625 -2.37785 0.4763723
0.6962109375 -2.243145 1.838994
0.697359375 -1.036729 3.21838
0.6985078125 1.190747 3.404402
0.69965625 2.81973 1.872487
0.7008046875 2.902872 0.02650177
0.701953125 2.143003 -1.127025
0.7031015625 1.23737 -1.61267
0.70425 0.4481186 -1.676556
0.7053984375 -0.161365 -1.499271
0.706546875 -0.5903721 -1.193631
0.7076953125 -0.8554203 -0.829634
0.70884375 -0.9780634 -0.455381
0.7099921875 -0.9802784 -0.1054734
0.711140625 -0.8864074 0.1964424
0.7122890625 -0.7220591 0.4334815
0.7134375 -0.5134014 0.5947987
0.7145859375 -0.2838987 0.6801476
0.715734375 -0.05561254 0.6923938
0.7168828125 0.1510034 0.6403167
0.71803125 0.3230666 0.5361382
0.7191796875 0.4502007 0.3941753
0.720328125 0.5267442 0.2296582
0.7214765625 0.5514171 0.05752998
0.722625 0.5266722 -0.1080112
0.7237734375 0.457464 -0.2551156
0.724921875 0.3515241 -0.3730702
0.7260703125 0.2186676 -0.4541788
0.72721875 0.07000686 -0.4931376
0.7283671875 -0.08282954 -0.4875341
0.729515625 -0.2274972 -0.4373218
0.7306640625 -0.3508339 -0.3469905
0.7318125 -0.4434251 -0.2225503
0.7329609375 -0.4951619 -0.0742043
0.734109375 -0.5001828 0.08572167
0.7352578125 -0.4551249 0.2430361
0.73640625 -0.3618409 0.3826042
0.7375546875 -0.2263719 0.4899867
0.738703125 -0.05891283 0.5522891
0.7398515625 0.126558 0.5602688
0.741 0.3127964 0.5083567
0.7421484375 0.4819685 0.3961455
0.743296875 0.6161381 0.2281563
0.7444453125 0.6972635 0.01345386
0.74559375 0.7097315 -0.2345503
0.7467421875 0.6394475 -0.4979462
0.747890625 0.4739514 -0.754505
0.7490390625 0.1933064 -0.936731
0.7501875 -0.1812707 -1.07439
0.7513359375 -0.6717448 -1.077398
0.752484375 -1.260636 -0.8452204
0.7536328125 -1.845417 -0.2125779
0.75478125 -2.061943 0.9926162
0.7559296875 -1.151501 2.405867
0.757078125 0.7772614 2.562927
0.7582265625 1.915843 1.305722
0.759375 1.895832 0.06131998
0.7605234375 1.404398 -0.6751198
0.761671875 0.8382441 -1.00547
0.7628203125 0.3317771 -1.076659
0.76396875 -0.0757462 -0.9870421
0.7651171875 -0.3754281 -0.8011869
0.766265625 -0.5704796 -0.563905
0.7674140625 -0.667729 -0.3100294
0.7685625 -0.6793792 -0.06485893
0.7697109375 -0.6199205 0.1511412
0.770859375 -0.5065326 0.3240901
0.7720078125 -0.356686 0.4454376
0.77315625 -0.1878817 0.5117865
0.7743046875 -0.01679923 0.5239188
0.775453125 0.1423588 0.4864859
0.7766015625 0.278007 0.4070649
0.77775 0.3814117 0.2954384
0.7788984375 0.445837 0.1617921
0.780046875 0.4687747 0.01813891
0.7811953125 0.44931 -0.1243036
0.78234375 0.3900571 -0.2545444
0.7834921875 0.295416 -0.3617831
0.784640625 0.1730411 -0.4377065
0.7857890625 0.03232813 -0.4751723
0.7869375 -0.1154434 -0.4698497
0.7880859375 -0.2581244 -0.4199762
0.789234375 -0.38252 -0.3282499
0.7903828125 -0.4763516 -0.20031
0.79153125 -0.5294794 -0.04553907
0.7926796875 -0.5339028 0.1231736
0.793828125 -0.4859316 0.2910826
0.7949765625 -0.3863852 0.4424184
0.796125 -0.2403361 0.5613344
0.7972734375 -0.05834059 0.6349564
0.798421875 0.1469745 0.6521567
0.7995703125 0.3592671 0.6060952
0.80071875 0.5606429 0.4935023
0.8018671875 0.7322882 0.3155836
0.803015625 0.8545036 0.07757344
0.8041640625 0.9080687 -0.2115041
0.8053125 0.8716415 -0.5379743
0.8064609375 0.7235913 -0.8814566
0.807609375 0.4368654 -1.212783
0.8087578125 -0.01554401 -1.483595
0.80990625 -0.6651308 -1.610364
0.8110546875 -1.512641 -1.440562
0.812203125 -2.439593 -0.7063485
0.8133515625 -2.916962 0.8577091
0.8145 -1.961974 2.720415
0.8156484375 0.1815341 3.204786
0.816796875 1.693039 2.162551
0.8179453125 2.092002 0.8671407
0.81909375 1.874831 -0.09462591
0.8202421875 1.425662 -0.6882546
0.821390625 0.9272773 -0.9955803
0.8225390625 0.4599284 -1.095711
0.8236875 0.06062419 -1.050892
0.8248359375 -0.2536516 -0.9087061
0.825984375 -0.478912 -0.7068986
0.8271328125 -0.6166766 -0.4767358
0.82828125 -0.6749309 -0.2432577
0.8294296875 -0.6643768 -0.02534945
0.830578125 -0.5979088 0.1635275
0.8317265625 -0.4899879 0.3134055
0.832875 -0.3544264 0.4193323
0.8340234375 -0.2049076 0.4788468
0.835171875 -0.05332899 0.4939333
0.8363203125 0.08898806 0.46789
0.83746875 0.2132412 0.406071
0.8386171875 0.3114046 0.3157373
0.839765625 0.3783642 0.2052418
0.8409140625 0.4109779 0.08372843
0.8420625 0.4080153 -0.03916407
0.8432109375 0.3711497 -0.1541217
0.844359375 0.3039687 -0.2518545
0.8455078125 0.2127019 -0.3252307
0.84665625 0.1054863 -0.3683896
0.8478046875 -0.00866718 -0.3782611
0.848953125 -0.11914 -0.3543167
0.8501015625 -0.2167445 -0.2997591
0.85125 -0.2931845 -0.2195106
0.8523984375 -0.3420785 -0.1214851
0.853546875 -0.3599462 -0.01448928
0.8546953125 -0.3459085 0.09200644
0.85584375 -0.3020227 0.1889053
0.8569921875 -0.232691 0.2687286
0.858140625 -0.1437956 0.3249568
0.8592890625 -0.04248053 0.353628
0.8604375 0.06266411 0.3526017
0.8615859375 0.1641422 0.3218015
0.862734375 0.2537259 0.2633182
0.8638828125 0.324628 0.1806462
0.86503125 0.3704705 0.07951029
0.8661796875 0.3866874 -0.03331719
0.867328125 0.3699315 -0.1496697
0.8684765625 0.3191442 -0.2605588
0.869625 0.2354388 -0.356391
0.8707734375 0.1225839 -0.4274857
0.871921875 -0.01277471 -0.4648229
0.8730703125 -0.161456 -0.4607332
0.87421875 -0.3115682 -0.4100105
0.8753671875 -0.4485956 -0.3107644
0.876515625 -0.557774 -0.1646173
0.8776640625 -0.6230268 0.02225566
0.8788125 -0.6290369 0.2387407
0.8799609375 -0.5627267 0.4686588
0.881109375 -0.4122961 0.6913701
0.8822578125 -0.169214 0.8792784
0.88340625 0.1711891 0.9959164
0.8845546875 0.6056322 0.9879332
0.885703125 1.107275 0.7773179
0.8868515625 1.583786 0.2514631
0.888 1.775561 -0.6806044
0.8891484375 1.207534 -1.784375
0.890296875 -0.1574685 -2.186806
0.8914453125 -1.28481 -1.494736
0.89259375 -1.579541 -0.4966951
0.8937421875 -1.351806 0.2371736
0.894890625 -0.9519253 0.6501318
0.8960390625 -0.5408049 0.8237371
0.8971875 -0.180595 0.8393723
0.8983359375 0.1083811 0.7524875
0.899484375 0.320748 0.6023613
0.9006328125 0.4570847 0.4189382
0.90178125 0.5228979 0.224654
0.9029296875 0.5251189 0.03843508
0.904078125 0.4745805 -0.1251048
0.9052265625 0.3832419 -0.2549437
0.906375 0.2648174 -0.3439993
0.9075234375 0.1330016 -0.3891786
0.908671875 0.001328155 -0.3915263
0.9098203125 -0.1179797 -0.3550794
0.91096875 -0.215461 -0.2872135
0.9121171875 -0.2846819 -0.1969625
0.913265625 -0.3218996 -0.09410136
0.9144140625 -0.3258847 0.01136856
0.9155625 -0.2987197 0.1100731
0.9167109375 -0.2445168 0.1941794
0.917859375 -0.169328 0.2572915
0.9190078125 -0.08013269 0.2944152
0.92015625 0.01556625 0.3035371
0.9213046875 0.1095335 0.2836572
0.922453125 0.1936888 0.2364421
0.9236015625 0.2606815 0.1655692
0.92475 0.3039503 0.07630665
0.9258984375 0.3186907 -0.02399834
0.927046875 0.3018449 -0.1265702
0.9281953125 0.2529298 -0.2224109
0.92934375 0.1742557 -0.301251
0.9304921875 0.07073834 -0.3539381
0.931640625 -0.04939155 -0.3727621
0.9327890625 -0.1754427 -0.3522238
0.9339375 -0.295125 -0.2899493
0.9350859375 -0.394989 -0.1872127
0.936234375 -0.4614668 -0.04933059
0.9373828125 -0.4829595 0.113873
0.93853125 -0.4487448 0.2898115
0.9396796875 -0.3516252 0.4608301
0.940828125 -0.1878736 0.6066877
0.9419765625 0.04168411 0.7018541
0.943125 0.3288402 0.7154838
0.9442734375 0.6519504 0.6097358
0.945421875 0.9651839 0.3410697
0.9465703125 1.175102 -0.1262368
0.94771875 1.121156 -0.7661966
0.9488671875 0.62621 -1.380636
0.950015625 -0.2521088 -1.571531
0.9511640625 -1.048133 -1.134581
0.9523125 -1.353885 -0.383449
0.9534609375 -1.211641 0.2713399
0.954609375 -0.8533036 0.6757725
0.9557578125 -0.4487623 0.8475046
0.95690625 -0.08382844 0.8491549
0.9580546875 0.2061034 0.7397043
0.959203125 0.4109121 0.5643308
0.9603515625 0.5309581 0.3582416
0.9615 0.5738621 0.1484685
0.9626484375 0.5502213 -0.04479722
0.963796875 0.4744527 -0.2067619
0.9649453125 0.361351 -0.3276247
0.96609375 0.2268153 -0.4030326
0.9672421875 0.08502105 -0.4320838
0.968390625 -0.05104432 -0.4181329
0.9695390625 -0.1702343 -0.3673584
0.9706875 -0.2646112 -0.2875189
0.9718359375 -0.3287768 -0.1876651
0.972984375 -0.3603791 -0.07788989
0.9741328125 -0.3586791 0.03301913
0.97528125 -0.3262557 0.1360566
0.9764296875 -0.2668952 0.2239329
0.977578125 -0.1862727 0.2901328
0.9787265625 -0.09095089 0.3300695
0.979875 0.0114219 0.3409946
0.9810234375 0.112389 0.32217
0.982171875 0.2039475 0.2747456
0.9833203125 0.2784546 0.2024343
0.98446875 0.3290464 0.1106376
0.9856171875 0.3510653 0.00679123
0.986765625 0.341215 -0.1006073
0.9879140625 0.2993979 -0.2018758
0.9890625 0.2284803 -0.2879491
0.9902109375 0.1329913 -0.3501486
0.991359375 0.02122543 -0.3819792
0.9925078125 -0.09774183 -0.3793104
0.99365625 -0.213281 -0.3405443
0.9948046875 -0.3151856 -0.2673338
0.995953125 -0.3935708 -0.164674
0.9971015625 -0.4398427 -0.03938681
0.99825 -0.4484236 0.09925586
0.9993984375 -0.4150625 0.2407736
1.000546875 -0.3386269 0.3730213
1.0016953125 -0.2209468 0.484237
