# GHZ S RI R 50.0
0.3 0.05168154 1.689252
0.3011484375 0.5333366 1.413304
0.302296875 0.8580382 1.05135
0.3034453125 1.033235 0.661446
0.30459375 1.078689 0.2883654
0.3057421875 1.023483 -0.04249573
0.306890625 0.894803 -0.3150087
0.3080390625 0.7157208 -0.5238929
0.3091875 0.5061312 -0.6677409
0.3103359375 0.2806819 -0.748901
0.311484375 0.05437792 -0.7694143
0.3126328125 -0.1641143 -0.7337064
0.31378125 -0.3635112 -0.6450468
0.3149296875 -0.5336123 -0.5077614
0.316078125 -0.6640075 -0.3268052
0.3172265625 -0.7418516 -0.1117986
0.318375 -0.7570416 0.1275387
0.3195234375 -0.6975557 0.3729072
0.320671875 -0.5570313 0.6017262
0.3218203125 -0.3365464 0.7850587
0.32296875 -0.0497282 0.8917128
0.3241171875 0.276774 0.8948438
0.325265625 0.6044091 0.77784
0.3264140625 0.887422 0.542213
0.3275625 1.086453 0.202592
0.3287109375 1.167688 -0.2096397
0.329859375 1.10864 -0.6648487
0.3310078125 0.8919087 -1.12893
0.33215625 0.493066 -1.573837
0.3333046875 -0.1444778 -1.963934
0.334453125 -1.137566 -2.216185
0.3356015625 -2.768394 -2.027595
0.33675 -5.260696 0.05041849
0.3378984375 -3.387026 6.32785
0.339046875 2.834734 4.392778
0.3401953125 3.186001 1.214859
0.34134375 2.46529 -0.2278374
0.3424921875 1.733672 -0.9051976
0.343640625 1.088239 -1.222807
0.3447890625 0.5274466 -1.32335
0.3459375 0.04660846 -1.276233
0.3470859375 -0.3506577 -1.11562
0.348234375 -0.6542408 -0.8680805
0.3493828125 -0.8517852 -0.5628904
0.35053125 -0.9371417 -0.2311838
0.3516796875 -0.9111691 0.09045956
0.352828125 -0.788222 0.3695738
0.3539765625 -0.5920303 0.5790305
0.355125 -0.3543227 0.7046047
0.3562734375 -0.1056528 0.7444428
0.357421875 0.1260804 0.7080142
0.3585703125 0.3235742 0.6104217
0.35971875 0.4741754 0.4682806
0.3608671875 0.573832 0.2986127
0.362015625 0.6205842 0.1173903
0.3631640625 0.6178548 -0.06276801
0.3643125 0.5695831 -0.2319666
0.3654609375 0.4812427 -0.3812139
0.366609375 0.3580235 -0.5028036
0.3677578125 0.2066145 -0.5904645
0.36890625 0.03409534 -0.6377111
0.3700546875 -0.1507047 -0.6387272
0.371203125 -0.3372602 -0.5886866
0.3723515625 -0.5115227 -0.4851187
0.3735 -0.6588426 -0.3279135
0.3746484375 -0.7608268 -0.1232098
0.375796875 -0.8001202 0.1167814
0.3769453125 -0.7617834 0.3742333
0.37809375 -0.638594 0.6201073
0.3792421875 -0.4341001 0.8256404
0.380390625 -0.1619171 0.9628735
0.3815390625 0.1529387 1.009386
0.3826875 0.4798132 0.9542223
0.3838359375 0.7841652 0.7974942
0.384984375 1.040296 0.5488773
0.3861328125 1.224169 0.2237019
0.38728125 1.318626 -0.1607536
0.3884296875 1.308092 -0.5865721
0.389578125 1.178235 -1.036289
0.3907265625 0.9091401 -1.492339
0.391875 0.4718031 -1.930932
0.3930234375 -0.1830349 -2.314471
0.394171875 -1.135437 -2.56359
0.3953203125 -2.506495 -2.491601
0.39646875 -4.421329 -1.573148
0.3976171875 -6.291878 1.541168
0.398765625 -3.984149 7.065283
0.3999140625 2.613105 6.807
0.4010625 4.670521 2.825519
0.4022109375 4.138118 0.2158447
0.403359375 3.087521 -1.161596
0.4045078125 2.029068 -1.829869
0.40565625 1.080955 -2.062083
0.4068046875 0.2817257 -2.005113
0.407953125 -0.3439429 -1.751173
0.4091015625 -0.7915247 -1.377744
0.41025 -1.065016 -0.9486549
0.4113984375 -1.179587 -0.516765
0.412546875 -1.163671 -0.1216817
0.4136953125 -1.048891 0.2107744
0.41484375 -0.8653745 0.4684475
0.4159921875 -0.6431777 0.6451195
0.417140625 -0.4047836 0.7465149
0.4182890625 -0.1692561 0.779065
0.4194375 0.04999581 0.7522613
0.4205859375 0.2427241 0.6755773
0.421734375 0.4012937 0.5595254
0.4228828125 0.5206128 0.4135751
0.42403125 0.5970739 0.2475816
0.4251796875 0.6278744 0.07135855
0.426328125 0.6121829 -0.104128
0.4274765625 0.5511016 -0.2686513
0.428625 0.4478579 -0.4105509
0.4297734375 0.308493 -0.5186608
0.430921875 0.1428902 -0.5828122
0.4320703125 -0.0352393 -0.5960953
0.43321875 -0.2101878 -0.5553645
0.4343671875 -0.3644386 -0.4633529
0.435515625 -0.4828244 -0.3291679
0.4366640625 -0.5536053 -0.1667052
0.4378125 -0.5703576 0.006781434
0.4389609375 -0.5345377 0.1741633
0.440109375 -0.4526959 0.3190103
0.4412578125 -0.3350895 0.4310326
0.44240625 -0.1940309 0.5029652
0.4435546875 -0.04196633 0.531697
0.444703125 0.1091256 0.5180624
0.4458515625 0.2492081 0.4653204
0.447 0.3698232 0.377641
0.4481484375 0.4628386 0.2620422
0.449296875 0.5234553 0.1249435
0.4504453125 0.5467024 -0.02579629
0.45159375 0.5294247 -0.1814542
0.4527421875 0.469657 -0.3317917
0.453890625 0.3679183 -0.4663582
0.4550390625 0.2264689 -0.573434
0.4561875 0.05266907 -0.6394844
0.4573359375 -0.1440819 -0.6546209
0.458484375 -0.3492476 -0.6088739
0.4596328125 -0.541887 -0.498766
0.46078125 -0.7020957 -0.3248186
0.4619296875 -0.8079613 -0.09680177
0.463078125 -0.8398495 0.1663442
0.4642265625 -0.786464 0.4422967
0.465375 -0.6436837 0.7033543
0.4665234375 -0.4157913 0.9215819
0.467671875 -0.1149412 1.071624
0.4688203125 0.2416297 1.13237
0.46996875 0.6335577 1.085794
0.4711171875 1.036783 0.9138308
0.472265625 1.42599 0.5982472
0.4734140625 1.763857 0.1091486
0.4745625 1.991024 -0.589928
0.4757109375 1.983739 -1.563722
0.476859375 1.448273 -2.853913
0.4780078125 -0.2800678 -4.187574
0.47915625 -3.719781 -3.757071
0.4803046875 -5.307249 0.2705128
0.481453125 -3.035292 2.965915
0.4826015625 -0.7965345 3.141219
0.48375 0.5045546 2.504597
0.4848984375 1.172707 1.734596
0.486046875 1.454647 1.011108
0.4871953125 1.487536 0.3853018
0.48834375 1.351817 -0.1246568
0.4894921875 1.104849 -0.5090427
0.490640625 0.7925472 -0.7657049
0.4917890625 0.4556713 -0.8980162
0.4929375 0.1284534 -0.9179503
0.4940859375 -0.1606971 -0.8433229
0.495234375 -0.392514 -0.6971359
0.4963828125 -0.5555357 -0.5035233
0.49753125 -0.6462781 -0.2865005
0.4986796875 -0.6670721 -0.06767036
0.499828125 -0.6260071 0.1353662
0.5009765625 -0.5327938 0.3086112
0.502125 -0.3995377 0.4423551
0.5032734375 -0.2393627 0.5294091
0.504421875 -0.0649112 0.5669069
0.5055703125 0.110277 0.5537106
0.50671875 0.2737336 0.4915899
0.5078671875 0.4134095 0.384368
0.509015625 0.5173706 0.2395473
0.5101640625 0.5757316 0.06696589
0.5113125 0.580204 -0.1206515
0.5124609375 0.526157 -0.307172
0.513609375 0.4130162 -0.4752976
0.5147578125 0.2462 -0.6058885
0.51590625 0.03685305 -0.6814712
0.5170546875 -0.1973449 -0.6872492
0.518203125 -0.4346062 -0.6148982
0.5193515625 -0.6488754 -0.4628073
0.5205 -0.8151424 -0.2372163
0.5216484375 -0.9099341 0.04877944
0.522796875 -0.9130616 0.376266
0.5239453125 -0.8082387 0.7213218
0.52509375 -0.5803876 1.057132
0.5262421875 -0.2134929 1.352345
0.527390625 0.3116129 1.562602
0.5285390625 1.028422 1.614743
0.5296875 1.977718 1.358772
0.5308359375 3.140966 0.4273392
0.531984375 3.906436 -1.968941
0.5331328125 1.42855 -5.332272
0.53428125 -3.003353 -3.923195
0.5354296875 -3.547879 -0.8487102
0.536578125 -2.643044 0.7275341
0.5377265625 -1.678777 1.378345
0.538875 -0.8731979 1.574467
0.5400234375 -0.2323554 1.525249
0.541171875 0.2582845 1.331935
0.5423203125 0.6108012 1.050802
0.54346875 0.8343502 0.723838
0.5446171875 0.9396996 0.3846957
0.545765625 0.9398463 0.06180273
0.5469140625 0.8516222 -0.2214959
0.5480625 0.6954634 -0.4473007
0.5492109375 0.4944563 -0.6049997
0.550359375 0.2708865 -0.6905171
0.5515078125 0.04668295 -0.7060693
0.55265625 -0.1607282 -0.6589691
0.5538046875 -0.3366856 -0.5598396
0.554953125 -0.4713862 -0.4213906
0.5561015625 -0.558628 -0.2568485
0.55725 -0.5954419 -0.08162171
0.5583984375 -0.5831112 0.09324375
0.559546875 -0.5242082 0.25473
0.5606953125 -0.4247025 0.3921139
0.56184375 -0.2918952 0.4964199
0.5629921875 -0.1350829 0.5602382
0.564140625 0.0340317 0.5780978
0.5652890625 0.2031331 0.5470753
0.5664375 0.3590758 0.4682028
0.5675859375 0.4880254 0.345612
0.568734375 0.5771055 0.1876931
0.5698828125 0.616905 0.006874918
0.57103125 0.6007658 -0.1819346
0.5721796875 0.5280033 -0.360196
0.573328125 0.4025603 -0.512187
0.5744765625 0.2351207 -0.6210178
0.575625 0.03912042 -0.67683
0.5767734375 -0.1681674 -0.672382
0.577921875 -0.3689539 -0.6063817
0.5790703125 -0.5461066 -0.4836419
0.58021875 -0.684786 -0.3112022
0.5813671875 -0.7720348 -0.1009497
0.582515625 -0.7998018 0.1336983
0.5836640625 -0.7606506 0.3775282
0.5848125 -0.6514372 0.6140067
0.5859609375 -0.4722975 0.8256552
0.587109375 -0.2245284 0.9940944
0.5882578125 0.08558436 1.099403
0.58940625 0.4490348 1.119173
0.5905546875 0.8495953 1.027834
0.591703125 1.264262 0.7988091
0.5928515625 1.656448 0.3995068
0.594 1.966873 -0.2068891
0.5951484375 2.095004 -1.057611
0.596296875 1.855392 -2.174428
0.5974453125 0.8957899 -3.461115
0.59859375 -1.314905 -4.319005
0.5997421875 -4.461545 -2.99352
0.600890625 -5.262912 0.918146
0.6020390625 -2.934783 3.357123
0.6031875 -0.6054758 3.464518
0.6043359375 0.7718088 2.697418
0.605484375 1.435445 1.794498
0.6066328125 1.662723 0.9806581
0.60778125 1.627399 0.3144589
0.6089296875 1.435266 -0.1975278
0.610078125 1.155136 -0.5641572
0.6112265625 0.8344752 -0.80023
0.612375 0.5060953 -0.9224922
0.6135234375 0.193145 -0.9471705
0.614671875 -0.08673933 -0.8926839
0.6158203125 -0.3211355 -0.7745979
0.61696875 -0.501476 -0.6101466
0.6181171875 -0.6230747 -0.4155904
0.619265625 -0.6836367 -0.206531
0.6204140625 -0.6845623 0.001459742
0.6215625 -0.6295885 0.1938826
0.6227109375 -0.5264368 0.3573979
0.623859375 -0.3852661 0.480952
0.6250078125 -0.2193555 0.5565595
0.62615625 -0.04287639 0.5800264
0.6273046875 0.1277877 0.5514455
0.628453125 0.2787766 0.4757428
0.6296015625 0.3974875 0.3621364
0.63075 0.4752346 0.2222666
0.6318984375 0.5072666 0.06991073
0.633046875 0.4939921 -0.08087479
0.6341953125 0.4390618 -0.2176459
0.63534375 0.3495045 -0.3298098
0.6364921875 0.2342399 -0.4099449
0.637640625 0.1044985 -0.4531921
0.6387890625 -0.03007399 -0.4586438
0.6399375 -0.1588878 -0.4268394
0.6410859375 -0.273048 -0.3615811
0.642234375 -0.3644916 -0.2679867
0.6433828125 -0.4271309 -0.1526154
0.64453125 -0.4557406 -0.02389141
0.6456796875 -0.447491 0.1094941
0.646828125 -0.4021532 0.2373269
0.6479765625 -0.3210833 0.349715
0.649125 -0.2086674 0.4368994
0.6502734375 -0.07242595 0.4899725
0.651421875 0.07816756 0.5020968
0.6525703125 0.2308861 0.4687223
0.65371875 0.3721491 0.3894689
0.6548671875 0.4881363 0.2674446
0.656015625 0.5658481 0.1104334
0.6571640625 0.5946228 -0.06996095
0.6583125 0.5675073 -0.2590367
0.6594609375 0.4814283 -0.4399615
0.660609375 0.3386248 -0.5954443
0.6617578125 0.1457539 -0.7081426
0.66290625 -0.08633815 -0.7636827
0.6640546875 -0.3431497 -0.7482279
0.665203125 -0.6069643 -0.6510479
0.6663515625 -0.856566 -0.4622531
0.6675 -1.06459 -0.1774086
0.6686484375 -1.197755 0.2120002
0.669796875 -1.20729 0.7054344
0.6709453125 -1.018838 1.29577
0.67209375 -0.5048919 1.933019
0.6732421875 0.5335732 2.432345
0.674390625 2.221808 2.205316
0.6755390625 3.650723 0.2616788
0.6766875 2.71033 -2.286677
0.6778359375 0.5720285 -2.873644
0.678984375 -0.7953449 -2.182528
0.6801328125 -1.359029 -1.289723
0.68128125 -1.458619 -0.5282218
0.6824296875 -1.317385 0.04833353
0.683578125 -1.052096 0.4491363
0.6847265625 -0.7329598 0.6945167
0.685875 -0.4056199 0.8077593
0.6870234375 -0.1015382 0.8122499
0.688171875 0.1572856 0.7322513
0.6893203125 0.3578437 0.5918322
0.69046875 0.4935583 0.4141789
0.6916171875 0.5632087 0.2199804
0.692765625 0.5710937 0.02802269
0.6939140625 0.5245625 -0.1466548
0.6950625 0.4333861 -0.2915758
0.6962109375 0.30909 -0.3985867
0.697359375 0.1644555 -0.4619243
0.6985078125 0.01202699 -0.4797556
0.69965625 -0.1359847 -0.4521482
0.7008046875 -0.26733 -0.3832447
0.701953125 -0.3722209 -0.2794051
0.7031015625 -0.4412736 -0.1490121
0.70425 -0.4684286 -0.003066731
0.7053984375 -0.450263 0.1459028
0.706546875 -0.3869346 0.284432
0.7076953125 -0.2824184 0.3993592
0.70884375 -0.144828 0.4786808
0.7099921875 0.01472758 0.5130466
0.711140625 0.1821211 0.4964373
0.7122890625 0.3410495 0.4274246
0.7134375 0.4759522 0.3089184
0.7145859375 0.5725396 0.1487379
0.715734375 0.6181569 -0.04136637
0.7168828125 0.6045223 -0.2461569
0.71803125 0.5264498 -0.4494563
0.7191796875 0.3828473 -0.6324153
0.720328125 0.1762295 -0.7766883
0.7214765625 -0.08480366 -0.8623062
0.722625 -0.39092 -0.86947
0.7237734375 -0.725082 -0.7769827
0.724921875 -1.065126 -0.5612721
0.7260703125 -1.376305 -0.1933155
0.72721875 -1.601034 0.3607746
0.7283671875 -1.63386 1.139522
0.729515625 -1.260623 2.153843
0.7306640625 -0.05411389 3.210786
0.7318125 2.382077 3.284532
0.7329609375 4.380938 0.727836
0.734109375 3.261438 -2.162181
0.7352578125 1.157817 -2.889418
0.73640625 -0.2626435 -2.465351
0.7375546875 -1.019465 -1.755947
0.738703125 -1.349145 -1.053118
0.7398515625 -1.409293 -0.4423811
0.741 -1.298509 0.0519537
0.7421484375 -1.081511 0.4221109
0.743296875 -0.8053352 0.6751674
0.7444453125 -0.5069489 0.8171113
0.74559375 -0.2123751 0.8615419
0.7467421875 0.05605191 0.8242665
0.747890625 0.2830567 0.7213296
0.7490390625 0.4410192 0.5479519
0.7501875 0.5545446 0.3733556
0.7513359375 0.612156 0.1849431
0.752484375 0.6153565 -0.002706683
0.7536328125 0.5685578 -0.1766485
0.75478125 0.4783327 -0.3254588
0.7559296875 0.3538353 -0.4400406
0.757078125 0.2058798 -0.5139907
0.7582265625 0.04586542 -0.5428575
0.759375 -0.1137023 -0.5257554
0.7605234375 -0.2603435 -0.464711
0.761671875 -0.3827745 -0.3651019
0.7628203125 -0.4709882 -0.2347729
0.76396875 -0.517575 -0.08496407
0.7651171875 -0.5187516 0.07149217
0.766265625 -0.4744211 0.2217115
0.7674140625 -0.3883077 0.3525885
0.7685625 -0.2676089 0.4527569
0.7697109375 -0.1230181 0.5140004
0.770859375 0.03358315 0.5310112
0.7720078125 0.1892319 0.5023909
0.77315625 0.3315982 0.43021
0.7743046875 0.448701 0.3196679
0.775453125 0.531655 0.1786131
0.7766015625 0.5728351 0.01726126
0.77775 0.5675818 -0.153193
0.7788984375 0.5140498 -0.3203073
0.780046875 0.4132994 -0.4717543
0.7811953125 0.2687305 -0.594501
0.78234375 0.08744425 -0.6766669
0.7834921875 -0.1208767 -0.706848
0.784640625 -0.3432089 -0.6761837
0.7857890625 -0.5633997 -0.5781504
0.7869375 -0.7612672 -0.4090827
0.7880859375 -0.9163731 -0.170657
0.789234375 -1.004627 0.1311895
0.7903828125 -1.001355 0.4814611
0.79153125 -0.8808529 0.8602116
0.7926796875 -0.6174199 1.235126
0.793828125 -0.186028 1.560841
0.7949765625 0.4383013 1.768397
0.796125 1.27275 1.743773
0.7972734375 2.284751 1.279373
0.798421875 3.230743 0.03026287
0.7995703125 3.210343 -2.209183
0.80071875 1.027419 -4.050129
0.8018671875 -1.660833 -3.352731
0.803015625 -2.623226 -1.496179
0.8041640625 -2.404209 -0.08022098
0.8053125 -1.815901 0.7315176
0.8064609375 -1.18638 1.124619
0.807609375 -0.6217505 1.251243
0.8087578125 -0.1533459 1.209048
0.80990625 0.2139679 1.059362
0.8110546875 0.4808792 0.8444469
0.812203125 0.6531584 0.595865
0.8133515625 0.7392064 0.3375377
0.8145 0.7479867 0.08962988
0.8156484375 0.6904646 -0.1321464
0.816796875 0.5800487 -0.3143892
0.8179453125 0.4320009 -0.4483674
0.81909375 0.2618572 -0.5286967
0.8202421875 0.08540489 -0.5544206
0.821390625 -0.08187752 -0.5288528
0.8225390625 -0.2272596 -0.4586694
0.8236875 -0.3402473 -0.3539912
0.8248359375 -0.4140506 -0.2264436
0.825984375 -0.445895 -0.08877578
0.8271328125 -0.4365101 0.04652245
0.82828125 -0.3903611 0.1685599
0.8294296875 -0.3137624 0.2686089
0.830578125 -0.2146065 0.3402075
0.8317265625 -0.1025487 0.3797478
0.832875 0.01304843 0.3857842
0.8340234375 0.1237738 0.3591444
0.835171875 0.2212097 0.3035108
0.8363203125 0.2983213 0.2232971
0.83746875 0.3493813 0.1250311
0.8386171875 0.370766 0.01639651
0.839765625 0.3602261 -0.09478872
0.8409140625 0.3179288 -0.1990357
0.8420625 0.2461568 -0.2882153
0.8432109375 0.1499024 -0.3539551
0.844359375 0.03593931 -0.3891133
0.8455078125 -0.0863408 -0.3892923
0.84665625 -0.2062795 -0.3520875
0.8478046875 -0.3130466 -0.2781888
0.848953125 -0.3951009 -0.1720703
0.8501015625 -0.443195 -0.04147651
0.85125 -0.4497625 0.1031677
0.8523984375 -0.4107533 0.249415
0.853546875 -0.3252185 0.3829304
0.8546953125 -0.1968386 0.4906844
0.85584375 -0.03201237 0.5596249
0.8569921875 0.1599421 0.5769584
0.858140625 0.3650991 0.533009
0.8592890625 0.5681497 0.4186622
0.8604375 0.7488081 0.2248172
0.8615859375 0.8793049 -0.05403206
0.862734375 0.9209096 -0.4237955
0.8638828125 0.8084525 -0.8797013
0.86503125 0.4345284 -1.376508
0.8661796875 -0.3554171 -1.740209
0.867328125 -1.560966 -1.469116
0.8684765625 -2.325533 -0.08597324
0.869625 -1.656072 1.341489
0.8707734375 -0.4779963 1.69055
0.871921875 0.3330141 1.381316
0.8730703125 0.7367245 0.9089983
0.87421875 0.8731763 0.4604743
0.8753671875 0.8461838 0.08941387
0.876515625 0.7228906 -0.1917886
0.8776640625 0.545701 -0.3836855
0.8788125 0.3462704 -0.493626
0.8799609375 0.1480418 -0.530494
0.881109375 -0.03219939 -0.506649
0.8822578125 -0.1815068 -0.4357397
0.88340625 -0.2921829 -0.331426
0.8845546875 -0.3606008 -0.2083435
0.885703125 -0.3869708 -0.07949948
0.8868515625 -0.374367 0.04399027
0.888 -0.328558 0.1519988
0.8891484375 -0.2560431 0.237755
0.890296875 -0.1652458 0.296154
0.8914453125 -0.06479435 0.3246118
0.89259375 0.03703452 0.3227127
0.8937421875 0.1321025 0.291744
0.894890625 0.2127368 0.2351618
0.8960390625 0.2732597 0.1581642
0.8971875 0.3080556 0.0669983
0.8983359375 0.3147194 -0.03064915
0.899484375 0.2920018 -0.1265447
0.9006328125 0.2412425 -0.212129
0.90178125 0.1659027 -0.2795255
0.9029296875 0.07254433 -0.3217312
0.904078125 -0.03085513 -0.3339031
0.9052265625 -0.1352247 -0.3139616
0.906375 -0.2305375 -0.2621109
0.9075234375 -0.3074222 -0.1821291
0.908671875 -0.357717 -0.0803905
0.9098203125 -0.3752199 0.03496871
0.91096875 -0.3572624 0.1534347
0.9121171875 -0.3030316 0.2647125
0.913265625 -0.2151532 0.3584372
0.9144140625 -0.09918905 0.4247939
0.9155625 0.03753462 0.4557982
0.9167109375 0.18509 0.4451452
0.917859375 0.3319077 0.3886518
0.9190078125 0.4655246 0.2852297
0.92015625 0.5714138 0.1354104
0.9213046875 0.6344421 -0.05593551
0.922453125 0.6383003 -0.2797966
0.9236015625 0.5665717 -0.5225068
0.92475 0.4018702 -0.7628689
0.9258984375 0.1283537 -0.9673406
0.927046875 -0.2643858 -1.088723
0.9281953125 -0.7719779 -1.05073
0.92934375 -1.341527 -0.744311
0.9304921875 -1.80771 -0.04519839
0.931640625 -1.805279 1.038982
0.9327890625 -0.9619265 2.032557
0.9339375 0.3921253 2.161954
0.9350859375 1.354854 1.432989
0.936234375 1.618954 0.5041137
0.9373828125 1.431122 -0.2183567
0.93853125 1.053366 -0.6626586
0.9396796875 0.6373896 -0.8763871
0.940828125 0.2549253 -0.9223834
0.9419765625 -0.06432422 -0.853376
0.943125 -0.3079741 -0.7099125
0.9442734375 -0.4739344 -0.5248664
0.945421875 -0.566801 -0.3223592
0.9465703125 -0.5941356 -0.1218854
0.94771875 -0.5650554 0.06146095
0.9488671875 -0.4904525 0.217023
0.950015625 -0.3818462 0.3370932
0.9511640625 -0.2513044 0.4161735
0.9523125 -0.1105833 0.453275
0.9534609375 0.02896773 0.4489515
0.954609375 0.1566587 0.4064163
0.9557578125 0.2632091 0.3312773
0.95690625 0.3413051 0.2314483
0.9580546875 0.3857655 0.1160145
0.959203125 0.394586 -0.004452723
0.9603515625 0.3681761 -0.1200904
0.9615 0.309965 -0.2209316
0.9626484375 0.2262928 -0.2986094
0.963796875 0.1250852 -0.3477762
0.9649453125 0.01575314 -0.3649493
0.96609375 -0.09221444 -0.3493498
0.9672421875 -0.1898744 -0.3038021
0.968390625 -0.2692461 -0.2329326
0.9695390625 -0.3245131 -0.1428152
0.9706875 -0.3515682 -0.04144712
0.9718359375 -0.3490256 0.06324328
0.972984375 -0.3168124 0.1629311
0.9741328125 -0.25757 0.2502732
0.97528125 -0.175573 0.3179325
0.9764296875 -0.07645474 0.3605402
0.977578125 0.03248509 0.3740743
0.9787265625 0.1435751 0.3560374
0.979875 0.2479542 0.3060344
0.9810234375 0.3369631 0.2261165
0.982171875 0.4018558 0.1204138
0.9833203125 0.4350602 -0.004512717
0.98446875 0.4309076 -0.1399325
0.9856171875 0.385548 -0.2748926
0.986765625 0.2984869 -0.3971241
0.9879140625 0.1724012 -0.4943643
0.9890625 0.01336762 -0.5537527
0.9902109375 -0.1678409 -0.5644681
0.991359375 -0.3581488 -0.5181662
0.9925078125 -0.5409936 -0.4087143
0.99365625 -0.6967431 -0.235015
0.9948046875 -0.8048964 0.0009403045
0.995953125 -0.8416073 0.2924615
0.9971015625 -0.7802531 0.6251943
0.99825 -0.5865737 0.9776272
0.9993984375 -0.2179133 1.308019
1.000546875 0.3771893 1.529258
1.0016953125 1.22793 1.457043
1.00284375 2.178224 0.7466579
1.0039921875 2.500411 -0.8031632
