# GHZ S RI R 50.0
0.3 -4.422829 -7.469465
0.3011484375 -9.870564 -2.159088
0.302296875 -7.091087 5.17028
0.3034453125 -1.858806 6.212011
0.30459375 0.9398679 4.718596
0.3057421875 2.095086 3.074933
0.306890625 2.437546 1.740127
0.3080390625 2.383902 0.7283276
0.3091875 2.132399 -0.02241344
0.3103359375 1.781872 -0.5590532
0.311484375 1.385696 -0.9287675
0.3126328125 0.9747618 -1.161964
0.31378125 0.5675212 -1.280457
0.3149296875 0.1801369 -1.298017
0.316078125 -0.177486 -1.227489
0.3172265625 -0.492757 -1.078889
0.318375 -0.7518897 -0.8615418
0.3195234375 -0.9410093 -0.5885503
0.320671875 -1.045261 -0.2760096
0.3218203125 -1.053457 0.04931211
0.32296875 -0.9624537 0.3604461
0.3241171875 -0.7823944 0.6221507
0.325265625 -0.5327225 0.8081874
0.3264140625 -0.2479112 0.9001475
0.3275625 0.03969057 0.8968288
0.3287109375 0.2964283 0.8070444
0.329859375 0.5008462 0.6535519
0.3310078125 0.6418288 0.4588864
0.33215625 0.7160882 0.2469378
0.3333046875 0.7291979 0.03500194
0.334453125 0.6883714 -0.1623152
0.3356015625 0.6029078 -0.3350004
0.33675 0.4809205 -0.4758017
0.3378984375 0.3316494 -0.580187
0.339046875 0.1632729 -0.6446047
0.3401953125 -0.01598036 -0.6662696
0.34134375 -0.1978022 -0.6424543
0.3424921875 -0.3712124 -0.5731564
0.343640625 -0.5271481 -0.457134
0.3447890625 -0.6515175 -0.2973597
0.3459375 -0.7316434 -0.1005179
0.3470859375 -0.7531213 0.1229536
0.348234375 -0.7050136 0.3540388
0.3493828125 -0.5826354 0.5712905
0.35053125 -0.3891445 0.7466464
0.3516796875 -0.1398556 0.8553071
0.352828125 0.1393267 0.8781949
0.3539765625 0.4173765 0.8085437
0.355125 0.6627473 0.6517347
0.3562734375 0.8501053 0.4241364
0.357421875 0.9630402 0.1468134
0.3585703125 0.99139 -0.1568607
0.35971875 0.932066 -0.463293
0.3608671875 0.7861032 -0.7539706
0.362015625 0.5572062 -1.008394
0.3631640625 0.2470993 -1.209971
0.3643125 -0.1417462 -1.336866
0.3654609375 -0.6073723 -1.361412
0.366609375 -1.145124 -1.239412
0.3677578125 -1.735883 -0.907162
0.36890625 -2.325869 -0.2538636
0.3700546875 -2.742185 0.8863385
0.371203125 -2.491425 2.643615
0.3723515625 -0.5691772 4.438408
0.3735 2.80499 3.937184
0.3746484375 4.19412 0.9550691
0.375796875 3.224283 -1.29381
0.3769453125 1.763861 -2.152274
0.37809375 0.5501302 -2.208382
0.3792421875 -0.3082526 -1.876388
0.380390625 -0.8442875 -1.381331
0.3815390625 -1.112038 -0.8474662
0.3826875 -1.169845 -0.3504058
0.3838359375 -1.075393 0.06399505
0.384984375 -0.8827465 0.3747788
0.3861328125 -0.6381706 0.5799538
0.38728125 -0.3782336 0.6844006
0.3884296875 -0.1285833 0.7045804
0.389578125 0.092458 0.6561956
0.3907265625 0.2730556 0.5554306
0.391875 0.4075457 0.4185045
0.3930234375 0.4933793 0.259072
0.394171875 0.5292884 0.09014547
0.3953203125 0.5171791 -0.07722827
0.39646875 0.4595896 -0.2317754
0.3976171875 0.3604175 -0.3631701
0.398765625 0.2255455 -0.4607529
0.3999140625 0.06415258 -0.5151196
0.4010625 -0.1114001 -0.5173752
0.4022109375 -0.2851563 -0.462016
0.403359375 -0.4388748 -0.3484403
0.4045078125 -0.5514923 -0.1825112
0.40565625 -0.6043916 0.02197224
0.4068046875 -0.5830871 0.2424891
0.407953125 -0.4818909 0.4525511
0.4091015625 -0.3063224 0.6235027
0.41025 -0.07091645 0.7294241
0.4113984375 0.2004432 0.7521501
0.412546875 0.481392 0.6793014
0.4136953125 0.7445226 0.5075369
0.41484375 0.9581398 0.2371871
0.4159921875 1.093095 -0.1268558
0.417140625 1.107557 -0.5801628
0.4182890625 0.9444368 -1.108079
0.4194375 0.5090572 -1.665808
0.4205859375 -0.3430667 -2.111064
0.421734375 -1.710747 -2.033133
0.4228828125 -3.073787 -0.6957126
0.42403125 -2.857364 1.55762
0.4251796875 -1.125562 2.650718
0.426328125 0.376778 2.362916
0.4274765625 1.170739 1.609619
0.428625 1.467824 0.8498821
0.4297734375 1.463695 0.203827
0.430921875 1.279635 -0.2990718
0.4320703125 0.9896342 -0.6558321
0.43321875 0.6449025 -0.8725131
0.4343671875 0.289235 -0.9578335
0.435515625 -0.04196075 -0.9274664
0.4366640625 -0.3205429 -0.8041809
0.4378125 -0.5270234 -0.6148475
0.4389609375 -0.6530399 -0.3899126
0.440109375 -0.6988887 -0.1562786
0.4412578125 -0.6741996 0.06282513
0.44240625 -0.5917714 0.2512347
0.4435546875 -0.4675189 0.3969362
0.444703125 -0.316814 0.4952454
0.4458515625 -0.1536923 0.5455952
0.447 0.009175946 0.5495102
0.4481484375 0.1615936 0.5112807
0.449296875 0.2949263 0.4359542
0.4504453125 0.4008532 0.3304024
0.45159375 0.474674 0.2016035
0.4527421875 0.511098 0.05816885
0.453890625 0.5074617 -0.09098873
0.4550390625 0.4623676 -0.2349993
0.4561875 0.3774322 -0.3630325
0.4573359375 0.2569506 -0.4634705
0.458484375 0.1086983 -0.525725
0.4596328125 -0.05444805 -0.5411879
0.46078125 -0.2183406 -0.5059232
0.4619296875 -0.3660152 -0.4203323
0.463078125 -0.4812039 -0.2919363
0.4642265625 -0.5517484 -0.1326853
0.465375 -0.5700487 0.04087158
0.4665234375 -0.5345604 0.2118037
0.467671875 -0.4495478 0.3636449
0.4688203125 -0.3243018 0.4834521
0.46996875 -0.17041 0.5618653
0.4711171875 -0.0006531817 0.5935555
0.472265625 0.1716033 0.5774387
0.4734140625 0.3355734 0.514569
0.4745625 0.4784113 0.4091615
0.4757109375 0.5918486 0.265956
0.476859375 0.6662359 0.09189443
0.4780078125 0.6940349 -0.1043524
0.47915625 0.6677989 -0.3110749
0.4803046875 0.5829434 -0.5161104
0.481453125 0.4359466 -0.704345
0.4826015625 0.2271888 -0.8574907
0.48375 -0.03862384 -0.9549927
0.4848984375 -0.3498417 -0.9755795
0.486046875 -0.6882614 -0.8984706
0.4871953125 -1.02572 -0.7046177
0.48834375 -1.324934 -0.3811784
0.4894921875 -1.538456 0.07477929
0.490640625 -1.610752 0.6551624
0.4917890625 -1.474824 1.334498
0.4929375 -1.048218 2.062925
0.4940859375 -0.2167827 2.738513
0.495234375 1.149233 3.127416
0.4963828125 3.096821 2.6974
0.49753125 4.910368 0.5294571
0.4986796875 4.34239 -2.998495
0.499828125 1.258219 -4.562224
0.5009765625 -1.18619 -3.654065
0.502125 -2.192962 -2.167227
0.5032734375 -2.355476 -0.9148664
0.504421875 -2.126887 -0.001754569
0.5055703125 -1.726292 0.619047
0.50671875 -1.261429 1.009416
0.5078671875 -0.7874945 1.214403
0.509015625 -0.3384474 1.271709
0.5101640625 0.06253979 1.209199
0.5113125 0.3997615 1.052712
0.5124609375 0.6570171 0.8251064
0.513609375 0.8274262 0.5516252
0.5147578125 0.9063811 0.2578965
0.51590625 0.8956485 -0.03044961
0.5170546875 0.804307 -0.2897343
0.518203125 0.6468359 -0.4991301
0.5193515625 0.4433543 -0.6444778
0.5205 0.2168439 -0.7181602
0.5216484375 -0.01046144 -0.7200469
0.522796875 -0.2181242 -0.6574678
0.5239453125 -0.3899764 -0.5420817
0.52509375 -0.5154911 -0.3886751
0.5262421875 -0.5886223 -0.2132469
0.527390625 -0.6087271 -0.0309247
0.5285390625 -0.578153 0.14429
0.5296875 -0.5022897 0.2998582
0.5308359375 -0.3889999 0.4264708
0.531984375 -0.2469965 0.5162389
0.5331328125 -0.08639751 0.5637115
0.53428125 0.08072692 0.5650542
0.5354296875 0.2435595 0.5202293
0.536578125 0.3899759 0.4304155
0.5377265625 0.5074905 0.300211
0.538875 0.5853173 0.1375612
0.5400234375 0.6134844 -0.04668229
0.541171875 0.5853302 -0.2380509
0.5423203125 0.4986466 -0.4183713
0.54346875 0.3556286 -0.5709336
0.5446171875 0.1648786 -0.6774945
0.545765625 -0.05943983 -0.7230265
0.5469140625 -0.299249 -0.6958048
0.5480625 -0.5302967 -0.5918635
0.5492109375 -0.7306179 -0.4113334
0.550359375 -0.8756215 -0.1620682
0.5515078125 -0.9438757 0.1428251
0.55265625 -0.913685 0.4849637
0.5538046875 -0.7648245 0.8407298
0.554953125 -0.474474 1.177482
0.5561015625 -0.01834572 1.446829
0.55725 0.6302891 1.564185
0.5583984375 1.473911 1.377761
0.559546875 2.378036 0.6048482
0.5606953125 2.757812 -1.018767
0.56184375 1.568191 -2.789838
0.5629921875 -0.5947817 -2.906258
0.564140625 -1.811998 -1.679472
0.5652890625 -1.958866 -0.450201
0.5664375 -1.616284 0.3777599
0.5675859375 -1.121605 0.8423309
0.568734375 -0.6186672 1.042779
0.5698828125 -0.169708 1.053555
0.57103125 0.1967771 0.9338534
0.5721796875 0.4634873 0.7291841
0.573328125 0.6290827 0.4786337
0.5744765625 0.6969424 0.2162713
0.575625 0.6781236 -0.03014598
0.5767734375 0.5894414 -0.2395768
0.577921875 0.4497962 -0.3975635
0.5790703125 0.279882 -0.4969469
0.58021875 0.09892654 -0.5362999
0.5813671875 -0.07574139 -0.5196866
0.582515625 -0.2300626 -0.4541298
0.5836640625 -0.3531601 -0.3496845
0.5848125 -0.4372591 -0.2173644
0.5859609375 -0.4783158 -0.06930511
0.587109375 -0.4744791 0.08255162
0.5882578125 -0.4265787 0.2262775
0.58940625 -0.3386809 0.3506711
0.5905546875 -0.2166096 0.4450735
0.591703125 -0.06920154 0.5009667
0.5928515625 0.09286629 0.5110589
0.594 0.2560063 0.4712196
0.5951484375 0.4052277 0.3804709
0.596296875 0.5256812 0.2431629
0.5974453125 0.6020405 0.06729276
0.59859375 0.6215838 -0.1337945
0.5997421875 0.5763993 -0.342419
0.600890625 0.4620228 -0.5380534
0.6020390625 0.2823273 -0.699149
0.6031875 0.04578944 -0.8045854
0.6043359375 -0.2316086 -0.8354359
0.605484375 -0.5296813 -0.7754323
0.6066328125 -0.8239133 -0.614168
0.60778125 -1.084101 -0.3416643
0.6089296875 -1.274837 0.04534224
0.610078125 -1.348187 0.5493566
0.6112265625 -1.234914 1.161719
0.612375 -0.825895 1.84557
0.6135234375 0.05001762 2.467076
0.614671875 1.557098 2.616864
0.6158203125 3.321132 1.445204
0.61696875 3.632877 -1.110434
0.6181171875 1.920152 -2.80346
0.619265625 0.09196597 -2.811218
0.6204140625 -0.9892837 -2.08721
0.6215625 -1.463735 -1.262098
0.6227109375 -1.564513 -0.5363379
0.623859375 -1.444322 0.04275747
0.6250078125 -1.193629 0.470823
0.62615625 -0.873315 0.7551966
0.6273046875 -0.5293589 0.9068807
0.628453125 -0.1944942 0.9430797
0.6296015625 0.1039462 0.8833582
0.63075 0.3477037 0.7498538
0.6318984375 0.5248036 0.5662926
0.633046875 0.6309795 0.3556758
0.6341953125 0.6683518 0.1401952
0.63534375 0.6430553 -0.06268036
0.6364921875 0.5664425 -0.2378393
0.637640625 0.4502923 -0.3758854
0.6387890625 0.3080328 -0.4706495
0.6399375 0.1526695 -0.5197299
0.6410859375 -0.003427341 -0.5240928
0.642234375 -0.1494715 -0.486768
0.6433828125 -0.2761068 -0.4131542
0.64453125 -0.3749828 -0.3106659
0.6456796875 -0.4409686 -0.186688
0.646828125 -0.4697255 -0.05185766
0.6479765625 -0.4604339 0.0847249
0.649125 -0.4131209 0.2125882
0.6502734375 -0.3320841 0.3219262
0.651421875 -0.2234392 0.4034556
0.6525703125 -0.09485915 0.4510069
0.65371875 0.04122819 0.4589921
0.6548671875 0.1748685 0.4267462
0.656015625 0.2933757 0.3568413
0.6571640625 0.386326 0.2549555
0.6583125 0.4456455 0.1297709
0.6594609375 0.4659007 -0.007209911
0.660609375 0.4453158 -0.1445518
0.6617578125 0.3856588 -0.2702173
0.66290625 0.2922484 -0.3740134
0.6640546875 0.1722215 -0.447154
0.665203125 0.03573122 -0.4835066
0.6663515625 -0.1075306 -0.4803892
0.6675 -0.2462721 -0.4367455
0.6686484375 -0.369866 -0.3546246
0.669796875 -0.4681886 -0.2385776
0.6709453125 -0.5326274 -0.0955496
0.67209375 -0.5559213 0.06560338
0.6732421875 -0.5319191 0.2333824
0.674390625 -0.4588267 0.3952089
0.6755390625 -0.3365411 0.5373572
0.6766875 -0.1696692 0.644479
0.6778359375 0.03327608 0.7025166
0.678984375 0.2590739 0.69858
0.6801328125 0.4900479 0.6241102
0.68128125 0.7046131 0.4731992
0.6824296875 0.8783334 0.2471894
0.683578125 0.9863024 -0.04599323
0.6847265625 1.002673 -0.3912046
0.685875 0.9029427 -0.7653391
0.6870234375 0.6638461 -1.135331
0.688171875 0.2655125 -1.45616
0.6893203125 -0.3100415 -1.663485
0.69046875 -1.067919 -1.654444
0.6916171875 -1.960441 -1.266585
0.692765625 -2.783088 -0.2523185
0.6939140625 -2.914898 1.504795
0.6950625 -1.529861 3.205595
0.6962109375 0.7280127 3.288607
0.697359375 2.093618 1.987704
0.6985078125 2.315693 0.6020203
0.69965625 1.957719 -0.3642675
0.7008046875 1.41161 -0.9257553
0.701953125 0.8491332 -1.186473
0.7031015625 0.3406168 -1.23751
0.70425 -0.08328076 -1.143304
0.7053984375 -0.4105424 -0.9521894
0.706546875 -0.6365487 -0.7021624
0.7076953125 -0.7635377 -0.4250877
0.70884375 -0.7984305 -0.1487109
0.7099921875 -0.7521272 0.1046069
0.711140625 -0.6400098 0.3165696
0.7122890625 -0.4799848 0.4738606
0.7134375 -0.2916043 0.5696486
0.7145859375 -0.09451047 0.6025701
0.715734375 0.09335759 0.5759004
0.7168828125 0.256839 0.4981488
0.71803125 0.3843718 0.3800718
0.7191796875 0.4676066 0.2358304
0.720328125 0.5038421 0.07846097
0.7214765625 0.4922413 -0.07834924
0.722625 0.4368714 -0.2217748
0.7237734375 0.3433212 -0.340984
0.724921875 0.2201006 -0.4270441
0.7260703125 0.0775002 -0.4730968
0.72721875 -0.07319881 -0.4755868
0.7283671875 -0.2196618 -0.4329041
0.729515625 -0.3491796 -0.3474709
0.7306640625 -0.4494469 -0.2239686
0.7318125 -0.5099367 -0.07164057
0.7329609375 -0.5217454 0.09812006
0.734109375 -0.4791998 0.2705907
0.7352578125 -0.3809955 0.4288814
0.73640625 -0.2305118 0.5558476
0.7375546875 -0.03633366 0.6343003
0.738703125 0.1881559 0.6493829
0.7398515625 0.4234352 0.5881895
0.741 0.6470385 0.4441718
0.7421484375 0.8328346 0.2136322
0.743296875 0.9494977 -0.1007871
0.7444453125 0.9605909 -0.4900613
0.74559375 0.8179746 -0.9353452
0.7467421875 0.4551446 -1.394936
0.747890625 -0.2253341 -1.766935
0.7490390625 -1.261746 -1.711722
0.7501875 -2.482431 -0.824117
0.7513359375 -2.66712 1.160584
0.752484375 -1.094248 2.468484
0.7536328125 0.4747064 2.174328
0.75478125 1.204367 1.335279
0.7559296875 1.37093 0.5651839
0.757078125 1.256983 -0.01497152
0.7582265625 1.011076 -0.4136049
0.759375 0.710465 -0.6600738
0.7605234375 0.3984933 -0.7797849
0.761671875 0.1042071 -0.79444
0.7628203125 -0.1521854 -0.7263743
0.76396875 -0.3564392 -0.5954328
0.7651171875 -0.4996123 -0.4225149
0.766265625 -0.5772781 -0.2276551
0.7674140625 -0.5916358 -0.03052262
0.7685625 -0.5477529 0.1515049
0.7697109375 -0.4556725 0.3041773
0.770859375 -0.3275685 0.4172425
0.7720078125 -0.1775275 0.4842723
0.77315625 -0.01991533 0.5035459
0.7743046875 0.1317909 0.4761672
0.775453125 0.2657929 0.407867
0.7766015625 0.3723014 0.3055758
0.77775 0.4439903 0.178899
0.7788984375 0.4761961 0.03805202
0.780046875 0.4670645 -0.1057716
0.7811953125 0.417349 -0.2415145
0.78234375 0.3302234 -0.3587483
0.7834921875 0.2117915 -0.4476827
0.784640625 0.06987898 -0.500015
0.7857890625 -0.08464605 -0.5098026
0.7869375 -0.2402741 -0.4733068
0.7880859375 -0.3832787 -0.3907142
0.789234375 -0.4996926 -0.2655737
0.7903828125 -0.5776238 -0.1052694
0.79153125 -0.6061902 0.0787276
0.7926796875 -0.5771699 0.2717443
0.793828125 -0.4882334 0.4563107
0.7949765625 -0.3411077 0.6145694
0.796125 -0.1425428 0.7281438
0.7972734375 0.09502109 0.7819096
0.798421875 0.3558535 0.7625139
0.7995703125 0.6194546 0.6597927
0.80071875 0.8632105 0.4681031
0.8018671875 1.061302 0.1846827
0.803015625 1.181339 -0.1880338
0.8041640625 1.184739 -0.6440234
0.8053125 1.019885 -1.16555
0.8064609375 0.6083223 -1.710712
0.807609375 -0.1577599 -2.171293
0.8087578125 -1.382924 -2.267208
0.80990625 -2.873045 -1.41125
0.8110546875 -3.47599 0.7426624
0.812203125 -2.102352 2.661109
0.8133515625 -0.1618731 2.872078
0.8145 1.033873 2.113137
0.8156484375 1.513367 1.214566
0.816796875 1.569126 0.4532818
0.8179453125 1.39799 -0.1205578
0.81909375 1.111867 -0.5175381
0.8202421875 0.7781445 -0.760386
0.821390625 0.4398133 -0.8719683
0.8225390625 0.1264849 -0.8761526
0.8236875 -0.14069 -0.7971181
0.8248359375 -0.3503666 -0.6574688
0.825984375 -0.4954271 -0.480646
0.8271328125 -0.575567 -0.2869541
0.82828125 -0.5948299 -0.09436616
0.8294296875 -0.561114 0.08172353
0.830578125 -0.4839792 0.2306654
0.8317265625 -0.3752374 0.3446434
0.832875 -0.2461931 0.4194382
0.8340234375 -0.1088318 0.4535151
0.835171875 0.026653 0.4483128
0.8363203125 0.1501893 0.4075252
0.83746875 0.2543098 0.3365656
0.8386171875 0.3324563 0.2420958
0.839765625 0.380111 0.1320943
0.8409140625 0.3946323 0.01525909
0.8420625 0.3758656 -0.09916148
0.8432109375 0.325914 -0.2025511
0.844359375 0.2489272 -0.2862862
0.8455078125 0.1518617 -0.3439242
0.84665625 0.04244092 -0.3706483
0.8478046875 -0.06934831 -0.3642978
0.848953125 -0.1739113 -0.3253515
0.8501015625 -0.2621799 -0.2575645
0.85125 -0.3262086 -0.1668072
0.8523984375 -0.3603342 -0.06172064
0.853546875 -0.362136 0.04846598
0.8546953125 -0.3314572 0.1543087
0.85584375 -0.2714702 0.2466147
0.8569921875 -0.1870913 0.3177905
0.858140625 -0.08552412 0.36174
0.8592890625 0.02550915 0.3751378
0.8604375 0.1370723 0.3561955
0.8615859375 0.2406055 0.3056828
0.862734375 0.3276005 0.2261612
0.8638828125 0.3903818 0.1223154
0.86503125 0.4228379 0.0007633345
0.8661796875 0.4191655 -0.130406
0.867328125 0.3764858 -0.2613403
0.8684765625 0.2937028 -0.3815866
0.869625 0.1720587 -0.4786666
0.8707734375 0.01656758 -0.5405247
0.871921875 -0.1642758 -0.5551936
0.8730703125 -0.3585487 -0.5114105
0.87421875 -0.5494059 -0.4004788
0.8753671875 -0.7149838 -0.2161402
0.876515625 -0.8293167 0.04317376
0.8776640625 -0.857832 0.3723889
0.8788125 -0.7575714 0.7563335
0.8799609375 -0.4698086 1.155454
0.881109375 0.07836871 1.479061
0.8822578125 0.9341125 1.510275
0.88340625 1.895566 0.8652594
0.8845546875 2.172188 -0.5445933
0.885703125 1.251489 -1.675362
0.8868515625 0.06452896 -1.761992
0.888 -0.6615123 -1.28155
0.8891484375 -0.948546 -0.717649
0.890296875 -0.9706817 -0.2423683
0.8914453125 -0.8521075 0.1129259
0.89259375 -0.6633512 0.354471
0.8937421875 -0.4480065 0.4974837
0.894890625 -0.2315049 0.5579921
0.8960390625 -0.03229856 0.5511715
0.8971875 0.1374122 0.4909584
0.8983359375 0.2693291 0.3913219
0.899484375 0.3579673 0.266533
0.9006328125 0.4016879 0.1296778
0.90178125 0.4016875 -0.005964424
0.9029296875 0.3621716 -0.1289498
0.904078125 0.289794 -0.2293591
0.9052265625 0.1939261 -0.2994601
0.906375 0.08494526 -0.3350823
0.9075234375 -0.02625945 -0.3350505
0.908671875 -0.1288968 -0.3016883
0.9098203125 -0.2139667 -0.2398658
0.91096875 -0.2743217 -0.1566232
0.9121171875 -0.3056479 -0.06075815
0.913265625 -0.3061706 0.03859255
0.9144140625 -0.2770481 0.1322712
0.9155625 -0.2213179 0.2123414
0.9167109375 -0.1441502 0.2719126
0.917859375 -0.05248457 0.305557
0.9190078125 0.04619141 0.3108344
0.92015625 0.1435552 0.2859497
0.9213046875 0.231146 0.2322916
0.922453125 0.3005209 0.1525684
0.9236015625 0.3448427 0.0522304
0.92475 0.3571872 -0.06137538
0.9258984375 0.3336166 -0.1788694
0.927046875 0.2727532 -0.2897016
0.9281953125 0.1748565 -0.382196
0.92934375 0.04483695 -0.4440776
0.9304921875 -0.1090261 -0.4640281
0.931640625 -0.2744531 -0.4327066
0.9327890625 -0.4353325 -0.3426469
0.9339375 -0.5724408 -0.1921468
0.9350859375 -0.6631262 0.01668
0.936234375 -0.6827347 0.2745708
0.9373828125 -0.6034004 0.5623078
0.93853125 -0.3967233 0.8473541
0.9396796875 -0.03492127 1.072789
0.940828125 0.4883253 1.142374
0.9419765625 1.112631 0.9106793
0.943125 1.609767 0.2432686
0.9442734375 1.581498 -0.7346616
0.945421875 0.8786148 -1.477422
0.9465703125 -0.04574441 -1.570453
0.94771875 -0.7067213 -1.183626
0.9488671875 -1.003415 -0.6528893
0.950015625 -1.031232 -0.1681541
0.9511640625 -0.8991987 0.2053228
0.9523125 -0.6849361 0.4600969
0.9534609375 -0.4381812 0.6047509
0.954609375 -0.1916033 0.6561576
0.9557578125 0.03253734 0.6306269
0.95690625 0.2193677 0.5461323
0.9580546875 0.3592439 0.4190305
0.959203125 0.4470909 0.2673956
0.9603515625 0.4826829 0.10701
0.9615 0.4687378 -0.04712022
0.9626484375 0.411997 -0.1823635
0.963796875 0.3221297 -0.2890932
0.9649453125 0.2098005 -0.3604983
0.96609375 0.08663797 -0.3936655
0.9672421875 -0.03583937 -0.3891936
0.968390625 -0.1475851 -0.3501271
0.9695390625 -0.2400113 -0.2826585
0.9706875 -0.3067499 -0.193715
0.9718359375 -0.3443228 -0.09219225
0.972984375 -0.3510369 0.01375892
0.9741328125 -0.3277204 0.1155214
0.97528125 -0.2770406 0.2054382
0.9764296875 -0.2035885 0.2768975
0.977578125 -0.1131691 0.3244513
0.9787265625 -0.01277876 0.3444611
0.979875 0.08991309 0.3352732
0.9810234375 0.1865995 0.2965666
0.982171875 0.2695626 0.2309834
0.9833203125 0.3312669 0.1427361
0.98446875 0.3652263 0.03818798
0.9856171875 0.3674866 -0.07428894
0.986765625 0.336075 -0.1853379
0.9879140625 0.2714382 -0.2850378
0.9890625 0.177663 -0.3636456
0.9902109375 0.06116161 -0.4129401
0.991359375 -0.06903357 -0.4256703
0.9925078125 -0.2018876 -0.398404
0.99365625 -0.3257685 -0.3307044
0.9948046875 -0.4287098 -0.2252295
0.995953125 -0.499553 -0.08795209
0.9971015625 -0.5291071 0.0722677
0.99825 -0.5095378 0.2445862
0.9993984375 -0.4363763 0.4150531
1.000546875 -0.3070612 0.5691143
