# GHZ S RI R 50.0
0.3 -10.24633 -4.587937
0.3011484375 -8.421947 4.123189
0.302296875 -3.070229 6.003465
0.3034453125 0.0365396 4.953233
0.30459375 1.498144 3.506784
0.3057421875 2.09712 2.227521
0.306890625 2.236777 1.195215
0.3080390625 2.122917 0.3977466
0.3091875 1.871161 -0.2045824
0.3103359375 1.544285 -0.6436796
0.311484375 1.180749 -0.946469
0.3126328125 0.8046114 -1.133269
0.31378125 0.4327548 -1.220311
0.3149296875 0.07628983 -1.218387
0.316078125 -0.2498423 -1.136097
0.3172265625 -0.5361322 -0.981854
0.318375 -0.7687395 -0.7649176
0.3195234375 -0.9333127 -0.4967387
0.320671875 -1.01555 -0.1949182
0.3218203125 -1.005954 0.1172213
0.32296875 -0.9019567 0.4099217
0.3241171875 -0.713312 0.6521819
0.325265625 -0.4620231 0.8181397
0.3264140625 -0.1794811 0.8910943
0.3275625 0.09962054 0.8705319
0.3287109375 0.345288 0.7684299
0.329859375 0.5369495 0.6052218
0.3310078125 0.6634336 0.4052108
0.33215625 0.7239044 0.1914892
0.3333046875 0.7238906 -0.01953757
0.334453125 0.6707915 -0.2128616
0.3356015625 0.5737327 -0.3795367
0.33675 0.4420119 -0.5130477
0.3378984375 0.2851613 -0.6077744
0.339046875 0.1107714 -0.6612286
0.3401953125 -0.0726594 -0.6705692
0.34134375 -0.2562989 -0.6333299
0.3424921875 -0.4294797 -0.5489461
0.343640625 -0.5805939 -0.4179557
0.3447890625 -0.6966621 -0.2427476
0.3459375 -0.7642856 -0.03096438
0.3470859375 -0.768423 0.2049365
0.348234375 -0.6979018 0.4458212
0.3493828125 -0.5471137 0.666523
0.35053125 -0.3240277 0.8371926
0.3516796875 -0.04328722 0.9317385
0.352828125 0.2658633 0.9296989
0.3539765625 0.5684034 0.8243528
0.355125 0.8300085 0.6220073
0.3562734375 1.021741 0.3397553
0.357421875 1.124201 0.0007042471
0.3585703125 1.12386 -0.3706711
0.35971875 1.013003 -0.7473962
0.3608671875 0.7850306 -1.108148
0.362015625 0.4307234 -1.427881
0.3631640625 -0.06479672 -1.673437
0.3643125 -0.7276896 -1.790039
0.3654609375 -1.591073 -1.668135
0.366609375 -2.650787 -1.069526
0.3677578125 -3.625668 0.4934608
0.36890625 -3.150419 3.298503
0.3700546875 0.206545 4.738322
0.371203125 2.77487 2.812202
0.3723515625 2.996624 0.6533851
0.3735 2.346281 -0.6240512
0.3746484375 1.547852 -1.249701
0.375796875 0.8033045 -1.475294
0.3769453125 0.1737302 -1.441908
0.37809375 -0.3172968 -1.236626
0.3792421875 -0.6580309 -0.9263297
0.380390625 -0.8472731 -0.5682842
0.3815390625 -0.8984318 -0.2112049
0.3826875 -0.8333253 0.1029137
0.3838359375 -0.6845498 0.3502878
0.384984375 -0.4847736 0.5174024
0.3861328125 -0.2641399 0.6032128
0.38728125 -0.04765952 0.6150847
0.3884296875 0.1471467 0.5644689
0.389578125 0.306063 0.4653854
0.3907265625 0.4232954 0.3311585
0.391875 0.4939109 0.1753618
0.3930234375 0.5169201 0.01013397
0.394171875 0.4921296 -0.1536339
0.3953203125 0.4219063 -0.3036523
0.39646875 0.3101855 -0.4299873
0.3976171875 0.1616092 -0.5220027
0.398765625 -0.01553452 -0.5689102
0.3999140625 -0.2093459 -0.559998
0.4010625 -0.4051967 -0.4872918
0.4022109375 -0.5812682 -0.3475329
0.403359375 -0.7145864 -0.141128
0.4045078125 -0.7788361 0.1198906
0.40565625 -0.7502375 0.4145916
0.4068046875 -0.6116789 0.7109568
0.407953125 -0.3559848 0.9690474
0.4091015625 0.0115448 1.145176
0.41025 0.4690768 1.195939
0.4113984375 0.989065 1.075091
0.412546875 1.528363 0.7335433
0.4136953125 2.016822 0.09944708
0.41484375 2.302496 -0.9321935
0.4159921875 1.989354 -2.45436
0.417140625 0.2024052 -3.998752
0.4182890625 -2.971988 -3.321813
0.4194375 -3.914682 -0.2811759
0.4205859375 -2.638339 1.57618
0.421734375 -1.264971 2.058268
0.4228828125 -0.2805801 1.947166
0.42403125 0.3703404 1.618295
0.4251796875 0.7793569 1.21473
0.426328125 1.008895 0.794717
0.4274765625 1.097478 0.3916432
0.428625 1.073094 0.02284057
0.4297734375 0.9560168 -0.2942615
0.430921875 0.7661142 -0.5449396
0.4320703125 0.5260783 -0.7173799
0.43321875 0.2599585 -0.8043945
0.4343671875 -0.006167467 -0.8052398
0.435515625 -0.2471489 -0.727591
0.4366640625 -0.4417643 -0.5860171
0.4378125 -0.5746105 -0.4019696
0.4389609375 -0.6413648 -0.1967416
0.440109375 -0.6420475 0.005965124
0.4412578125 -0.5861977 0.189665
0.44240625 -0.4851351 0.3408241
0.4435546875 -0.3523317 0.4508446
0.444703125 -0.2015507 0.5166597
0.4458515625 -0.04506945 0.5382069
0.447 0.1060293 0.5177588
0.4481484375 0.2428161 0.4595704
0.449296875 0.3578856 0.3694169
0.4504453125 0.4442148 0.2532147
0.45159375 0.4970686 0.1187055
0.4527421875 0.5123895 -0.02599534
0.453890625 0.4883041 -0.1716458
0.4550390625 0.4239804 -0.3074415
0.4561875 0.3218813 -0.4232942
0.4573359375 0.1876367 -0.5075262
0.458484375 0.03003162 -0.5503171
0.4596328125 -0.1378934 -0.5444503
0.46078125 -0.3005392 -0.4866585
0.4619296875 -0.4409251 -0.3794107
0.463078125 -0.5435219 -0.2314243
0.4642265625 -0.5960934 -0.05668047
0.465375 -0.5928484 0.1275846
0.4665234375 -0.5335569 0.3031295
0.467671875 -0.4243203 0.4535231
0.4688203125 -0.2752927 0.5654522
0.46996875 -0.09982823 0.6305685
0.4711171875 0.08808658 0.6440264
0.472265625 0.2746994 0.6050448
0.4734140625 0.4473999 0.5158058
0.4745625 0.5943563 0.3803475
0.4757109375 0.7049838 0.2046728
0.476859375 0.7684467 -0.002519565
0.4780078125 0.776393 -0.2323252
0.47915625 0.7203373 -0.4719256
0.4803046875 0.5938591 -0.7062967
0.481453125 0.3915114 -0.9168847
0.4826015625 0.1123769 -1.079986
0.48375 -0.2394211 -1.169458
0.4848984375 -0.6524723 -1.153841
0.486046875 -1.102239 -0.9995251
0.4871953125 -1.552945 -0.6686102
0.48834375 -1.944752 -0.124339
0.4894921875 -2.187293 0.6693732
0.490640625 -2.12983 1.728816
0.4917890625 -1.504132 3.023104
0.4929375 0.1564868 4.241667
0.4940859375 3.202761 4.185305
0.495234375 5.717967 0.9935387
0.4963828125 4.363975 -2.813686
0.49753125 1.552849 -3.821158
0.4986796875 -0.3355545 -3.21925
0.499828125 -1.293296 -2.263674
0.5009765625 -1.682335 -1.358623
0.502125 -1.740777 -0.6025819
0.5032734375 -1.604149 -0.005340239
0.504421875 -1.353511 0.4420185
0.5055703125 -1.038482 0.7545512
0.50671875 -0.6959994 0.9442003
0.5078671875 -0.3510469 1.026137
0.509015625 -0.02561226 1.012805
0.5101640625 0.2631606 0.9171482
0.5113125 0.4996263 0.7543933
0.5124609375 0.6718223 0.5422495
0.513609375 0.7710543 0.299454
0.5147578125 0.794517 0.04805644
0.51590625 0.7435006 -0.1910133
0.5170546875 0.6269699 -0.3966404
0.518203125 0.4587563 -0.5520409
0.5193515625 0.2579611 -0.6455076
0.5205 0.04586461 -0.6723448
0.5216484375 -0.1577798 -0.634871
0.522796875 -0.334181 -0.541312
0.5239453125 -0.4702394 -0.4041955
0.52509375 -0.5573115 -0.2385907
0.5262421875 -0.5916833 -0.05949999
0.527390625 -0.5738379 0.117731
0.5285390625 -0.507753 0.2798159
0.5296875 -0.4001941 0.4155604
0.5308359375 -0.2591576 0.5156519
0.531984375 -0.09565479 0.572678
0.5331328125 0.08013903 0.5821186
0.53428125 0.2551125 0.541307
0.5354296875 0.4163473 0.4505419
0.536578125 0.5505329 0.3121267
0.5377265625 0.6432895 0.1331248
0.538875 0.6826484 -0.0766587
0.5400234375 0.6562511 -0.3027647
0.541171875 0.5568419 -0.5250583
0.5423203125 0.3813758 -0.7225367
0.54346875 0.1323292 -0.8687657
0.5446171875 -0.1798614 -0.9370939
0.545765625 -0.5352557 -0.9004424
0.5469140625 -0.9057093 -0.7337317
0.5480625 -1.253788 -0.4094726
0.5492109375 -1.522022 0.098869
0.550359375 -1.614949 0.8226283
0.5515078125 -1.349242 1.77217
0.55265625 -0.3426382 2.800768
0.5538046875 1.833229 3.022942
0.554953125 3.724146 0.8101182
0.5561015625 2.752681 -1.740999
0.55725 0.9577499 -2.329729
0.5583984375 -0.2084502 -1.957422
0.559546875 -0.8121685 -1.372377
0.5606953125 -1.068382 -0.8045102
0.56184375 -1.111282 -0.3147967
0.5629921875 -1.017941 0.08214296
0.564140625 -0.8375028 0.3831073
0.5652890625 -0.6041675 0.5886407
0.5664375 -0.3460578 0.702454
0.5675859375 -0.0875405 0.7294374
0.568734375 0.1504802 0.6794105
0.5698828125 0.3491937 0.5642187
0.57103125 0.4946736 0.4008969
0.5721796875 0.577334 0.2088113
0.573328125 0.5944543 0.008053331
0.5744765625 0.5492154 -0.179653
0.575625 0.4507111 -0.3385713
0.5767734375 0.3119547 -0.4551568
0.577921875 0.1489358 -0.5211949
0.5790703125 -0.02221561 -0.5344897
0.58021875 -0.1854306 -0.4964241
0.5813671875 -0.3276956 -0.4130335
0.582515625 -0.4382691 -0.2932838
0.5836640625 -0.5093088 -0.1470981
0.5848125 -0.5354965 0.01331872
0.5859609375 -0.5152463 0.1769858
0.587109375 -0.4485478 0.3299721
0.5882578125 -0.3382841 0.4621399
0.58940625 -0.1914348 0.5605838
0.5905546875 -0.01480227 0.6161266
0.591703125 0.1793156 0.619556
0.5928515625 0.3773798 0.5641233
0.594 0.5626698 0.4465433
0.5951484375 0.7152781 0.2688522
0.596296875 0.8168853 0.03664659
0.5974453125 0.8476008 -0.2367981
0.59859375 0.7902669 -0.5322668
0.5997421875 0.6322619 -0.8243599
0.600890625 0.3666775 -1.081974
0.6020390625 -0.007036301 -1.26808
0.6031875 -0.4808972 -1.34131
0.6043359375 -1.037103 -1.25153
0.605484375 -1.644453 -0.9334195
0.6066328125 -2.23301 -0.2930744
0.60778125 -2.636808 0.8059754
0.6089296875 -2.41799 2.463473
0.610078125 -0.6770341 4.197641
0.6112265625 2.527102 3.882228
0.612375 3.990558 1.094991
0.6135234375 3.143634 -1.071537
0.614671875 1.824152 -1.917059
0.6158203125 0.7383436 -2.032376
0.61696875 -0.04361951 -1.817612
0.6181171875 -0.5705168 -1.460343
0.619265625 -0.8966122 -1.049814
0.6204140625 -1.061261 -0.6345087
0.6215625 -1.095923 -0.2443141
0.6227109375 -1.025746 0.09948643
0.623859375 -0.875132 0.3807797
0.6250078125 -0.6678126 0.5888785
0.62615625 -0.4274129 0.7176808
0.6273046875 -0.177181 0.7666922
0.628453125 0.06075829 0.7417469
0.6296015625 0.2677497 0.6532761
0.63075 0.4297042 0.5155218
0.6318984375 0.5384542 0.3462763
0.633046875 0.5898102 0.1628699
0.6341953125 0.5861549 -0.01791526
0.63534375 0.5334392 -0.1817585
0.6364921875 0.4408131 -0.3172229
0.637640625 0.3191876 -0.4171027
0.6387890625 0.1798631 -0.4766747
0.6399375 0.0350801 -0.4949571
0.6410859375 -0.1049505 -0.4735662
0.642234375 -0.2310286 -0.4160229
0.6433828125 -0.3346604 -0.3282253
0.64453125 -0.4093208 -0.2169112
0.6456796875 -0.4507859 -0.09043788
0.646828125 -0.4555486 0.04207361
0.6479765625 -0.4234838 0.1705694
0.649125 -0.356644 0.2857662
0.6502734375 -0.2593294 0.3778625
0.651421875 -0.1388141 0.4390562
0.6525703125 -0.004345008 0.4636278
0.65371875 0.133112 0.447781
0.6548671875 0.2613722 0.3918616
0.656015625 0.3690983 0.3000595
0.6571640625 0.4459453 0.1792126
0.6583125 0.4843841 0.03926293
0.6594609375 0.4802736 -0.1066603
0.660609375 0.432762 -0.2474099
0.6617578125 0.3460245 -0.369181
0.66290625 0.2260905 -0.4624314
0.6640546875 0.08214789 -0.5187643
0.665203125 -0.07522821 -0.532195
0.6663515625 -0.234073 -0.500006
0.6675 -0.3811746 -0.4227457
0.6686484375 -0.5055754 -0.3029777
0.669796875 -0.595638 -0.1473161
0.6709453125 -0.6409515 0.03696563
0.67209375 -0.6328681 0.2363263
0.6732421875 -0.5649031 0.4390583
0.674390625 -0.4326333 0.6272618
0.6755390625 -0.2373733 0.7821815
0.6766875 0.0166406 0.8832237
0.6778359375 0.3194822 0.9078069
0.678984375 0.6506813 0.833609
0.6801328125 0.9853104 0.6396565
0.68128125 1.285521 0.3063101
0.6824296875 1.497504 -0.1826787
0.683578125 1.541313 -0.8340783
0.6847265625 1.294312 -1.627363
0.685875 0.5548658 -2.457278
0.6870234375 -0.917227 -2.940009
0.688171875 -2.919167 -2.154496
0.6893203125 -3.754593 0.312369
0.69046875 -2.387164 2.312852
0.6916171875 -0.5970144 2.631593
0.692765625 0.557934 2.102704
0.6939140625 1.124012 1.387988
0.6950625 1.314428 0.7284282
0.6962109375 1.279372 0.1875678
0.697359375 1.111382 -0.2257761
0.6985078125 0.8690791 -0.5172085
0.69965625 0.5918128 -0.6970468
0.7008046875 0.3087008 -0.7775686
0.701953125 0.04210443 -0.772246
0.7031015625 -0.1909576 -0.6959471
0.70425 -0.3774479 -0.5641506
0.7053984375 -0.5081601 -0.3937202
0.706546875 -0.5779347 -0.202404
0.7076953125 -0.5863807 -0.008252605
0.70884375 -0.5375182 0.1718745
0.7099921875 -0.4395147 0.3228887
0.711140625 -0.3043925 0.4329277
0.7122890625 -0.1464348 0.4942433
0.7134375 0.01839533 0.5038072
0.7145859375 0.1748901 0.46309
0.715734375 0.3085062 0.3777423
0.7168828125 0.4083665 0.2574227
0.71803125 0.4665693 0.1138256
0.7191796875 0.4783084 -0.03982204
0.720328125 0.4432967 -0.1903684
0.7214765625 0.3647427 -0.3241686
0.722625 0.2479718 -0.4303458
0.7237734375 0.1013558 -0.4985855
0.724921875 -0.06356611 -0.5208662
0.7260703125 -0.2347206 -0.4923407
0.72721875 -0.3975437 -0.4103258
0.7283671875 -0.5366401 -0.2756499
0.729515625 -0.6361467 -0.09295765
0.7306640625 -0.6796434 0.127855
0.7318125 -0.6515661 0.3739519
0.7329609375 -0.5377886 0.6256988
0.734109375 -0.3278805 0.8573734
0.7352578125 -0.01319122 1.035992
0.73640625 0.4078504 1.118087
0.7375546875 0.9277937 1.042968
0.738703125 1.518474 0.7199232
0.7398515625 2.085619 0.003841706
0.741 2.325871 -1.303871
0.7421484375 1.389597 -3.097445
0.743296875 -1.359517 -3.57495
0.7444453125 -3.125784 -1.402518
0.74559375 -2.644917 0.5765204
0.7467421875 -1.599704 1.405892
0.747890625 -0.7023621 1.57652
0.7490390625 -0.04338871 1.388564
0.7501875 0.3884292 1.13142
0.7513359375 0.6595268 0.8215744
0.752484375 0.8006011 0.5014832
0.7536328125 0.8377532 0.1985263
0.75478125 0.7909945 -0.07037669
0.7559296875 0.6808856 -0.2936033
0.757078125 0.5244059 -0.461852
0.7582265625 0.3380836 -0.5707999
0.759375 0.1398363 -0.6189899
0.7605234375 -0.05441082 -0.6080567
0.761671875 -0.2301276 -0.5438017
0.7628203125 -0.3743457 -0.4347875
0.76396875 -0.476816 -0.2922065
0.7651171875 -0.53126 -0.1298732
0.766265625 -0.5351611 0.03699819
0.7674140625 -0.4904829 0.1943198
0.7685625 -0.4028077 0.3285388
0.7697109375 -0.2818651 0.4294992
0.770859375 -0.1387225 0.4894889
0.7720078125 0.01373404 0.5052224
0.77315625 0.1623373 0.4764657
0.7743046875 0.2957421 0.4069636
0.775453125 0.4035318 0.3024371
0.7766015625 0.4772959 0.1717488
0.77775 0.5119601 0.02485629
0.7788984375 0.5039107 -0.1276436
0.780046875 0.4527735 -0.2739899
0.7811953125 0.3609621 -0.4032196
0.78234375 0.2333371 -0.5048881
0.7834921875 0.07740401 -0.5682317
0.784640625 -0.09666526 -0.5859433
0.7857890625 -0.2766429 -0.5527601
0.7869375 -0.4477042 -0.4651273
0.7880859375 -0.5941306 -0.3252847
0.789234375 -0.7005078 -0.1381404
0.7903828125 -0.7510209 0.08578172
0.79153125 -0.7329871 0.3310206
0.7926796875 -0.6367782 0.578519
0.793828125 -0.457994 0.8050253
0.7949765625 -0.1977832 0.9846665
0.796125 0.1368014 1.089602
0.7972734375 0.5314581 1.091125
0.798421875 0.9640942 0.9571241
0.7995703125 1.402328 0.6506536
0.80071875 1.789292 0.1254772
0.8018671875 2.020904 -0.6753119
0.803015625 1.874443 -1.790029
0.8041640625 0.9113588 -3.058181
0.8053125 -1.273879 -3.556135
0.8064609375 -3.406368 -1.890556
0.807609375 -3.34817 0.5813738
0.8087578125 -2.040103 1.836579
0.80990625 -0.8057078 2.062399
0.8110546875 0.0610902 1.823624
0.812203125 0.6071132 1.418363
0.8133515625 0.9134048 0.9717423
0.8145 1.041208 0.541221
0.8156484375 1.036124 0.158189
0.816796875 0.9338734 -0.1603435
0.8179453125 0.7640606 -0.4056326
0.81909375 0.5529758 -0.5734331
0.8202421875 0.3238603 -0.6635292
0.821390625 0.09788743 -0.6813445
0.8225390625 -0.1068911 -0.6355445
0.8236875 -0.2771432 -0.5391064
0.8248359375 -0.4027395 -0.4065209
0.825984375 -0.4796484 -0.2529236
0.8271328125 -0.5069844 -0.09343461
0.82828125 -0.4882904 0.05843452
0.8294296875 -0.4300534 0.191499
0.830578125 -0.3410397 0.2972478
0.8317265625 -0.2305752 0.3702942
0.832875 -0.1089156 0.4079431
0.8340234375 0.01422343 0.4101457
0.835171875 0.1295261 0.3786522
0.8363203125 0.2292227 0.3178492
0.83746875 0.306509 0.2331666
0.8386171875 0.3562416 0.1317982
0.839765625 0.3753984 0.02168755
0.8409140625 0.3626403 -0.088992
0.8420625 0.3189866 -0.1912323
0.8432109375 0.2473338 -0.2767106
0.844359375 0.1538405 -0.3382196
0.8455078125 0.0456606 -0.3698975
0.84665625 -0.06837943 -0.368183
0.8478046875 -0.1773574 -0.3326053
0.848953125 -0.272339 -0.265386
0.8501015625 -0.3434402 -0.1718841
0.85125 -0.3838992 -0.05960649
0.8523984375 -0.3891302 0.06120224
0.853546875 -0.3576068 0.1798418
0.8546953125 -0.2913552 0.2857949
0.85584375 -0.1944999 0.3692881
0.8569921875 -0.07442985 0.4218723
0.858140625 0.05979943 0.4379679
0.8592890625 0.1981236 0.4132344
0.8604375 0.3291283 0.3470558
0.8615859375 0.4413051 0.2402909
0.862734375 0.5235546 0.09665654
0.8638828125 0.5636536 -0.07726005
0.86503125 0.5504957 -0.2726406
0.8661796875 0.4730785 -0.4760797
0.867328125 0.3199024 -0.6705391
0.8684765625 0.0809956 -0.8308619
0.869625 -0.2517349 -0.9222887
0.8707734375 -0.6785453 -0.8879656
0.871921875 -1.175919 -0.6372737
0.8730703125 -1.633217 -0.02921518
0.87421875 -1.700521 1.042032
0.8753671875 -0.7642369 2.149498
0.876515625 0.8557373 2.071662
0.8776640625 1.664019 0.9389647
0.8788125 1.543155 -0.06623004
0.8799609375 1.090532 -0.6200765
0.881109375 0.614134 -0.8406149
0.8822578125 0.210092 -0.8577053
0.88340625 -0.09958055 -0.7578599
0.8845546875 -0.3151844 -0.5948598
0.885703125 -0.4456641 -0.4044359
0.8868515625 -0.5025224 -0.2110581
0.888 -0.4981187 -0.03190953
0.8891484375 -0.4456729 0.1212718
0.890296875 -0.3581272 0.2410696
0.8914453125 -0.2476119 0.3225746
0.89259375 -0.1260518 0.3651132
0.8937421875 -0.004209019 0.3695017
0.894890625 0.1083173 0.339229
0.8960390625 0.2030215 0.2790622
0.8971875 0.2735114 0.1960009
0.8983359375 0.314818 0.09787689
0.899484375 0.3246601 -0.006201937
0.9006328125 0.3027192 -0.1073003
0.90178125 0.2514611 -0.1959013
0.9029296875 0.1757286 -0.264268
0.904078125 0.08304625 -0.3061308
0.9052265625 -0.01811282 -0.3171576
0.906375 -0.118061 -0.2963615
0.9075234375 -0.2070776 -0.2456883
0.908671875 -0.2766019 -0.1695974
0.9098203125 -0.319998 -0.07476921
0.91096875 -0.332457 0.02967785
0.9121171875 -0.312349 0.1346316
0.913265625 -0.2606029 0.2304171
0.9144140625 -0.1811095 0.30798
0.9155625 -0.0790586 0.3598088
0.9167109375 0.0374703 0.3800305
0.917859375 0.1595016 0.3642544
0.9190078125 0.2770251 0.3111374
0.92015625 0.3789912 0.2209761
0.9213046875 0.4549569 0.09727036
0.922453125 0.4938812 -0.05356022
0.9236015625 0.4853955 -0.2226714
0.92475 0.4214161 -0.3971221
0.9258984375 0.2949494 -0.5597855
0.927046875 0.1028946 -0.6899951
0.9281953125 -0.1520494 -0.7621397
0.92934375 -0.4599678 -0.7450226
0.9304921875 -0.7972566 -0.6014974
0.931640625 -1.116343 -0.2894303
0.9327890625 -1.328421 0.2272264
0.9339375 -1.272811 0.9404705
0.9350859375 -0.730005 1.682621
0.936234375 0.3576661 1.992427
0.9373828125 1.463288 1.430641
0.93853125 1.856638 0.3372856
0.9396796875 1.542137 -0.5704554
0.940828125 0.9542133 -1.035226
0.9419765625 0.3816375 -1.148369
0.943125 -0.07275504 -1.049828
0.9442734375 -0.391529 -0.8411447
0.945421875 -0.5865156 -0.5862285
0.9465703125 -0.6762835 -0.3242691
0.94771875 -0.6813944 -0.08058871
0.9488671875 -0.620665 0.1292618
0.950015625 -0.5116285 0.2954454
0.9511640625 -0.3709351 0.4129758
0.9523125 -0.2136486 0.4792736
0.9534609375 -0.05380097 0.4963625
0.954609375 0.09573002 0.4680624
0.9557578125 0.2244589 0.4004742
0.95690625 0.3238927 0.3023099
0.9580546875 0.3874878 0.1837299
0.959203125 0.4127145 0.05593118
0.9603515625 0.3995903 -0.06962404
0.9615 0.3509832 -0.1827549
0.9626484375 0.2733873 -0.2738658
0.963796875 0.1747075 -0.3365614
0.9649453125 0.06439423 -0.3667067
0.96609375 -0.04755936 -0.3631331
0.9672421875 -0.1514996 -0.3277988
0.968390625 -0.2391189 -0.2648907
0.9695390625 -0.303888 -0.1806779
0.9706875 -0.341539 -0.08266078
0.9718359375 -0.3494018 0.021308
0.972984375 -0.3275567 0.1227889
0.9741328125 -0.2781187 0.2138613
0.97528125 -0.2048855 0.2877343
0.9764296875 -0.1129043 0.3381104
0.977578125 -0.009078451 0.3613029
0.9787265625 0.09881458 0.3540756
0.979875 0.2025816 0.3158026
0.9810234375 0.2937746 0.2480566
0.982171875 0.3637957 0.1539777
0.9833203125 0.4053878 0.04012642
0.98446875 0.4129182 -0.08579439
0.9856171875 0.3820193 -0.2138443
0.986765625 0.3121662 -0.3323808
0.9879140625 0.2055571 -0.430282
0.9890625 0.06769552 -0.4957092
0.9902109375 -0.09209108 -0.5187417
0.991359375 -0.2618643 -0.4921122
0.9925078125 -0.4270587 -0.4110289
0.99365625 -0.5714352 -0.2751328
0.9948046875 -0.6779317 -0.08762994
0.995953125 -0.7290449 0.1442305
0.9971015625 -0.7059732 0.4087968
0.99825 -0.5912867 0.68783
0.9993984375 -0.3638111 0.9563522
1.000546875 -0.0002337927 1.174773
