# GHZ S RI R 50.0
0.3 -6.73315 -7.796124
0.3011484375 -10.82431 0.5972807
0.302296875 -5.452009 6.301895
0.3034453125 -0.8268599 5.916982
0.30459375 1.327613 4.249299
0.3057421875 2.182154 2.710861
0.306890625 2.403743 1.492697
0.3080390625 2.30489 0.5675328
0.3091875 2.040921 -0.1190113
0.3103359375 1.693023 -0.6135531
0.311484375 1.304783 -0.9540119
0.3126328125 0.905109 -1.16415
0.31378125 0.509504 -1.26688
0.3149296875 0.1328758 -1.274285
0.316078125 -0.2125382 -1.197193
0.3172265625 -0.5164053 -1.044011
0.318375 -0.7662499 -0.8250549
0.3195234375 -0.9448131 -0.5526575
0.320671875 -1.039947 -0.2433834
0.3218203125 -1.040261 0.07936729
0.32296875 -0.9435137 0.3831548
0.3241171875 -0.7583168 0.638307
0.325265625 -0.5070496 0.8175371
0.3264140625 -0.2210708 0.9023934
0.3275625 0.06412924 0.8911098
0.3287109375 0.3167571 0.7963875
0.329859375 0.5174773 0.6381548
0.3310078125 0.6536421 0.4410023
0.33215625 0.722757 0.2272165
0.3333046875 0.7310038 0.01494885
0.334453125 0.6855564 -0.1818474
0.3356015625 0.5951836 -0.3527837
0.33675 0.469014 -0.4917963
0.3378984375 0.3168258 -0.593159
0.339046875 0.1456177 -0.6538106
0.3401953125 -0.03608338 -0.6714477
0.34134375 -0.2182876 -0.6434805
0.3424921875 -0.3927762 -0.5683221
0.343640625 -0.5483912 -0.4465862
0.3447890625 -0.6710349 -0.2817149
0.3459375 -0.7473482 -0.07879627
0.3470859375 -0.7636757 0.1496561
0.348234375 -0.7083208 0.3855762
0.3493828125 -0.576703 0.6053922
0.35053125 -0.3729098 0.7805767
0.3516796875 -0.111828 0.8862745
0.352828125 0.1776655 0.9023855
0.3539765625 0.4652787 0.8222367
0.355125 0.7183362 0.6521276
0.3562734375 0.9099271 0.4067126
0.357421875 1.021852 0.1108152
0.3585703125 1.044606 -0.2137427
0.35971875 0.9732572 -0.5434223
0.3608671875 0.8075113 -0.8570617
0.362015625 0.5476393 -1.135542
0.3631640625 0.1929838 -1.356457
0.3643125 -0.2618063 -1.494979
0.3654609375 -0.8221302 -1.511032
0.366609375 -1.491603 -1.338362
0.3677578125 -2.257664 -0.8515362
0.36890625 -3.012803 0.1822917
0.3700546875 -3.274648 2.119626
0.371203125 -1.598618 4.660825
0.3723515625 2.404066 4.644124
0.3735 4.152454 1.485088
0.3746484375 3.32518 -0.8369774
0.375796875 2.017084 -1.804579
0.3769453125 0.8854312 -2.019756
0.37809375 0.02983514 -1.847275
0.3792421875 -0.5613662 -1.476755
0.380390625 -0.9170593 -1.02045
0.3815390625 -1.070463 -0.5545391
0.3826875 -1.061201 -0.1326013
0.3838359375 -0.9332554 0.2110305
0.384984375 -0.7293178 0.4603262
0.3861328125 -0.4890421 0.6134336
0.38728125 -0.2416114 0.6782632
0.3884296875 -0.01208763 0.6664502
0.389578125 0.186351 0.5947158
0.3907265625 0.343577 0.4782265
0.391875 0.4541951 0.3315129
0.3930234375 0.5159314 0.1674384
0.394171875 0.529304 -0.002031526
0.3953203125 0.4947316 -0.165593
0.39646875 0.4160167 -0.3117694
0.3976171875 0.2972651 -0.4305563
0.398765625 0.1460451 -0.5113586
0.3999140625 -0.02878492 -0.5448233
0.4010625 -0.2136137 -0.5221926
0.4022109375 -0.391576 -0.4381516
0.403359375 -0.5413201 -0.2936383
0.4045078125 -0.6415932 -0.09534721
0.40565625 -0.6713187 0.140019
0.4068046875 -0.616478 0.3875478
0.407953125 -0.4708742 0.6166196
0.4091015625 -0.2411046 0.7948396
0.41025 0.05615746 0.8928949
0.4113984375 0.3957412 0.8870043
0.412546875 0.7464949 0.7608629
0.4136953125 1.075089 0.5023013
0.41484375 1.343057 0.1000223
0.4159921875 1.494794 -0.4617126
0.417140625 1.43963 -1.198998
0.4182890625 0.9892802 -2.10217
0.4194375 -0.2220044 -2.965278
0.4205859375 -2.480013 -2.803206
0.421734375 -4.050852 -0.2578296
0.4228828125 -2.745495 2.218251
0.42403125 -0.8326966 2.672606
0.4251796875 0.3839167 2.209656
0.426328125 1.020555 1.553052
0.4274765625 1.29931 0.9177387
0.428625 1.352123 0.3591149
0.4297734375 1.250566 -0.1069053
0.430921875 1.043383 -0.4692048
0.4320703125 0.76718 -0.7244455
0.43321875 0.4548307 -0.8692192
0.4343671875 0.1389168 -0.9073327
0.435515625 -0.1507652 -0.8486959
0.4366640625 -0.3897931 -0.7126311
0.4378125 -0.5619763 -0.5222364
0.4389609375 -0.6590121 -0.3036075
0.440109375 -0.6835704 -0.08172054
0.4412578125 -0.6432851 0.1228262
0.44240625 -0.5509177 0.2953716
0.4435546875 -0.4216228 0.426014
0.444703125 -0.2693801 0.5105989
0.4458515625 -0.1074347 0.5482374
0.447 0.05106858 0.5413627
0.4481484375 0.1977446 0.4941268
0.449296875 0.323514 0.4118456
0.4504453125 0.4220574 0.3012072
0.45159375 0.4875004 0.1692453
0.4527421875 0.5156506 0.02446638
0.453890625 0.5036258 -0.1239479
0.4550390625 0.4506821 -0.2655639
0.4561875 0.3583815 -0.3891639
0.4573359375 0.2317959 -0.4837744
0.458484375 0.07953781 -0.5389333
0.4596328125 -0.08657175 -0.5461461
0.46078125 -0.250712 -0.5020978
0.4619296875 -0.3964903 -0.4080244
0.463078125 -0.5075738 -0.2716376
0.4642265625 -0.5719644 -0.1059646
0.465375 -0.5819834 0.07251617
0.4665234375 -0.537754 0.2458777
0.467671875 -0.4437686 0.3978806
0.4688203125 -0.3095937 0.5155131
0.46996875 -0.1475224 0.58961
0.4711171875 0.02927312 0.6152761
0.472265625 0.207693 0.5914177
0.4734140625 0.3751321 0.5195194
0.4745625 0.5206942 0.4033287
0.4757109375 0.6337432 0.2490022
0.476859375 0.7054078 0.06314433
0.4780078125 0.7275235 -0.1448534
0.47915625 0.6923717 -0.3636865
0.4803046875 0.5938458 -0.5802049
0.481453125 0.4295155 -0.7763541
0.4826015625 0.1985616 -0.9344826
0.48375 -0.09432621 -1.032338
0.4848984375 -0.437585 -1.044715
0.486046875 -0.8113748 -0.9475242
0.4871953125 -1.184873 -0.7173944
0.48834375 -1.516464 -0.3368664
0.4894921875 -1.750514 0.2050992
0.490640625 -1.813462 0.9069017
0.4917890625 -1.605733 1.747732
0.4929375 -0.983108 2.666304
0.4940859375 0.2781982 3.477266
0.495234375 2.425655 3.633365
0.4963828125 5.010906 1.846577
0.49753125 5.267967 -2.184428
0.4986796875 2.205739 -4.479772
0.499828125 -0.5063314 -3.928792
0.5009765625 -1.769588 -2.586412
0.502125 -2.148693 -1.366854
0.5032734375 -2.088456 -0.4261982
0.504421875 -1.812389 0.2553473
0.5055703125 -1.434688 0.7231138
0.50671875 -1.016469 1.014887
0.5078671875 -0.5948387 1.159094
0.509015625 -0.1967942 1.181132
0.5101640625 0.1577004 1.10047
0.5113125 0.4522316 0.9380582
0.5124609375 0.6744301 0.7141757
0.513609375 0.815783 0.4514364
0.5147578125 0.8716949 0.1729084
0.51590625 0.8442607 -0.09745688
0.5170546875 0.7415693 -0.3371159
0.518203125 0.5787979 -0.5256509
0.5193515625 0.3750572 -0.6513546
0.5205 0.1526276 -0.7072483
0.5216484375 -0.06687382 -0.6941587
0.522796875 -0.2635331 -0.6198301
0.5239453125 -0.4228513 -0.4957903
0.52509375 -0.5349722 -0.3371855
0.5262421875 -0.5946278 -0.1598493
0.527390625 -0.6013301 0.02188737
0.5285390625 -0.5585505 0.1924363
0.5296875 -0.4714006 0.3419694
0.5308359375 -0.3484369 0.4603283
0.531984375 -0.1988459 0.539348
0.5331328125 -0.03248584 0.5748383
0.53428125 0.1375432 0.563084
0.5354296875 0.3005394 0.5034587
0.536578125 0.4437745 0.3985947
0.5377265625 0.5548362 0.2527184
0.538875 0.6212137 0.07598154
0.5400234375 0.6342366 -0.1210736
0.541171875 0.5864381 -0.3214072
0.5423203125 0.4753912 -0.507638
0.54346875 0.3040632 -0.6601683
0.5446171875 0.08293068 -0.7584216
0.545765625 -0.1738554 -0.7855388
0.5469140625 -0.4441473 -0.728932
0.5480625 -0.7037286 -0.5810778
0.5492109375 -0.9233363 -0.3408602
0.550359375 -1.072917 -0.0130071
0.5515078125 -1.119782 0.3914192
0.55265625 -1.025631 0.8550755
0.5538046875 -0.7389309 1.348585
0.554953125 -0.182606 1.811613
0.5561015625 0.7538763 2.092582
0.55725 2.133331 1.78994
0.5583984375 3.407182 0.1408574
0.559546875 2.67788 -2.429157
0.5606953125 0.2860123 -3.116742
0.56184375 -1.214161 -2.158948
0.5629921875 -1.663828 -1.051757
0.564140625 -1.598509 -0.2117359
0.5652890625 -1.313843 0.3566268
0.5664375 -0.9448297 0.7066309
0.5675859375 -0.5580485 0.8823589
0.568734375 -0.1926067 0.9198483
0.5698828125 0.1247128 0.8483939
0.57103125 0.3754774 0.6960483
0.5721796875 0.5484637 0.4910579
0.573328125 0.639227 0.2604128
0.5744765625 0.6509634 0.03022584
0.575625 0.5927562 -0.1776109
0.5767734375 0.4788525 -0.3461287
0.577921875 0.3266359 -0.4636288
0.5790703125 0.1541746 -0.5256794
0.58021875 -0.02055223 -0.5312902
0.5813671875 -0.1828636 -0.4858074
0.582515625 -0.3199682 -0.397085
0.5836640625 -0.4224474 -0.2749302
0.5848125 -0.4843266 -0.1303237
0.5859609375 -0.5015357 0.02497028
0.587109375 -0.4730572 0.1779107
0.5882578125 -0.401509 0.3180145
0.58940625 -0.2908756 0.4336731
0.5905546875 -0.1481999 0.5145253
0.591703125 0.01691326 0.5519162
0.5928515625 0.1925964 0.5392512
0.594 0.3642332 0.4727323
0.5951484375 0.5159523 0.3524419
0.596296875 0.6312059 0.1827794
0.5974453125 0.6937922 -0.02531112
0.59859375 0.690281 -0.2572995
0.5997421875 0.6112315 -0.4929463
0.600890625 0.4531554 -0.7090325
0.6020390625 0.2185711 -0.8800154
0.6031875 -0.08198968 -0.9805147
0.6043359375 -0.4321636 -0.986455
0.605484375 -0.8084858 -0.8751233
0.6066328125 -1.180423 -0.6246279
0.60778125 -1.507297 -0.2117948
0.6089296875 -1.725876 0.3905471
0.610078125 -1.731202 1.206193
0.6112265625 -1.316341 2.224439
0.612375 -0.1081625 3.232792
0.6135234375 2.185649 3.308342
0.614671875 4.154505 1.089994
0.6158203125 3.455918 -1.70045
0.61696875 1.559894 -2.707926
0.6181171875 0.1014534 -2.514288
0.619265625 -0.7590863 -1.929139
0.6204140625 -1.199729 -1.28231
0.6215625 -1.361681 -0.681769
0.6227109375 -1.335844 -0.1655637
0.623859375 -1.182056 0.2501282
0.6250078125 -0.9443179 0.558727
0.62615625 -0.6596595 0.7605176
0.6273046875 -0.3589714 0.8585362
0.628453125 -0.06921818 0.8626986
0.6296015625 0.1869032 0.7870592
0.63075 0.3928302 0.6497841
0.6318984375 0.5386488 0.4709927
0.633046875 0.6200227 0.2715149
0.6341953125 0.6387233 0.07043483
0.63534375 0.6008828 -0.11594
0.6364921875 0.5168539 -0.2745471
0.637640625 0.3978767 -0.3966381
0.6387890625 0.256303 -0.4767081
0.6399375 0.1047444 -0.5130682
0.6410859375 -0.04517804 -0.5066401
0.642234375 -0.1835908 -0.4609396
0.6433828125 -0.3008724 -0.3814458
0.64453125 -0.3906307 -0.2750314
0.6456796875 -0.4470316 -0.1498553
0.646828125 -0.4665926 -0.01567249
0.6479765625 -0.4483262 0.1181442
0.649125 -0.3935755 0.2411908
0.6502734375 -0.3062992 0.3443221
0.651421875 -0.1928429 0.4186437
0.6525703125 -0.06218496 0.4574117
0.65371875 0.07476439 0.4569853
0.6548671875 0.2067852 0.416268
0.656015625 0.3216665 0.3381778
0.6571640625 0.4089938 0.2293579
0.6583125 0.4611428 0.09895539
0.6594609375 0.4730533 -0.04145788
0.660609375 0.4433008 -0.1800396
0.6617578125 0.3741575 -0.3051015
0.66290625 0.2717451 -0.4053395
0.6640546875 0.1435633 -0.4730263
0.665203125 1.836988E-05 -0.5020219
0.6663515625 -0.1485227 -0.4894888
0.6675 -0.2902121 -0.4349787
0.6686484375 -0.4141689 -0.3410582
0.669796875 -0.5102744 -0.2123961
0.6709453125 -0.5691394 -0.05687646
0.67209375 -0.5831589 0.1159265
0.6732421875 -0.5466399 0.294315
0.674390625 -0.4568416 0.464376
0.6755390625 -0.3141461 0.6103436
0.6766875 -0.1227601 0.7167728
0.6778359375 0.1060966 0.7669545
0.678984375 0.3594137 0.7465311
0.6801328125 0.6168192 0.6445917
0.68128125 0.8536968 0.4532521
0.6824296875 1.041406 0.1724622
0.683578125 1.146615 -0.1918246
0.6847265625 1.132855 -0.623768
0.685875 0.9613343 -1.096567
0.6870234375 0.5842592 -1.564434
0.688171875 -0.05307663 -1.948233
0.6893203125 -1.003188 -2.092244
0.69046875 -2.240677 -1.689353
0.6916171875 -3.348589 -0.2731145
0.692765625 -3.113715 2.048219
0.6939140625 -1.037553 3.416361
0.6950625 0.9670712 2.872664
0.6962109375 1.847004 1.643539
0.697359375 1.951164 0.5664717
0.6985078125 1.691508 -0.1962926
0.69965625 1.291541 -0.6808631
0.7008046875 0.854997 -0.9475842
0.701953125 0.4353196 -1.047553
0.7031015625 0.06244389 -1.020482
0.70425 -0.2461952 -0.8999072
0.7053984375 -0.4799891 -0.7131382
0.706546875 -0.6333991 -0.4867785
0.7076953125 -0.706398 -0.2443011
0.70884375 -0.7037951 -0.008240908
0.7099921875 -0.6344779 0.202994
0.711140625 -0.5116363 0.3732627
0.7122890625 -0.3512397 0.4926975
0.7134375 -0.1717616 0.5537069
0.7145859375 0.01031124 0.5577913
0.715734375 0.1781253 0.5086066
0.7168828125 0.3180861 0.4146093
0.71803125 0.4205539 0.2872933
0.7191796875 0.4784882 0.1391683
0.720328125 0.4895353 -0.01634424
0.7214765625 0.4548282 -0.1652008
0.722625 0.3784816 -0.2961434
0.7237734375 0.2675905 -0.3986652
0.724921875 0.1308217 -0.4642003
0.7260703125 -0.02087961 -0.4868824
0.72721875 -0.1753065 -0.4633463
0.7283671875 -0.3197561 -0.3933663
0.729515625 -0.4402712 -0.2800321
0.7306640625 -0.5248833 -0.1293963
0.7318125 -0.5618849 0.04817475
0.7329609375 -0.5416989 0.2386193
0.734109375 -0.4590079 0.4256708
0.7352578125 -0.3126723 0.5896135
0.73640625 -0.1062144 0.7092891
0.7375546875 0.1503099 0.7636422
0.738703125 0.440036 0.7314461
0.7398515625 0.7403191 0.5926371
0.741 1.017223 0.3318063
0.7421484375 1.228719 -0.07081857
0.743296875 1.305659 -0.62813
0.7444453125 1.131994 -1.342372
0.74559375 0.4903857 -2.13866
0.7467421875 -0.9469361 -2.620055
0.747890625 -2.91395 -1.632796
0.7490390625 -3.062341 0.8926696
0.7501875 -1.466815 2.203864
0.7513359375 -0.06111665 2.090379
0.752484375 0.7070777 1.528113
0.7536328125 1.044112 0.9331436
0.75478125 1.124707 0.4132873
0.7559296875 1.051382 -0.00569794
0.757078125 0.8830622 -0.3231162
0.7582265625 0.6603601 -0.5433043
0.759375 0.4124258 -0.6716193
0.7605234375 0.1622748 -0.7162027
0.761671875 -0.07049657 -0.6872044
0.7628203125 -0.2700532 -0.5965121
0.76396875 -0.4237296 -0.4585721
0.7651171875 -0.5239127 -0.2899106
0.766265625 -0.5668604 -0.1076732
0.7674140625 -0.5539004 0.07146921
0.7685625 -0.4900082 0.2321162
0.7697109375 -0.3851181 0.3622571
0.770859375 -0.2503435 0.4524584
0.7720078125 -0.09901785 0.4977683
0.77315625 0.05504031 0.4968899
0.7743046875 0.1994214 0.451955
0.775453125 0.3229066 0.3689176
0.7766015625 0.4164389 0.2552488
0.77775 0.4736026 0.1206577
0.7788984375 0.4901424 -0.02475185
0.780046875 0.4651694 -0.1697618
0.7811953125 0.3995429 -0.3031831
0.78234375 0.2974335 -0.4144234
0.7834921875 0.1654112 -0.4942285
0.784640625 0.01176074 -0.5342495
0.7857890625 -0.1518495 -0.5288393
0.7869375 -0.3127795 -0.4748939
0.7880859375 -0.4569468 -0.3726897
0.789234375 -0.5702571 -0.2267209
0.7903828125 -0.6391744 -0.04539633
0.79153125 -0.6528325 0.1582224
0.7926796875 -0.6031466 0.3683331
0.793828125 -0.4869228 0.5658554
0.7949765625 -0.3069667 0.7309567
0.796125 -0.07013252 0.842834
0.7972734375 0.2106465 0.8838363
0.798421875 0.5168357 0.8372949
0.7995703125 0.8256166 0.6885098
0.80071875 1.109485 0.42652
0.8018671875 1.332009 0.04207132
0.803015625 1.444815 -0.4724624
0.8041640625 1.37338 -1.115768
0.8053125 0.9955782 -1.859842
0.8064609375 0.1107178 -2.569538
0.807609375 -1.479667 -2.784883
0.8087578125 -3.32465 -1.558654
0.80990625 -3.563607 1.001093
0.8110546875 -1.913673 2.570491
0.812203125 -0.2458853 2.592473
0.8133515625 0.7531905 1.982167
0.8145 1.224066 1.26955
0.8156484375 1.362653 0.6282244
0.816796875 1.298344 0.1042383
0.8179453125 1.111375 -0.2938168
0.81909375 0.8553528 -0.5711637
0.8202421875 0.568795 -0.7357712
0.821390625 0.2819969 -0.8006861
0.8225390625 0.01759662 -0.7800875
0.8236875 -0.2066304 -0.6919997
0.8248359375 -0.3791371 -0.5545292
0.825984375 -0.4948623 -0.387002
0.8271328125 -0.5523815 -0.2070751
0.82828125 -0.555821 -0.03138302
0.8294296875 -0.5120918 0.1276545
0.830578125 -0.4299463 0.2595268
0.8317265625 -0.3202992 0.3571827
0.832875 -0.1940403 0.4178702
0.8340234375 -0.0620948 0.4394063
0.835171875 0.06581058 0.4243954
0.8363203125 0.1806864 0.3760622
0.83746875 0.2749653 0.3001562
0.8386171875 0.3427761 0.2029424
0.839765625 0.3802544 0.09289461
0.8409140625 0.3851252 -0.02177467
0.8420625 0.3575504 -0.1319408
0.8432109375 0.3000716 -0.229203
0.844359375 0.2176186 -0.3053319
0.8455078125 0.1167091 -0.3543752
0.84665625 0.005716606 -0.3715778
0.8478046875 -0.1051657 -0.3555921
0.848953125 -0.2067605 -0.3075128
0.8501015625 -0.2894911 -0.2313953
0.85125 -0.3460748 -0.134088
0.8523984375 -0.3712827 -0.0239054
0.853546875 -0.3627971 0.08875124
0.8546953125 -0.3215801 0.1946659
0.85584375 -0.2507581 0.2842333
0.8569921875 -0.1561156 0.3500877
0.858140625 -0.04529705 0.3863016
0.8592890625 0.07308518 0.3892208
0.8604375 0.1898625 0.3574592
0.8615859375 0.2955182 0.2923988
0.862734375 0.3814382 0.1969775
0.8638828125 0.4390443 0.07630571
0.86503125 0.4610571 -0.06231669
0.8661796875 0.4417431 -0.2095493
0.867328125 0.3772143 -0.3540371
0.8684765625 0.265339 -0.4834288
0.869625 0.1079136 -0.5827631
0.8707734375 -0.09084707 -0.6363513
0.871921875 -0.3208164 -0.6273494
0.8730703125 -0.5674236 -0.5373229
0.87421875 -0.8063454 -0.3478597
0.8753671875 -1.002151 -0.04115831
0.876515625 -1.097411 0.3976998
0.8776640625 -0.9957177 0.9655021
0.8788125 -0.5338967 1.588635
0.8799609375 0.4726229 1.964417
0.881109375 1.793755 1.42594
0.8822578125 2.253639 -0.09748998
0.88340625 1.482956 -1.246644
0.8845546875 0.4945925 -1.493552
0.885703125 -0.1922762 -1.265057
0.8868515625 -0.5720837 -0.8943591
0.888 -0.7347621 -0.520099
0.8891484375 -0.7552598 -0.1936299
0.890296875 -0.6838913 0.06870424
0.8914453125 -0.5564518 0.2631963
0.89259375 -0.3981327 0.3920322
0.8937421875 -0.2287318 0.4593447
0.894890625 -0.06350762 0.4718624
0.8960390625 0.08534884 0.4375531
0.8971875 0.2087004 0.3657252
0.8983359375 0.2989722 0.2664202
0.899484375 0.3527631 0.1503332
0.9006328125 0.3677187 0.02870299
0.90178125 0.3459539 -0.087272
0.9029296875 0.2914081 -0.187832
0.904078125 0.2105985 -0.264628
0.9052265625 0.1124846 -0.3114174
0.906375 0.00698788 -0.3252317
0.9075234375 -0.09594432 -0.3058123
0.908671875 -0.1862722 -0.2563902
0.9098203125 -0.2559325 -0.1823333
0.91096875 -0.2991104 -0.09136914
0.9121171875 -0.3121414 0.007755823
0.913265625 -0.2944942 0.105806
0.9144140625 -0.2480498 0.1940035
0.9155625 -0.1768249 0.2648109
0.9167109375 -0.0868609 0.3114667
0.917859375 0.01459788 0.3293914
0.9190078125 0.1193667 0.3162773
0.92015625 0.2182264 0.2713536
0.9213046875 0.3024398 0.19671
0.922453125 0.3633409 0.09641957
0.9236015625 0.3932124 -0.02330719
0.92475 0.3852014 -0.1536844
0.9258984375 0.3357747 -0.2837733
0.927046875 0.2426171 -0.4010419
0.9281953125 0.1075918 -0.4913746
0.92934375 -0.06314692 -0.539729
0.9304921875 -0.2587742 -0.531687
0.931640625 -0.4632641 -0.4543844
0.9327890625 -0.6532623 -0.2968133
0.9339375 -0.8003952 -0.05456709
0.9350859375 -0.865236 0.2713633
0.936234375 -0.7975278 0.6630359
0.9373828125 -0.5346668 1.074463
0.93853125 -0.01235421 1.39841
0.9396796875 0.7703049 1.423609
0.940828125 1.578493 0.8854586
0.9419765625 1.87059 -0.177025
0.943125 1.371175 -1.13961
0.9442734375 0.5121945 -1.499147
0.945421875 -0.2153905 -1.352633
0.9465703125 -0.6617054 -0.9798173
0.94771875 -0.8635384 -0.5623232
0.9488671875 -0.8916339 -0.1832474
0.950015625 -0.8054064 0.1249027
0.9511640625 -0.6492322 0.3532259
0.9523125 -0.4553231 0.5018126
0.9534609375 -0.2487224 0.5758303
0.954609375 -0.04856051 0.583458
0.9557578125 0.1301229 0.5349393
0.95690625 0.2756843 0.4420405
0.9580546875 0.3801998 0.3178019
0.959203125 0.4395529 0.1758866
0.9603515625 0.4530998 0.03022192
0.9615 0.4239985 -0.1065578
0.9626484375 0.3579092 -0.2233897
0.963796875 0.2642197 -0.3117652
0.9649453125 0.1523121 -0.3664328
0.96609375 0.03356649 -0.384887
0.9672421875 -0.08181263 -0.3680426
0.968390625 -0.1842286 -0.3197303
0.9695390625 -0.2660853 -0.2456269
0.9706875 -0.32178 -0.1531439
0.9718359375 -0.3482625 -0.05055286
0.972984375 -0.344636 0.05375522
0.9741328125 -0.3118325 0.1517634
0.97528125 -0.252949 0.2358405
0.9764296875 -0.1729189 0.2999696
0.977578125 -0.07775174 0.3390056
0.9787265625 0.02527452 0.3496138
0.979875 0.1283907 0.3305321
0.9810234375 0.2231888 0.2820882
0.982171875 0.30184 0.2070437
0.9833203125 0.3569858 0.1105067
0.98446875 0.3827769 -0.0007948214
0.9856171875 0.3744743 -0.1181276
0.986765625 0.3311867 -0.2315027
0.9879140625 0.2539074 -0.3306215
0.9890625 0.1469856 -0.4053912
0.9902109375 0.0179049 -0.4468786
0.991359375 -0.123438 -0.4485592
0.9925078125 -0.2653728 -0.4066297
0.99365625 -0.3947788 -0.320908
0.9948046875 -0.4988814 -0.1942585
0.995953125 -0.5654159 -0.03360528
0.9971015625 -0.5832221 0.1517829
0.99825 -0.543649 0.3487525
0.9993984375 -0.4400424 0.5419105
1.000546875 -0.2673209 0.7131702
1.0016953125 -0.02526029 0.8404311
