! MS46122B
! 2250307/22442219
! 7/31/2025 8:20:02 AM
! C:\USERS\SPARKY\DOCUMENTS\VNA_DATA\JULY31_2025\295K\ECAL_LOAD.S2P
! CHANNEL.1
! TR.MEASUREMENT
! RAW.DATA
# GHZ S RI R 50.0
! FREQ.GHZ         S11RE         S11IM         S21RE         S21IM         S12RE         S12IM         S22RE         S22IM         
!; PortSelection: Port_12
   0.001000000     1.0441660   -0.0696649    -0.0000050   -0.0000005     0.0000007    0.0000000     0.7979419   -0.5719911 
   0.002999900     0.9516973   -0.1917434     0.0000098    0.0000017     0.0000082   -0.0000046    -0.6010175   -0.5263417 
   0.004999800     0.8764662   -0.2756264    -0.0000228    0.0000142    -0.0000229   -0.0000003     0.4848742    0.8666686 
   0.006999700     0.7914962   -0.3645923     0.0000519   -0.0000062     0.0000549   -0.0000176     0.9738846    0.0265842 
   0.008999600     0.7002600   -0.4030009    -0.0000120   -0.0000200    -0.0000095   -0.0000222     0.7926702   -0.4933027 
   0.010999500     0.6235383   -0.4282464    -0.0000131    0.0000170    -0.0000149    0.0000001     0.4206865   -0.8004411 
   0.012999400     0.5575010   -0.4426436     0.0000687    0.0000979     0.0000295    0.0001011    -0.2059753   -0.8411133 
   0.014999300     0.5010351   -0.4493462     0.0000005   -0.0002908     0.0000061   -0.0002436    -0.5574758    0.3710053 
   0.016999200     0.4522815   -0.4502364    -0.0000533    0.0002165    -0.0000121    0.0001671     0.6961514    0.3087575 
   0.018999100     0.4115850   -0.4469034     0.0000755    0.0000368     0.0000756    0.0000459     0.7015523   -0.5532039 
   0.020999000     0.3778342   -0.4411316     0.0000226   -0.0000009     0.0000212   -0.0000032     0.3726420   -0.8400442 
   0.022998900     0.3491004   -0.4340247     0.0000176   -0.0000152     0.0000163   -0.0000204     0.0812448   -0.9252293 
   0.024998800     0.3194403   -0.4053088    -0.0000099   -0.0000068    -0.0000055   -0.0000097    -0.1599488   -0.9900610 
   0.026998700     0.3029438   -0.4180788    -0.0000059   -0.0000083    -0.0000027   -0.0000021    -0.3776966   -0.8551121 
   0.028998600     0.2838680   -0.4095693     0.0000003   -0.0000041     0.0000010   -0.0000029    -0.5516242   -0.7520379 
   0.030998500     0.2665046   -0.4011090     0.0000005   -0.0000030    -0.0000047   -0.0000010    -0.6900589   -0.6217284 
   0.032998400     0.2469694   -0.3753148     0.0000005    0.0000003     0.0000007   -0.0000015    -0.8415479   -0.5209101 
   0.034998300     0.2347705   -0.3845839    -0.0000012   -0.0000036    -0.0000019   -0.0000025    -0.8621033   -0.3122757 
   0.036998200     0.2205423   -0.3767740    -0.0000017   -0.0000030    -0.0000018   -0.0000054    -0.8970071   -0.1481482 
   0.038998100     0.2070037   -0.3692587    -0.0000029    0.0000008    -0.0000046    0.0000015    -0.9071435    0.0160506 
   0.040998000     0.1940081   -0.3619230    -0.0000011   -0.0000008    -0.0000016   -0.0000027    -0.8852244    0.1757266 
   0.042997900     0.1816815   -0.3548539    -0.0000058    0.0000026    -0.0000059    0.0000016    -0.8374852    0.3265569 
   0.044997800     0.1682454   -0.3336142    -0.0000103    0.0000126    -0.0000064    0.0000072    -0.8324394    0.4901722 
   0.046997700     0.1569038   -0.3414779     0.0000058    0.0000243     0.0000064    0.0000249    -0.6732773    0.5898261 
   0.048997600     0.1456144   -0.3348628     0.0000365    0.0000209     0.0000386    0.0000177    -0.5617918    0.6951403 
   0.050997500     0.1348567   -0.3283345     0.0000804   -0.0000266     0.0000801   -0.0000278    -0.4333381    0.7799969 
   0.052997400     0.1246999   -0.3218597    -0.0000640   -0.0002694    -0.0000625   -0.0002655    -0.2939718    0.8409269 
   0.054997300     0.1150402   -0.3153412    -0.0000779    0.0000945    -0.0000623    0.0001102    -0.1420249    0.8800357 
   0.056997200     0.1055868   -0.3093593     0.0000014    0.0000524     0.0000033    0.0000457     0.0143009    0.8905007 
   0.058997100     0.0968580   -0.3032628     0.0000081    0.0000367     0.0000090    0.0000367     0.1771779    0.8691353 
   0.060997000     0.0884974   -0.2973665     0.0000302    0.0000391     0.0000327    0.0000417     0.3390949    0.8095605 
   0.062996900     0.0807739   -0.2915443     0.0000647    0.0000006     0.0000624    0.0000004     0.4915258    0.6961166 
   0.064996800     0.0736001   -0.2857603     0.0000588   -0.0000787     0.0000593   -0.0000799     0.5437275    0.4463202 
   0.066996700     0.0669462   -0.2800517    -0.0000641   -0.0000267    -0.0000688   -0.0000303     0.4215534    0.5787558 
   0.068996600     0.0607086   -0.2744083    -0.0000222    0.0000147    -0.0000236    0.0000125     0.6536487    0.5411140 
   0.070996500     0.0549509   -0.2690108    -0.0000080    0.0000073    -0.0000074    0.0000096     0.7789872    0.3901332 
   0.072996400     0.0495187   -0.2634169    -0.0000023    0.0000089    -0.0000052    0.0000064     0.8471344    0.2257730 
   0.074996300     0.0444905   -0.2577783    -0.0000034    0.0000087    -0.0000004    0.0000074     0.8765687    0.0572629 
   0.076996200     0.0397954   -0.2521729    -0.0000004    0.0000038     0.0000037    0.0000046     0.8712395   -0.1112873 
   0.078996100     0.0354155   -0.2465936     0.0000055    0.0000051     0.0000086    0.0000019     0.8352858   -0.2744101 
   0.080996000     0.0312684   -0.2410677     0.0000052    0.0000023     0.0000053    0.0000013     0.7688279   -0.4276493 
   0.082995900     0.0273277   -0.2355345     0.0000023   -0.0000004     0.0000031   -0.0000008     0.6744390   -0.5656652 
   0.084995800     0.0236142   -0.2297228     0.0000022    0.0000011     0.0000044    0.0000013     0.5544365   -0.6837798 
   0.086995700     0.0202560   -0.2241984     0.0000005   -0.0000008     0.0000035   -0.0000032     0.4144047   -0.7769825 
   0.088995600     0.0172695   -0.2187581     0.0000015    0.0000003     0.0000022   -0.0000015     0.2584572   -0.8409929 
   0.090995500     0.0145139   -0.2134470    -0.0000011   -0.0000002     0.0000006   -0.0000024     0.0922463   -0.8737039 
   0.092995400     0.0120303   -0.2083486     0.0000018    0.0000009     0.0000005   -0.0000012    -0.0800795   -0.8715826 
   0.094995300     0.0098152   -0.2031683     0.0000029   -0.0000044     0.0000032   -0.0000070    -0.2521344   -0.8153703 
   0.096995200     0.0077967   -0.1979831    -0.0000009   -0.0000037    -0.0000051   -0.0000035    -0.3265773   -0.7677961 
   0.098995100     0.0060077   -0.1929451    -0.0000048   -0.0000026    -0.0000015    0.0000004    -0.4914305   -0.7181286 
   0.100995000     0.0032419   -0.1891248    -0.0000017   -0.0000006    -0.0000014    0.0000011    -0.6254297   -0.6143636 
   0.102994900     0.0018770   -0.1844198    -0.0000018    0.0000000     0.0000000   -0.0000011    -0.7300836   -0.4893330 
   0.104994800     0.0008734   -0.1799281     0.0000000    0.0000002    -0.0000017    0.0000000    -0.8079271   -0.3492861 
   0.106994700     0.0001320   -0.1754374    -0.0000004    0.0000003     0.0000003   -0.0000007    -0.8583945   -0.1989797 
   0.108994600    -0.0004240   -0.1713343     0.0000005   -0.0000020     0.0000012    0.0000002    -0.8807776   -0.0439072 
   0.110994500    -0.0007697   -0.1674378    -0.0000007   -0.0000009    -0.0000010   -0.0000011    -0.8757581    0.1111793 
   0.112994400    -0.0009277   -0.1637840     0.0000004   -0.0000003    -0.0000010    0.0000009    -0.8437907    0.2615821 
   0.114994300    -0.0009236   -0.1603463    -0.0000003    0.0000009     0.0000002   -0.0000002    -0.7868508    0.4033127 
   0.116994200    -0.0007715   -0.1571482     0.0000003    0.0000000     0.0000006   -0.0000002    -0.7064176    0.5319892 
   0.118994100    -0.0005253   -0.1542171    -0.0000004    0.0000004     0.0000004    0.0000005    -0.6055855    0.6445210 
   0.120994000    -0.0000614   -0.1513043     0.0000009    0.0000009     0.0000005    0.0000008    -0.4864525    0.7372459 
   0.122993900     0.0002595   -0.1488091     0.0000032    0.0000011     0.0000023    0.0000008    -0.3506526    0.8062185 
   0.124993800     0.0007156   -0.1466379     0.0000091   -0.0000048     0.0000077   -0.0000046    -0.2103780    0.8345258 
   0.126993700     0.0010896   -0.1447028    -0.0000051   -0.0000090    -0.0000035   -0.0000065    -0.0902568    0.8666724 
   0.128993600     0.0014467   -0.1429165    -0.0000047    0.0000003    -0.0000032    0.0000001     0.0563382    0.8762600 
   0.130993500     0.0017647   -0.1414412    -0.0000028   -0.0000044    -0.0000014   -0.0000011     0.2027894    0.8570773 
   0.132993400     0.0019705   -0.1401464    -0.0000065    0.0000013    -0.0000023    0.0000013     0.3434834    0.8105958 
   0.134993300     0.0020790   -0.1390858    -0.0000019    0.0000040     0.0000005    0.0000015     0.4715831    0.7406538 
   0.136993200     0.0020094   -0.1381804     0.0000013    0.0000019     0.0000014    0.0000008     0.5855343    0.6533050 
   0.138993100     0.0018144   -0.1374304     0.0000000    0.0000017     0.0000035   -0.0000010     0.6861137    0.5479594 
   0.140993000     0.0014247   -0.1367665    -0.0000009   -0.0000002     0.0000013    0.0000008     0.7686560    0.4252079 
   0.142992900     0.0008082   -0.1361993    -0.0000004   -0.0000009     0.0000002   -0.0000012     0.8289524    0.2891914 
   0.144992800     0.0000781   -0.1357558     0.0000000   -0.0000004     0.0000000   -0.0000002     0.8642986    0.1438425 
   0.146992700    -0.0009531   -0.1352599     0.0000000    0.0000003    -0.0000009   -0.0000010     0.8744782   -0.0058452 
   0.148992600    -0.0022072   -0.1346868     0.0000000    0.0000010     0.0000002    0.0000005     0.8584514   -0.1561033 
   0.150992500    -0.0035676   -0.1339228    -0.0000023    0.0000022    -0.0000002   -0.0000007     0.8164701   -0.3022963 
   0.152992400    -0.0051868   -0.1331953    -0.0000008    0.0000005     0.0000007    0.0000014     0.7478284   -0.4397575 
   0.154992300    -0.0069222   -0.1323077     0.0000004    0.0000011     0.0000015    0.0000011     0.6522455   -0.5628940 
   0.156992200    -0.0088136   -0.1312615     0.0000003    0.0000014    -0.0000003    0.0000016     0.5281243   -0.6586064 
   0.158992100    -0.0108331   -0.1300021     0.0000011    0.0000000     0.0000031   -0.0000009     0.4239572   -0.7094713 
   0.160992000    -0.0129247   -0.1285195     0.0000002   -0.0000003     0.0000006    0.0000001     0.3067555   -0.7918036 
   0.162991900    -0.0150346   -0.1267638     0.0000002    0.0000011    -0.0000002    0.0000004     0.1576435   -0.8394492 
   0.164991800    -0.0171833   -0.1247641    -0.0000003    0.0000005     0.0000027   -0.0000002     0.0029323   -0.8544454 
   0.166991700    -0.0192202   -0.1224876     0.0000006    0.0000004     0.0000022    0.0000001    -0.1504854   -0.8403525 
   0.168991600    -0.0211994   -0.1199290    -0.0000001    0.0000004     0.0000017    0.0000007    -0.2983809   -0.7985778 
   0.170991500    -0.0230787   -0.1170713     0.0000029   -0.0000001     0.0000030   -0.0000008    -0.4359118   -0.7312109 
   0.172991400    -0.0247592   -0.1139676     0.0000015   -0.0000006     0.0000014   -0.0000008    -0.5585642   -0.6408468 
   0.174991300    -0.0261553   -0.1106556     0.0000010    0.0000008     0.0000003    0.0000001    -0.6630352   -0.5308763 
   0.176991200    -0.0273066   -0.1071055     0.0000006   -0.0000017     0.0000032    0.0000002    -0.7458656   -0.4049584 
   0.178991100    -0.0281293   -0.1033597    -0.0000002    0.0000001     0.0000004   -0.0000005    -0.8052875   -0.2668033 
   0.180991000    -0.0286052   -0.0995061    -0.0000005   -0.0000006     0.0000023    0.0000018    -0.8392954   -0.1213384 
   0.182990900    -0.0286818   -0.0955041    -0.0000009    0.0000001     0.0000026   -0.0000003    -0.8478898    0.0269294 
   0.184990800    -0.0283289   -0.0914751    -0.0000015    0.0000014     0.0000041   -0.0000010    -0.8306258    0.1736063 
   0.186990700    -0.0275274   -0.0874254     0.0000014   -0.0000008     0.0000018   -0.0000016    -0.7885853    0.3143879 
   0.188990600    -0.0244989   -0.0839957    -0.0000015   -0.0000009     0.0000013   -0.0000020    -0.7370520    0.4251800 
   0.190990500    -0.0244013   -0.0796350    -0.0000001   -0.0000023     0.0000010   -0.0000017    -0.6411940    0.5599087 
   0.192990400    -0.0224994   -0.0758908    -0.0000009   -0.0000018     0.0000002   -0.0000025    -0.5357376    0.6629673 
   0.194990300    -0.0199285   -0.0725104    -0.0000005   -0.0000017     0.0000003   -0.0000025    -0.4173039    0.7449820 
   0.196990200    -0.0169884   -0.0694485    -0.0000008   -0.0000005     0.0000025   -0.0000029    -0.2873960    0.8058779 
   0.198990100    -0.0136587   -0.0667820    -0.0000005    0.0000010     0.0000016   -0.0000020    -0.1496664    0.8439705 
   0.200990000    -0.0100179   -0.0645255    -0.0000010   -0.0000006     0.0000021   -0.0000009    -0.0078839    0.8587475 
   0.202989900    -0.0061444   -0.0627714    -0.0000021   -0.0000011     0.0000014   -0.0000016     0.1342486    0.8497589 
   0.204989800    -0.0020566   -0.0615253    -0.0000034    0.0000018     0.0000012   -0.0000015     0.2730512    0.8175006 
   0.206989700     0.0021457   -0.0608675    -0.0000015    0.0000004     0.0000024   -0.0000016     0.4047834    0.7628945 
   0.208989600     0.0064624   -0.0607782    -0.0000020   -0.0000012     0.0000019   -0.0000010     0.5256609    0.6868499 
   0.210989500     0.0107317   -0.0612847    -0.0000001   -0.0000001     0.0000034   -0.0000030     0.6324233    0.5915419 
   0.212989400     0.0149759   -0.0623725    -0.0000020    0.0000015     0.0000021   -0.0000035     0.7221587    0.4789977 
   0.214989300     0.0189939   -0.0640545    -0.0000006    0.0000014     0.0000022   -0.0000040     0.7914807    0.3523068 
   0.216989200     0.0227759   -0.0662838    -0.0000001    0.0000003     0.0000035   -0.0000050     0.8375369    0.2150771 
   0.218989100     0.0262135   -0.0690331    -0.0000002    0.0000009     0.0000003   -0.0000077     0.8567327    0.0734231 
   0.220989000     0.0292423   -0.0723005    -0.0000008   -0.0000003    -0.0000036   -0.0000050     0.8534479   -0.0629668 
   0.222988900     0.0317952   -0.0760066    -0.0000014    0.0000013    -0.0000043    0.0000014     0.8362912   -0.1994631 
   0.224988800     0.0338086   -0.0800633    -0.0000014    0.0000006    -0.0000018    0.0000031     0.7949831   -0.3383261 
   0.226988700     0.0352622   -0.0844559    -0.0000016    0.0000002     0.0000007    0.0000007     0.7271674   -0.4692784 
   0.228988600     0.0360837   -0.0890532    -0.0000012    0.0000029     0.0000026   -0.0000013     0.6360001   -0.5867842 
   0.230988500     0.0362974   -0.0938099     0.0000001    0.0000026     0.0000035   -0.0000013     0.5250028   -0.6866764 
   0.232988400     0.0358454   -0.0984912     0.0000001    0.0000019     0.0000027   -0.0000028     0.3975469   -0.7657220 
   0.234988300     0.0347363   -0.1032635    -0.0000003    0.0000013     0.0000026   -0.0000035     0.2576442   -0.8212039 
   0.236988200     0.0329711   -0.1078814     0.0000011    0.0000026     0.0000026   -0.0000024     0.1097298   -0.8511746 
   0.238988100     0.0306029   -0.1122963     0.0000010    0.0000006     0.0000011   -0.0000035    -0.0414987   -0.8544490 
   0.240988000     0.0276406   -0.1164282     0.0000001    0.0000004     0.0000011   -0.0000041    -0.1911280   -0.8309013 
   0.242987900     0.0242258   -0.1201887     0.0000010   -0.0000010     0.0000014   -0.0000026    -0.3342131   -0.7807562 
   0.244987800     0.0203155   -0.1235030     0.0000002    0.0000018     0.0000017   -0.0000023    -0.4658885   -0.7061126 
   0.246987700     0.0159325   -0.1263231     0.0000020    0.0000004     0.0000023   -0.0000010    -0.5820205   -0.6091789 
   0.248987600     0.0111748   -0.1287377     0.0000011   -0.0000009     0.0000027   -0.0000011    -0.6788175   -0.4932868 
   0.250987500     0.0061275   -0.1304904     0.0000005   -0.0000011     0.0000036   -0.0000020    -0.7525339   -0.3623546 
   0.252987400     0.0009666   -0.1315787     0.0000005   -0.0000020     0.0000045   -0.0000027    -0.8020899   -0.2225903 
   0.254987300    -0.0042650   -0.1321199     0.0000016   -0.0000017     0.0000059   -0.0000040    -0.8270349   -0.0760491 
   0.256987200    -0.0094856   -0.1320643     0.0000014   -0.0000022     0.0000041   -0.0000053    -0.8253403    0.0721983 
   0.258987100    -0.0145800   -0.1313725     0.0000014   -0.0000004     0.0000049   -0.0000077    -0.7976303    0.2172652 
   0.260987000    -0.0195491   -0.1300218    -0.0000014    0.0000006     0.0000053   -0.0000085    -0.7453479    0.3542582 
   0.262986900    -0.0242906   -0.1279616    -0.0000020   -0.0000013     0.0000041   -0.0000116    -0.6706017    0.4791882 
   0.264986800    -0.0286987   -0.1254964     0.0000010   -0.0000016     0.0000013   -0.0000116    -0.5759845    0.5885644 
   0.266986700    -0.0327136   -0.1225448     0.0000001   -0.0000025    -0.0000009   -0.0000129    -0.4646187    0.6796052 
   0.268986600    -0.0362790   -0.1192256    -0.0000019   -0.0000035    -0.0000044   -0.0000138    -0.3401005    0.7499507 
   0.270986500    -0.0392333   -0.1156869    -0.0000027   -0.0000012    -0.0000064   -0.0000100    -0.2060580    0.7977666 
   0.272986400    -0.0417274   -0.1119549    -0.0000032   -0.0000016    -0.0000065   -0.0000081    -0.0665824    0.8223203 
   0.274986300    -0.0435738   -0.1081048    -0.0000022   -0.0000017    -0.0000074   -0.0000059     0.0742895    0.8227590 
   0.276986200    -0.0449455   -0.1042262    -0.0000020   -0.0000013    -0.0000033   -0.0000040     0.2130994    0.7987596 
   0.278986100    -0.0456733   -0.1003292    -0.0000024   -0.0000006    -0.0000002   -0.0000024     0.3455724    0.7520377 
   0.280986000    -0.0458726   -0.0965334    -0.0000022   -0.0000001     0.0000005   -0.0000046     0.4670122    0.6829026 
   0.282985900    -0.0455739   -0.0929404    -0.0000022    0.0000000    -0.0000004   -0.0000073     0.5704094    0.5970554 
   0.284985800    -0.0447712   -0.0896443    -0.0000020   -0.0000023     0.0000013   -0.0000072     0.6634094    0.5005797 
   0.286985700    -0.0435420   -0.0867516    -0.0000035   -0.0000009    -0.0000009   -0.0000078     0.7414429    0.3859473 
   0.288985600    -0.0419062   -0.0843777    -0.0000025    0.0000012    -0.0000031   -0.0000091     0.7986405    0.2585607 
   0.290985500    -0.0400165   -0.0826776    -0.0000022    0.0000012    -0.0000035   -0.0000080     0.8331297    0.1230006 
   0.292985400    -0.0379499   -0.0816110    -0.0000030    0.0000015    -0.0000055   -0.0000087     0.8446098   -0.0169575 
   0.294985300    -0.0358422   -0.0810900    -0.0000020    0.0000016    -0.0000064   -0.0000088     0.8322186   -0.1572584 
   0.296985200    -0.0338471   -0.0811563    -0.0000026    0.0000027    -0.0000053   -0.0000080     0.7963812   -0.2939835 
   0.298985100    -0.0320572   -0.0817822    -0.0000015    0.0000016    -0.0000076   -0.0000061     0.7377323   -0.4233417 
   0.300985000    -0.0306765   -0.0830379    -0.0000019    0.0000014    -0.0000089   -0.0000037     0.6577951   -0.5413671 
   0.302984900    -0.0297168   -0.0848623    -0.0000018    0.0000017    -0.0000096   -0.0000029     0.5584590   -0.6445380 
   0.304984800    -0.0292961   -0.0871691    -0.0000024    0.0000038    -0.0000080   -0.0000020     0.4424795   -0.7298682 
   0.306984700    -0.0295483   -0.0899136    -0.0000003    0.0000016    -0.0000096    0.0000000     0.3126943   -0.7941504 
   0.308984600    -0.0305484   -0.0930985     0.0000017    0.0000010    -0.0000061    0.0000002     0.1733344   -0.8351258 
   0.310984500    -0.0324011   -0.0963610    -0.0000008    0.0000013    -0.0000066    0.0000002     0.0283719   -0.8506798 
   0.312984400    -0.0352990   -0.0996630     0.0000005    0.0000007    -0.0000049    0.0000024    -0.1159547   -0.8405766 
   0.314984300    -0.0392133   -0.1025696     0.0000026    0.0000017    -0.0000054    0.0000014    -0.2554595   -0.8081772 
