! MS46122B
! 2250307/22442219
! 7/31/2025 8:12:43 AM
! C:\USERS\SPARKY\DOCUMENTS\VNA_DATA\JULY31_2025\295K\ECAL_SHORT.S2P
! CHANNEL.1
! TR.MEASUREMENT
! RAW.DATA
# GHZ S RI R 50.0
! FREQ.GHZ         S11RE         S11IM         S21RE         S21IM         S12RE         S12IM         S22RE         S22IM         
!; PortSelection: Port_12
   0.001000000     1.0444470   -0.0692634    -0.0000059   -0.0000001     0.0000072   -0.0000064     0.7987375   -0.5714484 
   0.002999900     0.9633657   -0.1914142     0.0000152    0.0000067     0.0000037    0.0000081    -0.5995431   -0.5289824 
   0.004999800     0.9034563   -0.2960337     0.0000316    0.0000016    -0.0000078   -0.0000007     0.4843316    0.8668437 
   0.006999700     0.8367268   -0.3935901     0.0000016    0.0000050     0.0000101    0.0000118     0.9738272    0.0265372 
   0.008999600     0.7588834   -0.4882832     0.0000046   -0.0000036     0.0000046   -0.0000084     0.7926993   -0.4932541 
   0.010999500     0.6671501   -0.5782051     0.0000061   -0.0000106    -0.0000028   -0.0000088     0.4207269   -0.8003601 
   0.012999400     0.5567023   -0.6609498    -0.0000359    0.0000337    -0.0000622    0.0000269    -0.2056250   -0.8412372 
   0.014999300     0.4219369   -0.7300435     0.0001477    0.0000492     0.0001597   -0.0000194    -0.5577285    0.3701549 
   0.016999200     0.2581705   -0.7750050    -0.0001724   -0.0000400    -0.0001546    0.0000038     0.6960601    0.3087897 
   0.018999100     0.0613525   -0.7793026    -0.0000407    0.0001167    -0.0000385    0.0001059     0.7015729   -0.5531827 
   0.020999000    -0.1619032   -0.7147982     0.0000156    0.0000051     0.0000142    0.0000237     0.3728261   -0.8400792 
   0.022998900    -0.3833894   -0.5481643     0.0000535    0.0000101     0.0000470    0.0000137     0.0814606   -0.9253816 
   0.024998800    -0.5186019   -0.2623551     0.0000018   -0.0000231     0.0000128   -0.0000206    -0.1597846   -0.9901622 
   0.026998700    -0.5428123    0.1047800    -0.0000001   -0.0000127    -0.0000008   -0.0000144    -0.3775727   -0.8553251 
   0.028998600    -0.3556164    0.4372755    -0.0000027   -0.0000060    -0.0000010   -0.0000065    -0.5514926   -0.7522783 
   0.030998500    -0.0429949    0.6252088    -0.0000019   -0.0000015    -0.0000013   -0.0000057    -0.6900358   -0.6219860 
   0.032998400     0.2565841    0.6312662    -0.0000030   -0.0000048    -0.0000024   -0.0000024    -0.8416318   -0.5212374 
   0.034998300     0.5392745    0.5554501    -0.0000066   -0.0000012    -0.0000083   -0.0000008    -0.8621812   -0.3125061 
   0.036998200     0.7187360    0.4086188    -0.0000013   -0.0000075    -0.0000043   -0.0000130    -0.8971306   -0.1483346 
   0.038998100     0.8287103    0.2456065    -0.0000109    0.0000040    -0.0000101   -0.0000001    -0.9072499    0.0158569 
   0.040998000     0.8864189    0.0862826    -0.0000086    0.0000047    -0.0000093    0.0000086    -0.8853766    0.1756032 
   0.042997900     0.9056320   -0.0615681    -0.0000061    0.0000113    -0.0000098    0.0000123    -0.8375508    0.3265070 
   0.044997800     0.8699077   -0.1718807    -0.0000020    0.0000250     0.0000002    0.0000231    -0.8326290    0.4901182 
   0.046997700     0.8693378   -0.3124529     0.0000258    0.0000322     0.0000270    0.0000321    -0.6734146    0.5898311 
   0.048997600     0.8275545   -0.4168450     0.0000733    0.0000009     0.0000709   -0.0000041    -0.5619012    0.6951503 
   0.050997500     0.7748091   -0.5079086     0.0000883   -0.0001039     0.0000846   -0.0001094    -0.4334471    0.7800274 
   0.052997400     0.7144796   -0.5866325    -0.0003084   -0.0002765    -0.0003138   -0.0002694    -0.2940896    0.8409588 
   0.054997300     0.6486377   -0.6548541     0.0000125    0.0001626     0.0000343    0.0001538    -0.1421161    0.8801507 
   0.056997200     0.5762801   -0.7147053     0.0000315    0.0000468     0.0000313    0.0000436     0.0142595    0.8905722 
   0.058997100     0.5008343   -0.7644143     0.0000353    0.0000344     0.0000330    0.0000308     0.1771020    0.8692217 
   0.060997000     0.4220772   -0.8054672     0.0000540    0.0000209     0.0000541    0.0000173     0.3393173    0.8095024 
   0.062996900     0.3401265   -0.8382991     0.0000609   -0.0000351     0.0000605   -0.0000378     0.4910724    0.6956283 
   0.064996800     0.2557866   -0.8624696     0.0000128   -0.0000867     0.0000133   -0.0000867     0.5426873    0.4474688 
   0.066996700     0.1688885   -0.8775476    -0.0000837    0.0000082    -0.0000766    0.0000098     0.4222855    0.5766008 
   0.068996600     0.0799431   -0.8844434    -0.0000102    0.0000208    -0.0000096    0.0000220     0.6532094    0.5411618 
   0.070996500    -0.0101429   -0.8823147     0.0000039    0.0000122    -0.0000023    0.0000118     0.7788714    0.3901737 
   0.072996400    -0.1013466   -0.8694999     0.0000019    0.0000086     0.0000029    0.0000047     0.8471033    0.2258683 
   0.074996300    -0.1927993   -0.8461563     0.0000024    0.0000046     0.0000031    0.0000024     0.8765598    0.0573521 
   0.076996200    -0.2834868   -0.8114586     0.0000033    0.0000014     0.0000041    0.0000019     0.8713261   -0.1112880 
   0.078996100    -0.3722488   -0.7653133     0.0000028   -0.0000003     0.0000047    0.0000029     0.8352972   -0.2744279 
   0.080996000    -0.4579965   -0.7071207     0.0000003    0.0000005     0.0000045   -0.0000019     0.7688874   -0.4276119 
   0.082995900    -0.5386156   -0.6353967     0.0000003   -0.0000032     0.0000038    0.0000005     0.6744698   -0.5656801 
   0.084995800    -0.6116457   -0.5494880    -0.0000015   -0.0000007     0.0000027   -0.0000027     0.5544344   -0.6838087 
   0.086995700    -0.6756204   -0.4512250    -0.0000003   -0.0000018     0.0000033    0.0000000     0.4144452   -0.7769628 
   0.088995600    -0.7272431   -0.3395855    -0.0000008   -0.0000007     0.0000034    0.0000013     0.2584440   -0.8409752 
   0.090995500    -0.7636470   -0.2154920     0.0000004    0.0000000     0.0000005    0.0000013     0.0922659   -0.8737397 
   0.092995400    -0.7817719   -0.0812932    -0.0000009    0.0000004     0.0000001   -0.0000017    -0.0800687   -0.8716203 
   0.094995300    -0.7760444    0.0606614     0.0000004    0.0000055     0.0000020    0.0000023    -0.2521818   -0.8153938 
   0.096995200    -0.7443227    0.2065587     0.0000044   -0.0000050     0.0000008   -0.0000026    -0.3265289   -0.7678316 
   0.098995100    -0.6836491    0.3500921     0.0000012   -0.0000038     0.0000010   -0.0000013    -0.4914524   -0.7181231 
   0.100995000    -0.5924135    0.4868595    -0.0000017   -0.0000021    -0.0000010   -0.0000035    -0.6254826   -0.6144335 
   0.102994900    -0.4728477    0.6043853    -0.0000034   -0.0000016    -0.0000009   -0.0000005    -0.7300998   -0.4894458 
   0.104994800    -0.3278112    0.6973355    -0.0000006   -0.0000005    -0.0000017    0.0000005    -0.8079336   -0.3493465 
   0.106994700    -0.1631118    0.7585290    -0.0000001    0.0000019    -0.0000014   -0.0000001    -0.8584346   -0.1990086 
   0.108994600     0.0119758    0.7837296    -0.0000001    0.0000014    -0.0000002   -0.0000003    -0.8808572   -0.0439248 
   0.110994500     0.1886092    0.7711225    -0.0000003   -0.0000009    -0.0000004   -0.0000009    -0.8758515    0.1111505 
   0.112994400     0.3572905    0.7214199    -0.0000023   -0.0000002    -0.0000020   -0.0000003    -0.8438660    0.2616305 
   0.114994300     0.5089932    0.6387791    -0.0000008    0.0000013     0.0000013   -0.0000003    -0.7869291    0.4033397 
   0.116994200     0.6366870    0.5293013    -0.0000006    0.0000010     0.0000006    0.0000001    -0.7064931    0.5320262 
   0.118994100     0.7369803    0.4003583     0.0000005    0.0000022    -0.0000009    0.0000018    -0.6055973    0.6445494 
   0.120994000     0.8090961    0.2600340     0.0000023    0.0000038     0.0000016    0.0000031    -0.4865037    0.7372886 
   0.122993900     0.8505369    0.1141139     0.0000058    0.0000051     0.0000060    0.0000049    -0.3506828    0.8062770 
   0.124993800     0.8641750   -0.0305504     0.0000168   -0.0000064     0.0000177   -0.0000067    -0.2105356    0.8344550 
   0.126993700     0.8531981   -0.1699910    -0.0000038   -0.0000171    -0.0000031   -0.0000157    -0.0901667    0.8668951 
   0.128993600     0.8191875   -0.2991162    -0.0000111   -0.0000038    -0.0000102   -0.0000024     0.0563889    0.8762393 
   0.130993500     0.7690045   -0.4169720    -0.0000103    0.0000029    -0.0000063    0.0000019     0.2028269    0.8570910 
   0.132993400     0.7037990   -0.5217842    -0.0000056    0.0000050    -0.0000031    0.0000053     0.3434765    0.8105751 
   0.134993300     0.6267010   -0.6125293     0.0000013    0.0000058     0.0000021    0.0000051     0.4715011    0.7406653 
   0.136993200     0.5401964   -0.6889520     0.0000034    0.0000014     0.0000048    0.0000014     0.5855128    0.6534069 
   0.138993100     0.4468854   -0.7506856     0.0000020    0.0000017     0.0000030    0.0000002     0.6861772    0.5480444 
   0.140993000     0.3489413   -0.7981415     0.0000013   -0.0000015     0.0000017   -0.0000003     0.7686934    0.4252262 
   0.142992900     0.2476484   -0.8319068     0.0000008   -0.0000021     0.0000023   -0.0000027     0.8290015    0.2892144 
   0.144992800     0.1452359   -0.8528749    -0.0000015   -0.0000008     0.0000007   -0.0000023     0.8643163    0.1438363 
   0.146992700     0.0416521   -0.8598217     0.0000001   -0.0000019     0.0000014   -0.0000019     0.8744624   -0.0058517 
   0.148992600    -0.0607726   -0.8540443     0.0000001   -0.0000006     0.0000011   -0.0000010     0.8584483   -0.1561234 
   0.150992500    -0.1607487   -0.8344926     0.0000004   -0.0000001    -0.0000002   -0.0000011     0.8165138   -0.3023040 
   0.152992400    -0.2575550   -0.8040194    -0.0000008   -0.0000003    -0.0000015   -0.0000010     0.7478223   -0.4397208 
   0.154992300    -0.3500284   -0.7617137    -0.0000026   -0.0000002    -0.0000021   -0.0000007     0.6521932   -0.5629075 
   0.156992200    -0.4372003   -0.7080659    -0.0000017    0.0000001    -0.0000024    0.0000019     0.5281039   -0.6585845 
   0.158992100    -0.5178891   -0.6435363    -0.0000004    0.0000005    -0.0000002    0.0000019     0.4240218   -0.7095035 
   0.160992000    -0.5905825   -0.5686493     0.0000011    0.0000001    -0.0000002    0.0000003     0.3067485   -0.7918656 
   0.162991900    -0.6539951   -0.4839125    -0.0000006    0.0000005     0.0000006    0.0000009     0.1576624   -0.8394672 
   0.164991800    -0.7071192   -0.3895756     0.0000001    0.0000004     0.0000015   -0.0000008     0.0029584   -0.8544674 
   0.166991700    -0.7480615   -0.2872812     0.0000007   -0.0000001     0.0000010    0.0000008    -0.1504939   -0.8403676 
   0.168991600    -0.7753252   -0.1780374     0.0000000    0.0000007    -0.0000001    0.0000013    -0.2984293   -0.7985935 
   0.170991500    -0.7877922   -0.0630926    -0.0000005    0.0000010    -0.0000006    0.0000001    -0.4359257   -0.7312596 
   0.172991400    -0.7835383    0.0550044     0.0000001    0.0000003     0.0000004    0.0000008    -0.5586624   -0.6408778 
   0.174991300    -0.7616220    0.1743235     0.0000010    0.0000002     0.0000001    0.0000000    -0.6630867   -0.5309020 
   0.176991200    -0.7209490    0.2929236    -0.0000002   -0.0000011     0.0000013    0.0000002    -0.7459158   -0.4049466 
   0.178991100    -0.6611701    0.4065258    -0.0000005   -0.0000003     0.0000026    0.0000007    -0.8053495   -0.2668307 
   0.180991000    -0.5829675    0.5125239    -0.0000021   -0.0000011     0.0000006    0.0000016    -0.8393030   -0.1213102 
   0.182990900    -0.4854556    0.6058757    -0.0000007   -0.0000008     0.0000008    0.0000015    -0.8479477    0.0269374 
   0.184990800    -0.3706498    0.6840881    -0.0000010   -0.0000018     0.0000026    0.0000008    -0.8306803    0.1736184 
   0.186990700    -0.2418691    0.7427949    -0.0000026   -0.0000013     0.0000004    0.0000001    -0.7886495    0.3144488 
   0.188990600    -0.1253537    0.7751989    -0.0000004    0.0000004     0.0000013   -0.0000021    -0.7370768    0.4252196 
   0.190990500     0.0388423    0.7893476    -0.0000013   -0.0000008     0.0000018   -0.0000007    -0.6412349    0.5599656 
   0.192990400     0.1888371    0.7742217    -0.0000017   -0.0000014     0.0000005   -0.0000026    -0.5357681    0.6630545 
   0.194990300     0.3312686    0.7331501    -0.0000023   -0.0000020     0.0000012   -0.0000012    -0.4173240    0.7450076 
   0.196990200     0.4634752    0.6673098    -0.0000020   -0.0000012     0.0000005   -0.0000004    -0.2874040    0.8058679 
   0.198990100     0.5812748    0.5790932    -0.0000019    0.0000000     0.0000014   -0.0000012    -0.1496380    0.8440915 
   0.200990000     0.6812463    0.4717477    -0.0000020    0.0000004     0.0000014   -0.0000007    -0.0078893    0.8587950 
   0.202989900     0.7601717    0.3495333    -0.0000015    0.0000008     0.0000019   -0.0000015     0.1342549    0.8498154 
   0.204989800     0.8155460    0.2175792    -0.0000017    0.0000045     0.0000021   -0.0000010     0.2730688    0.8175276 
   0.206989700     0.8475045    0.0812672    -0.0000005    0.0000032     0.0000025   -0.0000017     0.4047920    0.7628462 
   0.208989600     0.8549395   -0.0558723    -0.0000003    0.0000011     0.0000030   -0.0000013     0.5256931    0.6868868 
   0.210989500     0.8399885   -0.1895184    -0.0000017    0.0000013     0.0000028   -0.0000030     0.6324205    0.5915402 
   0.212989400     0.8044966   -0.3165055    -0.0000009    0.0000022     0.0000036   -0.0000037     0.7221346    0.4789937 
   0.214989300     0.7505702   -0.4333369     0.0000006    0.0000013     0.0000038   -0.0000045     0.7914953    0.3523979 
   0.216989200     0.6812539   -0.5376115     0.0000007    0.0000010     0.0000014   -0.0000061     0.8376424    0.2151512 
   0.218989100     0.5995006   -0.6279411     0.0000011    0.0000010    -0.0000004   -0.0000067     0.8569502    0.0732546 
   0.220989000     0.5069671   -0.7038840    -0.0000001    0.0000016    -0.0000033   -0.0000029     0.8531779   -0.0632191 
   0.222988900     0.4065434   -0.7644334    -0.0000001    0.0000030    -0.0000037    0.0000000     0.8361236   -0.1993025 
   0.224988800     0.3001889   -0.8095278     0.0000007    0.0000004    -0.0000009   -0.0000010     0.7950475   -0.3382185 
   0.226988700     0.1909429   -0.8389345     0.0000008    0.0000011     0.0000015   -0.0000012     0.7272152   -0.4692706 
   0.228988600     0.0810090   -0.8528301     0.0000014    0.0000012     0.0000030   -0.0000005     0.6360479   -0.5867846 
   0.230988500    -0.0282656   -0.8515635     0.0000009   -0.0000003     0.0000025   -0.0000018     0.5249828   -0.6866853 
   0.232988400    -0.1354376   -0.8347382     0.0000008   -0.0000007     0.0000030   -0.0000022     0.3975008   -0.7657126 
   0.234988300    -0.2393600   -0.8051527     0.0000018    0.0000005     0.0000026   -0.0000037     0.2576003   -0.8212253 
   0.236988200    -0.3383678   -0.7624372     0.0000000   -0.0000001     0.0000019   -0.0000036     0.1097057   -0.8511804 
   0.238988100    -0.4304823   -0.7068347     0.0000016   -0.0000009     0.0000007   -0.0000030    -0.0414959   -0.8544471 
   0.240988000    -0.5139654   -0.6399954     0.0000015   -0.0000020     0.0000016   -0.0000040    -0.1911431   -0.8308774 
   0.242987900    -0.5881847   -0.5628483     0.0000013   -0.0000013     0.0000009   -0.0000043    -0.3342351   -0.7807600 
   0.244987800    -0.6516777   -0.4755072     0.0000017   -0.0000027     0.0000000   -0.0000033    -0.4659157   -0.7061219 
   0.246987700    -0.7038233   -0.3792850     0.0000004   -0.0000023     0.0000006   -0.0000006    -0.5819981   -0.6091884 
   0.248987600    -0.7425643   -0.2750804     0.0000017   -0.0000011     0.0000024   -0.0000027    -0.6788350   -0.4933034 
   0.250987500    -0.7671067   -0.1650052    -0.0000022   -0.0000006     0.0000029   -0.0000023    -0.7525699   -0.3623521 
   0.252987400    -0.7757077   -0.0512940    -0.0000004   -0.0000023     0.0000046   -0.0000040    -0.8021008   -0.2225960 
   0.254987300    -0.7676792    0.0642963    -0.0000012   -0.0000026     0.0000055   -0.0000043    -0.8270797   -0.0759558 
   0.256987200    -0.7426432    0.1793582    -0.0000012   -0.0000026     0.0000045   -0.0000048    -0.8253856    0.0722087 
   0.258987100    -0.7008481    0.2923588    -0.0000018   -0.0000023     0.0000057   -0.0000052    -0.7976061    0.2172974 
   0.260987000    -0.6396507    0.3992745    -0.0000006    0.0000000     0.0000054   -0.0000078    -0.7453844    0.3542476 
   0.262986900    -0.5602782    0.4979625    -0.0000007   -0.0000027     0.0000044   -0.0000111    -0.6706182    0.4792219 
   0.264986800    -0.4641569    0.5847462    -0.0000020   -0.0000028     0.0000014   -0.0000103    -0.5759289    0.5885881 
   0.266986700    -0.3528122    0.6558479    -0.0000032   -0.0000010    -0.0000001   -0.0000123    -0.4647043    0.6796393 
   0.268986600    -0.2291050    0.7079201    -0.0000017    0.0000002    -0.0000037   -0.0000113    -0.3400482    0.7499911 
   0.270986500    -0.0966691    0.7382563    -0.0000044   -0.0000001    -0.0000063   -0.0000079    -0.2060777    0.7977548 
   0.272986400     0.0412075    0.7454228    -0.0000024   -0.0000003    -0.0000071   -0.0000057    -0.0665850    0.8223010 
   0.274986300     0.1795728    0.7281734    -0.0000018   -0.0000018    -0.0000057   -0.0000030     0.0742835    0.8227906 
   0.276986200     0.3139828    0.6860365    -0.0000036    0.0000008    -0.0000036   -0.0000032     0.2131380    0.7987140 
   0.278986100     0.4393660    0.6201272    -0.0000046    0.0000005    -0.0000021   -0.0000013     0.3455895    0.7520571 
   0.280986000     0.5512794    0.5321533    -0.0000015    0.0000032     0.0000002   -0.0000031     0.4670460    0.6829524 
   0.282985900     0.6455438    0.4257381    -0.0000013    0.0000042     0.0000007   -0.0000039     0.5704982    0.5970089 
   0.284985800     0.7178723    0.3052441    -0.0000021    0.0000007     0.0000014   -0.0000062     0.6634314    0.5005774 
   0.286985700     0.7673496    0.1749485    -0.0000012    0.0000012     0.0000014   -0.0000068     0.7414246    0.3859211 
   0.288985600     0.7925947    0.0405484    -0.0000017    0.0000011    -0.0000010   -0.0000074     0.7986264    0.2585693 
   0.290985500     0.7941582   -0.0932987    -0.0000002    0.0000017    -0.0000021   -0.0000078     0.8331318    0.1230458 
   0.292985400     0.7730149   -0.2225876    -0.0000011    0.0000013    -0.0000029   -0.0000094     0.8446075   -0.0169808 
   0.294985300     0.7319723   -0.3438353     0.0000004    0.0000026    -0.0000048   -0.0000079     0.8322063   -0.1572729 
   0.296985200     0.6730410   -0.4549695     0.0000004    0.0000021    -0.0000054   -0.0000072     0.7963675   -0.2939770 
   0.298985100     0.5982059   -0.5533236    -0.0000006    0.0000024    -0.0000069   -0.0000077     0.7376969   -0.4233546 
   0.300985000     0.5112569   -0.6365598    -0.0000007    0.0000023    -0.0000074   -0.0000059     0.6577779   -0.5413899 
   0.302984900     0.4149133   -0.7037936     0.0000004    0.0000016    -0.0000076   -0.0000042     0.5584545   -0.6445583 
   0.304984800     0.3122722   -0.7547202     0.0000011    0.0000019    -0.0000080   -0.0000026     0.4424096   -0.7298755 
   0.306984700     0.2065674   -0.7892787     0.0000032    0.0000000    -0.0000065   -0.0000011     0.3126648   -0.7941663 
   0.308984600     0.1003521   -0.8077456     0.0000017    0.0000008    -0.0000067   -0.0000004     0.1733434   -0.8351760 
   0.310984500    -0.0048081   -0.8116861     0.0000016   -0.0000019    -0.0000049   -0.0000013     0.0283747   -0.8507615 
   0.312984400    -0.1069126   -0.8016685     0.0000038   -0.0000013    -0.0000067   -0.0000022    -0.1160290   -0.8405617 
   0.314984300    -0.2050787   -0.7789333     0.0000015   -0.0000022    -0.0000051   -0.0000016    -0.2554209   -0.8081503 
