! MS46122B
! 2250307/22442219
! 7/31/2025 8:17:52 AM
! C:\USERS\SPARKY\DOCUMENTS\VNA_DATA\JULY31_2025\295K\ECAL_OPEN.S2P
! CHANNEL.1
! TR.MEASUREMENT
! RAW.DATA
# GHZ S RI R 50.0
! FREQ.GHZ         S11RE         S11IM         S21RE         S21IM         S12RE         S12IM         S22RE         S22IM         
!; PortSelection: Port_12
   0.001000000     1.0442040   -0.0700000     0.0000197   -0.0000014    -0.0000268   -0.0000329     0.7979528   -0.5721129 
   0.002999900     0.9473590   -0.2193080     0.0000295    0.0000018     0.0000360   -0.0000237    -0.6011404   -0.5261662 
   0.004999800     0.8100439   -0.0890621    -0.0000580    0.0001253    -0.0000314    0.0002002     0.4848053    0.8665164 
   0.006999700     0.5256118   -0.4035469     0.0002831    0.0000287     0.0002567    0.0000559     0.9738515    0.0266488 
   0.008999600     0.9385763    0.0043886    -0.0000953    0.0000047    -0.0000837   -0.0000050     0.7926664   -0.4932593 
   0.010999500     0.9255008   -0.2231533     0.0000026    0.0000452    -0.0000134    0.0000317     0.4205483   -0.8003797 
   0.012999400     0.8861986   -0.3319281     0.0001673   -0.0000136     0.0001832    0.0000104    -0.2059705   -0.8410400 
   0.014999300     0.8466401   -0.4136657    -0.0002727   -0.0001894    -0.0002734   -0.0001572    -0.5577641    0.3710925 
   0.016999200     0.8067302   -0.4843505     0.0001850    0.0001020     0.0001691    0.0001192     0.6961108    0.3088435 
   0.018999100     0.7645856   -0.5498378     0.0000795   -0.0000628     0.0000800   -0.0000500     0.7014756   -0.5531985 
   0.020999000     0.7174224   -0.6103184    -0.0000047   -0.0000180     0.0000058   -0.0000178     0.3726847   -0.8400171 
   0.022998900     0.6660814   -0.6661431    -0.0000041   -0.0000310    -0.0000083   -0.0000220     0.0812330   -0.9251910 
   0.024998800     0.6009886   -0.6822621    -0.0000089    0.0000025    -0.0000064    0.0000007    -0.1598964   -0.9900019 
   0.026998700     0.5472562   -0.7637700    -0.0000014   -0.0000037    -0.0000054    0.0000007    -0.3777053   -0.8550769 
   0.028998600     0.4782889   -0.8048534    -0.0000016   -0.0000016     0.0000007    0.0000009    -0.5515449   -0.7520439 
   0.030998500     0.4027291   -0.8395077    -0.0000001    0.0000019    -0.0000015    0.0000003    -0.6900133   -0.6217569 
   0.032998400     0.3230709   -0.8328992    -0.0000011   -0.0000004    -0.0000027   -0.0000015    -0.8415617   -0.5209615 
   0.034998300     0.2305821   -0.8861776    -0.0000037   -0.0000008     0.0000003   -0.0000002    -0.8620880   -0.3123196 
   0.036998200     0.1345599   -0.8952892     0.0000026   -0.0000021    -0.0000014   -0.0000005    -0.8969905   -0.1481574 
   0.038998100     0.0328161   -0.8929324     0.0000009    0.0000049     0.0000010   -0.0000013    -0.9071049    0.0159954 
   0.040998000    -0.0737104   -0.8765820     0.0000032    0.0000017     0.0000000   -0.0000017    -0.8852531    0.1756959 
   0.042997900    -0.1835635   -0.8452699     0.0000020   -0.0000018     0.0000016   -0.0000061    -0.8374628    0.3265074 
   0.044997800    -0.2724447   -0.7749286    -0.0000015   -0.0000062    -0.0000048   -0.0000035    -0.8324386    0.4901604 
   0.046997700    -0.4046731   -0.7260370    -0.0000117    0.0000073    -0.0000090    0.0000030    -0.6732208    0.5897997 
   0.048997600    -0.5089316   -0.6351457    -0.0000067    0.0000177    -0.0000064    0.0000161    -0.5617924    0.6951392 
   0.050997500    -0.6031445   -0.5200724     0.0000235    0.0000414     0.0000241    0.0000442    -0.4332663    0.7800407 
   0.052997400    -0.6804374   -0.3805270     0.0001923   -0.0000934     0.0001914   -0.0000850    -0.2939399    0.8408691 
   0.054997300    -0.7328185   -0.2177942    -0.0001161   -0.0000292    -0.0001216   -0.0000194    -0.1420919    0.8800343 
   0.056997200    -0.7506959   -0.0339722    -0.0000416    0.0000260    -0.0000378    0.0000247     0.0143348    0.8905120 
   0.058997100    -0.7245274    0.1601823    -0.0000374    0.0000338    -0.0000350    0.0000261     0.1771125    0.8690980 
   0.060997000    -0.6481037    0.3519813    -0.0000199    0.0000694    -0.0000230    0.0000700     0.3390656    0.8094589 
   0.062996900    -0.5199080    0.5249322     0.0000537    0.0000751     0.0000523    0.0000747     0.4913732    0.6961084 
   0.064996800    -0.3462963    0.6610414     0.0001527   -0.0000356     0.0001460   -0.0000267     0.5441580    0.4468497 
   0.066996700    -0.1413638    0.7466809    -0.0000565   -0.0001192    -0.0000542   -0.0001189     0.4211830    0.5794085 
   0.068996600     0.0764092    0.7734131    -0.0000517   -0.0000043    -0.0000522   -0.0000005     0.6536737    0.5410112 
   0.070996500     0.2882163    0.7440369    -0.0000215    0.0000114    -0.0000231    0.0000111     0.7789238    0.3900028 
   0.072996400     0.4770686    0.6643955    -0.0000139    0.0000114    -0.0000160    0.0000114     0.8470634    0.2257799 
   0.074996300     0.6324096    0.5484612    -0.0000060    0.0000113    -0.0000034    0.0000143     0.8764944    0.0573191 
   0.076996200     0.7501106    0.4089488     0.0000011    0.0000098     0.0000027    0.0000127     0.8712294   -0.1112412 
   0.078996100     0.8298182    0.2581265     0.0000073    0.0000077     0.0000087    0.0000094     0.8352476   -0.2743560 
   0.080996000     0.8745487    0.1045861     0.0000022    0.0000046     0.0000099    0.0000029     0.7688273   -0.4276393 
   0.082995900     0.8890923   -0.0444312     0.0000071    0.0000023     0.0000080   -0.0000004     0.6744277   -0.5656304 
   0.084995800     0.8770584   -0.1836884     0.0000076    0.0000015     0.0000014   -0.0000009     0.5543935   -0.6837642 
   0.086995700     0.8452168   -0.3112915     0.0000041    0.0000000     0.0000028   -0.0000029     0.4144207   -0.7769107 
   0.088995600     0.7964782   -0.4264297     0.0000034   -0.0000008     0.0000034   -0.0000038     0.2584668   -0.8409607 
   0.090995500     0.7349126   -0.5276653    -0.0000003   -0.0000033     0.0000046   -0.0000047     0.0922244   -0.8736811 
   0.092995400     0.6641051   -0.6164852     0.0000055   -0.0000024     0.0000055   -0.0000046    -0.0800483   -0.8715349 
   0.094995300     0.5841695   -0.6911829     0.0000003   -0.0000068     0.0000010   -0.0000118    -0.2520534   -0.8153312 
   0.096995200     0.4983914   -0.7527794    -0.0000082   -0.0000016    -0.0000088    0.0000040    -0.3265779   -0.7677585 
   0.098995100     0.4075680   -0.8023622    -0.0000017    0.0000019    -0.0000034    0.0000050    -0.4914291   -0.7180876 
   0.100995000     0.3131166   -0.8401963    -0.0000002    0.0000004    -0.0000005    0.0000003    -0.6253728   -0.6143192 
   0.102994900     0.2168731   -0.8655574     0.0000007   -0.0000007     0.0000004    0.0000014    -0.7300481   -0.4893352 
   0.104994800     0.1194844   -0.8794859     0.0000006   -0.0000007     0.0000015   -0.0000007    -0.8078830   -0.3492696 
   0.106994700     0.0214636   -0.8817022     0.0000020    0.0000017     0.0000014   -0.0000012    -0.8583438   -0.1989705 
   0.108994600    -0.0759016   -0.8732539     0.0000017   -0.0000014     0.0000002   -0.0000002    -0.8807258   -0.0439007 
   0.110994500    -0.1722801   -0.8537233    -0.0000001   -0.0000016     0.0000007    0.0000001    -0.8757200    0.1111704 
   0.112994400    -0.2664847   -0.8229387     0.0000008   -0.0000003     0.0000012   -0.0000003    -0.8437436    0.2615310 
   0.114994300    -0.3578142   -0.7809712     0.0000019   -0.0000017     0.0000000    0.0000000    -0.7868263    0.4033132 
   0.116994200    -0.4447173   -0.7277346    -0.0000007   -0.0000033     0.0000016    0.0000001    -0.7063962    0.5319510 
   0.118994100    -0.5259314   -0.6627517     0.0000011   -0.0000020     0.0000010    0.0000004    -0.6055769    0.6444867 
   0.120994000    -0.6009774   -0.5874324    -0.0000017   -0.0000004     0.0000007   -0.0000019    -0.4864400    0.7372034 
   0.122993900    -0.6671855   -0.5000228    -0.0000021   -0.0000016     0.0000010    0.0000000    -0.3506649    0.8062174 
   0.124993800    -0.7230182   -0.4017463    -0.0000014   -0.0000050    -0.0000011   -0.0000041    -0.2103418    0.8345050 
   0.126993700    -0.7666672   -0.2934791    -0.0000046   -0.0000014    -0.0000020   -0.0000004    -0.0903170    0.8666457 
   0.128993600    -0.7941275   -0.1759084    -0.0000011    0.0000021     0.0000007    0.0000022     0.0563243    0.8762554 
   0.130993500    -0.8059129   -0.0516857    -0.0000004   -0.0000021     0.0000001   -0.0000001     0.2027737    0.8570527 
   0.132993400    -0.7989740    0.0778624    -0.0000027   -0.0000010    -0.0000011   -0.0000030     0.3434685    0.8105865 
   0.134993300    -0.7711545    0.2091928    -0.0000043   -0.0000013    -0.0000013    0.0000011     0.4715712    0.7406736 
   0.136993200    -0.7203609    0.3387111    -0.0000026    0.0000011     0.0000006    0.0000009     0.5854786    0.6532558 
   0.138993100    -0.6461515    0.4626976    -0.0000011    0.0000013     0.0000010   -0.0000002     0.6860906    0.5479978 
   0.140993000    -0.5486848    0.5753670    -0.0000027    0.0000024     0.0000005   -0.0000005     0.7686099    0.4252016 
   0.142992900    -0.4289529    0.6715949    -0.0000018    0.0000015     0.0000004    0.0000012     0.8289565    0.2892262 
   0.144992800    -0.2907805    0.7473772    -0.0000015    0.0000009    -0.0000005   -0.0000001     0.8642545    0.1438645 
   0.146992700    -0.1369345    0.7952307    -0.0000019    0.0000007    -0.0000003    0.0000000     0.8744408   -0.0058242 
   0.148992600     0.0256780    0.8130142    -0.0000007    0.0000028    -0.0000007    0.0000009     0.8584334   -0.1560975 
   0.150992500     0.1892563    0.7978483    -0.0000013    0.0000024    -0.0000009    0.0000002     0.8164809   -0.3022762 
   0.152992400     0.3477994    0.7517470     0.0000011    0.0000027     0.0000009    0.0000003     0.7478189   -0.4397097 
   0.154992300     0.4933786    0.6762899     0.0000006    0.0000022     0.0000017    0.0000013     0.6522475   -0.5628763 
   0.156992200     0.6207618    0.5747066     0.0000010    0.0000028     0.0000022    0.0000019     0.5281159   -0.6585910 
   0.158992100     0.7245187    0.4529818     0.0000009   -0.0000008     0.0000021    0.0000008     0.4238977   -0.7094203 
   0.160992000     0.8015617    0.3164678    -0.0000012   -0.0000006     0.0000021   -0.0000013     0.3067640   -0.7918039 
   0.162991900     0.8513537    0.1715333    -0.0000007    0.0000018     0.0000021    0.0000009     0.1576777   -0.8393983 
   0.164991800     0.8738493    0.0240818     0.0000017    0.0000013     0.0000014   -0.0000002     0.0029765   -0.8544167 
   0.166991700     0.8703144   -0.1201964     0.0000018    0.0000018     0.0000015    0.0000014    -0.1504532   -0.8403347 
   0.168991600     0.8432839   -0.2571232     0.0000009    0.0000022     0.0000012   -0.0000005    -0.2983821   -0.7985740 
   0.170991500     0.7955993   -0.3843400     0.0000007    0.0000001     0.0000022   -0.0000007    -0.4358947   -0.7312372 
   0.172991400     0.7302797   -0.4984317    -0.0000007   -0.0000009     0.0000026   -0.0000003    -0.5586014   -0.6408501 
   0.174991300     0.6511526   -0.5978963     0.0000004   -0.0000025     0.0000006    0.0000008    -0.6629952   -0.5308639 
   0.176991200     0.5604081   -0.6821058     0.0000011   -0.0000009     0.0000021   -0.0000009    -0.7458061   -0.4049414 
   0.178991100     0.4605610   -0.7505921    -0.0000001    0.0000001     0.0000020   -0.0000013    -0.8052708   -0.2668404 
   0.180991000     0.3558079   -0.8034613     0.0000002   -0.0000009     0.0000020    0.0000003    -0.8392598   -0.1213683 
   0.182990900     0.2461878   -0.8395104     0.0000009    0.0000003     0.0000018   -0.0000009    -0.8478598    0.0269023 
   0.184990800     0.1350293   -0.8600070     0.0000008    0.0000021     0.0000027   -0.0000023    -0.8305959    0.1735361 
   0.186990700     0.0230160   -0.8654304     0.0000008   -0.0000003     0.0000015   -0.0000034    -0.7886237    0.3143915 
   0.188990600    -0.0624671   -0.8573847     0.0000008   -0.0000019     0.0000030   -0.0000039    -0.7370083    0.4251335 
   0.190990500    -0.1899007   -0.8326983     0.0000007   -0.0000023     0.0000028   -0.0000029    -0.6411989    0.5598797 
   0.192990400    -0.2955761   -0.7947391     0.0000002    0.0000003     0.0000010   -0.0000013    -0.5357205    0.6629605 
   0.194990300    -0.3918026   -0.7446134     0.0000008   -0.0000016     0.0000014   -0.0000035    -0.4173144    0.7449583 
   0.196990200    -0.4806672   -0.6827922     0.0000002   -0.0000016     0.0000008   -0.0000022    -0.2874168    0.8057861 
   0.198990100    -0.5608184   -0.6092460    -0.0000004   -0.0000011     0.0000016   -0.0000016    -0.1496307    0.8440062 
   0.200990000    -0.6316769   -0.5247706    -0.0000018   -0.0000023     0.0000009   -0.0000015    -0.0079251    0.8587399 
   0.202989900    -0.6911800   -0.4307481    -0.0000019   -0.0000009     0.0000015   -0.0000017     0.1342238    0.8497554 
   0.204989800    -0.7381695   -0.3284420    -0.0000026   -0.0000016     0.0000016   -0.0000027     0.2730536    0.8174782 
   0.206989700    -0.7721009   -0.2192987    -0.0000015   -0.0000018     0.0000003   -0.0000012     0.4047722    0.7627911 
   0.208989600    -0.7897609   -0.1046625    -0.0000023   -0.0000011     0.0000015   -0.0000044     0.5255876    0.6867675 
   0.210989500    -0.7912253    0.0144574    -0.0000040   -0.0000005     0.0000011   -0.0000022     0.6323648    0.5915191 
   0.212989400    -0.7749532    0.1351263    -0.0000025    0.0000003     0.0000032   -0.0000021     0.7220927    0.4790274 
   0.214989300    -0.7399187    0.2544994    -0.0000015    0.0000012     0.0000013   -0.0000042     0.7914361    0.3524043 
   0.216989200    -0.6862754    0.3697074    -0.0000018    0.0000008     0.0000021   -0.0000065     0.8376034    0.2151362 
   0.218989100    -0.6139078    0.4774416    -0.0000025   -0.0000011     0.0000001   -0.0000076     0.8569110    0.0733158 
   0.220989000    -0.5232030    0.5745348    -0.0000016    0.0000005    -0.0000053   -0.0000053     0.8532534   -0.0632110 
   0.222988900    -0.4150525    0.6577628    -0.0000019    0.0000014    -0.0000048    0.0000017     0.8361036   -0.1992836 
   0.224988800    -0.2921486    0.7234644    -0.0000022    0.0000012    -0.0000012    0.0000020     0.7950290   -0.3382075 
   0.226988700    -0.1576914    0.7680351    -0.0000018    0.0000020     0.0000009    0.0000013     0.7272785   -0.4692299 
   0.228988600    -0.0160646    0.7885591    -0.0000021    0.0000024     0.0000033    0.0000006     0.6360316   -0.5867623 
   0.230988500     0.1287436    0.7842755    -0.0000001    0.0000029     0.0000046   -0.0000021     0.5249883   -0.6866484 
   0.232988400     0.2718894    0.7533404    -0.0000002    0.0000033     0.0000028   -0.0000024     0.3975237   -0.7657141 
   0.234988300     0.4081879    0.6979844    -0.0000015    0.0000033     0.0000010   -0.0000032     0.2576289   -0.8212118 
   0.236988200     0.5331746    0.6190226    -0.0000008    0.0000030     0.0000024   -0.0000036     0.1097050   -0.8511512 
   0.238988100     0.6412680    0.5199267     0.0000005    0.0000031     0.0000025   -0.0000035    -0.0414946   -0.8544078 
   0.240988000     0.7297656    0.4040130     0.0000013    0.0000015     0.0000005   -0.0000027    -0.1911422   -0.8308126 
   0.242987900     0.7955403    0.2765415     0.0000016    0.0000023     0.0000026   -0.0000025    -0.3341928   -0.7807229 
   0.244987800     0.8379068    0.1411610     0.0000016    0.0000015     0.0000034   -0.0000036    -0.4658681   -0.7061409 
   0.246987700     0.8563450    0.0028800     0.0000051    0.0000019     0.0000019   -0.0000015    -0.5819638   -0.6091672 
   0.248987600     0.8516883   -0.1343281     0.0000030    0.0000004     0.0000037   -0.0000013    -0.6788138   -0.4932923 
   0.250987500     0.8252770   -0.2665631     0.0000049   -0.0000003     0.0000054   -0.0000022    -0.7524979   -0.3623471 
   0.252987400     0.7786264   -0.3896972     0.0000030   -0.0000032     0.0000062   -0.0000026    -0.8020254   -0.2225783 
   0.254987300     0.7157625   -0.5009102     0.0000027   -0.0000009     0.0000053   -0.0000046    -0.8270199   -0.0759938 
   0.256987200     0.6384516   -0.5988043     0.0000024   -0.0000019     0.0000049   -0.0000064    -0.8253202    0.0721873 
   0.258987100     0.5499598   -0.6835371     0.0000003   -0.0000012     0.0000051   -0.0000075    -0.7975319    0.2172780 
   0.260987000     0.4514749   -0.7518576     0.0000012   -0.0000003     0.0000060   -0.0000089    -0.7453372    0.3542387 
   0.262986900     0.3460917   -0.8048159     0.0000010   -0.0000024     0.0000042   -0.0000121    -0.6705867    0.4791667 
   0.264986800     0.2366408   -0.8418054     0.0000000   -0.0000023     0.0000011   -0.0000126    -0.5759551    0.5885314 
   0.266986700     0.1242756   -0.8626859     0.0000007   -0.0000029    -0.0000011   -0.0000127    -0.4646977    0.6795709 
   0.268986600     0.0125858   -0.8685840    -0.0000001   -0.0000036    -0.0000042   -0.0000118    -0.3400811    0.7499474 
   0.270986500    -0.0969921   -0.8591751    -0.0000004   -0.0000042    -0.0000058   -0.0000105    -0.2060822    0.7977326 
   0.272986400    -0.2030386   -0.8360573    -0.0000001   -0.0000026    -0.0000071   -0.0000075    -0.0666153    0.8222463 
   0.274986300    -0.3045520   -0.7998357    -0.0000008   -0.0000045    -0.0000053   -0.0000051     0.0742439    0.8227503 
   0.276986200    -0.4000240   -0.7505871    -0.0000014   -0.0000029    -0.0000028   -0.0000042     0.2131035    0.7987270 
   0.278986100    -0.4888273   -0.6894366    -0.0000015   -0.0000034    -0.0000011   -0.0000040     0.3455665    0.7520127 
   0.280986000    -0.5688509   -0.6170618    -0.0000013   -0.0000032    -0.0000001   -0.0000050     0.4670009    0.6829171 
   0.282985900    -0.6390798   -0.5342526    -0.0000036   -0.0000034     0.0000001   -0.0000066     0.5704495    0.5970232 
   0.284985800    -0.6984072   -0.4425494    -0.0000050   -0.0000042    -0.0000026   -0.0000078     0.6633869    0.5005793 
   0.286985700    -0.7451662   -0.3428557    -0.0000037   -0.0000004    -0.0000031   -0.0000091     0.7413960    0.3859358 
   0.288985600    -0.7781890   -0.2374657    -0.0000045   -0.0000012    -0.0000041   -0.0000090     0.7985691    0.2585691 
   0.290985500    -0.7968438   -0.1274059    -0.0000041    0.0000000    -0.0000049   -0.0000096     0.8331171    0.1230328 
   0.292985400    -0.7999908   -0.0140801    -0.0000044   -0.0000004    -0.0000060   -0.0000065     0.8445737   -0.0169546 
   0.294985300    -0.7867721    0.1005600    -0.0000061    0.0000005    -0.0000067   -0.0000081     0.8321831   -0.1572278 
   0.296985200    -0.7564050    0.2156351    -0.0000047    0.0000015    -0.0000081   -0.0000065     0.7963372   -0.2939485 
   0.298985100    -0.7075577    0.3274544    -0.0000044    0.0000011    -0.0000090   -0.0000056     0.7377139   -0.4233100 
   0.300985000    -0.6403114    0.4331317    -0.0000040    0.0000031    -0.0000106   -0.0000041     0.6577746   -0.5413418 
   0.302984900    -0.5547902    0.5286342    -0.0000037    0.0000024    -0.0000110   -0.0000025     0.5584395   -0.6445135 
   0.304984800    -0.4524898    0.6097845    -0.0000027    0.0000031    -0.0000118   -0.0000011     0.4423997   -0.7298161 
   0.306984700    -0.3350630    0.6734690    -0.0000038    0.0000044    -0.0000098   -0.0000007     0.3126811   -0.7941648 
   0.308984600    -0.2063439    0.7154255    -0.0000012    0.0000046    -0.0000091    0.0000036     0.1733394   -0.8351336 
   0.310984500    -0.0704866    0.7332977    -0.0000020    0.0000048    -0.0000061    0.0000037     0.0283651   -0.8506762 
   0.312984400     0.0673618    0.7240410    -0.0000009    0.0000043    -0.0000064    0.0000039    -0.1159933   -0.8404836 
   0.314984300     0.2010899    0.6876871     0.0000025    0.0000039    -0.0000062    0.0000045    -0.2553191   -0.8081753 
