! MS46122B
! 2250307/22442219
! 7/31/2025 8:37:30 AM
! C:\USERS\SPARKY\DOCUMENTS\VNA_DATA\JULY31_2025\295K\PORT6.S2P
! CHANNEL.1
! TR.MEASUREMENT
! RAW.DATA
# GHZ S RI R 50.0
! FREQ.GHZ         S11RE         S11IM         S21RE         S21IM         S12RE         S12IM         S22RE         S22IM         
!; PortSelection: Port_12
   0.001000000     1.0440630   -0.0698791     0.0000015    0.0000076     0.0000422   -0.0000313     0.8137578   -0.5558916 
   0.002999900     0.9514875   -0.1918740     0.0000028   -0.0000013     0.0000060   -0.0000075     0.0285188   -0.8770821 
   0.004999800     0.8759454   -0.2750137    -0.0000032    0.0000029     0.0000074   -0.0000251    -0.7538243   -0.4288717 
   0.006999700     0.7905406   -0.3642174     0.0000025   -0.0000001     0.0000017    0.0000004    -0.8095957    0.4860685 
   0.008999600     0.6995700   -0.4005428     0.0000004    0.0000000     0.0000000   -0.0000033    -0.1136844    0.9870720 
   0.010999500     0.6243523   -0.4246162    -0.0000021   -0.0000008     0.0000007    0.0000000     0.5757027    0.8014659 
   0.012999400     0.5600158   -0.4387977    -0.0000004    0.0000019    -0.0000009    0.0000034     0.9000310    0.3384309 
   0.014999300     0.5054183   -0.4461810    -0.0000010   -0.0000029    -0.0000001   -0.0000005     0.9347005   -0.1137896 
   0.016999200     0.4581272   -0.4483241    -0.0000008    0.0000013    -0.0000020   -0.0000005     0.8056591   -0.4676498 
   0.018999100     0.4183639   -0.4467039    -0.0000013    0.0000018     0.0000015    0.0000024     0.5947471   -0.7134567 
   0.020999000     0.3849683   -0.4428909    -0.0000016    0.0000026    -0.0000007   -0.0000004     0.3504721   -0.8617433 
   0.022998900     0.3559704   -0.4377455    -0.0000012    0.0000003     0.0000029   -0.0000020     0.1008694   -0.9268607 
   0.024998800     0.3253078   -0.4105614     0.0000022   -0.0000018     0.0000014   -0.0000015    -0.1266721   -0.9948264 
   0.026998700     0.3076368   -0.4251417     0.0000014   -0.0000031    -0.0000018    0.0000021    -0.3497576   -0.8651410 
   0.028998600     0.2869275   -0.4178023     0.0000006   -0.0000012     0.0000014   -0.0000050    -0.5310729   -0.7637793 
   0.030998500     0.2677258   -0.4101169     0.0000013    0.0000007     0.0000021   -0.0000027    -0.6774292   -0.6314895 
   0.032998400     0.2463816   -0.3842645     0.0000011    0.0000025     0.0000035   -0.0000016    -0.8343692   -0.5272001 
   0.034998300     0.2320696   -0.3938282     0.0000025   -0.0000028     0.0000006   -0.0000016    -0.8591974   -0.3138979 
   0.036998200     0.2158657   -0.3852536     0.0000063   -0.0000029     0.0000015   -0.0000023    -0.8976853   -0.1447899 
   0.038998100     0.2005940   -0.3767360     0.0000011   -0.0000030     0.0000021   -0.0000012    -0.9045129    0.0224054 
   0.040998000     0.1861884   -0.3681085     0.0000011   -0.0000013    -0.0000001   -0.0000064    -0.8820336    0.1832694 
   0.042997900     0.1725795   -0.3593962    -0.0000020   -0.0000014    -0.0000025    0.0000011    -0.8334699    0.3341467 
   0.044997800     0.1586855   -0.3364015    -0.0000024   -0.0000026    -0.0000007   -0.0000033    -0.8281283    0.4973857 
   0.046997700     0.1464653   -0.3422080     0.0000010    0.0000002    -0.0000015   -0.0000024    -0.6702118    0.5947614 
   0.048997600     0.1350973   -0.3336100    -0.0000008   -0.0000026    -0.0000026   -0.0000023    -0.5610501    0.6986004 
   0.050997500     0.1246960   -0.3250634    -0.0000032   -0.0000036    -0.0000032   -0.0000012    -0.4362344    0.7826213 
   0.052997400     0.1152401   -0.3166281    -0.0000065    0.0000042     0.0000053   -0.0000062    -0.3010430    0.8441733 
   0.054997300     0.1065433   -0.3084781    -0.0000051   -0.0000089    -0.0000155   -0.0000008    -0.1552586    0.8829125 
   0.056997200     0.0984215   -0.3008170    -0.0000052   -0.0000045    -0.0000024   -0.0000017    -0.0088349    0.8961099 
   0.058997100     0.0913377   -0.2934924    -0.0000025    0.0000007    -0.0000052    0.0000006     0.1397168    0.8842912 
   0.060997000     0.0848494   -0.2866481    -0.0000004   -0.0000038    -0.0000045   -0.0000028     0.2850567    0.8475243 
   0.062996900     0.0791320   -0.2802171    -0.0000021    0.0000002    -0.0000031   -0.0000009     0.4223619    0.7868475 
   0.064996800     0.0741049   -0.2742051    -0.0000059    0.0000032    -0.0000024    0.0000018     0.5482123    0.7030520 
   0.066996700     0.0695283   -0.2686273    -0.0000020    0.0000031    -0.0000019    0.0000047     0.6587136    0.5986740 
   0.068996600     0.0653611   -0.2634596    -0.0000027    0.0000018    -0.0000007    0.0000046     0.7510014    0.4751270 
   0.070996500     0.0615653   -0.2589417    -0.0000038    0.0000068    -0.0000037    0.0000023     0.8209778    0.3369423 
   0.072996400     0.0579220   -0.2545389     0.0000014    0.0000021    -0.0000025    0.0000011     0.8664286    0.1873462 
   0.074996300     0.0544204   -0.2504212    -0.0000037    0.0000019    -0.0000021    0.0000008     0.8851140    0.0309012 
   0.076996200     0.0509964   -0.2465914    -0.0000001    0.0000045     0.0000008    0.0000019     0.8753062   -0.1285145 
   0.078996100     0.0475692   -0.2429677    -0.0000017    0.0000018     0.0000003    0.0000032     0.8374231   -0.2846793 
   0.080996000     0.0440049   -0.2395683     0.0000002    0.0000031     0.0000021    0.0000013     0.7709291   -0.4321828 
   0.082995900     0.0402459   -0.2362713    -0.0000003    0.0000054     0.0000029    0.0000034     0.6782784   -0.5656746 
   0.084995800     0.0365531   -0.2327288     0.0000003    0.0000039    -0.0000003    0.0000039     0.5614079   -0.6807904 
   0.086995700     0.0325998   -0.2293639     0.0000055    0.0000053     0.0000036    0.0000038     0.4254930   -0.7727436 
   0.088995600     0.0285003   -0.2259006     0.0000039    0.0000047     0.0000061    0.0000041     0.2743255   -0.8374243 
   0.090995500     0.0245137   -0.2224639     0.0000043    0.0000043     0.0000036    0.0000028     0.1138820   -0.8729563 
   0.092995400     0.0204537   -0.2190327     0.0000033    0.0000013     0.0000054    0.0000037    -0.0503317   -0.8781798 
   0.094995300     0.0163438   -0.2152106     0.0000044   -0.0000015     0.0000069    0.0000006    -0.2121468   -0.8534418 
   0.096995200     0.0122969   -0.2111562     0.0000076    0.0000035     0.0000056    0.0000025    -0.3661127   -0.7991093 
   0.098995100     0.0083492   -0.2069018     0.0000061   -0.0000012     0.0000035    0.0000021    -0.5070304   -0.7181252 
   0.100995000     0.0030391   -0.2031933     0.0000044    0.0000002     0.0000039   -0.0000017    -0.6314677   -0.6129330 
   0.102994900    -0.0007092   -0.1983650     0.0000044   -0.0000017     0.0000046   -0.0000026    -0.7325163   -0.4884427 
   0.104994800    -0.0041220   -0.1932977     0.0000036   -0.0000025     0.0000051   -0.0000029    -0.8088288   -0.3489173 
   0.106994700    -0.0070721   -0.1879138     0.0000034   -0.0000044     0.0000050   -0.0000040    -0.8586923   -0.1989286 
   0.108994600    -0.0096886   -0.1825174     0.0000034   -0.0000038     0.0000036   -0.0000053    -0.8808694   -0.0439809 
   0.110994500    -0.0118306   -0.1769893     0.0000034   -0.0000043     0.0000023   -0.0000061    -0.8758296    0.1111895 
   0.112994400    -0.0135428   -0.1714150     0.0000032   -0.0000051     0.0000025   -0.0000062    -0.8438940    0.2615915 
   0.114994300    -0.0147434   -0.1657963    -0.0000006   -0.0000058     0.0000006   -0.0000060    -0.7871043    0.4033263 
   0.116994200    -0.0154122   -0.1602563     0.0000008   -0.0000062     0.0000007   -0.0000060    -0.7071365    0.5318682 
   0.118994100    -0.0155908   -0.1548234    -0.0000010   -0.0000057    -0.0000014   -0.0000044    -0.6073689    0.6441208 
   0.120994000    -0.0151811   -0.1493801    -0.0000019   -0.0000073    -0.0000020   -0.0000053    -0.4907843    0.7369219 
   0.122993900    -0.0143761   -0.1444218    -0.0000037   -0.0000055    -0.0000003   -0.0000043    -0.3609645    0.8086510 
   0.124993800    -0.0130912   -0.1397935    -0.0000037   -0.0000059    -0.0000024   -0.0000050    -0.2216810    0.8576865 
   0.126993700    -0.0114477   -0.1355985    -0.0000047   -0.0000052    -0.0000025   -0.0000039    -0.0769001    0.8824534 
   0.128993600    -0.0094701   -0.1317261    -0.0000059   -0.0000037    -0.0000047   -0.0000057     0.0694030    0.8830074 
   0.130993500    -0.0072252   -0.1285022    -0.0000050   -0.0000023    -0.0000058   -0.0000032     0.2137809    0.8591910 
   0.132993400    -0.0047622   -0.1258300    -0.0000076   -0.0000024    -0.0000056   -0.0000033     0.3520482    0.8119801 
   0.134993300    -0.0022110   -0.1237423    -0.0000078   -0.0000017    -0.0000066   -0.0000014     0.4803425    0.7425928 
   0.136993200     0.0003577   -0.1222317    -0.0000067    0.0000001    -0.0000056   -0.0000007     0.5955851    0.6527675 
   0.138993100     0.0028304   -0.1212900    -0.0000087    0.0000012    -0.0000062    0.0000011     0.6943129    0.5446693 
   0.140993000     0.0051165   -0.1208929    -0.0000068    0.0000008    -0.0000061    0.0000004     0.7741463    0.4212987 
   0.142992900     0.0071543   -0.1210483    -0.0000075    0.0000030    -0.0000061    0.0000013     0.8323323    0.2861297 
   0.144992800     0.0089114   -0.1217344    -0.0000051    0.0000048    -0.0000045    0.0000039     0.8664126    0.1423315 
   0.146992700     0.0101841   -0.1227450    -0.0000066    0.0000056    -0.0000038    0.0000043     0.8762487   -0.0054360 
   0.148992600     0.0109634   -0.1240996    -0.0000029    0.0000076    -0.0000044    0.0000067     0.8608430   -0.1535672 
   0.150992500     0.0112423   -0.1255603    -0.0000026    0.0000063    -0.0000029    0.0000057     0.8207066   -0.2975114 
   0.152992400     0.0109139   -0.1273166    -0.0000023    0.0000067    -0.0000009    0.0000065     0.7558453   -0.4327862 
   0.154992300     0.0100301   -0.1290852     0.0000000    0.0000062     0.0000003    0.0000060     0.6681566   -0.5551835 
   0.156992200     0.0085328   -0.1308203     0.0000009    0.0000080    -0.0000002    0.0000073     0.5601443   -0.6611083 
   0.158992100     0.0064855   -0.1323951     0.0000018    0.0000082     0.0000025    0.0000082     0.4350758   -0.7467272 
   0.160992000     0.0039073   -0.1336982     0.0000033    0.0000077     0.0000038    0.0000069     0.2965971   -0.8093964 
   0.162991900     0.0008290   -0.1346563     0.0000043    0.0000060     0.0000052    0.0000057     0.1488989   -0.8467193 
   0.164991800    -0.0026966   -0.1351851     0.0000065    0.0000059     0.0000071    0.0000040    -0.0032797   -0.8575985 
   0.166991700    -0.0065060   -0.1351992     0.0000050    0.0000055     0.0000071    0.0000038    -0.1546418   -0.8416533 
   0.168991600    -0.0106027   -0.1346013     0.0000072    0.0000035     0.0000061    0.0000045    -0.3009818   -0.7990432 
   0.170991500    -0.0148864   -0.1333783     0.0000078    0.0000020     0.0000076    0.0000024    -0.4375057   -0.7314271 
   0.172991400    -0.0192220   -0.1314852     0.0000065    0.0000010     0.0000079    0.0000030    -0.5594919   -0.6410042 
   0.174991300    -0.0235080   -0.1289281     0.0000080    0.0000001     0.0000077    0.0000003    -0.6634006   -0.5310637 
   0.176991200    -0.0276238   -0.1256764     0.0000071   -0.0000021     0.0000081    0.0000003    -0.7460459   -0.4051248 
   0.178991100    -0.0314577   -0.1217706     0.0000063   -0.0000027     0.0000064   -0.0000004    -0.8053457   -0.2670305 
   0.180991000    -0.0348658   -0.1172952     0.0000070   -0.0000044     0.0000072   -0.0000018    -0.8393248   -0.1215260 
   0.182990900    -0.0377907   -0.1121440     0.0000069   -0.0000038     0.0000092   -0.0000040    -0.8479112    0.0268716 
   0.184990800    -0.0400618   -0.1065536     0.0000051   -0.0000050     0.0000084   -0.0000063    -0.8306590    0.1735837 
   0.186990700    -0.0416222   -0.1005225     0.0000031   -0.0000070     0.0000083   -0.0000072    -0.7888104    0.3146548 
   0.188990600    -0.0403311   -0.0951420     0.0000044   -0.0000066     0.0000062   -0.0000103    -0.7372933    0.4260416 
   0.190990500    -0.0421220   -0.0877437     0.0000030   -0.0000083     0.0000043   -0.0000092    -0.6407313    0.5613028 
   0.192990400    -0.0414446   -0.0810076     0.0000011   -0.0000085     0.0000023   -0.0000100    -0.5346746    0.6642904 
   0.194990300    -0.0395845   -0.0744993     0.0000006   -0.0000084     0.0000011   -0.0000105    -0.4158868    0.7461220 
   0.196990200    -0.0368288   -0.0682608    -0.0000022   -0.0000074     0.0000014   -0.0000106    -0.2857274    0.8067231 
   0.198990100    -0.0331947   -0.0624044    -0.0000035   -0.0000095    -0.0000014   -0.0000095    -0.1478442    0.8446927 
   0.200990000    -0.0287447   -0.0569638    -0.0000057   -0.0000089    -0.0000029   -0.0000110    -0.0060308    0.8592202 
   0.202989900    -0.0235184   -0.0522004    -0.0000071   -0.0000088    -0.0000032   -0.0000093     0.1360682    0.8500262 
   0.204989800    -0.0176359   -0.0481933    -0.0000088   -0.0000077    -0.0000047   -0.0000082     0.2747422    0.8176241 
   0.206989700    -0.0112046   -0.0450837    -0.0000091   -0.0000034    -0.0000058   -0.0000077     0.4061320    0.7630148 
   0.208989600    -0.0042777   -0.0429033    -0.0000091   -0.0000037    -0.0000054   -0.0000061     0.5265830    0.6872948 
   0.210989500     0.0029665   -0.0417379    -0.0000106   -0.0000029    -0.0000070   -0.0000042     0.6331724    0.5927029 
   0.212989400     0.0103585   -0.0416996    -0.0000110   -0.0000012    -0.0000079   -0.0000043     0.7229297    0.4813215 
   0.214989300     0.0177754   -0.0427419    -0.0000098    0.0000010    -0.0000085   -0.0000022     0.7931200    0.3564357 
   0.216989200     0.0250258   -0.0449528    -0.0000087    0.0000024    -0.0000083   -0.0000007     0.8418790    0.2211794 
   0.218989100     0.0318853   -0.0482462    -0.0000106    0.0000048    -0.0000074    0.0000015     0.8672646    0.0792667 
   0.220989000     0.0382394   -0.0525905    -0.0000095    0.0000068    -0.0000070    0.0000024     0.8685759   -0.0658290 
   0.222988900     0.0439230   -0.0578876    -0.0000068    0.0000078    -0.0000057    0.0000032     0.8450747   -0.2097021 
   0.224988800     0.0487618   -0.0640921    -0.0000056    0.0000085    -0.0000038    0.0000045     0.7976804   -0.3483029 
   0.226988700     0.0526788   -0.0710184    -0.0000046    0.0000107    -0.0000029    0.0000045     0.7269233   -0.4770606 
   0.228988600     0.0555606   -0.0784931    -0.0000035    0.0000107    -0.0000034    0.0000070     0.6344013   -0.5925332 
   0.230988500     0.0573383   -0.0864358    -0.0000026    0.0000111    -0.0000001    0.0000079     0.5229658   -0.6907806 
   0.232988400     0.0578572   -0.0945564    -0.0000012    0.0000116     0.0000013    0.0000070     0.3954717   -0.7685559 
   0.234988300     0.0572388   -0.1028467     0.0000024    0.0000101     0.0000019    0.0000061     0.2558679   -0.8230786 
   0.236988200     0.0552898   -0.1111236     0.0000045    0.0000099     0.0000040    0.0000069     0.1083434   -0.8523419 
   0.238988100     0.0522237   -0.1190883     0.0000061    0.0000077     0.0000052    0.0000070    -0.0423324   -0.8552086 
   0.240988000     0.0480217   -0.1265855     0.0000060    0.0000085     0.0000069    0.0000057    -0.1915500   -0.8314583 
   0.242987900     0.0428309   -0.1334845     0.0000086    0.0000075     0.0000091    0.0000032    -0.3342293   -0.7813509 
   0.244987800     0.0366782   -0.1398546     0.0000089    0.0000057     0.0000110    0.0000043    -0.4656364   -0.7069032 
   0.246987700     0.0296219   -0.1451294     0.0000123    0.0000042     0.0000130    0.0000019    -0.5816439   -0.6102524 
   0.248987600     0.0218308   -0.1494394     0.0000109    0.0000027     0.0000123   -0.0000007    -0.6785563   -0.4947707 
   0.250987500     0.0133688   -0.1525953     0.0000113   -0.0000003     0.0000143   -0.0000023    -0.7531224   -0.3641535 
   0.252987400     0.0045175   -0.1547812     0.0000127   -0.0000022     0.0000153   -0.0000043    -0.8032542   -0.2231889 
   0.254987300    -0.0043288   -0.1556308     0.0000101   -0.0000027     0.0000151   -0.0000060    -0.8275846   -0.0759882 
   0.256987200    -0.0131452   -0.1553023     0.0000113   -0.0000055     0.0000157   -0.0000100    -0.8255847    0.0721923 
   0.258987100    -0.0219071   -0.1539987     0.0000095   -0.0000070     0.0000155   -0.0000131    -0.7976634    0.2172713 
   0.260987000    -0.0302553   -0.1513042     0.0000073   -0.0000067     0.0000128   -0.0000159    -0.7453554    0.3542817 
   0.262986900    -0.0382728   -0.1474587     0.0000065   -0.0000109     0.0000113   -0.0000184    -0.6705346    0.4792750 
   0.264986800    -0.0456556   -0.1425820     0.0000036   -0.0000103     0.0000089   -0.0000215    -0.5758197    0.5886923 
   0.266986700    -0.0524514   -0.1368199     0.0000027   -0.0000117     0.0000039   -0.0000231    -0.4644224    0.6797709 
   0.268986600    -0.0581390   -0.1301428     0.0000030   -0.0000118    -0.0000004   -0.0000214    -0.3397746    0.7501822 
   0.270986500    -0.0626100   -0.1231217    -0.0000013   -0.0000123    -0.0000034   -0.0000195    -0.2057415    0.7979454 
   0.272986400    -0.0660397   -0.1156237    -0.0000043   -0.0000131    -0.0000071   -0.0000190    -0.0663683    0.8225738 
   0.274986300    -0.0682585   -0.1079163    -0.0000056   -0.0000111    -0.0000081   -0.0000151     0.0743380    0.8231985 
   0.276986200    -0.0693247   -0.1000879    -0.0000081   -0.0000120    -0.0000081   -0.0000129     0.2128391    0.7996246 
   0.278986100    -0.0692211   -0.0923033    -0.0000079   -0.0000100    -0.0000100   -0.0000141     0.3451097    0.7541230 
   0.280986000    -0.0679766   -0.0848178    -0.0000111   -0.0000098    -0.0000084   -0.0000127     0.4676490    0.6876537 
   0.282985900    -0.0656349   -0.0777175    -0.0000111   -0.0000078    -0.0000095   -0.0000153     0.5770214    0.6019410 
   0.284985800    -0.0622018   -0.0711748    -0.0000122   -0.0000054    -0.0000099   -0.0000142     0.6709734    0.4992675 
   0.286985700    -0.0579397   -0.0656619    -0.0000129   -0.0000037    -0.0000117   -0.0000108     0.7463695    0.3824857 
   0.288985600    -0.0528898   -0.0612167    -0.0000137   -0.0000011    -0.0000119   -0.0000102     0.8017566    0.2547243 
   0.290985500    -0.0472019   -0.0579101    -0.0000140    0.0000019    -0.0000166   -0.0000090     0.8350801    0.1192767 
   0.292985400    -0.0410119   -0.0557705    -0.0000140    0.0000032    -0.0000170   -0.0000083     0.8456501   -0.0204102 
   0.294985300    -0.0347831   -0.0549901    -0.0000136    0.0000054    -0.0000163   -0.0000044     0.8326398   -0.1603113 
   0.296985200    -0.0286300   -0.0554572    -0.0000123    0.0000087    -0.0000171   -0.0000028     0.7963758   -0.2965758 
   0.298985100    -0.0227984   -0.0571994    -0.0000093    0.0000100    -0.0000169   -0.0000001     0.7375137   -0.4254095 
   0.300985000    -0.0174756   -0.0601723    -0.0000086    0.0000112    -0.0000161    0.0000043     0.6575571   -0.5429317 
   0.302984900    -0.0129546   -0.0643424    -0.0000080    0.0000107    -0.0000143    0.0000057     0.5584174   -0.6456987 
   0.304984800    -0.0094257   -0.0695667    -0.0000058    0.0000131    -0.0000120    0.0000077     0.4427622   -0.7307537 
   0.306984700    -0.0071070   -0.0757159    -0.0000020    0.0000129    -0.0000109    0.0000100     0.3135904   -0.7950352 
   0.308984600    -0.0061472   -0.0825508    -0.0000016    0.0000136    -0.0000087    0.0000130     0.1749495   -0.8364781 
   0.310984500    -0.0067208   -0.0898086     0.0000013    0.0000134    -0.0000064    0.0000130     0.0304278   -0.8534067 
   0.312984400    -0.0090622   -0.0973268     0.0000042    0.0000126    -0.0000042    0.0000133    -0.1154248   -0.8453790 
   0.314984300    -0.0131283   -0.1045864     0.0000070    0.0000119    -0.0000011    0.0000138    -0.2581932   -0.8119205 
