! MS46122B
! 2250307/22442219
! 8/4/2025 8:18:16 AM
! C:\USERS\SPARKY\DOCUMENTS\VNA_DATA\AUGUST4_2025\3K\PORT1_REPEAT5.S2P
! CHANNEL.1
! TR.MEASUREMENT
! RAW.DATA
# GHZ S RI R 50.0
! FREQ.GHZ         S11RE         S11IM         S21RE         S21IM         S12RE         S12IM         S22RE         S22IM         
!; PortSelection: Port_12
   0.001000000     1.0445130   -0.0681970    -0.0004316   -0.0010144    -0.0003845   -0.0010431     0.8165897   -0.5535121 
   0.002999900     0.9608662   -0.1952940    -0.0237406   -0.0153788    -0.0247911   -0.0160830     0.0597510   -0.8773440 
   0.004999800     0.8708628   -0.3129578    -0.1430940    0.0274987    -0.1506515    0.0320764    -0.6975273   -0.3570139 
   0.006999700     0.7725911   -0.4062697    -0.1864732    0.1387043    -0.1910064    0.1522651    -0.7364942    0.2713314 
   0.008999600     0.5944452   -0.3999728    -0.0546996    0.5178785    -0.0373199    0.5268852     0.3106402    0.6063483 
   0.010999500     0.5684345   -0.3263812     0.3821867    0.4872400     0.3895442    0.4915605     0.4697232   -0.2725887 
   0.012999400     0.5831122   -0.3390355     0.5629310    0.2434553     0.5781288    0.2513603    -0.0135879   -0.5525513 
   0.014999300     0.5723513   -0.3818424     0.6024393    0.0369435     0.6236694    0.0364420    -0.3764454   -0.4480619 
   0.016999200     0.5419924   -0.4249049     0.5902545   -0.1280744     0.6099375   -0.1389293    -0.5598541   -0.2268251 
   0.018999100     0.5008398   -0.4617745     0.5507218   -0.2695369     0.5633029   -0.2871726    -0.6087772    0.0107640 
   0.020999000     0.4515493   -0.4897341     0.4892914   -0.3935421     0.4927855   -0.4130290    -0.5570399    0.2202972 
   0.022998900     0.3980218   -0.5076513     0.4081096   -0.5024534     0.4034501   -0.5190437    -0.4373744    0.3785975 
   0.024998800     0.3390021   -0.4899105     0.3493676   -0.6036847     0.2901617   -0.6109461    -0.3061616    0.5093585 
   0.026998700     0.2877211   -0.5067980     0.1864893   -0.6704085     0.1746130   -0.6723980    -0.1058283    0.5079170 
   0.028998600     0.2369970   -0.4885218     0.0475771   -0.7202164     0.0385926   -0.7150281     0.0597868    0.4800336 
   0.030998500     0.1938169   -0.4596941    -0.1047936   -0.7400788    -0.1076198   -0.7304053     0.1988100    0.4002316 
   0.032998400     0.1621922   -0.4064983    -0.2370972   -0.7661104    -0.2686034   -0.7131261     0.3177954    0.3124787 
   0.034998300     0.1415959   -0.3838150    -0.4184461   -0.6708563    -0.4087864   -0.6651337     0.3426862    0.1432440 
   0.036998200     0.1340874   -0.3458210    -0.5596424   -0.5813680    -0.5475516   -0.5811720     0.3347036    0.0040087 
   0.038998100     0.1372109   -0.3135289    -0.6766595   -0.4600919    -0.6661500   -0.4659211     0.2782096   -0.1154328 
   0.040998000     0.1475145   -0.2899422    -0.7622133   -0.3153891    -0.7564812   -0.3249384     0.1855851   -0.2001474 
   0.042997900     0.1611038   -0.2763069    -0.8133392   -0.1578677    -0.8123577   -0.1675446     0.0744466   -0.2408660 
   0.044997800     0.1711227   -0.2597487    -0.8607688   -0.0375748    -0.8335872    0.0074248    -0.0334684   -0.2531125 
   0.046997700     0.1818196   -0.2761785    -0.8099377    0.1623681    -0.8156531    0.1593258    -0.1359575   -0.1944681 
   0.048997600     0.1849967   -0.2848161    -0.7628877    0.3095157    -0.7675793    0.3102705    -0.2072267   -0.1229827 
   0.050997500     0.1817450   -0.2957650    -0.6912561    0.4419099    -0.6931298    0.4453164    -0.2464538   -0.0351831 
   0.052997400     0.1725398   -0.3065088    -0.5989031    0.5565934    -0.5981364    0.5595164    -0.2520956    0.0567656 
   0.054997300     0.1581882   -0.3151045    -0.4872058    0.6542194    -0.4882499    0.6523245    -0.2266233    0.1415112 
   0.056997200     0.1400495   -0.3203986    -0.3681490    0.7275681    -0.3636023    0.7256430    -0.1762334    0.2100232 
   0.058997100     0.1202896   -0.3210689    -0.2371140    0.7808321    -0.2325000    0.7756833    -0.1073749    0.2566462 
   0.060997000     0.1003769   -0.3170289    -0.0988815    0.8115154    -0.0969201    0.8037192    -0.0285374    0.2775768 
   0.062996900     0.0817287   -0.3085691     0.0429679    0.8187575     0.0408681    0.8099279     0.0519508    0.2716869 
   0.064996800     0.0663926   -0.2964674     0.1846233    0.8022570     0.1778705    0.7938064     0.1253109    0.2407729 
   0.066996700     0.0551397   -0.2819362     0.3222382    0.7612990     0.3116889    0.7553160     0.1845024    0.1887254 
   0.068996600     0.0484588   -0.2665291     0.4514458    0.6962785     0.4385775    0.6945350     0.2241355    0.1207851 
   0.070996500     0.0465146   -0.2520246     0.5684297    0.6093423     0.5547601    0.6122201     0.2401903    0.0447092 
   0.072996400     0.0485018   -0.2394459     0.6684174    0.5021374     0.6555887    0.5095862     0.2316484   -0.0318018 
   0.074996300     0.0535072   -0.2302468     0.7472435    0.3782444     0.7374011    0.3889849     0.1998280   -0.1013745 
   0.076996200     0.0599345   -0.2251392     0.8021871    0.2422583     0.7963620    0.2547834     0.1484474   -0.1562457 
   0.078996100     0.0661844   -0.2243017     0.8316005    0.0986055     0.8298028    0.1113906     0.0830453   -0.1918745 
   0.080996000     0.0706857   -0.2272913     0.8353705   -0.0471112     0.8359501   -0.0351602     0.0110395   -0.2046779 
   0.082995900     0.0722298   -0.2331849     0.8129016   -0.1900011     0.8155080   -0.1800458    -0.0602632   -0.1942204 
   0.084995800     0.0701539   -0.2403096     0.7658311   -0.3249245     0.7692794   -0.3169581    -0.1230890   -0.1624517 
   0.086995700     0.0641552   -0.2479047     0.6974759   -0.4491854     0.7008163   -0.4421979    -0.1718801   -0.1136252 
   0.088995600     0.0543914   -0.2542739     0.6103663   -0.5593251     0.6130715   -0.5516500    -0.2022721   -0.0533995 
   0.090995500     0.0415316   -0.2583116     0.5067851   -0.6523621     0.5095166   -0.6438345    -0.2125014    0.0114682 
   0.092995400     0.0261248   -0.2596488     0.3905521   -0.7268406     0.3943196   -0.7170863    -0.2024574    0.0747633 
   0.094995300     0.0098520   -0.2565889     0.2639506   -0.7805148     0.2693607   -0.7702965    -0.1746023    0.1305430 
   0.096995200    -0.0060343   -0.2496057     0.1310299   -0.8134692     0.1390040   -0.8027592    -0.1322043    0.1739642 
   0.098995100    -0.0205197   -0.2388926    -0.0052693   -0.8241217     0.0057195   -0.8145290    -0.0799473    0.2018742 
   0.100995000    -0.0344207   -0.2249798    -0.1434426   -0.8124565    -0.1292162   -0.8056389    -0.0209753    0.2128432 
   0.102994900    -0.0429380   -0.2087210    -0.2765715   -0.7784197    -0.2600689   -0.7751613     0.0344120    0.2052455 
   0.104994800    -0.0475964   -0.1913043    -0.4026359   -0.7227617    -0.3851277   -0.7238296     0.0832689    0.1815690 
   0.106994700    -0.0481504   -0.1738186    -0.5181059   -0.6463940    -0.5016498   -0.6523721     0.1213660    0.1450931 
   0.108994600    -0.0450782   -0.1575115    -0.6200706   -0.5516464    -0.6057751   -0.5617434     0.1451881    0.1001479 
   0.110994500    -0.0387594   -0.1433838    -0.7048814   -0.4406758    -0.6938884   -0.4540220     0.1532371    0.0516015 
   0.112994400    -0.0300307   -0.1320566    -0.7700093   -0.3165843    -0.7627324   -0.3317299     0.1454375    0.0045839 
   0.114994300    -0.0199800   -0.1242106    -0.8133187   -0.1826249    -0.8096834   -0.1982558     0.1234642   -0.0357430 
   0.116994200    -0.0096568   -0.1196590    -0.8327816   -0.0430507    -0.8326986   -0.0580577     0.0903279   -0.0652479 
   0.118994100    -0.0000023   -0.1181398    -0.8282549    0.0977093    -0.8308338    0.0841192     0.0503448   -0.0813403 
   0.120994000     0.0084202   -0.1190689    -0.8002240    0.2353513    -0.8042799    0.2233246     0.0085213   -0.0823687 
   0.122993900     0.0147391   -0.1217178    -0.7487252    0.3662185    -0.7539842    0.3555126    -0.0302854   -0.0687755 
   0.124993800     0.0189882   -0.1252724    -0.6762654    0.4861080    -0.6821853    0.4765697    -0.0611365   -0.0426615 
   0.126993700     0.0212409   -0.1290056    -0.5848338    0.5916870    -0.5916387    0.5824661    -0.0802784   -0.0080052 
   0.128993600     0.0218469   -0.1322253    -0.4770592    0.6798040    -0.4851209    0.6711383    -0.0857850    0.0310342 
   0.130993500     0.0213045   -0.1346925    -0.3566783    0.7489513    -0.3663241    0.7406924    -0.0771149    0.0696339 
   0.132993400     0.0201850   -0.1361733    -0.2268362    0.7969727    -0.2385707    0.7897037    -0.0553650    0.1030093 
   0.134993300     0.0189474   -0.1366653    -0.0911637    0.8228287    -0.1050653    0.8174923    -0.0230188    0.1273104 
   0.136993200     0.0181192   -0.1364924     0.0467002    0.8257926     0.0310451    0.8229578     0.0165459    0.1394943 
   0.138993100     0.0179596   -0.1360909     0.1832109    0.8059881     0.1663983    0.8065427     0.0586445    0.1379301 
   0.140993000     0.0185111   -0.1358810     0.3142726    0.7636161     0.2973252    0.7680916     0.0989943    0.1225427 
   0.142992900     0.0196095   -0.1363654     0.4363533    0.7000819     0.4207487    0.7086015     0.1329696    0.0944067 
   0.144992800     0.0210433   -0.1378794     0.5461602    0.6175934     0.5329934    0.6295593     0.1569528    0.0560445 
   0.146992700     0.0221660   -0.1406377     0.6404196    0.5172928     0.6302546    0.5318765     0.1683206    0.0113864 
   0.148992600     0.0225344   -0.1446325     0.7165642    0.4031669     0.7100475    0.4190903     0.1655756   -0.0354416 
   0.150992500     0.0215985   -0.1494000     0.7718974    0.2783151     0.7688866    0.2943976     0.1486566   -0.0801449 
   0.152992400     0.0188802   -0.1549213     0.8057432    0.1461437     0.8058728    0.1614194     0.1186846   -0.1182334 
   0.154992300     0.0141208   -0.1604775     0.8170182    0.0107259     0.8193828    0.0251447     0.0781611   -0.1461893 
   0.156992200     0.0072763   -0.1654942     0.8057070   -0.1239408     0.8098128   -0.1112178     0.0309259   -0.1611205 
   0.158992100    -0.0015288   -0.1692741     0.7724802   -0.2540169     0.7777158   -0.2428129    -0.0190401   -0.1615376 
   0.160992000    -0.0119082   -0.1710257     0.7185321   -0.3766479     0.7247319   -0.3660373    -0.0668789   -0.1473971 
   0.162991900    -0.0233365   -0.1704141     0.6456977   -0.4881082     0.6529151   -0.4781303    -0.1085151   -0.1201457 
   0.164991800    -0.0352580   -0.1669851     0.5563418   -0.5859663     0.5644552   -0.5766091    -0.1404119   -0.0821878 
   0.166991700    -0.0468075   -0.1607993     0.4529048   -0.6675392     0.4625366   -0.6587383    -0.1597831   -0.0373117 
   0.168991600    -0.0571754   -0.1520988     0.3377274   -0.7315710     0.3493628   -0.7237606    -0.1655516    0.0105852 
   0.170991500    -0.0657786   -0.1411255     0.2142396   -0.7760954     0.2277383   -0.7700138    -0.1575153    0.0574642 
   0.172991400    -0.0718522   -0.1280506     0.0851537   -0.8005836     0.1003722   -0.7967820    -0.1370347    0.0992283 
   0.174991300    -0.0750482   -0.1140971    -0.0461403   -0.8040589    -0.0296862   -0.8031833    -0.1063487    0.1325961 
   0.176991200    -0.0753104   -0.0996977    -0.1767119   -0.7862236    -0.1597062   -0.7888879    -0.0684043    0.1551915 
   0.178991100    -0.0726927   -0.0858869    -0.3030957   -0.7477853    -0.2867864   -0.7541693    -0.0270288    0.1657477 
   0.180991000    -0.0673746   -0.0733379    -0.4218363   -0.6893398    -0.4070595   -0.6988124     0.0141258    0.1641426 
   0.182990900    -0.0597667   -0.0625292    -0.5297549   -0.6114594    -0.5172431   -0.6242406     0.0513714    0.1511534 
   0.184990800    -0.0505255   -0.0540209    -0.6238243   -0.5167273    -0.6147898   -0.5314256     0.0820993    0.1288902 
   0.186990700    -0.0403597   -0.0479994    -0.7011763   -0.4074790    -0.6955917   -0.4229629     0.1034652    0.1002120 
   0.188990600    -0.0292686   -0.0452882    -0.7496518   -0.3090865    -0.7489142   -0.3210215     0.1123237    0.0714927 
   0.190990500    -0.0200455   -0.0435648    -0.7954903   -0.1603034    -0.7965101   -0.1752954     0.1152963    0.0371316 
   0.192990400    -0.0112847   -0.0443806    -0.8111860   -0.0227499    -0.8150554   -0.0374314     0.1069575    0.0083829 
   0.194990300    -0.0038140   -0.0466654    -0.8039182    0.1115734    -0.8094609    0.0986155     0.0908514   -0.0138843 
   0.196990200     0.0020185   -0.0498479    -0.7740722    0.2430506    -0.7812501    0.2308770     0.0698973   -0.0281547 
   0.198990100     0.0062645   -0.0533572    -0.7228060    0.3672870    -0.7315770    0.3563264     0.0470826   -0.0337130 
   0.200990000     0.0091526   -0.0567056    -0.6516348    0.4813798    -0.6618640    0.4715283     0.0253852   -0.0307512 
   0.202989900     0.0109194   -0.0595148    -0.5629531    0.5818256    -0.5743806    0.5734487     0.0077250   -0.0206394 
   0.204989800     0.0120049   -0.0614382    -0.4591147    0.6660829    -0.4716379    0.6594332    -0.0037300   -0.0053670 
   0.206989700     0.0128901   -0.0624764    -0.3430594    0.7322170    -0.3568975    0.7271898    -0.0077868    0.0124521 
   0.208989600     0.0140092   -0.0626963    -0.2176742    0.7780879    -0.2330478    0.7752413    -0.0042071    0.0300354 
   0.210989500     0.0156754   -0.0623282    -0.0868252    0.8029761    -0.1025747    0.8028572     0.0062781    0.0446630 
   0.212989400     0.0181642   -0.0617326     0.0462966    0.8058774     0.0312077    0.8087438     0.0222711    0.0540947 
   0.214989300     0.0215909   -0.0612897     0.1784391    0.7868812     0.1642207    0.7925307     0.0414289    0.0567374 
   0.216989200     0.0259001   -0.0614284     0.3053854    0.7463850     0.2924009    0.7546600     0.0610454    0.0518591 
   0.218989100     0.0309025   -0.0624964     0.4238979    0.6855601     0.4128393    0.6962342     0.0785908    0.0395963 
   0.220989000     0.0362853   -0.0648431     0.5307366    0.6058296     0.5219827    0.6179603     0.0915616    0.0210057 
   0.222988900     0.0416837   -0.0686436     0.6228820    0.5097201     0.6169904    0.5222028     0.0979028   -0.0020571 
   0.224988800     0.0466291   -0.0738999     0.6979418    0.3994767     0.6942543    0.4118971     0.0961886   -0.0270214 
   0.226988700     0.0507294   -0.0805707     0.7534182    0.2784704     0.7518264    0.2907731     0.0861323   -0.0513381 
   0.228988600     0.0535686   -0.0883819     0.7878149    0.1501743     0.7877782    0.1624461     0.0681999   -0.0720518 
   0.230988500     0.0548416   -0.0970352     0.8006170    0.0182237     0.8016974    0.0305762     0.0436737   -0.0867920 
   0.232988400     0.0542374   -0.1060589     0.7907717   -0.1135811     0.7938654   -0.1013738     0.0148241   -0.0934077 
   0.234988300     0.0517657   -0.1151730     0.7599151   -0.2417170     0.7645200   -0.2298056    -0.0155378   -0.0907839 
   0.236988200     0.0474450   -0.1238141     0.7080894   -0.3626878     0.7147088   -0.3513031    -0.0442997   -0.0788047 
   0.238988100     0.0415174   -0.1315513     0.6378847   -0.4728848     0.6461905   -0.4621719    -0.0687406   -0.0583083 
   0.240988000     0.0341798   -0.1380882     0.5504833   -0.5697388     0.5611998   -0.5601465    -0.0862676   -0.0311032 
   0.242987900     0.0258943   -0.1431882     0.4491895   -0.6507172     0.4624870   -0.6426380    -0.0950551    0.0007567 
   0.244987800     0.0168850   -0.1464577     0.3358483   -0.7139393     0.3519673   -0.7081668    -0.0940864    0.0342632 
   0.246987700     0.0075488   -0.1480059     0.2145767   -0.7579101     0.2322582   -0.7553555    -0.0832702    0.0662645 
   0.248987600    -0.0017898   -0.1480193     0.0884622   -0.7814642     0.1056974   -0.7829313    -0.0635256    0.0939678 
   0.250987500    -0.0106134   -0.1463358    -0.0403496   -0.7841271    -0.0236293   -0.7895392    -0.0363729    0.1149386 
   0.252987400    -0.0185552   -0.1433244    -0.1672778   -0.7661936    -0.1523157   -0.7752024    -0.0042973    0.1272793 
   0.254987300    -0.0254713   -0.1392842    -0.2895788   -0.7280822    -0.2765802   -0.7400897     0.0298231    0.1299227 
   0.256987200    -0.0312523   -0.1344844    -0.4036818   -0.6707478    -0.3937984   -0.6848181     0.0631984    0.1227902 
   0.258987100    -0.0359742   -0.1292516    -0.5072951   -0.5958312    -0.5005195   -0.6112430     0.0931024    0.1065370 
   0.260987000    -0.0395889   -0.1236239    -0.5972602   -0.5047933    -0.5936798   -0.5203850     0.1167628    0.0828003 
   0.262986900    -0.0421871   -0.1180697    -0.6713132   -0.4004231    -0.6709410   -0.4154895     0.1323715    0.0537782 
   0.264986800    -0.0438530   -0.1126905    -0.7274896   -0.2854572    -0.7294155   -0.2988920     0.1390535    0.0219451 
   0.266986700    -0.0447862   -0.1076647    -0.7641897   -0.1623690    -0.7679039   -0.1745239     0.1363048   -0.0096247 
   0.268986600    -0.0450622   -0.1030481    -0.7799569   -0.0354595    -0.7851059   -0.0459531     0.1247655   -0.0381528 
   0.270986500    -0.0449404   -0.0989753    -0.7748950    0.0923291    -0.7810688    0.0828917     0.1059485   -0.0612899 
   0.272986400    -0.0444539   -0.0952471    -0.7491530    0.2180389    -0.7560104    0.2087411     0.0819593   -0.0770457 
   0.274986300    -0.0437208   -0.0918576    -0.7029396    0.3377346    -0.7110395    0.3288132     0.0554169   -0.0843936 
   0.276986200    -0.0427574   -0.0886215    -0.6378536    0.4480125    -0.6475651    0.4400923     0.0292217   -0.0830310 
   0.278986100    -0.0416593   -0.0855685    -0.5553359    0.5462651    -0.5665561    0.5395041     0.0061357   -0.0737370 
   0.280986000    -0.0403163   -0.0826628    -0.4580037    0.6297798    -0.4702111    0.6248781    -0.0115552   -0.0581561 
   0.282985900    -0.0386812   -0.0799434    -0.3482193    0.6960064    -0.3610096    0.6933861    -0.0220997   -0.0384732 
   0.284985800    -0.0366870   -0.0774580    -0.2291749    0.7432768    -0.2417060    0.7429258    -0.0247699   -0.0174172 
   0.286985700    -0.0342745   -0.0753324    -0.1038332    0.7701945    -0.1160872    0.7724892    -0.0196362    0.0022075 
   0.288985600    -0.0313575   -0.0737574     0.0244311    0.7763550     0.0120301    0.7809878    -0.0076408    0.0179441 
   0.290985500    -0.0280046   -0.0728379     0.1517788    0.7610809     0.1399860    0.7678980     0.0093923    0.0276563 
   0.292985400    -0.0243254   -0.0727454     0.2747696    0.7250024     0.2642502    0.7337074     0.0289684    0.0298240 
   0.294985300    -0.0204500   -0.0736211     0.3898546    0.6689237     0.3809824    0.6792904     0.0483855    0.0240058 
   0.296985200    -0.0167010   -0.0755524     0.4943900    0.5946262     0.4875882    0.6058905     0.0648332    0.0105962 
   0.298985100    -0.0133209   -0.0786363     0.5846707    0.5039935     0.5802070    0.5149568     0.0756752   -0.0091289 
   0.300985000    -0.0106700   -0.0828701     0.6585109    0.3995087     0.6561063    0.4100805     0.0787895   -0.0329629 
   0.302984900    -0.0090447   -0.0881565     0.7136984    0.2840238     0.7126333    0.2945377     0.0728958   -0.0578676 
   0.304984800    -0.0087562   -0.0943269     0.7487362    0.1614117     0.7490331    0.1719687     0.0579417   -0.0806323 
   0.306984700    -0.0101300   -0.1012762     0.7623614    0.0354473     0.7638568    0.0459647     0.0348236   -0.0981712 
   0.308984600    -0.0132494   -0.1082820     0.7546540   -0.0905553     0.7579226   -0.0795976     0.0054806   -0.1076281 
   0.310984500    -0.0180922   -0.1148722     0.7259605   -0.2124034     0.7312993   -0.2013330    -0.0271144   -0.1070154 
   0.312984400    -0.0247880   -0.1206761     0.6777582   -0.3270365     0.6855153   -0.3160310    -0.0592743   -0.0951570 
   0.314984300    -0.0331701   -0.1251905     0.6115729   -0.4310445     0.6219265   -0.4211311    -0.0870423   -0.0722780 
