! MS46122B
! 2250307/22442219
! 8/4/2025 8:16:23 AM
! C:\USERS\SPARKY\DOCUMENTS\VNA_DATA\AUGUST4_2025\3K\PORT1_REPEAT4.S2P
! CHANNEL.1
! TR.MEASUREMENT
! RAW.DATA
# GHZ S RI R 50.0
! FREQ.GHZ         S11RE         S11IM         S21RE         S21IM         S12RE         S12IM         S22RE         S22IM         
!; PortSelection: Port_12
   0.001000000     1.0444630   -0.0683329    -0.0004720   -0.0010296    -0.0004088   -0.0010399     0.8165307   -0.5535600 
   0.002999900     0.9608452   -0.1952871    -0.0237457   -0.0153834    -0.0247822   -0.0160749     0.0597423   -0.8772570 
   0.004999800     0.8708948   -0.3129727    -0.1430450    0.0275398    -0.1506394    0.0320534    -0.6974049   -0.3571000 
   0.006999700     0.7726301   -0.4062851    -0.1864551    0.1387141    -0.1909989    0.1523398    -0.7364308    0.2713360 
   0.008999600     0.5944276   -0.4000199    -0.0547159    0.5178872    -0.0372392    0.5269850     0.3106081    0.6063729 
   0.010999500     0.5684130   -0.3264759     0.3821536    0.4872524     0.3896611    0.4915827     0.4696780   -0.2726324 
   0.012999400     0.5831406   -0.3390995     0.5629277    0.2434868     0.5782515    0.2512952    -0.0135969   -0.5525646 
   0.014999300     0.5723624   -0.3818617     0.6024676    0.0369640     0.6236822    0.0362844    -0.3764265   -0.4480320 
   0.016999200     0.5419844   -0.4249471     0.5902609   -0.1280742     0.6099578   -0.1389868    -0.5598354   -0.2268096 
   0.018999100     0.5008100   -0.4617912     0.5507536   -0.2695049     0.5633111   -0.2872754    -0.6088155    0.0107900 
   0.020999000     0.4515226   -0.4898549     0.4892712   -0.3935351     0.4927427   -0.4131605    -0.5570233    0.2203506 
   0.022998900     0.3979959   -0.5076516     0.4081214   -0.5024204     0.4034610   -0.5191581    -0.4374010    0.3785888 
   0.024998800     0.3390117   -0.4899558     0.3494260   -0.6036844     0.2900417   -0.6110795    -0.3061839    0.5093541 
   0.026998700     0.2876678   -0.5068307     0.1864837   -0.6704180     0.1745101   -0.6725454    -0.1058073    0.5079603 
   0.028998600     0.2369384   -0.4885471     0.0475957   -0.7201800     0.0384776   -0.7150519     0.0598128    0.4799729 
   0.030998500     0.1937572   -0.4597659    -0.1048345   -0.7400870    -0.1077122   -0.7304944     0.1988221    0.4002501 
   0.032998400     0.1621343   -0.4064803    -0.2370673   -0.7661237    -0.2687013   -0.7131223     0.3178134    0.3125005 
   0.034998300     0.1416066   -0.3838145    -0.4184265   -0.6708857    -0.4088786   -0.6651522     0.3426796    0.1432290 
   0.036998200     0.1340784   -0.3458163    -0.5596579   -0.5813968    -0.5476575   -0.5811495     0.3347317    0.0039844 
   0.038998100     0.1372938   -0.3135261    -0.6766893   -0.4602884    -0.6662723   -0.4658048     0.2782475   -0.1154406 
   0.040998000     0.1475476   -0.2899458    -0.7622012   -0.3154478    -0.7565958   -0.3248877     0.1856098   -0.2001326 
   0.042997900     0.1610863   -0.2763215    -0.8133025   -0.1578696    -0.8124803   -0.1674928     0.0744713   -0.2408767 
   0.044997800     0.1711008   -0.2597104    -0.8607301   -0.0376280    -0.8336737    0.0075911    -0.0334658   -0.2531398 
   0.046997700     0.1818490   -0.2761791    -0.8099107    0.1622987    -0.8157036    0.1593692    -0.1359090   -0.1944723 
   0.048997600     0.1849901   -0.2848117    -0.7628424    0.3095123    -0.7676408    0.3103427    -0.2072345   -0.1230100 
   0.050997500     0.1817361   -0.2957790    -0.6912460    0.4419017    -0.6931426    0.4454318    -0.2464475   -0.0352030 
   0.052997400     0.1725676   -0.3065101    -0.5988700    0.5565946    -0.5982112    0.5596421    -0.2521396    0.0567625 
   0.054997300     0.1581804   -0.3150605    -0.4871997    0.6541560    -0.4882690    0.6523946    -0.2266145    0.1414852 
   0.056997200     0.1400405   -0.3204131    -0.3681633    0.7275662    -0.3636049    0.7257350    -0.1762534    0.2099948 
   0.058997100     0.1202854   -0.3210997    -0.2371039    0.7808138    -0.2324794    0.7757958    -0.1073837    0.2566434 
   0.060997000     0.1003922   -0.3170254    -0.0989047    0.8115179    -0.0969175    0.8038200    -0.0285768    0.2775664 
   0.062996900     0.0817187   -0.3085783     0.0428884    0.8187180     0.0409228    0.8099936     0.0519234    0.2716791 
   0.064996800     0.0664022   -0.2964548     0.1846504    0.8022402     0.1779557    0.7938988     0.1252806    0.2407887 
   0.066996700     0.0551421   -0.2819697     0.3222250    0.7612948     0.3117709    0.7553526     0.1844591    0.1887355 
   0.068996600     0.0484651   -0.2665254     0.4513858    0.6963166     0.4386297    0.6945643     0.2241134    0.1207817 
   0.070996500     0.0464962   -0.2520184     0.5684417    0.6093675     0.5548890    0.6122363     0.2401775    0.0447012 
   0.072996400     0.0485429   -0.2394444     0.6684517    0.5022318     0.6556592    0.5095975     0.2316409   -0.0318197 
   0.074996300     0.0534777   -0.2302427     0.7472081    0.3782687     0.7374877    0.3889553     0.1998307   -0.1013667 
   0.076996200     0.0599002   -0.2251647     0.8021432    0.2422266     0.7964249    0.2546571     0.1484205   -0.1562684 
   0.078996100     0.0661710   -0.2242690     0.8315504    0.0986142     0.8298696    0.1113215     0.0830292   -0.1918633 
   0.080996000     0.0706845   -0.2273026     0.8353738   -0.0470727     0.8360492   -0.0352132     0.0110461   -0.2046746 
   0.082995900     0.0721964   -0.2331952     0.8128990   -0.1900204     0.8155893   -0.1800858    -0.0602829   -0.1942171 
   0.084995800     0.0701378   -0.2403293     0.7658281   -0.3248966     0.7693521   -0.3170556    -0.1230849   -0.1624481 
   0.086995700     0.0641293   -0.2479043     0.6974815   -0.4491728     0.7007965   -0.4422899    -0.1718930   -0.1136320 
   0.088995600     0.0543851   -0.2542812     0.6103873   -0.5593184     0.6130919   -0.5517085    -0.2022818   -0.0533970 
   0.090995500     0.0415047   -0.2583181     0.5068188   -0.6523247     0.5094954   -0.6439151    -0.2124846    0.0114708 
   0.092995400     0.0260862   -0.2596375     0.3905223   -0.7268060     0.3943191   -0.7172099    -0.2024671    0.0747563 
   0.094995300     0.0098298   -0.2565714     0.2639234   -0.7805128     0.2693039   -0.7703779    -0.1745948    0.1305607 
   0.096995200    -0.0060761   -0.2495891     0.1310393   -0.8134523     0.1390090   -0.8028693    -0.1322331    0.1739673 
   0.098995100    -0.0205227   -0.2388804    -0.0053012   -0.8240635     0.0055849   -0.8146581    -0.0799182    0.2018778 
   0.100995000    -0.0344348   -0.2249821    -0.1434311   -0.8124653    -0.1292385   -0.8056884    -0.0209701    0.2128558 
   0.102994900    -0.0429408   -0.2087031    -0.2765536   -0.7784474    -0.2601218   -0.7751885     0.0344230    0.2052508 
   0.104994800    -0.0475858   -0.1912978    -0.4025878   -0.7229027    -0.3851466   -0.7238620     0.0832604    0.1815689 
   0.106994700    -0.0481462   -0.1738037    -0.5179788   -0.6463258    -0.5016596   -0.6523639     0.1213696    0.1451012 
   0.108994600    -0.0450698   -0.1574770    -0.6199161   -0.5516481    -0.6058314   -0.5617856     0.1452276    0.1001537 
   0.110994500    -0.0387521   -0.1433597    -0.7048601   -0.4407200    -0.6939557   -0.4540526     0.1532385    0.0516061 
   0.112994400    -0.0300340   -0.1320434    -0.7700417   -0.3165080    -0.7627895   -0.3316752     0.1454377    0.0045843 
   0.114994300    -0.0199741   -0.1241827    -0.8133131   -0.1826673    -0.8097381   -0.1981608     0.1234605   -0.0357308 
   0.116994200    -0.0096518   -0.1196371    -0.8327975   -0.0430817    -0.8328143   -0.0579958     0.0903246   -0.0652481 
   0.118994100     0.0000171   -0.1181275    -0.8283380    0.0976753    -0.8308735    0.0841199     0.0503593   -0.0813454 
   0.120994000     0.0084460   -0.1190579    -0.8002244    0.2352834    -0.8043205    0.2233255     0.0085314   -0.0823617 
   0.122993900     0.0147415   -0.1217010    -0.7487243    0.3662102    -0.7540085    0.3555709    -0.0302831   -0.0687863 
   0.124993800     0.0190005   -0.1252593    -0.6762724    0.4860759    -0.6822024    0.4765923    -0.0611382   -0.0426865 
   0.126993700     0.0212428   -0.1290151    -0.5847858    0.5917472    -0.5916679    0.5824880    -0.0802816   -0.0080285 
   0.128993600     0.0218514   -0.1322438    -0.4770742    0.6798006    -0.4851405    0.6711513    -0.0858091    0.0310223 
   0.130993500     0.0213181   -0.1346989    -0.3566967    0.7489725    -0.3662987    0.7407283    -0.0771263    0.0696164 
   0.132993400     0.0201899   -0.1361585    -0.2268107    0.7969868    -0.2385839    0.7897322    -0.0553910    0.1029962 
   0.134993300     0.0189590   -0.1366594    -0.0912451    0.8228058    -0.1050017    0.8175380    -0.0230375    0.1273072 
   0.136993200     0.0181213   -0.1365009     0.0466925    0.8257878     0.0310638    0.8229957     0.0165056    0.1395020 
   0.138993100     0.0179593   -0.1360919     0.1831940    0.8059944     0.1663864    0.8065962     0.0586447    0.1379360 
   0.140993000     0.0185047   -0.1358795     0.3142700    0.7636076     0.2973649    0.7681323     0.0989507    0.1225296 
   0.142992900     0.0196121   -0.1363765     0.4363792    0.7000635     0.4207697    0.7086334     0.1329351    0.0944198 
   0.144992800     0.0210419   -0.1379288     0.5465616    0.6175877     0.5330210    0.6295841     0.1569201    0.0560580 
   0.146992700     0.0221586   -0.1406387     0.6404577    0.5173064     0.6302873    0.5318593     0.1682931    0.0113967 
   0.148992600     0.0225363   -0.1446410     0.7165120    0.4032387     0.7100903    0.4191074     0.1655496   -0.0354175 
   0.150992500     0.0215984   -0.1494160     0.7718931    0.2783572     0.7688069    0.2943631     0.1486359   -0.0801152 
   0.152992400     0.0188726   -0.1549315     0.8057681    0.1461342     0.8058816    0.1614006     0.1186659   -0.1181962 
   0.154992300     0.0141392   -0.1604629     0.8170487    0.0109180     0.8194146    0.0251278     0.0781634   -0.1461658 
   0.156992200     0.0072836   -0.1654429     0.8057321   -0.1239347     0.8098704   -0.1112429     0.0309225   -0.1611075 
   0.158992100    -0.0015419   -0.1692824     0.7725027   -0.2540148     0.7777485   -0.2428201    -0.0190315   -0.1615377 
   0.160992000    -0.0119284   -0.1710385     0.7184952   -0.3766590     0.7248187   -0.3661939    -0.0669176   -0.1473825 
   0.162991900    -0.0233587   -0.1704192     0.6456882   -0.4880931     0.6529635   -0.4781833    -0.1085079   -0.1201564 
   0.164991800    -0.0352641   -0.1669916     0.5563967   -0.5859070     0.5644672   -0.5766539    -0.1403915   -0.0821698 
   0.166991700    -0.0468261   -0.1607975     0.4528700   -0.6676086     0.4625491   -0.6587722    -0.1597883   -0.0373060 
   0.168991600    -0.0571923   -0.1521000     0.3377392   -0.7315539     0.3494374   -0.7237560    -0.1655702    0.0105745 
   0.170991500    -0.0658162   -0.1410895     0.2140903   -0.7761828     0.2277221   -0.7700799    -0.1575059    0.0574666 
   0.172991400    -0.0718810   -0.1280568     0.0851574   -0.8005973     0.1003425   -0.7968461    -0.1370411    0.0992113 
   0.174991300    -0.0750762   -0.1140951    -0.0461150   -0.8040550    -0.0296769   -0.8032180    -0.1063566    0.1325791 
   0.176991200    -0.0753396   -0.0996839    -0.1766747   -0.7862696    -0.1597150   -0.7889392    -0.0683845    0.1551959 
   0.178991100    -0.0726967   -0.0858783    -0.3030204   -0.7477803    -0.2868054   -0.7541950    -0.0270303    0.1657383 
   0.180991000    -0.0673828   -0.0733234    -0.4218268   -0.6893430    -0.4070910   -0.6988293     0.0141142    0.1641294 
   0.182990900    -0.0597739   -0.0625146    -0.5297925   -0.6114343    -0.5173090   -0.6242509     0.0513725    0.1511488 
   0.184990800    -0.0505397   -0.0540016    -0.6238189   -0.5166900    -0.6148669   -0.5314409     0.0821083    0.1288904 
   0.186990700    -0.0403705   -0.0479841    -0.7011796   -0.4075103    -0.6956190   -0.4229491     0.1034638    0.1002087 
   0.188990600    -0.0292722   -0.0452581    -0.7497278   -0.3090823    -0.7489440   -0.3210247     0.1123260    0.0714764 
   0.190990500    -0.0200277   -0.0435447    -0.7954586   -0.1601275    -0.7965447   -0.1752456     0.1152959    0.0371182 
   0.192990400    -0.0112746   -0.0443460    -0.8112561   -0.0227999    -0.8150654   -0.0373965     0.1069611    0.0083645 
   0.194990300    -0.0038308   -0.0466509    -0.8039171    0.1116069    -0.8094725    0.0986729     0.0908633   -0.0138836 
   0.196990200     0.0020226   -0.0498375    -0.7740695    0.2429637    -0.7812772    0.2308536     0.0698934   -0.0281674 
   0.198990100     0.0062744   -0.0533384    -0.7228491    0.3672916    -0.7315578    0.3563496     0.0470653   -0.0337156 
   0.200990000     0.0091636   -0.0567063    -0.6516718    0.4813660    -0.6618940    0.4715532     0.0253675   -0.0307626 
   0.202989900     0.0109414   -0.0594917    -0.5631003    0.5817642    -0.5743104    0.5734842     0.0077046   -0.0206551 
   0.204989800     0.0120209   -0.0614315    -0.4591205    0.6660975    -0.4715759    0.6595306    -0.0037447   -0.0053768 
   0.206989700     0.0129087   -0.0624684    -0.3430629    0.7321502    -0.3568858    0.7272512    -0.0078029    0.0124494 
   0.208989600     0.0140143   -0.0626922    -0.2176828    0.7780986    -0.2330027    0.7752637    -0.0042234    0.0300120 
   0.210989500     0.0156767   -0.0623229    -0.0869856    0.8030003    -0.1025682    0.8029394     0.0062508    0.0446674 
   0.212989400     0.0181790   -0.0617337     0.0464281    0.8058132     0.0312517    0.8087702     0.0222502    0.0540690 
   0.214989300     0.0216076   -0.0612929     0.1784777    0.7868869     0.1642919    0.7925445     0.0414066    0.0567300 
   0.216989200     0.0259003   -0.0614204     0.3052766    0.7464353     0.2924857    0.7546555     0.0610366    0.0518659 
   0.218989100     0.0309009   -0.0625049     0.4238708    0.6855748     0.4128522    0.6962656     0.0785582    0.0395967 
   0.220989000     0.0362988   -0.0648500     0.5306956    0.6058531     0.5220097    0.6179795     0.0915413    0.0209992 
   0.222988900     0.0416881   -0.0686463     0.6230164    0.5096761     0.6170293    0.5221603     0.0978795   -0.0020423 
   0.224988800     0.0466405   -0.0739151     0.6978718    0.3995708     0.6942994    0.4118943     0.0961757   -0.0270187 
   0.226988700     0.0507321   -0.0805794     0.7534535    0.2784297     0.7518800    0.2907735     0.0861469   -0.0513298 
   0.228988600     0.0535686   -0.0883896     0.7877327    0.1503078     0.7878236    0.1624128     0.0682006   -0.0720301 
   0.230988500     0.0548194   -0.0970507     0.8006366    0.0180626     0.8017024    0.0304875     0.0436865   -0.0867717 
   0.232988400     0.0542411   -0.1060746     0.7908967   -0.1134944     0.7939041   -0.1014252     0.0148093   -0.0934004 
   0.234988300     0.0517445   -0.1151869     0.7598122   -0.2418112     0.7645198   -0.2298551    -0.0155220   -0.0907655 
   0.236988200     0.0474549   -0.1238358     0.7082378   -0.3626446     0.7147512   -0.3513061    -0.0443009   -0.0787987 
   0.238988100     0.0415141   -0.1315559     0.6379064   -0.4728684     0.6461784   -0.4622483    -0.0687264   -0.0583055 
   0.240988000     0.0341703   -0.1381100     0.5505049   -0.5697260     0.5611896   -0.5601842    -0.0862707   -0.0310949 
   0.242987900     0.0258633   -0.1431792     0.4491712   -0.6507314     0.4624467   -0.6426530    -0.0950353    0.0007494 
   0.244987800     0.0168689   -0.1464591     0.3359154   -0.7139350     0.3519739   -0.7082000    -0.0940787    0.0342520 
   0.246987700     0.0075116   -0.1480080     0.2145631   -0.7579091     0.2322447   -0.7554291    -0.0832781    0.0662684 
   0.248987600    -0.0017870   -0.1480185     0.0884686   -0.7814661     0.1056631   -0.7829762    -0.0635441    0.0939536 
   0.250987500    -0.0106266   -0.1463425    -0.0403256   -0.7841361    -0.0237250   -0.7895696    -0.0363858    0.1149160 
   0.252987400    -0.0185985   -0.1433232    -0.1672390   -0.7662324    -0.1522651   -0.7752748    -0.0043010    0.1272815 
   0.254987300    -0.0254958   -0.1392694    -0.2895760   -0.7280649    -0.2766155   -0.7401288     0.0298266    0.1299008 
   0.256987200    -0.0312760   -0.1344710    -0.4036686   -0.6707543    -0.3938847   -0.6849391     0.0631573    0.1227803 
   0.258987100    -0.0359970   -0.1292434    -0.5072526   -0.5958365    -0.5005428   -0.6112635     0.0931066    0.1065372 
   0.260987000    -0.0395905   -0.1236169    -0.5972459   -0.5048189    -0.5937787   -0.5204628     0.1167454    0.0827968 
   0.262986900    -0.0421793   -0.1180469    -0.6712396   -0.4004453    -0.6709936   -0.4154978     0.1323668    0.0537652 
   0.264986800    -0.0438526   -0.1126812    -0.7275034   -0.2854563    -0.7294217   -0.2988853     0.1390482    0.0219302 
   0.266986700    -0.0447710   -0.1076164    -0.7640219   -0.1624313    -0.7679347   -0.1745008     0.1362981   -0.0096146 
   0.268986600    -0.0450594   -0.1030281    -0.7799932   -0.0354536    -0.7851506   -0.0459432     0.1247547   -0.0381748 
   0.270986500    -0.0449142   -0.0989329    -0.7748565    0.0924889    -0.7810940    0.0829572     0.1059471   -0.0612837 
   0.272986400    -0.0444558   -0.0952496    -0.7492014    0.2179031    -0.7560183    0.2087872     0.0819437   -0.0770624 
   0.274986300    -0.0437274   -0.0918261    -0.7029417    0.3377451    -0.7110239    0.3288354     0.0554084   -0.0844170 
   0.276986200    -0.0427685   -0.0885996    -0.6378551    0.4480470    -0.6475926    0.4399976     0.0292104   -0.0830512 
   0.278986100    -0.0416404   -0.0855415    -0.5553177    0.5462582    -0.5665980    0.5395868     0.0061236   -0.0737601 
   0.280986000    -0.0403201   -0.0826726    -0.4581135    0.6296985    -0.4702106    0.6249139    -0.0115546   -0.0581639 
   0.282985900    -0.0386539   -0.0799331    -0.3482733    0.6960049    -0.3609423    0.6934362    -0.0221151   -0.0384810 
   0.284985800    -0.0366822   -0.0774475    -0.2291988    0.7432773    -0.2416726    0.7430073    -0.0248017   -0.0174334 
   0.286985700    -0.0342516   -0.0753128    -0.1037883    0.7701709    -0.1160351    0.7725250    -0.0196559    0.0022042 
   0.288985600    -0.0313453   -0.0737611     0.0243148    0.7763801     0.0120435    0.7810349    -0.0076431    0.0179488 
   0.290985500    -0.0279980   -0.0728183     0.1518238    0.7610741     0.1400261    0.7679417     0.0093540    0.0276617 
   0.292985400    -0.0243061   -0.0727396     0.2747502    0.7250079     0.2642962    0.7336630     0.0289566    0.0298228 
   0.294985300    -0.0204388   -0.0736170     0.3898193    0.6689427     0.3810833    0.6793507     0.0483788    0.0240198 
   0.296985200    -0.0166893   -0.0755540     0.4943101    0.5946601     0.4875849    0.6058620     0.0648315    0.0106039 
   0.298985100    -0.0133173   -0.0786465     0.5846813    0.5039713     0.5802609    0.5149773     0.0756576   -0.0091211 
   0.300985000    -0.0106740   -0.0828738     0.6585715    0.3994400     0.6561654    0.4100074     0.0787793   -0.0329446 
   0.302984900    -0.0090318   -0.0881702     0.7136493    0.2841376     0.7127033    0.2945287     0.0728786   -0.0578706 
   0.304984800    -0.0087531   -0.0943375     0.7487398    0.1613488     0.7490235    0.1719800     0.0579283   -0.0806306 
   0.306984700    -0.0101184   -0.1012783     0.7623931    0.0353757     0.7638955    0.0459124     0.0348292   -0.0981486 
   0.308984600    -0.0132472   -0.1082828     0.7546564   -0.0905073     0.7579697   -0.0795501     0.0054708   -0.1076172 
   0.310984500    -0.0180901   -0.1148735     0.7259958   -0.2123028     0.7313489   -0.2013701    -0.0271010   -0.1070012 
   0.312984400    -0.0247993   -0.1206952     0.6777763   -0.3269728     0.6855497   -0.3160681    -0.0592423   -0.0951396 
   0.314984300    -0.0331380   -0.1252173     0.6117074   -0.4308425     0.6219767   -0.4211567    -0.0870242   -0.0722674 
