! MS46122B
! 2250307/22442219
! 8/1/2025 10:35:57 AM
! C:\USERS\SPARKY\DOCUMENTS\VNA_DATA\AUGUST1_2025\3K\PORT1_REPEAT1.S2P
! CHANNEL.1
! TR.MEASUREMENT
! RAW.DATA
# GHZ S RI R 50.0
! FREQ.GHZ         S11RE         S11IM         S21RE         S21IM         S12RE         S12IM         S22RE         S22IM         
!; PortSelection: Port_12
   0.001000000     1.0440760   -0.0687454    -0.0004248   -0.0010483    -0.0003812   -0.0010422     0.8181003   -0.5513536 
   0.002999900     0.9604588   -0.1957257    -0.0236066   -0.0155354    -0.0246536   -0.0161565     0.0653410   -0.8777588 
   0.004999800     0.8702179   -0.3132606    -0.1433198    0.0274095    -0.1507213    0.0319786    -0.6949074   -0.3619543 
   0.006999700     0.7716705   -0.4068216    -0.1875463    0.1383920    -0.1919045    0.1520534    -0.7385343    0.2684973 
   0.008999600     0.5935823   -0.3994035    -0.0546693    0.5185475    -0.0366469    0.5272408     0.3091861    0.6056854 
   0.010999500     0.5684667   -0.3260113     0.3821002    0.4866902     0.3897941    0.4902849     0.4682627   -0.2712100 
   0.012999400     0.5831615   -0.3389511     0.5622746    0.2431637     0.5773165    0.2502193    -0.0126529   -0.5502974 
   0.014999300     0.5722710   -0.3820589     0.6017150    0.0369294     0.6224256    0.0356202    -0.3738179   -0.4467200 
   0.016999200     0.5418196   -0.4251264     0.5895149   -0.1278819     0.6085791   -0.1392886    -0.5565395   -0.2268645 
   0.018999100     0.5006694   -0.4619699     0.5499460   -0.2692508     0.5618665   -0.2872252    -0.6054206    0.0094188 
   0.020999000     0.4514415   -0.4899670     0.4884741   -0.3931177     0.4912069   -0.4128474    -0.5540414    0.2178313 
   0.022998900     0.3979928   -0.5078437     0.4072631   -0.5018260     0.4018624   -0.5184975    -0.4351187    0.3750962 
   0.024998800     0.3390182   -0.4902373     0.3484778   -0.6028424     0.2885140   -0.6098927    -0.3046873    0.5047771 
   0.026998700     0.2878024   -0.5072395     0.1857545   -0.6692333     0.1731500   -0.6710026    -0.1057961    0.5033227 
   0.028998600     0.2371529   -0.4891260     0.0471249   -0.7187061     0.0373970   -0.7130772     0.0585210    0.4754233 
   0.030998500     0.1939401   -0.4605752    -0.1048433   -0.7383222    -0.1084020   -0.7280965     0.1962289    0.3961557 
   0.032998400     0.1621505   -0.4076457    -0.2368048   -0.7641261    -0.2687125   -0.7104835     0.3138753    0.3089437 
   0.034998300     0.1413634   -0.3852236    -0.4174446   -0.6690518    -0.4083160   -0.6625180     0.3383379    0.1412656 
   0.036998200     0.1334672   -0.3474176    -0.5581005   -0.5798504    -0.5463831   -0.5786487     0.3301235    0.0034221 
   0.038998100     0.1361719   -0.3151903    -0.6747009   -0.4590752    -0.6643751   -0.4637740     0.2738272   -0.1147106 
   0.040998000     0.1460325   -0.2915154    -0.7600858   -0.3149084    -0.7542409   -0.3233456     0.1819396   -0.1983178 
   0.042997900     0.1591296   -0.2776504    -0.8111402   -0.1579300    -0.8098524   -0.1665992     0.0716468   -0.2383581 
   0.044997800     0.1689068   -0.2607596    -0.8587244   -0.0380562    -0.8309644    0.0077676    -0.0355885   -0.2500160 
   0.046997700     0.1793450   -0.2766982    -0.8081989    0.1612585    -0.8131483    0.1589969    -0.1369371   -0.1915763 
   0.048997600     0.1823823   -0.2849073    -0.7615269    0.3081993    -0.7653565    0.3095050    -0.2074600   -0.1202638 
   0.050997500     0.1791468   -0.2953629    -0.6902704    0.4404009    -0.6911839    0.4442080    -0.2460909   -0.0328177 
   0.052997400     0.1699720   -0.3057353    -0.5981767    0.5551674    -0.5964491    0.5583168    -0.2514086    0.0587638 
   0.054997300     0.1559059   -0.3138587    -0.4869033    0.6527584    -0.4870325    0.6507623    -0.2256937    0.1430769 
   0.056997200     0.1379442   -0.3188667    -0.3680538    0.7261026    -0.3626164    0.7240732    -0.1752019    0.2112198 
   0.058997100     0.1184917   -0.3192922    -0.2371881    0.7794116    -0.2317129    0.7740126    -0.1063152    0.2575345 
   0.060997000     0.0988708   -0.3150140    -0.0991206    0.8101738    -0.0964010    0.8020056    -0.0275987    0.2782109 
   0.062996900     0.0805879   -0.3064308     0.0425742    0.8175396     0.0412597    0.8081897     0.0528654    0.2721663 
   0.064996800     0.0655868   -0.2942683     0.1841289    0.8010908     0.1780110    0.7920458     0.1261159    0.2411725 
   0.066996700     0.0546864   -0.2797591     0.3216007    0.7602205     0.3116237    0.7534954     0.1852480    0.1890940 
   0.068996600     0.0483836   -0.2643551     0.4506448    0.6953505     0.4381711    0.6927158     0.2248494    0.1211134 
   0.070996500     0.0467188   -0.2499444     0.5675334    0.6084508     0.5541508    0.6104097     0.2409412    0.0450425 
   0.072996400     0.0490494   -0.2374951     0.6674118    0.5014067     0.6546755    0.5077987     0.2324660   -0.0314362 
   0.074996300     0.0542594   -0.2284863     0.7460917    0.3776045     0.7362199    0.3873537     0.2007761   -0.1010045 
   0.076996200     0.0608552   -0.2235872     0.8008934    0.2417585     0.7948363    0.2532488     0.1495461   -0.1559357 
   0.078996100     0.0673058   -0.2229517     0.8301960    0.0982819     0.8280286    0.1101468     0.0843408   -0.1916656 
   0.080996000     0.0719436   -0.2262125     0.8339249   -0.0471819     0.8339742   -0.0360971     0.0125105   -0.2047303 
   0.082995900     0.0735466   -0.2323229     0.8113480   -0.1899265     0.8133613   -0.1806331    -0.0586614   -0.1945286 
   0.084995800     0.0715543   -0.2397089     0.7643778   -0.3245437     0.7669806   -0.3171771    -0.1213472   -0.1631395 
   0.086995700     0.0656118   -0.2475414     0.6960500   -0.4485672     0.6985197   -0.4419668    -0.1702026   -0.1147152 
   0.088995600     0.0558416   -0.2541674     0.6090049   -0.5584471     0.6108122   -0.5510399    -0.2007046   -0.0549166 
   0.090995500     0.0429039   -0.2584381     0.5055005   -0.6512456     0.5073314   -0.6428375    -0.2112018    0.0095215 
   0.092995400     0.0275108   -0.2600271     0.3894647   -0.7254924     0.3923371   -0.7157483    -0.2015508    0.0724083 
   0.094995300     0.0111732   -0.2572050     0.2631033   -0.7789968     0.2675875   -0.7685947    -0.1741541    0.1279432 
   0.096995200    -0.0048365   -0.2504660     0.1304472   -0.8117568     0.1375189   -0.8007586    -0.1323778    0.1711993 
   0.098995100    -0.0194697   -0.2399940    -0.0055907   -0.8222514     0.0044630   -0.8123007    -0.0807380    0.1990898 
   0.100995000    -0.0335288   -0.2263105    -0.1433674   -0.8105372    -0.1299948   -0.8031574    -0.0224457    0.2101773 
   0.102994900    -0.0423090   -0.2102285    -0.2761044   -0.7765033    -0.2604111   -0.7725177     0.0323344    0.2028930 
   0.104994800    -0.0472327   -0.1929932    -0.4018128   -0.7209993    -0.3849486   -0.7211266     0.0806615    0.1796526 
   0.106994700    -0.0481269   -0.1756012    -0.5168452   -0.6445159    -0.5009863   -0.6496446     0.1183665    0.1437941 
   0.108994600    -0.0453893   -0.1593574    -0.6185804   -0.5501354    -0.6046057   -0.5592261     0.1419444    0.0995482 
   0.110994500    -0.0394512   -0.1452368    -0.7031534   -0.4394617    -0.6921968   -0.4517612     0.1499016    0.0517124 
   0.112994400    -0.0311006   -0.1338053    -0.7680813   -0.3156733    -0.7606397   -0.3297137     0.1421928    0.0054449 
   0.114994300    -0.0214059   -0.1257800    -0.8112123   -0.1821988    -0.8072254   -0.1967845     0.1205495   -0.0342127 
   0.116994200    -0.0113748   -0.1210192    -0.8306475   -0.0430568    -0.8300127   -0.0570981     0.0878736   -0.0631645 
   0.118994100    -0.0020011   -0.1191998    -0.8260859    0.0973399    -0.8280491    0.0845275     0.0484687   -0.0787866 
   0.120994000     0.0062430   -0.1198292    -0.7981918    0.2346097    -0.8015129    0.2232355     0.0072794   -0.0795407 
   0.122993900     0.0124171   -0.1221180    -0.7469188    0.3651025    -0.7513527    0.3549100    -0.0308942   -0.0658489 
   0.124993800     0.0165983   -0.1253018    -0.6747623    0.4846385    -0.6797682    0.4755208    -0.0611093   -0.0398155 
   0.126993700     0.0188408   -0.1286838    -0.5835816    0.5900866    -0.5895409    0.5810148    -0.0796810   -0.0053893 
   0.128993600     0.0194528   -0.1315157    -0.4762024    0.6780030    -0.4833499    0.6693788    -0.0847354    0.0333234 
   0.130993500     0.0190640   -0.1336471    -0.3562219    0.7470729    -0.3648653    0.7387427    -0.0756983    0.0715440 
   0.132993400     0.0180918   -0.1348087    -0.2266484    0.7950868    -0.2375350    0.7875984    -0.0537491    0.1044937 
   0.134993300     0.0171149   -0.1350630    -0.0913488    0.8209850    -0.1043529    0.8152974    -0.0212736    0.1283726 
   0.136993200     0.0165572   -0.1347073     0.0463221    0.8239930     0.0314167    0.8207396     0.0183297    0.1401723 
   0.138993100     0.0166492   -0.1341456     0.1825061    0.8043991     0.1664231    0.8043208     0.0603636    0.1382779 
   0.140993000     0.0174888   -0.1337914     0.3133598    0.7621526     0.2970396    0.7659349     0.1006071    0.1226042 
   0.142992900     0.0188533   -0.1341448     0.4352800    0.6988427     0.4201410    0.7065569     0.1344402    0.0942285 
   0.144992800     0.0205915   -0.1356924     0.5452811    0.6164988     0.5320405    0.6275808     0.1582886    0.0556766 
   0.146992700     0.0220024   -0.1383319     0.6389623    0.5165654     0.6291056    0.5300510     0.1695383    0.0108930 
   0.148992600     0.0226476   -0.1423640     0.7151401    0.4025265     0.7086434    0.4174992     0.1666597   -0.0360232 
   0.150992500     0.0220322   -0.1472593     0.7704130    0.2779140     0.7671853    0.2929523     0.1496722   -0.0808137 
   0.152992400     0.0195910   -0.1529072     0.8042466    0.1459450     0.8040750    0.1602771     0.1196084   -0.1189746 
   0.154992300     0.0151029   -0.1586105     0.8155217    0.0107417     0.8174194    0.0242665     0.0790377   -0.1470429 
   0.156992200     0.0084976   -0.1637216     0.8042261   -0.1236939     0.8077449   -0.1118047     0.0317392   -0.1620799 
   0.158992100    -0.0000956   -0.1677978     0.7710148   -0.2536424     0.7755628   -0.2430770    -0.0182953   -0.1626206 
   0.160992000    -0.0103055   -0.1698014     0.7170937   -0.3760287     0.7225664   -0.3661298    -0.0662423   -0.1486218 
   0.162991900    -0.0215689   -0.1694563     0.6444039   -0.4872530     0.6506888   -0.4777130    -0.1079911   -0.1215428 
   0.164991800    -0.0333614   -0.1663521     0.5551828   -0.5848638     0.5622759   -0.5758641    -0.1400392   -0.0837262 
   0.166991700    -0.0448532   -0.1604773     0.4517939   -0.6663650     0.4604570   -0.6576300    -0.1596620   -0.0390303 
   0.168991600    -0.0551718   -0.1520771     0.3368333   -0.7301714     0.3475698   -0.7222537    -0.1657106    0.0087387 
   0.170991500    -0.0638417   -0.1414184     0.2133877   -0.7746176     0.2260583   -0.7682459    -0.1579690    0.0555598 
   0.172991400    -0.0700042   -0.1287180     0.0846935   -0.7988806     0.0990061   -0.7946777    -0.1378700    0.0972983 
   0.174991300    -0.0733921   -0.1151174    -0.0462976   -0.8022581    -0.0306783   -0.8009101    -0.1075911    0.1307740 
   0.176991200    -0.0738406   -0.1010230    -0.1765602   -0.7843169    -0.1603395   -0.7863662    -0.0700489    0.1535552 
   0.178991100    -0.0714835   -0.0874812    -0.3026071   -0.7459150    -0.2869384   -0.7515083    -0.0290562    0.1643642 
   0.180991000    -0.0664693   -0.0751256    -0.4210782   -0.6875489    -0.4067726   -0.6961222     0.0118052    0.1631352 
   0.182990900    -0.0592031   -0.0644715    -0.5286986   -0.6097664    -0.5164388   -0.6215981     0.0488008    0.1506040 
   0.184990800    -0.0503455   -0.0560880    -0.6223357   -0.5153369    -0.6135331   -0.5289558     0.0793743    0.1289040 
   0.186990700    -0.0405580   -0.0500750    -0.6995063   -0.4062793    -0.6938375   -0.4207633     0.1007359    0.1007660 
   0.188990600    -0.0297915   -0.0473386    -0.7478563   -0.3080989    -0.7468430   -0.3191528     0.1097183    0.0725333 
   0.190990500    -0.0209674   -0.0454976    -0.7933831   -0.1595611    -0.7940667   -0.1738197     0.1129547    0.0387297 
   0.192990400    -0.0125555   -0.0461187    -0.8090593   -0.0225769    -0.8124770   -0.0364921     0.1049957    0.0104960 
   0.194990300    -0.0053979   -0.0482003    -0.8017179    0.1114650    -0.8067570    0.0990317     0.0893967   -0.0114241 
   0.196990200     0.0002115   -0.0511224    -0.7720286    0.2423547    -0.7785364    0.2307301     0.0689878   -0.0254558 
   0.198990100     0.0042451   -0.0543444    -0.7209511    0.3663013    -0.7289293    0.3557668     0.0467446   -0.0309102 
   0.200990000     0.0069929   -0.0573869    -0.6500520    0.4800664    -0.6595346    0.4705364     0.0256422   -0.0280182 
   0.202989900     0.0086579   -0.0598435    -0.5615841    0.5802705    -0.5720924    0.5721056     0.0085309   -0.0180769 
   0.204989800     0.0097375   -0.0614332    -0.4580956    0.6643215    -0.4696513    0.6578292    -0.0024459   -0.0031057 
   0.206989700     0.0106401   -0.0621598    -0.3424719    0.7302057    -0.3552737    0.7253149    -0.0061020    0.0143511 
   0.208989600     0.0118119   -0.0620762    -0.2173087    0.7761955    -0.2317875    0.7731139    -0.0022610    0.0314826 
   0.210989500     0.0135936   -0.0614355    -0.0867631    0.8010464    -0.1016788    0.8005968     0.0084157    0.0456680 
   0.212989400     0.0162257   -0.0605690     0.0461483    0.8039198     0.0317140    0.8063821     0.0244834    0.0546166 
   0.214989300     0.0198433   -0.0598790     0.1776597    0.7851183     0.1643489    0.7901394     0.0435693    0.0568380 
   0.216989200     0.0243569   -0.0597826     0.3043516    0.7447889     0.2921850    0.7523289     0.0630981    0.0515807 
   0.218989100     0.0296097   -0.0606852     0.4227541    0.6841280     0.4122386    0.6939844     0.0804695    0.0389703 
   0.220989000     0.0352620   -0.0628648     0.5293616    0.6046231     0.5210708    0.6158184     0.0932355    0.0201093 
   0.222988900     0.0409379   -0.0665632     0.6215760    0.5086604     0.6157628    0.5202292     0.0993493   -0.0031632 
   0.224988800     0.0461757   -0.0717727     0.6963677    0.3987447     0.6927444    0.4101801     0.0974148   -0.0283155 
   0.226988700     0.0505551   -0.0784032     0.7517970    0.2779625     0.7500671    0.2893040     0.0871117   -0.0527494 
   0.228988600     0.0537136   -0.0862252     0.7860317    0.1500716     0.7858177    0.1612839     0.0689552   -0.0735391 
   0.230988500     0.0552721   -0.0949624     0.7989859    0.0181299     0.7995290    0.0296763     0.0442100   -0.0883396 
   0.232988400     0.0549742   -0.1040812     0.7892386   -0.1132176     0.7916393   -0.1019149     0.0151408   -0.0949857 
   0.234988300     0.0527539   -0.1133791     0.7582857   -0.2413416     0.7621986   -0.2299853    -0.0154149   -0.0924021 
   0.236988200     0.0486896   -0.1222007     0.7067246   -0.3619195     0.7123390   -0.3510943    -0.0443826   -0.0804455 
   0.238988100     0.0429752   -0.1301556     0.6365388   -0.4719596     0.6439054   -0.4616415    -0.0690013   -0.0599501 
   0.240988000     0.0358090   -0.1369347     0.5492712   -0.5686175     0.5590208   -0.5592148    -0.0867529   -0.0327235 
   0.242987900     0.0276609   -0.1423455     0.4481122   -0.6494324     0.4604159   -0.6413724    -0.0957595   -0.0008692 
   0.244987800     0.0187435   -0.1459205     0.3350225   -0.7124667     0.3501662   -0.7065546    -0.0950270    0.0327322 
   0.246987700     0.0094552   -0.1477942     0.2139230   -0.7562943     0.2307071   -0.7534828    -0.0844958    0.0648199 
   0.248987600     0.0001525   -0.1481003     0.0880527   -0.7797782     0.1044091   -0.7807772    -0.0650099    0.0926568 
   0.250987500    -0.0087806   -0.1467706    -0.0405076   -0.7823781    -0.0245963   -0.7871885    -0.0381064    0.1138190 
   0.252987400    -0.0168431   -0.1440708    -0.1671531   -0.7643992    -0.1527215   -0.7727534    -0.0062313    0.1264380 
   0.254987300    -0.0239067   -0.1402903    -0.2891215   -0.7262836    -0.2766317   -0.7375402     0.0277116    0.1293847 
   0.256987200    -0.0298786   -0.1357549    -0.4029237   -0.6690040    -0.3934764   -0.6823593     0.0609226    0.1226161 
   0.258987100    -0.0348426   -0.1307698    -0.5062582   -0.5941930    -0.4996595   -0.6087767     0.0907955    0.1067793 
   0.260987000    -0.0387016   -0.1253149    -0.5959127   -0.5033704    -0.5925950   -0.5182758     0.1144665    0.0834810 
   0.262986900    -0.0415766   -0.1199028    -0.6696138   -0.3993231    -0.6693116   -0.4134339     0.1302006    0.0548882 
   0.264986800    -0.0435864   -0.1146212    -0.7257194   -0.2845217    -0.7274354   -0.2971570     0.1370696    0.0235063 
   0.266986700    -0.0448374   -0.1096213    -0.7621195   -0.1618489    -0.7656910   -0.1731362     0.1346536   -0.0076809 
   0.268986600    -0.0454678   -0.1050183    -0.7779400   -0.0351429    -0.7827145   -0.0449675     0.1234985   -0.0358738 
   0.270986500    -0.0456687   -0.1008594    -0.7728225    0.0923378    -0.7785177    0.0834392     0.1051731   -0.0588005 
   0.272986400    -0.0455154   -0.0970466    -0.7471164    0.2175551    -0.7534110    0.2088508     0.0817041   -0.0744369 
   0.274986300    -0.0450596   -0.0934832    -0.7010318    0.3368895    -0.7084440    0.3284729     0.0557093   -0.0817945 
   0.276986200    -0.0443834   -0.0900849    -0.6360995    0.4469076    -0.6451325    0.4391942     0.0300423   -0.0805468 
   0.278986100    -0.0434973   -0.0868117    -0.5538464    0.5448202    -0.5642616    0.5383264     0.0074472   -0.0715217 
   0.280986000    -0.0423255   -0.0836053    -0.4569322    0.6279853    -0.4681871    0.6233545    -0.0098046   -0.0562574 
   0.282985900    -0.0408756   -0.0805932    -0.3474065    0.6941734    -0.3591923    0.6915277    -0.0200308   -0.0370222 
   0.284985800    -0.0389667   -0.0778183    -0.2287350    0.7412483    -0.2402576    0.7409019    -0.0224747   -0.0164264 
   0.286985700    -0.0365107   -0.0753298    -0.1036406    0.7681832    -0.1150296    0.7701488    -0.0172144    0.0026909 
   0.288985600    -0.0335924   -0.0734432     0.0241696    0.7743863     0.0126084    0.7784896    -0.0051781    0.0179295 
   0.290985500    -0.0301932   -0.0722134     0.1512589    0.7591614     0.1401783    0.7654029     0.0117145    0.0271592 
   0.292985400    -0.0263870   -0.0718128     0.2739423    0.7232416     0.2640692    0.7311125     0.0310974    0.0288773 
   0.294985300    -0.0223753   -0.0724439     0.3888697    0.6673495     0.3803878    0.6768975     0.0502432    0.0226842 
   0.296985200    -0.0184364   -0.0741447     0.4930721    0.5932986     0.4866041    0.6035878     0.0664097    0.0089620 
   0.298985100    -0.0148537   -0.0770113     0.5832229    0.5028607     0.5788907    0.5128840     0.0768730   -0.0109742 
   0.300985000    -0.0119792   -0.0810830     0.6570020    0.3985319     0.6544287    0.4080845     0.0795933   -0.0349466 
   0.302984900    -0.0100886   -0.0862426     0.7119777    0.2834892     0.7107502    0.2930158     0.0733084   -0.0598791 
   0.304984800    -0.0095243   -0.0923176     0.7469504    0.1610359     0.7468649    0.1708090     0.0579951   -0.0826565 
   0.306984700    -0.0106105   -0.0991335     0.7605813    0.0353081     0.7615660    0.0451490     0.0345813   -0.1000929 
   0.308984600    -0.0134947   -0.1062264     0.7529716   -0.0903610     0.7555638   -0.0799848     0.0049255   -0.1094169 
   0.310984500    -0.0180627   -0.1128605     0.7242530   -0.2117851     0.7288641   -0.2013001    -0.0278843   -0.1086129 
   0.312984400    -0.0245377   -0.1187136     0.6761481   -0.3262298     0.6831043   -0.3156362    -0.0602039   -0.0965300 
   0.314984300    -0.0326919   -0.1233384     0.6100945   -0.4299285     0.6196129   -0.4203193    -0.0880998   -0.0734698 
