! MS46122B
! 2250307/22442219
! 8/1/2025 10:34:06 AM
! C:\USERS\SPARKY\DOCUMENTS\VNA_DATA\AUGUST1_2025\3K\PORT5.S2P
! CHANNEL.1
! TR.MEASUREMENT
! RAW.DATA
# GHZ S RI R 50.0
! FREQ.GHZ         S11RE         S11IM         S21RE         S21IM         S12RE         S12IM         S22RE         S22IM         
!; PortSelection: Port_12
   0.001000000     1.0437860   -0.0691289     0.0000032    0.0000048    -0.0000047    0.0000011     0.8171512   -0.5527292 
   0.002999900     0.9511934   -0.1912971    -0.0000021    0.0000016     0.0000071    0.0000000     0.0379520   -0.8794436 
   0.004999800     0.8759394   -0.2744570     0.0000011    0.0000004     0.0000053   -0.0000081    -0.7510013   -0.4383759 
   0.006999700     0.7905012   -0.3635364    -0.0000013    0.0000026     0.0000062   -0.0000110    -0.8138753    0.4827790 
   0.008999600     0.7004135   -0.3999842     0.0000011   -0.0000011    -0.0000003   -0.0000021    -0.1122380    0.9892724 
   0.010999500     0.6261114   -0.4247427    -0.0000006    0.0000022    -0.0000009    0.0000004     0.5820541    0.7993646 
   0.012999400     0.5618069   -0.4402433     0.0000028   -0.0000047    -0.0000012   -0.0000001     0.9054475    0.3312747 
   0.014999300     0.5070370   -0.4489837    -0.0000010   -0.0000019     0.0000025    0.0000005     0.9371720   -0.1236571 
   0.016999200     0.4590636   -0.4524270    -0.0000023   -0.0000024     0.0000010    0.0000006     0.8050635   -0.4785368 
   0.018999100     0.4182130   -0.4519209     0.0000022    0.0000017     0.0000010   -0.0000011     0.5913657   -0.7245802 
   0.020999000     0.3834103   -0.4489309    -0.0000016   -0.0000030    -0.0000026    0.0000001     0.3446618   -0.8724693 
   0.022998900     0.3527575   -0.4442696     0.0000019    0.0000001     0.0000027   -0.0000008     0.0926501   -0.9368714 
   0.024998800     0.3207250   -0.4169620    -0.0000031   -0.0000026    -0.0000021   -0.0000024    -0.1375438   -1.0048700 
   0.026998700     0.3008948   -0.4313842     0.0000023   -0.0000014     0.0000059    0.0000015    -0.3620067   -0.8727923 
   0.028998600     0.2784298   -0.4232835    -0.0000009    0.0000017    -0.0000025   -0.0000004    -0.5451358   -0.7696785 
   0.030998500     0.2576138   -0.4144672    -0.0000033   -0.0000032     0.0000008   -0.0000014    -0.6930324   -0.6355692 
   0.032998400     0.2353747   -0.3873056     0.0000035    0.0000010    -0.0000014    0.0000012    -0.8523297   -0.5296745 
   0.034998300     0.2194300   -0.3949558     0.0000019   -0.0000031    -0.0000029   -0.0000001    -0.8768803   -0.3133738 
   0.036998200     0.2024223   -0.3844484     0.0000028    0.0000010    -0.0000019   -0.0000009    -0.9160506   -0.1417057 
   0.038998100     0.1867308   -0.3737608    -0.0000005    0.0000008     0.0000010   -0.0000019    -0.9230223    0.0281157 
   0.040998000     0.1722002   -0.3629003     0.0000006   -0.0000026    -0.0000007   -0.0000005    -0.9005420    0.1917535 
   0.042997900     0.1588610   -0.3518713     0.0000008   -0.0000034     0.0000014    0.0000031    -0.8514460    0.3455124 
   0.044997800     0.1462066   -0.3271928     0.0000012   -0.0000005    -0.0000022    0.0000006    -0.8470632    0.5122342 
   0.046997700     0.1348401   -0.3304446     0.0000041    0.0000003     0.0000023   -0.0000008    -0.6862552    0.6118218 
   0.048997600     0.1249510   -0.3199178     0.0000002   -0.0000012     0.0000021   -0.0000009    -0.5751985    0.7185616 
   0.050997500     0.1163472   -0.3096618    -0.0000015   -0.0000008     0.0000007    0.0000007    -0.4483172    0.8053955 
   0.052997400     0.1089225   -0.2998739     0.0000040   -0.0000040     0.0000009   -0.0000027    -0.3100896    0.8695205 
   0.054997300     0.1026450   -0.2904882    -0.0000017    0.0000076     0.0000054   -0.0000060    -0.1611601    0.9105590 
   0.056997200     0.0970150   -0.2823281    -0.0000002    0.0000010     0.0000015   -0.0000003    -0.0107703    0.9255111 
   0.058997100     0.0925420   -0.2747366     0.0000049   -0.0000102     0.0000001    0.0000001     0.1420042    0.9151785 
   0.060997000     0.0887150   -0.2680360    -0.0000013   -0.0000007     0.0000002    0.0000001     0.2921396    0.8788481 
   0.062996900     0.0856096   -0.2621749     0.0000010   -0.0000034    -0.0000018    0.0000004     0.4344902    0.8180651 
   0.064996800     0.0830274   -0.2571500    -0.0000016   -0.0000009    -0.0000021   -0.0000016     0.5655408    0.7332202 
   0.066996700     0.0807949   -0.2529226    -0.0000025    0.0000018    -0.0000001    0.0000006     0.6813946    0.6268055 
   0.068996600     0.0786935   -0.2495021    -0.0000028    0.0000033     0.0000015    0.0000011     0.7788186    0.5002490 
   0.070996500     0.0766781   -0.2469996     0.0000014    0.0000009     0.0000008    0.0000009     0.8535413    0.3580711 
   0.072996400     0.0744803   -0.2448419    -0.0000015    0.0000027     0.0000000    0.0000037     0.9031201    0.2033982 
   0.074996300     0.0720471   -0.2432073    -0.0000009    0.0000019    -0.0000007   -0.0000001     0.9251347    0.0407342 
   0.076996200     0.0693117   -0.2419354     0.0000004    0.0000013     0.0000027    0.0000018     0.9175697   -0.1257277 
   0.078996100     0.0661426   -0.2409719    -0.0000010    0.0000034     0.0000025    0.0000032     0.8804751   -0.2892452 
   0.080996000     0.0624425   -0.2402142     0.0000011   -0.0000004     0.0000017   -0.0000008     0.8133652   -0.4444989 
   0.082995900     0.0581689   -0.2394544     0.0000031   -0.0000001     0.0000006   -0.0000006     0.7183440   -0.5857755 
   0.084995800     0.0535889   -0.2383495    -0.0000002    0.0000001    -0.0000007   -0.0000013     0.5976242   -0.7083212 
   0.086995700     0.0485368   -0.2372787     0.0000008   -0.0000010     0.0000002    0.0000003     0.4560961   -0.8067055 
   0.088995600     0.0430467   -0.2359113    -0.0000019    0.0000017    -0.0000013    0.0000006     0.2982021   -0.8768282 
   0.090995500     0.0368799   -0.2340366    -0.0000015    0.0000015     0.0000023    0.0000013     0.1297666   -0.9160458 
   0.092995400     0.0308034   -0.2320524     0.0000023   -0.0000002     0.0000005   -0.0000030    -0.0432209   -0.9235729 
   0.094995300     0.0244700   -0.2292796     0.0000015   -0.0000005    -0.0000009   -0.0000007    -0.2138155   -0.8988550 
   0.096995200     0.0180953   -0.2259388    -0.0000004   -0.0000007    -0.0000004   -0.0000001    -0.3763484   -0.8429099 
   0.098995100     0.0117467   -0.2220063     0.0000012   -0.0000003     0.0000035   -0.0000010    -0.5252730   -0.7585841 
   0.100995000     0.0039952   -0.2185134     0.0000021   -0.0000017     0.0000015    0.0000000    -0.6566756   -0.6487400 
   0.102994900    -0.0019693   -0.2133862     0.0000016   -0.0000011     0.0000001   -0.0000004    -0.7638202   -0.5181606 
   0.104994800    -0.0077498   -0.2076592     0.0000008   -0.0000021     0.0000009   -0.0000015    -0.8446018   -0.3715582 
   0.106994700    -0.0127854   -0.2011919    -0.0000008   -0.0000002    -0.0000010   -0.0000017    -0.8973520   -0.2137628 
   0.108994600    -0.0172841   -0.1944697     0.0000004   -0.0000006     0.0000016   -0.0000021    -0.9208995   -0.0507527 
   0.110994500    -0.0210536   -0.1873221     0.0000007   -0.0000020     0.0000006   -0.0000022    -0.9153066    0.1122808 
   0.112994400    -0.0240601   -0.1799136     0.0000010   -0.0000031     0.0000010   -0.0000014    -0.8815783    0.2702145 
   0.114994300    -0.0262454   -0.1722881     0.0000005   -0.0000008     0.0000004   -0.0000002    -0.8216461    0.4187290 
   0.116994200    -0.0275476   -0.1646220    -0.0000013   -0.0000019     0.0000001   -0.0000027    -0.7374328    0.5534399 
   0.118994100    -0.0280668   -0.1569269    -0.0000005   -0.0000014    -0.0000012   -0.0000009    -0.6323157    0.6704291 
   0.120994000    -0.0274455   -0.1495116    -0.0000010   -0.0000015     0.0000010   -0.0000014    -0.5098202    0.7669755 
   0.122993900    -0.0261571   -0.1423666    -0.0000021   -0.0000008    -0.0000004   -0.0000019    -0.3736504    0.8414103 
   0.124993800    -0.0240523   -0.1357910    -0.0000010   -0.0000016     0.0000009   -0.0000016    -0.2279095    0.8916205 
   0.126993700    -0.0212202   -0.1298224    -0.0000011   -0.0000003     0.0000014    0.0000000    -0.0765336    0.9164565 
   0.128993600    -0.0178152   -0.1244257    -0.0000004    0.0000003    -0.0000011    0.0000000     0.0762015    0.9160846 
   0.130993500    -0.0138585   -0.1199571    -0.0000023   -0.0000005    -0.0000006   -0.0000004     0.2265225    0.8901470 
   0.132993400    -0.0095618   -0.1163835    -0.0000017    0.0000001    -0.0000008    0.0000000     0.3702116    0.8398380 
   0.134993300    -0.0050465   -0.1137226     0.0000008    0.0000010    -0.0000003   -0.0000015     0.5033710    0.7664810 
   0.136993200    -0.0004485   -0.1119919    -0.0000021    0.0000023    -0.0000007   -0.0000015     0.6224079    0.6720939 
   0.138993100     0.0040576   -0.1112345    -0.0000027    0.0000009    -0.0000003   -0.0000006     0.7242576    0.5588590 
   0.140993000     0.0083045   -0.1113573    -0.0000017    0.0000004     0.0000020   -0.0000002     0.8063625    0.4299757 
   0.142992900     0.0121534   -0.1123758    -0.0000009    0.0000005     0.0000005   -0.0000001     0.8656527    0.2889523 
   0.144992800     0.0155563   -0.1142163    -0.0000025   -0.0000010    -0.0000004    0.0000005     0.9000097    0.1393093 
   0.146992700     0.0182238   -0.1166746    -0.0000002    0.0000009     0.0000002   -0.0000002     0.9090356   -0.0144618 
   0.148992600     0.0201396   -0.1197110    -0.0000012    0.0000000    -0.0000003    0.0000012     0.8918602   -0.1682161 
   0.150992500     0.0211867   -0.1230397    -0.0000019    0.0000006     0.0000008   -0.0000001     0.8491734   -0.3175337 
   0.152992400     0.0213384   -0.1267596    -0.0000007    0.0000017     0.0000004    0.0000006     0.7806447   -0.4576136 
   0.154992300     0.0205565   -0.1305648    -0.0000013    0.0000017    -0.0000006   -0.0000001     0.6887046   -0.5841497 
   0.156992200     0.0188339   -0.1343215    -0.0000016    0.0000023     0.0000006    0.0000016     0.5758062   -0.6933722 
   0.158992100     0.0161482   -0.1378695     0.0000004   -0.0000002     0.0000005    0.0000006     0.4452311   -0.7814530 
   0.160992000     0.0126367   -0.1410751    -0.0000006    0.0000023     0.0000023    0.0000010     0.3008992   -0.8457257 
   0.162991900     0.0083045   -0.1437042     0.0000012    0.0000007     0.0000009    0.0000012     0.1472680   -0.8837184 
   0.164991800     0.0032361   -0.1456528    -0.0000004    0.0000014     0.0000024    0.0000011    -0.0109977   -0.8942338 
   0.166991700    -0.0023379   -0.1468352     0.0000019   -0.0000022     0.0000021    0.0000004    -0.1682386   -0.8768757 
   0.168991600    -0.0083900   -0.1471255     0.0000018    0.0000002    -0.0000007    0.0000010    -0.3202762   -0.8321198 
   0.170991500    -0.0148189   -0.1465071     0.0000010    0.0000005     0.0000015    0.0000001    -0.4619291   -0.7611768 
   0.172991400    -0.0213081   -0.1448585     0.0000003    0.0000004     0.0000003   -0.0000002    -0.5885273   -0.6667153 
   0.174991300    -0.0278127   -0.1420847    -0.0000002    0.0000013     0.0000020    0.0000018    -0.6965215   -0.5520151 
   0.176991200    -0.0341035   -0.1383359     0.0000012   -0.0000006    -0.0000008   -0.0000002    -0.7823506   -0.4207899 
   0.178991100    -0.0400428   -0.1335722     0.0000007    0.0000002     0.0000017    0.0000005    -0.8439159   -0.2768728 
   0.180991000    -0.0454037   -0.1279199    -0.0000002   -0.0000007     0.0000043    0.0000020    -0.8792980   -0.1251340 
   0.182990900    -0.0501105   -0.1212759     0.0000012   -0.0000020     0.0000031   -0.0000002    -0.8878792    0.0294954 
   0.184990800    -0.0539098   -0.1138709    -0.0000005   -0.0000009     0.0000038   -0.0000002    -0.8699453    0.1824749 
   0.186990700    -0.0567463   -0.1058130    -0.0000003   -0.0000008     0.0000024   -0.0000025    -0.8263313    0.3296399 
   0.188990600    -0.0562624   -0.0986707     0.0000022   -0.0000018     0.0000017   -0.0000025    -0.7727806    0.4458956 
   0.190990500    -0.0586940   -0.0885589    -0.0000001   -0.0000014     0.0000014   -0.0000028    -0.6721063    0.5872677 
   0.192990400    -0.0582225   -0.0793037     0.0000007   -0.0000015     0.0000004   -0.0000034    -0.5614322    0.6951093 
   0.194990300    -0.0561939   -0.0703293    -0.0000011   -0.0000022     0.0000000   -0.0000032    -0.4375001    0.7808524 
   0.196990200    -0.0528757   -0.0616767    -0.0000013   -0.0000012     0.0000006   -0.0000026    -0.3015850    0.8446239 
   0.198990100    -0.0483199   -0.0534219    -0.0000015   -0.0000021     0.0000024   -0.0000023    -0.1574646    0.8847641 
   0.200990000    -0.0425834   -0.0458461    -0.0000018   -0.0000027     0.0000021   -0.0000033    -0.0091266    0.9004542 
   0.202989900    -0.0357187   -0.0391043    -0.0000009   -0.0000013     0.0000018   -0.0000017     0.1397410    0.8912335 
   0.204989800    -0.0278751   -0.0333954    -0.0000017    0.0000004     0.0000015   -0.0000022     0.2852173    0.8578151 
   0.206989700    -0.0192533   -0.0288490    -0.0000012   -0.0000012    -0.0000008   -0.0000021     0.4231031    0.8011277 
   0.208989600    -0.0099460   -0.0256275    -0.0000034   -0.0000012     0.0000017   -0.0000038     0.5499356    0.7222836 
   0.210989500    -0.0002141   -0.0238602    -0.0000029    0.0000003     0.0000014   -0.0000029     0.6621933    0.6231856 
   0.212989400     0.0098596   -0.0235425    -0.0000038    0.0000003     0.0000012   -0.0000010     0.7568982    0.5065061 
   0.214989300     0.0199068   -0.0247696    -0.0000025    0.0000008     0.0000000   -0.0000015     0.8311741    0.3755156 
   0.216989200     0.0296601   -0.0275337    -0.0000020    0.0000006     0.0000019   -0.0000018     0.8827704    0.2332280 
   0.218989100     0.0390054   -0.0317966    -0.0000036    0.0000001     0.0000001   -0.0000036     0.9099048    0.0838617 
   0.220989000     0.0476413   -0.0374668    -0.0000029    0.0000023    -0.0000002   -0.0000021     0.9116213   -0.0689236 
   0.222988900     0.0553547   -0.0445096    -0.0000009    0.0000029     0.0000021   -0.0000025     0.8873438   -0.2205955 
   0.224988800     0.0619656   -0.0526845    -0.0000019    0.0000029     0.0000001   -0.0000009     0.8373981   -0.3667975 
   0.226988700     0.0672647   -0.0618079    -0.0000013    0.0000025     0.0000007   -0.0000025     0.7627161   -0.5027562 
   0.228988600     0.0711395   -0.0717189     0.0000018    0.0000037     0.0000008   -0.0000013     0.6651008   -0.6247457 
   0.230988500     0.0735355   -0.0821943     0.0000009    0.0000028    -0.0000004   -0.0000024     0.5471562   -0.7282985 
   0.232988400     0.0742241   -0.0928852     0.0000011    0.0000018     0.0000008   -0.0000028     0.4123928   -0.8104262 
   0.234988300     0.0733828   -0.1037454     0.0000001    0.0000016     0.0000016   -0.0000034     0.2645481   -0.8675966 
   0.236988200     0.0708983   -0.1144439     0.0000009    0.0000016     0.0000005   -0.0000015     0.1085551   -0.8980759 
   0.238988100     0.0668639   -0.1248369     0.0000018    0.0000006     0.0000017   -0.0000031    -0.0510978   -0.9003285 
   0.240988000     0.0613984   -0.1345238     0.0000001    0.0000010     0.0000011   -0.0000020    -0.2085993   -0.8740932 
   0.242987900     0.0546111   -0.1434574     0.0000014    0.0000007     0.0000025   -0.0000020    -0.3591429   -0.8200637 
   0.244987800     0.0465245   -0.1511765     0.0000052   -0.0000002     0.0000016   -0.0000011    -0.4975102   -0.7403955 
   0.246987700     0.0373891   -0.1576793     0.0000018    0.0000004     0.0000036   -0.0000038    -0.6195697   -0.6371487 
   0.248987600     0.0273637   -0.1628604     0.0000006    0.0000007     0.0000052   -0.0000025    -0.7206268   -0.5140698 
   0.250987500     0.0164401   -0.1665590     0.0000017   -0.0000010     0.0000062   -0.0000035    -0.7980714   -0.3753043 
   0.252987400     0.0051487   -0.1686725     0.0000025   -0.0000018     0.0000039   -0.0000032    -0.8495034   -0.2257434 
   0.254987300    -0.0060186   -0.1692542     0.0000022   -0.0000006     0.0000061   -0.0000040    -0.8734927   -0.0700472 
   0.256987200    -0.0170992   -0.1682761     0.0000009   -0.0000021     0.0000051   -0.0000064    -0.8693901    0.0862418 
   0.258987100    -0.0279144   -0.1659956     0.0000012   -0.0000026     0.0000056   -0.0000079    -0.8380910    0.2388774 
   0.260987000    -0.0382744   -0.1619723    -0.0000001   -0.0000028     0.0000061   -0.0000100    -0.7811005    0.3826598 
   0.262986900    -0.0479249   -0.1565301     0.0000009   -0.0000023     0.0000050   -0.0000108    -0.7005661    0.5133413 
   0.264986800    -0.0568906   -0.1498921    -0.0000009   -0.0000011     0.0000022   -0.0000127    -0.5994005    0.6272490 
   0.266986700    -0.0645687   -0.1420079    -0.0000007   -0.0000026     0.0000003   -0.0000148    -0.4809454    0.7216208 
   0.268986600    -0.0709638   -0.1331082    -0.0000020   -0.0000025    -0.0000033   -0.0000133    -0.3488970    0.7939588 
   0.270986500    -0.0758114   -0.1237961    -0.0000033   -0.0000036    -0.0000066   -0.0000094    -0.2074571    0.8427621 
   0.272986400    -0.0791714   -0.1140322    -0.0000026   -0.0000016    -0.0000056   -0.0000081    -0.0606304    0.8665310 
   0.274986300    -0.0810121   -0.1040281    -0.0000038   -0.0000013    -0.0000044   -0.0000043     0.0872152    0.8655231 
   0.276986200    -0.0812716   -0.0940417    -0.0000024    0.0000001    -0.0000047   -0.0000040     0.2323466    0.8393057 
   0.278986100    -0.0800501   -0.0841956    -0.0000016   -0.0000019    -0.0000028   -0.0000029     0.3705651    0.7899979 
   0.280986000    -0.0773342   -0.0748563    -0.0000044   -0.0000016    -0.0000009   -0.0000034     0.4985607    0.7188824 
   0.282985900    -0.0731790   -0.0660364    -0.0000020   -0.0000006    -0.0000003   -0.0000044     0.6125575    0.6278669 
   0.284985800    -0.0677955   -0.0582939    -0.0000010    0.0000000    -0.0000001   -0.0000065     0.7100201    0.5192547 
   0.286985700    -0.0613045   -0.0518631    -0.0000029    0.0000003    -0.0000011   -0.0000089     0.7882272    0.3961290 
   0.288985600    -0.0538933   -0.0469121    -0.0000022   -0.0000012    -0.0000018   -0.0000101     0.8453505    0.2615845 
   0.290985500    -0.0456519   -0.0434102    -0.0000025    0.0000000    -0.0000045   -0.0000099     0.8794934    0.1191495 
   0.292985400    -0.0371896   -0.0416672    -0.0000028    0.0000016    -0.0000036   -0.0000098     0.8896478   -0.0274874 
   0.294985300    -0.0286143   -0.0415689    -0.0000017    0.0000009    -0.0000053   -0.0000078     0.8750255   -0.1743645 
   0.296985200    -0.0202464   -0.0431108    -0.0000024    0.0000023    -0.0000069   -0.0000080     0.8364187   -0.3173870 
   0.298985100    -0.0123710   -0.0463113    -0.0000025    0.0000021    -0.0000086   -0.0000064     0.7738817   -0.4525585 
   0.300985000    -0.0053101   -0.0511350    -0.0000034    0.0000000    -0.0000094   -0.0000059     0.6894219   -0.5758229 
   0.302984900     0.0006452   -0.0574036    -0.0000014    0.0000040    -0.0000095   -0.0000037     0.5846227   -0.6836608 
   0.304984800     0.0052354   -0.0649492    -0.0000023    0.0000034    -0.0000094   -0.0000022     0.4625538   -0.7726479 
   0.306984700     0.0081854   -0.0735254     0.0000000    0.0000025    -0.0000091   -0.0000008     0.3262025   -0.8399462 
   0.308984600     0.0093201   -0.0828717    -0.0000007    0.0000043    -0.0000075    0.0000004     0.1798769   -0.8832686 
   0.310984500     0.0085122   -0.0926084     0.0000007    0.0000024    -0.0000068    0.0000012     0.0273661   -0.9008606 
   0.312984400     0.0055994   -0.1024779     0.0000003    0.0000033    -0.0000075    0.0000030    -0.1264794   -0.8917525 
   0.314984300     0.0003823   -0.1119017     0.0000026    0.0000015    -0.0000048    0.0000038    -0.2771399   -0.8559970 
