! MS46122B
! 2250307/22442219
! 7/31/2025 8:34:56 AM
! C:\USERS\SPARKY\DOCUMENTS\VNA_DATA\JULY31_2025\295K\PORT4.S2P
! CHANNEL.1
! TR.MEASUREMENT
! RAW.DATA
# GHZ S RI R 50.0
! FREQ.GHZ         S11RE         S11IM         S21RE         S21IM         S12RE         S12IM         S22RE         S22IM         
!; PortSelection: Port_12
   0.001000000     1.0437180   -0.0698259     0.0000022    0.0000012    -0.0000122   -0.0000286     0.8138596   -0.5558833 
   0.002999900     0.9517241   -0.1917629     0.0000018    0.0000013    -0.0000026   -0.0000042     0.0288388   -0.8771195 
   0.004999800     0.8764867   -0.2756323    -0.0000035   -0.0000009     0.0000091   -0.0000030    -0.7536961   -0.4291064 
   0.006999700     0.7917960   -0.3648823    -0.0000008    0.0000014    -0.0000016   -0.0000019    -0.8097034    0.4859101 
   0.008999600     0.7005904   -0.4030707     0.0000022    0.0000011     0.0000032   -0.0000004    -0.1137942    0.9870635 
   0.010999500     0.6240661   -0.4283175    -0.0000002   -0.0000029     0.0000029   -0.0000003     0.5756485    0.8014528 
   0.012999400     0.5576523   -0.4429624    -0.0000019    0.0000014    -0.0000033   -0.0000009     0.9000000    0.3384346 
   0.014999300     0.5011023   -0.4499232    -0.0000025   -0.0000007     0.0000006   -0.0000002     0.9346520   -0.1137728 
   0.016999200     0.4522058   -0.4508774     0.0000003    0.0000022     0.0000024   -0.0000008     0.8056192   -0.4675893 
   0.018999100     0.4113398   -0.4475709    -0.0000009    0.0000014     0.0000015    0.0000002     0.5947031   -0.7134327 
   0.020999000     0.3773970   -0.4418202     0.0000000    0.0000003     0.0000051   -0.0000001     0.3505144   -0.8616980 
   0.022998900     0.3485048   -0.4346327     0.0000002   -0.0000005    -0.0000024   -0.0000021     0.1009015   -0.9269313 
   0.024998800     0.3187181   -0.4058309     0.0000005    0.0000001     0.0000025    0.0000006    -0.1266723   -0.9948177 
   0.026998700     0.3019547   -0.4184519     0.0000003    0.0000007     0.0000012   -0.0000006    -0.3497054   -0.8651709 
   0.028998600     0.2827361   -0.4097833    -0.0000017    0.0000001    -0.0000008    0.0000007    -0.5310721   -0.7637262 
   0.030998500     0.2653084   -0.4011350     0.0000018   -0.0000003     0.0000020   -0.0000002    -0.6773887   -0.6315064 
   0.032998400     0.2456951   -0.3750965    -0.0000010   -0.0000008     0.0000007    0.0000014    -0.8343148   -0.5272140 
   0.034998300     0.2333877   -0.3840512    -0.0000008   -0.0000003     0.0000014   -0.0000017    -0.8591714   -0.3139150 
   0.036998200     0.2192132   -0.3759469    -0.0000004   -0.0000027    -0.0000030   -0.0000017    -0.8976879   -0.1448328 
   0.038998100     0.2057324   -0.3681292     0.0000021    0.0000000    -0.0000013   -0.0000037    -0.9045124    0.0223969 
   0.040998000     0.1928763   -0.3605466    -0.0000015   -0.0000033     0.0000034    0.0000018    -0.8819913    0.1832408 
   0.042997900     0.1807019   -0.3531767    -0.0000002    0.0000032    -0.0000008   -0.0000006    -0.8334803    0.3341270 
   0.044997800     0.1675570   -0.3317082    -0.0000008   -0.0000038    -0.0000029    0.0000030    -0.8281426    0.4972826 
   0.046997700     0.1564776   -0.3393224     0.0000002   -0.0000015    -0.0000039   -0.0000005    -0.6702589    0.5947130 
   0.048997600     0.1456028   -0.3325102    -0.0000031   -0.0000012    -0.0000011   -0.0000008    -0.5610212    0.6986022 
   0.050997500     0.1352262   -0.3258373    -0.0000014   -0.0000016    -0.0000003   -0.0000004    -0.4363146    0.7825864 
   0.052997400     0.1255619   -0.3192788    -0.0000051   -0.0000089     0.0000016    0.0000026    -0.3010136    0.8440944 
   0.054997300     0.1162690   -0.3128415    -0.0000133    0.0000116    -0.0000046   -0.0000004    -0.1552754    0.8828555 
   0.056997200     0.1073169   -0.3069186    -0.0000027    0.0000011    -0.0000033   -0.0000009    -0.0088585    0.8960667 
   0.058997100     0.0990993   -0.3010085     0.0000011    0.0000023    -0.0000029    0.0000004     0.1396377    0.8842740 
   0.060997000     0.0912422   -0.2953649    -0.0000026    0.0000009    -0.0000001    0.0000007     0.2850155    0.8475577 
   0.062996900     0.0839016   -0.2899246    -0.0000024    0.0000011    -0.0000017    0.0000002     0.4222607    0.7868729 
   0.064996800     0.0771488   -0.2845671    -0.0000030    0.0000025     0.0000017    0.0000029     0.5481852    0.7030593 
   0.066996700     0.0707917   -0.2794246     0.0000007    0.0000005    -0.0000003    0.0000007     0.6587033    0.5986441 
   0.068996600     0.0647867   -0.2743498     0.0000000    0.0000018     0.0000007    0.0000016     0.7509369    0.4751037 
   0.070996500     0.0591943   -0.2696267     0.0000016   -0.0000010     0.0000004   -0.0000014     0.8209808    0.3369246 
   0.072996400     0.0537816   -0.2647069    -0.0000002    0.0000012     0.0000029    0.0000015     0.8664196    0.1873779 
   0.074996300     0.0486472   -0.2598236    -0.0000039   -0.0000004     0.0000026    0.0000010     0.8851165    0.0309155 
   0.076996200     0.0437569   -0.2549204     0.0000018    0.0000035     0.0000040   -0.0000018     0.8753053   -0.1285225 
   0.078996100     0.0390494   -0.2500374     0.0000014    0.0000015     0.0000016    0.0000010     0.8374369   -0.2846557 
   0.080996000     0.0344406   -0.2451400     0.0000001   -0.0000016     0.0000037   -0.0000013     0.7709233   -0.4320904 
   0.082995900     0.0298841   -0.2402262    -0.0000015    0.0000004     0.0000038   -0.0000023     0.6782826   -0.5656607 
   0.084995800     0.0255555   -0.2349261     0.0000007   -0.0000010     0.0000006    0.0000008     0.5614198   -0.6807418 
   0.086995700     0.0213552   -0.2297914     0.0000012   -0.0000003     0.0000001    0.0000000     0.4255341   -0.7726793 
   0.088995600     0.0174872   -0.2246465     0.0000004   -0.0000027     0.0000020   -0.0000019     0.2743414   -0.8374053 
   0.090995500     0.0137618   -0.2194242     0.0000010   -0.0000043     0.0000015    0.0000000     0.1138806   -0.8729250 
   0.092995400     0.0103300   -0.2143514     0.0000019   -0.0000004     0.0000025   -0.0000024    -0.0503004   -0.8781837 
   0.094995300     0.0071264   -0.2089510     0.0000021   -0.0000005     0.0000014   -0.0000006    -0.2121547   -0.8534204 
   0.096995200     0.0042098   -0.2035684     0.0000021   -0.0000026    -0.0000006   -0.0000021    -0.3660832   -0.7991026 
   0.098995100     0.0014543   -0.1979415    -0.0000003    0.0000009     0.0000033   -0.0000018    -0.5069883   -0.7181056 
   0.100995000    -0.0023151   -0.1933198     0.0000007   -0.0000019     0.0000015   -0.0000002    -0.6314045   -0.6128874 
   0.102994900    -0.0043617   -0.1878243     0.0000000   -0.0000005     0.0000005    0.0000004    -0.7325276   -0.4884019 
   0.104994800    -0.0059789   -0.1823379     0.0000001   -0.0000008    -0.0000003   -0.0000022    -0.8087986   -0.3489476 
   0.106994700    -0.0072109   -0.1767998     0.0000004   -0.0000013     0.0000011   -0.0000029    -0.8586620   -0.1989631 
   0.108994600    -0.0080538   -0.1715231    -0.0000006   -0.0000020    -0.0000004   -0.0000015    -0.8808531   -0.0439800 
   0.110994500    -0.0084948   -0.1663885    -0.0000017   -0.0000021     0.0000023   -0.0000010    -0.8758076    0.1111088 
   0.112994400    -0.0085554   -0.1614541    -0.0000009   -0.0000014    -0.0000001   -0.0000024    -0.8438397    0.2615269 
   0.114994300    -0.0082474   -0.1567709    -0.0000012   -0.0000013    -0.0000007   -0.0000004    -0.7871088    0.4032683 
   0.116994200    -0.0075810   -0.1523558    -0.0000013   -0.0000015     0.0000000   -0.0000003    -0.7071201    0.5318006 
   0.118994100    -0.0065940   -0.1482680    -0.0000008   -0.0000008    -0.0000006   -0.0000012    -0.6073838    0.6441157 
   0.120994000    -0.0052992   -0.1442655    -0.0000012   -0.0000001    -0.0000016    0.0000003    -0.4907869    0.7368973 
   0.122993900    -0.0038100   -0.1409208    -0.0000007   -0.0000004    -0.0000001   -0.0000007    -0.3609715    0.8086227 
   0.124993800    -0.0021137   -0.1380136    -0.0000013   -0.0000012    -0.0000020   -0.0000011    -0.2217272    0.8576277 
   0.126993700    -0.0003466   -0.1355527    -0.0000020    0.0000006    -0.0000006   -0.0000001    -0.0769550    0.8824247 
   0.128993600     0.0014689   -0.1333962    -0.0000017    0.0000007    -0.0000018   -0.0000002     0.0693676    0.8829688 
   0.130993500     0.0033173   -0.1318700    -0.0000017   -0.0000008     0.0000002    0.0000001     0.2137353    0.8591792 
   0.132993400     0.0050985   -0.1308028    -0.0000038    0.0000007    -0.0000001    0.0000008     0.3520487    0.8119314 
   0.134993300     0.0067294   -0.1301807    -0.0000012   -0.0000005    -0.0000006    0.0000000     0.4803513    0.7425638 
   0.136993200     0.0081529   -0.1299566    -0.0000003    0.0000004    -0.0000008    0.0000002     0.5955066    0.6527616 
   0.138993100     0.0092886   -0.1301263    -0.0000011    0.0000011     0.0000000    0.0000000     0.6942609    0.5446635 
   0.140993000     0.0101461   -0.1306183    -0.0000016    0.0000013     0.0000012    0.0000005     0.7741100    0.4212692 
   0.142992900     0.0105654   -0.1313882    -0.0000007    0.0000022    -0.0000002   -0.0000003     0.8322901    0.2861615 
   0.144992800     0.0106611   -0.1324867    -0.0000015    0.0000003     0.0000001    0.0000007     0.8663678    0.1423508 
   0.146992700     0.0102299   -0.1335975    -0.0000015    0.0000011     0.0000003    0.0000003     0.8762217   -0.0053748 
   0.148992600     0.0093381   -0.1347884    -0.0000013    0.0000024     0.0000005    0.0000010     0.8608054   -0.1535435 
   0.150992500     0.0080089   -0.1358485    -0.0000004    0.0000002    -0.0000001    0.0000010     0.8206629   -0.2974451 
   0.152992400     0.0060914   -0.1369357     0.0000000    0.0000019    -0.0000001   -0.0000004     0.7558416   -0.4327429 
   0.154992300     0.0038104   -0.1378392     0.0000000    0.0000011     0.0000001    0.0000003     0.6681006   -0.5551201 
   0.156992200     0.0010927   -0.1384983     0.0000006    0.0000008     0.0000006   -0.0000002     0.5601208   -0.6610455 
   0.158992100    -0.0020343   -0.1388335     0.0000017    0.0000011     0.0000003    0.0000003     0.4350659   -0.7466579 
   0.160992000    -0.0054546   -0.1387433     0.0000006    0.0000011     0.0000018    0.0000001     0.2965623   -0.8093198 
   0.162991900    -0.0091550   -0.1381847    -0.0000002    0.0000015     0.0000001   -0.0000003     0.1489012   -0.8466723 
   0.164991800    -0.0130744   -0.1371448     0.0000013   -0.0000012     0.0000016    0.0000008    -0.0032697   -0.8575547 
   0.166991700    -0.0170538   -0.1355250    -0.0000001    0.0000013     0.0000017    0.0000000    -0.1546527   -0.8415784 
   0.168991600    -0.0210412   -0.1333273     0.0000008    0.0000005     0.0000003   -0.0000002    -0.3010103   -0.7990080 
   0.170991500    -0.0250205   -0.1305473     0.0000007   -0.0000001     0.0000018   -0.0000009    -0.4374766   -0.7313930 
   0.172991400    -0.0288125   -0.1271627     0.0000007    0.0000000     0.0000000    0.0000002    -0.5594622   -0.6409525 
   0.174991300    -0.0322780   -0.1232197     0.0000001   -0.0000016     0.0000013    0.0000014    -0.6633961   -0.5310026 
   0.176991200    -0.0354006   -0.1187379     0.0000010   -0.0000001     0.0000008    0.0000006    -0.7460150   -0.4051277 
   0.178991100    -0.0380841   -0.1137418     0.0000000   -0.0000010     0.0000023    0.0000000    -0.8053157   -0.2670487 
   0.180991000    -0.0401956   -0.1083608    -0.0000002    0.0000003     0.0000014   -0.0000012    -0.8392688   -0.1215156 
   0.182990900    -0.0416919   -0.1025412    -0.0000006   -0.0000004     0.0000024   -0.0000001    -0.8479143    0.0268091 
   0.184990800    -0.0424424   -0.0964658    -0.0000011   -0.0000011     0.0000033   -0.0000018    -0.8306711    0.1735965 
   0.186990700    -0.0424958   -0.0901792    -0.0000003    0.0000004     0.0000030   -0.0000020    -0.7887812    0.3146248 
   0.188990600    -0.0398804   -0.0848457     0.0000007    0.0000003     0.0000027   -0.0000024    -0.7372923    0.4260261 
   0.190990500    -0.0398627   -0.0777184    -0.0000004   -0.0000014     0.0000018   -0.0000029    -0.6407332    0.5612671 
   0.192990400    -0.0376436   -0.0714686    -0.0000009   -0.0000013     0.0000013   -0.0000019    -0.5347000    0.6642502 
   0.194990300    -0.0344067   -0.0656709    -0.0000013   -0.0000005     0.0000000   -0.0000032    -0.4159128    0.7460998 
   0.196990200    -0.0303706   -0.0603232    -0.0000021   -0.0000023     0.0000014   -0.0000018    -0.2857674    0.8066692 
   0.198990100    -0.0256252   -0.0554941    -0.0000024   -0.0000021     0.0000006   -0.0000019    -0.1478333    0.8446673 
   0.200990000    -0.0202324   -0.0513628    -0.0000024   -0.0000008     0.0000006   -0.0000004    -0.0059942    0.8591713 
   0.202989900    -0.0142779   -0.0479811    -0.0000015   -0.0000008    -0.0000003   -0.0000024     0.1360278    0.8500248 
   0.204989800    -0.0078453   -0.0454439    -0.0000020    0.0000008     0.0000027   -0.0000014     0.2746203    0.8176333 
   0.206989700    -0.0011020   -0.0438251    -0.0000023    0.0000003     0.0000018   -0.0000016     0.4060742    0.7630053 
   0.208989600     0.0058625   -0.0431871    -0.0000026   -0.0000004     0.0000014   -0.0000010     0.5265904    0.6873529 
   0.210989500     0.0129363   -0.0435844    -0.0000023    0.0000020     0.0000002   -0.0000018     0.6331007    0.5927360 
   0.212989400     0.0199519   -0.0450417    -0.0000018    0.0000008     0.0000011   -0.0000009     0.7228686    0.4813264 
   0.214989300     0.0267047   -0.0475242    -0.0000021    0.0000007     0.0000009   -0.0000026     0.7930583    0.3565047 
   0.216989200     0.0330491   -0.0510256    -0.0000015    0.0000026     0.0000016   -0.0000026     0.8418310    0.2212003 
   0.218989100     0.0388479   -0.0554469    -0.0000013    0.0000003     0.0000027   -0.0000017     0.8672259    0.0793115 
   0.220989000     0.0440167   -0.0607359    -0.0000022    0.0000006     0.0000009   -0.0000018     0.8685322   -0.0657817 
   0.222988900     0.0483256   -0.0668101    -0.0000013    0.0000019     0.0000019   -0.0000028     0.8450752   -0.2096606 
   0.224988800     0.0517511   -0.0735272    -0.0000001    0.0000023     0.0000023   -0.0000014     0.7976344   -0.3482392 
   0.226988700     0.0541832   -0.0807705     0.0000013    0.0000015     0.0000014   -0.0000042     0.7268538   -0.4770356 
   0.228988600     0.0555813   -0.0883279    -0.0000004    0.0000021    -0.0000002   -0.0000031     0.6343866   -0.5925083 
   0.230988500     0.0558876   -0.0960984     0.0000009    0.0000013     0.0000001   -0.0000028     0.5229347   -0.6907457 
   0.232988400     0.0549442   -0.1038275    -0.0000004    0.0000014     0.0000019   -0.0000014     0.3954785   -0.7684824 
   0.234988300     0.0528930   -0.1115894     0.0000005    0.0000012     0.0000017   -0.0000020     0.2558524   -0.8230230 
   0.236988200     0.0497582   -0.1190245     0.0000010    0.0000025     0.0000000   -0.0000015     0.1083989   -0.8522911 
   0.238988100     0.0455872   -0.1260351     0.0000028    0.0000018     0.0000022   -0.0000016    -0.0423101   -0.8551467 
   0.240988000     0.0404525   -0.1324235     0.0000026    0.0000018     0.0000031   -0.0000015    -0.1915329   -0.8314421 
   0.242987900     0.0345072   -0.1382619     0.0000008   -0.0000001     0.0000011   -0.0000019    -0.3341905   -0.7813355 
   0.244987800     0.0277720   -0.1431551     0.0000003   -0.0000006     0.0000035   -0.0000018    -0.4655819   -0.7069070 
   0.246987700     0.0203741   -0.1470504     0.0000026    0.0000002     0.0000040   -0.0000026    -0.5816312   -0.6102292 
   0.248987600     0.0123805   -0.1499454     0.0000029    0.0000001     0.0000042   -0.0000031    -0.6784956   -0.4947689 
   0.250987500     0.0039679   -0.1517944     0.0000008    0.0000001     0.0000047   -0.0000030    -0.7530848   -0.3641429 
   0.252987400    -0.0045472   -0.1525195     0.0000002   -0.0000017     0.0000052   -0.0000042    -0.8032403   -0.2231999 
   0.254987300    -0.0129016   -0.1520626     0.0000019   -0.0000020     0.0000056   -0.0000055    -0.8275685   -0.0760872 
   0.256987200    -0.0210794   -0.1505173    -0.0000005   -0.0000018     0.0000055   -0.0000058    -0.8255613    0.0721476 
   0.258987100    -0.0290213   -0.1480952     0.0000004   -0.0000020     0.0000063   -0.0000071    -0.7976637    0.2172254 
   0.260987000    -0.0364439   -0.1444234     0.0000001   -0.0000014     0.0000055   -0.0000091    -0.7453445    0.3542251 
   0.262986900    -0.0433222   -0.1397778    -0.0000015   -0.0000013     0.0000043   -0.0000109    -0.6705421    0.4792159 
   0.264986800    -0.0496072   -0.1341894     0.0000004   -0.0000015     0.0000030   -0.0000117    -0.5758462    0.5886611 
   0.266986700    -0.0550617   -0.1278803    -0.0000005   -0.0000008    -0.0000001   -0.0000139    -0.4645033    0.6796989 
   0.268986600    -0.0593025   -0.1211360    -0.0000012   -0.0000017    -0.0000040   -0.0000120    -0.3397838    0.7500865 
   0.270986500    -0.0624501   -0.1140386    -0.0000021   -0.0000020    -0.0000065   -0.0000103    -0.2057891    0.7978998 
   0.272986400    -0.0645203   -0.1067147    -0.0000006   -0.0000022    -0.0000066   -0.0000079    -0.0663956    0.8225169 
   0.274986300    -0.0654444   -0.0993389    -0.0000036   -0.0000023    -0.0000072   -0.0000039     0.0742810    0.8231589 
   0.276986200    -0.0652612   -0.0920460    -0.0000031   -0.0000016    -0.0000044   -0.0000051     0.2128224    0.7996293 
   0.278986100    -0.0640055   -0.0850165    -0.0000029   -0.0000016    -0.0000015   -0.0000020     0.3450066    0.7541625 
   0.280986000    -0.0617020   -0.0782929    -0.0000019   -0.0000015    -0.0000005   -0.0000049     0.4675768    0.6876622 
   0.282985900    -0.0584448   -0.0721550    -0.0000037    0.0000009     0.0000011   -0.0000055     0.5769837    0.6019489 
   0.284985800    -0.0543598   -0.0669291    -0.0000007   -0.0000024     0.0000000   -0.0000065     0.6708937    0.4992372 
   0.286985700    -0.0495614   -0.0626819    -0.0000047   -0.0000001     0.0000012   -0.0000075     0.7463148    0.3824842 
   0.288985600    -0.0440702   -0.0595100    -0.0000039   -0.0000002    -0.0000006   -0.0000095     0.8017334    0.2547526 
   0.290985500    -0.0381871   -0.0575067    -0.0000025   -0.0000001    -0.0000028   -0.0000102     0.8350344    0.1192592 
   0.292985400    -0.0322241   -0.0567945    -0.0000029    0.0000025    -0.0000044   -0.0000097     0.8456377   -0.0203970 
   0.294985300    -0.0262731   -0.0573502    -0.0000034    0.0000007    -0.0000067   -0.0000093     0.8326287   -0.1602755 
   0.296985200    -0.0205955   -0.0590606    -0.0000021    0.0000023    -0.0000062   -0.0000084     0.7963198   -0.2965485 
   0.298985100    -0.0154237   -0.0619413    -0.0000012    0.0000032    -0.0000070   -0.0000058     0.7375108   -0.4253763 
   0.300985000    -0.0109758   -0.0659678    -0.0000018    0.0000022    -0.0000086   -0.0000047     0.6575609   -0.5429057 
   0.302984900    -0.0074453   -0.0710334    -0.0000016    0.0000024    -0.0000095   -0.0000036     0.5584017   -0.6456673 
   0.304984800    -0.0050311   -0.0769983    -0.0000004    0.0000035    -0.0000086   -0.0000012     0.4427958   -0.7307195 
   0.306984700    -0.0039227   -0.0836512    -0.0000015    0.0000017    -0.0000102    0.0000002     0.3135600   -0.7949986 
   0.308984600    -0.0042263   -0.0907974     0.0000011    0.0000022    -0.0000068    0.0000005     0.1749293   -0.8364388 
   0.310984500    -0.0061031   -0.0982806    -0.0000008    0.0000032    -0.0000075    0.0000015     0.0304435   -0.8534052 
   0.312984400    -0.0097316   -0.1057825     0.0000008    0.0000016    -0.0000062    0.0000019    -0.1153924   -0.8453455 
   0.314984300    -0.0149937   -0.1125464     0.0000020    0.0000014    -0.0000046    0.0000037    -0.2580031   -0.8119363 
