! MS46122B
! 2250307/22442219
! 8/1/2025 10:42:36 AM
! C:\USERS\SPARKY\DOCUMENTS\VNA_DATA\AUGUST1_2025\3K\PORT1_REPEAT5.S2P
! CHANNEL.1
! TR.MEASUREMENT
! RAW.DATA
# GHZ S RI R 50.0
! FREQ.GHZ         S11RE         S11IM         S21RE         S21IM         S12RE         S12IM         S22RE         S22IM         
!; PortSelection: Port_12
   0.001000000     1.0441560   -0.0686986    -0.0004360   -0.0010186    -0.0003868   -0.0010496     0.8182239   -0.5512271 
   0.002999900     0.9605039   -0.1957710    -0.0236090   -0.0154906    -0.0246413   -0.0161572     0.0660399   -0.8778511 
   0.004999800     0.8702369   -0.3133711    -0.1433690    0.0273952    -0.1507564    0.0318642    -0.6946676   -0.3626435 
   0.006999700     0.7716523   -0.4069190    -0.1876365    0.1384255    -0.1919463    0.1521280    -0.7385836    0.2679749 
   0.008999600     0.5934543   -0.3995782    -0.0548336    0.5187724    -0.0368562    0.5274846     0.3092460    0.6057168 
   0.010999500     0.5682666   -0.3261628     0.3822947    0.4870524     0.3898045    0.4906894     0.4684159   -0.2717907 
   0.012999400     0.5829560   -0.3392206     0.5625907    0.2434014     0.5775739    0.2505952    -0.0129357   -0.5510364 
   0.014999300     0.5720242   -0.3821234     0.6021394    0.0370851     0.6229426    0.0360452    -0.3745041   -0.4473058 
   0.016999200     0.5415569   -0.4251653     0.5900096   -0.1278912     0.6090764   -0.1391716    -0.5574880   -0.2270718 
   0.018999100     0.5003561   -0.4619867     0.5504836   -0.2693610     0.5624037   -0.2872597    -0.6064163    0.0095681 
   0.020999000     0.4510943   -0.4899822     0.4889627   -0.3933956     0.4917558   -0.4129966    -0.5549424    0.2183340 
   0.022998900     0.3975914   -0.5077944     0.4077177   -0.5022350     0.4023453   -0.5188116    -0.4358189    0.3759281 
   0.024998800     0.3386679   -0.4901225     0.3488772   -0.6033887     0.2889194   -0.6103330    -0.3051529    0.5058432 
   0.026998700     0.2874317   -0.5070568     0.1860229   -0.6698765     0.1734674   -0.6715584    -0.1058444    0.5044351 
   0.028998600     0.2367414   -0.4888873     0.0471939   -0.7194574     0.0375668   -0.7137628     0.0587929    0.4764839 
   0.030998500     0.1935609   -0.4602243    -0.1050128   -0.7390633    -0.1084040   -0.7288190     0.1968382    0.3970966 
   0.032998400     0.1618680   -0.4071923    -0.2370931   -0.7649486    -0.2689185   -0.7111570     0.3148305    0.3097085 
   0.034998300     0.1411791   -0.3847179    -0.4179305   -0.6697331    -0.4086409   -0.6631855     0.3393610    0.1416699 
   0.036998200     0.1334156   -0.3468517    -0.5588146   -0.5803688    -0.5468622   -0.5792561     0.3311923    0.0035162 
   0.038998100     0.1362525   -0.3146318    -0.6755422   -0.4593790    -0.6649950   -0.4641903     0.2748330   -0.1149017 
   0.040998000     0.1463139   -0.2909977    -0.7609454   -0.3151704    -0.7549753   -0.3236154     0.1827689   -0.1988017 
   0.042997900     0.1593678   -0.2771705    -0.8118767   -0.1575951    -0.8105899   -0.1666365     0.0722559   -0.2389692 
   0.044997800     0.1693024   -0.2603661    -0.8595181   -0.0377918    -0.8316869    0.0078734    -0.0351038   -0.2507636 
   0.046997700     0.1798425   -0.2764645    -0.8088998    0.1616689    -0.8138206    0.1592274    -0.1366478   -0.1922487 
   0.048997600     0.1829068   -0.2847702    -0.7620411    0.3086959    -0.7659386    0.3097935    -0.2073541   -0.1209145 
   0.050997500     0.1796738   -0.2953664    -0.6907186    0.4410062    -0.6916452    0.4446427    -0.2461082   -0.0334074 
   0.052997400     0.1705157   -0.3058267    -0.5985246    0.5556785    -0.5967968    0.5587878    -0.2515039    0.0582176 
   0.054997300     0.1563632   -0.3140626    -0.4870314    0.6533288    -0.4873030    0.6512735    -0.2258785    0.1425787 
   0.056997200     0.1383908   -0.3191628    -0.3681166    0.7267045    -0.3627468    0.7245336    -0.1753937    0.2108126 
   0.058997100     0.1188414   -0.3196855    -0.2370979    0.7800930    -0.2317400    0.7745178    -0.1065475    0.2571577 
   0.060997000     0.0991599   -0.3154715    -0.0990036    0.8107787    -0.0963680    0.8024583    -0.0278329    0.2778727 
   0.062996900     0.0807639   -0.3069143     0.0427326    0.8180447     0.0412521    0.8086482     0.0525957    0.2718747 
   0.064996800     0.0656868   -0.2947786     0.1843914    0.8016191     0.1781143    0.7924690     0.1258230    0.2408867 
   0.066996700     0.0546748   -0.2802752     0.3219053    0.7606828     0.3117521    0.7539076     0.1849192    0.1888370 
   0.068996600     0.0482760   -0.2648581     0.4509875    0.6956869     0.4383544    0.6931279     0.2245128    0.1209072 
   0.070996500     0.0465468   -0.2504392     0.5679597    0.6087820     0.5544064    0.6107680     0.2405691    0.0448560 
   0.072996400     0.0487583   -0.2379448     0.6678839    0.5016536     0.6549880    0.5081456     0.2320426   -0.0315878 
   0.074996300     0.0538902   -0.2288979     0.7465739    0.3778057     0.7365471    0.3876257     0.2003419   -0.1010949 
   0.076996200     0.0604388   -0.2239475     0.8013867    0.2418676     0.7952051    0.2534846     0.1490733   -0.1559640 
   0.078996100     0.0668450   -0.2232404     0.8307335    0.0983369     0.8284391    0.1103633     0.0838322   -0.1916510 
   0.080996000     0.0714213   -0.2264307     0.8344939   -0.0471978     0.8344278   -0.0359796     0.0120098   -0.2045942 
   0.082995900     0.0730114   -0.2324625     0.8119223   -0.1900703     0.8138595   -0.1805947    -0.0591799   -0.1943234 
   0.084995800     0.0710134   -0.2397979     0.7649143   -0.3247560     0.7675062   -0.3172149    -0.1218728   -0.1628435 
   0.086995700     0.0650361   -0.2475509     0.6965394   -0.4488891     0.6990419   -0.4421999    -0.1706430   -0.1142819 
   0.088995600     0.0552972   -0.2540741     0.6094898   -0.5588930     0.6112829   -0.5512771    -0.2010918   -0.0544101 
   0.090995500     0.0424029   -0.2582847     0.5059615   -0.6517003     0.5077857   -0.6431176    -0.2114820    0.0101088 
   0.092995400     0.0269663   -0.2597790     0.3897715   -0.7260161     0.3927278   -0.7161396    -0.2017114    0.0730946 
   0.094995300     0.0106437   -0.2569034     0.2633310   -0.7795604     0.2679286   -0.7690818    -0.1742247    0.1286289 
   0.096995200    -0.0053027   -0.2501016     0.1305848   -0.8124033     0.1377923   -0.8012416    -0.1322466    0.1718785 
   0.098995100    -0.0198803   -0.2395519    -0.0055642   -0.8229246     0.0046245   -0.8128561    -0.0804487    0.1997784 
   0.100995000    -0.0338926   -0.2257846    -0.1434906   -0.8111765    -0.1299482   -0.8037552    -0.0220298    0.2108142 
   0.102994900    -0.0425804   -0.2096658    -0.2763114   -0.7771131    -0.2604670   -0.7731534     0.0328916    0.2034480 
   0.104994800    -0.0474209   -0.1923883    -0.4021342   -0.7216092    -0.3851227   -0.7217359     0.0813365    0.1800684 
   0.106994700    -0.0482210   -0.1749645    -0.5172510   -0.6450357    -0.5012633   -0.6502242     0.1191213    0.1440479 
   0.108994600    -0.0453736   -0.1587083    -0.6190352   -0.5505989    -0.6050158   -0.5597359     0.1427424    0.0996452 
   0.110994500    -0.0393454   -0.1446083    -0.7037204   -0.4398282    -0.6927102   -0.4522462     0.1507093    0.0516507 
   0.112994400    -0.0308890   -0.1331944    -0.7687563   -0.3158756    -0.7612042   -0.3300503     0.1429739    0.0051906 
   0.114994300    -0.0210982   -0.1252304    -0.8119128   -0.1823043    -0.8078977   -0.1969023     0.1212509   -0.0346090 
   0.116994200    -0.0109860   -0.1205133    -0.8312956   -0.0429645    -0.8306695   -0.0572064     0.0884623   -0.0636971 
   0.118994100    -0.0015102   -0.1187865    -0.8268479    0.0974791    -0.8287358    0.0845788     0.0489267   -0.0794257 
   0.120994000     0.0067566   -0.1194922    -0.7988361    0.2349961    -0.8021450    0.2234005     0.0075984   -0.0802460 
   0.122993900     0.0129996   -0.1218838    -0.7474930    0.3655164    -0.7519667    0.3551947    -0.0307185   -0.0665873 
   0.124993800     0.0172026   -0.1251668    -0.6752371    0.4851403    -0.6802666    0.4759116    -0.0610780   -0.0405746 
   0.126993700     0.0194541   -0.1286530    -0.5839663    0.5906613    -0.5899514    0.5814818    -0.0797845   -0.0061010 
   0.128993600     0.0200948   -0.1315904    -0.4764906    0.6786169    -0.4836454    0.6699002    -0.0849695    0.0326715 
   0.130993500     0.0196627   -0.1338297    -0.3563282    0.7477168    -0.3650878    0.7392905    -0.0760338    0.0709771 
   0.132993400     0.0186429   -0.1350651    -0.2268015    0.7956879    -0.2376550    0.7881447    -0.0541300    0.1040181 
   0.134993300     0.0175841   -0.1354131    -0.0912421    0.8216087    -0.1043808    0.8158673    -0.0217192    0.1279885 
   0.136993200     0.0169667   -0.1351302     0.0464620    0.8246442     0.0314297    0.8213322     0.0178437    0.1398893 
   0.138993100     0.0169883   -0.1346120     0.1827873    0.8049181     0.1665111    0.8048437     0.0598565    0.1380469 
   0.140993000     0.0177341   -0.1343116     0.3136868    0.7626586     0.2972431    0.7663872     0.1000952    0.1224540 
   0.142992900     0.0190206   -0.1347058     0.4356868    0.6992185     0.4203880    0.7069588     0.1339411    0.0941650 
   0.144992800     0.0206670   -0.1362196     0.5454280    0.6167454     0.5323605    0.6279596     0.1577924    0.0556933 
   0.146992700     0.0219714   -0.1389286     0.6395457    0.5167846     0.6294444    0.5304170     0.1690599    0.0109689 
   0.148992600     0.0225404   -0.1429565     0.7156176    0.4027433     0.7090199    0.4177482     0.1661781   -0.0358713 
   0.150992500     0.0218323   -0.1478193     0.7709315    0.2779954     0.7676305    0.2931903     0.1492438   -0.0806349 
   0.152992400     0.0193011   -0.1534138     0.8047537    0.1459649     0.8044595    0.1604263     0.1192058   -0.1187272 
   0.154992300     0.0147398   -0.1590641     0.8160017    0.0108746     0.8178582    0.0243684     0.0786669   -0.1467303 
   0.156992200     0.0080625   -0.1641336     0.8047233   -0.1238105     0.8082045   -0.1117590     0.0314192   -0.1617275 
   0.158992100    -0.0006006   -0.1681311     0.7714860   -0.2537850     0.7759581   -0.2430809    -0.0185643   -0.1622139 
   0.160992000    -0.0108465   -0.1700769     0.7175762   -0.3762702     0.7229686   -0.3660515    -0.0664464   -0.1481690 
   0.162991900    -0.0221706   -0.1696402     0.6447889   -0.4876020     0.6511747   -0.4778847    -0.1081253   -0.1210445 
   0.164991800    -0.0340123   -0.1664352     0.5554906   -0.5853068     0.5627074   -0.5760993    -0.1401191   -0.0832102 
   0.166991700    -0.0454861   -0.1604660     0.4521229   -0.6668175     0.4608690   -0.6579567    -0.1596555   -0.0384796 
   0.168991600    -0.0558052   -0.1519628     0.3370680   -0.7306374     0.3479420   -0.7226273    -0.1656253    0.0092786 
   0.170991500    -0.0644518   -0.1412161     0.2136216   -0.7751371     0.2263592   -0.7687384    -0.1577736    0.0561172 
   0.172991400    -0.0705849   -0.1284205     0.0848202   -0.7994546     0.0992334   -0.7952049    -0.1375792    0.0978175 
   0.174991300    -0.0739200   -0.1147252    -0.0462922   -0.8028600    -0.0305522   -0.8014304    -0.1072000    0.1312449 
   0.176991200    -0.0743148   -0.1005444    -0.1766037   -0.7849587    -0.1602617   -0.7869561    -0.0695583    0.1539582 
   0.178991100    -0.0718504   -0.0869336    -0.3026997   -0.7463974    -0.2870291   -0.7521250    -0.0284805    0.1646701 
   0.180991000    -0.0667847   -0.0745155    -0.4214422   -0.6881033    -0.4069516   -0.6967263     0.0124242    0.1633356 
   0.182990900    -0.0594131   -0.0638298    -0.5290716   -0.6102734    -0.5167261   -0.6221772     0.0494988    0.1506910 
   0.184990800    -0.0504607   -0.0554066    -0.6228570   -0.5157549    -0.6139335   -0.5294784     0.0800779    0.1288543 
   0.186990700    -0.0405509   -0.0493892    -0.7000597   -0.4066237    -0.6943603   -0.4211312     0.1014252    0.1005559 
   0.188990600    -0.0296978   -0.0466625    -0.7485172   -0.3084447    -0.7473674   -0.3195389     0.1103611    0.0722388 
   0.190990500    -0.0207470   -0.0448474    -0.7940217   -0.1597089    -0.7947049   -0.1741201     0.1135387    0.0383081 
   0.192990400    -0.0122295   -0.0455311    -0.8097432   -0.0225737    -0.8130541   -0.0365845     0.1054707    0.0099316 
   0.194990300    -0.0049897   -0.0476715    -0.8023567    0.1115838    -0.8074179    0.0990657     0.0897759   -0.0120656 
   0.196990200     0.0006836   -0.0506732    -0.7726935    0.2426694    -0.7791490    0.2309268     0.0692161   -0.0261633 
   0.198990100     0.0047814   -0.0539526    -0.7215284    0.3666352    -0.7295192    0.3559905     0.0468418   -0.0316549 
   0.200990000     0.0075744   -0.0570965    -0.6505904    0.4804847    -0.6600000    0.4708751     0.0256043   -0.0287469 
   0.202989900     0.0092772   -0.0596657    -0.5619996    0.5807984    -0.5725726    0.5725042     0.0083521   -0.0187633 
   0.204989800     0.0103683   -0.0613390    -0.4583978    0.6649066    -0.4700688    0.6582614    -0.0027531   -0.0037369 
   0.206989700     0.0112876   -0.0621677    -0.3427612    0.7307870    -0.3555205    0.7258471    -0.0065270    0.0138037 
   0.208989600     0.0124299   -0.0621673    -0.2175082    0.7767103    -0.2320570    0.7736773    -0.0027460    0.0310292 
   0.210989500     0.0141861   -0.0616344    -0.0869225    0.8016712    -0.1018031    0.8011857     0.0078547    0.0453274 
   0.212989400     0.0167733   -0.0608444     0.0462258    0.8045458     0.0317115    0.8069494     0.0238907    0.0543768 
   0.214989300     0.0203467   -0.0602357     0.1779817    0.7856827     0.1644586    0.7906999     0.0429843    0.0567148 
   0.216989200     0.0247849   -0.0601997     0.3048099    0.7453084     0.2923759    0.7528281     0.0625008    0.0515531 
   0.218989100     0.0299619   -0.0611480     0.4230327    0.6846356     0.4124470    0.6944484     0.0798797    0.0390620 
   0.220989000     0.0355235   -0.0633939     0.5298310    0.6050074     0.5213412    0.6162804     0.0926786    0.0202734 
   0.222988900     0.0411070   -0.0671214     0.6220020    0.5090124     0.6160769    0.5206758     0.0988484   -0.0029295 
   0.224988800     0.0462643   -0.0723450     0.6967468    0.3990483     0.6931526    0.4104727     0.0969507   -0.0279903 
   0.226988700     0.0505605   -0.0789921     0.7523638    0.2780743     0.7505034    0.2895524     0.0867264   -0.0523580 
   0.228988600     0.0536283   -0.0868047     0.7865816    0.1501248     0.7863023    0.1614413     0.0686411   -0.0730977 
   0.230988500     0.0550900   -0.0955186     0.7995251    0.0180023     0.8001755    0.0299068     0.0439732   -0.0878700 
   0.232988400     0.0547106   -0.1046130     0.7897501   -0.1133592     0.7921407   -0.1018759     0.0149723   -0.0944732 
   0.234988300     0.0524107   -0.1138338     0.7587647   -0.2415328     0.7627090   -0.2300412    -0.0154938   -0.0918588 
   0.236988200     0.0482951   -0.1226110     0.7071540   -0.3622250     0.7128714   -0.3512293    -0.0443823   -0.0798968 
   0.238988100     0.0424712   -0.1304953     0.6367840   -0.4724447     0.6443927   -0.4618416    -0.0689392   -0.0594033 
   0.240988000     0.0352867   -0.1372299     0.5496480   -0.5690123     0.5594312   -0.5595073    -0.0866065   -0.0321842 
   0.242987900     0.0270671   -0.1424965     0.4481137   -0.6499467     0.4608312   -0.6417298    -0.0955213   -0.0003338 
   0.244987800     0.0181638   -0.1460165     0.3352470   -0.7129668     0.3505056   -0.7070039    -0.0947021    0.0332120 
   0.246987700     0.0088577   -0.1477896     0.2140810   -0.7568237     0.2309710   -0.7539526    -0.0840725    0.0652496 
   0.248987600    -0.0004592   -0.1480212     0.0881254   -0.7803062     0.1046219   -0.7813247    -0.0645208    0.0930157 
   0.250987500    -0.0093379   -0.1465931    -0.0404953   -0.7829731    -0.0244103   -0.7877694    -0.0375395    0.1141091 
   0.252987400    -0.0173819   -0.1437883    -0.1672121   -0.7649850    -0.1527343   -0.7733280    -0.0056411    0.1266172 
   0.254987300    -0.0244013   -0.1399493    -0.2893299   -0.7268288    -0.2767133   -0.7381086     0.0283363    0.1294792 
   0.256987200    -0.0303354   -0.1353423    -0.4032196   -0.6695558    -0.3936065   -0.6828445     0.0616036    0.1225959 
   0.258987100    -0.0352252   -0.1302752    -0.5066270   -0.5946732    -0.4999502   -0.6093196     0.0914493    0.1066396 
   0.260987000    -0.0390043   -0.1247721    -0.5964141   -0.5037726    -0.5929286   -0.5187105     0.1151101    0.0832208 
   0.262986900    -0.0418075   -0.1192999    -0.6702059   -0.3995650    -0.6697745   -0.4138376     0.1307900    0.0544983 
   0.264986800    -0.0437281   -0.1140072    -0.7263259   -0.2846749    -0.7279500   -0.2974919     0.1375917    0.0230072 
   0.266986700    -0.0448786   -0.1089965    -0.7627412   -0.1619583    -0.7662169   -0.1733711     0.1350643   -0.0082611 
   0.268986600    -0.0454020   -0.1043856    -0.7786119   -0.0352093    -0.7832591   -0.0451194     0.1238106   -0.0365406 
   0.270986500    -0.0455126   -0.1002582    -0.7734759    0.0924682    -0.7791090    0.0834109     0.1053505   -0.0595180 
   0.272986400    -0.0452690   -0.0964635    -0.7477037    0.2177676    -0.7540051    0.2089153     0.0817162   -0.0751736 
   0.274986300    -0.0447273   -0.0929637    -0.7016149    0.3371729    -0.7090143    0.3286435     0.0555997   -0.0825157 
   0.276986200    -0.0439696   -0.0895934    -0.6366197    0.4473344    -0.6456228    0.4395864     0.0297892   -0.0812405 
   0.278986100    -0.0430138   -0.0863937    -0.5542632    0.5453209    -0.5647262    0.5386672     0.0070637   -0.0721195 
   0.280986000    -0.0418063   -0.0832629    -0.4572526    0.6285630    -0.4685534    0.6237549    -0.0102944   -0.0567783 
   0.282985900    -0.0402848   -0.0803472    -0.3475776    0.6947861    -0.3595549    0.6920145    -0.0206003   -0.0374248 
   0.284985800    -0.0383510   -0.0776564    -0.2289006    0.7418613    -0.2404860    0.7414185    -0.0230933   -0.0167259 
   0.286985700    -0.0359047   -0.0752565    -0.1036214    0.7688189    -0.1151508    0.7707064    -0.0178637    0.0025244 
   0.288985600    -0.0329902   -0.0734573     0.0243672    0.7749939     0.0125925    0.7790970    -0.0058436    0.0179069 
   0.290985500    -0.0295964   -0.0723500     0.1514770    0.7597640     0.1402294    0.7659122     0.0110771    0.0272427 
   0.292985400    -0.0258214   -0.0720518     0.2741289    0.7237902     0.2642143    0.7317502     0.0305016    0.0290797 
   0.294985300    -0.0218728   -0.0727273     0.3892512    0.6677983     0.3806201    0.6773330     0.0497236    0.0229725 
   0.296985200    -0.0179897   -0.0745186     0.4935281    0.5936475     0.4869455    0.6040355     0.0659384    0.0093413 
   0.298985100    -0.0144950   -0.0774676     0.5837893    0.5032702     0.5792488    0.5132774     0.0764981   -0.0105359 
   0.300985000    -0.0116655   -0.0815701     0.6574800    0.3987797     0.6548745    0.4085557     0.0793035   -0.0344611 
   0.302984900    -0.0098684   -0.0867769     0.7124987    0.2836280     0.7111278    0.2932760     0.0730958   -0.0593928 
   0.304984800    -0.0094076   -0.0928683     0.7474925    0.1611208     0.7473825    0.1709589     0.0578810   -0.0821183 
   0.306984700    -0.0105799   -0.0997197     0.7610947    0.0353140     0.7620512    0.0452263     0.0345286   -0.0995656 
   0.308984600    -0.0135461   -0.1067609     0.7533502   -0.0904499     0.7560328   -0.0799882     0.0049293   -0.1088850 
   0.310984500    -0.0182086   -0.1133912     0.7247280   -0.2119632     0.7293343   -0.2013951    -0.0277995   -0.1080986 
   0.312984400    -0.0247762   -0.1192148     0.6765575   -0.3265002     0.6835849   -0.3157589    -0.0600643   -0.0960246 
   0.314984300    -0.0329748   -0.1237759     0.6105133   -0.4300797     0.6200326   -0.4205376    -0.0878776   -0.0729621 
