! MS46122B
! 2250307/22442219
! 8/4/2025 7:53:01 AM
! C:\USERS\SPARKY\DOCUMENTS\VNA_DATA\AUGUST4_2025\3K\PORT1.S2P
! CHANNEL.1
! TR.MEASUREMENT
! RAW.DATA
# GHZ S RI R 50.0
! FREQ.GHZ         S11RE         S11IM         S21RE         S21IM         S12RE         S12IM         S22RE         S22IM         
!; PortSelection: Port_12
   0.001000000     1.0441900   -0.0679083    -0.0004323   -0.0010273    -0.0004193   -0.0010425     0.8165654   -0.5533996 
   0.002999900     0.9607722   -0.1949567    -0.0237283   -0.0153902    -0.0248417   -0.0160434     0.0595827   -0.8773295 
   0.004999800     0.8708861   -0.3126229    -0.1431025    0.0274682    -0.1507249    0.0323464    -0.6973880   -0.3563592 
   0.006999700     0.7726957   -0.4059659    -0.1865510    0.1383352    -0.1908608    0.1525383    -0.7362726    0.2713307 
   0.008999600     0.5945514   -0.4000181    -0.0558657    0.5176604    -0.0370699    0.5271100     0.3107667    0.6065012 
   0.010999500     0.5681975   -0.3263234     0.3812411    0.4881484     0.3900763    0.4918018     0.4702772   -0.2732460 
   0.012999400     0.5828827   -0.3386966     0.5626423    0.2446625     0.5788426    0.2513067    -0.0137746   -0.5537148 
   0.014999300     0.5721835   -0.3815946     0.6026105    0.0381218     0.6242730    0.0360447    -0.3773659   -0.4488876 
   0.016999200     0.5418174   -0.4246682     0.5907527   -0.1269733     0.6104953   -0.1393861    -0.5611923   -0.2271739 
   0.018999100     0.5006346   -0.4614943     0.5514998   -0.2685749     0.5637522   -0.2877901    -0.6102625    0.0109867 
   0.020999000     0.4513432   -0.4894717     0.4903384   -0.3927433     0.4930717   -0.4137675    -0.5584292    0.2211323 
   0.022998900     0.3978048   -0.5073157     0.4093714   -0.5019466     0.4036481   -0.5198574    -0.4385152    0.3798548 
   0.024998800     0.3387780   -0.4895650     0.3509733   -0.6034336     0.2901383   -0.6117819    -0.3069803    0.5111343 
   0.026998700     0.2874142   -0.5063623     0.1879290   -0.6705924     0.1744354   -0.6734453    -0.1059387    0.5098427 
   0.028998600     0.2367641   -0.4879565     0.0490076   -0.7207428     0.0382224   -0.7159919     0.0602414    0.4819283 
   0.030998500     0.1935473   -0.4590174    -0.1035544   -0.7409244    -0.1082511   -0.7314057     0.1998305    0.4019913 
   0.032998400     0.1620115   -0.4057249    -0.2359751   -0.7674266    -0.2695106   -0.7138574     0.3193592    0.3140098 
   0.034998300     0.1415915   -0.3828863    -0.4177346   -0.6721925    -0.4098951   -0.6658396     0.3444879    0.1441043 
   0.036998200     0.1342544   -0.3448672    -0.5593291   -0.5828034    -0.5489699   -0.5816346     0.3366368    0.0043269 
   0.038998100     0.1376978   -0.3125769    -0.6766753   -0.4616843    -0.6676230   -0.4660238     0.2800790   -0.1157084 
   0.040998000     0.1482336   -0.2890188    -0.7625553   -0.3169316    -0.7579495   -0.3246768     0.1872216   -0.2008011 
   0.042997900     0.1618749   -0.2754925    -0.8138256   -0.1590514    -0.8138326   -0.1668153     0.0757325   -0.2418794 
   0.044997800     0.1720121   -0.2591058    -0.8615409   -0.0388374    -0.8347599    0.0084760    -0.0324824   -0.2543582 
   0.046997700     0.1828730   -0.2757546    -0.8106941    0.1614777    -0.8165171    0.1605485    -0.1354359   -0.1956835 
   0.048997600     0.1860550   -0.2845926    -0.7636973    0.3088539    -0.7682167    0.3115700    -0.2070299   -0.1241227 
   0.050997500     0.1828284   -0.2957536    -0.6922046    0.4412899    -0.6934505    0.4466834    -0.2464868   -0.0362301 
   0.052997400     0.1734669   -0.3067473    -0.5997861    0.5562788    -0.5979611    0.5611492    -0.2523182    0.0559197 
   0.054997300     0.1592964   -0.3152857    -0.4885817    0.6536211    -0.4883789    0.6534061    -0.2270500    0.1406577 
   0.056997200     0.1408884   -0.3209000    -0.3692037    0.7274052    -0.3631799    0.7268353    -0.1766521    0.2093740 
   0.058997100     0.1210307   -0.3217019    -0.2382132    0.7807884    -0.2318647    0.7767702    -0.1077922    0.2561266 
   0.060997000     0.1009953   -0.3177595    -0.1000030    0.8116888    -0.0961651    0.8046268    -0.0290026    0.2771506 
   0.062996900     0.0821752   -0.3093588     0.0418453    0.8190924     0.0417501    0.8106785     0.0514626    0.2713598 
   0.064996800     0.0666748   -0.2973014     0.1835431    0.8027679     0.1788184    0.7943975     0.1248131    0.2405197 
   0.066996700     0.0552510   -0.2828149     0.3212156    0.7620201     0.3127299    0.7557464     0.1840050    0.1885384 
   0.068996600     0.0484417   -0.2673617     0.4504896    0.6971923     0.4395864    0.6947992     0.2236230    0.1206259 
   0.070996500     0.0463194   -0.2528139     0.5676790    0.6104125     0.5558195    0.6123359     0.2396608    0.0445578 
   0.072996400     0.0482185   -0.2401526     0.6678721    0.5033770     0.6566164    0.5095156     0.2310778   -0.0318814 
   0.074996300     0.0530706   -0.2309185     0.7468923    0.3795669     0.7384378    0.3887810     0.1992486   -0.1014053 
   0.076996200     0.0593633   -0.2257197     0.8020759    0.2436555     0.7973319    0.2543637     0.1477840   -0.1562125 
   0.078996100     0.0655520   -0.2247311     0.8316996    0.1000422     0.8307533    0.1108758     0.0823233   -0.1917437 
   0.080996000     0.0700122   -0.2276337     0.8358102   -0.0456988     0.8367894   -0.0358014     0.0103040   -0.2044560 
   0.082995900     0.0714680   -0.2333897     0.8135602   -0.1887520     0.8162884   -0.1808056    -0.0610428   -0.1938602 
   0.084995800     0.0694040   -0.2403982     0.7667602   -0.3237499     0.7698756   -0.3178478    -0.1238603   -0.1619274 
   0.086995700     0.0633768   -0.2478715     0.6986048   -0.4482051     0.7013170   -0.4432249    -0.1726096   -0.1129416 
   0.088995600     0.0536265   -0.2541191     0.6116276   -0.5585606     0.6134101   -0.5526569    -0.2029210   -0.0525368 
   0.090995500     0.0407717   -0.2580502     0.5081738   -0.6518044     0.5096601   -0.6448511    -0.2130312    0.0124806 
   0.092995400     0.0253952   -0.2592777     0.3919790   -0.7265383     0.3943308   -0.7181894    -0.2028013    0.0759458 
   0.094995300     0.0091880   -0.2560691     0.2654791   -0.7804871     0.2692525   -0.7713839    -0.1747292    0.1318193 
   0.096995200    -0.0066433   -0.2489956     0.1325300   -0.8137124     0.1386728   -0.8038586    -0.1321090    0.1752830 
   0.098995100    -0.0210335   -0.2381622    -0.0038696   -0.8246158     0.0050820   -0.8156393    -0.0795930    0.2031907 
   0.100995000    -0.0348327   -0.2241623    -0.1421846   -0.8132772    -0.1298631   -0.8065969    -0.0203414    0.2140774 
   0.102994900    -0.0432506   -0.2078034    -0.2754594   -0.7794440    -0.2608849   -0.7760357     0.0352788    0.2063424 
   0.104994800    -0.0477749   -0.1903243    -0.4017719   -0.7238374    -0.3860702   -0.7245747     0.0843708    0.1824461 
   0.106994700    -0.0481731   -0.1728230    -0.5174592   -0.6476654    -0.5027648   -0.6529360     0.1226193    0.1457405 
   0.108994600    -0.0449365   -0.1564628    -0.6196362   -0.5529914    -0.6070276   -0.5621369     0.1465485    0.1005212 
   0.110994500    -0.0384375   -0.1423331    -0.7047781   -0.4420683    -0.6952219   -0.4541802     0.1546286    0.0516762 
   0.112994400    -0.0295576   -0.1311183    -0.7701725   -0.3178971    -0.7640964   -0.3315661     0.1467713    0.0043468 
   0.114994300    -0.0193481   -0.1233367    -0.8136890   -0.1839322    -0.8110015   -0.1979121     0.1246922   -0.0362627 
   0.116994200    -0.0088804   -0.1188919    -0.8334380   -0.0442978    -0.8339661   -0.0574729     0.0913807   -0.0660178 
   0.118994100     0.0009129   -0.1175161    -0.8291253    0.0965079    -0.8319379    0.0849565     0.0511747   -0.0822994 
   0.120994000     0.0093977   -0.1186086    -0.8011335    0.2344199    -0.8052332    0.2243996     0.0090763   -0.0834485 
   0.122993900     0.0157891   -0.1214127    -0.7497346    0.3654709    -0.7547215    0.3567538    -0.0299953   -0.0699272 
   0.124993800     0.0200481   -0.1251288    -0.6773412    0.4855562    -0.6826537    0.4778945    -0.0611202   -0.0438128 
   0.126993700     0.0222886   -0.1290507    -0.5859306    0.5913724    -0.5918468    0.5838389    -0.0805056   -0.0090852 
   0.128993600     0.0228649   -0.1324382    -0.4782568    0.6796091    -0.4850561    0.6725308    -0.0862281    0.0300895 
   0.130993500     0.0222714   -0.1350584    -0.3578855    0.7489433    -0.3659975    0.7420455    -0.0777220    0.0687953 
   0.132993400     0.0210781   -0.1366536    -0.2280208    0.7971516    -0.2380472    0.7909215    -0.0560947    0.1023435 
   0.134993300     0.0197636   -0.1372924    -0.0922585    0.8231760    -0.1043527    0.8185792    -0.0238295    0.1268208 
   0.136993200     0.0187995   -0.1372151     0.0456929    0.8262593     0.0319322    0.8238844     0.0156605    0.1391553 
   0.138993100     0.0184907   -0.1369343     0.1822919    0.8066410     0.1673713    0.8073196     0.0577790    0.1377466 
   0.140993000     0.0189248   -0.1367967     0.3134625    0.7643853     0.2984118    0.7686592     0.0980961    0.1224981 
   0.142992900     0.0198625   -0.1373256     0.4356806    0.7009752     0.4219052    0.7089878     0.1321152    0.0944814 
   0.144992800     0.0211470   -0.1388252     0.5458244    0.6185409     0.5341424    0.6297196     0.1561044    0.0562308 
   0.146992700     0.0221217   -0.1415956     0.6399890    0.5184070     0.6313961    0.5317737     0.1675224    0.0116709 
   0.148992600     0.0223547   -0.1455704     0.7163158    0.4043119     0.7111723    0.4189305     0.1648110   -0.0350537 
   0.150992500     0.0212833   -0.1502673     0.7718222    0.2795322     0.7698869    0.2939838     0.1479687   -0.0796914 
   0.152992400     0.0184279   -0.1557180     0.8059065    0.1473636     0.8068308    0.1609020     0.1180415   -0.1177123 
   0.154992300     0.0135308   -0.1611936     0.8173318    0.0119401     0.8202676    0.0244853     0.0775828   -0.1455979 
   0.156992200     0.0066035   -0.1661056     0.8062446   -0.1228011     0.8106128   -0.1119474     0.0303988   -0.1604814 
   0.158992100    -0.0022977   -0.1698018     0.7731853   -0.2529923     0.7783471   -0.2436563    -0.0195081   -0.1608235 
   0.160992000    -0.0127687   -0.1714352     0.7194037   -0.3757189     0.7252735   -0.3670669    -0.0673026   -0.1466077 
   0.162991900    -0.0242354   -0.1706813     0.6467898   -0.4872210     0.6533040   -0.4791301    -0.1088329   -0.1193204 
   0.164991800    -0.0362080   -0.1671175     0.5574791   -0.5853716     0.5646666   -0.5776588    -0.1406088   -0.0812751 
   0.166991700    -0.0477944   -0.1607710     0.4541435   -0.6671817     0.4625995   -0.6598207    -0.1598743   -0.0363768 
   0.168991600    -0.0581659   -0.1519299     0.3390754   -0.7313896     0.3494214   -0.7247815    -0.1655252    0.0115311 
   0.170991500    -0.0667505   -0.1407660     0.2155105   -0.7762309     0.2274747   -0.7711058    -0.1573024    0.0584458 
   0.172991400    -0.0727565   -0.1275887     0.0865230   -0.8008691     0.0999777   -0.7978057    -0.1366808    0.1001825 
   0.174991300    -0.0758539   -0.1134724    -0.0447064   -0.8045523    -0.0301598   -0.8042428    -0.1058429    0.1335019 
   0.176991200    -0.0760025   -0.0989474    -0.1754477   -0.7869776    -0.1604285   -0.7897823    -0.0676759    0.1560115 
   0.178991100    -0.0732470   -0.0850149    -0.3020442   -0.7487718    -0.2875493   -0.7549459    -0.0262105    0.1664218 
   0.180991000    -0.0678040   -0.0723670    -0.4209972   -0.6904663    -0.4080926   -0.6994708     0.0150792    0.1646390 
   0.182990900    -0.0600267   -0.0614896    -0.5291341   -0.6126999    -0.5184029   -0.6247168     0.0524312    0.1514345 
   0.184990800    -0.0506126   -0.0529347    -0.6234480   -0.5178949    -0.6160548   -0.5317123     0.0831870    0.1289562 
   0.186990700    -0.0402824   -0.0469270    -0.7010143   -0.4088943    -0.6968737   -0.4230385     0.1045478    0.1000396 
   0.188990600    -0.0290471   -0.0442320    -0.7497812   -0.3104338    -0.7502109   -0.3208842     0.1133500    0.0711045 
   0.190990500    -0.0196148   -0.0425861    -0.7957531   -0.1614650    -0.7978019   -0.1748100     0.1162130    0.0364885 
   0.192990400    -0.0106853   -0.0434544    -0.8118352   -0.0240561    -0.8162526   -0.0367794     0.1077052    0.0075370 
   0.194990300    -0.0031109   -0.0458657    -0.8045724    0.1105866    -0.8105378    0.0994841     0.0914118   -0.0148724 
   0.196990200     0.0028546   -0.0491763    -0.7750179    0.2420944    -0.7821379    0.2318872     0.0702094   -0.0292650 
   0.198990100     0.0071981   -0.0528319    -0.7239056    0.3665373    -0.7322757    0.3574884     0.0471417   -0.0348714 
   0.200990000     0.0101278   -0.0563589    -0.6530066    0.4807128    -0.6624326    0.4728499     0.0251983   -0.0318899 
   0.202989900     0.0119414   -0.0593149    -0.5641733    0.5814693    -0.5745098    0.5747921     0.0072911   -0.0217268 
   0.204989800     0.0130242   -0.0614038    -0.4603625    0.6659188    -0.4715177    0.6608601    -0.0043737   -0.0063550 
   0.206989700     0.0138809   -0.0625852    -0.3442974    0.7321693    -0.3566433    0.7284665    -0.0085981    0.0116114 
   0.208989600     0.0149523   -0.0629524    -0.2188476    0.7783403    -0.2325475    0.7764452    -0.0051591    0.0293532 
   0.210989500     0.0165579   -0.0627368    -0.0881425    0.8033644    -0.1019097    0.8039950     0.0052213    0.0441754 
   0.212989400     0.0189702   -0.0622665     0.0453077    0.8063930     0.0320847    0.8097023     0.0211693    0.0537863 
   0.214989300     0.0222991   -0.0619340     0.1775130    0.7875563     0.1652657    0.7933217     0.0403110    0.0566132 
   0.216989200     0.0265017   -0.0621750     0.3044943    0.7472616     0.2936004    0.7552486     0.0599484    0.0519282 
   0.218989100     0.0313911   -0.0633138     0.4231682    0.6865162     0.4139810    0.6966718     0.0775189    0.0398309 
   0.220989000     0.0366281   -0.0657058     0.5300784    0.6068579     0.5231844    0.6181980     0.0905566    0.0213779 
   0.222988900     0.0418960   -0.0695429     0.6225678    0.5108509     0.6182072    0.5221854     0.0969734   -0.0015692 
   0.224988800     0.0467127   -0.0748448     0.6976182    0.4007453     0.6954592    0.4117015     0.0953765   -0.0264262 
   0.226988700     0.0506607   -0.0814936     0.7534034    0.2796364     0.7529633    0.2904150     0.0854276   -0.0506419 
   0.228988600     0.0533675   -0.0892943     0.7877942    0.1515414     0.7888367    0.1618717     0.0675924   -0.0712964 
   0.230988500     0.0544790   -0.0979253     0.8009653    0.0192217     0.8026234    0.0298552     0.0431699   -0.0859900 
   0.232988400     0.0537631   -0.1068846     0.7914061   -0.1124316     0.7946886   -0.1022110     0.0144206   -0.0925693 
   0.234988300     0.0511610   -0.1159157     0.7605682   -0.2407974     0.7651642   -0.2307600    -0.0158046   -0.0899112 
   0.236988200     0.0467687   -0.1244589     0.7091074   -0.3617527     0.7152451   -0.3523078    -0.0444540   -0.0779161 
   0.238988100     0.0407065   -0.1320780     0.6388620   -0.4722472     0.6465185   -0.4632756    -0.0687738   -0.0574272 
   0.240988000     0.0332978   -0.1384930     0.5516112   -0.5691525     0.5613649   -0.5612782    -0.0861936   -0.0302250 
   0.242987900     0.0249377   -0.1434414     0.4502921   -0.6504096     0.4624929   -0.6437904    -0.0948471    0.0016095 
   0.244987800     0.0159022   -0.1465713     0.3371948   -0.7137352     0.3519073   -0.7092799    -0.0937586    0.0350578 
   0.246987700     0.0065465   -0.1479693     0.2159053   -0.7579293     0.2319419   -0.7564545    -0.0828307    0.0669837 
   0.248987600    -0.0027820   -0.1478739     0.0897632   -0.7817323     0.1051885   -0.7839732    -0.0629733    0.0946031 
   0.250987500    -0.0115484   -0.1459880    -0.0391087   -0.7846618    -0.0243187   -0.7905323    -0.0356923    0.1154862 
   0.252987400    -0.0194439   -0.1428206    -0.1660995   -0.7669229    -0.1530842   -0.7760803    -0.0035114    0.1277087 
   0.254987300    -0.0262433   -0.1386522    -0.2884008   -0.7290570    -0.2775324   -0.7408223     0.0306970    0.1301832 
   0.256987200    -0.0319351   -0.1337365    -0.4028401   -0.6718354    -0.3949184   -0.6854638     0.0640993    0.1228895 
   0.258987100    -0.0365362   -0.1283758    -0.5065796   -0.5970753    -0.5016758   -0.6116592     0.0940505    0.1064337 
   0.260987000    -0.0399940   -0.1227073    -0.5968566   -0.5061584    -0.5949921   -0.5206919     0.1176842    0.0824973 
   0.262986900    -0.0424111   -0.1170712    -0.6710274   -0.4018160    -0.6722015   -0.4155168     0.1332644    0.0532528 
   0.264986800    -0.0439486   -0.1116804    -0.7275872   -0.2867304    -0.7306204   -0.2986519     0.1398234    0.0212234 
   0.266986700    -0.0446992   -0.1066527    -0.7643231   -0.1637710    -0.7691380   -0.1740236     0.1369331   -0.0105190 
   0.268986600    -0.0448267   -0.1020857    -0.7805079   -0.0367405    -0.7862580   -0.0452714     0.1252142   -0.0391915 
   0.270986500    -0.0445297   -0.0980544    -0.7755985    0.0912110    -0.7820467    0.0837313     0.1061777   -0.0624358 
   0.272986400    -0.0439181   -0.0943917    -0.7500261    0.2170751    -0.7568274    0.2097557     0.0819551   -0.0782639 
   0.274986300    -0.0430477   -0.0910593    -0.7039643    0.3369158    -0.7116677    0.3299468     0.0551483   -0.0856289 
   0.276986200    -0.0420118   -0.0879839    -0.6390290    0.4473327    -0.6480035    0.4413115     0.0287316   -0.0842053 
   0.278986100    -0.0408022   -0.0850043    -0.5565048    0.5458558    -0.5667983    0.5407850     0.0054150   -0.0748211 
   0.280986000    -0.0394146   -0.0822834    -0.4593578    0.6294776    -0.4701865    0.6261365    -0.0124539   -0.0591006 
   0.282985900    -0.0377435   -0.0796853    -0.3494886    0.6960206    -0.3607949    0.6946768    -0.0231826   -0.0392219 
   0.284985800    -0.0357515   -0.0773481    -0.2304385    0.7434397    -0.2412445    0.7442176    -0.0259635   -0.0179671 
   0.286985700    -0.0333369   -0.0753669    -0.1050057    0.7705737    -0.1154522    0.7736260    -0.0208763    0.0019000 
   0.288985600    -0.0304459   -0.0739292     0.0233737    0.7769211     0.0128123    0.7819884    -0.0088915    0.0178602 
   0.290985500    -0.0271271   -0.0731400     0.1507327    0.7618057     0.1409293    0.7687600     0.0081580    0.0277559 
   0.292985400    -0.0234827   -0.0731584     0.2739004    0.7258207     0.2653653    0.7344078     0.0278306    0.0301503 
   0.294985300    -0.0196973   -0.0741574     0.3892125    0.6698353     0.3821813    0.6797877     0.0473435    0.0244807 
   0.296985200    -0.0160098   -0.0762182     0.4936554    0.5957639     0.4888336    0.6061365     0.0639177    0.0112048 
   0.298985100    -0.0127625   -0.0793946     0.5842597    0.5051000     0.5814941    0.5149944     0.0748950   -0.0084114 
   0.300985000    -0.0102213   -0.0837016     0.6582793    0.4006701     0.6573508    0.4097727     0.0781814   -0.0321845 
   0.302984900    -0.0087258   -0.0890472     0.7136756    0.2852137     0.7137941    0.2941687     0.0724258   -0.0570606 
   0.304984800    -0.0085719   -0.0952493     0.7488794    0.1624963     0.7500869    0.1714248     0.0575914   -0.0798170 
   0.306984700    -0.0101182   -0.1022491     0.7627007    0.0364961     0.7648308    0.0451913     0.0346451   -0.0973510 
   0.308984600    -0.0133607   -0.1092069     0.7551980   -0.0894854     0.7587767   -0.0804109     0.0053939   -0.1068299 
   0.310984500    -0.0183490   -0.1157668     0.7266226   -0.2113324     0.7319791   -0.2022621    -0.0270751   -0.1062308 
   0.312984400    -0.0251804   -0.1215347     0.6785728   -0.3261002     0.6860308   -0.3170460    -0.0591018   -0.0944014 
   0.314984300    -0.0336766   -0.1259687     0.6126862   -0.4302305     0.6222917   -0.4221937    -0.0868070   -0.0715790 
