! MS46122B
! 2250307/22442219
! 8/1/2025 10:34:54 AM
! C:\USERS\SPARKY\DOCUMENTS\VNA_DATA\AUGUST1_2025\3K\PORT6.S2P
! CHANNEL.1
! TR.MEASUREMENT
! RAW.DATA
# GHZ S RI R 50.0
! FREQ.GHZ         S11RE         S11IM         S21RE         S21IM         S12RE         S12IM         S22RE         S22IM         
!; PortSelection: Port_12
   0.001000000     1.0438490   -0.0691308     0.0000011    0.0000028     0.0000006    0.0000020     0.8171782   -0.5527887 
   0.002999900     0.9512613   -0.1913467    -0.0000024    0.0000011    -0.0000040   -0.0000114     0.0378674   -0.8794645 
   0.004999800     0.8759208   -0.2744545     0.0000001    0.0000013    -0.0000010    0.0000104    -0.7509648   -0.4383030 
   0.006999700     0.7904325   -0.3633795     0.0000024    0.0000009    -0.0000117   -0.0000034    -0.8138469    0.4828654 
   0.008999600     0.7003840   -0.3999079    -0.0000014   -0.0000007    -0.0000040   -0.0000015    -0.1122094    0.9892564 
   0.010999500     0.6258478   -0.4248300     0.0000006   -0.0000017    -0.0000013   -0.0000017     0.5821455    0.7993690 
   0.012999400     0.5618939   -0.4400901    -0.0000028   -0.0000006    -0.0000033   -0.0000020     0.9054959    0.3312243 
   0.014999300     0.5072075   -0.4487836     0.0000024   -0.0000002    -0.0000026   -0.0000034     0.9372426   -0.1237138 
   0.016999200     0.4593317   -0.4522283     0.0000023   -0.0000007    -0.0000005    0.0000005     0.8050334   -0.4785812 
   0.018999100     0.4185554   -0.4517693     0.0000014    0.0000008     0.0000023   -0.0000006     0.5912527   -0.7246333 
   0.020999000     0.3837641   -0.4488896    -0.0000024    0.0000033     0.0000007    0.0000000     0.3445454   -0.8725761 
   0.022998900     0.3530976   -0.4444320     0.0000015    0.0000030    -0.0000005   -0.0000009     0.0926119   -0.9369428 
   0.024998800     0.3211441   -0.4171038     0.0000018    0.0000029    -0.0000005    0.0000005    -0.1375691   -1.0048950 
   0.026998700     0.3012811   -0.4315845    -0.0000009    0.0000006     0.0000010   -0.0000007    -0.3620923   -0.8728058 
   0.028998600     0.2788575   -0.4235558    -0.0000018    0.0000004     0.0000028   -0.0000016    -0.5451555   -0.7696715 
   0.030998500     0.2579998   -0.4148347    -0.0000016   -0.0000007     0.0000040    0.0000001    -0.6930609   -0.6355446 
   0.032998400     0.2356635   -0.3877364     0.0000016   -0.0000026     0.0000036   -0.0000021    -0.8524186   -0.5296410 
   0.034998300     0.2196653   -0.3954746     0.0000028   -0.0000037    -0.0000004   -0.0000013    -0.8769316   -0.3133734 
   0.036998200     0.2026107   -0.3849915     0.0000008   -0.0000008     0.0000038   -0.0000033    -0.9161038   -0.1416738 
   0.038998100     0.1868142   -0.3743423     0.0000012   -0.0000005     0.0000009   -0.0000008    -0.9230419    0.0281760 
   0.040998000     0.1723147   -0.3634952     0.0000014   -0.0000015     0.0000028   -0.0000007    -0.9005883    0.1918068 
   0.042997900     0.1587604   -0.3524789     0.0000024   -0.0000024    -0.0000019   -0.0000020    -0.8514768    0.3455141 
   0.044997800     0.1459612   -0.3277678     0.0000040   -0.0000028    -0.0000035   -0.0000025    -0.8470003    0.5123323 
   0.046997700     0.1344962   -0.3309951    -0.0000028   -0.0000021     0.0000012   -0.0000008    -0.6862857    0.6118554 
   0.048997600     0.1245320   -0.3204127    -0.0000013   -0.0000052    -0.0000035   -0.0000029    -0.5751988    0.7186185 
   0.050997500     0.1158179   -0.3101054    -0.0000021   -0.0000004    -0.0000010   -0.0000031    -0.4483278    0.8054378 
   0.052997400     0.1083488   -0.3001996    -0.0000052   -0.0000060     0.0000004   -0.0000030    -0.3101300    0.8695861 
   0.054997300     0.1019710   -0.2907716    -0.0000053    0.0000081    -0.0000145    0.0000028    -0.1611155    0.9105080 
   0.056997200     0.0963256   -0.2824757    -0.0000023   -0.0000031    -0.0000038   -0.0000017    -0.0107527    0.9255700 
   0.058997100     0.0917812   -0.2747985    -0.0000028   -0.0000013    -0.0000019   -0.0000032     0.1420376    0.9151705 
   0.060997000     0.0879630   -0.2679552    -0.0000025    0.0000023    -0.0000044   -0.0000007     0.2921929    0.8788906 
   0.062996900     0.0848534   -0.2619694    -0.0000052   -0.0000022    -0.0000027   -0.0000007     0.4345334    0.8180696 
   0.064996800     0.0823358   -0.2568145    -0.0000020   -0.0000008    -0.0000036    0.0000023     0.5656006    0.7332701 
   0.066996700     0.0801203   -0.2525082     0.0000003    0.0000027    -0.0000052   -0.0000002     0.6814483    0.6268356 
   0.068996600     0.0780932   -0.2489430    -0.0000023    0.0000023    -0.0000023    0.0000037     0.7788751    0.5002238 
   0.070996500     0.0761622   -0.2463470    -0.0000034    0.0000024    -0.0000012    0.0000029     0.8535616    0.3580625 
   0.072996400     0.0740694   -0.2441282    -0.0000031    0.0000037     0.0000011    0.0000027     0.9031891    0.2033731 
   0.074996300     0.0717703   -0.2424299    -0.0000004    0.0000030    -0.0000014    0.0000023     0.9251878    0.0406991 
   0.076996200     0.0691336   -0.2411129    -0.0000008    0.0000043    -0.0000014    0.0000019     0.9176040   -0.1257752 
   0.078996100     0.0661139   -0.2401303     0.0000004    0.0000026     0.0000002    0.0000040     0.8804998   -0.2892761 
   0.080996000     0.0625495   -0.2393412     0.0000025    0.0000040     0.0000023    0.0000044     0.8133582   -0.4445074 
   0.082995900     0.0584023   -0.2386164     0.0000000    0.0000064     0.0000025    0.0000049     0.7183456   -0.5857968 
   0.084995800     0.0539549   -0.2375380     0.0000017    0.0000030     0.0000008    0.0000056     0.5975975   -0.7083595 
   0.086995700     0.0490364   -0.2365135     0.0000024    0.0000011     0.0000022    0.0000019     0.4561341   -0.8067245 
   0.088995600     0.0436565   -0.2352124     0.0000022    0.0000045     0.0000046    0.0000024     0.2982194   -0.8768618 
   0.090995500     0.0376115   -0.2334277     0.0000045    0.0000026     0.0000024    0.0000040     0.1297492   -0.9161286 
   0.092995400     0.0316431   -0.2315410     0.0000047    0.0000011     0.0000056    0.0000017    -0.0431921   -0.9235302 
   0.094995300     0.0253436   -0.2288832     0.0000093   -0.0000002     0.0000058    0.0000016    -0.2138289   -0.8988740 
   0.096995200     0.0190258   -0.2256906     0.0000016    0.0000038     0.0000063    0.0000013    -0.3763741   -0.8429349 
   0.098995100     0.0127367   -0.2218935     0.0000060    0.0000001     0.0000044   -0.0000002    -0.5253320   -0.7586111 
   0.100995000     0.0050054   -0.2185605     0.0000048   -0.0000021     0.0000041   -0.0000014    -0.6567143   -0.6487433 
   0.102994900    -0.0009560   -0.2135866     0.0000063   -0.0000037     0.0000046   -0.0000014    -0.7638686   -0.5181795 
   0.104994800    -0.0067557   -0.2080070     0.0000038   -0.0000027     0.0000043   -0.0000029    -0.8446677   -0.3715730 
   0.106994700    -0.0118634   -0.2017433     0.0000045   -0.0000034     0.0000026   -0.0000044    -0.8973993   -0.2137396 
   0.108994600    -0.0164195   -0.1951268     0.0000031   -0.0000046     0.0000044   -0.0000038    -0.9209360   -0.0507494 
   0.110994500    -0.0202879   -0.1881085     0.0000033   -0.0000039     0.0000030   -0.0000049    -0.9153345    0.1122932 
   0.112994400    -0.0234116   -0.1808214     0.0000028   -0.0000053     0.0000012   -0.0000058    -0.8816328    0.2702431 
   0.114994300    -0.0257254   -0.1733020     0.0000003   -0.0000067     0.0000021   -0.0000059    -0.8216956    0.4187735 
   0.116994200    -0.0271819   -0.1657088    -0.0000007   -0.0000066     0.0000011   -0.0000064    -0.7374913    0.5534720 
   0.118994100    -0.0278498   -0.1580858    -0.0000007   -0.0000058    -0.0000020   -0.0000055    -0.6323661    0.6705143 
   0.120994000    -0.0274123   -0.1507109    -0.0000026   -0.0000050    -0.0000024   -0.0000053    -0.5098321    0.7670188 
   0.122993900    -0.0262963   -0.1435312    -0.0000030   -0.0000058    -0.0000027   -0.0000056    -0.3736789    0.8414103 
   0.124993800    -0.0243615   -0.1369543    -0.0000025   -0.0000069    -0.0000024   -0.0000052    -0.2279274    0.8916439 
   0.126993700    -0.0217250   -0.1309255    -0.0000054   -0.0000045    -0.0000055   -0.0000040    -0.0764986    0.9164895 
   0.128993600    -0.0184712   -0.1254766    -0.0000051   -0.0000046    -0.0000035   -0.0000044     0.0761769    0.9161478 
   0.130993500    -0.0146838   -0.1209034    -0.0000057   -0.0000042    -0.0000052   -0.0000027     0.2265112    0.8901746 
   0.132993400    -0.0105245   -0.1171815    -0.0000065   -0.0000033    -0.0000043   -0.0000030     0.3702292    0.8398499 
   0.134993300    -0.0061217   -0.1143871    -0.0000063   -0.0000017    -0.0000066   -0.0000012     0.5033297    0.7665629 
   0.136993200    -0.0016312   -0.1124919    -0.0000081   -0.0000001    -0.0000064   -0.0000012     0.6224629    0.6721336 
   0.138993100     0.0028005   -0.1115527    -0.0000083    0.0000009    -0.0000065    0.0000003     0.7243524    0.5588631 
   0.140993000     0.0070142   -0.1115011    -0.0000077    0.0000024    -0.0000072    0.0000019     0.8063800    0.4299513 
   0.142992900     0.0108490   -0.1123167    -0.0000071    0.0000036    -0.0000055    0.0000031     0.8656702    0.2889222 
   0.144992800     0.0142512   -0.1139655    -0.0000062    0.0000037    -0.0000052    0.0000040     0.9000601    0.1393020 
   0.146992700     0.0169677   -0.1162460    -0.0000064    0.0000060    -0.0000032    0.0000040     0.9090995   -0.0144655 
   0.148992600     0.0189323   -0.1190790    -0.0000028    0.0000069    -0.0000042    0.0000060     0.8918970   -0.1682439 
   0.150992500     0.0201021   -0.1222354    -0.0000041    0.0000072    -0.0000024    0.0000076     0.8491722   -0.3175315 
   0.152992400     0.0203599   -0.1257841    -0.0000030    0.0000070    -0.0000009    0.0000064     0.7807003   -0.4576145 
   0.154992300     0.0197318   -0.1294668    -0.0000005    0.0000081     0.0000001    0.0000083     0.6886976   -0.5841717 
   0.156992200     0.0181612   -0.1331005     0.0000003    0.0000094     0.0000017    0.0000065     0.5758278   -0.6934239 
   0.158992100     0.0156511   -0.1365575     0.0000012    0.0000080     0.0000026    0.0000071     0.4452553   -0.7815156 
   0.160992000     0.0123252   -0.1396664     0.0000039    0.0000058     0.0000050    0.0000053     0.3009126   -0.8457659 
   0.162991900     0.0082053   -0.1422675     0.0000057    0.0000065     0.0000050    0.0000068     0.1472428   -0.8837474 
   0.164991800     0.0033774   -0.1442197     0.0000047    0.0000069     0.0000073    0.0000057    -0.0110063   -0.8942668 
   0.166991700    -0.0019937   -0.1454290     0.0000057    0.0000049     0.0000066    0.0000060    -0.1682413   -0.8769144 
   0.168991600    -0.0078493   -0.1457845     0.0000073    0.0000045     0.0000079    0.0000050    -0.3203078   -0.8321662 
   0.170991500    -0.0140680   -0.1451955     0.0000089    0.0000028     0.0000082    0.0000026    -0.4620282   -0.7612623 
   0.172991400    -0.0203867   -0.1436365     0.0000078    0.0000005     0.0000093    0.0000018    -0.5886247   -0.6667559 
   0.174991300    -0.0266981   -0.1410405     0.0000078    0.0000005     0.0000089    0.0000009    -0.6965892   -0.5520383 
   0.176991200    -0.0328811   -0.1374785     0.0000080   -0.0000014     0.0000097   -0.0000009    -0.7824156   -0.4208822 
   0.178991100    -0.0386623   -0.1328850     0.0000074   -0.0000034     0.0000088   -0.0000026    -0.8439185   -0.2768456 
   0.180991000    -0.0439435   -0.1274287     0.0000076   -0.0000035     0.0000083   -0.0000030    -0.8793259   -0.1251260 
   0.182990900    -0.0485486   -0.1209877     0.0000057   -0.0000049     0.0000096   -0.0000031    -0.8879409    0.0295148 
   0.184990800    -0.0523062   -0.1138189     0.0000068   -0.0000050     0.0000097   -0.0000064    -0.8699855    0.1825090 
   0.186990700    -0.0551377   -0.1060040     0.0000047   -0.0000078     0.0000092   -0.0000078    -0.8263869    0.3296646 
   0.188990600    -0.0546674   -0.0990540     0.0000028   -0.0000070     0.0000062   -0.0000093    -0.7727947    0.4459203 
   0.190990500    -0.0571699   -0.0891846     0.0000018   -0.0000083     0.0000048   -0.0000096    -0.6721241    0.5872770 
   0.192990400    -0.0567957   -0.0801809     0.0000001   -0.0000091     0.0000043   -0.0000116    -0.5614597    0.6951144 
   0.194990300    -0.0548897   -0.0714154    -0.0000010   -0.0000107     0.0000002   -0.0000117    -0.4375110    0.7808993 
   0.196990200    -0.0517345   -0.0629486    -0.0000017   -0.0000093     0.0000010   -0.0000103    -0.3015667    0.8446793 
   0.198990100    -0.0473666   -0.0548599    -0.0000035   -0.0000095    -0.0000005   -0.0000102    -0.1574723    0.8847905 
   0.200990000    -0.0418309   -0.0474355    -0.0000046   -0.0000082    -0.0000021   -0.0000098    -0.0091187    0.9004900 
   0.202989900    -0.0351987   -0.0408026    -0.0000054   -0.0000089    -0.0000042   -0.0000090     0.1397579    0.8912511 
   0.204989800    -0.0276093   -0.0351731    -0.0000083   -0.0000063    -0.0000066   -0.0000095     0.2852513    0.8578535 
   0.206989700    -0.0192622   -0.0306823    -0.0000092   -0.0000054    -0.0000068   -0.0000075     0.4231291    0.8011444 
   0.208989600    -0.0101942   -0.0274521    -0.0000111   -0.0000047    -0.0000074   -0.0000064     0.5500027    0.7223378 
   0.210989500    -0.0007377   -0.0256288    -0.0000122   -0.0000027    -0.0000071   -0.0000047     0.6622335    0.6231958 
   0.212989400     0.0090569   -0.0252434    -0.0000113   -0.0000004    -0.0000109   -0.0000023     0.7569165    0.5065587 
   0.214989300     0.0188410   -0.0263398    -0.0000107    0.0000038    -0.0000085   -0.0000004     0.8312867    0.3754593 
   0.216989200     0.0283859   -0.0289524    -0.0000109    0.0000037    -0.0000077   -0.0000010     0.8828095    0.2332062 
   0.218989100     0.0375260   -0.0330225    -0.0000109    0.0000037    -0.0000089    0.0000018     0.9099496    0.0838463 
   0.220989000     0.0459542   -0.0384653    -0.0000103    0.0000070    -0.0000078    0.0000024     0.9116387   -0.0689350 
   0.222988900     0.0535475   -0.0452717    -0.0000079    0.0000091    -0.0000062    0.0000024     0.8873246   -0.2205901 
   0.224988800     0.0600385   -0.0531572    -0.0000065    0.0000101    -0.0000044    0.0000039     0.8374287   -0.3668005 
   0.226988700     0.0652762   -0.0619994    -0.0000060    0.0000101    -0.0000039    0.0000068     0.7627497   -0.5027844 
   0.228988600     0.0691465   -0.0716194    -0.0000034    0.0000122    -0.0000025    0.0000079     0.6651192   -0.6247465 
   0.230988500     0.0715411   -0.0817848    -0.0000003    0.0000122    -0.0000012    0.0000067     0.5471665   -0.7283518 
   0.232988400     0.0723057   -0.0921856     0.0000018    0.0000115     0.0000009    0.0000070     0.4123605   -0.8104083 
   0.234988300     0.0715781   -0.1027542     0.0000028    0.0000119     0.0000021    0.0000078     0.2645437   -0.8676348 
   0.236988200     0.0692363   -0.1131999     0.0000045    0.0000110     0.0000035    0.0000083     0.1085095   -0.8980845 
   0.238988100     0.0653917   -0.1233328     0.0000065    0.0000099     0.0000059    0.0000059    -0.0511039   -0.9003510 
   0.240988000     0.0601724   -0.1328278     0.0000088    0.0000092     0.0000074    0.0000075    -0.2086006   -0.8741565 
   0.242987900     0.0535988   -0.1415080     0.0000092    0.0000078     0.0000092    0.0000043    -0.3591518   -0.8200732 
   0.244987800     0.0458419   -0.1491628     0.0000109    0.0000051     0.0000096    0.0000040    -0.4975475   -0.7403793 
   0.246987700     0.0369997   -0.1555787     0.0000119    0.0000036     0.0000125    0.0000031    -0.6195703   -0.6371380 
   0.248987600     0.0272713   -0.1606633     0.0000133    0.0000035     0.0000137   -0.0000013    -0.7206705   -0.5140949 
   0.250987500     0.0166924   -0.1643480     0.0000123    0.0000000     0.0000153   -0.0000020    -0.7980942   -0.3752825 
   0.252987400     0.0057112   -0.1665400     0.0000129   -0.0000031     0.0000154   -0.0000052    -0.8495862   -0.2257122 
   0.254987300    -0.0051583   -0.1672198     0.0000113   -0.0000045     0.0000143   -0.0000074    -0.8735396   -0.0700306 
   0.256987200    -0.0159391   -0.1663608     0.0000117   -0.0000065     0.0000167   -0.0000094    -0.8694094    0.0862658 
   0.258987100    -0.0264944   -0.1642759     0.0000106   -0.0000083     0.0000148   -0.0000131    -0.8381015    0.2389034 
   0.260987000    -0.0365463   -0.1604699     0.0000086   -0.0000099     0.0000123   -0.0000160    -0.7811254    0.3827251 
   0.262986900    -0.0459968   -0.1552952     0.0000073   -0.0000114     0.0000108   -0.0000191    -0.7005970    0.5133490 
   0.264986800    -0.0548051   -0.1489067     0.0000046   -0.0000129     0.0000077   -0.0000207    -0.5994080    0.6272774 
   0.266986700    -0.0623402   -0.1413485     0.0000034   -0.0000133     0.0000034   -0.0000234    -0.4809920    0.7216647 
   0.268986600    -0.0686202   -0.1328033     0.0000005   -0.0000125    -0.0000008   -0.0000228    -0.3488681    0.7939914 
   0.270986500    -0.0734326   -0.1238012    -0.0000023   -0.0000140    -0.0000072   -0.0000238    -0.2074073    0.8428020 
   0.272986400    -0.0767944   -0.1143899    -0.0000038   -0.0000144    -0.0000075   -0.0000190    -0.0605760    0.8665653 
   0.274986300    -0.0786684   -0.1047626    -0.0000054   -0.0000123    -0.0000077   -0.0000168     0.0872211    0.8655523 
   0.276986200    -0.0790623   -0.0950821    -0.0000099   -0.0000121    -0.0000092   -0.0000144     0.2323448    0.8392494 
   0.278986100    -0.0779883   -0.0855906    -0.0000091   -0.0000111    -0.0000090   -0.0000139     0.3706463    0.7899641 
   0.280986000    -0.0755024   -0.0765398    -0.0000136   -0.0000095    -0.0000102   -0.0000137     0.4985538    0.7189168 
   0.282985900    -0.0715890   -0.0680390    -0.0000127   -0.0000080    -0.0000112   -0.0000129     0.6125335    0.6279252 
   0.284985800    -0.0665040   -0.0605577    -0.0000159   -0.0000073    -0.0000118   -0.0000121     0.7100742    0.5193137 
   0.286985700    -0.0603537   -0.0542858    -0.0000142   -0.0000042    -0.0000117   -0.0000115     0.7882501    0.3961700 
   0.288985600    -0.0533167   -0.0494967    -0.0000150   -0.0000010    -0.0000152   -0.0000096     0.8454037    0.2615921 
   0.290985500    -0.0454602   -0.0460726    -0.0000146    0.0000007    -0.0000163   -0.0000078     0.8795367    0.1191415 
   0.292985400    -0.0373839   -0.0443391    -0.0000164    0.0000034    -0.0000171   -0.0000056     0.8896916   -0.0274919 
   0.294985300    -0.0292332   -0.0441994    -0.0000147    0.0000047    -0.0000176   -0.0000033     0.8750492   -0.1743585 
   0.296985200    -0.0212651   -0.0456517    -0.0000143    0.0000083    -0.0000173   -0.0000012     0.8364140   -0.3174337 
   0.298985100    -0.0137617   -0.0487119    -0.0000130    0.0000099    -0.0000185    0.0000014     0.7738900   -0.4525746 
   0.300985000    -0.0070559   -0.0532886    -0.0000100    0.0000127    -0.0000159    0.0000054     0.6894265   -0.5758416 
   0.302984900    -0.0014310   -0.0592599    -0.0000086    0.0000145    -0.0000150    0.0000072     0.5846336   -0.6836745 
   0.304984800     0.0028722   -0.0664647    -0.0000040    0.0000147    -0.0000131    0.0000104     0.4625818   -0.7726740 
   0.306984700     0.0056101   -0.0746672    -0.0000013    0.0000152    -0.0000113    0.0000119     0.3261986   -0.8399696 
   0.308984600     0.0066097   -0.0836121     0.0000004    0.0000157    -0.0000080    0.0000132     0.1798895   -0.8832985 
   0.310984500     0.0056930   -0.0929290     0.0000020    0.0000151    -0.0000051    0.0000137     0.0272959   -0.9009299 
   0.312984400     0.0027722   -0.1024087     0.0000061    0.0000147    -0.0000038    0.0000150    -0.1265146   -0.8917575 
   0.314984300    -0.0024230   -0.1114408     0.0000067    0.0000131    -0.0000006    0.0000134    -0.2772246   -0.8559876 
