! MS46122B
! 2250307/22442219
! 8/4/2025 8:15:18 AM
! C:\USERS\SPARKY\DOCUMENTS\VNA_DATA\AUGUST4_2025\3K\PORT1_REPEAT3.S2P
! CHANNEL.1
! TR.MEASUREMENT
! RAW.DATA
# GHZ S RI R 50.0
! FREQ.GHZ         S11RE         S11IM         S21RE         S21IM         S12RE         S12IM         S22RE         S22IM         
!; PortSelection: Port_12
   0.001000000     1.0442270   -0.0683615    -0.0004037   -0.0010886    -0.0004007   -0.0010394     0.8165849   -0.5534582 
   0.002999900     0.9607414   -0.1953588    -0.0237327   -0.0153553    -0.0247763   -0.0160836     0.0599492   -0.8772119 
   0.004999800     0.8708017   -0.3129663    -0.1430920    0.0275420    -0.1506629    0.0320694    -0.6975920   -0.3572333 
   0.006999700     0.7724942   -0.4062570    -0.1864400    0.1387059    -0.1910232    0.1523168    -0.7364928    0.2712993 
   0.008999600     0.5943716   -0.3999690    -0.0547192    0.5178882    -0.0372777    0.5269101     0.3105796    0.6063613 
   0.010999500     0.5683577   -0.3264006     0.3821590    0.4871936     0.3895596    0.4914883     0.4696453   -0.2725695 
   0.012999400     0.5830807   -0.3390475     0.5628873    0.2434507     0.5780989    0.2513198    -0.0135433   -0.5524933 
   0.014999300     0.5722924   -0.3818072     0.6023985    0.0369094     0.6236671    0.0364144    -0.3763689   -0.4480153 
   0.016999200     0.5418875   -0.4249476     0.5901952   -0.1280697     0.6098523   -0.1389545    -0.5597529   -0.2268204 
   0.018999100     0.5007471   -0.4617675     0.5506518   -0.2695008     0.5632497   -0.2871672    -0.6087273    0.0107310 
   0.020999000     0.4515190   -0.4897632     0.4892498   -0.3934965     0.4927270   -0.4130731    -0.5569654    0.2202727 
   0.022998900     0.3979599   -0.5076240     0.4080499   -0.5024243     0.4033800   -0.5190398    -0.4373366    0.3785147 
   0.024998800     0.3389901   -0.4898978     0.3493870   -0.6036030     0.2900991   -0.6108635    -0.3061489    0.5092183 
   0.026998700     0.2876579   -0.5068023     0.1864110   -0.6703501     0.1745048   -0.6723600    -0.1057787    0.5078104 
   0.028998600     0.2369517   -0.4885331     0.0475894   -0.7201483     0.0385021   -0.7149497     0.0597889    0.4798831 
   0.030998500     0.1937631   -0.4597124    -0.1047833   -0.7399814    -0.1077698   -0.7302967     0.1988718    0.4000936 
   0.032998400     0.1621594   -0.4065155    -0.2370939   -0.7660716    -0.2686369   -0.7130094     0.3177084    0.3123904 
   0.034998300     0.1415709   -0.3838562    -0.4184404   -0.6707873    -0.4088201   -0.6650276     0.3425852    0.1431544 
   0.036998200     0.1340408   -0.3458571    -0.5595783   -0.5813277    -0.5475231   -0.5810568     0.3346049    0.0039754 
   0.038998100     0.1371817   -0.3135564    -0.6765571   -0.4600649    -0.6661576   -0.4658623     0.2781025   -0.1154233 
   0.040998000     0.1474984   -0.2899685    -0.7621208   -0.3153875    -0.7564459   -0.3248515     0.1855118   -0.2000876 
   0.042997900     0.1610077   -0.2763312    -0.8132027   -0.1578181    -0.8123135   -0.1674392     0.0743677   -0.2408326 
   0.044997800     0.1710480   -0.2597405    -0.8606437   -0.0375798    -0.8335381    0.0075233    -0.0335060   -0.2530290 
   0.046997700     0.1817620   -0.2761880    -0.8098378    0.1622857    -0.8155254    0.1594648    -0.1359804   -0.1944024 
   0.048997600     0.1848942   -0.2848085    -0.7627711    0.3094833    -0.7674745    0.3102692    -0.2072340   -0.1229096 
   0.050997500     0.1816546   -0.2957542    -0.6911978    0.4418521    -0.6930293    0.4453052    -0.2464195   -0.0351217 
   0.052997400     0.1724489   -0.3064601    -0.5988116    0.5564858    -0.5980651    0.5596145    -0.2521096    0.0567977 
   0.054997300     0.1581001   -0.3150755    -0.4870622    0.6542192    -0.4882445    0.6522986    -0.2265746    0.1415167 
   0.056997200     0.1399653   -0.3203719    -0.3681158    0.7275201    -0.3635279    0.7256014    -0.1762232    0.2100249 
   0.058997100     0.1202276   -0.3210454    -0.2370809    0.7807564    -0.2323924    0.7756494    -0.1073306    0.2566532 
   0.060997000     0.1003352   -0.3169640    -0.0988731    0.8114200    -0.0968799    0.8036094    -0.0285492    0.2775426 
   0.062996900     0.0816870   -0.3084941     0.0429604    0.8186725     0.0409125    0.8098813     0.0519560    0.2716799 
   0.064996800     0.0663473   -0.2964100     0.1846125    0.8021938     0.1779034    0.7937438     0.1253223    0.2407772 
   0.066996700     0.0551080   -0.2819144     0.3221786    0.7612623     0.3117410    0.7551660     0.1844943    0.1887153 
   0.068996600     0.0484507   -0.2664796     0.4513529    0.6962523     0.4385388    0.6944638     0.2241323    0.1207927 
   0.070996500     0.0464870   -0.2519563     0.5683689    0.6092849     0.5547625    0.6121408     0.2401948    0.0446934 
   0.072996400     0.0485241   -0.2393930     0.6683863    0.5021051     0.6555617    0.5094633     0.2316439   -0.0318150 
   0.074996300     0.0535181   -0.2302070     0.7471559    0.3782099     0.7373607    0.3888919     0.1998491   -0.1013773 
   0.076996200     0.0599083   -0.2251164     0.8020901    0.2422027     0.7962589    0.2546354     0.1484662   -0.1562487 
   0.078996100     0.0661835   -0.2242299     0.8314977    0.0986302     0.8297188    0.1113030     0.0830433   -0.1918569 
   0.080996000     0.0707135   -0.2272608     0.8352898   -0.0470948     0.8358939   -0.0352066     0.0110603   -0.2046854 
   0.082995900     0.0722373   -0.2331514     0.8128574   -0.1899830     0.8154364   -0.1800674    -0.0602522   -0.1942048 
   0.084995800     0.0701749   -0.2402954     0.7657773   -0.3248860     0.7691923   -0.3170128    -0.1230432   -0.1624812 
   0.086995700     0.0641588   -0.2478733     0.6973726   -0.4491576     0.7006989   -0.4422960    -0.1718339   -0.1136234 
   0.088995600     0.0543936   -0.2542737     0.6103068   -0.5593028     0.6129551   -0.5516437    -0.2022312   -0.0534492 
   0.090995500     0.0415127   -0.2583201     0.5066897   -0.6523052     0.5093738   -0.6437838    -0.2124362    0.0114253 
   0.092995400     0.0261226   -0.2596534     0.3904707   -0.7267586     0.3942431   -0.7170303    -0.2024312    0.0747150 
   0.094995300     0.0098654   -0.2565926     0.2638949   -0.7804316     0.2692740   -0.7702212    -0.1745664    0.1304825 
   0.096995200    -0.0060451   -0.2496051     0.1310349   -0.8133786     0.1389101   -0.8026564    -0.1322124    0.1738900 
   0.098995100    -0.0205092   -0.2388827    -0.0052989   -0.8240180     0.0055232   -0.8144693    -0.0799491    0.2018089 
   0.100995000    -0.0344232   -0.2250053    -0.1434790   -0.8124049    -0.1292821   -0.8055747    -0.0209993    0.2127964 
   0.102994900    -0.0429404   -0.2087326    -0.2765962   -0.7783402    -0.2601115   -0.7750642     0.0343689    0.2051884 
   0.104994800    -0.0475864   -0.1913339    -0.4025853   -0.7228009    -0.3851196   -0.7237568     0.0832151    0.1815041 
   0.106994700    -0.0481460   -0.1738405    -0.5179469   -0.6462857    -0.5016332   -0.6522259     0.1213225    0.1450519 
   0.108994600    -0.0450849   -0.1575418    -0.6199607   -0.5515759    -0.6057745   -0.5616525     0.1451300    0.1001373 
   0.110994500    -0.0387852   -0.1434086    -0.7048634   -0.4406166    -0.6938559   -0.4538944     0.1531601    0.0515970 
   0.112994400    -0.0300730   -0.1320773    -0.7700209   -0.3164624    -0.7626803   -0.3315661     0.1453557    0.0045953 
   0.114994300    -0.0200113   -0.1242192    -0.8132439   -0.1825925    -0.8096384   -0.1980700     0.1233783   -0.0357077 
   0.116994200    -0.0096850   -0.1196767    -0.8328064   -0.0430935    -0.8326197   -0.0580224     0.0902713   -0.0652048 
   0.118994100    -0.0000507   -0.1181479    -0.8281717    0.0977309    -0.8307418    0.0841546     0.0503202   -0.0812932 
   0.120994000     0.0083766   -0.1190932    -0.8001373    0.2353669    -0.8041889    0.2233595     0.0085018   -0.0822925 
   0.122993900     0.0146947   -0.1217169    -0.7486557    0.3661761    -0.7539138    0.3555339    -0.0303028   -0.0687124 
   0.124993800     0.0189396   -0.1252618    -0.6761799    0.4860642    -0.6821020    0.4765617    -0.0611416   -0.0426045 
   0.126993700     0.0211899   -0.1289991    -0.5847847    0.5916359    -0.5915915    0.5824396    -0.0802655   -0.0079596 
   0.128993600     0.0217824   -0.1322265    -0.4770257    0.6797643    -0.4850550    0.6710812    -0.0857701    0.0310693 
   0.130993500     0.0212594   -0.1346774    -0.3566826    0.7489053    -0.3662507    0.7406637    -0.0770943    0.0696827 
   0.132993400     0.0201419   -0.1361212    -0.2267761    0.7969438    -0.2385343    0.7896416    -0.0553237    0.1030522 
   0.134993300     0.0189070   -0.1366059    -0.0911718    0.8227456    -0.1049821    0.8174418    -0.0229894    0.1273511 
   0.136993200     0.0180917   -0.1364471     0.0466951    0.8257341     0.0310964    0.8228956     0.0165684    0.1395085 
   0.138993100     0.0179323   -0.1360459     0.1831918    0.8059369     0.1663930    0.8064813     0.0586891    0.1379465 
   0.140993000     0.0184873   -0.1358315     0.3142355    0.7635381     0.2973425    0.7680471     0.0990099    0.1225547 
   0.142992900     0.0196199   -0.1363315     0.4363429    0.7001747     0.4207259    0.7085430     0.1329877    0.0944115 
   0.144992800     0.0210198   -0.1378544     0.5464469    0.6175042     0.5328897    0.6294510     0.1569431    0.0560362 
   0.146992700     0.0221528   -0.1405740     0.6404063    0.5172652     0.6302342    0.5317699     0.1683354    0.0113844 
   0.148992600     0.0225221   -0.1445883     0.7165306    0.4030895     0.7099993    0.4190380     0.1655800   -0.0354316 
   0.150992500     0.0215962   -0.1493405     0.7718402    0.2783234     0.7687774    0.2942791     0.1486656   -0.0801414 
   0.152992400     0.0188960   -0.1548673     0.8057148    0.1461124     0.8057638    0.1613608     0.1186939   -0.1182214 
   0.154992300     0.0141299   -0.1604480     0.8169996    0.0107106     0.8193316    0.0250634     0.0781828   -0.1461960 
   0.156992200     0.0073093   -0.1654537     0.8056896   -0.1239773     0.8097772   -0.1112516     0.0309461   -0.1611369 
   0.158992100    -0.0014984   -0.1692391     0.7724329   -0.2540882     0.7776599   -0.2428339    -0.0190249   -0.1615674 
   0.160992000    -0.0118936   -0.1710019     0.7184617   -0.3766470     0.7246628   -0.3661054    -0.0668704   -0.1474110 
   0.162991900    -0.0233050   -0.1703872     0.6456586   -0.4880839     0.6528387   -0.4781328    -0.1084969   -0.1201961 
   0.164991800    -0.0352323   -0.1669668     0.5562842   -0.5859563     0.5643742   -0.5766222    -0.1403933   -0.0822064 
   0.166991700    -0.0467729   -0.1607953     0.4528270   -0.6675856     0.4624448   -0.6587193    -0.1597814   -0.0373542 
   0.168991600    -0.0571117   -0.1520760     0.3376826   -0.7315047     0.3493615   -0.7236830    -0.1655561    0.0105257 
   0.170991500    -0.0657518   -0.1411193     0.2141730   -0.7760894     0.2276618   -0.7699921    -0.1575225    0.0574184 
   0.172991400    -0.0718247   -0.1280654     0.0850937   -0.8005747     0.1003212   -0.7967055    -0.1370434    0.0991864 
   0.174991300    -0.0750303   -0.1141127    -0.0461647   -0.8039874    -0.0297195   -0.8031082    -0.1063799    0.1325375 
   0.176991200    -0.0752932   -0.0997126    -0.1767303   -0.7861537    -0.1597402   -0.7888025    -0.0684369    0.1551668 
   0.178991100    -0.0726641   -0.0859138    -0.3031099   -0.7477158    -0.2867973   -0.7540765    -0.0270789    0.1657149 
   0.180991000    -0.0673592   -0.0733582    -0.4218275   -0.6892689    -0.4071003   -0.6987010     0.0140894    0.1641004 
   0.182990900    -0.0597569   -0.0625630    -0.5297468   -0.6113906    -0.5172614   -0.6241533     0.0513321    0.1511386 
   0.184990800    -0.0505197   -0.0540480    -0.6237904   -0.5165175    -0.6147821   -0.5313476     0.0820375    0.1288922 
   0.186990700    -0.0403664   -0.0480331    -0.7011386   -0.4074436    -0.6955442   -0.4228957     0.1034083    0.1002311 
   0.188990600    -0.0292807   -0.0453252    -0.7495798   -0.3090751    -0.7488369   -0.3209783     0.1122641    0.0714947 
   0.190990500    -0.0200602   -0.0436047    -0.7954262   -0.1602205    -0.7964391   -0.1751986     0.1152362    0.0371546 
   0.192990400    -0.0112990   -0.0444182    -0.8111350   -0.0227309    -0.8150083   -0.0373729     0.1069217    0.0084269 
   0.194990300    -0.0038715   -0.0466862    -0.8038008    0.1116868    -0.8093799    0.0986940     0.0908189   -0.0138329 
   0.196990200     0.0019761   -0.0498694    -0.7739987    0.2430416    -0.7812141    0.2308275     0.0698904   -0.0281062 
   0.198990100     0.0062191   -0.0533593    -0.7229078    0.3671480    -0.7314659    0.3563164     0.0470719   -0.0336382 
   0.200990000     0.0091065   -0.0567113    -0.6517296    0.4812657    -0.6618649    0.4715086     0.0253749   -0.0307003 
   0.202989900     0.0108719   -0.0595111    -0.5629033    0.5818015    -0.5742433    0.5734305     0.0077163   -0.0205808 
   0.204989800     0.0119652   -0.0614205    -0.4590621    0.6660551    -0.4715294    0.6594595    -0.0037205   -0.0053302 
   0.206989700     0.0128548   -0.0624559    -0.3429869    0.7322239    -0.3568582    0.7270980    -0.0077630    0.0124892 
   0.208989600     0.0139568   -0.0626696    -0.2177861    0.7779540    -0.2330017    0.7751957    -0.0041793    0.0300627 
   0.210989500     0.0156177   -0.0623057    -0.0867826    0.8029167    -0.1025595    0.8028463     0.0063016    0.0446809 
   0.212989400     0.0181150   -0.0617030     0.0463926    0.8057551     0.0312573    0.8086553     0.0223230    0.0541001 
   0.214989300     0.0215594   -0.0612577     0.1784742    0.7868074     0.1642728    0.7924495     0.0414575    0.0567342 
   0.216989200     0.0258778   -0.0613887     0.3052494    0.7463683     0.2924786    0.7545579     0.0611053    0.0518549 
   0.218989100     0.0308775   -0.0624635     0.4239084    0.6855084     0.4127892    0.6962078     0.0786102    0.0395930 
   0.220989000     0.0362699   -0.0647932     0.5306461    0.6058319     0.5219796    0.6178870     0.0915805    0.0209971 
   0.222988900     0.0416745   -0.0685888     0.6229385    0.5096416     0.6169604    0.5221233     0.0979332   -0.0020610 
   0.224988800     0.0466270   -0.0738566     0.6978325    0.3995108     0.6942542    0.4118078     0.0962176   -0.0270447 
   0.226988700     0.0507233   -0.0805285     0.7533867    0.2783673     0.7517895    0.2907053     0.0861637   -0.0513581 
   0.228988600     0.0535700   -0.0883313     0.7876377    0.1502873     0.7877349    0.1624023     0.0682175   -0.0720718 
   0.230988500     0.0548497   -0.0969991     0.8005952    0.0181160     0.8015960    0.0304560     0.0436951   -0.0868108 
   0.232988400     0.0542652   -0.1060198     0.7907325   -0.1135901     0.7938117   -0.1015140     0.0148198   -0.0934309 
   0.234988300     0.0517868   -0.1151371     0.7598647   -0.2417328     0.7644323   -0.2298629    -0.0155294   -0.0908069 
   0.236988200     0.0474582   -0.1237767     0.7080101   -0.3626682     0.7146742   -0.3512986    -0.0443130   -0.0788373 
   0.238988100     0.0415442   -0.1315177     0.6378214   -0.4728958     0.6461052   -0.4621831    -0.0687378   -0.0583407 
   0.240988000     0.0341963   -0.1380708     0.5504270   -0.5696664     0.5611344   -0.5601358    -0.0862672   -0.0311308 
   0.242987900     0.0259019   -0.1431555     0.4489865   -0.6507731     0.4623958   -0.6426219    -0.0950624    0.0007258 
   0.244987800     0.0168993   -0.1464618     0.3358138   -0.7139081     0.3519121   -0.7081374    -0.0941081    0.0342136 
   0.246987700     0.0075604   -0.1480030     0.2145375   -0.7578830     0.2322082   -0.7553053    -0.0833216    0.0662374 
   0.248987600    -0.0017519   -0.1480242     0.0884274   -0.7813931     0.1056274   -0.7828832    -0.0635679    0.0939242 
   0.250987500    -0.0105973   -0.1463527    -0.0403760   -0.7840992    -0.0237709   -0.7895019    -0.0364378    0.1148812 
   0.252987400    -0.0185469   -0.1433386    -0.1672966   -0.7661317    -0.1522844   -0.7751623    -0.0043312    0.1272784 
   0.254987300    -0.0254593   -0.1392983    -0.2895598   -0.7280185    -0.2765871   -0.7400175     0.0297808    0.1298968 
   0.256987200    -0.0312483   -0.1344946    -0.4036732   -0.6706813    -0.3938655   -0.6848441     0.0631069    0.1227951 
   0.258987100    -0.0359632   -0.1292741    -0.5072605   -0.5957478    -0.5005552   -0.6111355     0.0930633    0.1065467 
   0.260987000    -0.0395556   -0.1236679    -0.5971157   -0.5047790    -0.5938499   -0.5204949     0.1167105    0.0828314 
   0.262986900    -0.0421665   -0.1180865    -0.6711637   -0.4004020    -0.6709056   -0.4154240     0.1323267    0.0537873 
   0.264986800    -0.0438562   -0.1127207    -0.7274628   -0.2853966    -0.7293656   -0.2988401     0.1390110    0.0219673 
   0.266986700    -0.0448057   -0.1076780    -0.7641216   -0.1623491    -0.7678642   -0.1744592     0.1362660   -0.0095663 
   0.268986600    -0.0450699   -0.1030807    -0.7799611   -0.0354311    -0.7851032   -0.0459033     0.1247311   -0.0381073 
   0.270986500    -0.0449383   -0.0989730    -0.7748048    0.0924909    -0.7810033    0.0829498     0.1059295   -0.0612361 
   0.272986400    -0.0444962   -0.0952695    -0.7490671    0.2180441    -0.7559444    0.2087835     0.0819260   -0.0770018 
   0.274986300    -0.0437604   -0.0918888    -0.7028657    0.3377176    -0.7109272    0.3288341     0.0554111   -0.0843459 
   0.276986200    -0.0428057   -0.0886271    -0.6377848    0.4479769    -0.6475022    0.4399842     0.0292237   -0.0829875 
   0.278986100    -0.0417052   -0.0855636    -0.5552491    0.5462543    -0.5665080    0.5394893     0.0061561   -0.0736958 
   0.280986000    -0.0403579   -0.0826574    -0.4579270    0.6297483    -0.4701478    0.6248752    -0.0115260   -0.0581095 
   0.282985900    -0.0387408   -0.0799535    -0.3481663    0.6959618    -0.3609289    0.6933300    -0.0220766   -0.0384542 
   0.284985800    -0.0367258   -0.0774441    -0.2291748    0.7431934    -0.2416002    0.7429373    -0.0247276   -0.0173866 
   0.286985700    -0.0343104   -0.0753163    -0.1038430    0.7701285    -0.1159979    0.7724385    -0.0195868    0.0022180 
   0.288985600    -0.0314119   -0.0737255     0.0244396    0.7762976     0.0120379    0.7808679    -0.0075804    0.0179524 
   0.290985500    -0.0280458   -0.0728072     0.1517639    0.7610077     0.1399826    0.7678139     0.0094080    0.0276520 
   0.292985400    -0.0243569   -0.0727055     0.2747416    0.7249530     0.2642744    0.7336134     0.0290095    0.0298155 
   0.294985300    -0.0204897   -0.0735782     0.3898299    0.6688786     0.3810279    0.6792382     0.0484303    0.0239894 
   0.296985200    -0.0167272   -0.0755249     0.4943556    0.5945808     0.4875405    0.6057819     0.0648670    0.0105675 
   0.298985100    -0.0133608   -0.0785964     0.5846393    0.5039822     0.5802023    0.5148909     0.0757074   -0.0091608 
   0.300985000    -0.0106966   -0.0828274     0.6585039    0.3994252     0.6561117    0.4099177     0.0788054   -0.0329817 
   0.302984900    -0.0090626   -0.0881170     0.7136685    0.2839956     0.7126248    0.2944861     0.0729091   -0.0579028 
   0.304984800    -0.0087630   -0.0942791     0.7486995    0.1613306     0.7489594    0.1719316     0.0579384   -0.0806722 
   0.306984700    -0.0101341   -0.1012187     0.7623234    0.0353588     0.7638571    0.0459008     0.0348372   -0.0982090 
   0.308984600    -0.0132419   -0.1082166     0.7546015   -0.0905464     0.7578861   -0.0795678     0.0054579   -0.1076443 
   0.310984500    -0.0180820   -0.1148253     0.7258875   -0.2124352     0.7312328   -0.2013271    -0.0271069   -0.1070431 
   0.312984400    -0.0247875   -0.1206418     0.6777141   -0.3269973     0.6854609   -0.3160287    -0.0592594   -0.0951727 
   0.314984300    -0.0331514   -0.1251635     0.6115436   -0.4310155     0.6218776   -0.4211383    -0.0870476   -0.0723120 
