! MS46122B
! 2250307/22442219
! 8/1/2025 10:30:29 AM
! C:\USERS\SPARKY\DOCUMENTS\VNA_DATA\AUGUST1_2025\3K\PORT2.S2P
! CHANNEL.1
! TR.MEASUREMENT
! RAW.DATA
# GHZ S RI R 50.0
! FREQ.GHZ         S11RE         S11IM         S21RE         S21IM         S12RE         S12IM         S22RE         S22IM         
!; PortSelection: Port_12
   0.001000000     1.0436430   -0.0692108    -0.0000028    0.0000062     0.0000076   -0.0000001     0.8170608   -0.5528290 
   0.002999900     0.9509271   -0.1914057    -0.0000039    0.0000039    -0.0000063   -0.0000058     0.0376126   -0.8794270 
   0.004999800     0.8751583   -0.2738222    -0.0000006   -0.0000024    -0.0000017   -0.0000008    -0.7510767   -0.4379553 
   0.006999700     0.7892331   -0.3625753    -0.0000021   -0.0000006     0.0000019   -0.0000013    -0.8136139    0.4829966 
   0.008999600     0.6994077   -0.3973629    -0.0000011    0.0000008    -0.0000006   -0.0000015    -0.1120735    0.9891695 
   0.010999500     0.6266243   -0.4209271    -0.0000017    0.0000009     0.0000001   -0.0000005     0.5820678    0.7992585 
   0.012999400     0.5642468   -0.4361497    -0.0000020    0.0000000    -0.0000013    0.0000015     0.9053862    0.3312546 
   0.014999300     0.5113400   -0.4454569     0.0000005    0.0000024    -0.0000005    0.0000032     0.9371569   -0.1236864 
   0.016999200     0.4649742   -0.4501518    -0.0000016    0.0000001     0.0000005   -0.0000009     0.8050416   -0.4785323 
   0.018999100     0.4250223   -0.4513367     0.0000000    0.0000010     0.0000008   -0.0000003     0.5913448   -0.7245685 
   0.020999000     0.3906301   -0.4502985    -0.0000025   -0.0000005    -0.0000009    0.0000008     0.3445838   -0.8724358 
   0.022998900     0.3597677   -0.4477409     0.0000010    0.0000052     0.0000017    0.0000017     0.0926137   -0.9368413 
   0.024998800     0.3271608   -0.4219036     0.0000033    0.0000024     0.0000028    0.0000022    -0.1375125   -1.0047840 
   0.026998700     0.3060259   -0.4381254     0.0000031   -0.0000014     0.0000056   -0.0000020    -0.3620105   -0.8727724 
   0.028998600     0.2820898   -0.4312849     0.0000001   -0.0000002     0.0000014   -0.0000019    -0.5450959   -0.7696148 
   0.030998500     0.2594787   -0.4233252     0.0000025   -0.0000004     0.0000041   -0.0000001    -0.6929350   -0.6355267 
   0.032998400     0.2354532   -0.3962955     0.0000003    0.0000004     0.0000008   -0.0000048    -0.8522916   -0.5296615 
   0.034998300     0.2174548   -0.4044037     0.0000021    0.0000009     0.0000018   -0.0000005    -0.8768192   -0.3133730 
   0.036998200     0.1984381   -0.3933138     0.0000018   -0.0000032     0.0000024   -0.0000011    -0.9159861   -0.1416965 
   0.038998100     0.1809553   -0.3818385     0.0000027   -0.0000031     0.0000041   -0.0000074    -0.9229997    0.0281505 
   0.040998000     0.1649620   -0.3697681     0.0000024   -0.0000044    -0.0000009   -0.0000041    -0.9004930    0.1917552 
   0.042997900     0.1501915   -0.3572693     0.0000031   -0.0000040    -0.0000021   -0.0000028    -0.8514282    0.3454258 
   0.044997800     0.1368456   -0.3309749     0.0000044   -0.0000056    -0.0000015   -0.0000037    -0.8469862    0.5121963 
   0.046997700     0.1244197   -0.3322674    -0.0000011   -0.0000051     0.0000006   -0.0000034    -0.6862704    0.6117696 
   0.048997600     0.1143307   -0.3197256    -0.0000050   -0.0000038     0.0000001   -0.0000070    -0.5751652    0.7185259 
   0.050997500     0.1058860   -0.3075039    -0.0000032   -0.0000076    -0.0000041   -0.0000039    -0.4483038    0.8053477 
   0.052997400     0.0989131   -0.2957294    -0.0000043   -0.0000022    -0.0000031    0.0000018    -0.3100327    0.8695084 
   0.054997300     0.0935817   -0.2846551    -0.0000082   -0.0000025     0.0000026   -0.0000048    -0.1611964    0.9103460 
   0.056997200     0.0890601   -0.2748570    -0.0000025   -0.0000034    -0.0000048   -0.0000061    -0.0107731    0.9254381 
   0.058997100     0.0859123   -0.2659804    -0.0000085   -0.0000006    -0.0000064   -0.0000026     0.1420326    0.9151433 
   0.060997000     0.0838526   -0.2581970    -0.0000065   -0.0000018    -0.0000050   -0.0000018     0.2921247    0.8788112 
   0.062996900     0.0826237   -0.2516154    -0.0000057    0.0000000    -0.0000057    0.0000005     0.4344405    0.8180240 
   0.064996800     0.0819888   -0.2462034    -0.0000077   -0.0000013    -0.0000061    0.0000028     0.5655123    0.7332404 
   0.066996700     0.0816721   -0.2419467    -0.0000072    0.0000020    -0.0000066    0.0000031     0.6813623    0.6268156 
   0.068996600     0.0814792   -0.2387945    -0.0000064    0.0000043    -0.0000051    0.0000023     0.7788253    0.5002594 
   0.070996500     0.0813024   -0.2369145    -0.0000052    0.0000022    -0.0000060    0.0000041     0.8535120    0.3580406 
   0.072996400     0.0808041   -0.2357241    -0.0000074    0.0000054    -0.0000017    0.0000052     0.9031081    0.2034042 
   0.074996300     0.0798476   -0.2352628    -0.0000060    0.0000107    -0.0000025    0.0000046     0.9251262    0.0407598 
   0.076996200     0.0783431   -0.2354468    -0.0000030    0.0000064    -0.0000033    0.0000089     0.9175693   -0.1256672 
   0.078996100     0.0761576   -0.2361074    -0.0000001    0.0000067     0.0000000    0.0000084     0.8804693   -0.2891952 
   0.080996000     0.0731246   -0.2370921     0.0000000    0.0000084     0.0000025    0.0000060     0.8133375   -0.4444582 
   0.082995900     0.0692266   -0.2382201     0.0000006    0.0000072     0.0000024    0.0000083     0.7183333   -0.5857253 
   0.084995800     0.0646478   -0.2389617     0.0000056    0.0000054     0.0000062    0.0000073     0.5976323   -0.7082852 
   0.086995700     0.0593439   -0.2396929     0.0000038    0.0000055     0.0000041    0.0000063     0.4561000   -0.8066334 
   0.088995600     0.0532810   -0.2400716     0.0000068    0.0000091     0.0000052    0.0000046     0.2982296   -0.8767703 
   0.090995500     0.0465671   -0.2399322     0.0000088    0.0000057     0.0000062    0.0000055     0.1297976   -0.9160154 
   0.092995400     0.0393266   -0.2393716     0.0000081    0.0000041     0.0000107    0.0000021    -0.0431923   -0.9235411 
   0.094995300     0.0314487   -0.2378000     0.0000096    0.0000020     0.0000106    0.0000010    -0.2138036   -0.8988619 
   0.096995200     0.0235652   -0.2355780     0.0000118   -0.0000016     0.0000079   -0.0000003    -0.3763508   -0.8428555 
   0.098995100     0.0155660   -0.2325378     0.0000093   -0.0000019     0.0000096   -0.0000036    -0.5252393   -0.7584987 
   0.100995000     0.0059646   -0.2293646     0.0000098   -0.0000040     0.0000097   -0.0000042    -0.6566740   -0.6486556 
   0.102994900    -0.0017870   -0.2243778     0.0000092   -0.0000053     0.0000090   -0.0000046    -0.7637848   -0.5180935 
   0.104994800    -0.0093670   -0.2184524     0.0000089   -0.0000076     0.0000081   -0.0000076    -0.8445968   -0.3714804 
   0.106994700    -0.0161904   -0.2115440     0.0000072   -0.0000072     0.0000067   -0.0000077    -0.8973122   -0.2137279 
   0.108994600    -0.0223294   -0.2041063     0.0000063   -0.0000084     0.0000056   -0.0000093    -0.9208834   -0.0507387 
   0.110994500    -0.0276266   -0.1960047     0.0000047   -0.0000116     0.0000040   -0.0000090    -0.9152541    0.1123018 
   0.112994400    -0.0319791   -0.1873855     0.0000043   -0.0000113     0.0000026   -0.0000103    -0.8815169    0.2702350 
   0.114994300    -0.0352922   -0.1783916     0.0000005   -0.0000112     0.0000016   -0.0000099    -0.8215972    0.4187362 
   0.116994200    -0.0374925   -0.1691661    -0.0000004   -0.0000135    -0.0000012   -0.0000119    -0.7373834    0.5534334 
   0.118994100    -0.0387158   -0.1597251    -0.0000023   -0.0000124    -0.0000012   -0.0000104    -0.6322894    0.6704379 
   0.120994000    -0.0383826   -0.1506124    -0.0000036   -0.0000113    -0.0000039   -0.0000112    -0.5097507    0.7669809 
   0.122993900    -0.0371606   -0.1416266    -0.0000078   -0.0000093    -0.0000058   -0.0000109    -0.3736343    0.8413675 
   0.124993800    -0.0348158   -0.1332673    -0.0000086   -0.0000103    -0.0000057   -0.0000095    -0.2278783    0.8916096 
   0.126993700    -0.0314467   -0.1255635    -0.0000102   -0.0000093    -0.0000094   -0.0000095    -0.0765025    0.9164393 
   0.128993600    -0.0271685   -0.1185492    -0.0000118   -0.0000074    -0.0000104   -0.0000073     0.0762354    0.9160383 
   0.130993500    -0.0221254   -0.1126475    -0.0000125   -0.0000063    -0.0000110   -0.0000049     0.2265052    0.8901234 
   0.132993400    -0.0164817   -0.1078053    -0.0000124   -0.0000034    -0.0000123   -0.0000028     0.3701865    0.8398170 
   0.134993300    -0.0104360   -0.1041131    -0.0000141   -0.0000011    -0.0000126   -0.0000018     0.5032483    0.7665082 
   0.136993200    -0.0041652   -0.1016295    -0.0000147    0.0000003    -0.0000124    0.0000001     0.6224221    0.6721131 
   0.138993100     0.0020917   -0.1003977    -0.0000127    0.0000045    -0.0000116    0.0000031     0.7242610    0.5588812 
   0.140993000     0.0081507   -0.1003744    -0.0000113    0.0000064    -0.0000126    0.0000064     0.8063396    0.4299537 
   0.142992900     0.0138069   -0.1015148    -0.0000137    0.0000086    -0.0000113    0.0000076     0.8656186    0.2889867 
   0.144992800     0.0189686   -0.1037962    -0.0000103    0.0000104    -0.0000089    0.0000093     0.8999982    0.1393156 
   0.146992700     0.0232968   -0.1069807    -0.0000090    0.0000137    -0.0000092    0.0000128     0.9090191   -0.0144353 
   0.148992600     0.0266922   -0.1109938    -0.0000058    0.0000139    -0.0000050    0.0000132     0.8918300   -0.1682006 
   0.150992500     0.0290508   -0.1155288    -0.0000035    0.0000161    -0.0000045    0.0000134     0.8491294   -0.3174960 
   0.152992400     0.0302974   -0.1206530    -0.0000014    0.0000138    -0.0000008    0.0000134     0.7806454   -0.4575919 
   0.154992300     0.0303485   -0.1260031     0.0000022    0.0000154     0.0000015    0.0000132     0.6887150   -0.5840966 
   0.156992200     0.0292136   -0.1314269     0.0000044    0.0000152     0.0000037    0.0000150     0.5758007   -0.6933557 
   0.158992100     0.0269030   -0.1367681     0.0000057    0.0000132     0.0000062    0.0000125     0.4451878   -0.7814656 
   0.160992000     0.0234154   -0.1417046     0.0000089    0.0000126     0.0000104    0.0000126     0.3009175   -0.8456799 
   0.162991900     0.0188151   -0.1461143     0.0000093    0.0000113     0.0000115    0.0000123     0.1472504   -0.8837066 
   0.164991800     0.0132480   -0.1497217     0.0000122    0.0000106     0.0000124    0.0000087    -0.0109716   -0.8942015 
   0.166991700     0.0068154   -0.1523843     0.0000128    0.0000071     0.0000137    0.0000072    -0.1682557   -0.8768438 
   0.168991600    -0.0002862   -0.1541123     0.0000151    0.0000055     0.0000159    0.0000040    -0.3202572   -0.8320958 
   0.170991500    -0.0079480   -0.1546593     0.0000161    0.0000039     0.0000145    0.0000025    -0.4619824   -0.7611969 
   0.172991400    -0.0158349   -0.1539732     0.0000160   -0.0000003     0.0000153    0.0000004    -0.5885278   -0.6666683 
   0.174991300    -0.0238103   -0.1520051     0.0000148   -0.0000030     0.0000156   -0.0000023    -0.6965631   -0.5519949 
   0.176991200    -0.0318112   -0.1487374     0.0000131   -0.0000048     0.0000158   -0.0000045    -0.7823501   -0.4208089 
   0.178991100    -0.0393705   -0.1441160     0.0000140   -0.0000073     0.0000156   -0.0000060    -0.8438808   -0.2768453 
   0.180991000    -0.0464038   -0.1383984     0.0000128   -0.0000099     0.0000136   -0.0000086    -0.8792379   -0.1251141 
   0.182990900    -0.0528502   -0.1314193     0.0000123   -0.0000121     0.0000130   -0.0000123    -0.8878812    0.0295104 
   0.184990800    -0.0582146   -0.1234500     0.0000093   -0.0000131     0.0000123   -0.0000147    -0.8699019    0.1825006 
   0.186990700    -0.0624874   -0.1146180     0.0000064   -0.0000151     0.0000092   -0.0000154    -0.8262917    0.3296701 
   0.188990600    -0.0630696   -0.1065324     0.0000058   -0.0000174     0.0000060   -0.0000176    -0.7727637    0.4458822 
   0.190990500    -0.0668248   -0.0949980     0.0000035   -0.0000187     0.0000046   -0.0000195    -0.6720927    0.5872406 
   0.192990400    -0.0673156   -0.0843125    -0.0000013   -0.0000173     0.0000009   -0.0000200    -0.5614249    0.6950830 
   0.194990300    -0.0659671   -0.0738219    -0.0000037   -0.0000183    -0.0000024   -0.0000195    -0.4375059    0.7808300 
   0.196990200    -0.0630944   -0.0635269    -0.0000074   -0.0000180    -0.0000043   -0.0000192    -0.3016009    0.8446075 
   0.198990100    -0.0586831   -0.0535942    -0.0000102   -0.0000163    -0.0000086   -0.0000185    -0.1574733    0.8847393 
   0.200990000    -0.0528183   -0.0443532    -0.0000131   -0.0000148    -0.0000095   -0.0000157    -0.0091530    0.9004237 
   0.202989900    -0.0455763   -0.0359653    -0.0000168   -0.0000125    -0.0000128   -0.0000148     0.1397328    0.8912162 
   0.204989800    -0.0370956   -0.0287033    -0.0000195   -0.0000117    -0.0000143   -0.0000123     0.2851847    0.8578108 
   0.206989700    -0.0275975   -0.0227046    -0.0000193   -0.0000075    -0.0000174   -0.0000084     0.4230658    0.8011538 
   0.208989600    -0.0171813   -0.0182187    -0.0000212   -0.0000030    -0.0000167   -0.0000075     0.5499333    0.7223326 
   0.210989500    -0.0061394   -0.0153658    -0.0000212    0.0000007    -0.0000183   -0.0000032     0.6621310    0.6231816 
   0.212989400     0.0053804   -0.0142023    -0.0000210    0.0000030    -0.0000193    0.0000001     0.7568685    0.5065388 
   0.214989300     0.0170327   -0.0148440    -0.0000203    0.0000065    -0.0000185    0.0000030     0.8311411    0.3755488 
   0.216989200     0.0284457   -0.0172652    -0.0000211    0.0000100    -0.0000173    0.0000081     0.8827611    0.2332321 
   0.218989100     0.0394927   -0.0214987    -0.0000184    0.0000149    -0.0000159    0.0000081     0.9098914    0.0838994 
   0.220989000     0.0497722   -0.0274064    -0.0000134    0.0000163    -0.0000130    0.0000133     0.9116002   -0.0689089 
   0.222988900     0.0590911   -0.0348909    -0.0000126    0.0000178    -0.0000108    0.0000145     0.8872875   -0.2205784 
   0.224988800     0.0672149   -0.0438804    -0.0000075    0.0000198    -0.0000061    0.0000163     0.8373867   -0.3667950 
   0.226988700     0.0738818   -0.0540230    -0.0000040    0.0000232    -0.0000036    0.0000183     0.7626888   -0.5027770 
   0.228988600     0.0789182   -0.0651019    -0.0000006    0.0000239    -0.0000006    0.0000188     0.6650878   -0.6247059 
   0.230988500     0.0822111   -0.0769930     0.0000032    0.0000223     0.0000032    0.0000200     0.5471489   -0.7282739 
   0.232988400     0.0836074   -0.0891842     0.0000078    0.0000226     0.0000061    0.0000182     0.4123483   -0.8103634 
   0.234988300     0.0831911   -0.1016432     0.0000094    0.0000204     0.0000102    0.0000167     0.2645245   -0.8675884 
   0.236988200     0.0809002   -0.1140167     0.0000153    0.0000191     0.0000130    0.0000137     0.1085224   -0.8980058 
   0.238988100     0.0768623   -0.1260316     0.0000177    0.0000180     0.0000160    0.0000123    -0.0511075   -0.9002987 
   0.240988000     0.0709297   -0.1372528     0.0000192    0.0000141     0.0000183    0.0000100    -0.2086234   -0.8740770 
   0.242987900     0.0634996   -0.1476899     0.0000205    0.0000114     0.0000215    0.0000081    -0.3591287   -0.8200465 
   0.244987800     0.0546389   -0.1567311     0.0000225    0.0000062     0.0000221    0.0000050    -0.4975023   -0.7403512 
   0.246987700     0.0444605   -0.1644319     0.0000247    0.0000047     0.0000241    0.0000007    -0.6194854   -0.6371287 
   0.248987600     0.0332246   -0.1706076     0.0000236    0.0000006     0.0000246   -0.0000026    -0.7206193   -0.5140538 
   0.250987500     0.0209703   -0.1752428     0.0000222   -0.0000044     0.0000256   -0.0000071    -0.7980351   -0.3753135 
   0.252987400     0.0083545   -0.1779381     0.0000218   -0.0000093     0.0000258   -0.0000116    -0.8495191   -0.2257060 
   0.254987300    -0.0044926   -0.1787332     0.0000209   -0.0000120     0.0000251   -0.0000152    -0.8734523   -0.0700671 
   0.256987200    -0.0171073   -0.1778415     0.0000185   -0.0000155     0.0000227   -0.0000196    -0.8693546    0.0862250 
   0.258987100    -0.0294479   -0.1754098     0.0000156   -0.0000197     0.0000210   -0.0000240    -0.8380618    0.2388438 
   0.260987000    -0.0412721   -0.1709960     0.0000117   -0.0000221     0.0000161   -0.0000282    -0.7811087    0.3826604 
   0.262986900    -0.0524475   -0.1649653     0.0000087   -0.0000225     0.0000135   -0.0000334    -0.7005792    0.5133028 
   0.264986800    -0.0625915   -0.1574465     0.0000043   -0.0000248     0.0000074   -0.0000342    -0.5993944    0.6272389 
   0.266986700    -0.0714133   -0.1485425     0.0000000   -0.0000256     0.0000008   -0.0000351    -0.4808857    0.7215961 
   0.268986600    -0.0787142   -0.1385617    -0.0000039   -0.0000249    -0.0000051   -0.0000352    -0.3489380    0.7939543 
   0.270986500    -0.0843397   -0.1278017    -0.0000085   -0.0000235    -0.0000126   -0.0000324    -0.2074573    0.8427662 
   0.272986400    -0.0882371   -0.1166045    -0.0000121   -0.0000233    -0.0000150   -0.0000295    -0.0606558    0.8665296 
   0.274986300    -0.0903376   -0.1051164    -0.0000147   -0.0000215    -0.0000190   -0.0000249     0.0872420    0.8654838 
   0.276986200    -0.0906841   -0.0935692    -0.0000188   -0.0000187    -0.0000215   -0.0000214     0.2323038    0.8392804 
   0.278986100    -0.0892325   -0.0822280    -0.0000214   -0.0000167    -0.0000212   -0.0000186     0.3705740    0.7899752 
   0.280986000    -0.0860856   -0.0713905    -0.0000256   -0.0000126    -0.0000236   -0.0000155     0.4985385    0.7188826 
   0.282985900    -0.0812694   -0.0611807    -0.0000272   -0.0000087    -0.0000231   -0.0000120     0.6125105    0.6278918 
   0.284985800    -0.0750612   -0.0521798    -0.0000289   -0.0000038    -0.0000254   -0.0000095     0.7100161    0.5192733 
   0.286985700    -0.0673961   -0.0446782    -0.0000295    0.0000013    -0.0000260   -0.0000072     0.7882013    0.3961465 
   0.288985600    -0.0586848   -0.0388439    -0.0000272    0.0000055    -0.0000274   -0.0000029     0.8453469    0.2615992 
   0.290985500    -0.0490301   -0.0346708    -0.0000261    0.0000096    -0.0000264   -0.0000010     0.8794941    0.1191180 
   0.292985400    -0.0390983   -0.0324876    -0.0000251    0.0000150    -0.0000255    0.0000037     0.8896251   -0.0275068 
   0.294985300    -0.0290008   -0.0322211    -0.0000220    0.0000186    -0.0000243    0.0000083     0.8750091   -0.1743385 
   0.296985200    -0.0190858   -0.0338615    -0.0000189    0.0000207    -0.0000233    0.0000118     0.8363599   -0.3173647 
   0.298985100    -0.0096931   -0.0374022    -0.0000140    0.0000251    -0.0000211    0.0000145     0.7738363   -0.4525606 
   0.300985000    -0.0011892   -0.0428244    -0.0000127    0.0000267    -0.0000180    0.0000189     0.6893535   -0.5758268 
   0.302984900     0.0060824   -0.0499819    -0.0000057    0.0000282    -0.0000120    0.0000203     0.5845903   -0.6836385 
   0.304984800     0.0117929   -0.0585691    -0.0000005    0.0000290    -0.0000103    0.0000233     0.4624963   -0.7726027 
   0.306984700     0.0156705   -0.0683932     0.0000018    0.0000271    -0.0000063    0.0000242     0.3261867   -0.8398894 
   0.308984600     0.0175039   -0.0790670     0.0000083    0.0000265    -0.0000005    0.0000248     0.1798686   -0.8832456 
   0.310984500     0.0171326   -0.0902277     0.0000133    0.0000253     0.0000038    0.0000256     0.0273527   -0.9008059 
   0.312984400     0.0143747   -0.1015253     0.0000160    0.0000224     0.0000074    0.0000237    -0.1264900   -0.8917183 
   0.314984300     0.0092219   -0.1123169     0.0000194    0.0000203     0.0000122    0.0000215    -0.2772127   -0.8559318 
