! MS46122B
! 2250307/22442219
! 8/1/2025 10:32:57 AM
! C:\USERS\SPARKY\DOCUMENTS\VNA_DATA\AUGUST1_2025\3K\PORT4.S2P
! CHANNEL.1
! TR.MEASUREMENT
! RAW.DATA
# GHZ S RI R 50.0
! FREQ.GHZ         S11RE         S11IM         S21RE         S21IM         S12RE         S12IM         S22RE         S22IM         
!; PortSelection: Port_12
   0.001000000     1.0436630   -0.0692518     0.0000044    0.0000007     0.0000110   -0.0000037     0.8170833   -0.5527552 
   0.002999900     0.9518948   -0.1910713     0.0000031   -0.0000017    -0.0000097    0.0000046     0.0377812   -0.8794682 
   0.004999800     0.8774040   -0.2758829    -0.0000016   -0.0000016     0.0000084    0.0000033    -0.7509750   -0.4382393 
   0.006999700     0.7934046   -0.3650729    -0.0000026    0.0000017    -0.0000083    0.0000025    -0.8137906    0.4828510 
   0.008999600     0.7028434   -0.4061323    -0.0000020    0.0000009     0.0000027    0.0000010    -0.1122084    0.9891781 
   0.010999500     0.6247103   -0.4341628    -0.0000020    0.0000033    -0.0000060   -0.0000002     0.5820594    0.7992948 
   0.012999400     0.5560389   -0.4503677    -0.0000002    0.0000028    -0.0000039   -0.0000001     0.9054722    0.3312389 
   0.014999300     0.4964193   -0.4579804    -0.0000009    0.0000013     0.0000005   -0.0000020     0.9371576   -0.1237026 
   0.016999200     0.4445328   -0.4583399     0.0000036    0.0000000    -0.0000038   -0.0000019     0.8050426   -0.4785720 
   0.018999100     0.4009182   -0.4535642     0.0000012   -0.0000002    -0.0000045    0.0000040     0.5913365   -0.7245696 
   0.020999000     0.3649199   -0.4455691     0.0000020   -0.0000009     0.0000011   -0.0000002     0.3445843   -0.8724587 
   0.022998900     0.3343984   -0.4360431     0.0000000   -0.0000043    -0.0000005    0.0000008     0.0926092   -0.9368858 
   0.024998800     0.3047360   -0.4043429     0.0000035    0.0000007     0.0000005   -0.0000022    -0.1375378   -1.0048130 
   0.026998700     0.2876348   -0.4137958     0.0000001   -0.0000033    -0.0000014   -0.0000021    -0.3620573   -0.8727701 
   0.028998600     0.2692407   -0.4023813     0.0000008   -0.0000016     0.0000010   -0.0000009    -0.5451518   -0.7696550 
   0.030998500     0.2529789   -0.3912984    -0.0000001   -0.0000022     0.0000010   -0.0000003    -0.6929937   -0.6355745 
   0.032998400     0.2355472   -0.3638945     0.0000029    0.0000006     0.0000010   -0.0000030    -0.8523638   -0.5296839 
   0.034998300     0.2251624   -0.3707375    -0.0000034    0.0000019    -0.0000003   -0.0000025    -0.8768799   -0.3133691 
   0.036998200     0.2133371   -0.3615897    -0.0000019   -0.0000009    -0.0000007   -0.0000006    -0.9160084   -0.1416747 
   0.038998100     0.2022618   -0.3532166    -0.0000017    0.0000016     0.0000005   -0.0000033    -0.9230396    0.0280833 
   0.040998000     0.1917867   -0.3455725     0.0000006   -0.0000006     0.0000007   -0.0000010    -0.9005240    0.1917584 
   0.042997900     0.1817576   -0.3385134     0.0000019   -0.0000030    -0.0000019   -0.0000022    -0.8514163    0.3455270 
   0.044997800     0.1704878   -0.3181319    -0.0000005   -0.0000006    -0.0000010   -0.0000032    -0.8470446    0.5122468 
   0.046997700     0.1616766   -0.3264925    -0.0000007   -0.0000004    -0.0000004   -0.0000006    -0.6862434    0.6117943 
   0.048997600     0.1523758   -0.3209821    -0.0000032   -0.0000010    -0.0000004   -0.0000001    -0.5751687    0.7186040 
   0.050997500     0.1433013   -0.3158699    -0.0000043   -0.0000006    -0.0000013   -0.0000002    -0.4482853    0.8053716 
   0.052997400     0.1344708   -0.3109770     0.0000006    0.0000010    -0.0000020   -0.0000033    -0.3100500    0.8695776 
   0.054997300     0.1259722   -0.3061970     0.0000048    0.0000001    -0.0000045    0.0000041    -0.1610486    0.9104487 
   0.056997200     0.1172288   -0.3021088    -0.0000002    0.0000001     0.0000006   -0.0000039    -0.0107544    0.9255130 
   0.058997100     0.1090223   -0.2978986    -0.0000015   -0.0000053    -0.0000020    0.0000002     0.1421051    0.9151512 
   0.060997000     0.1010228   -0.2938046    -0.0000015   -0.0000010    -0.0000016   -0.0000012     0.2921768    0.8788316 
   0.062996900     0.0929990   -0.2898383    -0.0000035    0.0000006    -0.0000011   -0.0000007     0.4345333    0.8180028 
   0.064996800     0.0854136   -0.2857741    -0.0000004   -0.0000010    -0.0000011    0.0000009     0.5655543    0.7332055 
   0.066996700     0.0780875   -0.2816817    -0.0000010    0.0000002     0.0000011   -0.0000006     0.6814054    0.6267750 
   0.068996600     0.0710095   -0.2774389     0.0000018   -0.0000017    -0.0000004    0.0000020     0.7788004    0.5002138 
   0.070996500     0.0642411   -0.2732912    -0.0000024    0.0000006    -0.0000019    0.0000017     0.8535203    0.3580234 
   0.072996400     0.0576718   -0.2687184     0.0000009    0.0000012     0.0000020    0.0000005     0.9031317    0.2033378 
   0.074996300     0.0513660   -0.2639360     0.0000012    0.0000002     0.0000014    0.0000029     0.9251481    0.0407061 
   0.076996200     0.0453289   -0.2589150     0.0000011    0.0000011     0.0000005   -0.0000007     0.9175617   -0.1257461 
   0.078996100     0.0395854   -0.2536338    -0.0000028    0.0000005     0.0000016   -0.0000010     0.8804652   -0.2892407 
   0.080996000     0.0340382   -0.2482079    -0.0000027   -0.0000014     0.0000017   -0.0000017     0.8133054   -0.4445449 
   0.082995900     0.0287712   -0.2426099     0.0000014    0.0000020     0.0000004   -0.0000012     0.7183200   -0.5857559 
   0.084995800     0.0238910   -0.2364941    -0.0000011   -0.0000004     0.0000015    0.0000016     0.5975669   -0.7083136 
   0.086995700     0.0193346   -0.2304436    -0.0000013   -0.0000023    -0.0000014   -0.0000007     0.4560683   -0.8067017 
   0.088995600     0.0152937   -0.2243671     0.0000014   -0.0000012     0.0000030   -0.0000022     0.2982036   -0.8767940 
   0.090995500     0.0116306   -0.2182039    -0.0000019   -0.0000009     0.0000013    0.0000017     0.1296927   -0.9160313 
   0.092995400     0.0085074   -0.2121936     0.0000015    0.0000003    -0.0000018   -0.0000036    -0.0432321   -0.9235412 
   0.094995300     0.0058208   -0.2059906     0.0000018   -0.0000021    -0.0000002   -0.0000019    -0.2138155   -0.8988636 
   0.096995200     0.0034919   -0.1997584     0.0000033   -0.0000008     0.0000010   -0.0000011    -0.3763998   -0.8428651 
   0.098995100     0.0015613   -0.1935804     0.0000010   -0.0000034    -0.0000014   -0.0000031    -0.5252977   -0.7585255 
   0.100995000    -0.0011642   -0.1886625     0.0000018   -0.0000006     0.0000007   -0.0000012    -0.6566705   -0.6487444 
   0.102994900    -0.0021629   -0.1829466     0.0000006   -0.0000010     0.0000002   -0.0000010    -0.7638010   -0.5181042 
   0.104994800    -0.0026922   -0.1774978     0.0000001   -0.0000013     0.0000004   -0.0000010    -0.8446121   -0.3715064 
   0.106994700    -0.0027831   -0.1722159     0.0000003   -0.0000024     0.0000022   -0.0000005    -0.8973243   -0.2137343 
   0.108994600    -0.0025181   -0.1673953     0.0000000   -0.0000024     0.0000023    0.0000000    -0.9208987   -0.0507180 
   0.110994500    -0.0019751   -0.1629618     0.0000003   -0.0000011     0.0000009   -0.0000030    -0.9152935    0.1122776 
   0.112994400    -0.0011318   -0.1589300     0.0000005   -0.0000001     0.0000007   -0.0000012    -0.8815351    0.2702650 
   0.114994300    -0.0000792   -0.1553181    -0.0000006   -0.0000005    -0.0000004   -0.0000014    -0.8215990    0.4187604 
   0.116994200     0.0011537   -0.1521284    -0.0000017   -0.0000013    -0.0000012   -0.0000010    -0.7374128    0.5534661 
   0.118994100     0.0024887   -0.1493810    -0.0000005   -0.0000009    -0.0000008    0.0000008    -0.6323150    0.6704642 
   0.120994000     0.0039746   -0.1468166    -0.0000019   -0.0000011    -0.0000003   -0.0000001    -0.5097558    0.7669739 
   0.122993900     0.0053171   -0.1449274    -0.0000007   -0.0000001    -0.0000008   -0.0000011    -0.3736274    0.8413655 
   0.124993800     0.0066191   -0.1434965    -0.0000010   -0.0000013    -0.0000007   -0.0000022    -0.2278631    0.8916340 
   0.126993700     0.0077940   -0.1424706    -0.0000011   -0.0000017    -0.0000016   -0.0000005    -0.0764800    0.9164267 
   0.128993600     0.0087500   -0.1416973    -0.0000017   -0.0000001    -0.0000007    0.0000010     0.0762232    0.9160596 
   0.130993500     0.0094888   -0.1414031    -0.0000017    0.0000000     0.0000000   -0.0000009     0.2265081    0.8901240 
   0.132993400     0.0099821   -0.1413741    -0.0000022    0.0000012    -0.0000001    0.0000010     0.3702217    0.8397983 
   0.134993300     0.0101893   -0.1416565    -0.0000014    0.0000003     0.0000000    0.0000011     0.5033874    0.7664366 
   0.136993200     0.0100159   -0.1420473    -0.0000008    0.0000011     0.0000002   -0.0000002     0.6224361    0.6720629 
   0.138993100     0.0094685   -0.1426316    -0.0000009    0.0000003    -0.0000003   -0.0000001     0.7242877    0.5588418 
   0.140993000     0.0085559   -0.1432606     0.0000007    0.0000013    -0.0000006   -0.0000003     0.8063760    0.4298734 
   0.142992900     0.0072182   -0.1438758     0.0000004    0.0000020    -0.0000006   -0.0000004     0.8656576    0.2889029 
   0.144992800     0.0055435   -0.1444489    -0.0000005    0.0000019     0.0000009    0.0000008     0.9000110    0.1392678 
   0.146992700     0.0034431   -0.1448672    -0.0000012    0.0000021    -0.0000009    0.0000009     0.9090295   -0.0144994 
   0.148992600     0.0009495   -0.1451008     0.0000004    0.0000006     0.0000007    0.0000009     0.8918396   -0.1682292 
   0.150992500    -0.0017717   -0.1449696    -0.0000022    0.0000007     0.0000010   -0.0000009     0.8491477   -0.3175264 
   0.152992400    -0.0048680   -0.1446236    -0.0000012    0.0000016     0.0000005    0.0000002     0.7806545   -0.4576649 
   0.154992300    -0.0081575   -0.1439275     0.0000005   -0.0000003     0.0000001   -0.0000012     0.6886692   -0.5841298 
   0.156992200    -0.0116689   -0.1428733    -0.0000002    0.0000006     0.0000001    0.0000001     0.5757867   -0.6933845 
   0.158992100    -0.0152495   -0.1414133     0.0000010    0.0000003     0.0000017   -0.0000003     0.4451934   -0.7814662 
   0.160992000    -0.0188839   -0.1394927     0.0000017    0.0000008     0.0000010    0.0000000     0.3008873   -0.8457003 
   0.162991900    -0.0225187   -0.1370937    -0.0000003    0.0000006     0.0000007    0.0000006     0.1472382   -0.8837166 
   0.164991800    -0.0260915   -0.1342119     0.0000023    0.0000012     0.0000020   -0.0000018    -0.0110453   -0.8942178 
   0.166991700    -0.0294441   -0.1308687     0.0000014    0.0000008     0.0000016   -0.0000008    -0.1682867   -0.8768501 
   0.168991600    -0.0326433   -0.1270476    -0.0000006    0.0000012     0.0000000   -0.0000002    -0.3202921   -0.8321446 
   0.170991500    -0.0354977   -0.1227967     0.0000012    0.0000008     0.0000009   -0.0000004    -0.4619638   -0.7611488 
   0.172991400    -0.0379351   -0.1181463     0.0000015    0.0000006     0.0000030    0.0000019    -0.5885952   -0.6666796 
   0.174991300    -0.0398981   -0.1131563    -0.0000012   -0.0000004     0.0000011    0.0000009    -0.6965851   -0.5519521 
   0.176991200    -0.0414196   -0.1078552     0.0000001    0.0000005     0.0000017   -0.0000005    -0.7823647   -0.4207957 
   0.178991100    -0.0423567   -0.1023104     0.0000009   -0.0000006     0.0000003    0.0000006    -0.8439096   -0.2768232 
   0.180991000    -0.0427380   -0.0966471     0.0000020   -0.0000011     0.0000037    0.0000000    -0.8792894   -0.1251229 
   0.182990900    -0.0424499   -0.0907977     0.0000012   -0.0000002     0.0000037    0.0000001    -0.8878646    0.0295446 
   0.184990800    -0.0414875   -0.0849768     0.0000000    0.0000005     0.0000048   -0.0000002    -0.8699382    0.1825740 
   0.186990700    -0.0398334   -0.0793078     0.0000003   -0.0000023     0.0000018   -0.0000023    -0.8263105    0.3296617 
   0.188990600    -0.0359548   -0.0746716     0.0000008   -0.0000020     0.0000042   -0.0000024    -0.7727727    0.4459192 
   0.190990500    -0.0342945   -0.0686849     0.0000001   -0.0000029     0.0000010   -0.0000039    -0.6720577    0.5872583 
   0.192990400    -0.0308767   -0.0637183    -0.0000002   -0.0000037     0.0000011   -0.0000039    -0.5614114    0.6950922 
   0.194990300    -0.0266518   -0.0593354    -0.0000009   -0.0000025     0.0000003   -0.0000038    -0.4374859    0.7808536 
   0.196990200    -0.0219099   -0.0555174     0.0000002   -0.0000024     0.0000014   -0.0000031    -0.3015704    0.8446140 
   0.198990100    -0.0167456   -0.0523463    -0.0000012   -0.0000010     0.0000006   -0.0000020    -0.1574338    0.8847604 
   0.200990000    -0.0111882   -0.0498699    -0.0000015   -0.0000003     0.0000017   -0.0000019    -0.0090655    0.9004124 
   0.202989900    -0.0053565   -0.0481695    -0.0000022   -0.0000013     0.0000000   -0.0000017     0.1397586    0.8912097 
   0.204989800     0.0006749   -0.0472243    -0.0000028   -0.0000009     0.0000011   -0.0000017     0.2852250    0.8578253 
   0.206989700     0.0067617   -0.0471115    -0.0000031   -0.0000008     0.0000020   -0.0000014     0.4231259    0.8011591 
   0.208989600     0.0128356   -0.0478783    -0.0000024    0.0000000     0.0000015   -0.0000019     0.5499742    0.7223096 
   0.210989500     0.0187744   -0.0494644    -0.0000012   -0.0000008     0.0000014   -0.0000034     0.6621876    0.6231674 
   0.212989400     0.0244224   -0.0519268    -0.0000001    0.0000006    -0.0000006   -0.0000024     0.7568949    0.5064892 
   0.214989300     0.0296761   -0.0551709    -0.0000030    0.0000003    -0.0000004   -0.0000024     0.8311703    0.3754839 
   0.216989200     0.0344292   -0.0590666    -0.0000015    0.0000011    -0.0000007   -0.0000029     0.8827853    0.2332148 
   0.218989100     0.0385816   -0.0636585    -0.0000026    0.0000010     0.0000008   -0.0000017     0.9098881    0.0838622 
   0.220989000     0.0420652   -0.0688266    -0.0000027    0.0000013     0.0000021   -0.0000030     0.9116039   -0.0689334 
   0.222988900     0.0447791   -0.0744779    -0.0000008    0.0000034    -0.0000011   -0.0000007     0.8872639   -0.2205987 
   0.224988800     0.0467047   -0.0804943    -0.0000004    0.0000022     0.0000000   -0.0000023     0.8373750   -0.3668356 
   0.226988700     0.0477627   -0.0867508     0.0000008    0.0000024     0.0000007   -0.0000022     0.7626913   -0.5027773 
   0.228988600     0.0479582   -0.0931319    -0.0000001    0.0000024     0.0000005   -0.0000018     0.6650704   -0.6247324 
   0.230988500     0.0472446   -0.0995463     0.0000000    0.0000021     0.0000009   -0.0000026     0.5471510   -0.7282997 
   0.232988400     0.0455615   -0.1057745     0.0000004    0.0000021     0.0000004   -0.0000024     0.4123238   -0.8103818 
   0.234988300     0.0430863   -0.1118541     0.0000005    0.0000017     0.0000021   -0.0000020     0.2644954   -0.8676171 
   0.236988200     0.0397737   -0.1175764    -0.0000001    0.0000031     0.0000009   -0.0000023     0.1085064   -0.8980399 
   0.238988100     0.0356925   -0.1228624     0.0000018    0.0000019     0.0000005   -0.0000005    -0.0510928   -0.9002901 
   0.240988000     0.0309484   -0.1275332     0.0000011    0.0000020     0.0000005   -0.0000015    -0.2085797   -0.8740780 
   0.242987900     0.0256529   -0.1316080     0.0000007    0.0000007     0.0000021   -0.0000013    -0.3591700   -0.8200417 
   0.244987800     0.0198710   -0.1350711     0.0000028   -0.0000007     0.0000039   -0.0000006    -0.4975248   -0.7403336 
   0.246987700     0.0136252   -0.1376544     0.0000022   -0.0000011     0.0000023   -0.0000019    -0.6195696   -0.6371157 
   0.248987600     0.0070602   -0.1393807     0.0000016   -0.0000004     0.0000033   -0.0000033    -0.7206295   -0.5140386 
   0.250987500     0.0003147   -0.1401839     0.0000018   -0.0000006     0.0000051   -0.0000023    -0.7980490   -0.3752705 
   0.252987400    -0.0065225   -0.1403336     0.0000012   -0.0000011     0.0000054   -0.0000032    -0.8495389   -0.2256777 
   0.254987300    -0.0130487   -0.1394748     0.0000023   -0.0000017     0.0000054   -0.0000047    -0.8734895   -0.0700028 
   0.256987200    -0.0193352   -0.1378105     0.0000008   -0.0000026     0.0000058   -0.0000060    -0.8693535    0.0862763 
   0.258987100    -0.0253326   -0.1355666     0.0000024   -0.0000016     0.0000054   -0.0000076    -0.8380610    0.2389119 
   0.260987000    -0.0309103   -0.1323191     0.0000002   -0.0000028     0.0000053   -0.0000100    -0.7810746    0.3826770 
   0.262986900    -0.0360340   -0.1283304     0.0000001   -0.0000034     0.0000043   -0.0000105    -0.7005363    0.5133325 
   0.264986800    -0.0404999   -0.1238846    -0.0000005   -0.0000021     0.0000015   -0.0000133    -0.5993562    0.6272649 
   0.266986700    -0.0443005   -0.1189676    -0.0000007   -0.0000012    -0.0000010   -0.0000142    -0.4809410    0.7216392 
   0.268986600    -0.0473684   -0.1137990    -0.0000027   -0.0000020    -0.0000036   -0.0000124    -0.3488619    0.7939082 
   0.270986500    -0.0495516   -0.1084973    -0.0000035   -0.0000034    -0.0000062   -0.0000095    -0.2073998    0.8427332 
   0.272986400    -0.0508463   -0.1030828    -0.0000021   -0.0000036    -0.0000070   -0.0000082    -0.0605701    0.8665045 
   0.274986300    -0.0512856   -0.0977417    -0.0000033   -0.0000021    -0.0000065   -0.0000039     0.0873185    0.8655229 
   0.276986200    -0.0509249   -0.0925397    -0.0000018   -0.0000012    -0.0000046   -0.0000035     0.2323619    0.8392117 
   0.278986100    -0.0498381   -0.0876214    -0.0000034   -0.0000022    -0.0000030   -0.0000038     0.3706095    0.7899500 
   0.280986000    -0.0480039   -0.0829772    -0.0000020   -0.0000021    -0.0000007   -0.0000044     0.4985553    0.7188755 
   0.282985900    -0.0455804   -0.0788848    -0.0000034   -0.0000002     0.0000002   -0.0000063     0.6125003    0.6278642 
   0.284985800    -0.0425334   -0.0754992    -0.0000014   -0.0000007    -0.0000008   -0.0000064     0.7100715    0.5192717 
   0.286985700    -0.0391148   -0.0729056    -0.0000025    0.0000002    -0.0000010   -0.0000092     0.7882234    0.3960772 
   0.288985600    -0.0352940   -0.0711688    -0.0000028    0.0000018    -0.0000023   -0.0000095     0.8453405    0.2615624 
   0.290985500    -0.0313612   -0.0704228    -0.0000025   -0.0000005    -0.0000049   -0.0000087     0.8794945    0.1191152 
   0.292985400    -0.0274212   -0.0705623    -0.0000025    0.0000018    -0.0000054   -0.0000107     0.8896346   -0.0275236 
   0.294985300    -0.0236343   -0.0716158    -0.0000028    0.0000028    -0.0000058   -0.0000092     0.8750142   -0.1743762 
   0.296985200    -0.0201827   -0.0735122    -0.0000031    0.0000014    -0.0000069   -0.0000072     0.8363728   -0.3174094 
   0.298985100    -0.0172671   -0.0762080    -0.0000015    0.0000003    -0.0000093   -0.0000063     0.7738227   -0.4526082 
   0.300985000    -0.0150222   -0.0796877    -0.0000028    0.0000022    -0.0000094   -0.0000039     0.6893660   -0.5758536 
   0.302984900    -0.0135454   -0.0838467    -0.0000016    0.0000036    -0.0000089   -0.0000030     0.5846048   -0.6836896 
   0.304984800    -0.0130344   -0.0885867    -0.0000024    0.0000043    -0.0000105   -0.0000016     0.4625371   -0.7726402 
   0.306984700    -0.0136274   -0.0937762    -0.0000005    0.0000030    -0.0000090    0.0000002     0.3261508   -0.8399448 
   0.308984600    -0.0153971   -0.0994873     0.0000010    0.0000032    -0.0000087    0.0000002     0.1798463   -0.8832861 
   0.310984500    -0.0183040   -0.1049707    -0.0000010    0.0000026    -0.0000073    0.0000037     0.0272839   -0.9008533 
   0.312984400    -0.0225582   -0.1101587     0.0000019    0.0000025    -0.0000066    0.0000029    -0.1265116   -0.8917205 
   0.314984300    -0.0281740   -0.1148220     0.0000014    0.0000013    -0.0000049    0.0000041    -0.2771664   -0.8559833 
