! MS46122B
! 2250307/22442219
! 8/1/2025 10:37:16 AM
! C:\USERS\SPARKY\DOCUMENTS\VNA_DATA\AUGUST1_2025\3K\PORT1_REPEAT2.S2P
! CHANNEL.1
! TR.MEASUREMENT
! RAW.DATA
# GHZ S RI R 50.0
! FREQ.GHZ         S11RE         S11IM         S21RE         S21IM         S12RE         S12IM         S22RE         S22IM         
!; PortSelection: Port_12
   0.001000000     1.0441550   -0.0686846    -0.0004266   -0.0010281    -0.0003763   -0.0010491     0.8181992   -0.5512688 
   0.002999900     0.9604574   -0.1957108    -0.0236108   -0.0155041    -0.0246350   -0.0161695     0.0657829   -0.8777874 
   0.004999800     0.8701733   -0.3132974    -0.1433124    0.0274152    -0.1506914    0.0319066    -0.6946210   -0.3624033 
   0.006999700     0.7716556   -0.4068564    -0.1875915    0.1383777    -0.1919687    0.1520498    -0.7386130    0.2682310 
   0.008999600     0.5934662   -0.3995190    -0.0546925    0.5185528    -0.0366911    0.5273053     0.3091012    0.6056575 
   0.010999500     0.5684109   -0.3260063     0.3821569    0.4867283     0.3898038    0.4903440     0.4682162   -0.2713231 
   0.012999400     0.5831478   -0.3390544     0.5622926    0.2431906     0.5773469    0.2502777    -0.0126856   -0.5504211 
   0.014999300     0.5721959   -0.3820397     0.6017311    0.0369418     0.6224992    0.0357149    -0.3739121   -0.4468021 
   0.016999200     0.5417510   -0.4251457     0.5895764   -0.1279190     0.6086292   -0.1392356    -0.5566339   -0.2269219 
   0.018999100     0.5005974   -0.4619737     0.5500335   -0.2692873     0.5619090   -0.2872215    -0.6055204    0.0094212 
   0.020999000     0.4513441   -0.4899186     0.4885693   -0.3930586     0.4912795   -0.4128391    -0.5541269    0.2178317 
   0.022998900     0.3978447   -0.5078069     0.4073310   -0.5018870     0.4019186   -0.5185031    -0.4352024    0.3751281 
   0.024998800     0.3389162   -0.4901744     0.3484915   -0.6028485     0.2885869   -0.6099641    -0.3047559    0.5048946 
   0.026998700     0.2877391   -0.5071740     0.1858139   -0.6692695     0.1732062   -0.6710113    -0.1057600    0.5033404 
   0.028998600     0.2370608   -0.4891018     0.0471608   -0.7187687     0.0373931   -0.7132342     0.0584915    0.4755362 
   0.030998500     0.1938472   -0.4605255    -0.1049167   -0.7383973    -0.1084359   -0.7282238     0.1963348    0.3962120 
   0.032998400     0.1620773   -0.4075594    -0.2368142   -0.7642201    -0.2687393   -0.7105575     0.3139523    0.3089803 
   0.034998300     0.1412797   -0.3851608    -0.4174849   -0.6691074    -0.4083339   -0.6625936     0.3384139    0.1412817 
   0.036998200     0.1334566   -0.3473305    -0.5581703   -0.5799216    -0.5464301   -0.5787486     0.3301908    0.0034322 
   0.038998100     0.1361707   -0.3151038    -0.6747808   -0.4591056    -0.6644420   -0.4638652     0.2738871   -0.1147356 
   0.040998000     0.1460674   -0.2914389    -0.7601904   -0.3150510    -0.7543096   -0.3233871     0.1820082   -0.1983872 
   0.042997900     0.1591657   -0.2775859    -0.8112742   -0.1580083    -0.8099787   -0.1665059     0.0716907   -0.2384014 
   0.044997800     0.1689354   -0.2606919    -0.8588075   -0.0380797    -0.8310684    0.0077546    -0.0355423   -0.2500960 
   0.046997700     0.1793630   -0.2766930    -0.8083082    0.1613092    -0.8132138    0.1591686    -0.1368889   -0.1916133 
   0.048997600     0.1824005   -0.2848905    -0.7615713    0.3082575    -0.7654487    0.3095179    -0.2074256   -0.1202889 
   0.050997500     0.1791555   -0.2953750    -0.6903518    0.4405107    -0.6912137    0.4442549    -0.2460672   -0.0328751 
   0.052997400     0.1699873   -0.3057256    -0.5982032    0.5551678    -0.5965126    0.5583381    -0.2513865    0.0586843 
   0.054997300     0.1558930   -0.3139055    -0.4868577    0.6527919    -0.4870455    0.6508632    -0.2256579    0.1429829 
   0.056997200     0.1379480   -0.3188798    -0.3680452    0.7261751    -0.3625966    0.7240885    -0.1752126    0.2111245 
   0.058997100     0.1184893   -0.3193159    -0.2371616    0.7795201    -0.2316885    0.7740814    -0.1063315    0.2574661 
   0.060997000     0.0988841   -0.3150659    -0.0991276    0.8102504    -0.0963685    0.8020645    -0.0275816    0.2781324 
   0.062996900     0.0805840   -0.3064851     0.0425577    0.8175861     0.0411986    0.8082297     0.0528380    0.2721047 
   0.064996800     0.0655823   -0.2943032     0.1842058    0.8011856     0.1779911    0.7920721     0.1260935    0.2411223 
   0.066996700     0.0546595   -0.2798164     0.3216473    0.7602800     0.3116554    0.7535281     0.1852267    0.1890076 
   0.068996600     0.0483355   -0.2644026     0.4506885    0.6953503     0.4381938    0.6927343     0.2247951    0.1210805 
   0.070996500     0.0466608   -0.2499781     0.5675734    0.6084519     0.5541642    0.6104365     0.2408703    0.0449909 
   0.072996400     0.0489679   -0.2375458     0.6674430    0.5013952     0.6546723    0.5078556     0.2323742   -0.0314688 
   0.074996300     0.0541942   -0.2285076     0.7461185    0.3776259     0.7361721    0.3873889     0.2006917   -0.1010185 
   0.076996200     0.0607951   -0.2236304     0.8009292    0.2417544     0.7948343    0.2532806     0.1494614   -0.1559411 
   0.078996100     0.0672170   -0.2229808     0.8302525    0.0982410     0.8280643    0.1102240     0.0842784   -0.1916876 
   0.080996000     0.0718730   -0.2262072     0.8340162   -0.0471854     0.8339849   -0.0360290     0.0124639   -0.2046671 
   0.082995900     0.0734884   -0.2323311     0.8115351   -0.1898735     0.8133892   -0.1805867    -0.0587492   -0.1944914 
   0.084995800     0.0714828   -0.2397049     0.7644312   -0.3245325     0.7670269   -0.3171702    -0.1214376   -0.1630905 
   0.086995700     0.0655147   -0.2475093     0.6960654   -0.4485687     0.6985574   -0.4420547    -0.1702661   -0.1146497 
   0.088995600     0.0557635   -0.2541400     0.6090572   -0.5584849     0.6108551   -0.5510406    -0.2007494   -0.0548822 
   0.090995500     0.0428601   -0.2584132     0.5055842   -0.6512926     0.5073583   -0.6428594    -0.2112243    0.0095922 
   0.092995400     0.0274217   -0.2599896     0.3895146   -0.7255635     0.3923601   -0.7157554    -0.2015693    0.0724908 
   0.094995300     0.0110956   -0.2571462     0.2631053   -0.7790349     0.2676235   -0.7686207    -0.1741758    0.1279988 
   0.096995200    -0.0049067   -0.2504118     0.1304652   -0.8118256     0.1375379   -0.8007701    -0.1323846    0.1712492 
   0.098995100    -0.0195402   -0.2399232    -0.0056044   -0.8223452     0.0045011   -0.8123307    -0.0807025    0.1991438 
   0.100995000    -0.0335970   -0.2262249    -0.1434011   -0.8105775    -0.1300014   -0.8031737    -0.0224007    0.2102422 
   0.102994900    -0.0423468   -0.2101557    -0.2761732   -0.7765172    -0.2604047   -0.7725697     0.0323805    0.2029507 
   0.104994800    -0.0472559   -0.1929028    -0.4018548   -0.7210382    -0.3849601   -0.7211954     0.0807388    0.1796844 
   0.106994700    -0.0481451   -0.1755104    -0.5169737   -0.6446063    -0.5010167   -0.6497173     0.1184440    0.1438094 
   0.108994600    -0.0453905   -0.1592720    -0.6186197   -0.5501729    -0.6046636   -0.5592745     0.1420218    0.0995624 
   0.110994500    -0.0394534   -0.1451539    -0.7031704   -0.4395231    -0.6922688   -0.4517354     0.1499733    0.0517316 
   0.112994400    -0.0310833   -0.1337290    -0.7681584   -0.3156621    -0.7606934   -0.3297351     0.1422709    0.0054200 
   0.114994300    -0.0213598   -0.1257178    -0.8112885   -0.1821794    -0.8073070   -0.1967899     0.1206310   -0.0342417 
   0.116994200    -0.0113303   -0.1209612    -0.8307486   -0.0430782    -0.8301107   -0.0570962     0.0879344   -0.0632044 
   0.118994100    -0.0019593   -0.1191486    -0.8261365    0.0973513    -0.8281278    0.0845377     0.0485294   -0.0788230 
   0.120994000     0.0062696   -0.1197715    -0.7982313    0.2347875    -0.8015974    0.2232363     0.0073258   -0.0795958 
   0.122993900     0.0124702   -0.1220808    -0.7469751    0.3651415    -0.7513683    0.3550125    -0.0308538   -0.0659228 
   0.124993800     0.0166476   -0.1252704    -0.6747697    0.4847489    -0.6798132    0.4755702    -0.0610707   -0.0398993 
   0.126993700     0.0189031   -0.1286581    -0.5836461    0.5900544    -0.5895675    0.5810547    -0.0796618   -0.0054755 
   0.128993600     0.0195200   -0.1315076    -0.4762315    0.6780839    -0.4833540    0.6694301    -0.0847334    0.0332352 
   0.130993500     0.0191184   -0.1336571    -0.3561724    0.7471575    -0.3649134    0.7387894    -0.0757442    0.0714616 
   0.132993400     0.0181327   -0.1348412    -0.2266265    0.7951635    -0.2374627    0.7876427    -0.0537583    0.1044161 
   0.134993300     0.0171490   -0.1351115    -0.0912641    0.8210457    -0.1042844    0.8153430    -0.0213007    0.1283074 
   0.136993200     0.0165917   -0.1347581     0.0463028    0.8240727     0.0313827    0.8208213     0.0182797    0.1401140 
   0.138993100     0.0166827   -0.1341984     0.1825578    0.8044407     0.1664422    0.8043716     0.0603191    0.1382188 
   0.140993000     0.0174948   -0.1338404     0.3133971    0.7621187     0.2970393    0.7659785     0.1005365    0.1225418 
   0.142992900     0.0188602   -0.1342099     0.4353403    0.6988555     0.4201911    0.7066134     0.1343929    0.0941834 
   0.144992800     0.0205775   -0.1357308     0.5452207    0.6164379     0.5320976    0.6276370     0.1582249    0.0556748 
   0.146992700     0.0219805   -0.1383906     0.6390408    0.5164922     0.6291073    0.5300463     0.1694330    0.0108976 
   0.148992600     0.0226205   -0.1424333     0.7151655    0.4025350     0.7086843    0.4175222     0.1665666   -0.0360147 
   0.150992500     0.0219920   -0.1473138     0.7704449    0.2779014     0.7672203    0.2930027     0.1495982   -0.0808061 
   0.152992400     0.0195310   -0.1529406     0.8042812    0.1459248     0.8040701    0.1603213     0.1195295   -0.1189403 
   0.154992300     0.0150453   -0.1586421     0.8155425    0.0107433     0.8174533    0.0242758     0.0789814   -0.1469977 
   0.156992200     0.0084282   -0.1637482     0.8042714   -0.1237179     0.8077961   -0.1117922     0.0316858   -0.1620511 
   0.158992100    -0.0001744   -0.1678247     0.7710553   -0.2536374     0.7756153   -0.2430649    -0.0183419   -0.1625777 
   0.160992000    -0.0103752   -0.1698195     0.7171228   -0.3760439     0.7225599   -0.3659583    -0.0662651   -0.1485759 
   0.162991900    -0.0216618   -0.1694561     0.6443976   -0.4873236     0.6507567   -0.4777273    -0.1080094   -0.1214798 
   0.164991800    -0.0334576   -0.1663328     0.5551452   -0.5849820     0.5623401   -0.5758640    -0.1400504   -0.0836711 
   0.166991700    -0.0449307   -0.1604564     0.4518220   -0.6664314     0.4604986   -0.6577235    -0.1596643   -0.0389561 
   0.168991600    -0.0552494   -0.1520355     0.3368334   -0.7302028     0.3475764   -0.7223108    -0.1657133    0.0088128 
   0.170991500    -0.0639113   -0.1413959     0.2135073   -0.7745821     0.2261114   -0.7682737    -0.1579649    0.0556307 
   0.172991400    -0.0700737   -0.1286617     0.0847219   -0.7989458     0.0990238   -0.7947510    -0.1378598    0.0973671 
   0.174991300    -0.0734411   -0.1150426    -0.0463087   -0.8023121    -0.0306783   -0.8009025    -0.1075627    0.1308270 
   0.176991200    -0.0738831   -0.1009550    -0.1765866   -0.7843947    -0.1603218   -0.7863968    -0.0699891    0.1535925 
   0.178991100    -0.0715061   -0.0874122    -0.3024197   -0.7458516    -0.2869588   -0.7515565    -0.0289830    0.1644126 
   0.180991000    -0.0665062   -0.0750364    -0.4211607   -0.6875922    -0.4067757   -0.6961951     0.0118568    0.1631753 
   0.182990900    -0.0592311   -0.0643837    -0.5287246   -0.6098174    -0.5164511   -0.6216459     0.0488763    0.1506198 
   0.184990800    -0.0503343   -0.0559841    -0.6224520   -0.5151437    -0.6135546   -0.5289963     0.0794383    0.1289064 
   0.186990700    -0.0405437   -0.0499867    -0.6995648   -0.4062686    -0.6938898   -0.4208151     0.1008169    0.1007480 
   0.188990600    -0.0297703   -0.0472479    -0.7478967   -0.3081417    -0.7469304   -0.3191707     0.1097922    0.0725026 
   0.190990500    -0.0209344   -0.0454184    -0.7934466   -0.1595749    -0.7941586   -0.1739111     0.1130392    0.0387347 
   0.192990400    -0.0124965   -0.0460490    -0.8091639   -0.0226059    -0.8124895   -0.0365231     0.1050610    0.0104426 
   0.194990300    -0.0053330   -0.0481356    -0.8017431    0.1115079    -0.8068208    0.0990152     0.0894580   -0.0114787 
   0.196990200     0.0002790   -0.0510742    -0.7720976    0.2424357    -0.7785940    0.2307805     0.0690397   -0.0255445 
   0.198990100     0.0043188   -0.0542915    -0.7211268    0.3662352    -0.7290290    0.3557758     0.0467847   -0.0309909 
   0.200990000     0.0070613   -0.0573521    -0.6500645    0.4801425    -0.6594968    0.4705911     0.0256760   -0.0281108 
   0.202989900     0.0087335   -0.0598400    -0.5616470    0.5802996    -0.5722270    0.5721899     0.0085480   -0.0181626 
   0.204989800     0.0098101   -0.0614320    -0.4581403    0.6643444    -0.4697811    0.6577881    -0.0024543   -0.0031869 
   0.206989700     0.0107113   -0.0621618    -0.3423816    0.7303816    -0.3553415    0.7253392    -0.0061389    0.0142541 
   0.208989600     0.0118847   -0.0620919    -0.2174491    0.7761346    -0.2318103    0.7731854    -0.0022942    0.0314003 
   0.210989500     0.0136603   -0.0614597    -0.0868019    0.8010606    -0.1017511    0.8007104     0.0083495    0.0455842 
   0.212989400     0.0162877   -0.0606131     0.0459906    0.8039994     0.0316665    0.8064461     0.0244395    0.0545585 
   0.214989300     0.0198950   -0.0599282     0.1778620    0.7851444     0.1643909    0.7902079     0.0435140    0.0567922 
   0.216989200     0.0244100   -0.0598283     0.3043903    0.7448367     0.2921998    0.7524025     0.0630329    0.0515500 
   0.218989100     0.0296395   -0.0607335     0.4228266    0.6841431     0.4122410    0.6940394     0.0803933    0.0389574 
   0.220989000     0.0352747   -0.0629249     0.5294339    0.6046582     0.5210667    0.6158864     0.0931594    0.0200815 
   0.222988900     0.0409352   -0.0666290     0.6215624    0.5087244     0.6158078    0.5203028     0.0992787   -0.0031727 
   0.224988800     0.0461701   -0.0718221     0.6963603    0.3988267     0.6927978    0.4102054     0.0973360   -0.0282945 
   0.226988700     0.0505435   -0.0784655     0.7518438    0.2779401     0.7501015    0.2893669     0.0870427   -0.0527196 
   0.228988600     0.0536763   -0.0862948     0.7861922    0.1499424     0.7858723    0.1612966     0.0688889   -0.0735019 
   0.230988500     0.0552318   -0.0950285     0.7990298    0.0181817     0.7996921    0.0297928     0.0441633   -0.0882897 
   0.232988400     0.0549055   -0.1041357     0.7891857   -0.1133122     0.7916856   -0.1018881     0.0150887   -0.0949294 
   0.234988300     0.0526974   -0.1134053     0.7583931   -0.2412304     0.7622530   -0.2300005    -0.0154514   -0.0923182 
   0.236988200     0.0486297   -0.1222262     0.7066745   -0.3619998     0.7124313   -0.3510865    -0.0443954   -0.0803599 
   0.238988100     0.0428884   -0.1301874     0.6365349   -0.4720866     0.6439676   -0.4616371    -0.0690139   -0.0598490 
   0.240988000     0.0357288   -0.1369260     0.5493115   -0.5686394     0.5590852   -0.5592758    -0.0867591   -0.0326325 
   0.242987900     0.0275708   -0.1423359     0.4479814   -0.6495767     0.4605171   -0.6414130    -0.0957544   -0.0007575 
   0.244987800     0.0186644   -0.1459048     0.3350137   -0.7125337     0.3501976   -0.7066256    -0.0950058    0.0327999 
   0.246987700     0.0093752   -0.1477626     0.2139294   -0.7563543     0.2307377   -0.7535372    -0.0844397    0.0648922 
   0.248987600     0.0000767   -0.1480629     0.0880592   -0.7798025     0.1044549   -0.7808557    -0.0649371    0.0927206 
   0.250987500    -0.0088387   -0.1467241    -0.0405149   -0.7824386    -0.0245262   -0.7872762    -0.0380287    0.1138718 
   0.252987400    -0.0169051   -0.1440125    -0.1671318   -0.7644770    -0.1528167   -0.7728139    -0.0061673    0.1264776 
   0.254987300    -0.0239534   -0.1402258    -0.2891113   -0.7263167    -0.2766130   -0.7375942     0.0277866    0.1294149 
   0.256987200    -0.0299272   -0.1356836    -0.4029739   -0.6690538    -0.3934953   -0.6824529     0.0610015    0.1226375 
   0.258987100    -0.0348900   -0.1307252    -0.5063928   -0.5942828    -0.4997021   -0.6088413     0.0908854    0.1067704 
   0.260987000    -0.0387319   -0.1252384    -0.5959959   -0.5033602    -0.5925750   -0.5183008     0.1145476    0.0834713 
   0.262986900    -0.0416047   -0.1198089    -0.6697020   -0.3992694    -0.6693776   -0.4134969     0.1302772    0.0548712 
   0.264986800    -0.0435887   -0.1145362    -0.7257609   -0.2845455    -0.7275280   -0.2971979     0.1371617    0.0234517 
   0.266986700    -0.0448479   -0.1095348    -0.7622147   -0.1618330    -0.7657422   -0.1731842     0.1347147   -0.0077268 
   0.268986600    -0.0454593   -0.1049221    -0.7780201   -0.0351559    -0.7828158   -0.0450002     0.1235600   -0.0359552 
   0.270986500    -0.0456659   -0.1007904    -0.7728696    0.0923609    -0.7785906    0.0834213     0.1052270   -0.0588781 
   0.272986400    -0.0454700   -0.0969591    -0.7471589    0.2175994    -0.7534840    0.2088318     0.0817236   -0.0745218 
   0.274986300    -0.0450115   -0.0934226    -0.7010882    0.3369321    -0.7085400    0.3284802     0.0557407   -0.0818793 
   0.276986200    -0.0443275   -0.0900593    -0.6361690    0.4469321    -0.6451772    0.4393293     0.0300327   -0.0806409 
   0.278986100    -0.0434310   -0.0867588    -0.5538871    0.5448686    -0.5642803    0.5383352     0.0074133   -0.0715974 
   0.280986000    -0.0422499   -0.0835432    -0.4568844    0.6281295    -0.4681796    0.6233773    -0.0098285   -0.0563494 
   0.282985900    -0.0407815   -0.0805772    -0.3473691    0.6941847    -0.3592367    0.6915832    -0.0200842   -0.0370874 
   0.284985800    -0.0388760   -0.0777982    -0.2286930    0.7413334    -0.2402868    0.7409488    -0.0225122   -0.0164956 
   0.286985700    -0.0364496   -0.0753353    -0.1036056    0.7682428    -0.1150467    0.7702286    -0.0172779    0.0026211 
   0.288985600    -0.0335186   -0.0734392     0.0242659    0.7744217     0.0126373    0.7786222    -0.0052813    0.0178739 
   0.290985500    -0.0301196   -0.0722285     0.1512878    0.7592118     0.1401547    0.7654408     0.0116350    0.0271096 
   0.292985400    -0.0263197   -0.0718622     0.2739795    0.7233075     0.2640836    0.7312735     0.0310418    0.0288659 
   0.294985300    -0.0223330   -0.0724899     0.3888579    0.6674139     0.3803970    0.6769225     0.0501730    0.0226960 
   0.296985200    -0.0184027   -0.0741981     0.4930708    0.5933550     0.4866649    0.6036444     0.0663306    0.0089849 
   0.298985100    -0.0148400   -0.0770769     0.5832000    0.5029218     0.5789177    0.5129278     0.0768082   -0.0109512 
   0.300985000    -0.0119445   -0.0811470     0.6569464    0.3986357     0.6544827    0.4082142     0.0795314   -0.0349133 
   0.302984900    -0.0100880   -0.0863098     0.7120451    0.2834232     0.7107286    0.2930838     0.0732676   -0.0598466 
   0.304984800    -0.0095429   -0.0923856     0.7470363    0.1610421     0.7469467    0.1708050     0.0579512   -0.0825945 
   0.306984700    -0.0106238   -0.0991876     0.7606291    0.0353245     0.7616041    0.0451382     0.0345233   -0.1000208 
   0.308984600    -0.0135154   -0.1062747     0.7529115   -0.0903122     0.7556101   -0.0799526     0.0048834   -0.1093340 
   0.310984500    -0.0181117   -0.1129038     0.7242587   -0.2119106     0.7289074   -0.2013183    -0.0279087   -0.1085271 
   0.312984400    -0.0245790   -0.1187507     0.6761299   -0.3262544     0.6831492   -0.3155802    -0.0602238   -0.0964490 
   0.314984300    -0.0327606   -0.1233563     0.6100948   -0.4299858     0.6196106   -0.4203246    -0.0880876   -0.0733540 
