! MS46122B
! 2250307/22442219
! 7/31/2025 8:30:07 AM
! C:\USERS\SPARKY\DOCUMENTS\VNA_DATA\JULY31_2025\295K\PORT3.S2P
! CHANNEL.1
! TR.MEASUREMENT
! RAW.DATA
# GHZ S RI R 50.0
! FREQ.GHZ         S11RE         S11IM         S21RE         S21IM         S12RE         S12IM         S22RE         S22IM         
!; PortSelection: Port_12
   0.001000000     1.0437430   -0.0697297     0.0000014    0.0000032    -0.0000005    0.0000011     0.8139669   -0.5557858 
   0.002999900     0.9514134   -0.1917964     0.0000005    0.0000030     0.0000060    0.0000070     0.0289501   -0.8771617 
   0.004999800     0.8759356   -0.2750461    -0.0000007    0.0000042    -0.0000038   -0.0000044    -0.7535276   -0.4292569 
   0.006999700     0.7905776   -0.3639583    -0.0000005    0.0000009    -0.0000038   -0.0000037    -0.8097211    0.4857638 
   0.008999600     0.6996661   -0.4008058    -0.0000029   -0.0000002     0.0000035   -0.0000011    -0.1138059    0.9870235 
   0.010999500     0.6242281   -0.4251903    -0.0000002    0.0000001     0.0000009   -0.0000001     0.5756241    0.8014422 
   0.012999400     0.5597800   -0.4393921     0.0000003   -0.0000021     0.0000039   -0.0000035     0.8999681    0.3384621 
   0.014999300     0.5049350   -0.4467907    -0.0000016    0.0000027    -0.0000015   -0.0000012     0.9345860   -0.1137404 
   0.016999200     0.4573737   -0.4488755     0.0000002    0.0000053     0.0000023    0.0000019     0.8056458   -0.4675503 
   0.018999100     0.4173836   -0.4471135     0.0000026    0.0000011     0.0000030   -0.0000014     0.5947536   -0.7133644 
   0.020999000     0.3838279   -0.4431170     0.0000014   -0.0000005    -0.0000018   -0.0000006     0.3505412   -0.8616179 
   0.022998900     0.3547007   -0.4377242     0.0000007    0.0000007     0.0000008   -0.0000011     0.1009377   -0.9268597 
   0.024998800     0.3240713   -0.4103402     0.0000027    0.0000008     0.0000009   -0.0000020    -0.1265771   -0.9948004 
   0.026998700     0.3063377   -0.4246531     0.0000025    0.0000020     0.0000006   -0.0000006    -0.3496604   -0.8651144 
   0.028998600     0.2856731   -0.4170229     0.0000003   -0.0000003     0.0000018    0.0000017    -0.5309493   -0.7637402 
   0.030998500     0.2665539   -0.4090946     0.0000022    0.0000019     0.0000015   -0.0000023    -0.6772903   -0.6314921 
   0.032998400     0.2453711   -0.3830619     0.0000027   -0.0000032     0.0000017   -0.0000033    -0.8342581   -0.5272709 
   0.034998300     0.2312499   -0.3923811    -0.0000040   -0.0000011     0.0000005    0.0000004    -0.8591433   -0.3139652 
   0.036998200     0.2152556   -0.3836513    -0.0000009   -0.0000012     0.0000022    0.0000019    -0.8976035   -0.1448583 
   0.038998100     0.2002684   -0.3749850     0.0000018   -0.0000023     0.0000008    0.0000007    -0.9044646    0.0223731 
   0.040998000     0.1860631   -0.3662532     0.0000027   -0.0000015    -0.0000013   -0.0000015    -0.8819915    0.1832149 
   0.042997900     0.1727459   -0.3575175     0.0000006   -0.0000033    -0.0000008   -0.0000015    -0.8333832    0.3340694 
   0.044997800     0.1591979   -0.3345799     0.0000027    0.0000026     0.0000014    0.0000017    -0.8280983    0.4972037 
   0.046997700     0.1473289   -0.3404598    -0.0000001   -0.0000011    -0.0000003   -0.0000012    -0.6702285    0.5947329 
   0.048997600     0.1363008   -0.3319441    -0.0000008    0.0000006    -0.0000005   -0.0000009    -0.5609997    0.6985373 
   0.050997500     0.1261264   -0.3235757    -0.0000007   -0.0000015    -0.0000013   -0.0000031    -0.4362629    0.7825398 
   0.052997400     0.1169631   -0.3153906    -0.0000065   -0.0000005    -0.0000053   -0.0000061    -0.3009298    0.8440872 
   0.054997300     0.1085624   -0.3074302     0.0000032   -0.0000055    -0.0000041    0.0000035    -0.1552833    0.8828703 
   0.056997200     0.1005665   -0.3001198    -0.0000038   -0.0000019    -0.0000006   -0.0000021    -0.0088685    0.8960115 
   0.058997100     0.0936511   -0.2931515     0.0000074    0.0000023    -0.0000049   -0.0000001     0.1397005    0.8842468 
   0.060997000     0.0872623   -0.2866614    -0.0000006   -0.0000014    -0.0000020   -0.0000004     0.2849932    0.8474974 
   0.062996900     0.0815177   -0.2805997    -0.0000006    0.0000020    -0.0000015    0.0000015     0.4222579    0.7868222 
   0.064996800     0.0764410   -0.2749817    -0.0000012    0.0000038     0.0000006    0.0000036     0.5481450    0.7029945 
   0.066996700     0.0717537   -0.2697820     0.0000010    0.0000012    -0.0000027    0.0000012     0.6586823    0.5986400 
   0.068996600     0.0674168   -0.2649880    -0.0000008    0.0000012     0.0000006    0.0000021     0.7509292    0.4751139 
   0.070996500     0.0633868   -0.2608416    -0.0000004    0.0000005    -0.0000006    0.0000033     0.8209177    0.3369557 
   0.072996400     0.0594576   -0.2567330     0.0000012   -0.0000011     0.0000024    0.0000030     0.8663633    0.1873708 
   0.074996300     0.0556172   -0.2529273     0.0000007    0.0000009     0.0000005    0.0000008     0.8850793    0.0309423 
   0.076996200     0.0517947   -0.2492961     0.0000015    0.0000017     0.0000045   -0.0000027     0.8752450   -0.1284678 
   0.078996100     0.0479431   -0.2458321    -0.0000004   -0.0000009    -0.0000015   -0.0000005     0.8373788   -0.2846234 
   0.080996000     0.0439240   -0.2425248     0.0000015   -0.0000006     0.0000042   -0.0000029     0.7708652   -0.4320832 
   0.082995900     0.0396941   -0.2392292     0.0000010   -0.0000013     0.0000022   -0.0000020     0.6782474   -0.5656223 
   0.084995800     0.0355507   -0.2356466     0.0000000   -0.0000011     0.0000024   -0.0000026     0.5614247   -0.6807008 
   0.086995700     0.0310879   -0.2321113     0.0000008   -0.0000001     0.0000021   -0.0000018     0.4254805   -0.7726566 
   0.088995600     0.0265556   -0.2284945     0.0000003    0.0000004    -0.0000004    0.0000001     0.2743165   -0.8372932 
   0.090995500     0.0221098   -0.2247492     0.0000024   -0.0000004     0.0000007   -0.0000032     0.1139164   -0.8728882 
   0.092995400     0.0176830   -0.2209758    -0.0000019   -0.0000002     0.0000009   -0.0000004    -0.0503402   -0.8780951 
   0.094995300     0.0132465   -0.2167379    -0.0000001   -0.0000004     0.0000016   -0.0000021    -0.2121261   -0.8534322 
   0.096995200     0.0089340   -0.2122244    -0.0000008    0.0000030     0.0000024   -0.0000030    -0.3660862   -0.7990602 
   0.098995100     0.0047848   -0.2074649    -0.0000010   -0.0000019     0.0000030    0.0000011    -0.5069489   -0.7180555 
   0.100995000    -0.0006224   -0.2031715     0.0000008    0.0000001    -0.0000009   -0.0000003    -0.6313850   -0.6128750 
   0.102994900    -0.0044887   -0.1977504     0.0000009   -0.0000010     0.0000015   -0.0000007    -0.7324733   -0.4883955 
   0.104994800    -0.0077326   -0.1921387     0.0000008   -0.0000016    -0.0000001   -0.0000006    -0.8087590   -0.3489224 
   0.106994700    -0.0105752   -0.1861744     0.0000002   -0.0000013    -0.0000020   -0.0000012    -0.8586506   -0.1989289 
   0.108994600    -0.0129175   -0.1802183    -0.0000009   -0.0000010    -0.0000012    0.0000000    -0.8808129   -0.0439543 
   0.110994500    -0.0147371   -0.1741952    -0.0000014   -0.0000006    -0.0000004   -0.0000022    -0.8757652    0.1111334 
   0.112994400    -0.0160337   -0.1681370    -0.0000017    0.0000004    -0.0000003   -0.0000025    -0.8438220    0.2616058 
   0.114994300    -0.0167309   -0.1621265    -0.0000015   -0.0000018    -0.0000002   -0.0000030    -0.7870799    0.4032817 
   0.116994200    -0.0168682   -0.1562572     0.0000002   -0.0000007    -0.0000003   -0.0000010    -0.7070750    0.5317878 
   0.118994100    -0.0164878   -0.1505209    -0.0000013   -0.0000018    -0.0000006   -0.0000017    -0.6073679    0.6440994 
   0.120994000    -0.0153617   -0.1449679    -0.0000014    0.0000005     0.0000000   -0.0000012    -0.4907421    0.7368642 
   0.122993900    -0.0138819   -0.1399770    -0.0000011    0.0000005     0.0000001   -0.0000009    -0.3609635    0.8086045 
   0.124993800    -0.0119071   -0.1354368    -0.0000024   -0.0000017    -0.0000012    0.0000020    -0.2217190    0.8576024 
   0.126993700    -0.0095800   -0.1314102    -0.0000014   -0.0000011    -0.0000001   -0.0000008    -0.0769554    0.8824088 
   0.128993600    -0.0069615   -0.1278262    -0.0000020   -0.0000009    -0.0000008    0.0000008     0.0693579    0.8829460 
   0.130993500    -0.0040669   -0.1249909    -0.0000023   -0.0000008    -0.0000005    0.0000003     0.2137084    0.8591354 
   0.132993400    -0.0010638   -0.1227968    -0.0000012    0.0000004     0.0000024   -0.0000003     0.3520199    0.8119089 
   0.134993300     0.0019542   -0.1212782    -0.0000006    0.0000005    -0.0000010    0.0000008     0.4802663    0.7425902 
   0.136993200     0.0048984   -0.1204078    -0.0000009    0.0000009     0.0000006    0.0000005     0.5955002    0.6527249 
   0.138993100     0.0076576   -0.1201950    -0.0000017    0.0000013    -0.0000008   -0.0000007     0.6942211    0.5446524 
   0.140993000     0.0101113   -0.1205651     0.0000003    0.0000011     0.0000007   -0.0000005     0.7740369    0.4213160 
   0.142992900     0.0121919   -0.1214931    -0.0000007    0.0000008    -0.0000005    0.0000016     0.8322669    0.2861287 
   0.144992800     0.0138688   -0.1229457    -0.0000004    0.0000007     0.0000001    0.0000007     0.8663329    0.1423538 
   0.146992700     0.0149425   -0.1247474    -0.0000005    0.0000007     0.0000010    0.0000009     0.8761747   -0.0053487 
   0.148992600     0.0153957   -0.1268345    -0.0000001    0.0000015     0.0000016   -0.0000006     0.8607677   -0.1534993 
   0.150992500     0.0152355   -0.1289665     0.0000002    0.0000005     0.0000021   -0.0000005     0.8206257   -0.2974501 
   0.152992400     0.0143666   -0.1313331    -0.0000007    0.0000009    -0.0000002    0.0000006     0.7558190   -0.4327085 
   0.154992300     0.0128642   -0.1336573    -0.0000005    0.0000002     0.0000010    0.0000002     0.6681447   -0.5551087 
   0.156992200     0.0106407   -0.1358088    -0.0000002    0.0000013     0.0000010   -0.0000006     0.5600997   -0.6610091 
   0.158992100     0.0078039   -0.1377113     0.0000003    0.0000013     0.0000015    0.0000006     0.4350287   -0.7466279 
   0.160992000     0.0043825   -0.1392194     0.0000006    0.0000005     0.0000010    0.0000006     0.2965643   -0.8092821 
   0.162991900     0.0004486   -0.1402362     0.0000003    0.0000013     0.0000010    0.0000001     0.1488823   -0.8466058 
   0.164991800    -0.0039396   -0.1406895     0.0000011   -0.0000005     0.0000007    0.0000005    -0.0033113   -0.8575441 
   0.166991700    -0.0085962   -0.1404855     0.0000023    0.0000013     0.0000010   -0.0000014    -0.1546286   -0.8415452 
   0.168991600    -0.0135325   -0.1395792     0.0000006    0.0000003     0.0000015    0.0000001    -0.3010464   -0.7989537 
   0.170991500    -0.0186044   -0.1378859     0.0000004    0.0000001     0.0000008   -0.0000007    -0.4374813   -0.7313159 
   0.172991400    -0.0236204   -0.1354448     0.0000007   -0.0000010     0.0000012    0.0000001    -0.5594258   -0.6409202 
   0.174991300    -0.0285103   -0.1321931     0.0000010   -0.0000015     0.0000008   -0.0000010    -0.6633739   -0.5309714 
   0.176991200    -0.0331305   -0.1281770     0.0000001   -0.0000008     0.0000018    0.0000017    -0.7459576   -0.4051075 
   0.178991100    -0.0373351   -0.1234192    -0.0000008   -0.0000010     0.0000009    0.0000010    -0.8053005   -0.2670411 
   0.180991000    -0.0410057   -0.1180506     0.0000012   -0.0000007     0.0000033    0.0000009    -0.8392457   -0.1214975 
   0.182990900    -0.0440572   -0.1119505     0.0000001   -0.0000002     0.0000023    0.0000007    -0.8478460    0.0268389 
   0.184990800    -0.0462962   -0.1053866     0.0000000    0.0000007     0.0000039   -0.0000012    -0.8305839    0.1735401 
   0.186990700    -0.0476916   -0.0983882     0.0000001   -0.0000011     0.0000033   -0.0000011    -0.7887424    0.3146014 
   0.188990600    -0.0461251   -0.0922535    -0.0000016   -0.0000014     0.0000038   -0.0000038    -0.7372587    0.4260247 
   0.190990500    -0.0473808   -0.0838466    -0.0000012   -0.0000019     0.0000008   -0.0000039    -0.6407040    0.5612420 
   0.192990400    -0.0460483   -0.0762851    -0.0000015   -0.0000020     0.0000000   -0.0000034    -0.5346767    0.6641984 
   0.194990300    -0.0434804   -0.0690815    -0.0000001   -0.0000027    -0.0000007   -0.0000036    -0.4158989    0.7460283 
   0.196990200    -0.0398896   -0.0622467    -0.0000002   -0.0000005     0.0000005   -0.0000025    -0.2857243    0.8067774 
   0.198990100    -0.0353197   -0.0558764    -0.0000008   -0.0000003    -0.0000002   -0.0000013    -0.1478451    0.8446071 
   0.200990000    -0.0298544   -0.0501759    -0.0000001   -0.0000002     0.0000029   -0.0000031    -0.0060348    0.8591390 
   0.202989900    -0.0235970   -0.0452674    -0.0000027   -0.0000018     0.0000003   -0.0000019     0.1360101    0.8499799 
   0.204989800    -0.0166297   -0.0412755    -0.0000011   -0.0000002     0.0000006   -0.0000010     0.2745978    0.8175992 
   0.206989700    -0.0091061   -0.0383069    -0.0000022    0.0000000     0.0000005   -0.0000018     0.4060529    0.7629413 
   0.208989600    -0.0011381   -0.0364729    -0.0000015    0.0000001     0.0000007   -0.0000029     0.5265281    0.6873142 
   0.210989500     0.0070447   -0.0358418    -0.0000020   -0.0000010     0.0000012   -0.0000004     0.6330876    0.5927062 
   0.212989400     0.0154094   -0.0364307    -0.0000021    0.0000006     0.0000008   -0.0000013     0.7228419    0.4813187 
   0.214989300     0.0235979   -0.0383100    -0.0000026   -0.0000004    -0.0000004   -0.0000020     0.7930188    0.3564450 
   0.216989200     0.0314771   -0.0414322    -0.0000022    0.0000022     0.0000002   -0.0000007     0.8417895    0.2212085 
   0.218989100     0.0388492   -0.0457570    -0.0000025    0.0000009     0.0000012   -0.0000016     0.8672041    0.0792832 
   0.220989000     0.0455495   -0.0512056    -0.0000003   -0.0000001     0.0000016   -0.0000031     0.8684607   -0.0657752 
   0.222988900     0.0514023   -0.0576623    -0.0000006    0.0000007     0.0000007   -0.0000022     0.8450173   -0.2096367 
   0.224988800     0.0562525   -0.0649957    -0.0000009    0.0000003     0.0000013   -0.0000025     0.7975915   -0.3481939 
   0.226988700     0.0599438   -0.0731275    -0.0000001    0.0000010     0.0000019   -0.0000032     0.7267748   -0.4770239 
   0.228988600     0.0624658   -0.0817076     0.0000004    0.0000024     0.0000009   -0.0000019     0.6343323   -0.5924657 
   0.230988500     0.0636935   -0.0907001     0.0000005    0.0000025     0.0000009   -0.0000021     0.5228838   -0.6907068 
   0.232988400     0.0634907   -0.0997775     0.0000004    0.0000005     0.0000005   -0.0000024     0.3954257   -0.7684426 
   0.234988300     0.0620080   -0.1089313     0.0000004    0.0000023    -0.0000003   -0.0000016     0.2558244   -0.8229947 
   0.236988200     0.0590681   -0.1178877     0.0000004    0.0000020     0.0000018   -0.0000015     0.1083261   -0.8522428 
   0.238988100     0.0549357   -0.1263955     0.0000012    0.0000018     0.0000017   -0.0000016    -0.0423593   -0.8550954 
   0.240988000     0.0496375   -0.1343397     0.0000009    0.0000004    -0.0000004   -0.0000026    -0.1915079   -0.8313539 
   0.242987900     0.0432968   -0.1416627     0.0000019   -0.0000004     0.0000026   -0.0000018    -0.3341928   -0.7812868 
   0.244987800     0.0359599   -0.1478565     0.0000007   -0.0000004     0.0000015   -0.0000011    -0.4655519   -0.7068682 
   0.246987700     0.0276652   -0.1529214     0.0000015   -0.0000008     0.0000039   -0.0000018    -0.5815237   -0.6101592 
   0.248987600     0.0185949   -0.1567464     0.0000000    0.0000002     0.0000037   -0.0000033    -0.6784868   -0.4947234 
   0.250987500     0.0089121   -0.1594868     0.0000004   -0.0000023     0.0000056   -0.0000031    -0.7530270   -0.3641229 
   0.252987400    -0.0008562   -0.1608510     0.0000010   -0.0000013     0.0000059   -0.0000042    -0.8032086   -0.2231769 
   0.254987300    -0.0105689   -0.1608581     0.0000018   -0.0000022     0.0000054   -0.0000039    -0.8275139   -0.0760103 
   0.256987200    -0.0201747   -0.1595283     0.0000013    0.0000001     0.0000051   -0.0000063    -0.8255289    0.0721371 
   0.258987100    -0.0295146   -0.1571325     0.0000014   -0.0000022     0.0000052   -0.0000081    -0.7976187    0.2172052 
   0.260987000    -0.0383388   -0.1532482    -0.0000018   -0.0000023     0.0000052   -0.0000087    -0.7453132    0.3541634 
   0.262986900    -0.0466264   -0.1481583     0.0000000   -0.0000037     0.0000046   -0.0000123    -0.6704909    0.4792202 
   0.264986800    -0.0542529   -0.1420903    -0.0000002   -0.0000024     0.0000018   -0.0000119    -0.5757917    0.5886210 
   0.266986700    -0.0607529   -0.1349090    -0.0000005   -0.0000024    -0.0000003   -0.0000123    -0.4643769    0.6796979 
   0.268986600    -0.0660643   -0.1270327    -0.0000015   -0.0000015    -0.0000035   -0.0000128    -0.3397722    0.7501084 
   0.270986500    -0.0700466   -0.1187990    -0.0000015   -0.0000028    -0.0000053   -0.0000109    -0.2057530    0.7978934 
   0.272986400    -0.0727526   -0.1102176    -0.0000005   -0.0000015    -0.0000075   -0.0000080    -0.0664004    0.8224750 
   0.274986300    -0.0741218   -0.1014835    -0.0000014   -0.0000008    -0.0000057   -0.0000037     0.0742521    0.8231483 
   0.276986200    -0.0741656   -0.0928237    -0.0000032   -0.0000010    -0.0000047   -0.0000048     0.2127901    0.7995923 
   0.278986100    -0.0729202   -0.0843277    -0.0000020   -0.0000011    -0.0000006   -0.0000047     0.3450197    0.7541233 
   0.280986000    -0.0704308   -0.0762778    -0.0000057   -0.0000020    -0.0000015   -0.0000046     0.4675706    0.6876152 
   0.282985900    -0.0667165   -0.0687091    -0.0000034   -0.0000004    -0.0000011   -0.0000064     0.5769683    0.6019040 
   0.284985800    -0.0619466   -0.0621812    -0.0000055   -0.0000019     0.0000004   -0.0000069     0.6708919    0.4992689 
   0.286985700    -0.0562955   -0.0567326    -0.0000027   -0.0000012    -0.0000015   -0.0000090     0.7463202    0.3824410 
   0.288985600    -0.0498196   -0.0526159    -0.0000040   -0.0000015    -0.0000020   -0.0000091     0.8016759    0.2547046 
   0.290985500    -0.0427058   -0.0497826    -0.0000025    0.0000019    -0.0000022   -0.0000082     0.8349782    0.1192897 
   0.292985400    -0.0354573   -0.0484762    -0.0000042    0.0000003    -0.0000039   -0.0000084     0.8455785   -0.0204187 
   0.294985300    -0.0281552   -0.0486332    -0.0000026    0.0000018    -0.0000072   -0.0000076     0.8325703   -0.1602811 
   0.296985200    -0.0210568   -0.0501975    -0.0000030    0.0000018    -0.0000073   -0.0000076     0.7962940   -0.2965139 
   0.298985100    -0.0144147   -0.0532005    -0.0000019    0.0000019    -0.0000066   -0.0000069     0.7374485   -0.4253233 
   0.300985000    -0.0085848   -0.0575521    -0.0000027    0.0000023    -0.0000072   -0.0000049     0.6574416   -0.5429231 
   0.302984900    -0.0037198   -0.0631662    -0.0000016    0.0000014    -0.0000099   -0.0000040     0.5583560   -0.6456329 
   0.304984800    -0.0001139   -0.0698744    -0.0000010    0.0000032    -0.0000086   -0.0000009     0.4427045   -0.7306969 
   0.306984700     0.0020460   -0.0774808     0.0000007    0.0000027    -0.0000095   -0.0000012     0.3135442   -0.7949758 
   0.308984600     0.0025845   -0.0857180     0.0000003    0.0000020    -0.0000081    0.0000007     0.1749083   -0.8363971 
   0.310984500     0.0014153   -0.0943017     0.0000018    0.0000026    -0.0000067    0.0000017     0.0304283   -0.8533027 
   0.312984400    -0.0016991   -0.1030833     0.0000004    0.0000021    -0.0000060    0.0000017    -0.1154134   -0.8452745 
   0.314984300    -0.0068391   -0.1112806     0.0000006    0.0000011    -0.0000061    0.0000034    -0.2581860   -0.8118407 
