! MS46122B
! 2250307/22442219
! 8/1/2025 10:31:17 AM
! C:\USERS\SPARKY\DOCUMENTS\VNA_DATA\AUGUST1_2025\3K\PORT3.S2P
! CHANNEL.1
! TR.MEASUREMENT
! RAW.DATA
# GHZ S RI R 50.0
! FREQ.GHZ         S11RE         S11IM         S21RE         S21IM         S12RE         S12IM         S22RE         S22IM         
!; PortSelection: Port_12
   0.001000000     1.0437710   -0.0690768    -0.0000028    0.0000035     0.0000098   -0.0000032     0.8170696   -0.5527030 
   0.002999900     0.9510436   -0.1913600     0.0000029    0.0000006    -0.0000115   -0.0000057     0.0376031   -0.8794268 
   0.004999800     0.8754081   -0.2739530     0.0000015    0.0000009     0.0000247   -0.0000082    -0.7510638   -0.4381068 
   0.006999700     0.7895926   -0.3630357    -0.0000004    0.0000015     0.0000002   -0.0000002    -0.8137092    0.4829217 
   0.008999600     0.6996769   -0.3980359    -0.0000024    0.0000016    -0.0000067   -0.0000015    -0.1120756    0.9891474 
   0.010999500     0.6261373   -0.4220753     0.0000023   -0.0000020    -0.0000003   -0.0000034     0.5820953    0.7993020 
   0.012999400     0.5635978   -0.4370814     0.0000039    0.0000025    -0.0000002   -0.0000010     0.9054272    0.3312013 
   0.014999300     0.5102233   -0.4461969    -0.0000040    0.0000015     0.0000000   -0.0000027     0.9370849   -0.1237732 
   0.016999200     0.4634427   -0.4504753     0.0000004    0.0000002     0.0000011   -0.0000024     0.8050165   -0.4785872 
   0.018999100     0.4233406   -0.4512131     0.0000013   -0.0000003     0.0000000   -0.0000007     0.5913560   -0.7245958 
   0.020999000     0.3889331   -0.4496685    -0.0000021    0.0000005     0.0000003   -0.0000030     0.3445624   -0.8724614 
   0.022998900     0.3582017   -0.4466216     0.0000007    0.0000013     0.0000008   -0.0000006     0.0926293   -0.9368944 
   0.024998800     0.3258060   -0.4204004     0.0000038   -0.0000004     0.0000022    0.0000020    -0.1375756   -1.0047500 
   0.026998700     0.3051063   -0.4361570    -0.0000003   -0.0000008     0.0000002   -0.0000004    -0.3620788   -0.8727669 
   0.028998600     0.2816380   -0.4290677     0.0000033    0.0000018     0.0000027   -0.0000012    -0.5451978   -0.7696036 
   0.030998500     0.2595662   -0.4209885     0.0000009    0.0000035    -0.0000007   -0.0000010    -0.6930099   -0.6355283 
   0.032998400     0.2360231   -0.3939651     0.0000003   -0.0000001    -0.0000003   -0.0000012    -0.8523173   -0.5295833 
   0.034998300     0.2186756   -0.4021342    -0.0000023   -0.0000020    -0.0000007   -0.0000002    -0.8768526   -0.3133233 
   0.036998200     0.2001666   -0.3913025    -0.0000012   -0.0000014     0.0000009   -0.0000031    -0.9160258   -0.1417055 
   0.038998100     0.1831236   -0.3801570    -0.0000029   -0.0000008    -0.0000023   -0.0000012    -0.9230026    0.0281676 
   0.040998000     0.1675035   -0.3686008    -0.0000001   -0.0000013     0.0000005   -0.0000001    -0.9005024    0.1917626 
   0.042997900     0.1529896   -0.3566352     0.0000014    0.0000002     0.0000000   -0.0000041    -0.8514209    0.3455407 
   0.044997800     0.1396827   -0.3308362    -0.0000019    0.0000016    -0.0000008   -0.0000020    -0.8469477    0.5122473 
   0.046997700     0.1274379   -0.3327804     0.0000002   -0.0000021    -0.0000017   -0.0000032    -0.6862130    0.6118371 
   0.048997600     0.1172885   -0.3208499    -0.0000006    0.0000003    -0.0000011   -0.0000016    -0.5751391    0.7185731 
   0.050997500     0.1086524   -0.3092089    -0.0000035    0.0000009    -0.0000013    0.0000009    -0.4483404    0.8053989 
   0.052997400     0.1013873   -0.2980227    -0.0000046   -0.0000018    -0.0000016    0.0000031    -0.3100323    0.8695509 
   0.054997300     0.0955789   -0.2873937     0.0000080    0.0000025     0.0000004   -0.0000087    -0.1610986    0.9104353 
   0.056997200     0.0905023   -0.2780291    -0.0000014   -0.0000023    -0.0000025   -0.0000017    -0.0107237    0.9255117 
   0.058997100     0.0868597   -0.2694115    -0.0000020   -0.0000095    -0.0000041   -0.0000008     0.1420985    0.9151607 
   0.060997000     0.0840503   -0.2618126    -0.0000019   -0.0000001    -0.0000027   -0.0000008     0.2921919    0.8788035 
   0.062996900     0.0821530   -0.2552339    -0.0000021    0.0000012    -0.0000021    0.0000005     0.4344987    0.8180085 
   0.064996800     0.0808510   -0.2497210    -0.0000023    0.0000000    -0.0000024    0.0000004     0.5655746    0.7331778 
   0.066996700     0.0798647   -0.2452336     0.0000011    0.0000029    -0.0000011    0.0000033     0.6814393    0.6267779 
   0.068996600     0.0790810   -0.2417352    -0.0000009    0.0000007    -0.0000009    0.0000030     0.7788069    0.5001997 
   0.070996500     0.0783801   -0.2394044    -0.0000001    0.0000010     0.0000008    0.0000021     0.8535185    0.3580294 
   0.072996400     0.0774243   -0.2376358     0.0000017    0.0000007    -0.0000001    0.0000019     0.9030990    0.2033275 
   0.074996300     0.0761543   -0.2365680    -0.0000021    0.0000005    -0.0000008    0.0000006     0.9251196    0.0406930 
   0.076996200     0.0744628   -0.2360650     0.0000023    0.0000015     0.0000015   -0.0000004     0.9175960   -0.1257434 
   0.078996100     0.0721852   -0.2360000     0.0000022    0.0000001     0.0000032    0.0000006     0.8804867   -0.2892251 
   0.080996000     0.0692145   -0.2362917    -0.0000014    0.0000004     0.0000012    0.0000003     0.8133176   -0.4444917 
   0.082995900     0.0654888   -0.2366888     0.0000020   -0.0000033     0.0000016   -0.0000008     0.7182998   -0.5857995 
   0.084995800     0.0612288   -0.2367985     0.0000022   -0.0000002     0.0000035   -0.0000021     0.5975645   -0.7083082 
   0.086995700     0.0563247   -0.2369511     0.0000022   -0.0000020     0.0000020   -0.0000030     0.4560527   -0.8066400 
   0.088995600     0.0507915   -0.2368351     0.0000015   -0.0000019     0.0000012   -0.0000009     0.2981620   -0.8767835 
   0.090995500     0.0445873   -0.2362604    -0.0000001   -0.0000008     0.0000010   -0.0000048     0.1296947   -0.9160569 
   0.092995400     0.0380567   -0.2354148     0.0000006    0.0000009     0.0000022   -0.0000013    -0.0432289   -0.9234948 
   0.094995300     0.0309473   -0.2336839     0.0000001    0.0000007     0.0000015    0.0000003    -0.2138504   -0.8988521 
   0.096995200     0.0237675   -0.2313092     0.0000017   -0.0000019    -0.0000023   -0.0000012    -0.3763900   -0.8428851 
   0.098995100     0.0165135   -0.2282406     0.0000022    0.0000010     0.0000029   -0.0000029    -0.5253012   -0.7584982 
   0.100995000     0.0076535   -0.2252459     0.0000005    0.0000003     0.0000008    0.0000000    -0.6566277   -0.6486738 
   0.102994900     0.0005808   -0.2204463    -0.0000004   -0.0000007    -0.0000005   -0.0000012    -0.7638074   -0.5181000 
   0.104994800    -0.0063593   -0.2148582     0.0000002   -0.0000020     0.0000018   -0.0000011    -0.8445880   -0.3715031 
   0.106994700    -0.0125326   -0.2085002     0.0000003   -0.0000009     0.0000016   -0.0000018    -0.8973511   -0.2137163 
   0.108994600    -0.0180985   -0.2015803     0.0000010   -0.0000019     0.0000024   -0.0000008    -0.9208500   -0.0507195 
   0.110994500    -0.0229624   -0.1941992    -0.0000013   -0.0000009     0.0000004   -0.0000018    -0.9152676    0.1123134 
   0.112994400    -0.0269837   -0.1863467    -0.0000012   -0.0000004    -0.0000008   -0.0000025    -0.8815204    0.2702346 
   0.114994300    -0.0301071   -0.1781790    -0.0000002   -0.0000015    -0.0000001   -0.0000009    -0.8215821    0.4187534 
   0.116994200    -0.0322708   -0.1698326    -0.0000013   -0.0000013    -0.0000001   -0.0000015    -0.7374387    0.5534453 
   0.118994100    -0.0335013   -0.1613513    -0.0000012   -0.0000011     0.0000002   -0.0000022    -0.6322785    0.6704448 
   0.120994000    -0.0335027   -0.1531013    -0.0000005   -0.0000007    -0.0000002    0.0000000    -0.5097421    0.7669748 
   0.122993900    -0.0326893   -0.1448627    -0.0000003   -0.0000020    -0.0000005   -0.0000013    -0.3736371    0.8413853 
   0.124993800    -0.0309138   -0.1372686    -0.0000022    0.0000008    -0.0000001   -0.0000013    -0.2279051    0.8915960 
   0.126993700    -0.0282432   -0.1302095    -0.0000012   -0.0000001    -0.0000003   -0.0000009    -0.0765091    0.9164307 
   0.128993600    -0.0247676   -0.1237279    -0.0000014    0.0000003    -0.0000018   -0.0000008     0.0761770    0.9160740 
   0.130993500    -0.0205947   -0.1181882    -0.0000018    0.0000008     0.0000001   -0.0000004     0.2265078    0.8901420 
   0.132993400    -0.0159399   -0.1135859    -0.0000011    0.0000012    -0.0000003    0.0000001     0.3702071    0.8397996 
   0.134993300    -0.0108822   -0.1099714    -0.0000017   -0.0000012    -0.0000006   -0.0000011     0.5033467    0.7664644 
   0.136993200    -0.0056152   -0.1074014    -0.0000005    0.0000002     0.0000004   -0.0000006     0.6224102    0.6720743 
   0.138993100    -0.0003214   -0.1058803     0.0000002   -0.0000005     0.0000002   -0.0000006     0.7242767    0.5588734 
   0.140993000     0.0048077   -0.1054130    -0.0000010    0.0000007    -0.0000005   -0.0000004     0.8063555    0.4299639 
   0.142992900     0.0096341   -0.1059620    -0.0000014    0.0000016    -0.0000003    0.0000005     0.8656203    0.2889450 
   0.144992800     0.0140811   -0.1075040    -0.0000008    0.0000011     0.0000011    0.0000004     0.8999957    0.1393358 
   0.146992700     0.0177922   -0.1098514    -0.0000010    0.0000004     0.0000000    0.0000005     0.9090042   -0.0144746 
   0.148992600     0.0207469   -0.1129059    -0.0000002    0.0000006     0.0000005    0.0000005     0.8918437   -0.1682222 
   0.150992500     0.0228499   -0.1164286     0.0000001    0.0000017     0.0000006    0.0000004     0.8491455   -0.3175203 
   0.152992400     0.0240013   -0.1205036     0.0000004    0.0000011    -0.0000005    0.0000001     0.7806473   -0.4576084 
   0.154992300     0.0241557   -0.1248040     0.0000001   -0.0000003    -0.0000006   -0.0000007     0.6886474   -0.5841198 
   0.156992200     0.0232673   -0.1291959     0.0000006    0.0000009     0.0000007    0.0000001     0.5757946   -0.6933823 
   0.158992100     0.0213511   -0.1334860     0.0000000    0.0000016     0.0000000   -0.0000002     0.4452220   -0.7814689 
   0.160992000     0.0183935   -0.1375093     0.0000013    0.0000001     0.0000000   -0.0000003     0.3009271   -0.8457170 
   0.162991900     0.0145301   -0.1410892     0.0000007    0.0000017     0.0000009    0.0000011     0.1472212   -0.8836824 
   0.164991800     0.0098024   -0.1440573     0.0000014    0.0000012     0.0000004    0.0000003    -0.0109946   -0.8941761 
   0.166991700     0.0043349   -0.1462370     0.0000013   -0.0000003     0.0000011    0.0000002    -0.1682519   -0.8768562 
   0.168991600    -0.0016890   -0.1475680     0.0000026    0.0000009     0.0000007   -0.0000005    -0.3202864   -0.8320897 
   0.170991500    -0.0082436   -0.1479383     0.0000014    0.0000017     0.0000010    0.0000006    -0.4620204   -0.7611859 
   0.172991400    -0.0150333   -0.1473088     0.0000008    0.0000008     0.0000027   -0.0000006    -0.5885927   -0.6666675 
   0.174991300    -0.0219404   -0.1455358     0.0000007   -0.0000013     0.0000019    0.0000005    -0.6965307   -0.5519844 
   0.176991200    -0.0288927   -0.1425698     0.0000000   -0.0000023     0.0000024    0.0000001    -0.7823623   -0.4208398 
   0.178991100    -0.0355006   -0.1385418     0.0000017    0.0000000     0.0000019   -0.0000002    -0.8438759   -0.2768526 
   0.180991000    -0.0417004   -0.1335197     0.0000003    0.0000012     0.0000026   -0.0000011    -0.8792414   -0.1251054 
   0.182990900    -0.0472775   -0.1273900     0.0000001    0.0000009     0.0000038    0.0000007    -0.8878422    0.0294890 
   0.184990800    -0.0520418   -0.1203761     0.0000000   -0.0000009     0.0000029   -0.0000020    -0.8699089    0.1824749 
   0.186990700    -0.0558636   -0.1125372     0.0000003   -0.0000014     0.0000029   -0.0000027    -0.8263172    0.3296246 
   0.188990600    -0.0562320   -0.1054161     0.0000001   -0.0000002     0.0000023   -0.0000039    -0.7727811    0.4458891 
   0.190990500    -0.0598543   -0.0951793    -0.0000001   -0.0000028     0.0000018   -0.0000041    -0.6720710    0.5872365 
   0.192990400    -0.0604133   -0.0856921    -0.0000013   -0.0000018     0.0000018   -0.0000042    -0.5614204    0.6951100 
   0.194990300    -0.0593323   -0.0763098    -0.0000003   -0.0000037    -0.0000004   -0.0000022    -0.4375069    0.7808205 
   0.196990200    -0.0568791   -0.0671166    -0.0000017   -0.0000019    -0.0000007   -0.0000035    -0.3015997    0.8446177 
   0.198990100    -0.0530915   -0.0582093    -0.0000019   -0.0000004     0.0000005   -0.0000026    -0.1575144    0.8847201 
   0.200990000    -0.0480333   -0.0498124    -0.0000020   -0.0000010     0.0000004   -0.0000029    -0.0091153    0.9004166 
   0.202989900    -0.0417204   -0.0422143    -0.0000021   -0.0000030    -0.0000002   -0.0000019     0.1397372    0.8911946 
   0.204989800    -0.0342866   -0.0355553    -0.0000006   -0.0000001    -0.0000001   -0.0000032     0.2851481    0.8578219 
   0.206989700    -0.0259641   -0.0300368    -0.0000020    0.0000004     0.0000002   -0.0000015     0.4230742    0.8011794 
   0.208989600    -0.0167319   -0.0257720    -0.0000028    0.0000003     0.0000012   -0.0000017     0.5499516    0.7223002 
   0.210989500    -0.0069366   -0.0229221    -0.0000031   -0.0000004     0.0000003   -0.0000007     0.6621598    0.6231743 
   0.212989400     0.0032842   -0.0215682    -0.0000036   -0.0000003    -0.0000004   -0.0000010     0.7568747    0.5065248 
   0.214989300     0.0137472   -0.0218132    -0.0000022    0.0000006     0.0000022   -0.0000027     0.8311966    0.3754669 
   0.216989200     0.0240353   -0.0236393    -0.0000027    0.0000006     0.0000005   -0.0000021     0.8827705    0.2332458 
   0.218989100     0.0340440   -0.0271013    -0.0000023    0.0000013     0.0000008   -0.0000002     0.9098946    0.0838693 
   0.220989000     0.0434619   -0.0320507    -0.0000021    0.0000020     0.0000021   -0.0000021     0.9115581   -0.0689044 
   0.222988900     0.0520713   -0.0384644    -0.0000013    0.0000011    -0.0000005   -0.0000006     0.8873259   -0.2205773 
   0.224988800     0.0596623   -0.0462488    -0.0000007    0.0000026     0.0000018   -0.0000016     0.8373880   -0.3667625 
   0.226988700     0.0659890   -0.0551112    -0.0000008    0.0000010     0.0000015   -0.0000030     0.7626691   -0.5027869 
   0.228988600     0.0709499   -0.0648823    -0.0000007    0.0000024     0.0000010   -0.0000024     0.6650796   -0.6247346 
   0.230988500     0.0743554   -0.0754471     0.0000010    0.0000021     0.0000026   -0.0000027     0.5471305   -0.7282780 
   0.232988400     0.0760792   -0.0863546     0.0000013    0.0000021     0.0000004   -0.0000024     0.4123376   -0.8103158 
   0.234988300     0.0762279   -0.0976014    -0.0000003    0.0000022     0.0000014   -0.0000022     0.2645334   -0.8676009 
   0.236988200     0.0746319   -0.1088247     0.0000011    0.0000011     0.0000013   -0.0000028     0.1085013   -0.8980522 
   0.238988100     0.0714433   -0.1198103     0.0000021    0.0000008     0.0000014   -0.0000029    -0.0510540   -0.9002693 
   0.240988000     0.0666355   -0.1303171     0.0000015    0.0000004     0.0000016   -0.0000007    -0.2085846   -0.8740911 
   0.242987900     0.0603859   -0.1399737     0.0000027    0.0000014     0.0000025   -0.0000020    -0.3591339   -0.8200518 
   0.244987800     0.0527745   -0.1487408     0.0000022    0.0000004     0.0000021   -0.0000017    -0.4974819   -0.7403778 
   0.246987700     0.0439120   -0.1562322     0.0000018    0.0000002     0.0000039   -0.0000021    -0.6195211   -0.6371706 
   0.248987600     0.0340226   -0.1624164     0.0000031   -0.0000012     0.0000041   -0.0000031    -0.7206213   -0.5140609 
   0.250987500     0.0232229   -0.1670817     0.0000016   -0.0000001     0.0000048   -0.0000027    -0.7980329   -0.3752949 
   0.252987400     0.0116877   -0.1702946     0.0000005   -0.0000006     0.0000036   -0.0000033    -0.8494793   -0.2257162 
   0.254987300     0.0001085   -0.1717689     0.0000013   -0.0000005     0.0000049   -0.0000042    -0.8734266   -0.0700990 
   0.256987200    -0.0114173   -0.1716720     0.0000013   -0.0000020     0.0000064   -0.0000067    -0.8693550    0.0862531 
   0.258987100    -0.0228182   -0.1701932     0.0000016   -0.0000020     0.0000043   -0.0000091    -0.8380746    0.2388809 
   0.260987000    -0.0338469   -0.1669004     0.0000014   -0.0000019     0.0000063   -0.0000093    -0.7810944    0.3826838 
   0.262986900    -0.0442927   -0.1620801     0.0000006   -0.0000033     0.0000052   -0.0000113    -0.7005553    0.5133149 
   0.264986800    -0.0541541   -0.1559017     0.0000001   -0.0000033     0.0000022   -0.0000126    -0.5993854    0.6272377 
   0.266986700    -0.0627591   -0.1483744    -0.0000008   -0.0000030    -0.0000007   -0.0000142    -0.4809327    0.7216055 
   0.268986600    -0.0701090   -0.1398110    -0.0000014   -0.0000009    -0.0000051   -0.0000125    -0.3489218    0.7939361 
   0.270986500    -0.0759754   -0.1304144    -0.0000016   -0.0000023    -0.0000057   -0.0000101    -0.2074775    0.8427598 
   0.272986400    -0.0803579   -0.1205289    -0.0000014   -0.0000025    -0.0000073   -0.0000075    -0.0606484    0.8665045 
   0.274986300    -0.0831453   -0.1102831    -0.0000034   -0.0000017    -0.0000050   -0.0000050     0.0871817    0.8655103 
   0.276986200    -0.0843434   -0.0998773    -0.0000031   -0.0000027    -0.0000041   -0.0000031     0.2322824    0.8393155 
   0.278986100    -0.0839828   -0.0895202    -0.0000021   -0.0000005    -0.0000031   -0.0000039     0.3705589    0.7899722 
   0.280986000    -0.0820517   -0.0795068    -0.0000028    0.0000003     0.0000002   -0.0000043     0.4985433    0.7188891 
   0.282985900    -0.0785884   -0.0700597    -0.0000020   -0.0000007    -0.0000001   -0.0000067     0.6124928    0.6278836 
   0.284985800    -0.0737126   -0.0613340    -0.0000032   -0.0000021    -0.0000010   -0.0000078     0.7100389    0.5193157 
   0.286985700    -0.0676193   -0.0539549    -0.0000029    0.0000002    -0.0000021   -0.0000092     0.7881844    0.3961396 
   0.288985600    -0.0604658   -0.0480068    -0.0000033    0.0000008    -0.0000023   -0.0000082     0.8453692    0.2616057 
   0.290985500    -0.0524430   -0.0435544    -0.0000031    0.0000023    -0.0000026   -0.0000089     0.8794923    0.1191575 
   0.292985400    -0.0437851   -0.0406746    -0.0000022    0.0000010    -0.0000051   -0.0000089     0.8896523   -0.0274791 
   0.294985300    -0.0349686   -0.0395576    -0.0000023    0.0000017    -0.0000060   -0.0000090     0.8750103   -0.1743587 
   0.296985200    -0.0262288   -0.0401567    -0.0000037    0.0000013    -0.0000076   -0.0000073     0.8364019   -0.3173682 
   0.298985100    -0.0178279   -0.0424314    -0.0000036    0.0000039    -0.0000088   -0.0000074     0.7738647   -0.4525363 
   0.300985000    -0.0100777   -0.0464283    -0.0000021    0.0000027    -0.0000099   -0.0000056     0.6893692   -0.5757963 
   0.302984900    -0.0033084   -0.0520611    -0.0000015    0.0000027    -0.0000079   -0.0000023     0.5846188   -0.6836085 
   0.304984800     0.0021808   -0.0590801    -0.0000011    0.0000018    -0.0000092   -0.0000019     0.4625220   -0.7726262 
   0.306984700     0.0061016   -0.0672892    -0.0000014    0.0000047    -0.0000090    0.0000001     0.3262259   -0.8399367 
   0.308984600     0.0082548   -0.0764114    -0.0000004    0.0000028    -0.0000087    0.0000028     0.1798511   -0.8832865 
   0.310984500     0.0084397   -0.0861178     0.0000009    0.0000032    -0.0000072    0.0000027     0.0273431   -0.9008396 
   0.312984400     0.0065174   -0.0959482     0.0000014    0.0000013    -0.0000057    0.0000039    -0.1265065   -0.8917252 
   0.314984300     0.0023494   -0.1057366     0.0000026    0.0000019    -0.0000048    0.0000050    -0.2772158   -0.8559617 
