! MS46122B
! 2250307/22442219
! 8/4/2025 8:12:31 AM
! C:\USERS\SPARKY\DOCUMENTS\VNA_DATA\AUGUST4_2025\3K\PORT1_REPEAT2.S2P
! CHANNEL.1
! TR.MEASUREMENT
! RAW.DATA
# GHZ S RI R 50.0
! FREQ.GHZ         S11RE         S11IM         S21RE         S21IM         S12RE         S12IM         S22RE         S22IM         
!; PortSelection: Port_12
   0.001000000     1.0443750   -0.0682387    -0.0004342   -0.0010201    -0.0003912   -0.0010528     0.8166631   -0.5533610 
   0.002999900     0.9608161   -0.1953195    -0.0237313   -0.0153602    -0.0247745   -0.0160821     0.0602048   -0.8772973 
   0.004999800     0.8708373   -0.3129373    -0.1431039    0.0275302    -0.1506694    0.0320322    -0.6972588   -0.3574806 
   0.006999700     0.7725225   -0.4062597    -0.1864716    0.1387033    -0.1911099    0.1522763    -0.7367281    0.2711439 
   0.008999600     0.5943125   -0.4001179    -0.0546683    0.5179300    -0.0372160    0.5269533     0.3105768    0.6062745 
   0.010999500     0.5684128   -0.3263732     0.3821585    0.4871495     0.3896084    0.4914904     0.4695793   -0.2725608 
   0.012999400     0.5831261   -0.3390033     0.5628796    0.2434121     0.5781001    0.2513122    -0.0134973   -0.5524147 
   0.014999300     0.5723546   -0.3818361     0.6023862    0.0369327     0.6235940    0.0363118    -0.3762704   -0.4479862 
   0.016999200     0.5419799   -0.4249330     0.5901827   -0.1280419     0.6098742   -0.1389453    -0.5596315   -0.2268343 
   0.018999100     0.5008289   -0.4617660     0.5506458   -0.2695066     0.5632327   -0.2871813    -0.6085828    0.0106878 
   0.020999000     0.4515236   -0.4897465     0.4892161   -0.3935011     0.4926982   -0.4130841    -0.5568553    0.2201614 
   0.022998900     0.3979886   -0.5076008     0.4080843   -0.5023946     0.4033497   -0.5190852    -0.4372490    0.3784057 
   0.024998800     0.3390113   -0.4899211     0.3493356   -0.6035947     0.2900642   -0.6108565    -0.3060480    0.5090202 
   0.026998700     0.2877190   -0.5068310     0.1864143   -0.6703270     0.1744720   -0.6723521    -0.1057863    0.5076088 
   0.028998600     0.2369942   -0.4885457     0.0475385   -0.7200729     0.0384643   -0.7148996     0.0597484    0.4796698 
   0.030998500     0.1938238   -0.4597647    -0.1048074   -0.7399227    -0.1077559   -0.7302646     0.1986947    0.3999157 
   0.032998400     0.1621614   -0.4065533    -0.2371245   -0.7659872    -0.2686121   -0.7129018     0.3175239    0.3121892 
   0.034998300     0.1416004   -0.3839042    -0.4183307   -0.6707203    -0.4087638   -0.6650020     0.3423879    0.1430894 
   0.036998200     0.1340725   -0.3459458    -0.5595390   -0.5812502    -0.5475255   -0.5810296     0.3344099    0.0039286 
   0.038998100     0.1371625   -0.3136668    -0.6764832   -0.4600153    -0.6660486   -0.4657104     0.2779273   -0.1153919 
   0.040998000     0.1474495   -0.2900612    -0.7620478   -0.3153397    -0.7563812   -0.3248370     0.1853479   -0.2000022 
   0.042997900     0.1609691   -0.2763876    -0.8131428   -0.1578694    -0.8122541   -0.1674818     0.0742845   -0.2407073 
   0.044997800     0.1709699   -0.2598128    -0.8605813   -0.0376061    -0.8334754    0.0074700    -0.0336026   -0.2529117 
   0.046997700     0.1816689   -0.2762070    -0.8097323    0.1622275    -0.8154992    0.1592933    -0.1360151   -0.1942825 
   0.048997600     0.1848017   -0.2848291    -0.7627006    0.3094506    -0.7675050    0.3102223    -0.2072645   -0.1227775 
   0.050997500     0.1815631   -0.2957367    -0.6911342    0.4418148    -0.6930022    0.4452718    -0.2464254   -0.0350216 
   0.052997400     0.1723271   -0.3064399    -0.5986773    0.5565174    -0.5980377    0.5595542    -0.2520922    0.0568980 
   0.054997300     0.1580419   -0.3149720    -0.4871127    0.6540357    -0.4882085    0.6522726    -0.2265490    0.1416349 
   0.056997200     0.1398926   -0.3202826    -0.3680910    0.7274323    -0.3635412    0.7255729    -0.1761679    0.2100938 
   0.058997100     0.1201591   -0.3209487    -0.2370618    0.7806988    -0.2324070    0.7756327    -0.1072767    0.2567175 
   0.060997000     0.1002971   -0.3168856    -0.0988903    0.8113791    -0.0969039    0.8036630    -0.0284887    0.2776426 
   0.062996900     0.0816675   -0.3084126     0.0429073    0.8185923     0.0408935    0.8098577     0.0520242    0.2717332 
   0.064996800     0.0663214   -0.2963091     0.1846322    0.8021329     0.1779139    0.7937326     0.1253759    0.2407996 
   0.066996700     0.0551257   -0.2817996     0.3222398    0.7611599     0.3117059    0.7551862     0.1845496    0.1887496 
   0.068996600     0.0484803   -0.2663521     0.4513549    0.6961690     0.4385476    0.6944510     0.2241966    0.1207931 
   0.070996500     0.0465457   -0.2518882     0.5683935    0.6092827     0.5547599    0.6121153     0.2402379    0.0447063 
   0.072996400     0.0485675   -0.2392872     0.6683303    0.5020406     0.6555286    0.5094698     0.2317062   -0.0317943 
   0.074996300     0.0535610   -0.2301184     0.7471383    0.3781863     0.7373580    0.3888824     0.1999094   -0.1013659 
   0.076996200     0.0599774   -0.2250310     0.8020371    0.2421488     0.7962843    0.2546169     0.1485344   -0.1562388 
   0.078996100     0.0662513   -0.2241780     0.8314219    0.0985237     0.8297054    0.1112840     0.0831274   -0.1918496 
   0.080996000     0.0707954   -0.2272190     0.8352364   -0.0471105     0.8358360   -0.0352394     0.0111445   -0.2046832 
   0.082995900     0.0723012   -0.2331251     0.8126883   -0.1900770     0.8153988   -0.1801234    -0.0601711   -0.1942519 
   0.084995800     0.0702472   -0.2402786     0.7657037   -0.3248794     0.7691250   -0.3170129    -0.1229718   -0.1624900 
   0.086995700     0.0642752   -0.2478977     0.6973639   -0.4491553     0.7006672   -0.4422620    -0.1717665   -0.1137087 
   0.088995600     0.0545063   -0.2542812     0.6102376   -0.5592706     0.6129343   -0.5516300    -0.2021629   -0.0535126 
   0.090995500     0.0416119   -0.2583123     0.5066328   -0.6522340     0.5093396   -0.6438384    -0.2123857    0.0113227 
   0.092995400     0.0262065   -0.2596827     0.3904095   -0.7267342     0.3941965   -0.7169822    -0.2023838    0.0746052 
   0.094995300     0.0099703   -0.2566310     0.2638337   -0.7803678     0.2693122   -0.7702217    -0.1745789    0.1303926 
   0.096995200    -0.0059596   -0.2496621     0.1309581   -0.8132508     0.1389271   -0.8026547    -0.1322446    0.1737918 
   0.098995100    -0.0204295   -0.2389682    -0.0053680   -0.8239244     0.0055739   -0.8144146    -0.0799973    0.2016925 
   0.100995000    -0.0343518   -0.2250792    -0.1434442   -0.8123040    -0.1292840   -0.8055045    -0.0210590    0.2126732 
   0.102994900    -0.0428967   -0.2088175    -0.2765541   -0.7782528    -0.2600982   -0.7750138     0.0342816    0.2050907 
   0.104994800    -0.0475666   -0.1914148    -0.4025681   -0.7226205    -0.3851477   -0.7236864     0.0830997    0.1814438 
   0.106994700    -0.0481540   -0.1739347    -0.5179521   -0.6461502    -0.5016270   -0.6521786     0.1211793    0.1449984 
   0.108994600    -0.0450880   -0.1576073    -0.6198039   -0.5514649    -0.6057432   -0.5616449     0.1450203    0.1001288 
   0.110994500    -0.0388079   -0.1434944    -0.7047307   -0.4405790    -0.6938248   -0.4539511     0.1530114    0.0516162 
   0.112994400    -0.0301059   -0.1321633    -0.7698807   -0.3164158    -0.7626230   -0.3315300     0.1452170    0.0046360 
   0.114994300    -0.0200795   -0.1242997    -0.8131401   -0.1825747    -0.8095908   -0.1981003     0.1232611   -0.0356308 
   0.116994200    -0.0097673   -0.1197343    -0.8326088   -0.0430311    -0.8325518   -0.0580601     0.0901825   -0.0651116 
   0.118994100    -0.0001488   -0.1182088    -0.8280361    0.0977316    -0.8306738    0.0841610     0.0502343   -0.0811628 
   0.120994000     0.0082729   -0.1191149    -0.7999662    0.2354757    -0.8041188    0.2233549     0.0084371   -0.0821661 
   0.122993900     0.0145800   -0.1217274    -0.7484800    0.3661399    -0.7537495    0.3556527    -0.0303120   -0.0685708 
   0.124993800     0.0188334   -0.1252634    -0.6761398    0.4859771    -0.6820586    0.4765400    -0.0611412   -0.0424592 
   0.126993700     0.0210814   -0.1289755    -0.5846785    0.5915469    -0.5915508    0.5824063    -0.0802411   -0.0078147 
   0.128993600     0.0216805   -0.1321717    -0.4769638    0.6796419    -0.4850196    0.6710693    -0.0857076    0.0311980 
   0.130993500     0.0211697   -0.1346224    -0.3565863    0.7488312    -0.3662229    0.7406439    -0.0770167    0.0697709 
   0.132993400     0.0200590   -0.1360627    -0.2267730    0.7968011    -0.2385038    0.7896213    -0.0552602    0.1031302 
   0.134993300     0.0188247   -0.1365305    -0.0911501    0.8226489    -0.1050021    0.8174015    -0.0228978    0.1273870 
   0.136993200     0.0180170   -0.1363654     0.0467400    0.8256223     0.0310823    0.8228714     0.0166680    0.1395610 
   0.138993100     0.0178699   -0.1359567     0.1831692    0.8058432     0.1663758    0.8064747     0.0587759    0.1379808 
   0.140993000     0.0184656   -0.1357198     0.3140808    0.7634969     0.2973477    0.7680094     0.0991025    0.1225548 
   0.142992900     0.0195839   -0.1362223     0.4362913    0.7001063     0.4207663    0.7085273     0.1330798    0.0944033 
   0.144992800     0.0210212   -0.1377410     0.5463080    0.6173901     0.5329606    0.6294531     0.1570478    0.0560244 
   0.146992700     0.0221397   -0.1404737     0.6404673    0.5171826     0.6302073    0.5317303     0.1684124    0.0113594 
   0.148992600     0.0225398   -0.1444797     0.7164558    0.4030602     0.7099943    0.4189845     0.1656362   -0.0354492 
   0.150992500     0.0216322   -0.1492461     0.7717678    0.2782580     0.7687126    0.2942894     0.1487301   -0.0801723 
   0.152992400     0.0189347   -0.1547786     0.8056307    0.1460546     0.8057104    0.1613675     0.1187353   -0.1182541 
   0.154992300     0.0142103   -0.1603488     0.8169203    0.0107876     0.8192933    0.0250673     0.0782367   -0.1462526 
   0.156992200     0.0073855   -0.1653221     0.8055902   -0.1239360     0.8097317   -0.1112517     0.0309921   -0.1611929 
   0.158992100    -0.0014274   -0.1691772     0.7723487   -0.2540607     0.7775912   -0.2428369    -0.0189836   -0.1616188 
   0.160992000    -0.0118059   -0.1709450     0.7183604   -0.3766296     0.7246144   -0.3660690    -0.0668431   -0.1474814 
   0.162991900    -0.0232334   -0.1703495     0.6455576   -0.4880493     0.6528071   -0.4781255    -0.1084802   -0.1202489 
   0.164991800    -0.0351282   -0.1669500     0.5561927   -0.5859038     0.5643290   -0.5765964    -0.1403746   -0.0822847 
   0.166991700    -0.0466798   -0.1607765     0.4527228   -0.6675016     0.4623928   -0.6587618    -0.1597833   -0.0374310 
   0.168991600    -0.0570244   -0.1520721     0.3376330   -0.7314209     0.3493513   -0.7236414    -0.1655853    0.0104491 
   0.170991500    -0.0656612   -0.1411156     0.2140030   -0.7760512     0.2276370   -0.7699334    -0.1575357    0.0573362 
   0.172991400    -0.0717395   -0.1281063     0.0851195   -0.8004009     0.1002866   -0.7966598    -0.1370850    0.0991110 
   0.174991300    -0.0749369   -0.1141737    -0.0460207   -0.8038502    -0.0297498   -0.8030554    -0.1064331    0.1324784 
   0.176991200    -0.0752171   -0.0997734    -0.1767157   -0.7860432    -0.1597669   -0.7887650    -0.0684928    0.1551265 
   0.178991100    -0.0726082   -0.0859951    -0.3030496   -0.7475855    -0.2867943   -0.7540258    -0.0271647    0.1656777 
   0.180991000    -0.0673118   -0.0734379    -0.4218216   -0.6891684    -0.4070742   -0.6986711     0.0139747    0.1640791 
   0.182990900    -0.0597200   -0.0626416    -0.5296825   -0.6112725    -0.5172271   -0.6240723     0.0512062    0.1511113 
   0.184990800    -0.0505150   -0.0541431    -0.6236171   -0.5166219    -0.6147503   -0.5312732     0.0819093    0.1289116 
   0.186990700    -0.0403768   -0.0481336    -0.7010548   -0.4073770    -0.6954893   -0.4228002     0.1032807    0.1002445 
   0.188990600    -0.0293038   -0.0454090    -0.7495226   -0.3089634    -0.7488126   -0.3208766     0.1121667    0.0715565 
   0.190990500    -0.0200960   -0.0436837    -0.7952336   -0.1600506    -0.7963964   -0.1751832     0.1151495    0.0372527 
   0.192990400    -0.0113613   -0.0444856    -0.8110299   -0.0227325    -0.8148241   -0.0373592     0.1068124    0.0085345 
   0.194990300    -0.0039406   -0.0467552    -0.8037480    0.1115715    -0.8093414    0.0986447     0.0907679   -0.0137049 
   0.196990200     0.0018974   -0.0499244    -0.7738897    0.2429772    -0.7811146    0.2308226     0.0698367   -0.0279769 
   0.198990100     0.0061280   -0.0534063    -0.7228392    0.3670613    -0.7314500    0.3562843     0.0470592   -0.0335065 
   0.200990000     0.0090067   -0.0567473    -0.6514853    0.4812926    -0.6617426    0.4714928     0.0253913   -0.0305594 
   0.202989900     0.0107633   -0.0595221    -0.5627750    0.5817295    -0.5742215    0.5733612     0.0077476   -0.0204622 
   0.204989800     0.0118510   -0.0614252    -0.4589778    0.6659384    -0.4714766    0.6594056    -0.0036674   -0.0052109 
   0.206989700     0.0127376   -0.0624492    -0.3429634    0.7320438    -0.3567551    0.7271655    -0.0076801    0.0125872 
   0.208989600     0.0138592   -0.0626294    -0.2176271    0.7779149    -0.2329836    0.7751390    -0.0040958    0.0301283 
   0.210989500     0.0155244   -0.0622496    -0.0867638    0.8028247    -0.1025310    0.8027524     0.0064003    0.0447441 
   0.212989400     0.0180372   -0.0616465     0.0463041    0.8057004     0.0312531    0.8086042     0.0224239    0.0541310 
   0.214989300     0.0214734   -0.0611874     0.1784434    0.7867092     0.1642904    0.7924269     0.0415539    0.0567561 
   0.216989200     0.0257920   -0.0613036     0.3053063    0.7462487     0.2924548    0.7545064     0.0611989    0.0518622 
   0.218989100     0.0308160   -0.0623700     0.4238006    0.6854399     0.4128515    0.6961169     0.0787291    0.0395785 
   0.220989000     0.0362275   -0.0646879     0.5306125    0.6057101     0.5219492    0.6178644     0.0916716    0.0209684 
   0.222988900     0.0416413   -0.0684918     0.6229879    0.5094843     0.6169293    0.5221106     0.0980108   -0.0021059 
   0.224988800     0.0466041   -0.0737616     0.6978268    0.3993898     0.6941954    0.4117899     0.0962757   -0.0270915 
   0.226988700     0.0507249   -0.0804225     0.7532896    0.2783426     0.7517564    0.2906855     0.0862039   -0.0514229 
   0.228988600     0.0535948   -0.0882375     0.7876656    0.1501780     0.7877057    0.1623734     0.0682549   -0.0721353 
   0.230988500     0.0548770   -0.0968924     0.8004881    0.0181962     0.8016900    0.0305727     0.0437260   -0.0868952 
   0.232988400     0.0542838   -0.1059419     0.7906690   -0.1135435     0.7937534   -0.1014337     0.0148565   -0.0935132 
   0.234988300     0.0518230   -0.1150614     0.7596922   -0.2418171     0.7643650   -0.2298521    -0.0155124   -0.0908899 
   0.236988200     0.0475241   -0.1237070     0.7079142   -0.3626390     0.7145929   -0.3512812    -0.0442964   -0.0789067 
   0.238988100     0.0416193   -0.1314630     0.6377574   -0.4728472     0.6460745   -0.4621558    -0.0687540   -0.0584244 
   0.240988000     0.0342947   -0.1380171     0.5503725   -0.5696368     0.5610806   -0.5601202    -0.0863074   -0.0311986 
   0.242987900     0.0260093   -0.1431273     0.4490637   -0.6506153     0.4623346   -0.6426010    -0.0951067    0.0006469 
   0.244987800     0.0170022   -0.1464213     0.3358374   -0.7137677     0.3518438   -0.7081128    -0.0941485    0.0341615 
   0.246987700     0.0076506   -0.1480014     0.2145007   -0.7577543     0.2321540   -0.7552674    -0.0833710    0.0661584 
   0.248987600    -0.0016655   -0.1480396     0.0884140   -0.7813072     0.1056874   -0.7828068    -0.0636512    0.0938828 
   0.250987500    -0.0104821   -0.1463659    -0.0404121   -0.7839982    -0.0237610   -0.7894128    -0.0364919    0.1148503 
   0.252987400    -0.0184547   -0.1433766    -0.1672959   -0.7660421    -0.1523168   -0.7751106    -0.0044464    0.1272289 
   0.254987300    -0.0253790   -0.1393516    -0.2895535   -0.7279187    -0.2766116   -0.7399650     0.0296717    0.1298820 
   0.256987200    -0.0311809   -0.1345555    -0.4036408   -0.6705952    -0.3938677   -0.6848072     0.0629937    0.1227952 
   0.258987100    -0.0359358   -0.1293504    -0.5072781   -0.5957000    -0.5004894   -0.6111163     0.0929508    0.1065717 
   0.260987000    -0.0395226   -0.1237390    -0.5971504   -0.5046401    -0.5936922   -0.5203855     0.1165830    0.0828655 
   0.262986900    -0.0421323   -0.1181720    -0.6711041   -0.4003161    -0.6709003   -0.4153929     0.1322336    0.0538658 
   0.264986800    -0.0438415   -0.1128119    -0.7273538   -0.2853687    -0.7293558   -0.2987843     0.1389140    0.0220528 
   0.266986700    -0.0447988   -0.1077643    -0.7639827   -0.1623265    -0.7678034   -0.1744086     0.1361922   -0.0094772 
   0.268986600    -0.0451024   -0.1031706    -0.7797986   -0.0353574    -0.7849693   -0.0458631     0.1246850   -0.0379979 
   0.270986500    -0.0449551   -0.0990709    -0.7746797    0.0925078    -0.7809336    0.0829568     0.1058935   -0.0611053 
   0.272986400    -0.0445204   -0.0953663    -0.7489766    0.2179321    -0.7558712    0.2087731     0.0819410   -0.0768672 
   0.274986300    -0.0438133   -0.0919529    -0.7027481    0.3376760    -0.7108704    0.3288196     0.0554194   -0.0842170 
   0.276986200    -0.0428834   -0.0887013    -0.6376893    0.4479307    -0.6474338    0.4400768     0.0292659   -0.0828685 
   0.278986100    -0.0417718   -0.0856229    -0.5552206    0.5461100    -0.5664145    0.5394439     0.0062058   -0.0735884 
   0.280986000    -0.0404443   -0.0826971    -0.4578926    0.6296434    -0.4701102    0.6248103    -0.0114398   -0.0580306 
   0.282985900    -0.0388392   -0.0799952    -0.3481061    0.6958923    -0.3608389    0.6933071    -0.0219726   -0.0383892 
   0.284985800    -0.0368237   -0.0774724    -0.2291191    0.7431030    -0.2415910    0.7429081    -0.0246321   -0.0173420 
   0.286985700    -0.0344043   -0.0753239    -0.1038797    0.7700074    -0.1160150    0.7723495    -0.0194892    0.0022495 
   0.288985600    -0.0315030   -0.0737093     0.0244302    0.7761937     0.0120433    0.7808332    -0.0074862    0.0179639 
   0.290985500    -0.0281430   -0.0727783     0.1517381    0.7609159     0.1399690    0.7677664     0.0095252    0.0276299 
   0.292985400    -0.0244502   -0.0726655     0.2747177    0.7248356     0.2642643    0.7336534     0.0291046    0.0297917 
   0.294985300    -0.0205646   -0.0735271     0.3898206    0.6687874     0.3809847    0.6792169     0.0485078    0.0239386 
   0.296985200    -0.0168000   -0.0754498     0.4942692    0.5944941     0.4875627    0.6057581     0.0649567    0.0104911 
   0.298985100    -0.0134214   -0.0785197     0.5845587    0.5038775     0.5801774    0.5148270     0.0757572   -0.0092329 
   0.300985000    -0.0107451   -0.0827427     0.6584178    0.3994043     0.6560674    0.4099202     0.0788376   -0.0330747 
   0.302984900    -0.0091049   -0.0880296     0.7135665    0.2839499     0.7125176    0.2944623     0.0729308   -0.0579859 
   0.304984800    -0.0087946   -0.0942025     0.7486105    0.1613081     0.7489422    0.1718998     0.0579519   -0.0807611 
   0.306984700    -0.0101316   -0.1011239     0.7622280    0.0353391     0.7637694    0.0458950     0.0348334   -0.0982978 
   0.308984600    -0.0132482   -0.1081487     0.7544992   -0.0905351     0.7578529   -0.0795956     0.0054450   -0.1077472 
   0.310984500    -0.0180590   -0.1147384     0.7258281   -0.2123416     0.7311866   -0.2013735    -0.0271611   -0.1071212 
   0.312984400    -0.0247439   -0.1205573     0.6776190   -0.3269502     0.6853773   -0.3159793    -0.0592934   -0.0952477 
   0.314984300    -0.0331109   -0.1250797     0.6114876   -0.4309505     0.6218320   -0.4211297    -0.0871027   -0.0723575 
