! MS46122B
! 2250307/22442219
! 7/31/2025 8:36:13 AM
! C:\USERS\SPARKY\DOCUMENTS\VNA_DATA\JULY31_2025\295K\PORT5.S2P
! CHANNEL.1
! TR.MEASUREMENT
! RAW.DATA
# GHZ S RI R 50.0
! FREQ.GHZ         S11RE         S11IM         S21RE         S21IM         S12RE         S12IM         S22RE         S22IM         
!; PortSelection: Port_12
   0.001000000     1.0438510   -0.0697364     0.0000042    0.0000005     0.0000109   -0.0000139     0.8137674   -0.5559207 
   0.002999900     0.9515190   -0.1917682     0.0000018    0.0000002     0.0000027   -0.0000065     0.0287759   -0.8770679 
   0.004999800     0.8761328   -0.2751807     0.0000002   -0.0000003    -0.0000423   -0.0000012    -0.7537153   -0.4290424 
   0.006999700     0.7908825   -0.3641572    -0.0000039   -0.0000021    -0.0000173    0.0000052    -0.8096486    0.4859583 
   0.008999600     0.6999815   -0.4013770     0.0000011    0.0000021    -0.0000002    0.0000027    -0.1138232    0.9870583 
   0.010999500     0.6242030   -0.4260445    -0.0000009   -0.0000010    -0.0000013    0.0000019     0.5756493    0.8014977 
   0.012999400     0.5592967   -0.4403314    -0.0000023    0.0000007     0.0000017    0.0000019     0.8999970    0.3385012 
   0.014999300     0.5040473   -0.4476655     0.0000010    0.0000015     0.0000004    0.0000002     0.9347111   -0.1137626 
   0.016999200     0.4561121   -0.4494831    -0.0000018    0.0000011     0.0000000   -0.0000007     0.8055766   -0.4675142 
   0.018999100     0.4158784   -0.4473593     0.0000007    0.0000013    -0.0000016   -0.0000012     0.5946879   -0.7134286 
   0.020999000     0.3821790   -0.4429559    -0.0000007    0.0000045     0.0000004   -0.0000006     0.3505436   -0.8616872 
   0.022998900     0.3530539   -0.4370607     0.0000009    0.0000001    -0.0000027    0.0000007     0.1009105   -0.9268259 
   0.024998800     0.3226497   -0.4093178    -0.0000007    0.0000007     0.0000001   -0.0000011    -0.1266050   -0.9949394 
   0.026998700     0.3050644   -0.4231586     0.0000028   -0.0000021     0.0000016    0.0000019    -0.3496565   -0.8651714 
   0.028998600     0.2847680   -0.4152458     0.0000013    0.0000015     0.0000023    0.0000015    -0.5310035   -0.7637517 
   0.030998500     0.2660247   -0.4070658     0.0000009   -0.0000011    -0.0000009    0.0000018    -0.6773748   -0.6315057 
   0.032998400     0.2452429   -0.3810070    -0.0000002   -0.0000016     0.0000002   -0.0000027    -0.8343422   -0.5272718 
   0.034998300     0.2315775   -0.3901518     0.0000018   -0.0000004     0.0000013    0.0000008    -0.8591859   -0.3139459 
   0.036998200     0.2160590   -0.3815269    -0.0000004    0.0000014    -0.0000013   -0.0000028    -0.8976559   -0.1448384 
   0.038998100     0.2014931   -0.3730129    -0.0000029   -0.0000023     0.0000018    0.0000018    -0.9045041    0.0223509 
   0.040998000     0.1876454   -0.3645459     0.0000009   -0.0000038    -0.0000018   -0.0000009    -0.8820107    0.1831674 
   0.042997900     0.1747523   -0.3561157     0.0000013   -0.0000023    -0.0000033    0.0000013    -0.8334928    0.3341115 
   0.044997800     0.1613318   -0.3335401    -0.0000015   -0.0000016    -0.0000011   -0.0000016    -0.8282208    0.4972833 
   0.046997700     0.1497329   -0.3398048    -0.0000016   -0.0000016     0.0000007   -0.0000016    -0.6702337    0.5947119 
   0.048997600     0.1387957   -0.3317494    -0.0000013   -0.0000005    -0.0000039   -0.0000020    -0.5610583    0.6985409 
   0.050997500     0.1286700   -0.3237967    -0.0000012    0.0000007    -0.0000006   -0.0000049    -0.4362863    0.7825543 
   0.052997400     0.1194661   -0.3160738    -0.0000074   -0.0000059    -0.0000009   -0.0000004    -0.3010169    0.8441607 
   0.054997300     0.1108567   -0.3085555    -0.0000082   -0.0000016    -0.0000035    0.0000000    -0.1552798    0.8828986 
   0.056997200     0.1027260   -0.3016481    -0.0000008   -0.0000013     0.0000011   -0.0000004    -0.0088816    0.8961162 
   0.058997100     0.0954949   -0.2949927    -0.0000042    0.0000005    -0.0000017    0.0000022     0.1396471    0.8842934 
   0.060997000     0.0887286   -0.2888184     0.0000014   -0.0000002    -0.0000009    0.0000005     0.2850243    0.8475567 
   0.062996900     0.0826597   -0.2830060    -0.0000019    0.0000009    -0.0000018    0.0000028     0.4222879    0.7868803 
   0.064996800     0.0771568   -0.2775608    -0.0000030   -0.0000008    -0.0000011    0.0000004     0.5481921    0.7030623 
   0.066996700     0.0720571   -0.2724893     0.0000014    0.0000025     0.0000013    0.0000015     0.6586921    0.5986668 
   0.068996600     0.0672475   -0.2677020    -0.0000017    0.0000030    -0.0000017    0.0000040     0.7509369    0.4751362 
   0.070996500     0.0627825   -0.2634891     0.0000014    0.0000013     0.0000008    0.0000018     0.8209407    0.3369229 
   0.072996400     0.0584112   -0.2592518     0.0000003   -0.0000001    -0.0000007    0.0000010     0.8663931    0.1873705 
   0.074996300     0.0541779   -0.2552191    -0.0000010   -0.0000003     0.0000014    0.0000003     0.8851089    0.0309619 
   0.076996200     0.0499740   -0.2513511    -0.0000005    0.0000028     0.0000027   -0.0000018     0.8752764   -0.1284954 
   0.078996100     0.0458210   -0.2475481     0.0000000    0.0000007     0.0000036   -0.0000012     0.8374276   -0.2847022 
   0.080996000     0.0415247   -0.2438685     0.0000018    0.0000009     0.0000005   -0.0000002     0.7709229   -0.4320721 
   0.082995900     0.0371231   -0.2401681     0.0000028   -0.0000003     0.0000044   -0.0000013     0.6782522   -0.5656169 
   0.084995800     0.0328621   -0.2361993     0.0000009   -0.0000006     0.0000002    0.0000016     0.5614149   -0.6807418 
   0.086995700     0.0283127   -0.2321788    -0.0000002   -0.0000009     0.0000040   -0.0000003     0.4255196   -0.7727062 
   0.088995600     0.0238281   -0.2281104     0.0000020   -0.0000021     0.0000009   -0.0000006     0.2743554   -0.8373687 
   0.090995500     0.0194465   -0.2239148     0.0000025    0.0000001     0.0000021   -0.0000001     0.1139431   -0.8729242 
   0.092995400     0.0151886   -0.2197489     0.0000008   -0.0000012     0.0000010   -0.0000033    -0.0502899   -0.8781915 
   0.094995300     0.0110310   -0.2151218     0.0000024   -0.0000031     0.0000002   -0.0000027    -0.2121080   -0.8534443 
   0.096995200     0.0070119   -0.2102566     0.0000034    0.0000002    -0.0000004    0.0000002    -0.3660393   -0.7990917 
   0.098995100     0.0031973   -0.2051808     0.0000015    0.0000013     0.0000013    0.0000017    -0.5069830   -0.7181361 
   0.100995000    -0.0019248   -0.2006356     0.0000002   -0.0000011     0.0000001   -0.0000014    -0.6314148   -0.6129180 
   0.102994900    -0.0052260   -0.1950672    -0.0000007    0.0000001    -0.0000005   -0.0000020    -0.7324251   -0.4884528 
   0.104994800    -0.0080377   -0.1893633     0.0000011   -0.0000028     0.0000009   -0.0000009    -0.8087999   -0.3489572 
   0.106994700    -0.0104030   -0.1833611    -0.0000010   -0.0000014     0.0000009   -0.0000011    -0.8586937   -0.1989680 
   0.108994600    -0.0123178   -0.1774728    -0.0000008   -0.0000010     0.0000005   -0.0000026    -0.8808664   -0.0439911 
   0.110994500    -0.0136870   -0.1715603    -0.0000009   -0.0000028     0.0000001   -0.0000005    -0.8757975    0.1111245 
   0.112994400    -0.0145608   -0.1656983     0.0000007   -0.0000012     0.0000006   -0.0000013    -0.8438570    0.2615719 
   0.114994300    -0.0148842   -0.1599593    -0.0000018   -0.0000012     0.0000000   -0.0000010    -0.7870947    0.4033153 
   0.116994200    -0.0146588   -0.1544001     0.0000002   -0.0000024     0.0000000   -0.0000004    -0.7071297    0.5318052 
   0.118994100    -0.0140086   -0.1490377    -0.0000023   -0.0000014     0.0000007   -0.0000006    -0.6073793    0.6441169 
   0.120994000    -0.0126858   -0.1439080    -0.0000004   -0.0000001     0.0000005   -0.0000019    -0.4907700    0.7368962 
   0.122993900    -0.0110179   -0.1393493    -0.0000013    0.0000000    -0.0000001   -0.0000003    -0.3609456    0.8086311 
   0.124993800    -0.0089881   -0.1352500    -0.0000026    0.0000005     0.0000000   -0.0000002    -0.2217199    0.8576469 
   0.126993700    -0.0066635   -0.1317054    -0.0000010   -0.0000005     0.0000000    0.0000009    -0.0769312    0.8824499 
   0.128993600    -0.0041201   -0.1285758    -0.0000013   -0.0000003    -0.0000007    0.0000004     0.0693876    0.8829876 
   0.130993500    -0.0013827   -0.1261887    -0.0000014    0.0000002    -0.0000001   -0.0000008     0.2137409    0.8591872 
   0.132993400     0.0014099   -0.1244201    -0.0000005   -0.0000001    -0.0000008   -0.0000003     0.3520209    0.8119769 
   0.134993300     0.0041586   -0.1232846    -0.0000006   -0.0000016     0.0000001    0.0000004     0.4804003    0.7425668 
   0.136993200     0.0067556   -0.1227301    -0.0000016   -0.0000008    -0.0000012   -0.0000002     0.5955180    0.6527582 
   0.138993100     0.0091208   -0.1227985    -0.0000020    0.0000009     0.0000011    0.0000013     0.6942998    0.5446574 
   0.140993000     0.0111724   -0.1233551    -0.0000016    0.0000012    -0.0000003    0.0000003     0.7741580    0.4212408 
   0.142992900     0.0127672   -0.1244002     0.0000005    0.0000016     0.0000003   -0.0000005     0.8323235    0.2861149 
   0.144992800     0.0139811   -0.1259432     0.0000002    0.0000010    -0.0000005   -0.0000002     0.8663918    0.1423430 
   0.146992700     0.0145864   -0.1276987    -0.0000007    0.0000019     0.0000004    0.0000003     0.8762428   -0.0054100 
   0.148992600     0.0145919   -0.1296836    -0.0000014    0.0000007     0.0000010    0.0000009     0.8608166   -0.1535625 
   0.150992500     0.0139834   -0.1316830    -0.0000001   -0.0000001     0.0000009   -0.0000003     0.8207228   -0.2974792 
   0.152992400     0.0127208   -0.1337987     0.0000003    0.0000008    -0.0000002    0.0000004     0.7558230   -0.4328294 
   0.154992300     0.0108159   -0.1358291     0.0000005    0.0000011     0.0000013    0.0000002     0.6681758   -0.5551283 
   0.156992200     0.0082811   -0.1376502    -0.0000014    0.0000026     0.0000013    0.0000008     0.5601470   -0.6610538 
   0.158992100     0.0052028   -0.1391445     0.0000007    0.0000008    -0.0000003    0.0000007     0.4350756   -0.7467040 
   0.160992000     0.0016136   -0.1402302     0.0000016    0.0000023     0.0000015    0.0000009     0.2965743   -0.8093735 
   0.162991900    -0.0024337   -0.1408022     0.0000007    0.0000007     0.0000019   -0.0000004     0.1489154   -0.8466779 
   0.164991800    -0.0068664   -0.1407888     0.0000020    0.0000009     0.0000018    0.0000008    -0.0032624   -0.8575764 
   0.166991700    -0.0115219   -0.1401227     0.0000019   -0.0000002     0.0000026   -0.0000005    -0.1546438   -0.8416131 
   0.168991600    -0.0163475   -0.1387470     0.0000005   -0.0000030     0.0000005   -0.0000014    -0.3010104   -0.7990212 
   0.170991500    -0.0212586   -0.1366392    -0.0000003   -0.0000005     0.0000010    0.0000003    -0.4374622   -0.7314160 
   0.172991400    -0.0260572   -0.1337923    -0.0000003    0.0000003     0.0000009   -0.0000004    -0.5594029   -0.6409832 
   0.174991300    -0.0306522   -0.1301808     0.0000022   -0.0000016     0.0000001    0.0000013    -0.6633460   -0.5310603 
   0.176991200    -0.0349222   -0.1258776     0.0000005   -0.0000013     0.0000021    0.0000011    -0.7460247   -0.4051666 
   0.178991100    -0.0387446   -0.1208472     0.0000002   -0.0000001     0.0000008   -0.0000001    -0.8053588   -0.2670510 
   0.180991000    -0.0419960   -0.1152858     0.0000005    0.0000007     0.0000026    0.0000004    -0.8392996   -0.1215101 
   0.182990900    -0.0445829   -0.1090716     0.0000006   -0.0000007     0.0000034    0.0000008    -0.8478952    0.0267972 
   0.184990800    -0.0463651   -0.1024305    -0.0000014    0.0000017     0.0000021   -0.0000018    -0.8306564    0.1735920 
   0.186990700    -0.0473235   -0.0954442     0.0000010    0.0000013     0.0000033   -0.0000019    -0.7887682    0.3146170 
   0.188990600    -0.0453686   -0.0894114    -0.0000002   -0.0000006     0.0000027   -0.0000026    -0.7373002    0.4260441 
   0.190990500    -0.0460923   -0.0811924     0.0000010   -0.0000022     0.0000021   -0.0000027    -0.6407275    0.5612630 
   0.192990400    -0.0443640   -0.0738608    -0.0000003   -0.0000016     0.0000015   -0.0000027    -0.5346810    0.6642569 
   0.194990300    -0.0414203   -0.0669489     0.0000000   -0.0000006     0.0000015   -0.0000023    -0.4159085    0.7460917 
   0.196990200    -0.0374988   -0.0604588    -0.0000020   -0.0000007     0.0000019   -0.0000041    -0.2857775    0.8066682 
   0.198990100    -0.0326892   -0.0544653    -0.0000016   -0.0000029     0.0000003   -0.0000027    -0.1478126    0.8446934 
   0.200990000    -0.0270405   -0.0491943    -0.0000013   -0.0000016     0.0000010   -0.0000021    -0.0060323    0.8592072 
   0.202989900    -0.0206439   -0.0447305    -0.0000012    0.0000001     0.0000002   -0.0000031     0.1360388    0.8500084 
   0.204989800    -0.0136061   -0.0412369    -0.0000014   -0.0000013     0.0000003   -0.0000025     0.2746381    0.8176224 
   0.206989700    -0.0060960   -0.0387261    -0.0000020   -0.0000004     0.0000011   -0.0000021     0.4061146    0.7629929 
   0.208989600     0.0017612   -0.0373602    -0.0000015   -0.0000008     0.0000007   -0.0000027     0.5266100    0.6873342 
   0.210989500     0.0098023   -0.0371601    -0.0000034    0.0000005     0.0000020   -0.0000031     0.6331354    0.5927266 
   0.212989400     0.0178949   -0.0381765    -0.0000018    0.0000019     0.0000010   -0.0000035     0.7228979    0.4813694 
   0.214989300     0.0257930   -0.0404489    -0.0000023    0.0000009     0.0000013   -0.0000022     0.7930915    0.3564869 
   0.216989200     0.0333182   -0.0438750    -0.0000015    0.0000002     0.0000013   -0.0000023     0.8418253    0.2212140 
   0.218989100     0.0402866   -0.0484706    -0.0000022    0.0000021     0.0000001   -0.0000030     0.8672454    0.0792824 
   0.220989000     0.0465381   -0.0540924    -0.0000003    0.0000007     0.0000006   -0.0000009     0.8685451   -0.0657894 
   0.222988900     0.0519247   -0.0606623    -0.0000007    0.0000014    -0.0000002   -0.0000027     0.8450769   -0.2096823 
   0.224988800     0.0562824   -0.0680737    -0.0000011    0.0000026     0.0000001   -0.0000031     0.7976407   -0.3482467 
   0.226988700     0.0595084   -0.0761296    -0.0000014   -0.0000002     0.0000002   -0.0000036     0.7268397   -0.4770440 
   0.228988600     0.0615737   -0.0846135     0.0000002    0.0000018     0.0000017   -0.0000020     0.6343817   -0.5924957 
   0.230988500     0.0623596   -0.0934175     0.0000009    0.0000018     0.0000010   -0.0000021     0.5229217   -0.6907305 
   0.232988400     0.0617653   -0.1022436     0.0000010    0.0000011     0.0000007   -0.0000019     0.3954676   -0.7684996 
   0.234988300     0.0598989   -0.1110987     0.0000005    0.0000013     0.0000004   -0.0000021     0.2558645   -0.8230492 
   0.236988200     0.0566623   -0.1196743     0.0000012    0.0000012     0.0000009   -0.0000024     0.1083901   -0.8523231 
   0.238988100     0.0522861   -0.1277853    -0.0000001    0.0000009     0.0000017   -0.0000027    -0.0422937   -0.8551672 
   0.240988000     0.0468402   -0.1352867     0.0000019    0.0000017     0.0000016   -0.0000008    -0.1915308   -0.8314432 
   0.242987900     0.0403416   -0.1421559     0.0000032    0.0000010     0.0000019   -0.0000018    -0.3341881   -0.7813392 
   0.244987800     0.0329390   -0.1478467     0.0000015    0.0000008     0.0000026   -0.0000028    -0.4655992   -0.7069536 
   0.246987700     0.0247079   -0.1524684     0.0000004   -0.0000004     0.0000024   -0.0000012    -0.5816060   -0.6102365 
   0.248987600     0.0157531   -0.1558941     0.0000029    0.0000000     0.0000046   -0.0000019    -0.6785005   -0.4947745 
   0.250987500     0.0062444   -0.1582330     0.0000029   -0.0000001     0.0000050   -0.0000034    -0.7530752   -0.3641448 
   0.252987400    -0.0032456   -0.1591647     0.0000003   -0.0000008     0.0000050   -0.0000045    -0.8032312   -0.2232212 
   0.254987300    -0.0126921   -0.1588147     0.0000013   -0.0000008     0.0000051   -0.0000038    -0.8275957   -0.0760866 
   0.256987200    -0.0219339   -0.1571895     0.0000017   -0.0000027     0.0000055   -0.0000061    -0.8255795    0.0721420 
   0.258987100    -0.0308693   -0.1545507     0.0000018   -0.0000019     0.0000061   -0.0000073    -0.7976949    0.2172160 
   0.260987000    -0.0393256   -0.1504831    -0.0000001   -0.0000028     0.0000056   -0.0000087    -0.7453499    0.3542280 
   0.262986900    -0.0471314   -0.1452805     0.0000008   -0.0000012     0.0000036   -0.0000100    -0.6705540    0.4792348 
   0.264986800    -0.0543335   -0.1391388    -0.0000007   -0.0000010     0.0000031   -0.0000118    -0.5757985    0.5886595 
   0.266986700    -0.0603812   -0.1319404    -0.0000002   -0.0000026    -0.0000008   -0.0000125    -0.4644464    0.6797515 
   0.268986600    -0.0652174   -0.1242229    -0.0000012   -0.0000022    -0.0000026   -0.0000129    -0.3397906    0.7501405 
   0.270986500    -0.0687833   -0.1161561    -0.0000015   -0.0000030    -0.0000055   -0.0000097    -0.2057631    0.7979296 
   0.272986400    -0.0710871   -0.1078157    -0.0000011   -0.0000022    -0.0000066   -0.0000063    -0.0663924    0.8225461 
   0.274986300    -0.0720972   -0.0993680    -0.0000026   -0.0000025    -0.0000050   -0.0000046     0.0743001    0.8232045 
   0.276986200    -0.0718327   -0.0910065    -0.0000009   -0.0000016    -0.0000049   -0.0000033     0.2128359    0.7996525 
   0.278986100    -0.0703347   -0.0829204    -0.0000022   -0.0000019    -0.0000009   -0.0000019     0.3450433    0.7541562 
   0.280986000    -0.0675997   -0.0752108    -0.0000021   -0.0000012    -0.0000015   -0.0000041     0.4676197    0.6876401 
   0.282985900    -0.0637759   -0.0681487    -0.0000030   -0.0000013    -0.0000003   -0.0000071     0.5769740    0.6019087 
   0.284985800    -0.0589860   -0.0621144    -0.0000014   -0.0000007    -0.0000010   -0.0000081     0.6709511    0.4992462 
   0.286985700    -0.0533380   -0.0571558    -0.0000017   -0.0000009    -0.0000011   -0.0000076     0.7463545    0.3824719 
   0.288985600    -0.0469132   -0.0534197    -0.0000028    0.0000000    -0.0000004   -0.0000086     0.8017459    0.2547187 
   0.290985500    -0.0400244   -0.0510706    -0.0000043    0.0000007    -0.0000040   -0.0000094     0.8350444    0.1192754 
   0.292985400    -0.0330079   -0.0501861    -0.0000030    0.0000007    -0.0000044   -0.0000092     0.8456308   -0.0203934 
   0.294985300    -0.0259901   -0.0507045    -0.0000053    0.0000006    -0.0000053   -0.0000086     0.8326235   -0.1602834 
   0.296985200    -0.0192431   -0.0525885    -0.0000019    0.0000006    -0.0000078   -0.0000088     0.7963216   -0.2965413 
   0.298985100    -0.0130182   -0.0558252    -0.0000019    0.0000023    -0.0000086   -0.0000059     0.7374986   -0.4253894 
   0.300985000    -0.0076111   -0.0603440    -0.0000010    0.0000033    -0.0000094   -0.0000048     0.6575700   -0.5429014 
   0.302984900    -0.0032289   -0.0660555    -0.0000017    0.0000018    -0.0000095   -0.0000046     0.5583988   -0.6456818 
   0.304984800    -0.0000708   -0.0728025    -0.0000001    0.0000018    -0.0000104   -0.0000027     0.4427930   -0.7307062 
   0.306984700     0.0016162   -0.0803695    -0.0000009    0.0000020    -0.0000084   -0.0000008     0.3136104   -0.7950324 
   0.308984600     0.0017234   -0.0884809     0.0000017    0.0000021    -0.0000090    0.0000015     0.1749588   -0.8364382 
   0.310984500     0.0001298   -0.0968762     0.0000002    0.0000036    -0.0000078    0.0000023     0.0304384   -0.8533840 
   0.312984400    -0.0033890   -0.1054110     0.0000016    0.0000024    -0.0000066    0.0000017    -0.1154018   -0.8453552 
   0.314984300    -0.0088045   -0.1132748     0.0000015    0.0000014    -0.0000049    0.0000034    -0.2580535   -0.8119485 
