! MS46122B
! 2250307/22442219
! 8/1/2025 10:39:09 AM
! C:\USERS\SPARKY\DOCUMENTS\VNA_DATA\AUGUST1_2025\3K\PORT1_REPEAT3.S2P
! CHANNEL.1
! TR.MEASUREMENT
! RAW.DATA
# GHZ S RI R 50.0
! FREQ.GHZ         S11RE         S11IM         S21RE         S21IM         S12RE         S12IM         S22RE         S22IM         
!; PortSelection: Port_12
   0.001000000     1.0442100   -0.0686283    -0.0004005   -0.0010224    -0.0003686   -0.0010375     0.8182967   -0.5511335 
   0.002999900     0.9605051   -0.1957367    -0.0236127   -0.0154866    -0.0246347   -0.0161556     0.0659544   -0.8777965 
   0.004999800     0.8702384   -0.3133250    -0.1433333    0.0273193    -0.1507574    0.0319356    -0.6947679   -0.3625919 
   0.006999700     0.7716781   -0.4069119    -0.1876248    0.1384086    -0.1919440    0.1520800    -0.7386615    0.2680523 
   0.008999600     0.5934981   -0.3994969    -0.0547822    0.5187100    -0.0368072    0.5273923     0.3091360    0.6057186 
   0.010999500     0.5683560   -0.3260967     0.3822113    0.4869013     0.3898043    0.4905105     0.4683145   -0.2715676 
   0.012999400     0.5830539   -0.3392496     0.5624638    0.2432898     0.5774658    0.2504358    -0.0128186   -0.5507343 
   0.014999300     0.5721242   -0.3820892     0.6019568    0.0370277     0.6227053    0.0358819    -0.3742392   -0.4470567 
   0.016999200     0.5416583   -0.4251767     0.5898152   -0.1278797     0.6088696   -0.1392224    -0.5570759   -0.2270186 
   0.018999100     0.5004942   -0.4619933     0.5502972   -0.2693090     0.5621567   -0.2872518    -0.6059784    0.0095090 
   0.020999000     0.4512160   -0.4899570     0.4887678   -0.3932715     0.4915467   -0.4129124    -0.5545418    0.2180501 
   0.022998900     0.3977155   -0.5078046     0.4075292   -0.5020707     0.4021424   -0.5186861    -0.4355356    0.3755349 
   0.024998800     0.3387890   -0.4901423     0.3486986   -0.6031007     0.2888168   -0.6101023    -0.3049666    0.5053794 
   0.026998700     0.2875517   -0.5071251     0.1858517   -0.6695900     0.1733695   -0.6713106    -0.1058314    0.5039113 
   0.028998600     0.2368874   -0.4889926     0.0471989   -0.7191271     0.0374778   -0.7135080     0.0586416    0.4760318 
   0.030998500     0.1937101   -0.4603788    -0.1049574   -0.7387260    -0.1083780   -0.7284858     0.1965308    0.3966564 
   0.032998400     0.1619822   -0.4073470    -0.2369139   -0.7645694    -0.2688242   -0.7108598     0.3144065    0.3093542 
   0.034998300     0.1412610   -0.3849290    -0.4177140   -0.6694429    -0.4084726   -0.6628996     0.3388994    0.1414988 
   0.036998200     0.1334461   -0.3471037    -0.5584827   -0.5801751    -0.5466707   -0.5790031     0.3307041    0.0034580 
   0.038998100     0.1362029   -0.3148388    -0.6751608   -0.4592476    -0.6646955   -0.4639056     0.2744035   -0.1148474 
   0.040998000     0.1461302   -0.2912128    -0.7605597   -0.3150085    -0.7546507   -0.3234878     0.1823982   -0.1986220 
   0.042997900     0.1593360   -0.2773486    -0.8116473   -0.1579362    -0.8103403   -0.1665119     0.0720115   -0.2387200 
   0.044997800     0.1691265   -0.2605271    -0.8591540   -0.0379730    -0.8313384    0.0078155    -0.0353317   -0.2504436 
   0.046997700     0.1796374   -0.2765821    -0.8085895    0.1614780    -0.8135062    0.1592094    -0.1367851   -0.1919571 
   0.048997600     0.1826724   -0.2848093    -0.7618482    0.3085222    -0.7656693    0.3096512    -0.2073782   -0.1206425 
   0.050997500     0.1794204   -0.2953658    -0.6905220    0.4407414    -0.6914033    0.4444492    -0.2460942   -0.0331654 
   0.052997400     0.1702471   -0.3057795    -0.5983288    0.5554749    -0.5966601    0.5585415    -0.2514644    0.0584451 
   0.054997300     0.1561687   -0.3139521    -0.4870237    0.6530393    -0.4871962    0.6510621    -0.2257724    0.1427698 
   0.056997200     0.1381778   -0.3190360    -0.3680638    0.7264859    -0.3626538    0.7243131    -0.1753238    0.2109645 
   0.058997100     0.1186640   -0.3194988    -0.2371574    0.7797931    -0.2317598    0.7743185    -0.1064529    0.2573314 
   0.060997000     0.0990176   -0.3152567    -0.0990734    0.8105280    -0.0963609    0.8022880    -0.0276988    0.2780327 
   0.062996900     0.0806948   -0.3067235     0.0426647    0.8178371     0.0412631    0.8084317     0.0527089    0.2719795 
   0.064996800     0.0656413   -0.2945590     0.1843004    0.8014146     0.1780658    0.7922879     0.1259633    0.2410070 
   0.066996700     0.0546881   -0.2800357     0.3217562    0.7604762     0.3117120    0.7537155     0.1850618    0.1889145 
   0.068996600     0.0483324   -0.2646185     0.4508716    0.6954734     0.4382792    0.6929238     0.2246799    0.1210173 
   0.070996500     0.0466101   -0.2502082     0.5677838    0.6086532     0.5542949    0.6105967     0.2407118    0.0449295 
   0.072996400     0.0488819   -0.2377539     0.6676477    0.5014840     0.6548534    0.5079995     0.2322192   -0.0315147 
   0.074996300     0.0540504   -0.2287133     0.7463370    0.3777299     0.7363830    0.3874948     0.2005138   -0.1010400 
   0.076996200     0.0606334   -0.2237871     0.8011824    0.2418453     0.7950584    0.2533899     0.1492689   -0.1559596 
   0.078996100     0.0670432   -0.2231208     0.8305085    0.0983263     0.8282450    0.1103154     0.0840360   -0.1916609 
   0.080996000     0.0716430   -0.2263346     0.8342173   -0.0472080     0.8342085   -0.0359943     0.0122387   -0.2046371 
   0.082995900     0.0732576   -0.2324086     0.8117155   -0.1899656     0.8136446   -0.1805785    -0.0589203   -0.1944117 
   0.084995800     0.0712371   -0.2397421     0.7646461   -0.3246824     0.7672910   -0.3172195    -0.1216369   -0.1629594 
   0.086995700     0.0652896   -0.2475366     0.6963327   -0.4487441     0.6987904   -0.4421155    -0.1704380   -0.1144732 
   0.088995600     0.0555185   -0.2540952     0.6092609   -0.5587115     0.6110669   -0.5511544    -0.2008987   -0.0546405 
   0.090995500     0.0426267   -0.2583338     0.5057603   -0.6515075     0.5075729   -0.6430068    -0.2113340    0.0098592 
   0.092995400     0.0272172   -0.2599050     0.3896648   -0.7257908     0.3925143   -0.7159279    -0.2016273    0.0727904 
   0.094995300     0.0108840   -0.2570148     0.2632234   -0.7793087     0.2677887   -0.7688656    -0.1742075    0.1283220 
   0.096995200    -0.0051155   -0.2502564     0.1305031   -0.8121122     0.1377089   -0.8010309    -0.1323220    0.1715971 
   0.098995100    -0.0196954   -0.2397262    -0.0055980   -0.8226305     0.0046007   -0.8126262    -0.0805727    0.1994808 
   0.100995000    -0.0337318   -0.2260040    -0.1434481   -0.8109141    -0.1299554   -0.8034964    -0.0222120    0.2105367 
   0.102994900    -0.0424698   -0.2099099    -0.2762179   -0.7768651    -0.2604321   -0.7728462     0.0326403    0.2031928 
   0.104994800    -0.0473479   -0.1926350    -0.4020053   -0.7212760    -0.3850272   -0.7214704     0.0810482    0.1798780 
   0.106994700    -0.0481930   -0.1752276    -0.5170678   -0.6447918    -0.5011340   -0.6499525     0.1187764    0.1439237 
   0.108994600    -0.0453676   -0.1589751    -0.6187393   -0.5503603    -0.6048073   -0.5595505     0.1424200    0.0996052 
   0.110994500    -0.0393946   -0.1448669    -0.7034852   -0.4396387    -0.6924930   -0.4519558     0.1503431    0.0516804 
   0.112994400    -0.0309742   -0.1334473    -0.7683853   -0.3159326    -0.7609314   -0.3299394     0.1426239    0.0053175 
   0.114994300    -0.0212269   -0.1254548    -0.8115783   -0.1822269    -0.8075885   -0.1968534     0.1209296   -0.0344271 
   0.116994200    -0.0111643   -0.1207151    -0.8310354   -0.0430401    -0.8303484   -0.0572177     0.0882067   -0.0634456 
   0.118994100    -0.0017337   -0.1189420    -0.8264709    0.0974036    -0.8284093    0.0845663     0.0487232   -0.0791463 
   0.120994000     0.0065128   -0.1196284    -0.7985254    0.2348919    -0.8018672    0.2233234     0.0074545   -0.0799246 
   0.122993900     0.0127378   -0.1219704    -0.7472458    0.3653324    -0.7516847    0.3550806    -0.0308076   -0.0662653 
   0.124993800     0.0169334   -0.1252044    -0.6750140    0.4849152    -0.6800330    0.4757203    -0.0610931   -0.0402499 
   0.126993700     0.0191807   -0.1286382    -0.5838107    0.5903823    -0.5897733    0.5812804    -0.0797402   -0.0057996 
   0.128993600     0.0198117   -0.1315361    -0.4763687    0.6783437    -0.4834937    0.6696697    -0.0848641    0.0329580 
   0.130993500     0.0193904   -0.1337268    -0.3562571    0.7474512    -0.3649997    0.7390396    -0.0759047    0.0712169 
   0.132993400     0.0184094   -0.1349419    -0.2266784    0.7954491    -0.2375939    0.7878819    -0.0539675    0.1042175 
   0.134993300     0.0173828   -0.1352569    -0.0912727    0.8213477    -0.1042868    0.8155898    -0.0215232    0.1281522 
   0.136993200     0.0167893   -0.1349408     0.0463803    0.8243766     0.0314400    0.8210338     0.0180526    0.1399985 
   0.138993100     0.0168449   -0.1343952     0.1826446    0.8046686     0.1664859    0.8046036     0.0600705    0.1381512 
   0.140993000     0.0176364   -0.1340716     0.3135271    0.7624353     0.2971238    0.7661669     0.1003046    0.1225182 
   0.142992900     0.0189597   -0.1344623     0.4355064    0.6990594     0.4202747    0.7067586     0.1341570    0.0941864 
   0.144992800     0.0206363   -0.1359774     0.5453042    0.6165624     0.5322577    0.6277946     0.1580062    0.0556974 
   0.146992700     0.0219760   -0.1386509     0.6393434    0.5166027     0.6292583    0.5302131     0.1692551    0.0109330 
   0.148992600     0.0225853   -0.1426946     0.7154032    0.4026516     0.7088690    0.4176264     0.1663782   -0.0359331 
   0.150992500     0.0219339   -0.1475711     0.7706364    0.2779999     0.7673808    0.2930602     0.1494145   -0.0807060 
   0.152992400     0.0194283   -0.1531899     0.8045283    0.1459554     0.8041951    0.1603837     0.1193564   -0.1188018 
   0.154992300     0.0148890   -0.1588663     0.8157852    0.0107304     0.8176295    0.0242997     0.0788390   -0.1468530 
   0.156992200     0.0082544   -0.1639556     0.8044837   -0.1237708     0.8079932   -0.1117741     0.0315465   -0.1618740 
   0.158992100    -0.0003852   -0.1679768     0.7712893   -0.2536642     0.7757837   -0.2430418    -0.0184341   -0.1623932 
   0.160992000    -0.0106093   -0.1699557     0.7173628   -0.3761371     0.7227530   -0.3660153    -0.0663400   -0.1483738 
   0.162991900    -0.0219168   -0.1695547     0.6445775   -0.4874399     0.6509541   -0.4778001    -0.1080529   -0.1212673 
   0.164991800    -0.0337403   -0.1663919     0.5553545   -0.5851396     0.5625187   -0.5759709    -0.1400683   -0.0834393 
   0.166991700    -0.0452060   -0.1604730     0.4519648   -0.6666126     0.4606719   -0.6578193    -0.1596454   -0.0387298 
   0.168991600    -0.0555427   -0.1520043     0.3369769   -0.7304084     0.3476829   -0.7224790    -0.1656594    0.0090259 
   0.170991500    -0.0641913   -0.1413134     0.2136081   -0.7748441     0.2262180   -0.7685084    -0.1578386    0.0558661 
   0.172991400    -0.0703403   -0.1285539     0.0847672   -0.7991977     0.0991366   -0.7949449    -0.1377133    0.0975933 
   0.174991300    -0.0736938   -0.1149051    -0.0462021   -0.8025834    -0.0305638   -0.8012199    -0.1073734    0.1310345 
   0.176991200    -0.0741138   -0.1007580    -0.1766415   -0.7846492    -0.1603001   -0.7866591    -0.0697619    0.1537617 
   0.178991100    -0.0717143   -0.0871569    -0.3027877   -0.7462435    -0.2869779   -0.7518203    -0.0287440    0.1645294 
   0.180991000    -0.0666589   -0.0747775    -0.4212893   -0.6878391    -0.4068661   -0.6964397     0.0121550    0.1632295 
   0.182990900    -0.0593455   -0.0641123    -0.5289086   -0.6100384    -0.5166175   -0.6219113     0.0491816    0.1506478 
   0.184990800    -0.0504162   -0.0556977    -0.6226566   -0.5155081    -0.6137337   -0.5292467     0.0797652    0.1288575 
   0.186990700    -0.0405688   -0.0496851    -0.6998164   -0.4064576    -0.6941056   -0.4209513     0.1011154    0.1006367 
   0.188990600    -0.0297556   -0.0469538    -0.7481297   -0.3083235    -0.7471255   -0.3193204     0.1100637    0.0723444 
   0.190990500    -0.0208562   -0.0451295    -0.7938128   -0.1597551    -0.7944124   -0.1740071     0.1132864    0.0385036 
   0.192990400    -0.0123797   -0.0457696    -0.8094580   -0.0225678    -0.8127448   -0.0365529     0.1052534    0.0101816 
   0.194990300    -0.0051756   -0.0478837    -0.8021770    0.1114011    -0.8071216    0.0990145     0.0896009   -0.0117741 
   0.196990200     0.0004696   -0.0508621    -0.7725227    0.2423830    -0.7788534    0.2308644     0.0691213   -0.0258768 
   0.198990100     0.0045446   -0.0541116    -0.7213439    0.3664395    -0.7292700    0.3558635     0.0467898   -0.0313258 
   0.200990000     0.0073132   -0.0572076    -0.6503153    0.4803243    -0.6596990    0.4707294     0.0256248   -0.0284235 
   0.202989900     0.0090037   -0.0597256    -0.5618250    0.5805594    -0.5723477    0.5722876     0.0084359   -0.0184628 
   0.204989800     0.0100814   -0.0613629    -0.4583517    0.6646163    -0.4698427    0.6580600    -0.0026241   -0.0034458 
   0.206989700     0.0110034   -0.0621542    -0.3424725    0.7306388    -0.3554668    0.7255488    -0.0063606    0.0140361 
   0.208989600     0.0121659   -0.0621201    -0.2175383    0.7764261    -0.2319000    0.7734120    -0.0025426    0.0312205 
   0.210989500     0.0139390   -0.0615131    -0.0867893    0.8013630    -0.1017830    0.8009571     0.0080775    0.0454682 
   0.212989400     0.0165521   -0.0607018     0.0460568    0.8043091     0.0317073    0.8066570     0.0241412    0.0544858 
   0.214989300     0.0201297   -0.0600669     0.1779912    0.7853802     0.1644374    0.7904160     0.0432499    0.0567559 
   0.216989200     0.0246161   -0.0600157     0.3046574    0.7450449     0.2922897    0.7525861     0.0627648    0.0515709 
   0.218989100     0.0298134   -0.0609296     0.4228236    0.6844467     0.4123687    0.6942108     0.0801390    0.0390409 
   0.220989000     0.0354149   -0.0631440     0.5296385    0.6048330     0.5211972    0.6160669     0.0929223    0.0202157 
   0.222988900     0.0410527   -0.0668682     0.6218210    0.5088605     0.6159565    0.5204605     0.0990678   -0.0030152 
   0.224988800     0.0462269   -0.0721060     0.6966783    0.3988737     0.6929786    0.4103247     0.0971464   -0.0281259 
   0.226988700     0.0505842   -0.0787315     0.7520778    0.2781017     0.7502980    0.2894323     0.0868960   -0.0525261 
   0.228988600     0.0536773   -0.0865629     0.7864509    0.1499488     0.7860694    0.1613678     0.0687821   -0.0732868 
   0.230988500     0.0551841   -0.0952731     0.7992871    0.0180525     0.7998517    0.0298136     0.0440833   -0.0880663 
   0.232988400     0.0548182   -0.1043794     0.7894156   -0.1133740     0.7919152   -0.1018939     0.0150486   -0.0946884 
   0.234988300     0.0525836   -0.1136438     0.7586294   -0.2413570     0.7624512   -0.2300090    -0.0154496   -0.0920814 
   0.236988200     0.0484524   -0.1224239     0.7068696   -0.3621065     0.7126482   -0.3511505    -0.0443870   -0.0801313 
   0.238988100     0.0427145   -0.1303561     0.6367393   -0.4722274     0.6441597   -0.4617049    -0.0689386   -0.0596467 
   0.240988000     0.0355539   -0.1371163     0.5496473   -0.5688463     0.5592561   -0.5593876    -0.0866602   -0.0324175 
   0.242987900     0.0273203   -0.1424438     0.4480926   -0.6497841     0.4606823   -0.6415503    -0.0956185   -0.0005516 
   0.244987800     0.0184172   -0.1459767     0.3351270   -0.7127547     0.3503518   -0.7067651    -0.0948465    0.0329936 
   0.246987700     0.0091187   -0.1478071     0.2140272   -0.7565836     0.2308545   -0.7537168    -0.0842404    0.0650511 
   0.248987600    -0.0002087   -0.1480711     0.0881085   -0.7800758     0.1045225   -0.7810920    -0.0647259    0.0928433 
   0.250987500    -0.0091143   -0.1466780    -0.0405065   -0.7827062    -0.0244772   -0.7875072    -0.0377822    0.1139557 
   0.252987400    -0.0171559   -0.1439101    -0.1672255   -0.7646734    -0.1527535   -0.7730626    -0.0059130    0.1265286 
   0.254987300    -0.0242046   -0.1401029    -0.2892612   -0.7265792    -0.2766759   -0.7378426     0.0280583    0.1294276 
   0.256987200    -0.0301448   -0.1355201    -0.4030884   -0.6692886    -0.3935726   -0.6827081     0.0612848    0.1226173 
   0.258987100    -0.0350693   -0.1305219    -0.5065215   -0.5944734    -0.4998202   -0.6090766     0.0911580    0.1066861 
   0.260987000    -0.0388809   -0.1250159    -0.5961779   -0.5035479    -0.5927173   -0.5184948     0.1148012    0.0833305 
   0.262986900    -0.0417191   -0.1195717    -0.6699145   -0.3994247    -0.6695404   -0.4136657     0.1305236    0.0546682 
   0.264986800    -0.0436753   -0.1142887    -0.7260349   -0.2846666    -0.7277522   -0.2973292     0.1373550    0.0232271 
   0.266986700    -0.0448802   -0.1092621    -0.7624543   -0.1619018    -0.7659815   -0.1732792     0.1348735   -0.0080138 
   0.268986600    -0.0454323   -0.1046623    -0.7783332   -0.0352131    -0.7830750   -0.0450728     0.1236656   -0.0362562 
   0.270986500    -0.0455944   -0.1005032    -0.7731689    0.0924258    -0.7788369    0.0834289     0.1052653   -0.0592024 
   0.272986400    -0.0453700   -0.0967040    -0.7474787    0.2175629    -0.7537299    0.2088771     0.0817002   -0.0748562 
   0.274986300    -0.0448891   -0.0931702    -0.7013415    0.3370579    -0.7087735    0.3285579     0.0556526   -0.0821898 
   0.276986200    -0.0441641   -0.0898020    -0.6363992    0.4471214    -0.6453753    0.4394633     0.0298911   -0.0809309 
   0.278986100    -0.0432170   -0.0865644    -0.5541349    0.5450121    -0.5644994    0.5384883     0.0072338   -0.0718479 
   0.280986000    -0.0420315   -0.0833754    -0.4570437    0.6283606    -0.4683927    0.6235660    -0.0100759   -0.0565531 
   0.282985900    -0.0405388   -0.0804468    -0.3475019    0.6944516    -0.3594168    0.6917622    -0.0203449   -0.0372574 
   0.284985800    -0.0386106   -0.0777041    -0.2287341    0.7416421    -0.2403802    0.7411122    -0.0228144   -0.0165774 
   0.286985700    -0.0361806   -0.0752882    -0.1036038    0.7685718    -0.1151132    0.7704581    -0.0175794    0.0026046 
   0.288985600    -0.0332498   -0.0734252     0.0242859    0.7747150     0.0126109    0.7788565    -0.0055651    0.0179097 
   0.290985500    -0.0298488   -0.0722717     0.1514244    0.7595078     0.1402028    0.7656691     0.0113625    0.0272068 
   0.292985400    -0.0260615   -0.0719412     0.2741157    0.7235309     0.2641478    0.7315272     0.0307695    0.0290055 
   0.294985300    -0.0220841   -0.0726037     0.3889869    0.6676345     0.3805107    0.6771362     0.0499458    0.0228550 
   0.296985200    -0.0181637   -0.0743398     0.4933194    0.5934805     0.4867373    0.6038147     0.0661427    0.0091814 
   0.298985100    -0.0146290   -0.0772569     0.5834486    0.5030413     0.5790647    0.5130761     0.0766695   -0.0107081 
   0.300985000    -0.0117786   -0.0813598     0.6571801    0.3987480     0.6546735    0.4084643     0.0794372   -0.0346699 
   0.302984900    -0.0099538   -0.0865273     0.7122927    0.2834871     0.7108964    0.2931807     0.0731939   -0.0595880 
   0.304984800    -0.0094429   -0.0926359     0.7472263    0.1611380     0.7471504    0.1708695     0.0579292   -0.0823467 
   0.306984700    -0.0105621   -0.0994405     0.7608607    0.0353261     0.7617996    0.0451974     0.0345655   -0.0997935 
   0.308984600    -0.0135079   -0.1065223     0.7531230   -0.0903777     0.7557712   -0.0799571     0.0049279   -0.1091012 
   0.310984500    -0.0181534   -0.1131515     0.7244791   -0.2119615     0.7290990   -0.2013729    -0.0278223   -0.1083148 
   0.312984400    -0.0246607   -0.1189946     0.6763421   -0.3263429     0.6833342   -0.3156637    -0.0601074   -0.0962444 
   0.314984300    -0.0328755   -0.1235635     0.6102553   -0.4301191     0.6197764   -0.4204064    -0.0879574   -0.0731799 
