! MS46122B
! 2250307/22442219
! 8/4/2025 8:11:12 AM
! C:\USERS\SPARKY\DOCUMENTS\VNA_DATA\AUGUST4_2025\3K\PORT1_REPEAT1.S2P
! CHANNEL.1
! TR.MEASUREMENT
! RAW.DATA
# GHZ S RI R 50.0
! FREQ.GHZ         S11RE         S11IM         S21RE         S21IM         S12RE         S12IM         S22RE         S22IM         
!; PortSelection: Port_12
   0.001000000     1.0443670   -0.0683762    -0.0004531   -0.0009651    -0.0003892   -0.0010606     0.8167242   -0.5533944 
   0.002999900     0.9608183   -0.1953182    -0.0237242   -0.0153834    -0.0247778   -0.0160819     0.0602826   -0.8774329 
   0.004999800     0.8708382   -0.3129219    -0.1431879    0.0274756    -0.1506505    0.0320652    -0.6972011   -0.3573082 
   0.006999700     0.7725468   -0.4062892    -0.1865505    0.1386653    -0.1910558    0.1523153    -0.7366250    0.2711340 
   0.008999600     0.5943969   -0.3999301    -0.0546680    0.5179192    -0.0371996    0.5269901     0.3105502    0.6062436 
   0.010999500     0.5684707   -0.3263490     0.3821388    0.4871240     0.3896552    0.4914732     0.4696109   -0.2725472 
   0.012999400     0.5831275   -0.3390507     0.5628243    0.2434120     0.5781407    0.2512753    -0.0134737   -0.5523714 
   0.014999300     0.5723698   -0.3818335     0.6023390    0.0369276     0.6236945    0.0363878    -0.3761958   -0.4479289 
   0.016999200     0.5419837   -0.4249499     0.5901302   -0.1280408     0.6098679   -0.1389973    -0.5595464   -0.2268225 
   0.018999100     0.5008202   -0.4617770     0.5505961   -0.2694724     0.5632129   -0.2872380    -0.6084976    0.0106480 
   0.020999000     0.4515748   -0.4897753     0.4892117   -0.3933872     0.4926232   -0.4130916    -0.5567566    0.2200980 
   0.022998900     0.3980026   -0.5076533     0.4080039   -0.5023416     0.4033022   -0.5190823    -0.4372066    0.3782883 
   0.024998800     0.3390276   -0.4899430     0.3492980   -0.6035758     0.2899128   -0.6109153    -0.3060054    0.5089451 
   0.026998700     0.2877342   -0.5068853     0.1863931   -0.6702769     0.1744295   -0.6723521    -0.1057746    0.5075194 
   0.028998600     0.2370164   -0.4886189     0.0475642   -0.7200084     0.0383928   -0.7148691     0.0597217    0.4795561 
   0.030998500     0.1938334   -0.4598158    -0.1048026   -0.7398693    -0.1077588   -0.7302418     0.1985886    0.3998378 
   0.032998400     0.1621757   -0.4066273    -0.2370871   -0.7658729    -0.2686803   -0.7128685     0.3174252    0.3121330 
   0.034998300     0.1416163   -0.3839509    -0.4183073   -0.6706403    -0.4088404   -0.6649197     0.3422915    0.1430278 
   0.036998200     0.1340409   -0.3459826    -0.5594558   -0.5811899    -0.5475363   -0.5809708     0.3343018    0.0039378 
   0.038998100     0.1371313   -0.3137124    -0.6764157   -0.4599504    -0.6660998   -0.4657201     0.2778006   -0.1153793 
   0.040998000     0.1474221   -0.2901292    -0.7619755   -0.3152809    -0.7563592   -0.3247816     0.1852494   -0.1999688 
   0.042997900     0.1609319   -0.2764541    -0.8130462   -0.1578676    -0.8122754   -0.1673341     0.0742263   -0.2406501 
   0.044997800     0.1709237   -0.2598654    -0.8605504   -0.0376940    -0.8334199    0.0075457    -0.0336762   -0.2528221 
   0.046997700     0.1816311   -0.2762165    -0.8096886    0.1622097    -0.8154617    0.1593338    -0.1360409   -0.1941996 
   0.048997600     0.1847505   -0.2848538    -0.7626969    0.3094467    -0.7674511    0.3102283    -0.2072624   -0.1227230 
   0.050997500     0.1814924   -0.2957349    -0.6911075    0.4417324    -0.6929770    0.4452704    -0.2464179   -0.0349468 
   0.052997400     0.1722767   -0.3064228    -0.5987489    0.5564336    -0.5980041    0.5595250    -0.2520646    0.0569635 
   0.054997300     0.1579445   -0.3149976    -0.4870232    0.6540954    -0.4881824    0.6522260    -0.2265279    0.1416578 
   0.056997200     0.1398398   -0.3202722    -0.3681297    0.7274463    -0.3635318    0.7255756    -0.1761471    0.2101166 
   0.058997100     0.1201380   -0.3209262    -0.2370728    0.7806532    -0.2323767    0.7755979    -0.1072506    0.2567435 
   0.060997000     0.1002677   -0.3168329    -0.0989109    0.8113085    -0.0969022    0.8036036    -0.0284662    0.2776321 
   0.062996900     0.0816190   -0.3083513     0.0428985    0.8185675     0.0409292    0.8098564     0.0520508    0.2717467 
   0.064996800     0.0663169   -0.2962339     0.1845970    0.8020981     0.1779253    0.7937522     0.1253892    0.2408315 
   0.066996700     0.0550798   -0.2817592     0.3221902    0.7611616     0.3117786    0.7551728     0.1845860    0.1887733 
   0.068996600     0.0484815   -0.2663161     0.4513110    0.6961297     0.4385539    0.6944305     0.2242429    0.1208086 
   0.070996500     0.0465410   -0.2518192     0.5683491    0.6092226     0.5547801    0.6120662     0.2402723    0.0447114 
   0.072996400     0.0485886   -0.2392464     0.6682806    0.5020587     0.6555403    0.5094436     0.2317360   -0.0317692 
   0.074996300     0.0535947   -0.2300755     0.7470798    0.3781616     0.7373505    0.3888308     0.1999584   -0.1013348 
   0.076996200     0.0600116   -0.2250018     0.8020211    0.2421422     0.7962878    0.2545603     0.1485679   -0.1562342 
   0.078996100     0.0663199   -0.2241740     0.8313930    0.0985582     0.8297278    0.1112355     0.0831834   -0.1918504 
   0.080996000     0.0708194   -0.2272155     0.8351952   -0.0471000     0.8358278   -0.0352679     0.0111917   -0.2046991 
   0.082995900     0.0723481   -0.2331088     0.8127161   -0.1900397     0.8153962   -0.1801095    -0.0601261   -0.1942544 
   0.084995800     0.0702947   -0.2402709     0.7656456   -0.3248387     0.7690876   -0.3170565    -0.1229294   -0.1625280 
   0.086995700     0.0642951   -0.2478495     0.6973042   -0.4491199     0.7006401   -0.4422892    -0.1717081   -0.1137160 
   0.088995600     0.0545551   -0.2542881     0.6102317   -0.5592464     0.6129165   -0.5516462    -0.2021172   -0.0535202 
   0.090995500     0.0416403   -0.2583378     0.5065992   -0.6521900     0.5092946   -0.6438242    -0.2123441    0.0113185 
   0.092995400     0.0262594   -0.2596934     0.3903998   -0.7266724     0.3941427   -0.7170269    -0.2023819    0.0745402 
   0.094995300     0.0099976   -0.2566410     0.2638297   -0.7802966     0.2692738   -0.7701930    -0.1745616    0.1303092 
   0.096995200    -0.0059268   -0.2496908     0.1309593   -0.8132914     0.1388573   -0.8026497    -0.1322403    0.1736930 
   0.098995100    -0.0204039   -0.2390053    -0.0053098   -0.8238810     0.0055729   -0.8143928    -0.0800090    0.2016380 
   0.100995000    -0.0343329   -0.2251038    -0.1434570   -0.8122436    -0.1293046   -0.8054823    -0.0210986    0.2126043 
   0.102994900    -0.0428826   -0.2088595    -0.2765396   -0.7781875    -0.2600974   -0.7750024     0.0342128    0.2050322 
   0.104994800    -0.0475483   -0.1914603    -0.4025442   -0.7225907    -0.3851389   -0.7236419     0.0830371    0.1813940 
   0.106994700    -0.0481124   -0.1739669    -0.5176952   -0.6461383    -0.5016116   -0.6521742     0.1210884    0.1449881 
   0.108994600    -0.0450984   -0.1576903    -0.6198866   -0.5514448    -0.6057412   -0.5615723     0.1448909    0.1001135 
   0.110994500    -0.0388300   -0.1435550    -0.7047130   -0.4405092    -0.6937931   -0.4539174     0.1529343    0.0516288 
   0.112994400    -0.0301407   -0.1322262    -0.7698457   -0.3163799    -0.7625934   -0.3315817     0.1451348    0.0046801 
   0.114994300    -0.0201161   -0.1243403    -0.8130740   -0.1825897    -0.8094975   -0.1981634     0.1232048   -0.0355896 
   0.116994200    -0.0098101   -0.1197725    -0.8325700   -0.0430601    -0.8324924   -0.0580564     0.0901124   -0.0650474 
   0.118994100    -0.0001754   -0.1182392    -0.8280538    0.0976637    -0.8306477    0.0841537     0.0501892   -0.0810900 
   0.120994000     0.0082224   -0.1191375    -0.7999666    0.2352185    -0.8040795    0.2233375     0.0084262   -0.0820825 
   0.122993900     0.0145318   -0.1217414    -0.7484630    0.3660997    -0.7538230    0.3555007    -0.0303237   -0.0684926 
   0.124993800     0.0187719   -0.1252569    -0.6761070    0.4859267    -0.6820251    0.4765042    -0.0611372   -0.0423998 
   0.126993700     0.0210105   -0.1289783    -0.5846092    0.5915656    -0.5915400    0.5823592    -0.0802188   -0.0077771 
   0.128993600     0.0216371   -0.1321610    -0.4769364    0.6796099    -0.4850148    0.6709988    -0.0856923    0.0312532 
   0.130993500     0.0211152   -0.1345952    -0.3566295    0.7487220    -0.3662041    0.7405856    -0.0769945    0.0698345 
   0.132993400     0.0200071   -0.1360310    -0.2267582    0.7967673    -0.2385162    0.7895669    -0.0552117    0.1031701 
   0.134993300     0.0187640   -0.1364840    -0.0911815    0.8226122    -0.1050178    0.8173554    -0.0228587    0.1274315 
   0.136993200     0.0179828   -0.1363184     0.0466951    0.8255105     0.0310712    0.8228253     0.0166884    0.1395713 
   0.138993100     0.0178439   -0.1358944     0.1831588    0.8057480     0.1663673    0.8064380     0.0588209    0.1379828 
   0.140993000     0.0184081   -0.1356577     0.3142274    0.7632770     0.2973137    0.7679825     0.0991313    0.1225826 
   0.142992900     0.0195518   -0.1361466     0.4362647    0.6998922     0.4207073    0.7084853     0.1331228    0.0944211 
   0.144992800     0.0210045   -0.1376740     0.5462067    0.6173528     0.5329182    0.6294288     0.1570826    0.0560455 
   0.146992700     0.0221569   -0.1404049     0.6402875    0.5171701     0.6301875    0.5317740     0.1684573    0.0113587 
   0.148992600     0.0225577   -0.1444038     0.7164465    0.4030519     0.7099730    0.4190136     0.1656874   -0.0354682 
   0.150992500     0.0216677   -0.1491832     0.7717182    0.2783518     0.7686859    0.2942606     0.1487679   -0.0801882 
   0.152992400     0.0189662   -0.1547177     0.8055908    0.1460930     0.8057573    0.1613352     0.1187839   -0.1182869 
   0.154992300     0.0142374   -0.1603035     0.8168262    0.0107345     0.8192461    0.0250652     0.0782668   -0.1462609 
   0.156992200     0.0074115   -0.1652660     0.8055523   -0.1240554     0.8096980   -0.1112751     0.0310181   -0.1612201 
   0.158992100    -0.0013817   -0.1691495     0.7723271   -0.2539954     0.7775785   -0.2428236    -0.0189643   -0.1616534 
   0.160992000    -0.0117380   -0.1709209     0.7183402   -0.3765998     0.7245829   -0.3660384    -0.0668176   -0.1475301 
   0.162991900    -0.0231712   -0.1703332     0.6455188   -0.4880280     0.6527631   -0.4781215    -0.1084652   -0.1202886 
   0.164991800    -0.0350685   -0.1669374     0.5562304   -0.5858018     0.5642992   -0.5765679    -0.1403662   -0.0823383 
   0.166991700    -0.0466188   -0.1607669     0.4527139   -0.6674623     0.4623822   -0.6586917    -0.1597841   -0.0374905 
   0.168991600    -0.0569643   -0.1520761     0.3376087   -0.7313722     0.3492253   -0.7236684    -0.1655872    0.0104242 
   0.170991500    -0.0656034   -0.1411141     0.2139970   -0.7759984     0.2276212   -0.7699169    -0.1575561    0.0572700 
   0.172991400    -0.0716774   -0.1281186     0.0851224   -0.8003640     0.1002713   -0.7966679    -0.1371366    0.0990535 
   0.174991300    -0.0748946   -0.1141959    -0.0461734   -0.8038400    -0.0296906   -0.8031029    -0.1064973    0.1324349 
   0.176991200    -0.0751841   -0.0998184    -0.1767091   -0.7860013    -0.1597680   -0.7887124    -0.0685250    0.1550563 
   0.178991100    -0.0725674   -0.0860387    -0.3029660   -0.7474900    -0.2867964   -0.7539810    -0.0272260    0.1656521 
   0.180991000    -0.0672957   -0.0734989    -0.4218081   -0.6891299    -0.4070765   -0.6986055     0.0139060    0.1640601 
   0.182990900    -0.0597170   -0.0626925    -0.5296634   -0.6112222    -0.5172154   -0.6240402     0.0511316    0.1511191 
   0.184990800    -0.0505034   -0.0542039    -0.6236833   -0.5163963    -0.6147223   -0.5312447     0.0818272    0.1289199 
   0.186990700    -0.0403881   -0.0481899    -0.7009848   -0.4073537    -0.6954602   -0.4227822     0.1032138    0.1002706 
   0.188990600    -0.0293253   -0.0454711    -0.7495142   -0.3089303    -0.7487534   -0.3209123     0.1120724    0.0716019 
   0.190990500    -0.0201327   -0.0437364    -0.7951882   -0.1600401    -0.7963323   -0.1751112     0.1150793    0.0372824 
   0.192990400    -0.0114068   -0.0445239    -0.8109774   -0.0227375    -0.8148909   -0.0373432     0.1067852    0.0085865 
   0.194990300    -0.0039691   -0.0467920    -0.8035490    0.1117119    -0.8092554    0.0986830     0.0907188   -0.0136512 
   0.196990200     0.0018449   -0.0499660    -0.7738277    0.2429247    -0.7810622    0.2308091     0.0698037   -0.0278969 
   0.198990100     0.0060649   -0.0534344    -0.7226359    0.3672001    -0.7313579    0.3562669     0.0470398   -0.0334373 
   0.200990000     0.0089407   -0.0567615    -0.6514748    0.4812534    -0.6617399    0.4714403     0.0253925   -0.0304890 
   0.202989900     0.0106994   -0.0595325    -0.5628328    0.5816519    -0.5742038    0.5733864     0.0077980   -0.0203942 
   0.204989800     0.0117865   -0.0614204    -0.4589908    0.6658939    -0.4714744    0.6593738    -0.0036389   -0.0051510 
   0.206989700     0.0126866   -0.0624269    -0.3430912    0.7318717    -0.3567602    0.7271443    -0.0076482    0.0126531 
   0.208989600     0.0137881   -0.0626070    -0.2175766    0.7779464    -0.2329474    0.7751023    -0.0040341    0.0301603 
   0.210989500     0.0154632   -0.0622293    -0.0867672    0.8027686    -0.1025258    0.8027127     0.0064559    0.0447618 
   0.212989400     0.0179871   -0.0616113     0.0464384    0.8055820     0.0312432    0.8085622     0.0224619    0.0541517 
   0.214989300     0.0214250   -0.0611358     0.1782144    0.7866882     0.1642317    0.7923727     0.0416026    0.0567661 
   0.216989200     0.0257551   -0.0612581     0.3052250    0.7462046     0.2924303    0.7545015     0.0612366    0.0518505 
   0.218989100     0.0307843   -0.0623092     0.4238056    0.6853697     0.4127928    0.6960741     0.0787487    0.0395677 
   0.220989000     0.0362043   -0.0646383     0.5305836    0.6056966     0.5219108    0.6178335     0.0917111    0.0209338 
   0.222988900     0.0416297   -0.0684259     0.6227573    0.5096034     0.6169053    0.5220965     0.0980542   -0.0021223 
   0.224988800     0.0466006   -0.0736947     0.6977710    0.3993479     0.6941619    0.4117744     0.0963125   -0.0271371 
   0.226988700     0.0507370   -0.0803528     0.7532489    0.2783531     0.7517295    0.2906673     0.0862444   -0.0514640 
   0.228988600     0.0535963   -0.0881632     0.7875103    0.1502746     0.7876591    0.1623585     0.0682895   -0.0721722 
   0.230988500     0.0548855   -0.0968529     0.8004462    0.0180649     0.8015405    0.0304815     0.0437449   -0.0869234 
   0.232988400     0.0543381   -0.1058761     0.7906753   -0.1135059     0.7937265   -0.1014664     0.0148562   -0.0935473 
   0.234988300     0.0518579   -0.1150137     0.7596330   -0.2417797     0.7643323   -0.2298652    -0.0155102   -0.0909231 
   0.236988200     0.0475781   -0.1236691     0.7078918   -0.3626024     0.7145683   -0.3512709    -0.0443024   -0.0789563 
   0.238988100     0.0416498   -0.1314133     0.6376573   -0.4729196     0.6460056   -0.4621723    -0.0687599   -0.0584741 
   0.240988000     0.0343501   -0.1380077     0.5503570   -0.5696214     0.5610238   -0.5600981    -0.0863270   -0.0312541 
   0.242987900     0.0260504   -0.1431130     0.4489564   -0.6506617     0.4622838   -0.6425878    -0.0951197    0.0006046 
   0.244987800     0.0170670   -0.1464182     0.3358020   -0.7137332     0.3519130   -0.7080418    -0.0942010    0.0341030 
   0.246987700     0.0077181   -0.1480014     0.2145106   -0.7576763     0.2321417   -0.7552665    -0.0834203    0.0661268 
   0.248987600    -0.0015879   -0.1480460     0.0884321   -0.7812435     0.1055909   -0.7828016    -0.0637001    0.0937983 
   0.250987500    -0.0104516   -0.1463934    -0.0403842   -0.7839517    -0.0237272   -0.7893912    -0.0365584    0.1148277 
   0.252987400    -0.0184120   -0.1433994    -0.1672364   -0.7659887    -0.1523175   -0.7750607    -0.0045003    0.1272059 
   0.254987300    -0.0253186   -0.1393980    -0.2893995   -0.7279434    -0.2766103   -0.7399120     0.0295992    0.1298790 
   0.256987200    -0.0311410   -0.1345980    -0.4035701   -0.6705439    -0.3938258   -0.6847327     0.0629425    0.1227991 
   0.258987100    -0.0358924   -0.1293900    -0.5071779   -0.5956013    -0.5004502   -0.6110828     0.0928804    0.1065800 
   0.260987000    -0.0395021   -0.1237794    -0.5970970   -0.5046346    -0.5936968   -0.5203338     0.1165222    0.0828939 
   0.262986900    -0.0421163   -0.1182305    -0.6710490   -0.4002934    -0.6708373   -0.4153445     0.1321674    0.0538857 
   0.264986800    -0.0438344   -0.1128713    -0.7272824   -0.2853624    -0.7292714   -0.2987455     0.1388734    0.0221021 
   0.266986700    -0.0447935   -0.1078289    -0.7638307   -0.1623642    -0.7677761   -0.1744063     0.1361455   -0.0094188 
   0.268986600    -0.0451107   -0.1032259    -0.7797575   -0.0353582    -0.7849575   -0.0458869     0.1246444   -0.0379291 
   0.270986500    -0.0450005   -0.0991313    -0.7746549    0.0923832    -0.7808965    0.0829442     0.1058832   -0.0610511 
   0.272986400    -0.0445631   -0.0954088    -0.7489063    0.2180123    -0.7558287    0.2087811     0.0819220   -0.0768039 
   0.274986300    -0.0438365   -0.0920054    -0.7027465    0.3375654    -0.7108238    0.3288152     0.0554393   -0.0841476 
   0.276986200    -0.0429396   -0.0887272    -0.6376337    0.4479491    -0.6473787    0.4400524     0.0293156   -0.0827895 
   0.278986100    -0.0418471   -0.0856645    -0.5551335    0.5461373    -0.5664288    0.5394269     0.0062463   -0.0735393 
   0.280986000    -0.0405179   -0.0827464    -0.4579372    0.6295513    -0.4700615    0.6247672    -0.0113950   -0.0579767 
   0.282985900    -0.0388808   -0.0800066    -0.3481452    0.6957579    -0.3608548    0.6932631    -0.0219222   -0.0383378 
   0.284985800    -0.0368848   -0.0774788    -0.2291210    0.7430435    -0.2415820    0.7428241    -0.0245725   -0.0173255 
   0.286985700    -0.0344822   -0.0753116    -0.1037832    0.7699599    -0.1159858    0.7723527    -0.0194147    0.0022566 
   0.288985600    -0.0315714   -0.0736955     0.0244330    0.7761521     0.0120798    0.7808278    -0.0074230    0.0179532 
   0.290985500    -0.0282016   -0.0727595     0.1516924    0.7608771     0.1399816    0.7677347     0.0095805    0.0276180 
   0.292985400    -0.0244947   -0.0726478     0.2746073    0.7248106     0.2642752    0.7335301     0.0291548    0.0297577 
   0.294985300    -0.0206234   -0.0734876     0.3898364    0.6687254     0.3809853    0.6791627     0.0485617    0.0238979 
   0.296985200    -0.0168402   -0.0754093     0.4942470    0.5944769     0.4874990    0.6057034     0.0649822    0.0104619 
   0.298985100    -0.0134492   -0.0784853     0.5845162    0.5038488     0.5801488    0.5148368     0.0757675   -0.0092637 
   0.300985000    -0.0107813   -0.0826936     0.6583915    0.3993461     0.6560178    0.4098309     0.0788658   -0.0331122 
   0.302984900    -0.0091230   -0.0879729     0.7135406    0.2839502     0.7125013    0.2944283     0.0729334   -0.0580512 
   0.304984800    -0.0087917   -0.0941322     0.7485157    0.1613304     0.7488703    0.1718807     0.0579568   -0.0808080 
   0.306984700    -0.0101415   -0.1010657     0.7621776    0.0354542     0.7637180    0.0458580     0.0348335   -0.0983384 
   0.308984600    -0.0132300   -0.1080839     0.7544574   -0.0905065     0.7577987   -0.0795709     0.0054355   -0.1077891 
   0.310984500    -0.0180394   -0.1146877     0.7258317   -0.2122306     0.7311549   -0.2013552    -0.0271653   -0.1071499 
   0.312984400    -0.0247375   -0.1205056     0.6776238   -0.3269331     0.6853830   -0.3160149    -0.0593265   -0.0952764 
   0.314984300    -0.0330488   -0.1250587     0.6115103   -0.4307468     0.6218004   -0.4210982    -0.0871306   -0.0724045 
