! MS46122B
! 2250307/22442219
! 7/31/2025 8:25:14 AM
! C:\USERS\SPARKY\DOCUMENTS\VNA_DATA\JULY31_2025\295K\PORT1.S2P
! CHANNEL.1
! TR.MEASUREMENT
! RAW.DATA
# GHZ S RI R 50.0
! FREQ.GHZ         S11RE         S11IM         S21RE         S21IM         S12RE         S12IM         S22RE         S22IM         
!; PortSelection: Port_12
   0.001000000     1.0440630   -0.0692827    -0.0003878   -0.0010328    -0.0003197   -0.0010557     0.8149841   -0.5541958 
   0.002999900     0.9602144   -0.1961660    -0.0234159   -0.0156147    -0.0244315   -0.0162850     0.0568815   -0.8754497 
   0.004999800     0.8686234   -0.3122505    -0.1416503    0.0293787    -0.1487062    0.0339187    -0.6950200   -0.3540400 
   0.006999700     0.7702197   -0.4058600    -0.1846990    0.1370474    -0.1890060    0.1504315    -0.7338250    0.2730611 
   0.008999600     0.5926531   -0.3941650    -0.0472086    0.5112929    -0.0298582    0.5196865     0.2931015    0.5992446 
   0.010999500     0.5714627   -0.3204796     0.3814387    0.4712041     0.3890816    0.4747585     0.4446206   -0.2453130 
   0.012999400     0.5875170   -0.3344013     0.5532494    0.2292572     0.5678406    0.2356251    -0.0125887   -0.5075883 
   0.014999300     0.5775195   -0.3779416     0.5876883    0.0263926     0.6072488    0.0247855    -0.3500636   -0.4063683 
   0.016999200     0.5480563   -0.4212149     0.5722169   -0.1346188     0.5897207   -0.1455132    -0.5158414   -0.1985367 
   0.018999100     0.5080962   -0.4582818     0.5299953   -0.2717222     0.5405848   -0.2883337    -0.5549529    0.0213970 
   0.020999000     0.4604045   -0.4867193     0.4665493   -0.3906815     0.4688949   -0.4085940    -0.5010996    0.2116243 
   0.022998900     0.4084364   -0.5055326     0.3845627   -0.4938467     0.3795905   -0.5085998    -0.3861870    0.3518712 
   0.024998800     0.3506769   -0.4890865     0.3245754   -0.5892661     0.2676613   -0.5938588    -0.2614871    0.4650998 
   0.026998700     0.3015378   -0.5083723     0.1658112   -0.6484974     0.1550682   -0.6495478    -0.0796291    0.4557413 
   0.028998600     0.2521439   -0.4929847     0.0316306   -0.6918235     0.0237920   -0.6863670     0.0686673    0.4233956 
   0.030998500     0.2091721   -0.4680102    -0.1139362   -0.7061245    -0.1160549   -0.6971933     0.1903764    0.3449756 
   0.032998400     0.1764373   -0.4182199    -0.2392725   -0.7273996    -0.2684096   -0.6765248     0.2927196    0.2605460 
   0.034998300     0.1538462   -0.4002234    -0.4088872   -0.6334403    -0.4000502   -0.6281784     0.3072726    0.1076332 
   0.036998200     0.1427469   -0.3655823    -0.5404404   -0.5466750    -0.5295324   -0.5461719     0.2934662   -0.0167459 
   0.038998100     0.1410251   -0.3353625    -0.6490524   -0.4308136    -0.6395767   -0.4355539     0.2370512   -0.1211717 
   0.040998000     0.1460866   -0.3122376    -0.7286807   -0.2938745    -0.7231269   -0.3017350     0.1497272   -0.1931561 
   0.042997900     0.1546251   -0.2974108    -0.7762449   -0.1450066    -0.7746511   -0.1528511     0.0471768   -0.2249128 
   0.044997800     0.1609111   -0.2779685    -0.8211157   -0.0309613    -0.7936117    0.0126056    -0.0521214   -0.2311118 
   0.046997700     0.1677811   -0.2910517    -0.7728217    0.1588931    -0.7767230    0.1566092    -0.1428893   -0.1731437 
   0.048997600     0.1689426   -0.2955629    -0.7281541    0.2992190    -0.7311547    0.2998481    -0.2056313   -0.1043591 
   0.050997500     0.1650183   -0.3023534    -0.6599250    0.4260551    -0.6601634    0.4284885    -0.2385701   -0.0215580 
   0.052997400     0.1561474   -0.3092122    -0.5712166    0.5361787    -0.5696869    0.5381036    -0.2405921    0.0642465 
   0.054997300     0.1432360   -0.3143294    -0.4639537    0.6298241    -0.4646354    0.6268935    -0.2138471    0.1425861 
   0.056997200     0.1270348   -0.3168911    -0.3491579    0.7000434    -0.3447001    0.6972181    -0.1643152    0.2052507 
   0.058997100     0.1097101   -0.3155667    -0.2225885    0.7509019    -0.2182641    0.7451038    -0.0981318    0.2468819 
   0.060997000     0.0923639   -0.3102928    -0.0890772    0.7794074    -0.0875627    0.7713000    -0.0233415    0.2642286 
   0.062996900     0.0764736   -0.3014749     0.0475859    0.7852039     0.0453010    0.7763973     0.0523332    0.2563906 
   0.064996800     0.0636421   -0.2897287     0.1837641    0.7678799     0.1770560    0.7595426     0.1205531    0.2252649 
   0.066996700     0.0544834   -0.2762088     0.3156760    0.7269341     0.3054934    0.7208769     0.1749347    0.1746696 
   0.068996600     0.0493843   -0.2621997     0.4388540    0.6627976     0.4262720    0.6606476     0.2105285    0.1097726 
   0.070996500     0.0483481   -0.2493894     0.5498946    0.5779560     0.5368603    0.5803435     0.2237144    0.0378806 
   0.072996400     0.0506376   -0.2385707     0.6441866    0.4741626     0.6317959    0.4806485     0.2138929   -0.0337582 
   0.074996300     0.0552535   -0.2309749     0.7179130    0.3547861     0.7082139    0.3642677     0.1825957   -0.0982685 
   0.076996200     0.0608533   -0.2271302     0.7686270    0.2241206     0.7623085    0.2353873     0.1333796   -0.1486863 
   0.078996100     0.0659635   -0.2270468     0.7951607    0.0868974     0.7926409    0.0985406     0.0715109   -0.1807904 
   0.080996000     0.0692300   -0.2303379     0.7972918   -0.0519741     0.7967858   -0.0408718     0.0040406   -0.1916495 
   0.082995900     0.0695157   -0.2359622     0.7744167   -0.1880582     0.7756196   -0.1784610    -0.0625415   -0.1808733 
   0.084995800     0.0665512   -0.2424802     0.7283638   -0.3161421     0.7304358   -0.3080720    -0.1209538   -0.1504808 
   0.086995700     0.0599297   -0.2491700     0.6622773   -0.4340328     0.6646168   -0.4268465    -0.1661619   -0.1044576 
   0.088995600     0.0499597   -0.2545095     0.5783537   -0.5381398     0.5803398   -0.5302787    -0.1942811   -0.0480255 
   0.090995500     0.0371774   -0.2575192     0.4787705   -0.6261345     0.4807799   -0.6172399    -0.2036518    0.0126035 
   0.092995400     0.0222572   -0.2580117     0.3672665   -0.6963167     0.3704081   -0.6860188    -0.1943781    0.0717285 
   0.094995300     0.0068591   -0.2543125     0.2462224   -0.7466148     0.2513282   -0.7363027    -0.1686415    0.1238705 
   0.096995200    -0.0080992   -0.2470479     0.1192699   -0.7768784     0.1267100   -0.7663336    -0.1295227    0.1646180 
   0.098995100    -0.0215591   -0.2363903    -0.0109291   -0.7860230    -0.0009719   -0.7764164    -0.0811789    0.1910895 
   0.100995000    -0.0344998   -0.2228906    -0.1428528   -0.7737244    -0.1297330   -0.7666637    -0.0266520    0.2020551 
   0.102994900    -0.0423165   -0.2073469    -0.2695158   -0.7400166    -0.2539923   -0.7364203     0.0246142    0.1958835 
   0.104994800    -0.0465521   -0.1908960    -0.3891530   -0.6858252    -0.3728831   -0.6861531     0.0699047    0.1749606 
   0.106994700    -0.0470243   -0.1745055    -0.4982387   -0.6119324    -0.4830084   -0.6167690     0.1055027    0.1422893 
   0.108994600    -0.0442448   -0.1593260    -0.5944629   -0.5208615    -0.5809236   -0.5294960     0.1281121    0.1018921 
   0.110994500    -0.0386388   -0.1462377    -0.6742162   -0.4146237    -0.6633933   -0.4261625     0.1363942    0.0581418 
   0.112994400    -0.0309589   -0.1356921    -0.7351628   -0.2959743    -0.7276149   -0.3093248     0.1302921    0.0157850 
   0.114994300    -0.0221981   -0.1283138    -0.7748959   -0.1683301    -0.7708801   -0.1822860     0.1114796   -0.0206933 
   0.116994200    -0.0133129   -0.1238732    -0.7925757   -0.0356823    -0.7914556   -0.0495066     0.0825809   -0.0474651 
   0.118994100    -0.0051252   -0.1220544    -0.7872791    0.0980023    -0.7886676    0.0852316     0.0475456   -0.0620932 
   0.120994000     0.0018805   -0.1223391    -0.7596900    0.2285524    -0.7626241    0.2169251     0.0108362   -0.0633659 
   0.122993900     0.0069673   -0.1239476    -0.7100471    0.3522945    -0.7141342    0.3419204    -0.0232206   -0.0515324 
   0.124993800     0.0102362   -0.1261811    -0.6406610    0.4656212    -0.6455668    0.4563076    -0.0501970   -0.0287237 
   0.126993700     0.0117527   -0.1283943    -0.5531895    0.5654519    -0.5592328    0.5563151    -0.0667522    0.0016800 
   0.128993600     0.0119129   -0.1298874    -0.4506431    0.6486679    -0.4581577    0.6399567    -0.0711961    0.0360073 
   0.130993500     0.0113273   -0.1306229    -0.3359643    0.7137377    -0.3451003    0.7057770    -0.0630832    0.0698843 
   0.132993400     0.0104736   -0.1303238    -0.2125053    0.7591085    -0.2233902    0.7520030    -0.0432722    0.0991041 
   0.134993300     0.0098548   -0.1291587    -0.0834838    0.7831386    -0.0962650    0.7778056    -0.0140123    0.1201657 
   0.136993200     0.0099151   -0.1273910     0.0476573    0.7855979     0.0330943    0.7827167     0.0216660    0.1303522 
   0.138993100     0.0108468   -0.1254924     0.1774200    0.7659568     0.1619347    0.7665130     0.0595599    0.1282619 
   0.140993000     0.0127695   -0.1239361     0.3019776    0.7256776     0.2863842    0.7295109     0.0957313    0.1137297 
   0.142992900     0.0154587   -0.1232145     0.4180208    0.6647992     0.4036466    0.6723067     0.1261569    0.0877953 
   0.144992800     0.0186871   -0.1238149     0.5224532    0.5856698     0.5101761    0.5965095     0.1474793    0.0526545 
   0.146992700     0.0218010   -0.1257874     0.6117958    0.4900117     0.6023538    0.5030618     0.1574250    0.0119445 
   0.148992600     0.0243044   -0.1292981     0.6840137    0.3809836     0.6777312    0.3952836     0.1545723   -0.0306809 
   0.150992500     0.0256316   -0.1339923     0.7363240    0.2619197     0.7329451    0.2759795     0.1389786   -0.0712475 
   0.152992400     0.0253350   -0.1399385     0.7681810    0.1356038     0.7675709    0.1493965     0.1115522   -0.1058160 
   0.154992300     0.0230750   -0.1462721     0.7781374    0.0065236     0.7797058    0.0193324     0.0746778   -0.1311657 
   0.156992200     0.0185471   -0.1523686     0.7667867   -0.1220301     0.7699547   -0.1103506     0.0316766   -0.1447213 
   0.158992100     0.0119121   -0.1576072     0.7343222   -0.2460710     0.7383122   -0.2356460    -0.0136397   -0.1450924 
   0.160992000     0.0034473   -0.1614654     0.6820838   -0.3628165     0.6871955   -0.3526701    -0.0570415   -0.1322768 
   0.162991900    -0.0063459   -0.1633196     0.6116367   -0.4685579     0.6179405   -0.4590249    -0.0947333   -0.1076751 
   0.164991800    -0.0169715   -0.1627160     0.5256562   -0.5611643     0.5327200   -0.5522029    -0.1235424   -0.0734732 
   0.166991700    -0.0277662   -0.1594409     0.4263406   -0.6381364     0.4347155   -0.6294005    -0.1411765   -0.0331451 
   0.168991600    -0.0379223   -0.1538374     0.3159297   -0.6979491     0.3263957   -0.6900766    -0.1464921    0.0099138 
   0.170991500    -0.0468671   -0.1459697     0.1979000   -0.7390270     0.2102706   -0.7329526    -0.1394698    0.0520022 
   0.172991400    -0.0539702   -0.1361519     0.0749790   -0.7608151     0.0888995   -0.7567405    -0.1213529    0.0894111 
   0.174991300    -0.0588667   -0.1250962    -0.0497907   -0.7626439    -0.0347288   -0.7611312    -0.0941934    0.1193975 
   0.176991200    -0.0613884   -0.1134538    -0.1736462   -0.7444443    -0.1577110   -0.7462046    -0.0605215    0.1399045 
   0.178991100    -0.0614369   -0.1017838    -0.2928679   -0.7062429    -0.2774723   -0.7115541    -0.0238839    0.1495573 
   0.180991000    -0.0592297   -0.0907409    -0.4043449   -0.6497912    -0.3903762   -0.6578982     0.0126345    0.1485586 
   0.182990900    -0.0549903   -0.0808242    -0.5056495   -0.5750843    -0.4935731   -0.5863376     0.0456546    0.1376303 
   0.184990800    -0.0491870   -0.0725456    -0.5933349   -0.4848554    -0.5843464   -0.4975266     0.0729858    0.1184969 
   0.186990700    -0.0423878   -0.0660425    -0.6653345   -0.3809325    -0.6595627   -0.3949198     0.0922587    0.0937414 
   0.188990600    -0.0339554   -0.0622526    -0.7100322   -0.2879049    -0.7087824   -0.2985424     0.1003474    0.0690297 
   0.190990500    -0.0278809   -0.0586338    -0.7524062   -0.1474573    -0.7526041   -0.1613367     0.1038278    0.0392251 
   0.192990400    -0.0214250   -0.0571215    -0.7663428   -0.0178687    -0.7689568   -0.0314950     0.0972772    0.0143884 
   0.194990300    -0.0156452   -0.0568444    -0.7587942    0.1086112    -0.7634135    0.0961000     0.0841807   -0.0049308 
   0.196990200    -0.0108412   -0.0572773    -0.7300424    0.2320541    -0.7364766    0.2205912     0.0668528   -0.0173792 
   0.198990100    -0.0070237   -0.0580193    -0.6817632    0.3489079    -0.6894300    0.3385935     0.0479752   -0.0223749 
   0.200990000    -0.0040074   -0.0586688    -0.6142604    0.4563734    -0.6235581    0.4469120     0.0301877   -0.0202067 
   0.202989900    -0.0015958   -0.0589619    -0.5305572    0.5508657    -0.5410011    0.5429917     0.0159282   -0.0119883 
   0.204989800     0.0005745   -0.0587712    -0.4323347    0.6300996    -0.4438888    0.6240519     0.0069855    0.0004742 
   0.206989700     0.0028083   -0.0580766    -0.3228401    0.6923488    -0.3355437    0.6877647     0.0044247    0.0149071 
   0.208989600     0.0054643   -0.0569566    -0.2045299    0.7355053    -0.2183841    0.7330458     0.0083976    0.0288979 
   0.210989500     0.0087568   -0.0556977    -0.0807643    0.7590109    -0.0949502    0.7587729     0.0182198    0.0401017 
   0.212989400     0.0129271   -0.0545284     0.0450565    0.7616307     0.0313907    0.7640088     0.0324910    0.0465645 
   0.214989300     0.0179477   -0.0538547     0.1697304    0.7434983     0.1571292    0.7483192     0.0491230    0.0469869 
   0.216989200     0.0237043   -0.0540157     0.2897096    0.7049303     0.2783246    0.7120432     0.0658486    0.0407571 
   0.218989100     0.0299636   -0.0553155     0.4016642    0.6473065     0.3915232    0.6562338     0.0803538    0.0280955 
   0.220989000     0.0364561   -0.0579930     0.5024654    0.5718191     0.4944122    0.5822330     0.0903987    0.0100439 
   0.222988900     0.0427887   -0.0622074     0.5894945    0.4806645     0.5836471    0.4915211     0.0942497   -0.0115958 
   0.224988800     0.0485504   -0.0679672     0.6599700    0.3763785     0.6563267    0.3872436     0.0907374   -0.0346307 
   0.226988700     0.0533616   -0.0750867     0.7122253    0.2619378     0.7099319    0.2725905     0.0796462   -0.0566129 
   0.228988600     0.0568704   -0.0833606     0.7444431    0.1407629     0.7435486    0.1515872     0.0615094   -0.0749964 
   0.230988500     0.0587722   -0.0925013     0.7562594    0.0160347     0.7564673    0.0272477     0.0375446   -0.0875897 
   0.232988400     0.0587998   -0.1019931     0.7466871   -0.1082877     0.7488046   -0.0972554     0.0099026   -0.0924843 
   0.234988300     0.0569848   -0.1116581     0.7171533   -0.2292618     0.7205828   -0.2182748    -0.0187482   -0.0888633 
   0.236988200     0.0533022   -0.1209343     0.6679960   -0.3433425     0.6732362   -0.3324486    -0.0457081   -0.0765709 
   0.238988100     0.0480149   -0.1294287     0.6014180   -0.4472912     0.6084269   -0.4371108    -0.0684455   -0.0565111 
   0.240988000     0.0413432   -0.1368397     0.5189055   -0.5384550     0.5282050   -0.5292007    -0.0846489   -0.0303274 
   0.242987900     0.0335636   -0.1430388     0.4229483   -0.6146637     0.4347121   -0.6064649    -0.0926230    0.0000266 
   0.244987800     0.0249250   -0.1475257     0.3158229   -0.6738840     0.3304255   -0.6679364    -0.0915792    0.0318477 
   0.246987700     0.0158264   -0.1504315     0.2014553   -0.7149196     0.2175389   -0.7121457    -0.0813618    0.0621757 
   0.248987600     0.0065066   -0.1518702     0.0823931   -0.7369349     0.0981519   -0.7376568    -0.0628919    0.0884879 
   0.250987500    -0.0026694   -0.1518261    -0.0390624   -0.7390720    -0.0237064   -0.7431846    -0.0374928    0.1086289 
   0.252987400    -0.0112056   -0.1504092    -0.1585814   -0.7215839    -0.1446334   -0.7292359    -0.0074724    0.1208119 
   0.254987300    -0.0190153   -0.1478733    -0.2733626   -0.6853559    -0.2612185   -0.6959569     0.0245387    0.1240399 
   0.256987200    -0.0260219   -0.1445015    -0.3807251   -0.6311672    -0.3711136   -0.6437284     0.0559631    0.1182124 
   0.258987100    -0.0322355   -0.1406542    -0.4778343   -0.5602310    -0.4711879   -0.5738859     0.0843529    0.1039777 
   0.260987000    -0.0376127   -0.1361043    -0.5621530   -0.4744271    -0.5583895   -0.4889020     0.1072490    0.0827258 
   0.262986900    -0.0422393   -0.1310937    -0.6314460   -0.3763739    -0.6305459   -0.3900675     0.1229033    0.0564286 
   0.264986800    -0.0461370   -0.1258922    -0.6837263   -0.2683220    -0.6853450   -0.2808723     0.1304621    0.0274017 
   0.266986700    -0.0494399   -0.1207625    -0.7178868   -0.1529372    -0.7212355   -0.1641844     0.1295406   -0.0017678 
   0.268986600    -0.0521284   -0.1156460    -0.7326923   -0.0337761    -0.7372857   -0.0435614     0.1205303   -0.0284084 
   0.270986500    -0.0541033   -0.1105454    -0.7280306    0.0859339    -0.7334824    0.0770859     0.1048425   -0.0505256 
   0.272986400    -0.0555657   -0.1054789    -0.7038689    0.2033663    -0.7101089    0.1952359     0.0842726   -0.0663418 
   0.274986300    -0.0565712   -0.1003304    -0.6607339    0.3154998    -0.6682130    0.3077043     0.0611050   -0.0747653 
   0.276986200    -0.0570806   -0.0951496    -0.5999832    0.4191255    -0.6088189    0.4119022     0.0378257   -0.0755213 
   0.278986100    -0.0570312   -0.0898777    -0.5232057    0.5113662    -0.5330434    0.5053172     0.0168846   -0.0691764 
   0.280986000    -0.0563327   -0.0845967    -0.4323557    0.5897179    -0.4426515    0.5853447     0.0004267   -0.0571673 
   0.282985900    -0.0548993   -0.0792392    -0.3296959    0.6522757    -0.3406133    0.6496758    -0.0100400   -0.0413468 
   0.284985800    -0.0526352   -0.0741228    -0.2183843    0.6972367    -0.2290296    0.6968393    -0.0138006   -0.0240463 
   0.286985700    -0.0495267   -0.0695576    -0.1010437    0.7233065    -0.1113892    0.7248467    -0.0108332   -0.0076591 
   0.288985600    -0.0455190   -0.0656771     0.0193291    0.7297186     0.0087712    0.7329332    -0.0019146    0.0055789 
   0.290985500    -0.0406073   -0.0626434     0.1390031    0.7160661     0.1286567    0.7212324     0.0113525    0.0137958 
   0.292985400    -0.0351146   -0.0607517     0.2548240    0.6830016     0.2453438    0.6899325     0.0269486    0.0156964 
   0.294985300    -0.0292393   -0.0601698     0.3634359    0.6310746     0.3550979    0.6394881     0.0424539    0.0107575 
   0.296985200    -0.0232541   -0.0610178     0.4620688    0.5617657     0.4553061    0.5710024     0.0554423   -0.0006593 
   0.298985100    -0.0175158   -0.0633853     0.5475304    0.4769217     0.5427690    0.4861389     0.0636518   -0.0175075 
   0.300985000    -0.0124057   -0.0673142     0.6178024    0.3788858     0.6146127    0.3878959     0.0651074   -0.0378185 
   0.302984900    -0.0083182   -0.0727076     0.6702914    0.2704727     0.6684746    0.2798650     0.0587914   -0.0588712 
   0.304984800    -0.0056616   -0.0794032     0.7038304    0.1551243     0.7028869    0.1648324     0.0445628   -0.0779776 
   0.306984700    -0.0047311   -0.0869855     0.7170909    0.0364413     0.7175679    0.0462497     0.0232479   -0.0923178 
   0.308984600    -0.0057196   -0.0950880     0.7102944   -0.0822074     0.7124740   -0.0719571    -0.0034765   -0.0994055 
   0.310984500    -0.0089156   -0.1035688     0.6836584   -0.1970405     0.6879168   -0.1865006    -0.0328104   -0.0975546 
   0.312984400    -0.0141493   -0.1111903     0.6385167   -0.3050441     0.6451449   -0.2946038    -0.0616125   -0.0856648 
   0.314984300    -0.0214154   -0.1177097     0.5762614   -0.4030018     0.5853574   -0.3934822    -0.0864449   -0.0639238 
