! MS46122B
! 2250307/22442219
! 8/1/2025 10:29:03 AM
! C:\USERS\SPARKY\DOCUMENTS\VNA_DATA\AUGUST1_2025\3K\PORT1.S2P
! CHANNEL.1
! TR.MEASUREMENT
! RAW.DATA
# GHZ S RI R 50.0
! FREQ.GHZ         S11RE         S11IM         S21RE         S21IM         S12RE         S12IM         S22RE         S22IM         
!; PortSelection: Port_12
   0.001000000     1.0441390   -0.0685505    -0.0004082   -0.0009834    -0.0003954   -0.0010373     0.8179827   -0.5514470 
   0.002999900     0.9603726   -0.1956314    -0.0235867   -0.0155013    -0.0246619   -0.0161606     0.0648167   -0.8776004 
   0.004999800     0.8700631   -0.3131099    -0.1432378    0.0275196    -0.1506556    0.0321791    -0.6948338   -0.3610724 
   0.006999700     0.7715859   -0.4066544    -0.1875568    0.1382372    -0.1919244    0.1521000    -0.7383904    0.2691890 
   0.008999600     0.5934733   -0.3992132    -0.0546473    0.5182053    -0.0363823    0.5270791     0.3091578    0.6055915 
   0.010999500     0.5685503   -0.3257440     0.3818638    0.4863219     0.3898201    0.4898646     0.4680242   -0.2707337 
   0.012999400     0.5832999   -0.3388157     0.5618150    0.2429227     0.5771210    0.2497876    -0.0124418   -0.5495606 
   0.014999300     0.5724728   -0.3818583     0.6011834    0.0369257     0.6220725    0.0353126    -0.3730955   -0.4461050 
   0.016999200     0.5419944   -0.4249712     0.5889648   -0.1277702     0.6081086   -0.1394625    -0.5555721   -0.2265880 
   0.018999100     0.5008485   -0.4618082     0.5494171   -0.2689400     0.5613320   -0.2872539    -0.6043895    0.0092723 
   0.020999000     0.4516699   -0.4898538     0.4880123   -0.3926885     0.4906693   -0.4126987    -0.5530497    0.2172782 
   0.022998900     0.3981997   -0.5077857     0.4068884   -0.5013084     0.4013276   -0.5182455    -0.4343562    0.3742253 
   0.024998800     0.3393447   -0.4901603     0.3481712   -0.6021065     0.2880575   -0.6095175    -0.3042014    0.5036374 
   0.026998700     0.2881323   -0.5072823     0.1856354   -0.6684667     0.1727644   -0.6704758    -0.1057122    0.5021312 
   0.028998600     0.2374635   -0.4892801     0.0471595   -0.7178406     0.0371451   -0.7124370     0.0581290    0.4742500 
   0.030998500     0.1942388   -0.4607857    -0.1045833   -0.7374227    -0.1085661   -0.7274443     0.1955981    0.3951165 
   0.032998400     0.1624136   -0.4079168    -0.2362710   -0.7632787    -0.2686048   -0.7098192     0.3128597    0.3081996 
   0.034998300     0.1415245   -0.3856441    -0.4167241   -0.6683623    -0.4080346   -0.6618418     0.3372118    0.1408609 
   0.036998200     0.1335278   -0.3478904    -0.5572182   -0.5793424    -0.5459098   -0.5780863     0.3289841    0.0033552 
   0.038998100     0.1360787   -0.3156640    -0.6737282   -0.4587850    -0.6637707   -0.4633205     0.2727376   -0.1144134 
   0.040998000     0.1457832   -0.2919664    -0.7590593   -0.3148608    -0.7535354   -0.3230354     0.1810437   -0.1977956 
   0.042997900     0.1587871   -0.2780171    -0.8101358   -0.1581439    -0.8091124   -0.1664689     0.0709794   -0.2376709 
   0.044997800     0.1684704   -0.2610497    -0.8577828   -0.0385490    -0.8302664    0.0076957    -0.0360341   -0.2492209 
   0.046997700     0.1787938   -0.2769362    -0.8074949    0.1606905    -0.8124995    0.1588260    -0.1371334   -0.1907863 
   0.048997600     0.1818157   -0.2849897    -0.7609317    0.3075556    -0.7648128    0.3092009    -0.2074807   -0.1195392 
   0.050997500     0.1785582   -0.2953353    -0.6898927    0.4396878    -0.6907052    0.4438362    -0.2460124   -0.0321780 
   0.052997400     0.1693867   -0.3055706    -0.5978947    0.5543556    -0.5960291    0.5579578    -0.2512408    0.0593143 
   0.054997300     0.1554527   -0.3135397    -0.4868861    0.6518233    -0.4868938    0.6502278    -0.2255311    0.1435004 
   0.056997200     0.1374864   -0.3184879    -0.3680609    0.7253423    -0.3624311    0.7235420    -0.1749710    0.2116102 
   0.058997100     0.1180730   -0.3188612    -0.2373776    0.7787057    -0.2315833    0.7735723    -0.1060648    0.2578931 
   0.060997000     0.0985318   -0.3145108    -0.0993858    0.8095183    -0.0963428    0.8015137    -0.0273000    0.2785241 
   0.062996900     0.0803406   -0.3058902     0.0422180    0.8169070     0.0411696    0.8077297     0.0531078    0.2724645 
   0.064996800     0.0654623   -0.2936692     0.1836848    0.8005530     0.1779110    0.7916000     0.1263836    0.2414290 
   0.066996700     0.0546611   -0.2791443     0.3211192    0.7597591     0.3114625    0.7530603     0.1855435    0.1893321 
   0.068996600     0.0484302   -0.2637341     0.4500702    0.6948740     0.4379977    0.6923266     0.2251768    0.1213238 
   0.070996500     0.0468601   -0.2493352     0.5669248    0.6081446     0.5539299    0.6100519     0.2413023    0.0452422 
   0.072996400     0.0492376   -0.2369436     0.6667533    0.5010987     0.6543805    0.5074849     0.2328412   -0.0312619 
   0.074996300     0.0545374   -0.2279619     0.7453896    0.3775029     0.7358498    0.3870150     0.2011894   -0.1008698 
   0.076996200     0.0612460   -0.2231413     0.8001961    0.2417558     0.7944175    0.2530134     0.1499934   -0.1558700 
   0.078996100     0.0677383   -0.2225378     0.8294807    0.0983827     0.8276241    0.1099290     0.0848594   -0.1916813 
   0.080996000     0.0724462   -0.2258570     0.8332747   -0.0469474     0.8334792   -0.0361993     0.0130355   -0.2048040 
   0.082995900     0.0740483   -0.2320500     0.8106810   -0.1896232     0.8128232   -0.1806725    -0.0581393   -0.1947221 
   0.084995800     0.0721018   -0.2395429     0.7637537   -0.3241455     0.7664608   -0.3171553    -0.1208633   -0.1634167 
   0.086995700     0.0661452   -0.2474035     0.6954703   -0.4480857     0.6979739   -0.4419117    -0.1697341   -0.1151124 
   0.088995600     0.0564079   -0.2541233     0.6085540   -0.5578666     0.6102788   -0.5508710    -0.2003231   -0.0554204 
   0.090995500     0.0434946   -0.2585047     0.5051979   -0.6506093     0.5068542   -0.6425390    -0.2109032    0.0089557 
   0.092995400     0.0281252   -0.2601725     0.3892492   -0.7247651     0.3918962   -0.7153756    -0.2013918    0.0717491 
   0.094995300     0.0116825   -0.2573915     0.2629339   -0.7781966     0.2671699   -0.7681443    -0.1741406    0.1272355 
   0.096995200    -0.0043463   -0.2507364     0.1304415   -0.8109302     0.1371670   -0.8002120    -0.1325250    0.1704819 
   0.098995100    -0.0190206   -0.2403387    -0.0054577   -0.8214529     0.0042541   -0.8117085    -0.0810217    0.1983669 
   0.100995000    -0.0331197   -0.2267252    -0.1430178   -0.8097763    -0.1301761   -0.8025223    -0.0228907    0.2095782 
   0.102994900    -0.0419960   -0.2107216    -0.2757799   -0.7757223    -0.2604828   -0.7718647     0.0317072    0.2023806 
   0.104994800    -0.0470041   -0.1935316    -0.4013241   -0.7203169    -0.3848804   -0.7204642     0.0799406    0.1792536 
   0.106994700    -0.0479734   -0.1761528    -0.5160711   -0.6439332    -0.5007544   -0.6490067     0.1175501    0.1435862 
   0.108994600    -0.0453295   -0.1599581    -0.6176806   -0.5496359    -0.6042995   -0.5586100     0.1410896    0.0995140 
   0.110994500    -0.0395168   -0.1458425    -0.7022843   -0.4391684    -0.6917858   -0.4511936     0.1490567    0.0518581 
   0.112994400    -0.0312671   -0.1343884    -0.7672012   -0.3154953    -0.7601187   -0.3292951     0.1413851    0.0057767 
   0.114994300    -0.0216752   -0.1263327    -0.8102985   -0.1821646    -0.8066220   -0.1964739     0.1198341   -0.0337239 
   0.116994200    -0.0117516   -0.1215181    -0.8297409   -0.0431729    -0.8293362   -0.0569465     0.0872876   -0.0625242 
   0.118994100    -0.0024619   -0.1196357    -0.8252392    0.0970571    -0.8273824    0.0846006     0.0480197   -0.0780349 
   0.120994000     0.0056970   -0.1201604    -0.7973974    0.2342023    -0.8008559    0.2231801     0.0069882   -0.0787486 
   0.122993900     0.0118342   -0.1223684    -0.7462518    0.3644930    -0.7507338    0.3547142    -0.0310069   -0.0650420 
   0.124993800     0.0159857   -0.1254415    -0.6742149    0.4839435    -0.6792132    0.4752202    -0.0610563   -0.0390297 
   0.126993700     0.0182090   -0.1287186    -0.5832002    0.5892824    -0.5890744    0.5806336    -0.0794912   -0.0046654 
   0.128993600     0.0188189   -0.1314452    -0.4759572    0.6771764    -0.4829442    0.6689440    -0.0844305    0.0339619 
   0.130993500     0.0184294   -0.1334759    -0.3562033    0.7461601    -0.3645820    0.7382758    -0.0753179    0.0720951 
   0.132993400     0.0175103   -0.1345392    -0.2267200    0.7942539    -0.2373070    0.7870963    -0.0532970    0.1049596 
   0.134993300     0.0165695   -0.1347335    -0.0915237    0.8201855    -0.1041537    0.8147691    -0.0207643    0.1287216 
   0.136993200     0.0160748   -0.1342905     0.0459915    0.8232525     0.0314424    0.8202132     0.0188178    0.1404282 
   0.138993100     0.0162403   -0.1336505     0.1820767    0.8036849     0.1664230    0.8037879     0.0608922    0.1384527 
   0.140993000     0.0171642   -0.1332496     0.3128167    0.7616041     0.2969160    0.7654646     0.1011014    0.1226892 
   0.142992900     0.0186224   -0.1335617     0.4346522    0.6983669     0.4199912    0.7061144     0.1349360    0.0942444 
   0.144992800     0.0204386   -0.1350235     0.5442777    0.6160405     0.5318658    0.6271881     0.1587765    0.0556565 
   0.146992700     0.0219354   -0.1376860     0.6382431    0.5162951     0.6288469    0.5296883     0.1699718    0.0108087 
   0.148992600     0.0226866   -0.1417358     0.7144074    0.4023651     0.7082906    0.4171609     0.1670641   -0.0361779 
   0.150992500     0.0221701   -0.1466243     0.7696806    0.2778825     0.7668508    0.2926817     0.1500530   -0.0810195 
   0.152992400     0.0198186   -0.1522968     0.8035018    0.1460278     0.8036258    0.1600553     0.1199551   -0.1192261 
   0.154992300     0.0154306   -0.1580322     0.8148253    0.0109406     0.8169809    0.0240535     0.0793609   -0.1473403 
   0.156992200     0.0089071   -0.1632245     0.8035906   -0.1234107     0.8072984   -0.1119042     0.0320080   -0.1624334 
   0.158992100     0.0003574   -0.1673633     0.7704339   -0.2532203     0.7750447   -0.2431056    -0.0180699   -0.1630114 
   0.160992000    -0.0097627   -0.1694362     0.7165730   -0.3755710     0.7220158   -0.3659596    -0.0660679   -0.1490754 
   0.162991900    -0.0209985   -0.1691634     0.6438974   -0.4867497     0.6502070   -0.4776291    -0.1078888   -0.1220072 
   0.164991800    -0.0327599   -0.1661479     0.5547448   -0.5843548     0.5617613   -0.5756810    -0.1400142   -0.0842229 
   0.166991700    -0.0441811   -0.1603800     0.4515591   -0.6656787     0.4600034   -0.6573847    -0.1597253   -0.0395323 
   0.168991600    -0.0545140   -0.1520707     0.3366316   -0.7294692     0.3471344   -0.7219265    -0.1658778    0.0082205 
   0.170991500    -0.0631788   -0.1414980     0.2132794   -0.7738937     0.2256891   -0.7678312    -0.1582223    0.0550566 
   0.172991400    -0.0693451   -0.1289143     0.0847456   -0.7981254     0.0986660   -0.7941924    -0.1382445    0.0968115 
   0.174991300    -0.0727829   -0.1154272    -0.0460375   -0.8015099    -0.0309637   -0.8003223    -0.1080441    0.1303530 
   0.176991200    -0.0733013   -0.1014291    -0.1763289   -0.7836010    -0.1605039   -0.7857563    -0.0705856    0.1531813 
   0.178991100    -0.0709919   -0.0879679    -0.3019700   -0.7451391    -0.2870257   -0.7508859    -0.0296785    0.1641106 
   0.180991000    -0.0660954   -0.0756765    -0.4205896   -0.6869364    -0.4067614   -0.6954363     0.0111295    0.1629842 
   0.182990900    -0.0589324   -0.0650765    -0.5280707   -0.6092612    -0.5162846   -0.6210001     0.0480771    0.1505941 
   0.184990800    -0.0501571   -0.0567093    -0.6217393   -0.5146269    -0.6132544   -0.5283923     0.0786471    0.1290354 
   0.186990700    -0.0404766   -0.0507513    -0.6987147   -0.4059724    -0.6934958   -0.4202012     0.1000370    0.1010252 
   0.188990600    -0.0297932   -0.0480042    -0.7470143   -0.3079009    -0.7463435   -0.3187078     0.1090500    0.0729336 
   0.190990500    -0.0210988   -0.0461497    -0.7925361   -0.1595756    -0.7935327   -0.1735564     0.1124101    0.0392898 
   0.192990400    -0.0127802   -0.0467465    -0.8082353   -0.0227303    -0.8118152   -0.0362933     0.1045317    0.0111506 
   0.194990300    -0.0057319   -0.0487941    -0.8009333    0.1111673    -0.8061205    0.0991017     0.0890808   -0.0106945 
   0.196990200    -0.0002083   -0.0516573    -0.7712827    0.2419572    -0.7778886    0.2307760     0.0688231   -0.0247072 
   0.198990100     0.0037564   -0.0548035    -0.7203024    0.3657349    -0.7283530    0.3555708     0.0467203   -0.0301499 
   0.200990000     0.0064092   -0.0577450    -0.6494864    0.4794121    -0.6589074    0.4702781     0.0257858   -0.0272821 
   0.202989900     0.0080489   -0.0601119    -0.5612243    0.5794343    -0.5716151    0.5717633     0.0088130   -0.0174074 
   0.204989800     0.0090811   -0.0616158    -0.4577942    0.6635126    -0.4692942    0.6573476    -0.0020598   -0.0024997 
   0.206989700     0.0099816   -0.0622259    -0.3422250    0.7295716    -0.3549743    0.7247863    -0.0056308    0.0148400 
   0.208989600     0.0111446   -0.0620412    -0.2175078    0.7752075    -0.2315219    0.7726155    -0.0017131    0.0318753 
   0.210989500     0.0129497   -0.0613015    -0.0869252    0.8002192    -0.1015261    0.8000672     0.0090163    0.0459268 
   0.212989400     0.0156384   -0.0603493     0.0457035    0.8031929     0.0317922    0.8058618     0.0250998    0.0547480 
   0.214989300     0.0192585   -0.0595843     0.1774412    0.7843992     0.1643897    0.7896127     0.0441791    0.0568704 
   0.216989200     0.0238460   -0.0593952     0.3039204    0.7441537     0.2921061    0.7518171     0.0636822    0.0515029 
   0.218989100     0.0291504   -0.0602270     0.4219880    0.6836745     0.4120892    0.6935030     0.0810064    0.0388018 
   0.220989000     0.0348786   -0.0623473     0.5287271    0.6042734     0.5208165    0.6153986     0.0937167    0.0198379 
   0.222988900     0.0406347   -0.0660002     0.6207663    0.5084441     0.6154742    0.5198168     0.0997824   -0.0034994 
   0.224988800     0.0459703   -0.0711842     0.6956103    0.3986247     0.6924270    0.4098251     0.0977607   -0.0287010 
   0.226988700     0.0504629   -0.0777737     0.7510762    0.2779263     0.7496724    0.2889772     0.0874091   -0.0531827 
   0.228988600     0.0536826   -0.0856078     0.7854442    0.1499785     0.7853414    0.1610011     0.0691732   -0.0739979 
   0.230988500     0.0553578   -0.0943347     0.7982777    0.0183394     0.7991284    0.0295362     0.0443517   -0.0888405 
   0.232988400     0.0551511   -0.1034930     0.7886036   -0.1129328     0.7911482   -0.1020063     0.0151986   -0.0955124 
   0.234988300     0.0530229   -0.1128060     0.7577608   -0.2408301     0.7616839   -0.2300323    -0.0154180   -0.0929064 
   0.236988200     0.0490297   -0.1216833     0.7062352   -0.3614634     0.7118062   -0.3510153    -0.0444601   -0.0809696 
   0.238988100     0.0433690   -0.1296885     0.6360580   -0.4714745     0.6433976   -0.4615274    -0.0691643   -0.0604426 
   0.240988000     0.0363080   -0.1365618     0.5490969   -0.5680075     0.5585006   -0.5590456    -0.0870116   -0.0332149 
   0.242987900     0.0281495   -0.1420156     0.4475881   -0.6488454     0.4599869   -0.6411128    -0.0960864   -0.0013047 
   0.244987800     0.0193163   -0.1456783     0.3348282   -0.7117876     0.3497276   -0.7062324    -0.0954165    0.0323231 
   0.246987700     0.0100737   -0.1476344     0.2138837   -0.7555488     0.2303213   -0.7530687    -0.0849516    0.0644508 
   0.248987600     0.0007652   -0.1480196     0.0881001   -0.7790433     0.1040952   -0.7803279    -0.0655313    0.0923700 
   0.250987500    -0.0081643   -0.1468135    -0.0403143   -0.7816302    -0.0247463   -0.7866935    -0.0386879    0.1136205 
   0.252987400    -0.0162389   -0.1441851    -0.1668653   -0.7637232    -0.1529250   -0.7721784    -0.0068746    0.1263355 
   0.254987300    -0.0233324   -0.1405216    -0.2887506   -0.7256432    -0.2766744   -0.7369768     0.0270501    0.1293863 
   0.256987200    -0.0293533   -0.1360524    -0.4024625   -0.6684335    -0.3933507   -0.6817057     0.0602671    0.1227202 
   0.258987100    -0.0343421   -0.1311744    -0.5056677   -0.5937125    -0.4995050   -0.6082426     0.0901450    0.1070061 
   0.260987000    -0.0382751   -0.1257826    -0.5952063   -0.5029534    -0.5921962   -0.5175611     0.1138499    0.0838307 
   0.262986900    -0.0412302   -0.1204303    -0.6689041   -0.3990089    -0.6689693   -0.4129404     0.1296501    0.0553487 
   0.264986800    -0.0433477   -0.1151951    -0.7249700   -0.2843140    -0.7270027   -0.2967406     0.1366088    0.0240850 
   0.266986700    -0.0446761   -0.1102352    -0.7612893   -0.1618324    -0.7651585   -0.1728168     0.1342848   -0.0070439 
   0.268986600    -0.0453909   -0.1056421    -0.7771314   -0.0352934    -0.7822114   -0.0447676     0.1232745   -0.0351860 
   0.270986500    -0.0457142   -0.1015022    -0.7720308    0.0921380    -0.7779454    0.0835891     0.1050889   -0.0580609 
   0.272986400    -0.0456385   -0.0976531    -0.7463490    0.2171632    -0.7528283    0.2088873     0.0817712   -0.0736984 
   0.274986300    -0.0452835   -0.0940954    -0.7003870    0.3363541    -0.7078623    0.3284128     0.0559255   -0.0810879 
   0.276986200    -0.0447009   -0.0906848    -0.6355225    0.4462660    -0.6445227    0.4391555     0.0303734   -0.0798963 
   0.278986100    -0.0439156   -0.0873175    -0.5533997    0.5441247    -0.5637332    0.5380607     0.0078958   -0.0709588 
   0.280986000    -0.0428072   -0.0840575    -0.4564873    0.6273254    -0.4676329    0.6229766    -0.0092412   -0.0558149 
   0.282985900    -0.0413836   -0.0809370    -0.3471710    0.6933413    -0.3588035    0.6911196    -0.0194036   -0.0367156 
   0.284985800    -0.0395459   -0.0780788    -0.2286327    0.7404732    -0.2399527    0.7403644    -0.0217848   -0.0162541 
   0.286985700    -0.0371705   -0.0755202    -0.1037363    0.7673758    -0.1147570    0.7696410    -0.0165225    0.0027165 
   0.288985600    -0.0342117   -0.0734972     0.0239764    0.7735935     0.0127827    0.7780219    -0.0045179    0.0178449 
   0.290985500    -0.0308034   -0.0721926     0.1508375    0.7584807     0.1402592    0.7648578     0.0123098    0.0269184 
   0.292985400    -0.0269936   -0.0717179     0.2733852    0.7226263     0.2640474    0.7306347     0.0316573    0.0285468 
   0.294985300    -0.0229694   -0.0722191     0.3882576    0.6668103     0.3802842    0.6763657     0.0507176    0.0222584 
   0.296985200    -0.0189672   -0.0738573     0.4922553    0.5929526     0.4864048    0.6030918     0.0667674    0.0084660 
   0.298985100    -0.0153552   -0.0766407     0.5824196    0.5026551     0.5786104    0.5124378     0.0771474   -0.0115021 
   0.300985000    -0.0123811   -0.0806433     0.6561457    0.3984963     0.6540971    0.4077430     0.0797548   -0.0354956 
   0.302984900    -0.0104232   -0.0857370     0.7112410    0.2833737     0.7102854    0.2927334     0.0733954   -0.0604476 
   0.304984800    -0.0097770   -0.0917709     0.7462549    0.1611033     0.7464247    0.1705438     0.0579875   -0.0832067 
   0.306984700    -0.0107742   -0.0985372     0.7598728    0.0355125     0.7610951    0.0449416     0.0344872   -0.1006080 
   0.308984600    -0.0135431   -0.1056224     0.7522318   -0.0899996     0.7550705   -0.0800977     0.0047714   -0.1099225 
   0.310984500    -0.0180407   -0.1122718     0.7236628   -0.2114132     0.7283894   -0.2013578    -0.0281003   -0.1090840 
   0.312984400    -0.0244125   -0.1181339     0.6755838   -0.3257814     0.6826336   -0.3155862    -0.0604945   -0.0969855 
   0.314984300    -0.0324647   -0.1227934     0.6097238   -0.4292560     0.6191292   -0.4202009    -0.0884481   -0.0738703 
