! MS46122B
! 2250307/22442219
! 8/1/2025 10:40:11 AM
! C:\USERS\SPARKY\DOCUMENTS\VNA_DATA\AUGUST1_2025\3K\PORT1_REPEAT4.S2P
! CHANNEL.1
! TR.MEASUREMENT
! RAW.DATA
# GHZ S RI R 50.0
! FREQ.GHZ         S11RE         S11IM         S21RE         S21IM         S12RE         S12IM         S22RE         S22IM         
!; PortSelection: Port_12
   0.001000000     1.0441650   -0.0685600    -0.0004677   -0.0010595    -0.0003835   -0.0010431     0.8182347   -0.5510870 
   0.002999900     0.9605178   -0.1956775    -0.0235958   -0.0154915    -0.0246388   -0.0161511     0.0658618   -0.8778978 
   0.004999800     0.8702126   -0.3132690    -0.1434154    0.0273048    -0.1507291    0.0318716    -0.6947181   -0.3625441 
   0.006999700     0.7716976   -0.4068082    -0.1876000    0.1384360    -0.1919632    0.1520715    -0.7386975    0.2680910 
   0.008999600     0.5934114   -0.3995761    -0.0547902    0.5187341    -0.0368317    0.5273897     0.3092297    0.6057150 
   0.010999500     0.5683158   -0.3260367     0.3822157    0.4869397     0.3897943    0.4905469     0.4683422   -0.2716670 
   0.012999400     0.5829648   -0.3389460     0.5624965    0.2433406     0.5774448    0.2505002    -0.0129167   -0.5509121 
   0.014999300     0.5720999   -0.3820180     0.6020341    0.0370562     0.6227133    0.0359045    -0.3743430   -0.4471547 
   0.016999200     0.5416173   -0.4251069     0.5898548   -0.1279200     0.6089147   -0.1391607    -0.5572152   -0.2270311 
   0.018999100     0.5004366   -0.4619114     0.5503192   -0.2693365     0.5622044   -0.2872029    -0.6061565    0.0095149 
   0.020999000     0.4511881   -0.4898930     0.4888768   -0.3933116     0.4915865   -0.4128850    -0.5547063    0.2181733 
   0.022998900     0.3977060   -0.5077476     0.4075764   -0.5021302     0.4022022   -0.5187112    -0.4355990    0.3756905 
   0.024998800     0.3387946   -0.4900470     0.3487585   -0.6031926     0.2888446   -0.6101682    -0.3049987    0.5055621 
   0.026998700     0.2875471   -0.5070258     0.1859314   -0.6696701     0.1733917   -0.6713247    -0.1058077    0.5040960 
   0.028998600     0.2369394   -0.4888798     0.0472086   -0.7192318     0.0375501   -0.7135159     0.0586832    0.4761806 
   0.030998500     0.1936955   -0.4602724    -0.1049585   -0.7388541    -0.1083186   -0.7285848     0.1966504    0.3968140 
   0.032998400     0.1620069   -0.4072524    -0.2369810   -0.7646802    -0.2687844   -0.7109701     0.3145512    0.3094731 
   0.034998300     0.1412292   -0.3848184    -0.4177440   -0.6695085    -0.4084728   -0.6629538     0.3390425    0.1415459 
   0.036998200     0.1334529   -0.3469750    -0.5585837   -0.5802441    -0.5467023   -0.5790533     0.3308844    0.0034502 
   0.038998100     0.1362434   -0.3147274    -0.6752466   -0.4592983    -0.6647145   -0.4639924     0.2745243   -0.1148681 
   0.040998000     0.1461985   -0.2910989    -0.7606672   -0.3150187    -0.7546970   -0.3235366     0.1824687   -0.1986553 
   0.042997900     0.1592982   -0.2772659    -0.8116301   -0.1577458    -0.8103764   -0.1665522     0.0720788   -0.2387756 
   0.044997800     0.1692084   -0.2604309    -0.8593114   -0.0379367    -0.8314309    0.0077433    -0.0352336   -0.2505341 
   0.046997700     0.1796787   -0.2764963    -0.8087205    0.1615393    -0.8135743    0.1590719    -0.1367155   -0.1920508 
   0.048997600     0.1827388   -0.2847717    -0.7619202    0.3086240    -0.7657389    0.3097021    -0.2074030   -0.1207081 
   0.050997500     0.1795004   -0.2953418    -0.6906040    0.4408592    -0.6914541    0.4444704    -0.2461247   -0.0332355 
   0.052997400     0.1703672   -0.3057337    -0.5984176    0.5555755    -0.5966679    0.5585320    -0.2514538    0.0583945 
   0.054997300     0.1562404   -0.3139550    -0.4870968    0.6530186    -0.4871764    0.6510857    -0.2258054    0.1427365 
   0.056997200     0.1382441   -0.3190633    -0.3680823    0.7265881    -0.3626640    0.7243725    -0.1753682    0.2109064 
   0.058997100     0.1187356   -0.3195139    -0.2371573    0.7798558    -0.2317649    0.7743400    -0.1064630    0.2572886 
   0.060997000     0.0990650   -0.3152929    -0.0990459    0.8105958    -0.0963899    0.8022961    -0.0277533    0.2779732 
   0.062996900     0.0807249   -0.3067433     0.0427207    0.8178722     0.0412465    0.8084723     0.0526919    0.2719533 
   0.064996800     0.0656705   -0.2945864     0.1843170    0.8014474     0.1780576    0.7922876     0.1259617    0.2409581 
   0.066996700     0.0546890   -0.2800749     0.3218145    0.7605036     0.3117073    0.7537297     0.1850418    0.1888814 
   0.068996600     0.0483134   -0.2646903     0.4508966    0.6955847     0.4382949    0.6929675     0.2246345    0.1209385 
   0.070996500     0.0466100   -0.2502475     0.5678805    0.6086971     0.5543213    0.6106225     0.2407014    0.0449009 
   0.072996400     0.0488244   -0.2377903     0.6677303    0.5015531     0.6548444    0.5080277     0.2321592   -0.0315657 
   0.074996300     0.0540201   -0.2287490     0.7464156    0.3777305     0.7363814    0.3875382     0.2004539   -0.1010992 
   0.076996200     0.0605592   -0.2238013     0.8012559    0.2418380     0.7950544    0.2534254     0.1492056   -0.1560040 
   0.078996100     0.0669677   -0.2231107     0.8306015    0.0983006     0.8283238    0.1103066     0.0839865   -0.1916707 
   0.080996000     0.0715948   -0.2263049     0.8343297   -0.0472142     0.8342460   -0.0359817     0.0121420   -0.2046398 
   0.082995900     0.0731600   -0.2323839     0.8117356   -0.1899909     0.8136745   -0.1805793    -0.0590165   -0.1943870 
   0.084995800     0.0711548   -0.2397106     0.7646735   -0.3247118     0.7673236   -0.3171860    -0.1217288   -0.1629244 
   0.086995700     0.0651973   -0.2474913     0.6963812   -0.4487552     0.6988281   -0.4420960    -0.1705146   -0.1144122 
   0.088995600     0.0554620   -0.2540873     0.6093056   -0.5587229     0.6111330   -0.5511538    -0.2009825   -0.0545684 
   0.090995500     0.0425534   -0.2583109     0.5058372   -0.6515759     0.5076408   -0.6430099    -0.2113981    0.0099437 
   0.092995400     0.0271366   -0.2598217     0.3896899   -0.7258700     0.3925934   -0.7159466    -0.2016518    0.0729232 
   0.094995300     0.0108226   -0.2569581     0.2632329   -0.7793758     0.2678289   -0.7689059    -0.1742098    0.1284506 
   0.096995200    -0.0051550   -0.2501504     0.1305209   -0.8122126     0.1376918   -0.8010539    -0.1322997    0.1716784 
   0.098995100    -0.0197273   -0.2396564    -0.0055880   -0.8227310     0.0046991   -0.8126135    -0.0805396    0.1995738 
   0.100995000    -0.0337612   -0.2259253    -0.1434485   -0.8109909    -0.1299436   -0.8035571    -0.0221458    0.2106306 
   0.102994900    -0.0424790   -0.2098337    -0.2762788   -0.7769154    -0.2604340   -0.7729390     0.0327249    0.2032897 
   0.104994800    -0.0473828   -0.1925155    -0.4020677   -0.7212244    -0.3850951   -0.7215288     0.0811234    0.1799586 
   0.106994700    -0.0481955   -0.1751590    -0.5173122   -0.6449976    -0.5011538   -0.6500516     0.1188910    0.1439732 
   0.108994600    -0.0453551   -0.1588790    -0.6188155   -0.5504301    -0.6048685   -0.5596454     0.1425486    0.0996322 
   0.110994500    -0.0393580   -0.1447759    -0.7035382   -0.4397196    -0.6925578   -0.4520935     0.1504762    0.0516677 
   0.112994400    -0.0309598   -0.1333704    -0.7685468   -0.3158242    -0.7610474   -0.3299583     0.1427454    0.0052811 
   0.114994300    -0.0211673   -0.1253811    -0.8116816   -0.1822675    -0.8076382   -0.1969769     0.1210458   -0.0344875 
   0.116994200    -0.0110950   -0.1206656    -0.8312020   -0.0430891    -0.8305005   -0.0571653     0.0882974   -0.0635348 
   0.118994100    -0.0016538   -0.1189029    -0.8265671    0.0974462    -0.8285213    0.0845091     0.0488065   -0.0792258 
   0.120994000     0.0066060   -0.1195877    -0.7986187    0.2349010    -0.8019373    0.2233412     0.0075062   -0.0800431 
   0.122993900     0.0128252   -0.1219315    -0.7473364    0.3653549    -0.7517281    0.3551138    -0.0307588   -0.0663668 
   0.124993800     0.0170237   -0.1251913    -0.6751148    0.4849754    -0.6801072    0.4757948    -0.0610815   -0.0403504 
   0.126993700     0.0192718   -0.1286490    -0.5838575    0.5904730    -0.5898337    0.5813599    -0.0797431   -0.0058891 
   0.128993600     0.0198906   -0.1315492    -0.4764481    0.6783654    -0.4835545    0.6697460    -0.0848877    0.0328900 
   0.130993500     0.0194766   -0.1337675    -0.3562770    0.7475196    -0.3650326    0.7391194    -0.0759306    0.0711472 
   0.132993400     0.0184774   -0.1349847    -0.2266883    0.7955278    -0.2376116    0.7879779    -0.0539983    0.1041702 
   0.134993300     0.0174365   -0.1353116    -0.0912609    0.8214111    -0.1043528    0.8156714    -0.0215759    0.1280910 
   0.136993200     0.0168364   -0.1349907     0.0464389    0.8243657     0.0314486    0.8211165     0.0179950    0.1399556 
   0.138993100     0.0168775   -0.1344521     0.1827364    0.8046958     0.1664999    0.8046961     0.0600340    0.1381131 
   0.140993000     0.0176545   -0.1341520     0.3136003    0.7624665     0.2971773    0.7662821     0.1002537    0.1224986 
   0.142992900     0.0189745   -0.1345152     0.4355248    0.6991203     0.4203573    0.7068579     0.1341003    0.0941696 
   0.144992800     0.0206432   -0.1360641     0.5454772    0.6166788     0.5322864    0.6278575     0.1579546    0.0556788 
   0.146992700     0.0219682   -0.1387453     0.6394893    0.5166436     0.6293266    0.5303734     0.1692099    0.0109342 
   0.148992600     0.0225952   -0.1427532     0.7153608    0.4027797     0.7089194    0.4176812     0.1663420   -0.0359412 
   0.150992500     0.0218969   -0.1476287     0.7707275    0.2780413     0.7674878    0.2930932     0.1493615   -0.0807097 
   0.152992400     0.0193833   -0.1532419     0.8045580    0.1459847     0.8043133    0.1603993     0.1193174   -0.1188078 
   0.154992300     0.0148529   -0.1589109     0.8158377    0.0109031     0.8177226    0.0243380     0.0787619   -0.1468321 
   0.156992200     0.0081983   -0.1639799     0.8045684   -0.1237730     0.8080681   -0.1117685     0.0314990   -0.1618430 
   0.158992100    -0.0004530   -0.1680016     0.7713493   -0.2537662     0.7758769   -0.2430694    -0.0185011   -0.1623306 
   0.160992000    -0.0106865   -0.1699682     0.7174013   -0.3761942     0.7228379   -0.3660185    -0.0664006   -0.1483176 
   0.162991900    -0.0219948   -0.1695630     0.6446740   -0.4874659     0.6510380   -0.4778466    -0.1081026   -0.1212015 
   0.164991800    -0.0338024   -0.1663896     0.5553837   -0.5851858     0.5625830   -0.5760190    -0.1401001   -0.0833685 
   0.166991700    -0.0452943   -0.1604564     0.4520201   -0.6666685     0.4607547   -0.6578701    -0.1596713   -0.0386356 
   0.168991600    -0.0556141   -0.1519781     0.3370049   -0.7304947     0.3477092   -0.7225671    -0.1656594    0.0091380 
   0.170991500    -0.0642553   -0.1412634     0.2136759   -0.7749074     0.2262839   -0.7685828    -0.1578460    0.0559528 
   0.172991400    -0.0704021   -0.1285129     0.0848602   -0.7992866     0.0991759   -0.7950245    -0.1376822    0.0976838 
   0.174991300    -0.0737448   -0.1148444    -0.0461684   -0.8026593    -0.0305393   -0.8013096    -0.1073433    0.1311359 
   0.176991200    -0.0741689   -0.1006832    -0.1766846   -0.7848023    -0.1602926   -0.7867602    -0.0697085    0.1538391 
   0.178991100    -0.0717338   -0.0870848    -0.3026721   -0.7462393    -0.2869784   -0.7519331    -0.0286461    0.1645964 
   0.180991000    -0.0666719   -0.0746996    -0.4213355   -0.6879289    -0.4069204   -0.6965231     0.0122678    0.1632887 
   0.182990900    -0.0593403   -0.0640284    -0.5289375   -0.6101391    -0.5166860   -0.6219929     0.0492986    0.1506967 
   0.184990800    -0.0504007   -0.0555963    -0.6227627   -0.5153396    -0.6137872   -0.5293283     0.0798741    0.1288890 
   0.186990700    -0.0405431   -0.0495955    -0.6998971   -0.4065133    -0.6941967   -0.4210170     0.1012495    0.1006406 
   0.188990600    -0.0297205   -0.0468613    -0.7482977   -0.3083024    -0.7472000   -0.3193825     0.1101769    0.0723245 
   0.190990500    -0.0208034   -0.0450434    -0.7938379   -0.1597128    -0.7945173   -0.1740344     0.1133913    0.0384491 
   0.192990400    -0.0123169   -0.0457174    -0.8096050   -0.0227156    -0.8128421   -0.0365602     0.1053414    0.0101122 
   0.194990300    -0.0050988   -0.0478249    -0.8022379    0.1114882    -0.8072184    0.0989860     0.0896797   -0.0118626 
   0.196990200     0.0005503   -0.0508099    -0.7724799    0.2425898    -0.7789711    0.2308457     0.0691688   -0.0259495 
   0.198990100     0.0046328   -0.0540724    -0.7213590    0.3665403    -0.7293782    0.3559452     0.0468178   -0.0314208 
   0.200990000     0.0074080   -0.0571898    -0.6503691    0.4803825    -0.6598027    0.4707574     0.0256334   -0.0285198 
   0.202989900     0.0091098   -0.0597212    -0.5618894    0.5806099    -0.5724807    0.5723969     0.0084324   -0.0185631 
   0.204989800     0.0101888   -0.0613732    -0.4582674    0.6647303    -0.4700193    0.6580287    -0.0026590   -0.0035401 
   0.206989700     0.0110875   -0.0621811    -0.3424893    0.7307379    -0.3554688    0.7257009    -0.0063805    0.0139569 
   0.208989600     0.0122510   -0.0621349    -0.2173855    0.7765681    -0.2319588    0.7735072    -0.0025943    0.0311527 
   0.210989500     0.0140028   -0.0615622    -0.0867525    0.8014829    -0.1017650    0.8009908     0.0080404    0.0454287 
   0.212989400     0.0166019   -0.0607641     0.0461754    0.8043706     0.0316959    0.8067633     0.0240861    0.0544417 
   0.214989300     0.0201786   -0.0601176     0.1778077    0.7854941     0.1644302    0.7905202     0.0431659    0.0567419 
   0.216989200     0.0246565   -0.0600713     0.3046158    0.7451451     0.2923110    0.7526562     0.0626912    0.0515516 
   0.218989100     0.0298419   -0.0609993     0.4228854    0.6844882     0.4124093    0.6943081     0.0800579    0.0390318 
   0.220989000     0.0354392   -0.0632285     0.5297047    0.6048946     0.5212452    0.6161768     0.0928631    0.0201958 
   0.222988900     0.0410454   -0.0669469     0.6216934    0.5089346     0.6160347    0.5204980     0.0989914   -0.0030152 
   0.224988800     0.0462343   -0.0721538     0.6967115    0.3989355     0.6930416    0.4103706     0.0970913   -0.0280989 
   0.226988700     0.0505604   -0.0787979     0.7521642    0.2780321     0.7503746    0.2895170     0.0868291   -0.0524891 
   0.228988600     0.0536433   -0.0866220     0.7864763    0.1500348     0.7861536    0.1614010     0.0687166   -0.0732535 
   0.230988500     0.0551507   -0.0953241     0.7992409    0.0182733     0.7998770    0.0297340     0.0440227   -0.0880221 
   0.232988400     0.0547652   -0.1044311     0.7894660   -0.1134086     0.7919858   -0.1018853     0.0150014   -0.0946285 
   0.234988300     0.0525194   -0.1136673     0.7587021   -0.2413590     0.7625345   -0.2300100    -0.0154780   -0.0920183 
   0.236988200     0.0484034   -0.1224736     0.7070724   -0.3621483     0.7127234   -0.3511489    -0.0444078   -0.0800494 
   0.238988100     0.0426303   -0.1303850     0.6367941   -0.4722708     0.6442439   -0.4617592    -0.0689750   -0.0595537 
   0.240988000     0.0354640   -0.1371432     0.5497059   -0.5688930     0.5593243   -0.5594319    -0.0866722   -0.0323133 
   0.242987900     0.0272554   -0.1424456     0.4481982   -0.6497643     0.4607363   -0.6416138    -0.0956181   -0.0004590 
   0.244987800     0.0183446   -0.1459775     0.3352080   -0.7128296     0.3504204   -0.7068793    -0.0948248    0.0330867 
   0.246987700     0.0090509   -0.1477702     0.2140461   -0.7566516     0.2308939   -0.7538304    -0.0842015    0.0651348 
   0.248987600    -0.0002686   -0.1480186     0.0881211   -0.7801716     0.1045871   -0.7811653    -0.0646619    0.0929414 
   0.250987500    -0.0091733   -0.1466295    -0.0405229   -0.7827802    -0.0244363   -0.7876079    -0.0377126    0.1140386 
   0.252987400    -0.0172244   -0.1438615    -0.1672167   -0.7648056    -0.1528181   -0.7731311    -0.0057886    0.1265981 
   0.254987300    -0.0242470   -0.1400366    -0.2892648   -0.7266775    -0.2767093   -0.7379315     0.0281535    0.1294668 
   0.256987200    -0.0301803   -0.1354424    -0.4031343   -0.6693855    -0.3936224   -0.6827687     0.0613966    0.1226171 
   0.258987100    -0.0350971   -0.1304232    -0.5064964   -0.5945460    -0.4998725   -0.6091449     0.0912700    0.1067026 
   0.260987000    -0.0388926   -0.1249367    -0.5961648   -0.5036655    -0.5928602   -0.5186217     0.1149047    0.0833142 
   0.262986900    -0.0417169   -0.1194802    -0.6700340   -0.3994775    -0.6696396   -0.4137137     0.1306316    0.0546326 
   0.264986800    -0.0436590   -0.1141937    -0.7261079   -0.2846971    -0.7279070   -0.2973882     0.1374549    0.0231602 
   0.266986700    -0.0448533   -0.1091780    -0.7625439   -0.1619208    -0.7660456   -0.1733248     0.1349591   -0.0080900 
   0.268986600    -0.0453963   -0.1045717    -0.7784121   -0.0352071    -0.7830929   -0.0450881     0.1237379   -0.0363486 
   0.270986500    -0.0455403   -0.1004330    -0.7732623    0.0924598    -0.7789590    0.0834220     0.1053200   -0.0592964 
   0.272986400    -0.0453214   -0.0966428    -0.7475631    0.2176303    -0.7538211    0.2088873     0.0817429   -0.0749645 
   0.274986300    -0.0448185   -0.0931123    -0.7014266    0.3371176    -0.7088759    0.3285905     0.0556573   -0.0823147 
   0.276986200    -0.0440847   -0.0897631    -0.6364579    0.4471976    -0.6454874    0.4395210     0.0298810   -0.0810285 
   0.278986100    -0.0431230   -0.0865342    -0.5542182    0.5450625    -0.5645594    0.5385594     0.0071880   -0.0719446 
   0.280986000    -0.0419364   -0.0833571    -0.4570259    0.6285062    -0.4684705    0.6236655    -0.0101303   -0.0566355 
   0.282985900    -0.0404546   -0.0804380    -0.3475108    0.6945702    -0.3594068    0.6918849    -0.0204192   -0.0373179 
   0.284985800    -0.0384989   -0.0776891    -0.2287714    0.7417167    -0.2404250    0.7412069    -0.0228933   -0.0166351 
   0.286985700    -0.0360882   -0.0752927    -0.1036154    0.7686511    -0.1151636    0.7705048    -0.0176572    0.0025477 
   0.288985600    -0.0331627   -0.0734732     0.0243137    0.7748000     0.0126246    0.7789462    -0.0056459    0.0178981 
   0.290985500    -0.0297744   -0.0723090     0.1514036    0.7595745     0.1402532    0.7658054     0.0112672    0.0271800 
   0.292985400    -0.0259969   -0.0719859     0.2741626    0.7235987     0.2641876    0.7315866     0.0306797    0.0289986 
   0.294985300    -0.0220207   -0.0726646     0.3890982    0.6676655     0.3805248    0.6772305     0.0498752    0.0228759 
   0.296985200    -0.0181196   -0.0743957     0.4933704    0.5935116     0.4868316    0.6039274     0.0660745    0.0092227 
   0.298985100    -0.0146015   -0.0773290     0.5834868    0.5030946     0.5791352    0.5131609     0.0766008   -0.0106884 
   0.300985000    -0.0117522   -0.0814326     0.6572723    0.3987629     0.6547694    0.4083712     0.0793725   -0.0346056 
   0.302984900    -0.0099220   -0.0866079     0.7123547    0.2835229     0.7110142    0.2932048     0.0731389   -0.0595441 
   0.304984800    -0.0094322   -0.0927080     0.7473165    0.1611256     0.7472217    0.1709094     0.0578808   -0.0822931 
   0.306984700    -0.0105895   -0.0995288     0.7609279    0.0353132     0.7619037    0.0451898     0.0345091   -0.0997286 
   0.308984600    -0.0135187   -0.1065885     0.7532001   -0.0903837     0.7558643   -0.0799252     0.0049032   -0.1090254 
   0.310984500    -0.0181817   -0.1132145     0.7245080   -0.2120662     0.7291911   -0.2013821    -0.0278612   -0.1082457 
   0.312984400    -0.0246989   -0.1190488     0.6763726   -0.3264118     0.6834452   -0.3156967    -0.0601334   -0.0961567 
   0.314984300    -0.0328826   -0.1236259     0.6103790   -0.4299776     0.6198689   -0.4204685    -0.0879606   -0.0731051 
