! MS46122B
! 2250307/22442219
! 7/31/2025 8:28:10 AM
! C:\USERS\SPARKY\DOCUMENTS\VNA_DATA\JULY31_2025\295K\PORT2.S2P
! CHANNEL.1
! TR.MEASUREMENT
! RAW.DATA
# GHZ S RI R 50.0
! FREQ.GHZ         S11RE         S11IM         S21RE         S21IM         S12RE         S12IM         S22RE         S22IM         
!; PortSelection: Port_12
   0.001000000     1.0437620   -0.0697739    -0.0000019    0.0000053     0.0000157    0.0000269     0.8138397   -0.5559994 
   0.002999900     0.9514862   -0.1918277    -0.0000014    0.0000007     0.0000006    0.0000109     0.0284918   -0.8771198 
   0.004999800     0.8761418   -0.2751829    -0.0000009   -0.0000007    -0.0000073    0.0000227    -0.7537569   -0.4288202 
   0.006999700     0.7907904   -0.3641541    -0.0000020    0.0000005     0.0000077    0.0000086    -0.8095322    0.4860828 
   0.008999600     0.6998456   -0.4013287    -0.0000001   -0.0000009    -0.0000003    0.0000025    -0.1137135    0.9870091 
   0.010999500     0.6242726   -0.4257694    -0.0000003    0.0000047    -0.0000031   -0.0000024     0.5757462    0.8014367 
   0.012999400     0.5593052   -0.4401760    -0.0000044    0.0000040    -0.0000047    0.0000005     0.8999979    0.3384129 
   0.014999300     0.5041009   -0.4474243    -0.0000012    0.0000017    -0.0000018    0.0000006     0.9346786   -0.1138128 
   0.016999200     0.4562220   -0.4492006     0.0000013    0.0000009    -0.0000025    0.0000029     0.8056620   -0.4676129 
   0.018999100     0.4160812   -0.4470875     0.0000009    0.0000034     0.0000010    0.0000017     0.5946924   -0.7134940 
   0.020999000     0.3824538   -0.4427255     0.0000014   -0.0000002    -0.0000003    0.0000010     0.3504861   -0.8617408 
   0.022998900     0.3534206   -0.4369547     0.0000010    0.0000016    -0.0000010    0.0000005     0.1008425   -0.9267821 
   0.024998800     0.3230585   -0.4092031     0.0000033    0.0000023     0.0000025   -0.0000006    -0.1267110   -0.9947863 
   0.026998700     0.3055776   -0.4231562     0.0000015    0.0000012     0.0000017   -0.0000025    -0.3497196   -0.8651181 
   0.028998600     0.2852631   -0.4153730     0.0000036    0.0000009     0.0000027    0.0000026    -0.5311306   -0.7637000 
   0.030998500     0.2665653   -0.4072960     0.0000011   -0.0000023     0.0000022   -0.0000041    -0.6773241   -0.6314805 
   0.032998400     0.2457319   -0.3813421     0.0000044   -0.0000005     0.0000020   -0.0000038    -0.8343056   -0.5272206 
   0.034998300     0.2320275   -0.3905903     0.0000022   -0.0000030    -0.0000002   -0.0000031    -0.8591657   -0.3138966 
   0.036998200     0.2164704   -0.3820859     0.0000036   -0.0000035     0.0000015   -0.0000078    -0.8976277   -0.1447928 
   0.038998100     0.2017963   -0.3736855     0.0000007   -0.0000002    -0.0000026   -0.0000038    -0.9045074    0.0224133 
   0.040998000     0.1879038   -0.3652584     0.0000007   -0.0000031     0.0000006   -0.0000033    -0.8819531    0.1832676 
   0.042997900     0.1748236   -0.3569019     0.0000014   -0.0000032     0.0000028   -0.0000046    -0.8334376    0.3341779 
   0.044997800     0.1612564   -0.3343399     0.0000007   -0.0000006    -0.0000019   -0.0000035    -0.8281178    0.4973342 
   0.046997700     0.1494903   -0.3406188    -0.0000033   -0.0000050    -0.0000019   -0.0000031    -0.6701941    0.5947335 
   0.048997600     0.1384281   -0.3325740    -0.0000028   -0.0000039    -0.0000024   -0.0000047    -0.5610077    0.6986328 
   0.050997500     0.1281448   -0.3245972    -0.0000036   -0.0000015    -0.0000044   -0.0000044    -0.4362718    0.7826093 
   0.052997400     0.1187447   -0.3167934     0.0000038   -0.0000064    -0.0000095   -0.0000032    -0.3008879    0.8441805 
   0.054997300     0.1100888   -0.3091536    -0.0000009   -0.0000003    -0.0000025   -0.0000063    -0.1552915    0.8828686 
   0.056997200     0.1017418   -0.3021490    -0.0000068    0.0000003    -0.0000049    0.0000003    -0.0088048    0.8960663 
   0.058997100     0.0944140   -0.2953725     0.0000034   -0.0000014    -0.0000055   -0.0000009     0.1396524    0.8843257 
   0.060997000     0.0875064   -0.2890067    -0.0000057    0.0000025    -0.0000067    0.0000001     0.2850469    0.8474711 
   0.062996900     0.0814315   -0.2830087    -0.0000060   -0.0000028    -0.0000058   -0.0000006     0.4223321    0.7868468 
   0.064996800     0.0758852   -0.2773681    -0.0000052    0.0000034    -0.0000048    0.0000014     0.5482147    0.7030445 
   0.066996700     0.0707886   -0.2720698    -0.0000055    0.0000013    -0.0000027    0.0000024     0.6587389    0.5986610 
   0.068996600     0.0660159   -0.2670971    -0.0000073    0.0000037    -0.0000041    0.0000019     0.7509913    0.4751010 
   0.070996500     0.0616116   -0.2626671    -0.0000038    0.0000055    -0.0000038    0.0000031     0.8209991    0.3369190 
   0.072996400     0.0573442   -0.2582514    -0.0000026    0.0000052    -0.0000013    0.0000040     0.8664277    0.1873499 
   0.074996300     0.0532568   -0.2540488    -0.0000040    0.0000070    -0.0000007    0.0000056     0.8850964    0.0309480 
   0.076996200     0.0492756   -0.2499830    -0.0000018    0.0000068     0.0000010    0.0000063     0.8752806   -0.1285179 
   0.078996100     0.0452960   -0.2460716    -0.0000020    0.0000029    -0.0000003    0.0000066     0.8374012   -0.2846937 
   0.080996000     0.0412256   -0.2422937    -0.0000012    0.0000075     0.0000027    0.0000060     0.7708955   -0.4320869 
   0.082995900     0.0370606   -0.2385258     0.0000021    0.0000050     0.0000018    0.0000049     0.6782612   -0.5656301 
   0.084995800     0.0330595   -0.2345130     0.0000039    0.0000076     0.0000059    0.0000076     0.5613826   -0.6807432 
   0.086995700     0.0287277   -0.2305296     0.0000061    0.0000049     0.0000063    0.0000051     0.4255293   -0.7726780 
   0.088995600     0.0245554   -0.2265078     0.0000065    0.0000053     0.0000064    0.0000076     0.2743129   -0.8373692 
   0.090995500     0.0204428   -0.2224386     0.0000072    0.0000008     0.0000067    0.0000047     0.1138886   -0.8729170 
   0.092995400     0.0164209   -0.2183902     0.0000082    0.0000060     0.0000044    0.0000043    -0.0503341   -0.8781561 
   0.094995300     0.0124501   -0.2139599     0.0000079    0.0000007     0.0000105    0.0000018    -0.2121764   -0.8534493 
   0.096995200     0.0086219   -0.2093247     0.0000069    0.0000012     0.0000090   -0.0000008    -0.3660837   -0.7990728 
   0.098995100     0.0049823   -0.2045073     0.0000068   -0.0000037     0.0000102   -0.0000005    -0.5070095   -0.7180676 
   0.100995000     0.0000413   -0.2002402     0.0000094   -0.0000033     0.0000094   -0.0000043    -0.6314518   -0.6128818 
   0.102994900    -0.0032551   -0.1949599     0.0000095   -0.0000059     0.0000090   -0.0000052    -0.7324488   -0.4884212 
   0.104994800    -0.0060496   -0.1895719     0.0000071   -0.0000070     0.0000075   -0.0000058    -0.8088263   -0.3489082 
   0.106994700    -0.0084645   -0.1839026     0.0000064   -0.0000086     0.0000067   -0.0000080    -0.8586465   -0.1989128 
   0.108994600    -0.0104326   -0.1783205     0.0000053   -0.0000081     0.0000061   -0.0000071    -0.8808351   -0.0439176 
   0.110994500    -0.0119402   -0.1727078     0.0000040   -0.0000099     0.0000028   -0.0000091    -0.8757677    0.1111844 
   0.112994400    -0.0129856   -0.1671407     0.0000036   -0.0000103     0.0000036   -0.0000092    -0.8438621    0.2616589 
   0.114994300    -0.0135247   -0.1616540     0.0000010   -0.0000110     0.0000017   -0.0000095    -0.7870553    0.4033207 
   0.116994200    -0.0135805   -0.1563134    -0.0000010   -0.0000119     0.0000000   -0.0000108    -0.7070822    0.5318490 
   0.118994100    -0.0131565   -0.1511838    -0.0000029   -0.0000110    -0.0000006   -0.0000094    -0.6073337    0.6441131 
   0.120994000    -0.0121973   -0.1461196    -0.0000048   -0.0000106    -0.0000031   -0.0000096    -0.4907403    0.7368823 
   0.122993900    -0.0109335   -0.1416528    -0.0000067   -0.0000111    -0.0000043   -0.0000086    -0.3609523    0.8086367 
   0.124993800    -0.0092535   -0.1375893    -0.0000084   -0.0000096    -0.0000060   -0.0000078    -0.2216801    0.8576155 
   0.126993700    -0.0073063   -0.1339999    -0.0000106   -0.0000077    -0.0000082   -0.0000079    -0.0769043    0.8824363 
   0.128993600    -0.0051386   -0.1307681    -0.0000107   -0.0000069    -0.0000091   -0.0000064     0.0693899    0.8829749 
   0.130993500    -0.0027617   -0.1282424    -0.0000113   -0.0000054    -0.0000095   -0.0000042     0.2137254    0.8591514 
   0.132993400    -0.0002966   -0.1262700    -0.0000117   -0.0000024    -0.0000094   -0.0000027     0.3520056    0.8119513 
   0.134993300     0.0021389   -0.1248613    -0.0000144   -0.0000007    -0.0000111   -0.0000004     0.4802980    0.7425718 
   0.136993200     0.0044848   -0.1240077    -0.0000126    0.0000010    -0.0000120    0.0000011     0.5954906    0.6527587 
   0.138993100     0.0066488   -0.1236983    -0.0000127    0.0000033    -0.0000110    0.0000022     0.6942641    0.5446615 
   0.140993000     0.0085500   -0.1238791    -0.0000115    0.0000064    -0.0000094    0.0000050     0.7741101    0.4212527 
   0.142992900     0.0100736   -0.1245209    -0.0000110    0.0000068    -0.0000106    0.0000062     0.8322856    0.2861364 
   0.144992800     0.0112524   -0.1256519    -0.0000091    0.0000095    -0.0000082    0.0000078     0.8663705    0.1423443 
   0.146992700     0.0119093   -0.1269753    -0.0000081    0.0000126    -0.0000059    0.0000106     0.8761985   -0.0054065 
   0.148992600     0.0120244   -0.1285571    -0.0000073    0.0000131    -0.0000049    0.0000111     0.8608086   -0.1535281 
   0.150992500     0.0115744   -0.1301597    -0.0000049    0.0000143    -0.0000035    0.0000131     0.8206473   -0.2974592 
   0.152992400     0.0105613   -0.1319099    -0.0000014    0.0000134    -0.0000006    0.0000128     0.7558115   -0.4327597 
   0.154992300     0.0089485   -0.1335884     0.0000014    0.0000133     0.0000027    0.0000144     0.6681212   -0.5551251 
   0.156992200     0.0067662   -0.1351369     0.0000044    0.0000133     0.0000025    0.0000134     0.5600820   -0.6610494 
   0.158992100     0.0040811   -0.1364121     0.0000063    0.0000127     0.0000077    0.0000133     0.4350353   -0.7466865 
   0.160992000     0.0008995   -0.1373153     0.0000093    0.0000120     0.0000090    0.0000126     0.2965252   -0.8093147 
   0.162991900    -0.0026956   -0.1377901     0.0000098    0.0000098     0.0000111    0.0000114     0.1488581   -0.8466374 
   0.164991800    -0.0066771   -0.1377400     0.0000106    0.0000073     0.0000113    0.0000080    -0.0033272   -0.8575522 
   0.166991700    -0.0108675   -0.1371251     0.0000131    0.0000077     0.0000130    0.0000065    -0.1546599   -0.8415683 
   0.168991600    -0.0152291   -0.1358655     0.0000134    0.0000037     0.0000148    0.0000037    -0.3010571   -0.7989646 
   0.170991500    -0.0196982   -0.1339418     0.0000141    0.0000008     0.0000152    0.0000003    -0.4374682   -0.7313255 
   0.172991400    -0.0240881   -0.1313188     0.0000143   -0.0000011     0.0000145   -0.0000001    -0.5594657   -0.6409458 
   0.174991300    -0.0283177   -0.1280326     0.0000154   -0.0000030     0.0000153   -0.0000033    -0.6633862   -0.5309784 
   0.176991200    -0.0322482   -0.1240745     0.0000143   -0.0000041     0.0000149   -0.0000037    -0.7460042   -0.4051105 
   0.178991100    -0.0357863   -0.1194657     0.0000121   -0.0000078     0.0000136   -0.0000061    -0.8053416   -0.2670065 
   0.180991000    -0.0388494   -0.1143507     0.0000110   -0.0000098     0.0000139   -0.0000080    -0.8393031   -0.1214811 
   0.182990900    -0.0413092   -0.1086289     0.0000107   -0.0000118     0.0000129   -0.0000111    -0.8478825    0.0268742 
   0.184990800    -0.0430415   -0.1024875     0.0000091   -0.0000141     0.0000106   -0.0000114    -0.8306277    0.1736156 
   0.186990700    -0.0439856   -0.0960376     0.0000064   -0.0000138     0.0000093   -0.0000172    -0.7887460    0.3146322 
   0.188990600    -0.0421318   -0.0904089     0.0000048   -0.0000161     0.0000070   -0.0000169    -0.7372726    0.4260898 
   0.190990500    -0.0430729   -0.0827484     0.0000010   -0.0000168     0.0000034   -0.0000179    -0.6406892    0.5612608 
   0.192990400    -0.0416074   -0.0759199    -0.0000013   -0.0000179     0.0000011   -0.0000181    -0.5346822    0.6642587 
   0.194990300    -0.0389780   -0.0694284    -0.0000047   -0.0000179    -0.0000010   -0.0000178    -0.4159038    0.7460847 
   0.196990200    -0.0354642   -0.0633115    -0.0000070   -0.0000152    -0.0000043   -0.0000172    -0.2857161    0.8067232 
   0.198990100    -0.0310852   -0.0576585    -0.0000105   -0.0000155    -0.0000085   -0.0000159    -0.1478498    0.8446378 
   0.200990000    -0.0259288   -0.0526076    -0.0000128   -0.0000127    -0.0000091   -0.0000151    -0.0060463    0.8591700 
   0.202989900    -0.0200644   -0.0483268    -0.0000137   -0.0000109    -0.0000108   -0.0000123     0.1359990    0.8499997 
   0.204989800    -0.0136197   -0.0448756    -0.0000172   -0.0000083    -0.0000136   -0.0000098     0.2746423    0.8176187 
   0.206989700    -0.0066856   -0.0423803    -0.0000190   -0.0000054    -0.0000150   -0.0000084     0.4060270    0.7629839 
   0.208989600     0.0006243   -0.0408948    -0.0000186   -0.0000029    -0.0000162   -0.0000050     0.5265852    0.6873711 
   0.210989500     0.0080985   -0.0405454    -0.0000202   -0.0000008    -0.0000157   -0.0000021     0.6331026    0.5927196 
   0.212989400     0.0156913   -0.0412668    -0.0000190    0.0000037    -0.0000153    0.0000009     0.7228573    0.4813347 
   0.214989300     0.0231059   -0.0431793    -0.0000185    0.0000068    -0.0000150    0.0000043     0.7930735    0.3564812 
   0.216989200     0.0302057   -0.0461896    -0.0000159    0.0000102    -0.0000135    0.0000067     0.8418126    0.2211963 
   0.218989100     0.0368337   -0.0502993    -0.0000167    0.0000115    -0.0000133    0.0000087     0.8672029    0.0792839 
   0.220989000     0.0428294   -0.0553793    -0.0000116    0.0000150    -0.0000114    0.0000115     0.8685299   -0.0658147 
   0.222988900     0.0480202   -0.0613512    -0.0000099    0.0000171    -0.0000083    0.0000126     0.8450352   -0.2096860 
   0.224988800     0.0522853   -0.0681726    -0.0000065    0.0000189    -0.0000048    0.0000147     0.7976221   -0.3482636 
   0.226988700     0.0555225   -0.0756054    -0.0000045    0.0000206    -0.0000028    0.0000136     0.7268330   -0.4770433 
   0.228988600     0.0576982   -0.0834844    -0.0000012    0.0000195    -0.0000008    0.0000155     0.6343252   -0.5924952 
   0.230988500     0.0586641   -0.0917093     0.0000029    0.0000193     0.0000029    0.0000160     0.5228872   -0.6907373 
   0.232988400     0.0583641   -0.0999660     0.0000047    0.0000192     0.0000072    0.0000164     0.3954184   -0.7684305 
   0.234988300     0.0568732   -0.1083204     0.0000093    0.0000174     0.0000081    0.0000147     0.2557919   -0.8230007 
   0.236988200     0.0541115   -0.1164700     0.0000112    0.0000162     0.0000126    0.0000129     0.1083259   -0.8522676 
   0.238988100     0.0502064   -0.1242070     0.0000165    0.0000143     0.0000151    0.0000114    -0.0423770   -0.8551406 
   0.240988000     0.0452465   -0.1313463     0.0000178    0.0000125     0.0000171    0.0000092    -0.1915613   -0.8313770 
   0.242987900     0.0393880   -0.1379185     0.0000191    0.0000082     0.0000188    0.0000070    -0.3342260   -0.7812532 
   0.244987800     0.0326066   -0.1436036     0.0000216    0.0000061     0.0000209    0.0000035    -0.4655953   -0.7068558 
   0.246987700     0.0249981   -0.1482084     0.0000211    0.0000025     0.0000213   -0.0000009    -0.5815800   -0.6101786 
   0.248987600     0.0167522   -0.1517829     0.0000216   -0.0000006     0.0000232   -0.0000033    -0.6785148   -0.4947145 
   0.250987500     0.0079218   -0.1542412     0.0000213   -0.0000042     0.0000227   -0.0000072    -0.7530484   -0.3640900 
   0.252987400    -0.0010559   -0.1555241     0.0000202   -0.0000079     0.0000220   -0.0000095    -0.8032283   -0.2231479 
   0.254987300    -0.0099577   -0.1555280     0.0000181   -0.0000127     0.0000220   -0.0000148    -0.8275709   -0.0760478 
   0.256987200    -0.0187232   -0.1543466     0.0000167   -0.0000146     0.0000214   -0.0000187    -0.8255459    0.0721627 
   0.258987100    -0.0272762   -0.1521970     0.0000150   -0.0000169     0.0000186   -0.0000211    -0.7976552    0.2172519 
   0.260987000    -0.0353766   -0.1487085     0.0000106   -0.0000203     0.0000162   -0.0000275    -0.7453499    0.3541880 
   0.262986900    -0.0429424   -0.1441184     0.0000070   -0.0000216     0.0000128   -0.0000291    -0.6705160    0.4792385 
   0.264986800    -0.0498697   -0.1386141     0.0000038   -0.0000228     0.0000075   -0.0000324    -0.5758054    0.5886396 
   0.266986700    -0.0560006   -0.1320688    -0.0000002   -0.0000235     0.0000012   -0.0000351    -0.4644396    0.6797109 
   0.268986600    -0.0608912   -0.1250430    -0.0000035   -0.0000234    -0.0000050   -0.0000339    -0.3397815    0.7501287 
   0.270986500    -0.0646073   -0.1176398    -0.0000070   -0.0000234    -0.0000108   -0.0000311    -0.2057812    0.7979286 
   0.272986400    -0.0671457   -0.1099298    -0.0000108   -0.0000215    -0.0000142   -0.0000266    -0.0663966    0.8225291 
   0.274986300    -0.0685201   -0.1020744    -0.0000145   -0.0000188    -0.0000166   -0.0000233     0.0742929    0.8231550 
   0.276986200    -0.0686934   -0.0942595    -0.0000173   -0.0000169    -0.0000185   -0.0000205     0.2128229    0.7995929 
   0.278986100    -0.0676997   -0.0866283    -0.0000207   -0.0000151    -0.0000205   -0.0000166     0.3450322    0.7541102 
   0.280986000    -0.0655873   -0.0794149    -0.0000216   -0.0000109    -0.0000203   -0.0000146     0.4675870    0.6876304 
   0.282985900    -0.0623847   -0.0725773    -0.0000252   -0.0000064    -0.0000212   -0.0000132     0.5769793    0.6018719 
   0.284985800    -0.0582710   -0.0667272    -0.0000261   -0.0000024    -0.0000226   -0.0000094     0.6709026    0.4992397 
   0.286985700    -0.0533542   -0.0618588    -0.0000263    0.0000002    -0.0000251   -0.0000064     0.7463392    0.3824499 
   0.288985600    -0.0476914   -0.0581349    -0.0000241    0.0000043    -0.0000236   -0.0000047     0.8017164    0.2546886 
   0.290985500    -0.0414790   -0.0555928    -0.0000239    0.0000097    -0.0000243   -0.0000008     0.8350071    0.1192712 
   0.292985400    -0.0351394   -0.0544340    -0.0000216    0.0000122    -0.0000240    0.0000026     0.8455843   -0.0204323 
   0.294985300    -0.0287511   -0.0545836    -0.0000202    0.0000169    -0.0000237    0.0000055     0.8325662   -0.1603253 
   0.296985200    -0.0226020   -0.0560133    -0.0000178    0.0000186    -0.0000232    0.0000098     0.7963104   -0.2965564 
   0.298985100    -0.0169118   -0.0586791    -0.0000130    0.0000221    -0.0000201    0.0000129     0.7374259   -0.4253950 
   0.300985000    -0.0119002   -0.0625676    -0.0000109    0.0000236    -0.0000172    0.0000151     0.6575006   -0.5428980 
   0.302984900    -0.0078225   -0.0675706    -0.0000059    0.0000252    -0.0000145    0.0000183     0.5583470   -0.6456658 
   0.304984800    -0.0048642   -0.0735826    -0.0000006    0.0000262    -0.0000098    0.0000203     0.4427273   -0.7307116 
   0.306984700    -0.0032411   -0.0803836     0.0000016    0.0000248    -0.0000062    0.0000210     0.3135304   -0.7949714 
   0.308984600    -0.0030663   -0.0877504     0.0000065    0.0000259    -0.0000019    0.0000227     0.1749182   -0.8364255 
   0.310984500    -0.0044765   -0.0954024     0.0000114    0.0000218     0.0000000    0.0000213     0.0303783   -0.8533425 
   0.312984400    -0.0077470   -0.1033129     0.0000153    0.0000201     0.0000059    0.0000205    -0.1154457   -0.8453222 
   0.314984300    -0.0127455   -0.1105297     0.0000172    0.0000179     0.0000100    0.0000201    -0.2582090   -0.8118638 
