! MS46122B
! 2250307/22442219
! 8/6/2025 7:55:19 AM
! C:\USERS\SPARKY\DOCUMENTS\VNA_DATA\AUGUST6_2025\SHORTS_3K.S2P
! CHANNEL.1
! TR.MEASUREMENT
! RAW.DATA
# GHZ S RI R 50.0
! FREQ.GHZ         S11RE         S11IM         S21RE         S21IM         S12RE         S12IM         S22RE         S22IM         
!; PortSelection: Port_12
   0.001000000     1.0448590   -0.0682476     0.0000036    0.0000022    -0.0000069    0.0000026     0.8206981   -0.5487524 
   0.002999900     0.9645973   -0.1908515    -0.0000008   -0.0000027     0.0000055    0.0000051     0.1983233   -0.8728206 
   0.004999800     0.9054659   -0.2954593     0.0000014   -0.0000016     0.0000020    0.0000028    -0.3323159   -0.8035930 
   0.006999700     0.8395318   -0.3931910    -0.0000047    0.0000004     0.0000001   -0.0000046    -0.6574588   -0.5938454 
   0.008999600     0.7638287   -0.4884056     0.0000015   -0.0000036     0.0000023    0.0000003    -0.8405368   -0.3519373 
   0.010999500     0.6750336   -0.5794250    -0.0000007   -0.0000008    -0.0000019    0.0000001    -0.9253269   -0.1144452 
   0.012999400     0.5686906   -0.6646029    -0.0000005    0.0000021    -0.0000002    0.0000003    -0.9411374    0.1045733 
   0.014999300     0.4396163   -0.7384388     0.0000010   -0.0000036     0.0000123   -0.0000048    -0.9069830    0.2994993 
   0.016999200     0.2821882   -0.7926083    -0.0000006    0.0000000    -0.0000023   -0.0000041    -0.8353568    0.4683304 
   0.018999100     0.0916658   -0.8136356     0.0000032   -0.0000020     0.0000019    0.0000008    -0.7359661    0.6103898 
   0.020999000    -0.1320052   -0.7763823    -0.0000002   -0.0000021    -0.0000003   -0.0000014    -0.6167876    0.7265131 
   0.022998900    -0.3712112   -0.6487882     0.0000018    0.0000006     0.0000013    0.0000024    -0.4830657    0.8163170 
   0.024998800    -0.5548164   -0.3962767     0.0000035    0.0000019    -0.0000009    0.0000005    -0.3798676    0.9456043 
   0.026998700    -0.6693848   -0.0326859     0.0000001   -0.0000013     0.0000004   -0.0000002    -0.1909495    0.9208032 
   0.028998600    -0.5628332    0.3657481    -0.0000023   -0.0000025    -0.0000018   -0.0000001    -0.0395560    0.9375147 
   0.030998500    -0.2722881    0.6597228     0.0000010    0.0000007    -0.0000010    0.0000027     0.1106855    0.9312406 
   0.032998400     0.0726098    0.7467905     0.0000014   -0.0000011    -0.0000004    0.0000011     0.2643180    0.9815404 
   0.034998300     0.4182545    0.7232923    -0.0000014   -0.0000030     0.0000012    0.0000004     0.3982751    0.8517479 
   0.036998200     0.6601658    0.5853534    -0.0000001   -0.0000012    -0.0000015   -0.0000015     0.5297636    0.7797028 
   0.038998100     0.8172744    0.4123177    -0.0000014   -0.0000008     0.0000004    0.0000009     0.6488473    0.6878021 
   0.040998000     0.9077638    0.2349801    -0.0000005   -0.0000004     0.0000007   -0.0000021     0.7526205    0.5772882 
   0.042997900     0.9495501    0.0681859    -0.0000013    0.0000013     0.0000001    0.0000020     0.8378075    0.4505526 
   0.044997800     0.9246075   -0.0625892     0.0000013    0.0000000     0.0000019    0.0000004     0.9702732    0.3530703 
   0.046997700     0.9383324   -0.2175316    -0.0000006   -0.0000015     0.0000019    0.0000001     0.9412310    0.1591634 
   0.048997600     0.9032435   -0.3362879    -0.0000015   -0.0000001    -0.0000014   -0.0000003     0.9549145    0.0033106 
   0.050997500     0.8554671   -0.4404859    -0.0000004   -0.0000001    -0.0000011   -0.0000013     0.9419864   -0.1535934 
   0.052997400     0.7982789   -0.5311525     0.0000017   -0.0000019     0.0000013   -0.0000042     0.9029842   -0.3067958 
   0.054997300     0.7352709   -0.6092649     0.0000004    0.0000141     0.0000044   -0.0000009     0.8374620   -0.4529789 
   0.056997200     0.6651677   -0.6788998     0.0000004    0.0000007    -0.0000031   -0.0000005     0.7505313   -0.5837973 
   0.058997100     0.5913031   -0.7377979    -0.0000019    0.0000015    -0.0000005   -0.0000010     0.6424437   -0.6992978 
   0.060997000     0.5141584   -0.7874210     0.0000008   -0.0000031    -0.0000017   -0.0000002     0.5167115   -0.7951201 
   0.062996900     0.4338238   -0.8287472     0.0000020   -0.0000008     0.0000013   -0.0000032     0.3773125   -0.8691926 
   0.064996800     0.3506671   -0.8617526    -0.0000041    0.0000025    -0.0000018   -0.0000009     0.2286623   -0.9190624 
   0.066996700     0.2652424   -0.8861019    -0.0000012    0.0000024     0.0000001   -0.0000017     0.0746107   -0.9433830 
   0.068996600     0.1773937   -0.9019490    -0.0000007   -0.0000012    -0.0000011   -0.0000006    -0.0802522   -0.9421035 
   0.070996500     0.0879635   -0.9101064    -0.0000006    0.0000003     0.0000012   -0.0000013    -0.2319479   -0.9158660 
   0.072996400    -0.0030276   -0.9081422    -0.0000018    0.0000010     0.0000008   -0.0000012    -0.3758060   -0.8662680 
   0.074996300    -0.0948219   -0.8966137    -0.0000005    0.0000006     0.0000001   -0.0000031    -0.5083511   -0.7943978 
   0.076996200    -0.1869439   -0.8749370     0.0000001   -0.0000026     0.0000000    0.0000014    -0.6264533   -0.7034050 
   0.078996100    -0.2785963   -0.8425578    -0.0000003   -0.0000018     0.0000026    0.0000032    -0.7277535   -0.5959752 
   0.080996000    -0.3686564   -0.7992380     0.0000013   -0.0000014     0.0000007    0.0000022    -0.8101275   -0.4758463 
   0.082995900    -0.4558510   -0.7436595    -0.0000015   -0.0000020    -0.0000003   -0.0000013    -0.8721039   -0.3457851 
   0.084995800    -0.5380570   -0.6753415    -0.0000001    0.0000001    -0.0000013    0.0000010    -0.9131618   -0.2094942 
   0.086995700    -0.6150353   -0.5943285    -0.0000025   -0.0000016     0.0000000    0.0000005    -0.9330056   -0.0700091 
   0.088995600    -0.6836177   -0.5007615     0.0000011   -0.0000007     0.0000021    0.0000001    -0.9324665    0.0691575 
   0.090995500    -0.7414929   -0.3939454     0.0000012    0.0000001     0.0000002   -0.0000004    -0.9112520    0.2052124 
   0.092995400    -0.7870654   -0.2753187    -0.0000024   -0.0000012     0.0000041    0.0000004    -0.8708113    0.3350748 
   0.094995300    -0.8146548   -0.1442318     0.0000041   -0.0000015    -0.0000005   -0.0000005    -0.8123798    0.4571833 
   0.096995200    -0.8218078   -0.0045172     0.0000010    0.0000001     0.0000022   -0.0000010    -0.7379442    0.5691831 
   0.098995100    -0.8051921    0.1413805    -0.0000009   -0.0000011    -0.0000007    0.0000011    -0.6490903    0.6682917 
   0.100995000    -0.7617936    0.2914168    -0.0000010   -0.0000003     0.0000002    0.0000003    -0.5474812    0.7539645 
   0.102994900    -0.6892736    0.4344921     0.0000011   -0.0000005     0.0000001   -0.0000001    -0.4356061    0.8229938 
   0.104994800    -0.5875124    0.5662566     0.0000005   -0.0000009     0.0000010    0.0000004    -0.3157684    0.8752335 
   0.106994700    -0.4573075    0.6787924     0.0000000    0.0000002     0.0000002   -0.0000003    -0.1903092    0.9100422 
   0.108994600    -0.3042184    0.7661265     0.0000008   -0.0000006    -0.0000010    0.0000004    -0.0615520    0.9271219 
   0.110994500    -0.1334269    0.8203670     0.0000000    0.0000010     0.0000005    0.0000014     0.0679408    0.9259639 
   0.112994400     0.0463907    0.8390609     0.0000007   -0.0000008     0.0000029    0.0000007     0.1954860    0.9069138 
   0.114994300     0.2262666    0.8196843     0.0000011   -0.0000004     0.0000009   -0.0000009     0.3191682    0.8701844 
   0.116994200     0.3968059    0.7639110     0.0000005   -0.0000005     0.0000023   -0.0000022     0.4366912    0.8166271 
   0.118994100     0.5496604    0.6760075     0.0000010    0.0000001     0.0000013   -0.0000014     0.5455932    0.7471903 
   0.120994000     0.6795852    0.5631979    -0.0000002   -0.0000003     0.0000006   -0.0000013     0.6436881    0.6630752 
   0.122993900     0.7808780    0.4297813     0.0000002   -0.0000016     0.0000021   -0.0000007     0.7291537    0.5659360 
   0.124993800     0.8525662    0.2851636     0.0000004   -0.0000008    -0.0000008   -0.0000017     0.8004811    0.4575191 
   0.126993700     0.8952139    0.1357098     0.0000002   -0.0000013     0.0000016   -0.0000016     0.8563176    0.3393656 
   0.128993600     0.9082819   -0.0127577     0.0000010   -0.0000031    -0.0000010   -0.0000017     0.8949456    0.2144760 
   0.130993500     0.8985953   -0.1554174    -0.0000004    0.0000006    -0.0000003   -0.0000029     0.9153996    0.0847642 
   0.132993400     0.8673821   -0.2891175    -0.0000003   -0.0000006     0.0000001   -0.0000024     0.9169590   -0.0469324 
   0.134993300     0.8178473   -0.4111810    -0.0000012    0.0000000     0.0000000   -0.0000020     0.8995290   -0.1781219 
   0.136993200     0.7534341   -0.5204494    -0.0000009    0.0000000     0.0000001   -0.0000012     0.8632738   -0.3059735 
   0.138993100     0.6767441   -0.6156909    -0.0000011    0.0000013     0.0000000   -0.0000024     0.8086709   -0.4277650 
   0.140993000     0.5903830   -0.6964828    -0.0000009   -0.0000003    -0.0000012   -0.0000021     0.7363445   -0.5406235 
   0.142992900     0.4970144   -0.7629706     0.0000002   -0.0000005    -0.0000015   -0.0000019     0.6482068   -0.6418623 
   0.144992800     0.3990880   -0.8163486    -0.0000009    0.0000001    -0.0000007   -0.0000021     0.5452014   -0.7289829 
   0.146992700     0.2969796   -0.8550508    -0.0000002    0.0000005    -0.0000023   -0.0000014     0.4304551   -0.8005177 
   0.148992600     0.1924650   -0.8802435     0.0000004   -0.0000008     0.0000005   -0.0000014     0.3065422   -0.8543977 
   0.150992500     0.0875218   -0.8912653    -0.0000016    0.0000014    -0.0000007   -0.0000013     0.1756130   -0.8899397 
   0.152992400    -0.0165195   -0.8906924    -0.0000005    0.0000004    -0.0000006    0.0000007     0.0405319   -0.9050240 
   0.154992300    -0.1190391   -0.8780366    -0.0000006    0.0000004    -0.0000005   -0.0000007    -0.0954460   -0.8998258 
   0.156992200    -0.2189009   -0.8531464    -0.0000001    0.0000014    -0.0000009    0.0000006    -0.2288683   -0.8744830 
   0.158992100    -0.3151204   -0.8167004    -0.0000003    0.0000012    -0.0000024   -0.0000002    -0.3571595   -0.8294300 
   0.160992000    -0.4064492   -0.7688589    -0.0000013   -0.0000009    -0.0000024   -0.0000007    -0.4772036   -0.7658278 
   0.162991900    -0.4924580   -0.7104545    -0.0000022    0.0000003     0.0000013    0.0000009    -0.5859820   -0.6851874 
   0.164991800    -0.5713700   -0.6416084    -0.0000006   -0.0000004    -0.0000015    0.0000010    -0.6814591   -0.5893746 
   0.166991700    -0.6420944   -0.5625879    -0.0000023    0.0000009    -0.0000012    0.0000007    -0.7616460   -0.4809699 
   0.168991600    -0.7036406   -0.4740225    -0.0000016    0.0000010    -0.0000008    0.0000006    -0.8244651   -0.3623385 
   0.170991500    -0.7545965   -0.3767391    -0.0000020    0.0000015    -0.0000010    0.0000015    -0.8689252   -0.2359384 
   0.172991400    -0.7936623   -0.2716170    -0.0000001   -0.0000006    -0.0000001    0.0000025    -0.8944009   -0.1051413 
   0.174991300    -0.8191675   -0.1603918    -0.0000004    0.0000001     0.0000004    0.0000012    -0.9003309    0.0276647 
   0.176991200    -0.8296331   -0.0434448     0.0000002   -0.0000017     0.0000005    0.0000020    -0.8869271    0.1591191 
   0.178991100    -0.8242145    0.0770873     0.0000012    0.0000005     0.0000010    0.0000002    -0.8548318    0.2866843 
   0.180991000    -0.8021836    0.1989128    -0.0000008    0.0000010     0.0000020    0.0000009    -0.8045823    0.4077034 
   0.182990900    -0.7607359    0.3188572    -0.0000003    0.0000001     0.0000028    0.0000009    -0.7381565    0.5199944 
   0.184990800    -0.7006258    0.4349912    -0.0000009   -0.0000004     0.0000024    0.0000005    -0.6564234    0.6211149 
   0.186990700    -0.6209218    0.5433356     0.0000004   -0.0000001     0.0000005    0.0000005    -0.5617993    0.7090988 
   0.188990600    -0.5416996    0.6246603    -0.0000011   -0.0000004     0.0000024   -0.0000005    -0.4781587    0.7703828 
   0.190990500    -0.4114133    0.7194777    -0.0000004   -0.0000009     0.0000016   -0.0000014    -0.3442469    0.8391084 
   0.192990400    -0.2791666    0.7846727    -0.0000002   -0.0000012     0.0000033    0.0000007    -0.2194011    0.8812606 
   0.194990300    -0.1385585    0.8265406    -0.0000012   -0.0000002     0.0000016   -0.0000011    -0.0936379    0.9046668 
   0.196990200     0.0090445    0.8441153    -0.0000012   -0.0000004     0.0000035   -0.0000010     0.0336861    0.9101049 
   0.198990100     0.1590711    0.8361437    -0.0000007   -0.0000005     0.0000027   -0.0000025     0.1605208    0.8976582 
   0.200990000     0.3071340    0.8021129    -0.0000009   -0.0000007     0.0000027   -0.0000030     0.2844955    0.8677204 
   0.202989900     0.4475316    0.7425897    -0.0000008   -0.0000004     0.0000026   -0.0000023     0.4031572    0.8209722 
   0.204989800     0.5753089    0.6591712    -0.0000005   -0.0000001     0.0000023   -0.0000032     0.5141554    0.7579933 
   0.206989700     0.6870351    0.5566831    -0.0000020   -0.0000005     0.0000037   -0.0000030     0.6151907    0.6800708 
   0.208989600     0.7773805    0.4367363    -0.0000014    0.0000008     0.0000022   -0.0000032     0.7045390    0.5886477 
   0.210989500     0.8449239    0.3046765    -0.0000008    0.0000006     0.0000014   -0.0000052     0.7805076    0.4851685 
   0.212989400     0.8890877    0.1644165    -0.0000009   -0.0000005     0.0000033   -0.0000037     0.8413838    0.3719115 
   0.214989300     0.9088359    0.0221362     0.0000002    0.0000005     0.0000010   -0.0000059     0.8858235    0.2508042 
   0.216989200     0.9053244   -0.1182296    -0.0000015    0.0000014     0.0000017   -0.0000051     0.9126512    0.1242917 
   0.218989100     0.8802172   -0.2526067     0.0000004    0.0000002     0.0000010   -0.0000045     0.9214079   -0.0054299 
   0.220989000     0.8354969   -0.3793537    -0.0000019    0.0000015     0.0000012   -0.0000061     0.9116756   -0.1352602 
   0.222988900     0.7737216   -0.4950677     0.0000002    0.0000006     0.0000013   -0.0000049     0.8831497   -0.2631301 
   0.224988800     0.6972114   -0.5980625     0.0000001    0.0000006     0.0000010   -0.0000047     0.8363860   -0.3862055 
   0.226988700     0.6088648   -0.6866850    -0.0000003   -0.0000001     0.0000003   -0.0000055     0.7721672   -0.5014575 
   0.228988600     0.5116197   -0.7598667    -0.0000006   -0.0000002    -0.0000011   -0.0000046     0.6913491   -0.6067632 
   0.230988500     0.4070841   -0.8179462     0.0000009    0.0000009    -0.0000014   -0.0000051     0.5955066   -0.6993079 
   0.232988400     0.2972320   -0.8589897     0.0000000    0.0000000    -0.0000020   -0.0000046     0.4869668   -0.7773500 
   0.234988300     0.1849964   -0.8862197     0.0000000    0.0000008    -0.0000006   -0.0000040     0.3676495   -0.8385852 
   0.236988200     0.0715934   -0.8980370     0.0000002    0.0000006    -0.0000007   -0.0000037     0.2398955   -0.8816108 
   0.238988100    -0.0405837   -0.8951953     0.0000000    0.0000011    -0.0000020   -0.0000026     0.1070951   -0.9053013 
   0.240988000    -0.1499604   -0.8780863    -0.0000013    0.0000004    -0.0000007   -0.0000028    -0.0282517   -0.9088230 
   0.242987900    -0.2553590   -0.8477265    -0.0000003   -0.0000024     0.0000000   -0.0000021    -0.1625779   -0.8920036 
   0.244987800    -0.3551984   -0.8044327    -0.0000006   -0.0000002    -0.0000007   -0.0000029    -0.2930903   -0.8552471 
   0.246987700    -0.4492339   -0.7489873     0.0000002   -0.0000006    -0.0000007   -0.0000014    -0.4164609   -0.7992317 
   0.248987600    -0.5356182   -0.6815518     0.0000012   -0.0000019    -0.0000001   -0.0000014    -0.5302531   -0.7252524 
   0.250987500    -0.6132394   -0.6031743    -0.0000009    0.0000012     0.0000010   -0.0000018    -0.6311972   -0.6350776 
   0.252987400    -0.6803956   -0.5152514     0.0000004   -0.0000002     0.0000017   -0.0000022    -0.7172504   -0.5311753 
   0.254987300    -0.7355605   -0.4193541    -0.0000011   -0.0000016     0.0000022   -0.0000013    -0.7865370   -0.4155175 
   0.256987200    -0.7785581   -0.3161416    -0.0000009   -0.0000015     0.0000031   -0.0000020    -0.8376824   -0.2912949 
   0.258987100    -0.8091152   -0.2069075    -0.0000004    0.0000004     0.0000050   -0.0000026    -0.8694827   -0.1612586 
   0.260987000    -0.8234100   -0.0919483     0.0000011   -0.0000003     0.0000055   -0.0000048    -0.8813494   -0.0284975 
   0.262986900    -0.8221056    0.0260667    -0.0000001    0.0000002     0.0000054   -0.0000073    -0.8734198    0.1037906 
   0.264986800    -0.8036132    0.1456504     0.0000001    0.0000007     0.0000041   -0.0000086    -0.8460044    0.2328567 
   0.266986700    -0.7674357    0.2631872     0.0000003   -0.0000013     0.0000036   -0.0000112    -0.8002400    0.3558472 
   0.268986600    -0.7137828    0.3764987    -0.0000003    0.0000001    -0.0000002   -0.0000129    -0.7371700    0.4700807 
   0.270986500    -0.6419655    0.4824300    -0.0000005   -0.0000008    -0.0000021   -0.0000102    -0.6584588    0.5732266 
   0.272986400    -0.5535450    0.5781468    -0.0000010   -0.0000004    -0.0000051   -0.0000100    -0.5662486    0.6633017 
   0.274986300    -0.4483370    0.6605881    -0.0000016   -0.0000010    -0.0000055   -0.0000073    -0.4623184    0.7387912 
   0.276986200    -0.3289640    0.7263578    -0.0000021   -0.0000009    -0.0000052   -0.0000041    -0.3490523    0.7974744 
   0.278986100    -0.1969554    0.7726330     0.0000002   -0.0000007    -0.0000028   -0.0000037    -0.2293778    0.8397080 
   0.280986000    -0.0570686    0.7963722    -0.0000010   -0.0000010    -0.0000015   -0.0000035    -0.1054641    0.8644985 
   0.282985900     0.0876797    0.7960172    -0.0000004   -0.0000007     0.0000000   -0.0000019     0.0198963    0.8711754 
   0.284985800     0.2314371    0.7699484    -0.0000024    0.0000010     0.0000019   -0.0000045     0.1445283    0.8601767 
   0.286985700     0.3694940    0.7183024    -0.0000020   -0.0000008     0.0000017   -0.0000037     0.2658511    0.8316497 
   0.288985600     0.4958324    0.6431715    -0.0000024    0.0000000     0.0000028   -0.0000064     0.3816284    0.7867476 
   0.290985500     0.6067143    0.5469645    -0.0000011    0.0000000     0.0000015   -0.0000066     0.4899342    0.7260663 
   0.292985400     0.6980597    0.4332923    -0.0000011    0.0000019     0.0000022   -0.0000093     0.5885733    0.6507865 
   0.294985300     0.7672554    0.3060153    -0.0000012    0.0000016     0.0000006   -0.0000105     0.6754858    0.5626209 
   0.296985200     0.8127776    0.1695154    -0.0000005    0.0000017    -0.0000015   -0.0000106     0.7493234    0.4631740 
   0.298985100     0.8333294    0.0291967    -0.0000012   -0.0000005    -0.0000024   -0.0000096     0.8085938    0.3544258 
   0.300985000     0.8288469   -0.1099487     0.0000003    0.0000013    -0.0000046   -0.0000115     0.8520108    0.2384721 
   0.302984900     0.8014158   -0.2434700    -0.0000009    0.0000002    -0.0000052   -0.0000097     0.8789126    0.1172844 
   0.304984800     0.7535613   -0.3672974    -0.0000003   -0.0000005    -0.0000073   -0.0000086     0.8882315   -0.0067613 
   0.306984700     0.6882225   -0.4777810    -0.0000001    0.0000005    -0.0000087   -0.0000088     0.8804953   -0.1311497 
   0.308984600     0.6085734   -0.5732055    -0.0000001    0.0000014    -0.0000096   -0.0000057     0.8550638   -0.2535307 
   0.310984500     0.5185324   -0.6521013     0.0000005   -0.0000006    -0.0000103   -0.0000053     0.8123093   -0.3716410 
   0.312984400     0.4211480   -0.7144219    -0.0000002    0.0000012    -0.0000100   -0.0000045     0.7533221   -0.4828581 
   0.314984300     0.3193546   -0.7597755     0.0000000   -0.0000006    -0.0000090   -0.0000024     0.6785658   -0.5849616 
