! MS46122B
! 2250307/22442219
! 8/6/2025 7:55:37 AM
! C:\USERS\SPARKY\DOCUMENTS\VNA_DATA\AUGUST6_2025\SHORTS_3K_REPEAT.S2P
! CHANNEL.1
! TR.MEASUREMENT
! RAW.DATA
# GHZ S RI R 50.0
! FREQ.GHZ         S11RE         S11IM         S21RE         S21IM         S12RE         S12IM         S22RE         S22IM         
!; PortSelection: Port_12
   0.001000000     1.0452030   -0.0680585     0.0000003    0.0000019     0.0000023   -0.0000079     0.8207747   -0.5490168 
   0.002999900     0.9646609   -0.1907482    -0.0000018    0.0000022     0.0000095   -0.0000030     0.1983519   -0.8728725 
   0.004999800     0.9055237   -0.2953716    -0.0000025   -0.0000026     0.0000007   -0.0000003    -0.3324476   -0.8035060 
   0.006999700     0.8395422   -0.3931537    -0.0000010    0.0000013    -0.0000034   -0.0000039    -0.6575671   -0.5937673 
   0.008999600     0.7638801   -0.4882914    -0.0000007    0.0000006    -0.0000074   -0.0000029    -0.8405680   -0.3518291 
   0.010999500     0.6750990   -0.5793553     0.0000043    0.0000029    -0.0000019    0.0000016    -0.9253213   -0.1143445 
   0.012999400     0.5687802   -0.6645818    -0.0000013    0.0000004    -0.0000013    0.0000005    -0.9411693    0.1047129 
   0.014999300     0.4397020   -0.7384725     0.0000013   -0.0000011    -0.0000014   -0.0000144    -0.9069703    0.2995889 
   0.016999200     0.2823063   -0.7925487    -0.0000033   -0.0000014     0.0000014    0.0000010    -0.8352957    0.4683771 
   0.018999100     0.0917605   -0.8136493     0.0000025    0.0000017     0.0000031   -0.0000021    -0.7358648    0.6105178 
   0.020999000    -0.1319757   -0.7764192     0.0000022    0.0000022    -0.0000003    0.0000001    -0.6167310    0.7265723 
   0.022998900    -0.3711044   -0.6488290    -0.0000011    0.0000019    -0.0000010    0.0000018    -0.4830793    0.8163467 
   0.024998800    -0.5548142   -0.3963750    -0.0000025   -0.0000030    -0.0000006    0.0000003    -0.3798082    0.9457049 
   0.026998700    -0.6692351   -0.0327223     0.0000005   -0.0000005     0.0000015   -0.0000004    -0.1908690    0.9208355 
   0.028998600    -0.5629363    0.3656649    -0.0000001    0.0000010    -0.0000018   -0.0000002    -0.0395414    0.9375353 
   0.030998500    -0.2723711    0.6596535    -0.0000015    0.0000007    -0.0000004    0.0000025     0.1107609    0.9312387 
   0.032998400     0.0725438    0.7467998     0.0000023   -0.0000018    -0.0000023    0.0000012     0.2643594    0.9815183 
   0.034998300     0.4182122    0.7233540     0.0000012   -0.0000017    -0.0000015    0.0000014     0.3983349    0.8517013 
   0.036998200     0.6601517    0.5854322    -0.0000023    0.0000018    -0.0000009    0.0000013     0.5298559    0.7796434 
   0.038998100     0.8172526    0.4124159     0.0000033    0.0000001     0.0000004   -0.0000002     0.6489311    0.6877478 
   0.040998000     0.9076482    0.2349829     0.0000006   -0.0000001     0.0000016   -0.0000005     0.7526655    0.5772402 
   0.042997900     0.9495808    0.0682359    -0.0000007   -0.0000014    -0.0000002   -0.0000007     0.8378139    0.4505460 
   0.044997800     0.9246468   -0.0625256    -0.0000012   -0.0000048    -0.0000010    0.0000009     0.9703073    0.3530694 
   0.046997700     0.9382884   -0.2175434    -0.0000021    0.0000000    -0.0000003   -0.0000006     0.9412839    0.1590855 
   0.048997600     0.9031358   -0.3362414    -0.0000008   -0.0000015     0.0000004   -0.0000013     0.9549198    0.0032372 
   0.050997500     0.8555208   -0.4404370    -0.0000011   -0.0000001    -0.0000018   -0.0000010     0.9420313   -0.1536147 
   0.052997400     0.7983837   -0.5310958     0.0000028    0.0000059    -0.0000024   -0.0000018     0.9030139   -0.3068827 
   0.054997300     0.7352598   -0.6091726    -0.0000081   -0.0000009     0.0000115   -0.0000044     0.8374900   -0.4531185 
   0.056997200     0.6651868   -0.6788878     0.0000005    0.0000008    -0.0000009    0.0000016     0.7504944   -0.5838729 
   0.058997100     0.5913427   -0.7377679    -0.0000019   -0.0000015    -0.0000005   -0.0000012     0.6424286   -0.6994264 
   0.060997000     0.5142378   -0.7873995     0.0000000    0.0000002     0.0000020    0.0000005     0.5167835   -0.7952400 
   0.062996900     0.4338808   -0.8287045     0.0000008    0.0000004    -0.0000004    0.0000005     0.3772557   -0.8692202 
   0.064996800     0.3507708   -0.8616878    -0.0000003   -0.0000019     0.0000009    0.0000009     0.2286219   -0.9190624 
   0.066996700     0.2653319   -0.8860848    -0.0000015   -0.0000012     0.0000025   -0.0000004     0.0745423   -0.9433954 
   0.068996600     0.1774628   -0.9019545    -0.0000031   -0.0000014    -0.0000007   -0.0000020    -0.0803250   -0.9421003 
   0.070996500     0.0880420   -0.9100707     0.0000011   -0.0000023    -0.0000009   -0.0000015    -0.2319966   -0.9158637 
   0.072996400    -0.0029681   -0.9081231     0.0000010   -0.0000009    -0.0000015   -0.0000008    -0.3758879   -0.8662203 
   0.074996300    -0.0947250   -0.8966448     0.0000009    0.0000003    -0.0000015   -0.0000004    -0.5084107   -0.7943985 
   0.076996200    -0.1868765   -0.8749858     0.0000015   -0.0000009     0.0000002    0.0000014    -0.6265236   -0.7033443 
   0.078996100    -0.2785090   -0.8425722     0.0000007   -0.0000039     0.0000001    0.0000011    -0.7278329   -0.5959867 
   0.080996000    -0.3686674   -0.7992653    -0.0000001   -0.0000040    -0.0000025   -0.0000008    -0.8101656   -0.4757704 
   0.082995900    -0.4557698   -0.7437474    -0.0000018   -0.0000017     0.0000012    0.0000004    -0.8721304   -0.3457455 
   0.084995800    -0.5379586   -0.6753581    -0.0000004   -0.0000011    -0.0000018    0.0000011    -0.9132050   -0.2094591 
   0.086995700    -0.6149442   -0.5943915     0.0000022    0.0000003    -0.0000009    0.0000007    -0.9330456   -0.0698827 
   0.088995600    -0.6835231   -0.5008430    -0.0000007   -0.0000017     0.0000012    0.0000004    -0.9324980    0.0692724 
   0.090995500    -0.7414236   -0.3940217     0.0000015    0.0000007    -0.0000007    0.0000010    -0.9112639    0.2053151 
   0.092995400    -0.7870445   -0.2753972     0.0000007    0.0000010     0.0000007   -0.0000007    -0.8707768    0.3352031 
   0.094995300    -0.8146287   -0.1443077    -0.0000017    0.0000000     0.0000009    0.0000015    -0.8123053    0.4572524 
   0.096995200    -0.8217981   -0.0046334     0.0000006   -0.0000030     0.0000005    0.0000032    -0.7378632    0.5692188 
   0.098995100    -0.8051966    0.1412333    -0.0000019   -0.0000008     0.0000027   -0.0000020    -0.6489978    0.6684224 
   0.100995000    -0.7617936    0.2913678    -0.0000008    0.0000006     0.0000001    0.0000003    -0.5474431    0.7539726 
   0.102994900    -0.6892797    0.4344680     0.0000007   -0.0000003     0.0000006    0.0000011    -0.4355662    0.8229749 
   0.104994800    -0.5875230    0.5662391     0.0000006    0.0000017     0.0000018   -0.0000007    -0.3157915    0.8752618 
   0.106994700    -0.4573472    0.6787605     0.0000004   -0.0000006     0.0000022    0.0000011    -0.1902709    0.9100298 
   0.108994600    -0.3042572    0.7661048     0.0000012    0.0000008     0.0000010    0.0000012    -0.0615551    0.9271322 
   0.110994500    -0.1334534    0.8203716     0.0000005    0.0000007     0.0000019    0.0000003     0.0679637    0.9259515 
   0.112994400     0.0463467    0.8390555     0.0000000    0.0000000     0.0000017   -0.0000012     0.1955353    0.9068987 
   0.114994300     0.2262400    0.8196427    -0.0000003    0.0000002     0.0000015   -0.0000004     0.3192250    0.8701664 
   0.116994200     0.3967761    0.7639027    -0.0000003   -0.0000009     0.0000016   -0.0000008     0.4367278    0.8166019 
   0.118994100     0.5495960    0.6760356     0.0000005   -0.0000003     0.0000008   -0.0000012     0.5455989    0.7471736 
   0.120994000     0.6795937    0.5631857     0.0000003    0.0000017     0.0000013   -0.0000007     0.6436937    0.6630789 
   0.122993900     0.7808808    0.4297754     0.0000010    0.0000006     0.0000003   -0.0000016     0.7292019    0.5659130 
   0.124993800     0.8525677    0.2851708    -0.0000011    0.0000003     0.0000019   -0.0000015     0.8004831    0.4575342 
   0.126993700     0.8952041    0.1357160    -0.0000001   -0.0000016     0.0000002   -0.0000018     0.8563012    0.3393351 
   0.128993600     0.9083438   -0.0127931     0.0000002   -0.0000008     0.0000008   -0.0000015     0.8949086    0.2144548 
   0.130993500     0.8985868   -0.1553833     0.0000017   -0.0000017    -0.0000002   -0.0000032     0.9153745    0.0847579 
   0.132993400     0.8673923   -0.2890996     0.0000001   -0.0000015     0.0000002   -0.0000023     0.9169998   -0.0469215 
   0.134993300     0.8178110   -0.4111973    -0.0000012   -0.0000007     0.0000000   -0.0000017     0.8995272   -0.1781421 
   0.136993200     0.7533776   -0.5201818    -0.0000006   -0.0000006     0.0000002   -0.0000014     0.8632684   -0.3059799 
   0.138993100     0.6766967   -0.6155188    -0.0000002    0.0000005    -0.0000001   -0.0000017     0.8086579   -0.4278172 
   0.140993000     0.5903645   -0.6964408    -0.0000013   -0.0000004     0.0000000   -0.0000025     0.7363409   -0.5406177 
   0.142992900     0.4969286   -0.7629729    -0.0000012    0.0000001    -0.0000004   -0.0000024     0.6482049   -0.6418905 
   0.144992800     0.3991212   -0.8163167    -0.0000004   -0.0000011    -0.0000005   -0.0000016     0.5451627   -0.7289855 
   0.146992700     0.2968060   -0.8551046    -0.0000003    0.0000010    -0.0000005   -0.0000010     0.4304278   -0.8005202 
   0.148992600     0.1927332   -0.8801768    -0.0000012   -0.0000009    -0.0000003   -0.0000004     0.3064760   -0.8543816 
   0.150992500     0.0875690   -0.8912352     0.0000002   -0.0000001    -0.0000001   -0.0000008     0.1755969   -0.8899348 
   0.152992400    -0.0165131   -0.8906702    -0.0000015    0.0000006    -0.0000019   -0.0000007     0.0404931   -0.9050046 
   0.154992300    -0.1190756   -0.8780030    -0.0000019   -0.0000003    -0.0000016   -0.0000010    -0.0954861   -0.8997922 
   0.156992200    -0.2188625   -0.8531347    -0.0000003   -0.0000023    -0.0000008   -0.0000014    -0.2288942   -0.8744550 
   0.158992100    -0.3150999   -0.8166646     0.0000001   -0.0000009    -0.0000009    0.0000000    -0.3571576   -0.8293937 
   0.160992000    -0.4065738   -0.7689805    -0.0000010   -0.0000003    -0.0000013    0.0000012    -0.4772260   -0.7657852 
   0.162991900    -0.4924178   -0.7104692     0.0000008    0.0000011    -0.0000011    0.0000001    -0.5859968   -0.6851376 
   0.164991800    -0.5714555   -0.6415584    -0.0000013   -0.0000008    -0.0000005    0.0000017    -0.6814141   -0.5893798 
   0.166991700    -0.6419385   -0.5627199    -0.0000014   -0.0000006    -0.0000008    0.0000009    -0.7616332   -0.4809541 
   0.168991600    -0.7036105   -0.4740982    -0.0000003   -0.0000006     0.0000000    0.0000015    -0.8244298   -0.3623340 
   0.170991500    -0.7545422   -0.3767734    -0.0000012    0.0000005     0.0000015    0.0000026    -0.8689651   -0.2358990 
   0.172991400    -0.7936202   -0.2716672     0.0000008    0.0000007     0.0000004    0.0000009    -0.8943684   -0.1051342 
   0.174991300    -0.8191404   -0.1604369     0.0000006    0.0000022     0.0000011    0.0000012    -0.9002908    0.0276398 
   0.176991200    -0.8296300   -0.0434823    -0.0000006    0.0000004     0.0000016    0.0000019    -0.8869267    0.1591041 
   0.178991100    -0.8242140    0.0771324    -0.0000006    0.0000001     0.0000014    0.0000022    -0.8547811    0.2866904 
   0.180991000    -0.8022042    0.1988677     0.0000013    0.0000014     0.0000031    0.0000007    -0.8045337    0.4077159 
   0.182990900    -0.7607679    0.3188252     0.0000005   -0.0000007     0.0000027    0.0000007    -0.7381296    0.5200170 
   0.184990800    -0.7006380    0.4349056    -0.0000001    0.0000005     0.0000010    0.0000019    -0.6564183    0.6211446 
   0.186990700    -0.6209499    0.5433097     0.0000013   -0.0000010     0.0000021    0.0000002    -0.5617631    0.7091114 
   0.188990600    -0.5417301    0.6246167     0.0000009   -0.0000015     0.0000026   -0.0000014    -0.4781533    0.7703861 
   0.190990500    -0.4114569    0.7194636     0.0000000    0.0000002     0.0000019   -0.0000012    -0.3441904    0.8391613 
   0.192990400    -0.2792230    0.7846379    -0.0000005    0.0000002     0.0000021   -0.0000017    -0.2193859    0.8812209 
   0.194990300    -0.1386265    0.8265530    -0.0000004   -0.0000005     0.0000039   -0.0000010    -0.0936327    0.9046485 
   0.196990200     0.0089840    0.8441151    -0.0000007   -0.0000005     0.0000031   -0.0000024     0.0336676    0.9101150 
   0.198990100     0.1590564    0.8361133     0.0000002   -0.0000001     0.0000023   -0.0000014     0.1604991    0.8976634 
   0.200990000     0.3069948    0.8023079     0.0000003   -0.0000004     0.0000022   -0.0000025     0.2844766    0.8677369 
   0.202989900     0.4475414    0.7426087    -0.0000007    0.0000004     0.0000034   -0.0000020     0.4031349    0.8209389 
   0.204989800     0.5754036    0.6590764    -0.0000009   -0.0000014     0.0000026   -0.0000022     0.5141665    0.7579539 
   0.206989700     0.6870019    0.5567414    -0.0000017   -0.0000031     0.0000028   -0.0000026     0.6151699    0.6800364 
   0.208989600     0.7772511    0.4369506    -0.0000013    0.0000003     0.0000030   -0.0000032     0.7045112    0.5885878 
   0.210989500     0.8448860    0.3047114    -0.0000015   -0.0000003     0.0000019   -0.0000034     0.7805143    0.4851765 
   0.212989400     0.8890111    0.1646129    -0.0000018   -0.0000007     0.0000035   -0.0000038     0.8413901    0.3719237 
   0.214989300     0.9088066    0.0221642    -0.0000002    0.0000005     0.0000018   -0.0000045     0.8858294    0.2508111 
   0.216989200     0.9052792   -0.1181821     0.0000008    0.0000021     0.0000025   -0.0000051     0.9126417    0.1242502 
   0.218989100     0.8802025   -0.2525649     0.0000004    0.0000013     0.0000020   -0.0000049     0.9214199   -0.0054119 
   0.220989000     0.8354642   -0.3793319    -0.0000012    0.0000005     0.0000016   -0.0000028     0.9116225   -0.1352444 
   0.222988900     0.7737306   -0.4950539    -0.0000003    0.0000001     0.0000010   -0.0000055     0.8831246   -0.2631109 
   0.224988800     0.6970732   -0.5981990    -0.0000027    0.0000001     0.0000014   -0.0000049     0.8363919   -0.3862084 
   0.226988700     0.6089233   -0.6866151    -0.0000010    0.0000022    -0.0000010   -0.0000041     0.7721363   -0.5014491 
   0.228988600     0.5116411   -0.7598279    -0.0000003    0.0000000     0.0000002   -0.0000047     0.6913191   -0.6067620 
   0.230988500     0.4072368   -0.8178418     0.0000003   -0.0000012    -0.0000003   -0.0000043     0.5954963   -0.6993177 
   0.232988400     0.2972856   -0.8589693    -0.0000007    0.0000021    -0.0000014   -0.0000030     0.4869302   -0.7773373 
   0.234988300     0.1850222   -0.8861588    -0.0000017    0.0000000     0.0000002   -0.0000035     0.3676369   -0.8385727 
   0.236988200     0.0717560   -0.8980199     0.0000020    0.0000002    -0.0000019   -0.0000034     0.2398700   -0.8815598 
   0.238988100    -0.0405442   -0.8951792     0.0000016   -0.0000009    -0.0000020   -0.0000026     0.1070547   -0.9052721 
   0.240988000    -0.1499096   -0.8780870     0.0000011   -0.0000005    -0.0000001   -0.0000030    -0.0282582   -0.9087917 
   0.242987900    -0.2553006   -0.8477215    -0.0000012   -0.0000001    -0.0000017   -0.0000020    -0.1625864   -0.8920093 
   0.244987800    -0.3551516   -0.8044027    -0.0000016   -0.0000002    -0.0000008   -0.0000010    -0.2930126   -0.8552285 
   0.246987700    -0.4491829   -0.7490355     0.0000010    0.0000001     0.0000003   -0.0000016    -0.4164534   -0.7991688 
   0.248987600    -0.5355552   -0.6815588     0.0000004   -0.0000007     0.0000015   -0.0000028    -0.5302449   -0.7252188 
   0.250987500    -0.6131939   -0.6032333     0.0000007    0.0000000     0.0000008   -0.0000019    -0.6311783   -0.6350485 
   0.252987400    -0.6803818   -0.5152538    -0.0000011   -0.0000003     0.0000026   -0.0000019    -0.7172179   -0.5311600 
   0.254987300    -0.7355174   -0.4193092    -0.0000006    0.0000001     0.0000020   -0.0000034    -0.7865382   -0.4155359 
   0.256987200    -0.7785155   -0.3161681    -0.0000002   -0.0000017     0.0000035   -0.0000035    -0.8376770   -0.2912664 
   0.258987100    -0.8090469   -0.2069829    -0.0000001   -0.0000006     0.0000039   -0.0000042    -0.8694613   -0.1612163 
   0.260987000    -0.8234910   -0.0920994    -0.0000005   -0.0000003     0.0000067   -0.0000036    -0.8813449   -0.0284725 
   0.262986900    -0.8220621    0.0261384    -0.0000008   -0.0000009     0.0000052   -0.0000067    -0.8733970    0.1037860 
   0.264986800    -0.8036466    0.1455575     0.0000003    0.0000004     0.0000045   -0.0000087    -0.8459964    0.2328616 
   0.266986700    -0.7674581    0.2631556    -0.0000002   -0.0000003     0.0000028   -0.0000100    -0.8001996    0.3558148 
   0.268986600    -0.7137417    0.3765554    -0.0000013   -0.0000008     0.0000008   -0.0000104    -0.7371820    0.4700314 
   0.270986500    -0.6419740    0.4823319    -0.0000006   -0.0000018    -0.0000022   -0.0000118    -0.6584114    0.5732342 
   0.272986400    -0.5534300    0.5784137    -0.0000009   -0.0000017    -0.0000046   -0.0000089    -0.5662508    0.6633185 
   0.274986300    -0.4484207    0.6604900    -0.0000019   -0.0000004    -0.0000055   -0.0000071    -0.4623193    0.7387066 
   0.276986200    -0.3287865    0.7264138    -0.0000014   -0.0000008    -0.0000050   -0.0000049    -0.3490386    0.7974836 
   0.278986100    -0.1970686    0.7725947    -0.0000009   -0.0000014    -0.0000029   -0.0000032    -0.2294295    0.8396879 
   0.280986000    -0.0571419    0.7963712    -0.0000017    0.0000006    -0.0000016   -0.0000034    -0.1054471    0.8644838 
   0.282985900     0.0875004    0.7960129    -0.0000017    0.0000010    -0.0000003   -0.0000020     0.0198842    0.8711659 
   0.284985800     0.2315756    0.7699145    -0.0000005    0.0000006     0.0000018   -0.0000052     0.1445097    0.8601730 
   0.286985700     0.3694215    0.7183135    -0.0000004   -0.0000015     0.0000021   -0.0000051     0.2658769    0.8316311 
   0.288985600     0.4958449    0.6431019    -0.0000022    0.0000001     0.0000007   -0.0000057     0.3815780    0.7867443 
   0.290985500     0.6067502    0.5470220    -0.0000004    0.0000016     0.0000009   -0.0000078     0.4899589    0.7261080 
   0.292985400     0.6979914    0.4333597    -0.0000027   -0.0000001     0.0000000   -0.0000084     0.5885740    0.6507891 
   0.294985300     0.7673380    0.3059590    -0.0000016    0.0000000     0.0000003   -0.0000083     0.6754969    0.5625836 
   0.296985200     0.8127283    0.1696514     0.0000004    0.0000001    -0.0000023   -0.0000110     0.7493004    0.4631836 
   0.298985100     0.8333226    0.0292544    -0.0000006    0.0000019    -0.0000026   -0.0000097     0.8085846    0.3544196 
   0.300985000     0.8288318   -0.1098465    -0.0000015    0.0000015    -0.0000062   -0.0000094     0.8519846    0.2385147 
   0.302984900     0.8014586   -0.2434436     0.0000005    0.0000009    -0.0000063   -0.0000100     0.8788959    0.1172923 
   0.304984800     0.7535834   -0.3672695     0.0000011   -0.0000004    -0.0000082   -0.0000089     0.8881580   -0.0067513 
   0.306984700     0.6881542   -0.4778184    -0.0000003   -0.0000007    -0.0000091   -0.0000094     0.8804933   -0.1311670 
   0.308984600     0.6086088   -0.5732215     0.0000003    0.0000001    -0.0000089   -0.0000059     0.8550994   -0.2534826 
   0.310984500     0.5185443   -0.6520962    -0.0000015    0.0000015    -0.0000090   -0.0000040     0.8123248   -0.3716412 
   0.312984400     0.4211614   -0.7143975    -0.0000010   -0.0000010    -0.0000112   -0.0000042     0.7533123   -0.4828459 
   0.314984300     0.3193633   -0.7597171    -0.0000005   -0.0000004    -0.0000117   -0.0000027     0.6785500   -0.5849616 
