! MS46122B
! 2250307/22442219
! 8/5/2025 1:18:21 PM
! C:\USERS\SPARKY\DOCUMENTS\VNA_DATA\AUGUST5_2025\295K\SHORTS_295K.S2P
! CHANNEL.1
! TR.MEASUREMENT
! RAW.DATA
# GHZ S RI R 50.0
! FREQ.GHZ         S11RE         S11IM         S21RE         S21IM         S12RE         S12IM         S22RE         S22IM         
!; PortSelection: Port_12
   0.001000000     1.0444440   -0.0682178    -0.0000033    0.0000016    -0.0000025   -0.0000005     0.8213047   -0.5467507 
   0.002999900     0.9637939   -0.1902513     0.0000036    0.0000041    -0.0000056   -0.0000075     0.2001230   -0.8685068 
   0.004999800     0.9041835   -0.2950188    -0.0000004   -0.0000010    -0.0000048   -0.0000002    -0.3291416   -0.7956832 
   0.006999700     0.8381407   -0.3925582    -0.0000015   -0.0000028    -0.0000026    0.0000003    -0.6502733   -0.5827705 
   0.008999600     0.7612840   -0.4871688    -0.0000004   -0.0000003    -0.0000045    0.0000020    -0.8276838   -0.3399253 
   0.010999500     0.6712505   -0.5770424    -0.0000008    0.0000017    -0.0000002   -0.0000026    -0.9069850   -0.1039870 
   0.012999400     0.5635634   -0.6602135     0.0000015    0.0000022    -0.0000014    0.0000012    -0.9181224    0.1115797 
   0.014999300     0.4329704   -0.7310008     0.0000011    0.0000029     0.0000005    0.0000000    -0.8806036    0.3018181 
   0.016999200     0.2745277   -0.7801261     0.0000011    0.0000010    -0.0000013   -0.0000015    -0.8070533    0.4652614 
   0.018999100     0.0851180   -0.7925173     0.0000033    0.0000032     0.0000000    0.0000025    -0.7071324    0.6018053 
   0.020999000    -0.1321113   -0.7445188    -0.0000009   -0.0000024     0.0000008   -0.0000007    -0.5888855    0.7123826 
   0.022998900    -0.3557754   -0.6063613     0.0000002    0.0000008    -0.0000017    0.0000011    -0.4570673    0.7968619 
   0.024998800    -0.5140811   -0.3521492    -0.0000020   -0.0000044    -0.0000011    0.0000003    -0.3543979    0.9198330 
   0.026998700    -0.5956629   -0.0068258     0.0000000    0.0000018     0.0000010    0.0000009    -0.1713972    0.8923984 
   0.028998600    -0.4744947    0.3499597     0.0000013   -0.0000003     0.0000001    0.0000017    -0.0245964    0.9057325 
   0.030998500    -0.2001998    0.6008965    -0.0000004   -0.0000026     0.0000002    0.0000004     0.1206494    0.8967115 
   0.032998400     0.1091873    0.6701351    -0.0000018    0.0000003     0.0000022   -0.0000021     0.2697139    0.9422610 
   0.034998300     0.4200870    0.6447477     0.0000016   -0.0000014    -0.0000010    0.0000015     0.3967923    0.8144243 
   0.036998200     0.6391052    0.5205324     0.0000011   -0.0000019    -0.0000005   -0.0000026     0.5222701    0.7423151 
   0.038998100     0.7840371    0.3636103    -0.0000014    0.0000010     0.0000016    0.0000019     0.6351932    0.6517150 
   0.040998000     0.8697953    0.2011598    -0.0000006    0.0000001    -0.0000014   -0.0000007     0.7328410    0.5436240 
   0.042997900     0.9110898    0.0461877    -0.0000008   -0.0000011     0.0000009   -0.0000026     0.8125010    0.4204078 
   0.044997800     0.8885610   -0.0745387    -0.0000016    0.0000033    -0.0000003    0.0000004     0.9378019    0.3250850 
   0.046997700     0.9039896   -0.2227278     0.0000008   -0.0000030    -0.0000011    0.0000005     0.9069030    0.1392939 
   0.048997600     0.8721771   -0.3360124    -0.0000009    0.0000012     0.0000027   -0.0000006     0.9176293   -0.0101902 
   0.050997500     0.8277752   -0.4361928    -0.0000001   -0.0000010     0.0000002    0.0000000     0.9031987   -0.1601413 
   0.052997400     0.7737091   -0.5237599     0.0000039   -0.0000051     0.0000009    0.0000012     0.8639252   -0.3062469 
   0.054997300     0.7134751   -0.5995998    -0.0000012    0.0000135    -0.0000016   -0.0000104     0.7996885   -0.4455360 
   0.056997200     0.6458815   -0.6675479     0.0000028    0.0000021     0.0000023    0.0000019     0.7151563   -0.5697876 
   0.058997100     0.5749636   -0.7248302    -0.0000016    0.0000000     0.0000015    0.0000029     0.6108701   -0.6794072 
   0.060997000     0.5002478   -0.7732759     0.0000000   -0.0000016    -0.0000021    0.0000004     0.4899065   -0.7702479 
   0.062996900     0.4223368   -0.8136547     0.0000005    0.0000011     0.0000008   -0.0000015     0.3561160   -0.8403361 
   0.064996800     0.3415813   -0.8460302    -0.0000034   -0.0000005     0.0000010   -0.0000035     0.2136525   -0.8875762 
   0.066996700     0.2582403   -0.8698854    -0.0000011   -0.0000008     0.0000018   -0.0000013     0.0659226   -0.9104134 
   0.068996600     0.1726858   -0.8854527     0.0000008   -0.0000020     0.0000011   -0.0000028    -0.0824929   -0.9091135 
   0.070996500     0.0855406   -0.8933966     0.0000004   -0.0000020     0.0000010   -0.0000018    -0.2279040   -0.8839133 
   0.072996400    -0.0032141   -0.8914621    -0.0000010    0.0000031    -0.0000009   -0.0000019    -0.3661869   -0.8365907 
   0.074996300    -0.0927908   -0.8801642    -0.0000013    0.0000009    -0.0000016   -0.0000024    -0.4937629   -0.7678452 
   0.076996200    -0.1825726   -0.8588589     0.0000007   -0.0000019    -0.0000009   -0.0000012    -0.6077179   -0.6808533 
   0.078996100    -0.2717556   -0.8269699     0.0000020   -0.0000009    -0.0000008   -0.0000015    -0.7057318   -0.5779601 
   0.080996000    -0.3595833   -0.7848107     0.0000011   -0.0000004     0.0000009    0.0000001    -0.7858077   -0.4626290 
   0.082995900    -0.4444712   -0.7305015    -0.0000025   -0.0000031     0.0000002    0.0000009    -0.8464866   -0.3375614 
   0.084995800    -0.5242253   -0.6634759     0.0000001   -0.0000007    -0.0000008   -0.0000008    -0.8870361   -0.2063020 
   0.086995700    -0.5990403   -0.5850013     0.0000045    0.0000013    -0.0000003    0.0000006    -0.9074396   -0.0716110 
   0.088995600    -0.6655456   -0.4940479    -0.0000015    0.0000019     0.0000005   -0.0000031    -0.9079925    0.0629268 
   0.090995500    -0.7216288   -0.3903288    -0.0000017   -0.0000010     0.0000006   -0.0000033    -0.8887352    0.1948492 
   0.092995400    -0.7657018   -0.2752335    -0.0000004   -0.0000002    -0.0000018    0.0000010    -0.8506760    0.3211751 
   0.094995300    -0.7926216   -0.1484545     0.0000002   -0.0000012     0.0000012   -0.0000004    -0.7952928    0.4401172 
   0.096995200    -0.7998024   -0.0134749     0.0000019   -0.0000008    -0.0000008    0.0000020    -0.7242477    0.5494906 
   0.098995100    -0.7842028    0.1274802    -0.0000004    0.0000005     0.0000010   -0.0000012    -0.6391317    0.6468001 
   0.100995000    -0.7429302    0.2723629     0.0000012   -0.0000001     0.0000012   -0.0000010    -0.5412200    0.7311499 
   0.102994900    -0.6739323    0.4108239    -0.0000010    0.0000006     0.0000009    0.0000014    -0.4332199    0.7994810 
   0.104994800    -0.5770995    0.5384396    -0.0000019    0.0000008     0.0000023    0.0000010    -0.3174364    0.8517162 
   0.106994700    -0.4530821    0.6481280     0.0000005    0.0000001     0.0000002   -0.0000001    -0.1956560    0.8870382 
   0.108994600    -0.3068025    0.7338360    -0.0000007    0.0000000     0.0000032   -0.0000001    -0.0705603    0.9051997 
   0.110994500    -0.1434500    0.7887772    -0.0000001   -0.0000004     0.0000007    0.0000005     0.0555288    0.9056312 
   0.112994400     0.0292032    0.8098913     0.0000013   -0.0000022     0.0000016   -0.0000015     0.1798807    0.8885171 
   0.114994300     0.2028283    0.7945918     0.0000005   -0.0000009     0.0000016   -0.0000008     0.3008730    0.8543003 
   0.116994200     0.3682791    0.7442892    -0.0000008    0.0000005     0.0000002   -0.0000003     0.4159321    0.8034576 
   0.118994100     0.5178055    0.6629440     0.0000002   -0.0000002     0.0000017   -0.0000001     0.5229744    0.7371412 
   0.120994000     0.6463750    0.5569129    -0.0000022   -0.0000007     0.0000009   -0.0000017     0.6196472    0.6564903 
   0.122993900     0.7477304    0.4302444     0.0000011    0.0000010     0.0000006   -0.0000005     0.7041128    0.5628412 
   0.124993800     0.8207278    0.2917232    -0.0000002   -0.0000015     0.0000008   -0.0000022     0.7749592    0.4581047 
   0.126993700     0.8659788    0.1474299     0.0000004    0.0000007     0.0000014   -0.0000013     0.8306677    0.3436175 
   0.128993600     0.8823417    0.0031878    -0.0000002    0.0000004     0.0000009   -0.0000018     0.8699424    0.2223200 
   0.130993500     0.8763546   -0.1360509    -0.0000016   -0.0000015     0.0000015   -0.0000017     0.8914070    0.0962514 
   0.132993400     0.8488851   -0.2672454    -0.0000014   -0.0000002     0.0000003   -0.0000019     0.8946361   -0.0320296 
   0.134993300     0.8033960   -0.3875696     0.0000008   -0.0000007     0.0000003   -0.0000013     0.8791643   -0.1600422 
   0.136993200     0.7424487   -0.4957097     0.0000003   -0.0000013    -0.0000001   -0.0000012     0.8453005   -0.2851059 
   0.138993100     0.6694250   -0.5904245     0.0000016   -0.0000021    -0.0000013   -0.0000024     0.7935385   -0.4043175 
   0.140993000     0.5865468   -0.6715216    -0.0000012   -0.0000014    -0.0000005   -0.0000004     0.7245603   -0.5151262 
   0.142992900     0.4962673   -0.7381428    -0.0000017   -0.0000025     0.0000009   -0.0000015     0.6398731   -0.6147156 
   0.144992800     0.4011748   -0.7923448    -0.0000011   -0.0000009    -0.0000014   -0.0000021     0.5405142   -0.7006055 
   0.146992700     0.3016926   -0.8318549    -0.0000016   -0.0000022    -0.0000008   -0.0000016     0.4296452   -0.7715547 
   0.148992600     0.1997568   -0.8579772    -0.0000015   -0.0000003    -0.0000026   -0.0000008     0.3096369   -0.8253859 
   0.150992500     0.0970433   -0.8699822    -0.0000016    0.0000008    -0.0000015   -0.0000005     0.1827831   -0.8613077 
   0.152992400    -0.0052312   -0.8709119    -0.0000007    0.0000018    -0.0000007   -0.0000003     0.0515564   -0.8773605 
   0.154992300    -0.1055223   -0.8595662    -0.0000003    0.0000006     0.0000003   -0.0000007    -0.0806428   -0.8737495 
   0.156992200    -0.2035336   -0.8362326     0.0000001   -0.0000004    -0.0000010   -0.0000009    -0.2106419   -0.8504645 
   0.158992100    -0.2979265   -0.8013515    -0.0000021    0.0000006    -0.0000005    0.0000001    -0.3356278   -0.8078884 
   0.160992000    -0.3876531   -0.7553295    -0.0000006    0.0000007     0.0000009    0.0000002    -0.4528011   -0.7472204 
   0.162991900    -0.4721260   -0.6988477    -0.0000015   -0.0000007    -0.0000009    0.0000014    -0.5592967   -0.6700017 
   0.164991800    -0.5497673   -0.6320332     0.0000003    0.0000002    -0.0000006    0.0000019    -0.6528369   -0.5779619 
   0.166991700    -0.6190399   -0.5554037    -0.0000004   -0.0000002     0.0000000    0.0000007    -0.7316167   -0.4734302 
   0.168991600    -0.6794204   -0.4693119    -0.0000008   -0.0000002     0.0000002    0.0000013    -0.7936333   -0.3590522 
   0.170991500    -0.7293627   -0.3747197    -0.0000008    0.0000007     0.0000001    0.0000014    -0.8378342   -0.2367998 
   0.172991400    -0.7677560   -0.2726567    -0.0000008   -0.0000004     0.0000000    0.0000018    -0.8636250   -0.1101882 
   0.174991300    -0.7927892   -0.1647988    -0.0000013    0.0000008     0.0000011    0.0000020    -0.8703727    0.0183180 
   0.176991200    -0.8033215   -0.0511680     0.0000002    0.0000009     0.0000000    0.0000008    -0.8586189    0.1458091 
   0.178991100    -0.7980022    0.0657500    -0.0000009   -0.0000001     0.0000009    0.0000011    -0.8286164    0.2694884 
   0.180991000    -0.7771255    0.1837396    -0.0000003    0.0000013     0.0000031    0.0000003    -0.7809575    0.3871650 
   0.182990900    -0.7372577    0.2998267    -0.0000013    0.0000007     0.0000032    0.0000007    -0.7175448    0.4964184 
   0.184990800    -0.6792253    0.4120263    -0.0000002    0.0000018     0.0000018   -0.0000004    -0.6393411    0.5949066 
   0.186990700    -0.6027752    0.5166724    -0.0000007    0.0000000     0.0000032    0.0000004    -0.5484505    0.6807128 
   0.188990600    -0.5264401    0.5951164    -0.0000002   -0.0000004     0.0000023   -0.0000002    -0.4681698    0.7405913 
   0.190990500    -0.4015774    0.6868870    -0.0000003   -0.0000010     0.0000000    0.0000000    -0.3392022    0.8081076 
   0.192990400    -0.2747945    0.7501312    -0.0000011    0.0000002     0.0000023   -0.0000009    -0.2189504    0.8498636 
   0.194990300    -0.1398493    0.7908596    -0.0000001   -0.0000016     0.0000009   -0.0000004    -0.0976734    0.8734409 
   0.196990200     0.0014068    0.8087001    -0.0000007    0.0000014     0.0000013   -0.0000022     0.0251570    0.8797882 
   0.198990100     0.1453279    0.8021426    -0.0000009    0.0000010     0.0000038   -0.0000012     0.1477130    0.8687243 
   0.200990000     0.2872236    0.7709252    -0.0000019    0.0000001     0.0000030   -0.0000017     0.2675315    0.8409320 
   0.202989900     0.4224873    0.7148644     0.0000000    0.0000001     0.0000028   -0.0000022     0.3823743    0.7968624 
   0.204989800     0.5456082    0.6365421    -0.0000007    0.0000007     0.0000040   -0.0000027     0.4898780    0.7370336 
   0.206989700     0.6540812    0.5397314    -0.0000002    0.0000007     0.0000031   -0.0000031     0.5880246    0.6629055 
   0.208989600     0.7420066    0.4260328    -0.0000011    0.0000009     0.0000040   -0.0000039     0.6749765    0.5757391 
   0.210989500     0.8086990    0.3006309    -0.0000003   -0.0000012     0.0000037   -0.0000036     0.7491660    0.4767469 
   0.212989400     0.8530423    0.1669517    -0.0000014   -0.0000015     0.0000030   -0.0000032     0.8088453    0.3683710 
   0.214989300     0.8744612    0.0305697     0.0000009   -0.0000002     0.0000023   -0.0000056     0.8529195    0.2522622 
   0.216989200     0.8735273   -0.1040753    -0.0000020    0.0000003     0.0000021   -0.0000033     0.8801808    0.1308624 
   0.218989100     0.8520020   -0.2338133    -0.0000002    0.0000001     0.0000032   -0.0000047     0.8901011    0.0062504 
   0.220989000     0.8112492   -0.3565513     0.0000002    0.0000006     0.0000011   -0.0000050     0.8822713   -0.1186854 
   0.222988900     0.7539003   -0.4688623    -0.0000007    0.0000006     0.0000003   -0.0000046     0.8563581   -0.2419323 
   0.224988800     0.6820957   -0.5699353    -0.0000008    0.0000000     0.0000011   -0.0000046     0.8132624   -0.3608073 
   0.226988700     0.5986598   -0.6569248     0.0000007    0.0000007     0.0000010   -0.0000052     0.7531849   -0.4723797 
   0.228988600     0.5061341   -0.7293322    -0.0000013    0.0000008     0.0000010   -0.0000049     0.6770398   -0.5746192 
   0.230988500     0.4064627   -0.7872121    -0.0000003   -0.0000015     0.0000003   -0.0000045     0.5865757   -0.6650371 
   0.232988400     0.3010239   -0.8290871    -0.0000015    0.0000012     0.0000005   -0.0000035     0.4836986   -0.7414604 
   0.234988300     0.1933292   -0.8573021    -0.0000013    0.0000012    -0.0000001   -0.0000037     0.3702638   -0.8024887 
   0.236988200     0.0840622   -0.8709473    -0.0000003    0.0000004     0.0000002   -0.0000031     0.2484725   -0.8460681 
   0.238988100    -0.0245496   -0.8705261     0.0000005   -0.0000021    -0.0000009   -0.0000034     0.1213777   -0.8712454 
   0.240988000    -0.1306094   -0.8559411    -0.0000002   -0.0000007    -0.0000004   -0.0000025    -0.0081949   -0.8771557 
   0.242987900    -0.2330076   -0.8285490    -0.0000005    0.0000004     0.0000002   -0.0000028    -0.1374932   -0.8640348 
   0.244987800    -0.3302609   -0.7885833    -0.0000002   -0.0000003     0.0000005   -0.0000013    -0.2632636   -0.8315055 
   0.246987700    -0.4219359   -0.7364469    -0.0000007   -0.0000010     0.0000014   -0.0000020    -0.3831027   -0.7804986 
   0.248987600    -0.5067517   -0.6731352    -0.0000012    0.0000005     0.0000002   -0.0000009    -0.4939177   -0.7121027 
   0.250987500    -0.5830874   -0.5989800    -0.0000009    0.0000005     0.0000013   -0.0000014    -0.5931130   -0.6280898 
   0.252987400    -0.6493224   -0.5154378    -0.0000005   -0.0000005     0.0000019   -0.0000009    -0.6782388   -0.5304183 
   0.254987300    -0.7044646   -0.4239268     0.0000005    0.0000003     0.0000026   -0.0000029    -0.7477570   -0.4210696 
   0.256987200    -0.7475407   -0.3252333    -0.0000005    0.0000006     0.0000041   -0.0000037    -0.8001366   -0.3031250 
   0.258987100    -0.7788516   -0.2205657     0.0000003   -0.0000004     0.0000048   -0.0000035    -0.8342420   -0.1789716 
   0.260987000    -0.7953954   -0.1105749    -0.0000015    0.0000004     0.0000050   -0.0000056    -0.8491864   -0.0516352 
   0.262986900    -0.7961819    0.0030266    -0.0000009   -0.0000001     0.0000042   -0.0000059    -0.8452501    0.0757005 
   0.264986800    -0.7809145    0.1182141    -0.0000019    0.0000001     0.0000045   -0.0000087    -0.8225067    0.2007963 
   0.266986700    -0.7488961    0.2319357    -0.0000013   -0.0000008     0.0000023   -0.0000097    -0.7819430    0.3204462 
   0.268986600    -0.6996349    0.3415160    -0.0000013   -0.0000001    -0.0000008   -0.0000108    -0.7246126    0.4323372 
   0.270986500    -0.6335482    0.4445220    -0.0000010   -0.0000009    -0.0000024   -0.0000100    -0.6517174    0.5340385 
   0.272986400    -0.5509023    0.5383531    -0.0000012   -0.0000016    -0.0000041   -0.0000078    -0.5654875    0.6235287 
   0.274986300    -0.4527586    0.6198977    -0.0000017   -0.0000001    -0.0000058   -0.0000063    -0.4673980    0.6993755 
   0.276986200    -0.3400448    0.6863032    -0.0000013   -0.0000008    -0.0000051   -0.0000037    -0.3598874    0.7593907 
   0.278986100    -0.2154773    0.7341302    -0.0000018    0.0000003    -0.0000015   -0.0000024    -0.2456350    0.8036537 
   0.280986000    -0.0822508    0.7610021    -0.0000024   -0.0000022    -0.0000001   -0.0000032    -0.1268108    0.8311244 
   0.282985900     0.0560908    0.7651111    -0.0000015    0.0000005    -0.0000009   -0.0000021    -0.0060177    0.8413090 
   0.284985800     0.1947058    0.7446418    -0.0000002   -0.0000014     0.0000015   -0.0000033     0.1148523    0.8342859 
   0.286985700     0.3283587    0.6999230    -0.0000010    0.0000005     0.0000032   -0.0000031     0.2329246    0.8102185 
   0.288985600     0.4518251    0.6323787    -0.0000001    0.0000001     0.0000000   -0.0000056     0.3460270    0.7701846 
   0.290985500     0.5615022    0.5440934    -0.0000008    0.0000009     0.0000011   -0.0000061     0.4524019    0.7145947 
   0.292985400     0.6533911    0.4382085    -0.0000009    0.0000011     0.0000005   -0.0000081     0.5498027    0.6445507 
   0.294985300     0.7245087    0.3184925    -0.0000011   -0.0000002     0.0000007   -0.0000099     0.6363861    0.5618923 
   0.296985200     0.7731288    0.1889170    -0.0000013    0.0000008    -0.0000038   -0.0000105     0.7104023    0.4677666 
   0.298985100     0.7983367    0.0542983    -0.0000001    0.0000011    -0.0000021   -0.0000121     0.7706854    0.3642832 
   0.300985000     0.7990658   -0.0800391    -0.0000024    0.0000020    -0.0000050   -0.0000100     0.8157072    0.2534758 
   0.302984900     0.7776424   -0.2100681    -0.0000003    0.0000007    -0.0000062   -0.0000109     0.8449494    0.1370165 
   0.304984800     0.7358024   -0.3314382     0.0000006    0.0000009    -0.0000092   -0.0000085     0.8573014    0.0173988 
   0.306984700     0.6761132   -0.4410251     0.0000004   -0.0000009    -0.0000070   -0.0000087     0.8528983   -0.1026842 
   0.308984600     0.6022854   -0.5358998    -0.0000004    0.0000004    -0.0000093   -0.0000073     0.8316721   -0.2216804 
   0.310984500     0.5173746   -0.6155152    -0.0000003   -0.0000005    -0.0000084   -0.0000044     0.7935709   -0.3368702 
   0.312984400     0.4247763   -0.6791016     0.0000008   -0.0000002    -0.0000096   -0.0000032     0.7394204   -0.4456353 
   0.314984300     0.3273697   -0.7262689    -0.0000002   -0.0000003    -0.0000102   -0.0000030     0.6697853   -0.5460480 
