! MS46122B
! 2250307/22442219
! 8/5/2025 7:39:25 AM
! C:\USERS\SPARKY\DOCUMENTS\VNA_DATA\AUGUST5_2025\3K\THRU.S2P
! CHANNEL.1
! TR.MEASUREMENT
! RAW.DATA
# GHZ S RI R 50.0
! FREQ.GHZ         S11RE         S11IM         S21RE         S21IM         S12RE         S12IM         S22RE         S22IM         
!; PortSelection: Port_12
   0.001000000     1.0443470   -0.0682102    -0.0005158   -0.0010227    -0.0004331   -0.0010481     0.8131843   -0.5565606 
   0.002999900     0.9610358   -0.1950953    -0.0239888   -0.0151793    -0.0250587   -0.0158571     0.0516499   -0.8752802 
   0.004999800     0.8724592   -0.3128236    -0.1417642    0.0263041    -0.1492790    0.0306945    -0.6990812   -0.3559864 
   0.006999700     0.7752159   -0.4067199    -0.1859466    0.1340796    -0.1907522    0.1474101    -0.7470927    0.2611130 
   0.008999600     0.5955810   -0.4109432    -0.0815921    0.5081095    -0.0639828    0.5186250     0.2620112    0.6575074 
   0.010999500     0.5555180   -0.3323383     0.3566959    0.5189929     0.3639209    0.5220034     0.5197374   -0.2089660 
   0.012999400     0.5707468   -0.3343902     0.5639498    0.2822461     0.5775000    0.2908628     0.0558678   -0.5522282 
   0.014999300     0.5645993   -0.3725702     0.6172142    0.0700952     0.6382464    0.0717619    -0.3273605   -0.4838388 
   0.016999200     0.5385399   -0.4137322     0.6121428   -0.1003082     0.6330712   -0.1091949    -0.5362480   -0.2778228 
   0.018999100     0.5014205   -0.4500394     0.5776172   -0.2457904     0.5924608   -0.2620310    -0.6100333   -0.0438242 
   0.020999000     0.4559060   -0.4786675     0.5211784   -0.3727691     0.5271465   -0.3919409    -0.5799523    0.1714437 
   0.022998900     0.4057446   -0.4980356     0.4454614   -0.4846223     0.4427483   -0.5021736    -0.4782771    0.3417048 
   0.024998800     0.3492296   -0.4829494     0.3941623   -0.5867270     0.3355858   -0.5991135    -0.3631245    0.4870110 
   0.026998700     0.3002749   -0.5033213     0.2378054   -0.6616358     0.2259022   -0.6656485    -0.1654742    0.5092880 
   0.028998600     0.2504845   -0.4891367     0.1069238   -0.7197446     0.0967807   -0.7163823     0.0019759    0.5041338 
   0.030998500     0.2062278   -0.4647755    -0.0382366   -0.7514318    -0.0435500   -0.7424061     0.1509775    0.4465334 
   0.032998400     0.1719464   -0.4150269    -0.1615481   -0.7902827    -0.1998048   -0.7398485     0.2848170    0.3813530 
   0.034998300     0.1474338   -0.3953457    -0.3464719   -0.7163160    -0.3385816   -0.7079450     0.3387327    0.2182200 
   0.036998200     0.1351038   -0.3580434    -0.4929941   -0.6466420    -0.4805520   -0.6432248     0.3598803    0.0794158 
   0.038998100     0.1336638   -0.3243975    -0.6212298   -0.5443932    -0.6088940   -0.5473285     0.3319998   -0.0515935 
   0.040998000     0.1405007   -0.2976445    -0.7234779   -0.4160656    -0.7143059   -0.4237217     0.2621160   -0.1581285 
   0.042997900     0.1523594   -0.2797767    -0.7949898   -0.2694400    -0.7908142   -0.2794249     0.1636332   -0.2289499 
   0.044997800     0.1630366   -0.2590474    -0.8602343   -0.1601105    -0.8374453   -0.1124190     0.0643177   -0.2737552 
   0.046997700     0.1756057   -0.2716332    -0.8387186    0.0442777    -0.8434467    0.0378521    -0.0564859   -0.2465840 
   0.048997600     0.1821482   -0.2779621    -0.8140031    0.1958062    -0.8198189    0.1937060    -0.1490686   -0.2000550 
   0.050997500     0.1828822   -0.2881865    -0.7635250    0.3366028    -0.7677593    0.3377629    -0.2163413   -0.1285142 
   0.052997400     0.1775532   -0.2999327    -0.6902194    0.4629037    -0.6922265    0.4659549    -0.2537021   -0.0428823 
   0.054997300     0.1666327   -0.3108630    -0.5962529    0.5749505    -0.5993385    0.5735725    -0.2599694    0.0464845 
   0.056997200     0.1506121   -0.3198716    -0.4916241    0.6643189    -0.4881735    0.6655106    -0.2381756    0.1285040 
   0.058997100     0.1316424   -0.3249351    -0.3735592    0.7368587    -0.3685393    0.7348363    -0.1922388    0.1970236 
   0.060997000     0.1109882   -0.3255347    -0.2459394    0.7890294    -0.2416146    0.7836365    -0.1287120    0.2458379 
   0.062996900     0.0898373   -0.3214323    -0.1120027    0.8202068    -0.1102728    0.8122240    -0.0550000    0.2713981 
   0.064996800     0.0703054   -0.3128595     0.0256400    0.8295917     0.0234346    0.8205323     0.0218428    0.2726171 
   0.066996700     0.0536396   -0.3005220     0.1636045    0.8171158     0.1567012    0.8081717     0.0939662    0.2505496 
   0.068996600     0.0407762   -0.2853670     0.2983176    0.7817477     0.2876211    0.7749448     0.1549579    0.2080354 
   0.070996500     0.0324054   -0.2690946     0.4264837    0.7246469     0.4127777    0.7215647     0.1996949    0.1494416 
   0.072996400     0.0286107   -0.2525171     0.5437747    0.6452762     0.5290996    0.6469651     0.2241789    0.0809932 
   0.074996300     0.0291305   -0.2374238     0.6468385    0.5468002     0.6323882    0.5532191     0.2264704    0.0093824 
   0.076996200     0.0330920   -0.2250163     0.7312397    0.4315007     0.7193481    0.4418435     0.2071143   -0.0588799 
   0.078996100     0.0393239   -0.2161790     0.7944501    0.3031229     0.7865202    0.3160962     0.1682594   -0.1168528 
   0.080996000     0.0463132   -0.2114403     0.8343161    0.1655571     0.8302747    0.1793072     0.1141786   -0.1593603 
   0.082995900     0.0526430   -0.2105764     0.8501636    0.0233183     0.8493310    0.0369944     0.0503669   -0.1827641 
   0.084995800     0.0572656   -0.2127460     0.8407569   -0.1179678     0.8427348   -0.1059345    -0.0160887   -0.1848897 
   0.086995700     0.0590806   -0.2174927     0.8083628   -0.2549475     0.8117095   -0.2448991    -0.0789748   -0.1666010 
   0.088995600     0.0575753   -0.2233777     0.7536896   -0.3837207     0.7571593   -0.3745808    -0.1321194   -0.1302850 
   0.090995500     0.0525469   -0.2292426     0.6793715   -0.5010317     0.6827698   -0.4922267    -0.1706401   -0.0804619 
   0.092995400     0.0445172   -0.2341703     0.5884778   -0.6039709     0.5914407   -0.5944933    -0.1917216   -0.0223941 
   0.094995300     0.0335832   -0.2366349     0.4823951   -0.6896266     0.4856979   -0.6803516    -0.1940758    0.0379765 
   0.096995200     0.0212567   -0.2365020     0.3647326   -0.7569072     0.3689643   -0.7470233    -0.1783949    0.0952372 
   0.098995100     0.0083724   -0.2331367     0.2382810   -0.8050352     0.2445677   -0.7947990    -0.1470293    0.1439551 
   0.100995000    -0.0058069   -0.2269305     0.1049177   -0.8331091     0.1144504   -0.8232147    -0.1012242    0.1817105 
   0.102994900    -0.0169067   -0.2170883    -0.0297474   -0.8393315    -0.0170746   -0.8308014    -0.0491087    0.2025665 
   0.104994800    -0.0254476   -0.2049640    -0.1635102   -0.8242214    -0.1485295   -0.8186253     0.0056174    0.2068650 
   0.106994700    -0.0310065   -0.1912444    -0.2938847   -0.7876620    -0.2770765   -0.7860749     0.0580182    0.1947027 
   0.108994600    -0.0333150   -0.1770599    -0.4169228   -0.7311159    -0.3998137   -0.7339203     0.1038044    0.1677782 
   0.110994500    -0.0323405   -0.1633389    -0.5300065   -0.6553093    -0.5137179   -0.6624536     0.1384496    0.1293271 
   0.112994400    -0.0284722   -0.1509022    -0.6296323   -0.5620152    -0.6157587   -0.5729863     0.1594931    0.0831321 
   0.114994300    -0.0222020   -0.1405282    -0.7131165   -0.4532778    -0.7022859   -0.4670949     0.1651792    0.0336637 
   0.116994200    -0.0142879   -0.1329615    -0.7778443   -0.3320675    -0.7706814   -0.3476507     0.1555915   -0.0142447 
   0.118994100    -0.0057209   -0.1283758    -0.8219013   -0.2016693    -0.8185806   -0.2175065     0.1321319   -0.0558378 
   0.120994000     0.0028531   -0.1266327    -0.8440750   -0.0658238    -0.8439881   -0.0809523     0.0974215   -0.0872849 
   0.122993900     0.0101705   -0.1273621    -0.8432943    0.0717839    -0.8457673    0.0579836     0.0553009   -0.1058193 
   0.124993800     0.0158667   -0.1300436    -0.8199787    0.2069898    -0.8241464    0.1950497     0.0103461   -0.1096091 
   0.126993700     0.0195222   -0.1339554    -0.7747896    0.3363975    -0.7798803    0.3256977    -0.0327715   -0.0988099 
   0.128993600     0.0211355   -0.1383117    -0.7091866    0.4561255    -0.7151066    0.4464597    -0.0696678   -0.0747840 
   0.130993500     0.0207098   -0.1425579    -0.6257686    0.5634925    -0.6324369    0.5542139    -0.0961728   -0.0405672 
   0.132993400     0.0186667   -0.1460402    -0.5264882    0.6556102    -0.5340877    0.6465622    -0.1100469   -0.0000983 
   0.134993300     0.0154229   -0.1482331    -0.4141682    0.7306344    -0.4230306    0.7217133    -0.1100382    0.0423713 
   0.136993200     0.0116023   -0.1490476    -0.2916911    0.7863585    -0.3026242    0.7781003    -0.0963448    0.0825724 
   0.138993100     0.0076923   -0.1485128    -0.1622758    0.8219724    -0.1753019    0.8151911    -0.0706378    0.1161450 
   0.140993000     0.0043427   -0.1469271    -0.0290229    0.8365387    -0.0443440    0.8318610    -0.0355820    0.1400621 
   0.142992900     0.0017671   -0.1445895     0.1048876    0.8298055     0.0878156    0.8282418     0.0054842    0.1517100 
   0.144992800     0.0001879   -0.1418925     0.2358054    0.8023418     0.2179587    0.8044421     0.0481650    0.1499884 
   0.146992700    -0.0004416   -0.1394341     0.3604183    0.7538669     0.3431257    0.7601380     0.0887408    0.1353942 
   0.148992600    -0.0002448   -0.1375989     0.4758542    0.6861231     0.4600834    0.6963376     0.1230835    0.1089649 
   0.150992500     0.0004003   -0.1365581     0.5787194    0.6009703     0.5653518    0.6142033     0.1482241    0.0733128 
   0.152992400     0.0010184   -0.1367640     0.6668771    0.5002910     0.6567977    0.5157702     0.1615733    0.0314126 
   0.154992300     0.0011702   -0.1380831     0.7373537    0.3870240     0.7309322    0.4037405     0.1619749   -0.0126980 
   0.156992200     0.0003407   -0.1402806     0.7886375    0.2639229     0.7861230    0.2811455     0.1493845   -0.0552742 
   0.158992100    -0.0018545   -0.1430342     0.8194630    0.1347971     0.8199444    0.1509048     0.1248392   -0.0923543 
   0.160992000    -0.0056233   -0.1458190     0.8291765    0.0024348     0.8320944    0.0173387     0.0904942   -0.1206960 
   0.162991900    -0.0110082   -0.1480745     0.8175527   -0.1291074     0.8223604   -0.1155980     0.0493772   -0.1378611 
   0.164991800    -0.0179600   -0.1493587     0.7852437   -0.2566120     0.7915275   -0.2448081     0.0051940   -0.1422617 
   0.166991700    -0.0260805   -0.1490163     0.7335113   -0.3769799     0.7406789   -0.3661582    -0.0381076   -0.1337523 
   0.168991600    -0.0349080   -0.1465786     0.6636924   -0.4872569     0.6717972   -0.4770722    -0.0767112   -0.1132749 
   0.170991500    -0.0439204   -0.1417715     0.5777795   -0.5849720     0.5867473   -0.5758095    -0.1074626   -0.0828599 
   0.172991400    -0.0522927   -0.1346124     0.4782206   -0.6677337     0.4884604   -0.6595142    -0.1279090   -0.0456786 
   0.174991300    -0.0594840   -0.1254013     0.3670561   -0.7340289     0.3790739   -0.7267403    -0.1366234   -0.0047682 
   0.176991200    -0.0649013   -0.1143161     0.2471005   -0.7824161     0.2606989   -0.7767093    -0.1333850    0.0361786 
   0.178991100    -0.0679867   -0.1018010     0.1213119   -0.8116963     0.1361513   -0.8081253    -0.1189377    0.0734829 
   0.180991000    -0.0684717   -0.0885980    -0.0075300   -0.8213565     0.0083269   -0.8201824    -0.0949904    0.1044273 
   0.182990900    -0.0660370   -0.0752809    -0.1370437   -0.8103986    -0.1202597   -0.8128098    -0.0639311    0.1265246 
   0.184990800    -0.0607760   -0.0627144    -0.2633013   -0.7796107    -0.2474049   -0.7850017    -0.0288434    0.1384281 
   0.186990700    -0.0529482   -0.0515175    -0.3836718   -0.7289881    -0.3692647   -0.7375520     0.0067924    0.1395505 
   0.188990600    -0.0423082   -0.0434007    -0.4739129   -0.6739496    -0.4652998   -0.6826213     0.0359286    0.1317008 
   0.190990500    -0.0314340   -0.0357701    -0.5910141   -0.5754142    -0.5819281   -0.5890564     0.0675699    0.1130530 
   0.192990400    -0.0191318   -0.0316960    -0.6777878   -0.4716966    -0.6713347   -0.4866512     0.0884552    0.0885723 
   0.194990300    -0.0066307   -0.0305628    -0.7449006   -0.3576509    -0.7413586   -0.3732009     0.0998055    0.0606860 
   0.196990200     0.0052518   -0.0321685    -0.7925671   -0.2342901    -0.7919970   -0.2496566     0.1018230    0.0320774 
   0.198990100     0.0159742   -0.0360856    -0.8198007   -0.1045429    -0.8217446   -0.1196372     0.0949588    0.0056580 
   0.200990000     0.0250259   -0.0419543    -0.8258564    0.0277154    -0.8294563    0.0134140     0.0805548   -0.0159101 
   0.202989900     0.0320651   -0.0491568    -0.8102743    0.1593414    -0.8155959    0.1460324     0.0606708   -0.0305178 
   0.204989800     0.0369587   -0.0571632    -0.7736892    0.2863687    -0.7804606    0.2743225     0.0379807   -0.0369882 
   0.206989700     0.0397964   -0.0652424    -0.7177016    0.4056656    -0.7257028    0.3940513     0.0151900   -0.0351155 
   0.208989600     0.0406668   -0.0729561    -0.6432377    0.5138825    -0.6532330    0.5031285    -0.0047383   -0.0256229 
   0.210989500     0.0399534   -0.0799525    -0.5524281    0.6090469    -0.5641044    0.5993316    -0.0193623   -0.0098589 
   0.212989400     0.0380522   -0.0858499    -0.4483135    0.6882299    -0.4612578    0.6803205    -0.0270958    0.0100103 
   0.214989300     0.0353821   -0.0905687    -0.3331729    0.7496050    -0.3473381    0.7438125    -0.0271703    0.0313612 
   0.216989200     0.0323618   -0.0940795    -0.2097508    0.7919136    -0.2256434    0.7887123    -0.0195273    0.0515757 
   0.218989100     0.0293818   -0.0964835    -0.0818148    0.8138960    -0.0986292    0.8138318    -0.0048798    0.0682087 
   0.220989000     0.0266725   -0.0980283     0.0479167    0.8158492     0.0310071    0.8188693     0.0152103    0.0792028 
   0.222988900     0.0244979   -0.0989563     0.1760945    0.7973536     0.1606935    0.8034940     0.0385481    0.0830459 
   0.224988800     0.0228947   -0.0995806     0.2999505    0.7585494     0.2865186    0.7676684     0.0625327    0.0790067 
   0.226988700     0.0219183   -0.1001646     0.4157692    0.7009585     0.4044754    0.7122489     0.0847205    0.0672055 
   0.228988600     0.0214233   -0.1009996     0.5207793    0.6258644     0.5121983    0.6387035     0.1027382    0.0485534 
   0.230988500     0.0212125   -0.1022411     0.6129350    0.5351480     0.6065776    0.5489142     0.1145730    0.0246422 
   0.232988400     0.0210630   -0.1039107     0.6886995    0.4304596     0.6854436    0.4450022     0.1187736   -0.0024058 
   0.234988300     0.0207121   -0.1062516     0.7475637    0.3158683     0.7466362    0.3296636     0.1146196   -0.0301725 
   0.236988200     0.0199086   -0.1090582     0.7872679    0.1932897     0.7883285    0.2061941     0.1022168   -0.0558880 
   0.238988100     0.0184837   -0.1122088     0.8069589    0.0661488     0.8095002    0.0778662     0.0824316   -0.0771733 
   0.240988000     0.0163120   -0.1154912     0.8060629   -0.0624574     0.8099630   -0.0509509     0.0568753   -0.0918993 
   0.242987900     0.0133389   -0.1186780     0.7851609   -0.1886404     0.7904408   -0.1773012     0.0277743   -0.0984399 
   0.244987800     0.0095186   -0.1214807     0.7442840   -0.3100806     0.7512202   -0.2984870    -0.0021319   -0.0960890 
   0.246987700     0.0049570   -0.1236848     0.6849787   -0.4229561     0.6937149   -0.4119460    -0.0300262   -0.0850199 
   0.248987600    -0.0001951   -0.1251221     0.6090876   -0.5248932     0.6192585   -0.5153900    -0.0535133   -0.0661169 
   0.250987500    -0.0057251   -0.1255687     0.5177834   -0.6135473     0.5298550   -0.6056964    -0.0703724   -0.0413029 
   0.252987400    -0.0113369   -0.1249886     0.4141150   -0.6866263     0.4280052   -0.6807280    -0.0790594   -0.0125306 
   0.254987300    -0.0167418   -0.1233977     0.3006196   -0.7423804     0.3164408   -0.7389131    -0.0789245    0.0174335 
   0.256987200    -0.0216063   -0.1206874     0.1801402   -0.7795805     0.1968394   -0.7792248    -0.0699315    0.0458696 
   0.258987100    -0.0258433   -0.1173664     0.0553304   -0.7977529     0.0724024   -0.8006130    -0.0529734    0.0702561 
   0.260987000    -0.0291888   -0.1132082    -0.0707721   -0.7959096    -0.0544695   -0.8025319    -0.0295735    0.0886112 
   0.262986900    -0.0315718   -0.1086062    -0.1949887   -0.7744013    -0.1807101   -0.7838514    -0.0020527    0.0990838 
   0.264986800    -0.0328836   -0.1038125    -0.3144381   -0.7337815    -0.3027479   -0.7455014     0.0270919    0.1009061 
   0.266986700    -0.0330915   -0.0991008    -0.4261433   -0.6746255    -0.4176062   -0.6877712     0.0554307    0.0940702 
   0.268986600    -0.0323058   -0.0948492    -0.5269744   -0.5989227    -0.5216036   -0.6127564     0.0803165    0.0793303 
   0.270986500    -0.0306145   -0.0912627    -0.6144943   -0.5080482    -0.6117313   -0.5218424     0.0994430    0.0580347 
   0.272986400    -0.0283652   -0.0885203    -0.6870474   -0.4043461    -0.6859962   -0.4180441     0.1112994    0.0321919 
   0.274986300    -0.0256750   -0.0866695    -0.7420270   -0.2903368    -0.7427240   -0.3037789     0.1148719    0.0042525 
   0.276986200    -0.0228117   -0.0857632    -0.7782248   -0.1691681    -0.7808986   -0.1823399     0.1097896   -0.0230208 
   0.278986100    -0.0200964   -0.0857720    -0.7945089   -0.0435682    -0.7986888   -0.0558357     0.0968798   -0.0472406 
   0.280986000    -0.0177090   -0.0865880    -0.7909304    0.0829412    -0.7960220    0.0714679     0.0773835   -0.0660171 
   0.282985900    -0.0158098   -0.0880882    -0.7670726    0.2069149    -0.7732223    0.1968712     0.0533028   -0.0775896 
   0.284985800    -0.0145251   -0.0901403    -0.7236947    0.3256916    -0.7310801    0.3166010     0.0272848   -0.0808814 
   0.286985700    -0.0139131   -0.0925639    -0.6619458    0.4356673    -0.6705437    0.4275972     0.0019962   -0.0756505 
   0.288985600    -0.0139518   -0.0951628    -0.5836479    0.5347376    -0.5942691    0.5272531    -0.0198974   -0.0627148 
   0.290985500    -0.0145767   -0.0978587    -0.4908020    0.6195157    -0.5033717    0.6131831    -0.0360169   -0.0434573 
   0.292985400    -0.0157191   -0.1004337    -0.3856851    0.6883315    -0.4002835    0.6841288    -0.0446895   -0.0200378 
   0.294985300    -0.0173337   -0.1028483    -0.2712565    0.7393957    -0.2868980    0.7378596    -0.0449185    0.0047617 
   0.296985200    -0.0193678   -0.1049399    -0.1504597    0.7716283    -0.1660789    0.7733250    -0.0365174    0.0282965 
   0.298985100    -0.0216801   -0.1067599    -0.0262139    0.7843022    -0.0403245    0.7889428    -0.0203593    0.0477979 
   0.300985000    -0.0240752   -0.1084178     0.0983793    0.7766818     0.0864298    0.7839404     0.0018438    0.0606661 
   0.302984900    -0.0266283   -0.1100191     0.2200959    0.7494264     0.2104849    0.7581695     0.0278848    0.0652379 
   0.304984800    -0.0293258   -0.1116982     0.3354238    0.7029302     0.3283070    0.7128897     0.0547539    0.0605766 
   0.306984700    -0.0323049   -0.1135359     0.4417299    0.6388016     0.4366018    0.6492534     0.0793308    0.0464997 
   0.308984600    -0.0356384   -0.1156499     0.5356350    0.5586615     0.5322274    0.5690442     0.0985577    0.0241347 
   0.310984500    -0.0395810   -0.1179742     0.6148797    0.4649527     0.6129427    0.4751010     0.1096480   -0.0046322 
   0.312984400    -0.0444004   -0.1203297     0.6774743    0.3600999     0.6765276    0.3702801     0.1105636   -0.0368033 
   0.314984300    -0.0503174   -0.1224893     0.7223225    0.2471820     0.7217897    0.2577685     0.1003273   -0.0687285 
