! MS46122B
! 2250307/22442219
! 8/5/2025 7:40:40 AM
! C:\USERS\SPARKY\DOCUMENTS\VNA_DATA\AUGUST5_2025\3K\THRU_REPEAT2.S2P
! CHANNEL.1
! TR.MEASUREMENT
! RAW.DATA
# GHZ S RI R 50.0
! FREQ.GHZ         S11RE         S11IM         S21RE         S21IM         S12RE         S12IM         S22RE         S22IM         
!; PortSelection: Port_12
   0.001000000     1.0443990   -0.0682169    -0.0005071   -0.0010405    -0.0004265   -0.0010413     0.8133392   -0.5563809 
   0.002999900     0.9609673   -0.1950427    -0.0239587   -0.0151828    -0.0250388   -0.0158685     0.0521467   -0.8752787 
   0.004999800     0.8724505   -0.3128435    -0.1417890    0.0261018    -0.1492632    0.0305393    -0.6991152   -0.3566347 
   0.006999700     0.7752109   -0.4066824    -0.1858719    0.1340180    -0.1907063    0.1473942    -0.7470617    0.2606271 
   0.008999600     0.5956255   -0.4107588    -0.0815379    0.5081357    -0.0638261    0.5186234     0.2622095    0.6571832 
   0.010999500     0.5555094   -0.3323153     0.3566535    0.5188897     0.3639331    0.5219874     0.5197000   -0.2090769 
   0.012999400     0.5706854   -0.3346681     0.5638248    0.2821873     0.5774803    0.2908334     0.0557829   -0.5522875 
   0.014999300     0.5645307   -0.3725920     0.6171714    0.0701074     0.6382225    0.0717382    -0.3273565   -0.4838789 
   0.016999200     0.5384986   -0.4137347     0.6121367   -0.1003535     0.6331006   -0.1091652    -0.5362765   -0.2779117 
   0.018999100     0.5014043   -0.4500335     0.5776247   -0.2457741     0.5924445   -0.2620490    -0.6100198   -0.0439015 
   0.020999000     0.4558428   -0.4786132     0.5211499   -0.3727081     0.5271497   -0.3919865    -0.5799465    0.1714154 
   0.022998900     0.4056902   -0.4979977     0.4454418   -0.4846076     0.4428101   -0.5021315    -0.4783128    0.3417028 
   0.024998800     0.3491469   -0.4829618     0.3941103   -0.5867096     0.3356246   -0.5991307    -0.3631774    0.4869992 
   0.026998700     0.3002898   -0.5032914     0.2378145   -0.6616589     0.2259304   -0.6656763    -0.1654813    0.5092563 
   0.028998600     0.2504807   -0.4890877     0.1069457   -0.7196877     0.0967337   -0.7164295     0.0019765    0.5040784 
   0.030998500     0.2062273   -0.4647971    -0.0381894   -0.7513924    -0.0435547   -0.7424472     0.1509508    0.4465050 
   0.032998400     0.1719567   -0.4149979    -0.1615137   -0.7902622    -0.1998404   -0.7398848     0.2848358    0.3813379 
   0.034998300     0.1474366   -0.3953421    -0.3465216   -0.7162287    -0.3386396   -0.7079217     0.3386956    0.2181737 
   0.036998200     0.1351040   -0.3580212    -0.4929564   -0.6466144    -0.4805177   -0.6432172     0.3598570    0.0793866 
   0.038998100     0.1336288   -0.3243655    -0.6211531   -0.5443519    -0.6089208   -0.5473079     0.3319345   -0.0515675 
   0.040998000     0.1404873   -0.2976406    -0.7233912   -0.4160306    -0.7143101   -0.4237070     0.2620744   -0.1581504 
   0.042997900     0.1522978   -0.2797451    -0.7948719   -0.2693164    -0.7908629   -0.2793823     0.1636351   -0.2289365 
   0.044997800     0.1630034   -0.2590003    -0.8601198   -0.1601842    -0.8374181   -0.1123879     0.0643396   -0.2737717 
   0.046997700     0.1755892   -0.2716031    -0.8386681    0.0442992    -0.8434799    0.0378464    -0.0564876   -0.2465801 
   0.048997600     0.1821340   -0.2779220    -0.8140093    0.1957389    -0.8198681    0.1937237    -0.1490639   -0.2000413 
   0.050997500     0.1828822   -0.2881810    -0.7634975    0.3365566    -0.7678088    0.3377886    -0.2163307   -0.1285245 
   0.052997400     0.1775458   -0.2998920    -0.6901804    0.4628791    -0.6921943    0.4659488    -0.2536707   -0.0428817 
   0.054997300     0.1666118   -0.3108400    -0.5962220    0.5749285    -0.5992575    0.5735478    -0.2599540    0.0464407 
   0.056997200     0.1505848   -0.3198301    -0.4915926    0.6642591    -0.4881391    0.6655068    -0.2381645    0.1284806 
   0.058997100     0.1316520   -0.3248847    -0.3735268    0.7367511    -0.3684990    0.7348414    -0.1922374    0.1969939 
   0.060997000     0.1109916   -0.3255093    -0.2458949    0.7890012    -0.2416118    0.7836720    -0.1286756    0.2458173 
   0.062996900     0.0898304   -0.3214348    -0.1119641    0.8201722    -0.1102323    0.8122297    -0.0549735    0.2713857 
   0.064996800     0.0703298   -0.3128395     0.0256285    0.8295817     0.0234241    0.8205345     0.0218257    0.2725935 
   0.066996700     0.0536411   -0.3004907     0.1635972    0.8170613     0.1566929    0.8081534     0.0939494    0.2505004 
   0.068996600     0.0407940   -0.2853738     0.2982967    0.7817218     0.2876353    0.7749320     0.1549382    0.2080094 
   0.070996500     0.0323936   -0.2690813     0.4264504    0.7245845     0.4127904    0.7215599     0.1996616    0.1494163 
   0.072996400     0.0286241   -0.2525156     0.5437784    0.6453096     0.5290912    0.6469511     0.2241478    0.0809727 
   0.074996300     0.0291130   -0.2373951     0.6468218    0.5467647     0.6324011    0.5532150     0.2264813    0.0093451 
   0.076996200     0.0330793   -0.2250256     0.7311537    0.4315370     0.7193725    0.4418826     0.2070739   -0.0588702 
   0.078996100     0.0393221   -0.2161792     0.7943863    0.3031225     0.7865038    0.3161249     0.1682386   -0.1168342 
   0.080996000     0.0463258   -0.2114252     0.8343268    0.1655077     0.8302616    0.1793553     0.1141473   -0.1593445 
   0.082995900     0.0526514   -0.2105475     0.8501408    0.0233286     0.8493432    0.0370240     0.0503556   -0.1827576 
   0.084995800     0.0572465   -0.2127090     0.8407369   -0.1178970     0.8427001   -0.1059071    -0.0160693   -0.1848533 
   0.086995700     0.0590882   -0.2174403     0.8083009   -0.2548843     0.8117066   -0.2448847    -0.0789639   -0.1665748 
   0.088995600     0.0575402   -0.2233552     0.7536430   -0.3836958     0.7571735   -0.3745814    -0.1321330   -0.1302732 
   0.090995500     0.0525223   -0.2292124     0.6793407   -0.5009918     0.6827553   -0.4922135    -0.1706377   -0.0804711 
   0.092995400     0.0445300   -0.2341391     0.5884563   -0.6039243     0.5914305   -0.5945435    -0.1917242   -0.0223815 
   0.094995300     0.0335742   -0.2366265     0.4823578   -0.6895612     0.4857181   -0.6804197    -0.1940613    0.0379634 
   0.096995200     0.0212465   -0.2364550     0.3646992   -0.7569025     0.3689685   -0.7470431    -0.1784041    0.0952168 
   0.098995100     0.0083638   -0.2331000     0.2382867   -0.8049986     0.2445978   -0.7948309    -0.1470233    0.1439536 
   0.100995000    -0.0057826   -0.2269243     0.1050523   -0.8330665     0.1144525   -0.8232253    -0.1012511    0.1816700 
   0.102994900    -0.0169049   -0.2170716    -0.0297293   -0.8393394    -0.0170888   -0.8308368    -0.0491086    0.2025615 
   0.104994800    -0.0254203   -0.2049482    -0.1633597   -0.8242264    -0.1485142   -0.8186269     0.0056081    0.2068413 
   0.106994700    -0.0309979   -0.1912158    -0.2937717   -0.7875373    -0.2770917   -0.7860543     0.0580361    0.1946951 
   0.108994600    -0.0332990   -0.1770410    -0.4168492   -0.7310436    -0.3998224   -0.7339472     0.1037932    0.1677707 
   0.110994500    -0.0323417   -0.1633425    -0.5300087   -0.6553178    -0.5137670   -0.6624112     0.1384622    0.1293055 
   0.112994400    -0.0285019   -0.1509025    -0.6296309   -0.5619956    -0.6157861   -0.5729884     0.1594760    0.0831290 
   0.114994300    -0.0222037   -0.1405033    -0.7131290   -0.4532590    -0.7023138   -0.4670713     0.1651697    0.0336694 
   0.116994200    -0.0143083   -0.1329520    -0.7778190   -0.3319787    -0.7706934   -0.3476424     0.1555793   -0.0142435 
   0.118994100    -0.0056996   -0.1283668    -0.8219151   -0.2017941    -0.8185950   -0.2174953     0.1321048   -0.0558267 
   0.120994000     0.0028614   -0.1266219    -0.8440460   -0.0658279    -0.8439829   -0.0808192     0.0974041   -0.0873058 
   0.122993900     0.0101790   -0.1273490    -0.8432661    0.0717853    -0.8457476    0.0579974     0.0553064   -0.1058054 
   0.124993800     0.0158728   -0.1300233    -0.8200155    0.2069592    -0.8241536    0.1950491     0.0103423   -0.1095993 
   0.126993700     0.0195118   -0.1339487    -0.7747207    0.3365189    -0.7798569    0.3256724    -0.0327720   -0.0987909 
   0.128993600     0.0211317   -0.1383046    -0.7091842    0.4561530    -0.7150862    0.4464897    -0.0696604   -0.0747871 
   0.130993500     0.0207200   -0.1425439    -0.6258036    0.5634307    -0.6324227    0.5542031    -0.0961813   -0.0405632 
   0.132993400     0.0186557   -0.1460067    -0.5264848    0.6555990    -0.5341053    0.6465685    -0.1100587   -0.0001097 
   0.134993300     0.0154334   -0.1482083    -0.4142060    0.7306052    -0.4230470    0.7217273    -0.1100339    0.0423810 
   0.136993200     0.0116020   -0.1490234    -0.2916548    0.7863722    -0.3025950    0.7781208    -0.0963283    0.0825549 
   0.138993100     0.0076870   -0.1484977    -0.1621964    0.8219078    -0.1753525    0.8151497    -0.0706492    0.1161437 
   0.140993000     0.0043280   -0.1469056    -0.0289221    0.8364528    -0.0443222    0.8318617    -0.0355796    0.1400717 
   0.142992900     0.0017833   -0.1445888     0.1048408    0.8299345     0.0878275    0.8282546     0.0054836    0.1517171 
   0.144992800     0.0002001   -0.1418947     0.2358575    0.8023892     0.2179412    0.8044673     0.0481540    0.1499957 
   0.146992700    -0.0004342   -0.1394315     0.3604017    0.7538605     0.3431567    0.7601643     0.0887537    0.1353825 
   0.148992600    -0.0002636   -0.1375939     0.4757296    0.6861914     0.4600397    0.6963152     0.1230681    0.1089521 
   0.150992500     0.0003920   -0.1365587     0.5787064    0.6009707     0.5653644    0.6141776     0.1482191    0.0732859 
   0.152992400     0.0010168   -0.1367470     0.6668985    0.5002832     0.6567529    0.5158205     0.1615574    0.0314043 
   0.154992300     0.0011875   -0.1380629     0.7372701    0.3871497     0.7309833    0.4037423     0.1619665   -0.0126928 
   0.156992200     0.0003488   -0.1402804     0.7886286    0.2639250     0.7861581    0.2810952     0.1493662   -0.0552849 
   0.158992100    -0.0018483   -0.1430315     0.8194599    0.1348017     0.8199434    0.1509079     0.1248261   -0.0923405 
   0.160992000    -0.0056146   -0.1458184     0.8291752    0.0024398     0.8320936    0.0173441     0.0904812   -0.1206772 
   0.162991900    -0.0110104   -0.1480796     0.8175432   -0.1290488     0.8224317   -0.1156590     0.0493865   -0.1378469 
   0.164991800    -0.0179743   -0.1493609     0.7852230   -0.2567921     0.7915626   -0.2448134     0.0052070   -0.1422570 
   0.166991700    -0.0260811   -0.1489903     0.7334915   -0.3769960     0.7406377   -0.3661535    -0.0380972   -0.1337485 
   0.168991600    -0.0349093   -0.1465784     0.6636804   -0.4872818     0.6718294   -0.4770527    -0.0767200   -0.1132670 
   0.170991500    -0.0439034   -0.1417834     0.5778745   -0.5848306     0.5867469   -0.5758542    -0.1074585   -0.0828616 
   0.172991400    -0.0522854   -0.1346004     0.4781771   -0.6677480     0.4884675   -0.6595238    -0.1279091   -0.0456939 
   0.174991300    -0.0594767   -0.1254002     0.3670473   -0.7340326     0.3790670   -0.7267380    -0.1366186   -0.0047856 
   0.176991200    -0.0648916   -0.1143111     0.2471444   -0.7823734     0.2607039   -0.7767385    -0.1333690    0.0361648 
   0.178991100    -0.0680113   -0.1017873     0.1212152   -0.8118722     0.1361630   -0.8081374    -0.1189342    0.0734749 
   0.180991000    -0.0684698   -0.0885879    -0.0075736   -0.8213754     0.0083046   -0.8201866    -0.0949825    0.1043930 
   0.182990900    -0.0660401   -0.0752745    -0.1370475   -0.8103842    -0.1202815   -0.8127956    -0.0639227    0.1264997 
   0.184990800    -0.0607701   -0.0627080    -0.2633562   -0.7794662    -0.2474516   -0.7849976    -0.0288371    0.1384153 
   0.186990700    -0.0529540   -0.0515240    -0.3836830   -0.7289610    -0.3692640   -0.7375602     0.0067866    0.1395614 
   0.188990600    -0.0423109   -0.0433959    -0.4739124   -0.6738780    -0.4653279   -0.6826192     0.0359267    0.1317137 
   0.190990500    -0.0314192   -0.0357812    -0.5910494   -0.5752047    -0.5819547   -0.5890390     0.0675733    0.1130444 
   0.192990400    -0.0191196   -0.0316982    -0.6778231   -0.4714249    -0.6713689   -0.4866414     0.0884382    0.0885770 
   0.194990300    -0.0066387   -0.0305879    -0.7448593   -0.3575756    -0.7413729   -0.3731899     0.0998249    0.0606747 
   0.196990200     0.0052437   -0.0321580    -0.7925307   -0.2341790    -0.7920229   -0.2496352     0.1017827    0.0320699 
   0.198990100     0.0159764   -0.0361002    -0.8198189   -0.1045159    -0.8217252   -0.1196325     0.0949390    0.0056481 
   0.200990000     0.0250269   -0.0419696    -0.8258416    0.0277885    -0.8295475    0.0135491     0.0805319   -0.0159289 
   0.202989900     0.0320631   -0.0491607    -0.8102934    0.1593785    -0.8156273    0.1460728     0.0606549   -0.0304989 
   0.204989800     0.0369515   -0.0571564    -0.7737795    0.2862802    -0.7805352    0.2742701     0.0379686   -0.0369859 
   0.206989700     0.0397880   -0.0652377    -0.7176415    0.4056104    -0.7257286    0.3940713     0.0151699   -0.0351047 
   0.208989600     0.0406819   -0.0729571    -0.6431438    0.5141257    -0.6532295    0.5031611    -0.0047427   -0.0256094 
   0.210989500     0.0399498   -0.0799300    -0.5525739    0.6089695    -0.5641448    0.5993615    -0.0193678   -0.0098565 
   0.212989400     0.0380457   -0.0858599    -0.4481985    0.6882579    -0.4612647    0.6803350    -0.0271023    0.0100235 
   0.214989300     0.0353785   -0.0905705    -0.3331123    0.7496177    -0.3473282    0.7438048    -0.0271707    0.0313727 
   0.216989200     0.0323708   -0.0940633    -0.2097560    0.7919119    -0.2256443    0.7887350    -0.0195252    0.0515856 
   0.218989100     0.0293774   -0.0964760    -0.0818252    0.8139159    -0.0986198    0.8138580    -0.0048832    0.0682315 
   0.220989000     0.0266673   -0.0980257     0.0479002    0.8158728     0.0310280    0.8189093     0.0152181    0.0792033 
   0.222988900     0.0245077   -0.0989466     0.1759339    0.7972800     0.1607118    0.8035148     0.0385456    0.0830611 
   0.224988800     0.0228992   -0.0995662     0.2999336    0.7585686     0.2865211    0.7676709     0.0625262    0.0790166 
   0.226988700     0.0219136   -0.1001512     0.4157211    0.7009914     0.4045476    0.7121535     0.0847151    0.0671984 
   0.228988600     0.0214390   -0.1009741     0.5205980    0.6258842     0.5121402    0.6387832     0.1027293    0.0485649 
   0.230988500     0.0212324   -0.1022360     0.6129229    0.5351525     0.6065790    0.5489330     0.1145853    0.0246544 
   0.232988400     0.0210717   -0.1039232     0.6887655    0.4306110     0.6855143    0.4451450     0.1188053   -0.0023925 
   0.234988300     0.0207118   -0.1062556     0.7475833    0.3158266     0.7466468    0.3297024     0.1146189   -0.0301535 
   0.236988200     0.0199106   -0.1090562     0.7872928    0.1932610     0.7883595    0.2061466     0.1022254   -0.0558929 
   0.238988100     0.0184718   -0.1122013     0.8068501    0.0660025     0.8095252    0.0778844     0.0824392   -0.0771559 
   0.240988000     0.0163170   -0.1155014     0.8062097   -0.0623959     0.8099836   -0.0509140     0.0568848   -0.0918771 
   0.242987900     0.0133482   -0.1186531     0.7849800   -0.1888552     0.7904685   -0.1772980     0.0277931   -0.0984577 
   0.244987800     0.0095199   -0.1214695     0.7442640   -0.3100930     0.7512199   -0.2985185    -0.0021198   -0.0960893 
   0.246987700     0.0049507   -0.1236819     0.6849391   -0.4230133     0.6937042   -0.4119740    -0.0300311   -0.0850065 
   0.248987600    -0.0001885   -0.1251217     0.6091143   -0.5248837     0.6192486   -0.5153944    -0.0535010   -0.0661223 
   0.250987500    -0.0057233   -0.1255575     0.5177512   -0.6135713     0.5298829   -0.6057053    -0.0703552   -0.0413005 
   0.252987400    -0.0113397   -0.1249648     0.4140912   -0.6866043     0.4279946   -0.6807401    -0.0790554   -0.0125305 
   0.254987300    -0.0167400   -0.1233875     0.3006369   -0.7423820     0.3164636   -0.7389157    -0.0789094    0.0174289 
   0.256987200    -0.0216038   -0.1207020     0.1801201   -0.7795956     0.1968629   -0.7792466    -0.0699262    0.0458537 
   0.258987100    -0.0258180   -0.1173716     0.0553449   -0.7976978     0.0724344   -0.8006507    -0.0529768    0.0702494 
   0.260987000    -0.0291801   -0.1132156    -0.0707819   -0.7959220    -0.0544709   -0.8025099    -0.0295731    0.0885973 
   0.262986900    -0.0315587   -0.1085960    -0.1950091   -0.7743770    -0.1807361   -0.7838667    -0.0020666    0.0990695 
   0.264986800    -0.0328991   -0.1038055    -0.3145241   -0.7337307    -0.3029127   -0.7454401     0.0270904    0.1008887 
   0.266986700    -0.0330982   -0.0990989    -0.4261337   -0.6746226    -0.4176010   -0.6877615     0.0554224    0.0940540 
   0.268986600    -0.0323232   -0.0948515    -0.5270777   -0.5989764    -0.5216287   -0.6127488     0.0803051    0.0793159 
   0.270986500    -0.0306409   -0.0912623    -0.6145994   -0.5079494    -0.6117727   -0.5218589     0.0994146    0.0580174 
   0.272986400    -0.0283737   -0.0885187    -0.6870223   -0.4043142    -0.6860153   -0.4180461     0.1113077    0.0321774 
   0.274986300    -0.0256690   -0.0866794    -0.7420005   -0.2903596    -0.7427667   -0.3037826     0.1148654    0.0042464 
   0.276986200    -0.0228256   -0.0857675    -0.7782585   -0.1691645    -0.7809257   -0.1823389     0.1097885   -0.0230115 
   0.278986100    -0.0201035   -0.0857690    -0.7945023   -0.0435459    -0.7987066   -0.0558265     0.0968682   -0.0472513 
   0.280986000    -0.0177071   -0.0865878    -0.7909017    0.0828277    -0.7960514    0.0714786     0.0773630   -0.0660187 
   0.282985900    -0.0158062   -0.0881021    -0.7670599    0.2069163    -0.7732178    0.1968525     0.0532867   -0.0775966 
   0.284985800    -0.0145250   -0.0901418    -0.7237390    0.3256083    -0.7310840    0.3165957     0.0272653   -0.0808756 
   0.286985700    -0.0139353   -0.0925508    -0.6618465    0.4358178    -0.6705413    0.4275880     0.0019779   -0.0756447 
   0.288985600    -0.0139582   -0.0951483    -0.5836475    0.5347620    -0.5943115    0.5272982    -0.0198997   -0.0627127 
   0.290985500    -0.0145782   -0.0978472    -0.4907782    0.6195186    -0.5033548    0.6131744    -0.0360344   -0.0434583 
   0.292985400    -0.0157191   -0.1004215    -0.3857549    0.6882794    -0.4003281    0.6841438    -0.0447049   -0.0200376 
   0.294985300    -0.0173360   -0.1028176    -0.2712297    0.7393897    -0.2868853    0.7378515    -0.0449086    0.0047716 
   0.296985200    -0.0193645   -0.1049356    -0.1504559    0.7716355    -0.1660793    0.7733381    -0.0365342    0.0283251 
   0.298985100    -0.0216884   -0.1067705    -0.0261916    0.7842778    -0.0403015    0.7889861    -0.0203561    0.0478121 
   0.300985000    -0.0240948   -0.1084035     0.0984750    0.7766814     0.0865777    0.7839357     0.0018570    0.0606587 
   0.302984900    -0.0266164   -0.1099991     0.2200620    0.7493748     0.2104617    0.7581900     0.0278862    0.0652488 
   0.304984800    -0.0293399   -0.1116728     0.3355081    0.7028755     0.3282965    0.7129148     0.0547505    0.0605859 
   0.306984700    -0.0323024   -0.1135240     0.4417223    0.6388019     0.4366387    0.6492846     0.0793394    0.0465124 
   0.308984600    -0.0356436   -0.1156477     0.5355830    0.5586760     0.5322474    0.5690758     0.0985698    0.0241323 
   0.310984500    -0.0395601   -0.1179763     0.6147666    0.4650562     0.6129653    0.4752014     0.1096382   -0.0046274 
   0.312984400    -0.0444187   -0.1203153     0.6775415    0.3600920     0.6765597    0.3702787     0.1105573   -0.0368156 
   0.314984300    -0.0503266   -0.1224708     0.7222261    0.2471911     0.7218803    0.2578153     0.1003385   -0.0687213 
