! MS46122B
! 2250307/22442219
! 8/4/2025 1:34:37 PM
! C:\USERS\SPARKY\DOCUMENTS\VNA_DATA\AUGUST4_2025\295K\THRU.S2P
! CHANNEL.1
! TR.MEASUREMENT
! RAW.DATA
# GHZ S RI R 50.0
! FREQ.GHZ         S11RE         S11IM         S21RE         S21IM         S12RE         S12IM         S22RE         S22IM         
!; PortSelection: Port_12
   0.001000000     1.0444620   -0.0680218    -0.0004159   -0.0010362    -0.0003903   -0.0010519     0.8144334   -0.5545872 
   0.002999900     0.9609153   -0.1948588    -0.0236382   -0.0153539    -0.0246675   -0.0160321     0.0559589   -0.8760602 
   0.004999800     0.8714945   -0.3120328    -0.1408504    0.0260521    -0.1481458    0.0301944    -0.6984228   -0.3639884 
   0.006999700     0.7740842   -0.4059171    -0.1847786    0.1322216    -0.1894950    0.1452497    -0.7500572    0.2556331 
   0.008999600     0.5934368   -0.4068378    -0.0792264    0.5055885    -0.0616480    0.5157616     0.2469628    0.6590438 
   0.010999500     0.5562513   -0.3265936     0.3574760    0.5115336     0.3647502    0.5141445     0.5052399   -0.1892601 
   0.012999400     0.5734118   -0.3290317     0.5600226    0.2739275     0.5732250    0.2816875     0.0564130   -0.5219240 
   0.014999300     0.5681841   -0.3674280     0.6098492    0.0629400     0.6298743    0.0639543    -0.3106765   -0.4541885 
   0.016999200     0.5433778   -0.4088602     0.6021272   -0.1058234     0.6216518   -0.1146199    -0.5069972   -0.2554654 
   0.018999100     0.5074241   -0.4453865     0.5652914   -0.2488627     0.5788087   -0.2644019    -0.5724860   -0.0322833 
   0.020999000     0.4635313   -0.4742659     0.5069325   -0.3728440     0.5120020   -0.3907481    -0.5389965    0.1701833 
   0.022998900     0.4147101   -0.4943236     0.4300171   -0.4810115     0.4270248   -0.4971746    -0.4382285    0.3277484 
   0.024998800     0.3593388   -0.4803940     0.3772912   -0.5793173     0.3203243   -0.5896198    -0.3252684    0.4603716 
   0.026998700     0.3123289   -0.5026137     0.2230723   -0.6489793     0.2120519   -0.6520379    -0.1393711    0.4747801 
   0.028998600     0.2637916   -0.4906511     0.0946470   -0.7022516     0.0855216   -0.6986523     0.0169773    0.4642047 
   0.030998500     0.2202901   -0.4692921    -0.0463753   -0.7297667    -0.0508193   -0.7211221     0.1540248    0.4050749 
   0.032998400     0.1853760   -0.4222139    -0.1654819   -0.7648610    -0.2018164   -0.7158055     0.2765760    0.3392325 
   0.034998300     0.1598407   -0.4064493    -0.3424159   -0.6905975    -0.3347452   -0.6828935     0.3207702    0.1856030 
   0.036998200     0.1452823   -0.3721759    -0.4819981   -0.6219770    -0.4702583   -0.6188421     0.3355688    0.0554386 
   0.038998100     0.1404776   -0.3407058    -0.6039737   -0.5229017    -0.5924253   -0.5254725     0.3049507   -0.0657035 
   0.040998000     0.1435073   -0.3151188    -0.7012525   -0.3993045    -0.6926867   -0.4061024     0.2362366   -0.1630698 
   0.042997900     0.1513717   -0.2972226    -0.7695721   -0.2585623    -0.7654307   -0.2675212     0.1418698   -0.2264611 
   0.044997800     0.1589154   -0.2748887    -0.8325720   -0.1537998    -0.8099611   -0.1071896     0.0468729   -0.2663090 
   0.046997700     0.1680555   -0.2857107    -0.8121970    0.0431120    -0.8159876    0.0371799    -0.0661845   -0.2373516 
   0.048997600     0.1725226   -0.2893926    -0.7891913    0.1892980    -0.7937737    0.1873160    -0.1530651   -0.1913233 
   0.050997500     0.1721476   -0.2967425    -0.7409091    0.3257715    -0.7441897    0.3265048    -0.2158361   -0.1220023 
   0.052997400     0.1669992   -0.3052630    -0.6712355    0.4474362    -0.6725793    0.4497195    -0.2502212   -0.0400917 
   0.054997300     0.1557190   -0.3142481    -0.5799356    0.5575182    -0.5815957    0.5562559    -0.2552232    0.0456852 
   0.056997200     0.1409843   -0.3209284    -0.4785088    0.6449983    -0.4748493    0.6454521    -0.2336191    0.1240576 
   0.058997100     0.1233828   -0.3243994    -0.3636981    0.7157639    -0.3588334    0.7132550    -0.1891220    0.1893841 
   0.060997000     0.1043235   -0.3239469    -0.2395626    0.7668616    -0.2354470    0.7611103    -0.1279737    0.2357771 
   0.062996900     0.0847588   -0.3193431    -0.1090635    0.7971303    -0.1075736    0.7890528    -0.0573251    0.2598339 
   0.064996800     0.0668391   -0.3108031     0.0247939    0.8062176     0.0224749    0.7971166     0.0160772    0.2607769 
   0.066996700     0.0515217   -0.2989418     0.1587839    0.7937248     0.1520900    0.7848324     0.0848305    0.2394643 
   0.068996600     0.0396585   -0.2846537     0.2896468    0.7591661     0.2792513    0.7522697     0.1427377    0.1987578 
   0.070996500     0.0318356   -0.2694885     0.4139543    0.7033309     0.4006328    0.7000183     0.1851176    0.1429508 
   0.072996400     0.0281285   -0.2540812     0.5273727    0.6261841     0.5130962    0.6273344     0.2081767    0.0778874 
   0.074996300     0.0282799   -0.2401057     0.6269912    0.5306650     0.6127356    0.5362698     0.2101261    0.0100217 
   0.076996200     0.0314376   -0.2285907     0.7084873    0.4190789     0.6965939    0.4283775     0.1915878   -0.0545404 
   0.078996100     0.0365587   -0.2203158     0.7694417    0.2948728     0.7607480    0.3065929     0.1546416   -0.1092373 
   0.080996000     0.0422714   -0.2157001     0.8081247    0.1620228     0.8033147    0.1750105     0.1033413   -0.1492797 
   0.082995900     0.0472954   -0.2145317     0.8236316    0.0246395     0.8217853    0.0377220     0.0429391   -0.1712232 
   0.084995800     0.0507194   -0.2159549     0.8149299   -0.1117921     0.8157364   -0.1000594    -0.0199790   -0.1730507 
   0.086995700     0.0516174   -0.2196106     0.7839056   -0.2442535     0.7857609   -0.2340510    -0.0795415   -0.1556330 
   0.088995600     0.0494424   -0.2241816     0.7317665   -0.3688651     0.7343442   -0.3594961    -0.1300351   -0.1211502 
   0.090995500     0.0440310   -0.2285495     0.6603442   -0.4824977     0.6631321   -0.4734897    -0.1667037   -0.0737810 
   0.092995400     0.0360857   -0.2319962     0.5730329   -0.5827256     0.5755693   -0.5728123    -0.1869436   -0.0185168 
   0.094995300     0.0257782   -0.2331631     0.4708075   -0.6661946     0.4737491   -0.6562296    -0.1894920    0.0391177 
   0.096995200     0.0143334   -0.2317053     0.3572173   -0.7319459     0.3613492   -0.7217952    -0.1749210    0.0939820 
   0.098995100     0.0024739   -0.2273553     0.2350153   -0.7792295     0.2411759   -0.7688982    -0.1453500    0.1409798 
   0.100995000    -0.0106118   -0.2203947     0.1056619   -0.8073218     0.1149551   -0.7973103    -0.1017812    0.1777424 
   0.102994900    -0.0202749   -0.2101884    -0.0248591   -0.8140399    -0.0125545   -0.8053643    -0.0520333    0.1985360 
   0.104994800    -0.0275460   -0.1979721    -0.1547574   -0.7998950    -0.1401312   -0.7939608     0.0004070    0.2036041 
   0.106994700    -0.0318281   -0.1844359    -0.2810135   -0.7651197    -0.2647631   -0.7630900     0.0509244    0.1929962 
   0.108994600    -0.0330038   -0.1707041    -0.4005823   -0.7109217    -0.3837767   -0.7129475     0.0953973    0.1681999 
   0.110994500    -0.0310945   -0.1576174    -0.5104049   -0.6378966    -0.4945466   -0.6441119     0.1295980    0.1322818 
   0.112994400    -0.0265574   -0.1458925    -0.6074535   -0.5479540    -0.5936270   -0.5579022     0.1509877    0.0887439 
   0.114994300    -0.0197108   -0.1363866    -0.6887571   -0.4429633    -0.6775823   -0.4557422     0.1578831    0.0418009 
   0.116994200    -0.0114971   -0.1297667    -0.7519600   -0.3260109    -0.7441599   -0.3404808     0.1503281   -0.0041207 
   0.118994100    -0.0028664   -0.1260476    -0.7950866   -0.1999636    -0.7909044   -0.2149051     0.1295117   -0.0443262 
   0.120994000     0.0055705   -0.1251044    -0.8170390   -0.0685924    -0.8161196   -0.0829329     0.0978721   -0.0752432 
   0.122993900     0.0126283   -0.1265433    -0.8169090    0.0644072    -0.8185238    0.0510619     0.0589203   -0.0942237 
   0.124993800     0.0179383   -0.1298062    -0.7950614    0.1952899    -0.7981091    0.1831922     0.0169144   -0.0994996 
   0.126993700     0.0211104   -0.1341758    -0.7522097    0.3206254    -0.7564009    0.3097672    -0.0238490   -0.0910787 
   0.128993600     0.0221663   -0.1388827    -0.6894138    0.4367591    -0.6945957    0.4268080    -0.0592279   -0.0701033 
   0.130993500     0.0211520   -0.1433291    -0.6094837    0.5408957    -0.6154559    0.5314300    -0.0852042   -0.0392856 
   0.132993400     0.0184855   -0.1468820    -0.5141352    0.6305431    -0.5212277    0.6211660    -0.0996474   -0.0022324 
   0.134993300     0.0146062   -0.1489891    -0.4061032    0.7035697    -0.4145404    0.6944921    -0.1012515    0.0371072 
   0.136993200     0.0101346   -0.1495952    -0.2883124    0.7583593    -0.2987046    0.7498048    -0.0901532    0.0747459 
   0.138993100     0.0056492   -0.1487215    -0.1636923    0.7936360    -0.1761152    0.7865743    -0.0676973    0.1067372 
   0.140993000     0.0017473   -0.1466265    -0.0351394    0.8087394    -0.0498230    0.8036249    -0.0363218    0.1301109 
   0.142992900    -0.0013004   -0.1435779     0.0940359    0.8032723     0.0775856    0.8011096     0.0010413    0.1424457 
   0.144992800    -0.0032405   -0.1401221     0.2205316    0.7779973     0.2034446    0.7793693     0.0403809    0.1424688 
   0.146992700    -0.0040297   -0.1367180     0.3411523    0.7325044     0.3244814    0.7376968     0.0781801    0.1305461 
   0.148992600    -0.0038118   -0.1338283     0.4534048    0.6682605     0.4378419    0.6772395     0.1107374    0.1077310 
   0.150992500    -0.0028433   -0.1317035     0.5535055    0.5871615     0.5400281    0.5990738     0.1351550    0.0760262 
   0.152992400    -0.0016555   -0.1307970     0.6396300    0.4909385     0.6291873    0.5051718     0.1489597    0.0382489 
   0.154992300    -0.0006811   -0.1310620     0.7090693    0.3823840     0.7020086    0.3979611     0.1510014   -0.0019997 
   0.156992200    -0.0003775   -0.1323759     0.7601101    0.2640568     0.7565593    0.2801451     0.1411146   -0.0411680 
   0.158992100    -0.0011869   -0.1344580     0.7914537    0.1396240     0.7908618    0.1551005     0.1201952   -0.0758421 
   0.160992000    -0.0033628   -0.1368595     0.8022872    0.0117476     0.8041465    0.0263459     0.0900516   -0.1026992 
   0.162991900    -0.0070531   -0.1390515     0.7927493   -0.1157198     0.7966393   -0.1022644     0.0534234   -0.1196262 
   0.164991800    -0.0122250   -0.1405618     0.7630233   -0.2396583     0.7680239   -0.2275471     0.0136612   -0.1250174 
   0.166991700    -0.0185974   -0.1408353     0.7144181   -0.3566372     0.7206656   -0.3456530    -0.0256755   -0.1186284 
   0.168991600    -0.0258013   -0.1394719     0.6478658   -0.4641424     0.6554339   -0.4538887    -0.0610883   -0.1012044 
   0.170991500    -0.0334540   -0.1361814     0.5658607   -0.5598333     0.5741554   -0.5504022    -0.0894691   -0.0745342 
   0.172991400    -0.0407758   -0.1308883     0.4703076   -0.6409910     0.4799135   -0.6323449    -0.1086238   -0.0415350 
   0.174991300    -0.0472586   -0.1236504     0.3632275   -0.7063009     0.3746194   -0.6987536    -0.1171836   -0.0049371 
   0.176991200    -0.0523816   -0.1146595     0.2475056   -0.7543448     0.2606294   -0.7481376    -0.1149054    0.0317985 
   0.178991100    -0.0555765   -0.1043058     0.1260941   -0.7836460     0.1403093   -0.7796624    -0.1024022    0.0654804 
   0.180991000    -0.0566577   -0.0931347     0.0015997   -0.7942037     0.0167318   -0.7923429    -0.0811334    0.0934381 
   0.182990900    -0.0552221   -0.0817486    -0.1236736   -0.7845989    -0.1075174   -0.7860756    -0.0533244    0.1135002 
   0.184990800    -0.0513547   -0.0708248    -0.2457806   -0.7558180    -0.2302488   -0.7603157    -0.0217947    0.1243476 
   0.186990700    -0.0452336   -0.0609565    -0.3621899   -0.7081928    -0.3480892   -0.7153522     0.0102780    0.1253683 
   0.188990600    -0.0362035   -0.0535565    -0.4497043   -0.6559865    -0.4409636   -0.6635516     0.0365563    0.1183617 
   0.190990500    -0.0275634   -0.0464993    -0.5635306   -0.5619847    -0.5538906   -0.5744622     0.0651982    0.1012786 
   0.192990400    -0.0173263   -0.0424929    -0.6479663   -0.4629474    -0.6409589   -0.4770520     0.0840196    0.0789888 
   0.194990300    -0.0066863   -0.0409324    -0.7135889   -0.3540845    -0.7093738   -0.3688217     0.0941997    0.0535146 
   0.196990200     0.0035364   -0.0417000    -0.7609456   -0.2360767    -0.7593384   -0.2507935     0.0957939    0.0273485 
   0.198990100     0.0129220   -0.0445506    -0.7887092   -0.1117906    -0.7893034   -0.1265174     0.0893090    0.0031279 
   0.200990000     0.0209731   -0.0491543    -0.7961146    0.0153012    -0.7987660    0.0012621     0.0758661   -0.0166161 
   0.202989900     0.0273393   -0.0549755    -0.7829762    0.1419018    -0.7873368    0.1286510     0.0573931   -0.0299952 
   0.204989800     0.0319263   -0.0615320    -0.7496732    0.2644441    -0.7554722    0.2524100     0.0362501   -0.0359149 
   0.206989700     0.0348072   -0.0683304    -0.6977406    0.3798376    -0.7047865    0.3682979     0.0149699   -0.0341111 
   0.208989600     0.0359733   -0.0749325    -0.6277149    0.4851302    -0.6368139    0.4742846    -0.0037034   -0.0252312 
   0.210989500     0.0358117   -0.0809574    -0.5419888    0.5780106    -0.5527219    0.5680633    -0.0175245   -0.0104975 
   0.212989400     0.0345728   -0.0861868    -0.4429385    0.6558462    -0.4550340    0.6475127    -0.0249584    0.0081441 
   0.214989300     0.0326086   -0.0904557    -0.3332515    0.7166616    -0.3466181    0.7104610    -0.0252839    0.0282654 
   0.216989200     0.0303321   -0.0937498    -0.2153370    0.7594187    -0.2303123    0.7556037    -0.0184017    0.0474432 
   0.218989100     0.0279670   -0.0961901    -0.0926428    0.7828004    -0.1085714    0.7818738    -0.0049210    0.0633765 
   0.220989000     0.0258026   -0.0979162     0.0320463    0.7867702     0.0159745    0.7887911     0.0137539    0.0741321 
   0.222988900     0.0239868   -0.0991543     0.1557077    0.7710941     0.1408083    0.7760640     0.0355880    0.0782905 
   0.224988800     0.0225802   -0.1001143     0.2754719    0.7359024     0.2620559    0.7436192     0.0582357    0.0750809 
   0.226988700     0.0216266   -0.1010822     0.3879133    0.6823943     0.3765613    0.6924472     0.0793577    0.0645849 
   0.228988600     0.0210229   -0.1022209     0.4902511    0.6121117     0.4810422    0.6239082     0.0967676    0.0475785 
   0.230988500     0.0205851   -0.1037024     0.5802734    0.5264524     0.5733350    0.5392354     0.1085603    0.0254523 
   0.232988400     0.0201017   -0.1054755     0.6551505    0.4272681     0.6510808    0.4408270     0.1132656    0.0002499 
   0.234988300     0.0194094   -0.1077947     0.7137337    0.3182608     0.7116901    0.3313366     0.1101985   -0.0258268 
   0.236988200     0.0182599   -0.1104281     0.7539945    0.2010622     0.7542881    0.2135971     0.0993984   -0.0502947 
   0.238988100     0.0165490   -0.1133107     0.7754485    0.0793609     0.7769432    0.0909602     0.0815806   -0.0708025 
   0.240988000     0.0141829   -0.1162089     0.7772242   -0.0439706     0.7800944   -0.0327805     0.0581741   -0.0854275 
   0.242987900     0.0110999   -0.1189480     0.7594022   -0.1659518     0.7635658   -0.1545997     0.0312151   -0.0925674 
   0.244987800     0.0073260   -0.1212976     0.7225130   -0.2831941     0.7286631   -0.2716444     0.0031888   -0.0914112 
   0.246987700     0.0029496   -0.1230616     0.6680340   -0.3929937     0.6757976   -0.3820163    -0.0232698   -0.0820410 
   0.248987600    -0.0018808   -0.1240588     0.5972182   -0.4923512     0.6063666   -0.4828213    -0.0458895   -0.0652586 
   0.250987500    -0.0070051   -0.1241971     0.5112749   -0.5795270     0.5223764   -0.5713468    -0.0625268   -0.0427214 
   0.252987400    -0.0121269   -0.1233832     0.4131507   -0.6518966     0.4261674   -0.6456171    -0.0717052   -0.0162310 
   0.254987300    -0.0169871   -0.1216997     0.3053540   -0.7080191     0.3201088   -0.7038115    -0.0727105    0.0117299 
   0.256987200    -0.0213324   -0.1191664     0.1903304   -0.7463494     0.2060746   -0.7448773    -0.0654205    0.0385737 
   0.258987100    -0.0250398   -0.1160175     0.0706789   -0.7665731     0.0869803   -0.7681890    -0.0505394    0.0619639 
   0.260987000    -0.0279466   -0.1122445    -0.0505247   -0.7673158    -0.0348319   -0.7722619    -0.0294218    0.0799726 
   0.262986900    -0.0299707   -0.1080866    -0.1702661   -0.7493771    -0.1563215   -0.7575105    -0.0040951    0.0908046 
   0.264986800    -0.0310592   -0.1038021    -0.2859785   -0.7129120    -0.2742474   -0.7231031     0.0230836    0.0936376 
   0.266986700    -0.0312042   -0.0997339    -0.3945836   -0.6585878    -0.3856185   -0.6704021     0.0498641    0.0883233 
   0.268986600    -0.0304847   -0.0960752    -0.4930896   -0.5879767    -0.4869936   -0.6005588     0.0737630    0.0754161 
   0.270986500    -0.0290257   -0.0930883    -0.5792667   -0.5026931    -0.5754976   -0.5156025     0.0925319    0.0561859 
   0.272986400    -0.0270853   -0.0908703    -0.6511002   -0.4047774    -0.6492265   -0.4177369     0.1046784    0.0323946 
   0.274986300    -0.0248547   -0.0895022    -0.7063637   -0.2968014    -0.7061689   -0.3095604     0.1091605    0.0062692 
   0.276986200    -0.0226001   -0.0889242    -0.7439610   -0.1811511    -0.7454636   -0.1937366     0.1055936   -0.0196501 
   0.278986100    -0.0205359   -0.0891276    -0.7625129   -0.0610004    -0.7655505   -0.0732233     0.0945054   -0.0431233 
   0.280986000    -0.0188360   -0.0900182    -0.7619346    0.0604429    -0.7662213    0.0490792     0.0769744   -0.0618476 
   0.282985900    -0.0176482   -0.0914639    -0.7420860    0.1798745    -0.7472932    0.1697333     0.0547934   -0.0741014 
   0.284985800    -0.0170723   -0.0932945    -0.7033447    0.2947960    -0.7097433    0.2855617     0.0302951   -0.0786932 
   0.286985700    -0.0171245   -0.0953429    -0.6468064    0.4018105    -0.6545236    0.3935286     0.0060217   -0.0753170 
   0.288985600    -0.0177426   -0.0975473    -0.5743052    0.4983763    -0.5837431    0.4905574    -0.0155412   -0.0645412 
   0.290985500    -0.0188617   -0.0996445    -0.4875743    0.5821779    -0.4989547    0.5755005    -0.0321702   -0.0475471 
   0.292985400    -0.0204262   -0.1015914    -0.3885169    0.6509061    -0.4020381    0.6460541    -0.0421859   -0.0261637 
   0.294985300    -0.0223571   -0.1032201    -0.2802267    0.7027982    -0.2950003    0.7001907    -0.0444606   -0.0029498 
   0.296985200    -0.0245522   -0.1045394    -0.1654779    0.7368752    -0.1801386    0.7372610    -0.0386967    0.0196833 
   0.298985100    -0.0268117   -0.1054893    -0.0466852    0.7523597    -0.0604718    0.7555835    -0.0254348    0.0391543 
   0.300985000    -0.0290899   -0.1062798     0.0729362    0.7486414     0.0610452    0.7542617    -0.0061797    0.0529786 
   0.302984900    -0.0313892   -0.1070274     0.1903408    0.7258717     0.1805647    0.7333329     0.0171512    0.0594504 
   0.304984800    -0.0336591   -0.1079305     0.3022858    0.6847156     0.2945411    0.6935281     0.0419816    0.0575417 
   0.306984700    -0.0360805   -0.1090392     0.4060268    0.6261670     0.4002221    0.6355811     0.0652698    0.0469151 
   0.308984600    -0.0387171   -0.1105035     0.4983650    0.5521124     0.4942312    0.5615752     0.0843693    0.0282956 
   0.310984500    -0.0418376   -0.1122997     0.5771975    0.4645564     0.5744277    0.4739393     0.0965186    0.0033136 
   0.312984400    -0.0457665   -0.1142604     0.6404981    0.3656826     0.6387947    0.3754657     0.0996085   -0.0254614 
   0.314984300    -0.0506541   -0.1162006     0.6866669    0.2586617     0.6855638    0.2688361     0.0925090   -0.0547693 
