! MS46122B
! 2250307/22442219
! 8/5/2025 8:23:11 AM
! C:\USERS\SPARKY\DOCUMENTS\VNA_DATA\AUGUST5_2025\4K\THRU.S2P
! CHANNEL.1
! TR.MEASUREMENT
! RAW.DATA
# GHZ S RI R 50.0
! FREQ.GHZ         S11RE         S11IM         S21RE         S21IM         S12RE         S12IM         S22RE         S22IM         
!; PortSelection: Port_12
   0.001000000     1.0442840   -0.0683278    -0.0004935   -0.0010117    -0.0004265   -0.0010521     0.8157015   -0.5542070 
   0.002999900     0.9610527   -0.1950921    -0.0238163   -0.0152545    -0.0248900   -0.0159487     0.0586254   -0.8768871 
   0.004999800     0.8724858   -0.3129940    -0.1420089    0.0254361    -0.1494367    0.0297940    -0.6978018   -0.3637384 
   0.006999700     0.7751288   -0.4068914    -0.1864959    0.1336328    -0.1913122    0.1470723    -0.7495908    0.2561513 
   0.008999600     0.5954165   -0.4106961    -0.0819979    0.5088829    -0.0642273    0.5194026     0.2612343    0.6572163 
   0.010999500     0.5556444   -0.3323947     0.3566005    0.5193205     0.3639528    0.5223544     0.5195671   -0.2096235 
   0.012999400     0.5706758   -0.3346985     0.5638234    0.2827537     0.5774550    0.2913224     0.0560253   -0.5529496 
   0.014999300     0.5642990   -0.3729098     0.6174135    0.0707329     0.6384980    0.0722966    -0.3272516   -0.4848651 
   0.016999200     0.5381268   -0.4139963     0.6126243   -0.0999215     0.6335753   -0.1088335    -0.5364769   -0.2789472 
   0.018999100     0.5009838   -0.4502191     0.5782607   -0.2455603     0.5930797   -0.2619487    -0.6105347   -0.0447109 
   0.020999000     0.4554116   -0.4787350     0.5218027   -0.3727674     0.5276971   -0.3919809    -0.5804907    0.1708107 
   0.022998900     0.4052506   -0.4980232     0.4460168   -0.4848993     0.4432938   -0.5024174    -0.4788243    0.3413186 
   0.024998800     0.3487614   -0.4828384     0.3946090   -0.5870641     0.3359188   -0.5995659    -0.3636207    0.4867237 
   0.026998700     0.2998733   -0.5032013     0.2380363   -0.6621322     0.2261381   -0.6661651    -0.1657848    0.5090839 
   0.028998600     0.2502320   -0.4888927     0.1070257   -0.7201974     0.0967483   -0.7169217     0.0017572    0.5039401 
   0.030998500     0.2059348   -0.4645924    -0.0382285   -0.7518651    -0.0436819   -0.7429131     0.1508035    0.4462721 
   0.032998400     0.1717446   -0.4148260    -0.1616153   -0.7906811    -0.2000685   -0.7402130     0.2846065    0.3810275 
   0.034998300     0.1472064   -0.3952041    -0.3466757   -0.7165800    -0.3389461   -0.7082021     0.3384548    0.2179111 
   0.036998200     0.1348824   -0.3579285    -0.4932162   -0.6468413    -0.4808785   -0.6434265     0.3595950    0.0791737 
   0.038998100     0.1334079   -0.3243249    -0.6214278   -0.5445384    -0.6092549   -0.5474043     0.3316094   -0.0517292 
   0.040998000     0.1402630   -0.2975708    -0.7236954   -0.4161549    -0.7146772   -0.4237527     0.2617788   -0.1582154 
   0.042997900     0.1520076   -0.2797148    -0.7950976   -0.2693674    -0.7911624   -0.2793381     0.1632876   -0.2289818 
   0.044997800     0.1627221   -0.2589756    -0.8604409   -0.1602221    -0.8376815   -0.1122989     0.0640422   -0.2736791 
   0.046997700     0.1753004   -0.2715327    -0.8389362    0.0442746    -0.8437068    0.0379629    -0.0566553   -0.2464606 
   0.048997600     0.1818256   -0.2777874    -0.8142048    0.1957879    -0.8201140    0.1938749    -0.1491903   -0.1999639 
   0.050997500     0.1825486   -0.2879986    -0.7637400    0.3366822    -0.7679852    0.3379994    -0.2163813   -0.1284240 
   0.052997400     0.1772433   -0.2997127    -0.6904218    0.4630229    -0.6923473    0.4661971    -0.2536547   -0.0428380 
   0.054997300     0.1663513   -0.3105708    -0.5963812    0.5750883    -0.5994523    0.5737333    -0.2599292    0.0464691 
   0.056997200     0.1503758   -0.3196096    -0.4917788    0.6645024    -0.4882247    0.6657690    -0.2381290    0.1284465 
   0.058997100     0.1314507   -0.3246770    -0.3736314    0.7369989    -0.3685096    0.7351218    -0.1922099    0.1969044 
   0.060997000     0.1108222   -0.3252812    -0.2459753    0.7892519    -0.2415537    0.7840326    -0.1286677    0.2456910 
   0.062996900     0.0896530   -0.3212076    -0.1119348    0.8203911    -0.1101306    0.8124791    -0.0549868    0.2712155 
   0.064996800     0.0702152   -0.3126616     0.0257108    0.8297815     0.0235904    0.8207452     0.0217895    0.2723975 
   0.066996700     0.0535308   -0.3003216     0.1637173    0.8172942     0.1568766    0.8083467     0.0938795    0.2503194 
   0.068996600     0.0406819   -0.2852193     0.2984244    0.7818519     0.2878437    0.7750789     0.1547980    0.2078183 
   0.070996500     0.0322975   -0.2689619     0.4266174    0.7247882     0.4130137    0.7216491     0.1994915    0.1492444 
   0.072996400     0.0284760   -0.2524120     0.5438668    0.6453484     0.5293212    0.6469543     0.2239099    0.0808080 
   0.074996300     0.0289762   -0.2373087     0.6469736    0.5468526     0.6326305    0.5531760     0.2262110    0.0092667 
   0.076996200     0.0329285   -0.2249075     0.7313554    0.4315283     0.7196144    0.4417863     0.2068257   -0.0589011 
   0.078996100     0.0391398   -0.2160921     0.7945189    0.3031643     0.7867413    0.3160426     0.1679877   -0.1167971 
   0.080996000     0.0461059   -0.2113248     0.8344480    0.1655508     0.8304540    0.1792926     0.1139217   -0.1592754 
   0.082995900     0.0524409   -0.2104515     0.8502960    0.0233085     0.8495215    0.0368820     0.0501740   -0.1826383 
   0.084995800     0.0570396   -0.2125818     0.8409329   -0.1179628     0.8428360   -0.1060694    -0.0162376   -0.1847424 
   0.086995700     0.0588563   -0.2172783     0.8084809   -0.2549671     0.8118251   -0.2450697    -0.0790450   -0.1664468 
   0.088995600     0.0573600   -0.2231738     0.7538367   -0.3837289     0.7572656   -0.3748040    -0.1321798   -0.1301635 
   0.090995500     0.0523664   -0.2290328     0.6794873   -0.5010770     0.6828285   -0.4923973    -0.1706689   -0.0803464 
   0.092995400     0.0443082   -0.2339224     0.5885557   -0.6040589     0.5914587   -0.5947189    -0.1917051   -0.0223318 
   0.094995300     0.0334058   -0.2364089     0.4824446   -0.6897177     0.4857039   -0.6806241    -0.1940525    0.0380064 
   0.096995200     0.0211008   -0.2362862     0.3647485   -0.7569994     0.3688825   -0.7472528    -0.1783755    0.0952269 
   0.098995100     0.0082423   -0.2328878     0.2382947   -0.8051791     0.2444343   -0.7950466    -0.1470090    0.1439028 
   0.100995000    -0.0059061   -0.2267071     0.1049374   -0.8332826     0.1142949   -0.8234025    -0.1012410    0.1816136 
   0.102994900    -0.0169942   -0.2168482    -0.0298303   -0.8394504    -0.0172379   -0.8309651    -0.0491499    0.2024544 
   0.104994800    -0.0255319   -0.2047486    -0.1635617   -0.8243227    -0.1486829   -0.8187398     0.0055290    0.2067530 
   0.106994700    -0.0310709   -0.1910218    -0.2938422   -0.7876262    -0.2772939   -0.7861522     0.0579117    0.1945852 
   0.108994600    -0.0333728   -0.1768560    -0.4169126   -0.7311600    -0.4000386   -0.7339685     0.1036513    0.1676750 
   0.110994500    -0.0324149   -0.1631655    -0.5301311   -0.6553530    -0.5139467   -0.6623964     0.1382812    0.1292511 
   0.112994400    -0.0285719   -0.1507431    -0.6297452   -0.5620400    -0.6159734   -0.5729441     0.1592881    0.0831105 
   0.114994300    -0.0222967   -0.1403573    -0.7132431   -0.4532846    -0.7025464   -0.4669917     0.1649968    0.0336879 
   0.116994200    -0.0144019   -0.1327988    -0.7779943   -0.3320756    -0.7709004   -0.3475121     0.1553942   -0.0141990 
   0.118994100    -0.0058212   -0.1282116    -0.8220019   -0.2016776    -0.8187416   -0.2173821     0.1319529   -0.0557196 
   0.120994000     0.0027443   -0.1264584    -0.8441509   -0.0658430    -0.8441122   -0.0807891     0.0972629   -0.0871595 
   0.122993900     0.0100523   -0.1271835    -0.8433363    0.0718094    -0.8458514    0.0581617     0.0552144   -0.1056668 
   0.124993800     0.0157489   -0.1298418    -0.8200858    0.2070162    -0.8242114    0.1952159     0.0102700   -0.1094318 
   0.126993700     0.0194222   -0.1337631    -0.7748663    0.3365025    -0.7799473    0.3259220    -0.0327883   -0.0986385 
   0.128993600     0.0210311   -0.1380961    -0.7092311    0.4562100    -0.7150607    0.4466326    -0.0696324   -0.0746606 
   0.130993500     0.0206336   -0.1423178    -0.6258255    0.5635356    -0.6325458    0.5544758    -0.0961347   -0.0404589 
   0.132993400     0.0185999   -0.1457966    -0.5265017    0.6557034    -0.5340282    0.6467846    -0.1099941   -0.0000343 
   0.134993300     0.0153867   -0.1480192    -0.4141654    0.7307434    -0.4230108    0.7219014    -0.1099599    0.0424123 
   0.136993200     0.0115526   -0.1488200    -0.2916490    0.7864643    -0.3025018    0.7782796    -0.0962512    0.0825442 
   0.138993100     0.0076705   -0.1483125    -0.1623451    0.8220297    -0.1751832    0.8153311    -0.0705786    0.1160995 
   0.140993000     0.0043164   -0.1467349    -0.0288859    0.8365474    -0.0441965    0.8319734    -0.0355670    0.1399898 
   0.142992900     0.0017480   -0.1444327     0.1049600    0.8299202     0.0879859    0.8283330     0.0054810    0.1516262 
   0.144992800     0.0001797   -0.1417656     0.2360389    0.8025745     0.2181482    0.8045349     0.0481447    0.1499008 
   0.146992700    -0.0004562   -0.1393027     0.3604133    0.7538990     0.3433214    0.7601656     0.0886561    0.1352934 
   0.148992600    -0.0002900   -0.1374601     0.4759544    0.6861603     0.4603100    0.6963310     0.1229648    0.1088640 
   0.150992500     0.0003564   -0.1364399     0.5787686    0.6009983     0.5654637    0.6142154     0.1480808    0.0732592 
   0.152992400     0.0009714   -0.1366397     0.6669618    0.5003146     0.6569074    0.5157808     0.1614015    0.0314020 
   0.154992300     0.0011238   -0.1379488     0.7373312    0.3871622     0.7311015    0.4036371     0.1618143   -0.0126705 
   0.156992200     0.0002618   -0.1401462     0.7887226    0.2639224     0.7862967    0.2810256     0.1492209   -0.0552086 
   0.158992100    -0.0019161   -0.1428795     0.8195363    0.1347960     0.8200926    0.1507303     0.1246990   -0.0922570 
   0.160992000    -0.0056967   -0.1456719     0.8293033    0.0023554     0.8322503    0.0171554     0.0903804   -0.1205849 
   0.162991900    -0.0110777   -0.1479252     0.8176109   -0.1291402     0.8224804   -0.1157488     0.0492978   -0.1377147 
   0.164991800    -0.0180433   -0.1491928     0.7852721   -0.2568287     0.7916360   -0.2449756     0.0051761   -0.1421179 
   0.166991700    -0.0261218   -0.1488110     0.7335810   -0.3769971     0.7406816   -0.3663060    -0.0380870   -0.1336108 
   0.168991600    -0.0349551   -0.1463851     0.6637259   -0.4873400     0.6718322   -0.4772415    -0.0766879   -0.1131595 
   0.170991500    -0.0439400   -0.1415753     0.5778103   -0.5850380     0.5867178   -0.5760166    -0.1073996   -0.0827722 
   0.172991400    -0.0523020   -0.1344214     0.4782145   -0.6678007     0.4883997   -0.6596462    -0.1278286   -0.0456181 
   0.174991300    -0.0594755   -0.1252200     0.3670695   -0.7340854     0.3789874   -0.7268584    -0.1365349   -0.0047547 
   0.176991200    -0.0648482   -0.1141542     0.2472923   -0.7822269     0.2605679   -0.7768804    -0.1332896    0.0361554 
   0.178991100    -0.0679783   -0.1016603     0.1211759   -0.8119277     0.1360163   -0.8082526    -0.1188729    0.0734557 
   0.180991000    -0.0684434   -0.0884676    -0.0076009   -0.8214328     0.0082049   -0.8202910    -0.0949441    0.1043382 
   0.182990900    -0.0659956   -0.0751686    -0.1371064   -0.8104372    -0.1204605   -0.8128822    -0.0638962    0.1264287 
   0.184990800    -0.0607344   -0.0626235    -0.2634094   -0.7795242    -0.2476038   -0.7850217    -0.0288607    0.1383173 
   0.186990700    -0.0529335   -0.0514358    -0.3837279   -0.7289926    -0.3694673   -0.7375329     0.0067412    0.1394443 
   0.188990600    -0.0423208   -0.0433400    -0.4739687   -0.6739410    -0.4654844   -0.6825710     0.0358509    0.1316102 
   0.190990500    -0.0314393   -0.0357166    -0.5911079   -0.5752848    -0.5821193   -0.5889357     0.0674082    0.1129692 
   0.192990400    -0.0191509   -0.0316404    -0.6778340   -0.4714048    -0.6714844   -0.4866247     0.0883054    0.0885284 
   0.194990300    -0.0066871   -0.0305142    -0.7449642   -0.3577000    -0.7414931   -0.3730879     0.0996614    0.0606588 
   0.196990200     0.0051805   -0.0320888    -0.7925860   -0.2341799    -0.7921016   -0.2495520     0.1016525    0.0320985 
   0.198990100     0.0159081   -0.0360122    -0.8198478   -0.1044950    -0.8218099   -0.1195040     0.0948081    0.0057133 
   0.200990000     0.0249438   -0.0418672    -0.8257618    0.0278864    -0.8294671    0.0136192     0.0804040   -0.0158289 
   0.202989900     0.0320012   -0.0490533    -0.8103679    0.1593296    -0.8156512    0.1462746     0.0605499   -0.0304065 
   0.204989800     0.0368847   -0.0570482    -0.7737293    0.2863984    -0.7804773    0.2744789     0.0379008   -0.0368689 
   0.206989700     0.0397240   -0.0650989    -0.7176835    0.4056427    -0.7257125    0.3942000     0.0151372   -0.0349922 
   0.208989600     0.0406273   -0.0728074    -0.6431821    0.5140024    -0.6531497    0.5033219    -0.0047530   -0.0255060 
   0.210989500     0.0399241   -0.0797966    -0.5525456    0.6090299    -0.5640681    0.5995249    -0.0193654   -0.0097656 
   0.212989400     0.0380173   -0.0857127    -0.4481459    0.6883350    -0.4611676    0.6804618    -0.0270571    0.0100711 
   0.214989300     0.0353688   -0.0904215    -0.3331731    0.7495957    -0.3472121    0.7439493    -0.0271279    0.0314107 
   0.216989200     0.0323710   -0.0939333    -0.2099311    0.7918833    -0.2255401    0.7888140    -0.0194943    0.0516110 
   0.218989100     0.0293813   -0.0963526    -0.0816240    0.8139756    -0.0984843    0.8139315    -0.0048373    0.0682143 
   0.220989000     0.0266889   -0.0979092     0.0479341    0.8159106     0.0311411    0.8189474     0.0152550    0.0791810 
   0.222988900     0.0245030   -0.0988588     0.1761939    0.7973841     0.1608505    0.8035512     0.0385392    0.0830137 
   0.224988800     0.0229302   -0.0994753     0.2997810    0.7586446     0.2866884    0.7676831     0.0625101    0.0789763 
   0.226988700     0.0219018   -0.1000737     0.4157757    0.7010079     0.4046210    0.7122768     0.0846629    0.0671458 
   0.228988600     0.0214254   -0.1008917     0.5205953    0.6258935     0.5123259    0.6386667     0.1026602    0.0485124 
   0.230988500     0.0212243   -0.1021497     0.6127586    0.5352802     0.6067706    0.5488624     0.1145070    0.0246217 
   0.232988400     0.0210489   -0.1038565     0.6888025    0.4305902     0.6855750    0.4448548     0.1186783   -0.0024082 
   0.234988300     0.0206913   -0.1061597     0.7475281    0.3159618     0.7467924    0.3295381     0.1145262   -0.0301506 
   0.236988200     0.0198682   -0.1089688     0.7872582    0.1931268     0.7883787    0.2060707     0.1021208   -0.0558502 
   0.238988100     0.0184447   -0.1121178     0.8069805    0.0661030     0.8095616    0.0777328     0.0823412   -0.0770997 
   0.240988000     0.0162608   -0.1153951     0.8060823   -0.0624280     0.8100144   -0.0510033     0.0568062   -0.0918145 
   0.242987900     0.0133077   -0.1185596     0.7851930   -0.1886541     0.7904741   -0.1774151     0.0277159   -0.0983661 
   0.244987800     0.0095087   -0.1213762     0.7442794   -0.3100722     0.7512153   -0.2986399    -0.0021486   -0.0959951 
   0.246987700     0.0049254   -0.1235860     0.6849917   -0.4230336     0.6937135   -0.4121115    -0.0300428   -0.0849354 
   0.248987600    -0.0002092   -0.1250171     0.6091214   -0.5248984     0.6192023   -0.5155254    -0.0535121   -0.0660554 
   0.250987500    -0.0057416   -0.1254559     0.5177709   -0.6135758     0.5297751   -0.6057369    -0.0703218   -0.0412515 
   0.252987400    -0.0113420   -0.1248826     0.4141029   -0.6866687     0.4279489   -0.6808169    -0.0790091   -0.0125019 
   0.254987300    -0.0167352   -0.1232927     0.3006054   -0.7424067     0.3162991   -0.7390104    -0.0788726    0.0174420 
   0.256987200    -0.0216143   -0.1206005     0.1801293   -0.7795950     0.1967164   -0.7793251    -0.0698836    0.0458499 
   0.258987100    -0.0258446   -0.1172860     0.0553240   -0.7977479     0.0722985   -0.8006927    -0.0529565    0.0702232 
   0.260987000    -0.0291656   -0.1131314    -0.0707950   -0.7959163    -0.0546564   -0.8025147    -0.0295753    0.0885248 
   0.262986900    -0.0315688   -0.1085307    -0.1950322   -0.7744319    -0.1808617   -0.7838741    -0.0020831    0.0990029 
   0.264986800    -0.0328991   -0.1037554    -0.3144419   -0.7337979    -0.3028812   -0.7455043     0.0270702    0.1008330 
   0.266986700    -0.0331248   -0.0990382    -0.4262726   -0.6746674    -0.4177375   -0.6877491     0.0553735    0.0940019 
   0.268986600    -0.0323178   -0.0947965    -0.5269372   -0.5989434    -0.5217496   -0.6126512     0.0802422    0.0792717 
   0.270986500    -0.0306853   -0.0912126    -0.6145859   -0.5079239    -0.6118844   -0.5218068     0.0993299    0.0579941 
   0.272986400    -0.0284026   -0.0884634    -0.6870333   -0.4043315    -0.6860738   -0.4180164     0.1111750    0.0321577 
   0.274986300    -0.0257196   -0.0866120    -0.7419649   -0.2904260    -0.7428368   -0.3036625     0.1147450    0.0042428 
   0.276986200    -0.0229010   -0.0856955    -0.7782624   -0.1691548    -0.7809556   -0.1822121     0.1096593   -0.0229998 
   0.278986100    -0.0201768   -0.0856940    -0.7945285   -0.0435251    -0.7986943   -0.0557551     0.0967536   -0.0471847 
   0.280986000    -0.0177688   -0.0865049    -0.7909150    0.0829130    -0.7960477    0.0716243     0.0772592   -0.0659581 
   0.282985900    -0.0158751   -0.0879958    -0.7670543    0.2069438    -0.7731823    0.1970013     0.0532127   -0.0775001 
   0.284985800    -0.0146009   -0.0900344    -0.7236986    0.3257596    -0.7310398    0.3167192     0.0272036   -0.0807690 
   0.286985700    -0.0139978   -0.0924315    -0.6618297    0.4358583    -0.6704841    0.4277918     0.0019327   -0.0755406 
   0.288985600    -0.0140066   -0.0950328    -0.5836231    0.5347430    -0.5941934    0.5274271    -0.0199253   -0.0625912 
   0.290985500    -0.0146300   -0.0977251    -0.4908248    0.6194743    -0.5032665    0.6133285    -0.0360340   -0.0433365 
   0.292985400    -0.0157738   -0.1003098    -0.3856074    0.6883690    -0.4001803    0.6841824    -0.0446854   -0.0199561 
   0.294985300    -0.0173711   -0.1027103    -0.2712233    0.7393501    -0.2867456    0.7379604    -0.0448918    0.0048486 
   0.296985200    -0.0193997   -0.1047949    -0.1504714    0.7715997    -0.1659548    0.7733765    -0.0364880    0.0283740 
   0.298985100    -0.0217197   -0.1066474    -0.0262042    0.7842215    -0.0401630    0.7889905    -0.0203154    0.0478443 
   0.300985000    -0.0241458   -0.1082879     0.0985616    0.7766544     0.0867093    0.7839084     0.0019062    0.0606748 
   0.302984900    -0.0266645   -0.1099001     0.2201083    0.7493626     0.2106305    0.7582644     0.0279259    0.0652509 
   0.304984800    -0.0293884   -0.1115661     0.3355218    0.7028176     0.3284005    0.7128430     0.0547755    0.0605410 
   0.306984700    -0.0323527   -0.1134387     0.4416184    0.6388345     0.4366902    0.6491575     0.0793419    0.0464414 
   0.308984600    -0.0356995   -0.1155502     0.5355811    0.5585982     0.5323299    0.5689585     0.0985389    0.0240903 
   0.310984500    -0.0396511   -0.1178574     0.6147492    0.4649754     0.6129979    0.4749567     0.1095837   -0.0046972 
   0.312984400    -0.0444942   -0.1201891     0.6774290    0.3600364     0.6765547    0.3701332     0.1104652   -0.0368745 
   0.314984300    -0.0504269   -0.1223157     0.7221504    0.2470696     0.7219311    0.2576807     0.1001948   -0.0687621 
