! MS46122B
! 2250307/22442219
! 8/4/2025 1:39:33 PM
! C:\USERS\SPARKY\DOCUMENTS\VNA_DATA\AUGUST4_2025\295K\THRU_REPEAT2.S2P
! CHANNEL.1
! TR.MEASUREMENT
! RAW.DATA
# GHZ S RI R 50.0
! FREQ.GHZ         S11RE         S11IM         S21RE         S21IM         S12RE         S12IM         S22RE         S22IM         
!; PortSelection: Port_12
   0.001000000     1.0448040   -0.0680622    -0.0004537   -0.0010802    -0.0003778   -0.0010556     0.8130374   -0.5561931 
   0.002999900     0.9610959   -0.1948328    -0.0236991   -0.0153516    -0.0247482   -0.0159819     0.0521306   -0.8750359 
   0.004999800     0.8716897   -0.3119717    -0.1407937    0.0260579    -0.1480295    0.0305640    -0.6994879   -0.3605089 
   0.006999700     0.7743323   -0.4058386    -0.1845347    0.1322823    -0.1889490    0.1454808    -0.7488999    0.2579189 
   0.008999600     0.5936447   -0.4069470    -0.0794000    0.5052659    -0.0610842    0.5153809     0.2476132    0.6591187 
   0.010999500     0.5562631   -0.3265540     0.3572389    0.5117962     0.3651383    0.5137284     0.5053149   -0.1891161 
   0.012999400     0.5735084   -0.3288672     0.5600220    0.2741812     0.5734447    0.2810562     0.0561813   -0.5216484 
   0.014999300     0.5682646   -0.3672363     0.6097696    0.0630709     0.6298506    0.0632059    -0.3108867   -0.4536482 
   0.016999200     0.5436623   -0.4087321     0.6021662   -0.1056076     0.6213677   -0.1152718    -0.5070150   -0.2548135 
   0.018999100     0.5077441   -0.4453091     0.5653776   -0.2485957     0.5783440   -0.2649897    -0.5723110   -0.0316789 
   0.020999000     0.4639230   -0.4742396     0.5070892   -0.3725631     0.5114721   -0.3912300    -0.5386990    0.1706335 
   0.022998900     0.4150262   -0.4944195     0.4302510   -0.4807633     0.4264395   -0.4973910    -0.4378987    0.3280602 
   0.024998800     0.3596131   -0.4804447     0.3776255   -0.5791379     0.3196686   -0.5896519    -0.3248734    0.4606638 
   0.026998700     0.3125876   -0.5027927     0.2234094   -0.6488311     0.2114586   -0.6519688    -0.1390477    0.4749079 
   0.028998600     0.2639798   -0.4907774     0.0950839   -0.7022397     0.0849880   -0.6985382     0.0172296    0.4642652 
   0.030998500     0.2205671   -0.4694287    -0.0458814   -0.7298162    -0.0513176   -0.7209100     0.1541949    0.4051218 
   0.032998400     0.1855258   -0.4222933    -0.1650150   -0.7651168    -0.2022410   -0.7154238     0.2768233    0.3392239 
   0.034998300     0.1599528   -0.4065457    -0.3420120   -0.6909034    -0.3352357   -0.6825362     0.3209498    0.1855994 
   0.036998200     0.1454005   -0.3722734    -0.4815809   -0.6223831    -0.4706824   -0.6183877     0.3357078    0.0554409 
   0.038998100     0.1405882   -0.3408031    -0.6037122   -0.5234189    -0.5927533   -0.5249693     0.3051118   -0.0657063 
   0.040998000     0.1436382   -0.3151801    -0.7010531   -0.3998262    -0.6928531   -0.4056885     0.2363454   -0.1630746 
   0.042997900     0.1515881   -0.2972500    -0.7695944   -0.2593279    -0.7655571   -0.2669325     0.1419558   -0.2264924 
   0.044997800     0.1590569   -0.2748626    -0.8327042   -0.1543882    -0.8099009   -0.1064708     0.0468914   -0.2663222 
   0.046997700     0.1682577   -0.2857831    -0.8123778    0.0425496    -0.8158421    0.0378329    -0.0661566   -0.2373638 
   0.048997600     0.1727156   -0.2894570    -0.7894536    0.1887261    -0.7934970    0.1879546    -0.1530293   -0.1913029 
   0.050997500     0.1723222   -0.2968379    -0.7412407    0.3253597    -0.7438502    0.3269961    -0.2158120   -0.1219745 
   0.052997400     0.1672846   -0.3053073    -0.6716390    0.4469827    -0.6723682    0.4498179    -0.2501593   -0.0400784 
   0.054997300     0.1559282   -0.3143802    -0.5805469    0.5570815    -0.5809832    0.5566599    -0.2551557    0.0456854 
   0.056997200     0.1411356   -0.3210845    -0.4789946    0.6447450    -0.4742299    0.6457136    -0.2335306    0.1241110 
   0.058997100     0.1235678   -0.3245436    -0.3642818    0.7156372    -0.3582640    0.7134227    -0.1890223    0.1893951 
   0.060997000     0.1044599   -0.3241239    -0.2400789    0.7668151    -0.2349078    0.7611868    -0.1278607    0.2357720 
   0.062996900     0.0848891   -0.3195187    -0.1096265    0.7971438    -0.1069934    0.7890065    -0.0571990    0.2598526 
   0.064996800     0.0669856   -0.3110096     0.0242296    0.8063500     0.0230705    0.7970026     0.0161628    0.2607473 
   0.066996700     0.0516445   -0.2991019     0.1582649    0.7939178     0.1526453    0.7846254     0.0849661    0.2394249 
   0.068996600     0.0397323   -0.2848474     0.2891489    0.7594984     0.2797631    0.7519848     0.1428640    0.1987324 
   0.070996500     0.0319163   -0.2696164     0.4134777    0.7037284     0.4010760    0.6995938     0.1852407    0.1428718 
   0.072996400     0.0282602   -0.2542513     0.5270416    0.6266903     0.5135307    0.6269113     0.2082809    0.0778140 
   0.074996300     0.0283748   -0.2402652     0.6266902    0.5312274     0.6130954    0.5357931     0.2102009    0.0099173 
   0.076996200     0.0315479   -0.2287752     0.7082645    0.4196535     0.6968614    0.4278360     0.1916545   -0.0546412 
   0.078996100     0.0366755   -0.2204954     0.7693837    0.2954749     0.7608504    0.3060026     0.1546969   -0.1093477 
   0.080996000     0.0423665   -0.2158722     0.8081279    0.1626250     0.8033577    0.1743744     0.1033773   -0.1493915 
   0.082995900     0.0473862   -0.2146937     0.8237946    0.0252535     0.8217197    0.0370930     0.0429231   -0.1713255 
   0.084995800     0.0508181   -0.2161186     0.8151509   -0.1112099     0.8156127   -0.1006258    -0.0199883   -0.1731604 
   0.086995700     0.0516717   -0.2197574     0.7842060   -0.2437707     0.7855254   -0.2346026    -0.0795650   -0.1557233 
   0.088995600     0.0494764   -0.2243416     0.7321029   -0.3684209     0.7340187   -0.3600228    -0.1300330   -0.1211935 
   0.090995500     0.0441009   -0.2287381     0.6608021   -0.4820801     0.6627464   -0.4739317    -0.1667268   -0.0738478 
   0.092995400     0.0361539   -0.2321793     0.5735264   -0.5823793     0.5750729   -0.5731793    -0.1869875   -0.0185263 
   0.094995300     0.0258626   -0.2333239     0.4713635   -0.6659178     0.4732055   -0.6565261    -0.1895287    0.0391170 
   0.096995200     0.0143830   -0.2319005     0.3577978   -0.7318079     0.3607697   -0.7220175    -0.1749389    0.0939822 
   0.098995100     0.0025222   -0.2275771     0.2356166   -0.7792132     0.2405901   -0.7689503    -0.1453624    0.1409875 
   0.100995000    -0.0105319   -0.2205463     0.1064273   -0.8073409     0.1143668   -0.7973565    -0.1017864    0.1777288 
   0.102994900    -0.0202297   -0.2103544    -0.0242022   -0.8141706    -0.0131186   -0.8053457    -0.0520382    0.1985313 
   0.104994800    -0.0274702   -0.1981528    -0.1540510   -0.8002911    -0.1406491   -0.7938555     0.0004063    0.2035890 
   0.106994700    -0.0317861   -0.1846347    -0.2805965   -0.7656166    -0.2653407   -0.7628361     0.0509884    0.1929853 
   0.108994600    -0.0329539   -0.1708376    -0.4000221   -0.7113596    -0.3843196   -0.7126619     0.0954506    0.1681731 
   0.110994500    -0.0310411   -0.1577673    -0.5099694   -0.6384178    -0.4949882   -0.6437458     0.1296371    0.1322583 
   0.112994400    -0.0264938   -0.1460394    -0.6071149   -0.5485779    -0.5939842   -0.5575061     0.1510302    0.0887059 
   0.114994300    -0.0196561   -0.1365368    -0.6885250   -0.4435975    -0.6779355   -0.4552452     0.1579367    0.0417621 
   0.116994200    -0.0114600   -0.1299087    -0.7517558   -0.3266298    -0.7444258   -0.3399083     0.1503838   -0.0041913 
   0.118994100    -0.0028055   -0.1261886    -0.7949809   -0.2005144    -0.7910430   -0.2143319     0.1295860   -0.0444029 
   0.120994000     0.0056324   -0.1252557    -0.8171290   -0.0692991    -0.8161759   -0.0823939     0.0979214   -0.0753227 
   0.122993900     0.0126990   -0.1266902    -0.8170801    0.0637753    -0.8184026    0.0515468     0.0589509   -0.0943057 
   0.124993800     0.0180015   -0.1299728    -0.7953621    0.1946619    -0.7979481    0.1839260     0.0169338   -0.0995963 
   0.126993700     0.0211705   -0.1343517    -0.7525563    0.3201990    -0.7561576    0.3102906    -0.0238464   -0.0911778 
   0.128993600     0.0222250   -0.1390404    -0.6898934    0.4362830    -0.6942790    0.4272759    -0.0592352   -0.0702081 
   0.130993500     0.0212212   -0.1434979    -0.6100619    0.5404360    -0.6150371    0.5317894    -0.0852391   -0.0393780 
   0.132993400     0.0185226   -0.1470443    -0.5147766    0.6302084    -0.5207325    0.6214998    -0.0996812   -0.0023108 
   0.134993300     0.0146476   -0.1491505    -0.4067416    0.7033408    -0.4140289    0.6947988    -0.1013051    0.0370441 
   0.136993200     0.0101480   -0.1497278    -0.2889547    0.7582603    -0.2981465    0.7500228    -0.0901671    0.0746976 
   0.138993100     0.0056830   -0.1488582    -0.1643804    0.7936063    -0.1755927    0.7866968    -0.0677430    0.1066967 
   0.140993000     0.0017732   -0.1467609    -0.0358470    0.8088318    -0.0492518    0.8036520    -0.0363535    0.1300708 
   0.142992900    -0.0012810   -0.1436989     0.0933535    0.8034735     0.0781758    0.8011099     0.0010533    0.1424254 
   0.144992800    -0.0031919   -0.1402428     0.2199441    0.7783956     0.2039851    0.7792360     0.0403898    0.1424615 
   0.146992700    -0.0039911   -0.1368219     0.3408342    0.7329473     0.3250031    0.7374697     0.0781930    0.1305504 
   0.148992600    -0.0037583   -0.1339290     0.4528691    0.6687493     0.4382648    0.6769392     0.1107717    0.1077216 
   0.150992500    -0.0027833   -0.1317873     0.5530807    0.5877534     0.5405116    0.5986654     0.1351749    0.0760215 
   0.152992400    -0.0015956   -0.1308822     0.6393326    0.4915720     0.6295577    0.5047494     0.1490108    0.0382434 
   0.154992300    -0.0006000   -0.1311595     0.7088722    0.3830319     0.7022939    0.3974575     0.1510481   -0.0020176 
   0.156992200    -0.0002957   -0.1324623     0.7599677    0.2646830     0.7567418    0.2796338     0.1411634   -0.0411882 
   0.158992100    -0.0010794   -0.1345587     0.7915089    0.1403217     0.7909721    0.1545027     0.1202470   -0.0758824 
   0.160992000    -0.0032653   -0.1369605     0.8024476    0.0124032     0.8042920    0.0256830     0.0900912   -0.1027443 
   0.162991900    -0.0069446   -0.1391860     0.7930099   -0.1150711     0.7965484   -0.1028490     0.0534524   -0.1196596 
   0.164991800    -0.0120943   -0.1406756     0.7634043   -0.2389477     0.7678756   -0.2281036     0.0137007   -0.1250624 
   0.166991700    -0.0184955   -0.1409721     0.7148320   -0.3560640     0.7204641   -0.3461391    -0.0256662   -0.1186760 
   0.168991600    -0.0256939   -0.1396224     0.6483784   -0.4636782     0.6550977   -0.4543435    -0.0610637   -0.1012444 
   0.170991500    -0.0333565   -0.1363248     0.5664188   -0.5594452     0.5737877   -0.5508066    -0.0894475   -0.0745785 
   0.172991400    -0.0406710   -0.1310400     0.4709526   -0.6406870     0.4794096   -0.6326936    -0.1086115   -0.0415683 
   0.174991300    -0.0471515   -0.1238065     0.3640265   -0.7060731     0.3741188   -0.6989784    -0.1171489   -0.0049527 
   0.176991200    -0.0522613   -0.1148080     0.2483065   -0.7540211     0.2600034   -0.7483308    -0.1148879    0.0317763 
   0.178991100    -0.0555049   -0.1044589     0.1267840   -0.7837400     0.1397583   -0.7797721    -0.1023572    0.0654673 
   0.180991000    -0.0565833   -0.0932932     0.0022747   -0.7943861     0.0162047   -0.7923636    -0.0811056    0.0934145 
   0.182990900    -0.0551698   -0.0818903    -0.1230112   -0.7848428    -0.1080860   -0.7859651    -0.0532824    0.1135000 
   0.184990800    -0.0512844   -0.0709643    -0.2451775   -0.7561777    -0.2307914   -0.7601646    -0.0217377    0.1243275 
   0.186990700    -0.0451710   -0.0611126    -0.3616702   -0.7086501    -0.3486405   -0.7152165     0.0103336    0.1253679 
   0.188990600    -0.0361376   -0.0536719    -0.4492659   -0.6563544    -0.4414787   -0.6631915     0.0366471    0.1183725 
   0.190990500    -0.0274919   -0.0466140    -0.5631427   -0.5625613    -0.5543082   -0.5740541     0.0652411    0.1012783 
   0.192990400    -0.0172563   -0.0425879    -0.6476689   -0.4635997    -0.6413206   -0.4766386     0.0840821    0.0789707 
   0.194990300    -0.0066270   -0.0410337    -0.7134081   -0.3547844    -0.7096530   -0.3683021     0.0942820    0.0534658 
   0.196990200     0.0036135   -0.0417964    -0.7608622   -0.2367358    -0.7595283   -0.2502804     0.0958505    0.0273134 
   0.198990100     0.0129974   -0.0446408    -0.7887414   -0.1124696    -0.7893884   -0.1259293     0.0893908    0.0030886 
   0.200990000     0.0210515   -0.0492305    -0.7963130    0.0145709    -0.7987679    0.0018349     0.0759393   -0.0166590 
   0.202989900     0.0274206   -0.0550554    -0.7832388    0.1412328    -0.7872201    0.1292343     0.0574512   -0.0300311 
   0.204989800     0.0320219   -0.0616204    -0.7500326    0.2638613    -0.7553209    0.2529104     0.0363135   -0.0359497 
   0.206989700     0.0349110   -0.0683919    -0.6980893    0.3792184    -0.7045280    0.3688071     0.0150382   -0.0341435 
   0.208989600     0.0360837   -0.0750004    -0.6282507    0.4846841    -0.6363897    0.4747539    -0.0036404   -0.0252639 
   0.210989500     0.0359322   -0.0810358    -0.5427428    0.5775212    -0.5523065    0.5684818    -0.0174562   -0.0105262 
   0.212989400     0.0346856   -0.0862581    -0.4437195    0.6554928    -0.4544863    0.6479477    -0.0249037    0.0081064 
   0.214989300     0.0327443   -0.0905378    -0.3339389    0.7164928    -0.3461206    0.7107136    -0.0252081    0.0282156 
   0.216989200     0.0304490   -0.0938495    -0.2159868    0.7593482    -0.2297898    0.7557598    -0.0183245    0.0473986 
   0.218989100     0.0281005   -0.0962701    -0.0933129    0.7828678    -0.1079688    0.7819656    -0.0048406    0.0633422 
   0.220989000     0.0259396   -0.0979946     0.0313458    0.7869491     0.0165866    0.7887758     0.0138442    0.0741025 
   0.222988900     0.0241180   -0.0992502     0.1550617    0.7713848     0.1413872    0.7759472     0.0356831    0.0782358 
   0.224988800     0.0227135   -0.1002137     0.2749142    0.7362826     0.2626157    0.7434373     0.0583242    0.0750275 
   0.226988700     0.0217653   -0.1011715     0.3873618    0.6828960     0.3770374    0.6922104     0.0794320    0.0645208 
   0.228988600     0.0211441   -0.1023105     0.4897576    0.6126826     0.4815120    0.6235516     0.0968261    0.0475265 
   0.230988500     0.0207163   -0.1037977     0.5798708    0.5270995     0.5738922    0.5388369     0.1086291    0.0254098 
   0.232988400     0.0202427   -0.1055875     0.6549557    0.4280854     0.6513797    0.4405324     0.1133103    0.0001836 
   0.234988300     0.0195420   -0.1078810     0.7135530    0.3190019     0.7119486    0.3307948     0.1102623   -0.0258848 
   0.236988200     0.0183910   -0.1105210     0.7538453    0.2016470     0.7544815    0.2129758     0.0994541   -0.0503683 
   0.238988100     0.0166918   -0.1133977     0.7755256    0.0800853     0.7770258    0.0903827     0.0816307   -0.0708749 
   0.240988000     0.0143152   -0.1162947     0.7772545   -0.0433393     0.7800848   -0.0332934     0.0582144   -0.0854932 
   0.242987900     0.0112430   -0.1190444     0.7597963   -0.1651585     0.7634366   -0.1551732     0.0312651   -0.0926171 
   0.244987800     0.0074693   -0.1213849     0.7228719   -0.2825912     0.7284928   -0.2721533     0.0032120   -0.0914569 
   0.246987700     0.0030975   -0.1231428     0.6684983   -0.3924606     0.6755432   -0.3825261    -0.0232278   -0.0820850 
   0.248987600    -0.0017362   -0.1241657     0.5978134   -0.4918742     0.6060401   -0.4832470    -0.0458412   -0.0653094 
   0.250987500    -0.0068601   -0.1242926     0.5118924   -0.5791827     0.5219870   -0.5717099    -0.0624645   -0.0427381 
   0.252987400    -0.0119632   -0.1234776     0.4138341   -0.6516309     0.4257309   -0.6459174    -0.0716593   -0.0162558 
   0.254987300    -0.0168315   -0.1218181     0.3060553   -0.7078223     0.3195073   -0.7040759    -0.0726541    0.0117287 
   0.256987200    -0.0211883   -0.1192754     0.1910250   -0.7463244     0.2055338   -0.7450593    -0.0653568    0.0385553 
   0.258987100    -0.0248838   -0.1161270     0.0714830   -0.7664772     0.0864410   -0.7682377    -0.0504754    0.0619664 
   0.260987000    -0.0278010   -0.1123629    -0.0497423   -0.7675271    -0.0353372   -0.7722418    -0.0293282    0.0799579 
   0.262986900    -0.0298311   -0.1081967    -0.1697036   -0.7496516    -0.1568759   -0.7573929    -0.0039944    0.0907865 
   0.264986800    -0.0309189   -0.1039060    -0.2853832   -0.7133118    -0.2747755   -0.7228801     0.0231762    0.0936081 
   0.266986700    -0.0310669   -0.0998328    -0.3940683   -0.6590403    -0.3861006   -0.6701372     0.0499593    0.0882792 
   0.268986600    -0.0303480   -0.0961892    -0.4926617   -0.5885390    -0.4873915   -0.6002743     0.0738495    0.0753928 
   0.270986500    -0.0289166   -0.0931929    -0.5789502   -0.5032523    -0.5758520   -0.5151774     0.0926107    0.0561341 
   0.272986400    -0.0269939   -0.0909686    -0.6509362   -0.4053715    -0.6495179   -0.4172898     0.1047597    0.0323540 
   0.274986300    -0.0247660   -0.0895889    -0.7062750   -0.2973688    -0.7063925   -0.3090531     0.1092367    0.0062361 
   0.276986200    -0.0225086   -0.0890235    -0.7439391   -0.1818104    -0.7456415   -0.1931869     0.1056790   -0.0196875 
   0.278986100    -0.0204383   -0.0892194    -0.7625980   -0.0616885    -0.7655827   -0.0726839     0.0945806   -0.0431750 
   0.280986000    -0.0187468   -0.0901035    -0.7621502    0.0597733    -0.7662315    0.0496866     0.0770521   -0.0619115 
   0.282985900    -0.0175542   -0.0915387    -0.7423979    0.1792780    -0.7471858    0.1703329     0.0548668   -0.0741488 
   0.284985800    -0.0169899   -0.0933588    -0.7037551    0.2942523    -0.7095545    0.2860638     0.0303559   -0.0787511 
   0.286985700    -0.0170262   -0.0953982    -0.6472557    0.4013603    -0.6542612    0.3940046     0.0060806   -0.0753768 
   0.288985600    -0.0176488   -0.0976155    -0.5748782    0.4979441    -0.5834000    0.4910555    -0.0154926   -0.0645987 
   0.290985500    -0.0187744   -0.0997004    -0.4881685    0.5818401    -0.4985440    0.5758832    -0.0321257   -0.0476174 
   0.292985400    -0.0203273   -0.1016411    -0.3891997    0.6506586    -0.4015321    0.6462571    -0.0421312   -0.0262215 
   0.294985300    -0.0222848   -0.1032536    -0.2809170    0.7026957    -0.2944767    0.7004296    -0.0444146   -0.0030222 
   0.296985200    -0.0244598   -0.1045633    -0.1661733    0.7368659    -0.1796056    0.7374510    -0.0386513    0.0196227 
   0.298985100    -0.0267013   -0.1055132    -0.0473760    0.7524565    -0.0598987    0.7556579    -0.0253969    0.0391136 
   0.300985000    -0.0289840   -0.1062987     0.0723350    0.7488479     0.0616039    0.7541420    -0.0061573    0.0529154 
   0.302984900    -0.0312623   -0.1070631     0.1897034    0.7262141     0.1811336    0.7332721     0.0171736    0.0594337 
   0.304984800    -0.0335458   -0.1079448     0.3018215    0.6851312     0.2950207    0.6933248     0.0420000    0.0575077 
   0.306984700    -0.0359476   -0.1090801     0.4055541    0.6267100     0.4007415    0.6353113     0.0652947    0.0468964 
   0.308984600    -0.0385962   -0.1105331     0.4979725    0.5526925     0.4946718    0.5612224     0.0843849    0.0282703 
   0.310984500    -0.0416912   -0.1123330     0.5768481    0.4651802     0.5747969    0.4737059     0.0965321    0.0032969 
   0.312984400    -0.0456274   -0.1142867     0.6402838    0.3663683     0.6390806    0.3749810     0.0996297   -0.0254703 
   0.314984300    -0.0505114   -0.1162662     0.6865872    0.2593350     0.6858045    0.2682574     0.0925354   -0.0547713 
