! MS46122B
! 2250307/22442219
! 8/4/2025 1:36:03 PM
! C:\USERS\SPARKY\DOCUMENTS\VNA_DATA\AUGUST4_2025\295K\THRU_REPEAT1.S2P
! CHANNEL.1
! TR.MEASUREMENT
! RAW.DATA
# GHZ S RI R 50.0
! FREQ.GHZ         S11RE         S11IM         S21RE         S21IM         S12RE         S12IM         S22RE         S22IM         
!; PortSelection: Port_12
   0.001000000     1.0447850   -0.0679914    -0.0004765   -0.0010319    -0.0003838   -0.0010465     0.8139347   -0.5553197 
   0.002999900     0.9610401   -0.1948090    -0.0236789   -0.0153688    -0.0246797   -0.0160244     0.0545734   -0.8757646 
   0.004999800     0.8715616   -0.3120432    -0.1408989    0.0260384    -0.1480934    0.0303445    -0.6989305   -0.3628604 
   0.006999700     0.7742257   -0.4058624    -0.1846777    0.1321945    -0.1892735    0.1453280    -0.7496934    0.2564838 
   0.008999600     0.5934506   -0.4070359    -0.0792724    0.5055146    -0.0613500    0.5156269     0.2473297    0.6590511 
   0.010999500     0.5562693   -0.3265598     0.3573723    0.5116405     0.3649852    0.5139211     0.5052119   -0.1892155 
   0.012999400     0.5734693   -0.3289706     0.5600244    0.2740526     0.5733367    0.2814004     0.0562763   -0.5218555 
   0.014999300     0.5681382   -0.3673052     0.6097184    0.0629455     0.6298720    0.0635702    -0.3108240   -0.4539948 
   0.016999200     0.5435072   -0.4087889     0.6021349   -0.1057023     0.6215359   -0.1149177    -0.5070653   -0.2552072 
   0.018999100     0.5075582   -0.4453544     0.5653081   -0.2487107     0.5785876   -0.2647268    -0.5724325   -0.0320061 
   0.020999000     0.4635822   -0.4742776     0.5069579   -0.3727359     0.5117951   -0.3910812    -0.5388834    0.1703753 
   0.022998900     0.4147906   -0.4944878     0.4301206   -0.4808979     0.4267245   -0.4973139    -0.4380925    0.3279123 
   0.024998800     0.3594601   -0.4804043     0.3774711   -0.5792428     0.3200218   -0.5896447    -0.3251019    0.4605490 
   0.026998700     0.3124348   -0.5026748     0.2232413   -0.6488909     0.2117594   -0.6520678    -0.1391965    0.4748814 
   0.028998600     0.2639053   -0.4906910     0.0948772   -0.7022414     0.0852404   -0.6986267     0.0171369    0.4642544 
   0.030998500     0.2205254   -0.4693802    -0.0461312   -0.7298193    -0.0511014   -0.7210613     0.1541421    0.4051219 
   0.032998400     0.1854697   -0.4222549    -0.1652947   -0.7649632    -0.2022559   -0.7156063     0.2766988    0.3392563 
   0.034998300     0.1599065   -0.4064879    -0.3422209   -0.6907507    -0.3350305   -0.6827180     0.3208770    0.1855651 
   0.036998200     0.1453499   -0.3722132    -0.4817841   -0.6221365    -0.4705257   -0.6186101     0.3356595    0.0554416 
   0.038998100     0.1405274   -0.3407513    -0.6038485   -0.5231458    -0.5926261   -0.5252088     0.3050236   -0.0657191 
   0.040998000     0.1435359   -0.3151370    -0.7011674   -0.3995402    -0.6927655   -0.4059409     0.2362761   -0.1630836 
   0.042997900     0.1513886   -0.2972240    -0.7695462   -0.2587684    -0.7655264   -0.2672034     0.1418792   -0.2264823 
   0.044997800     0.1589931   -0.2748847    -0.8326157   -0.1540792    -0.8099619   -0.1068565     0.0468478   -0.2663232 
   0.046997700     0.1681533   -0.2857471    -0.8122612    0.0428890    -0.8159618    0.0375336    -0.0661762   -0.2373921 
   0.048997600     0.1726147   -0.2894009    -0.7892922    0.1890572    -0.7936791    0.1876685    -0.1530900   -0.1913310 
   0.050997500     0.1722127   -0.2967853    -0.7410522    0.3255305    -0.7440510    0.3268203    -0.2158481   -0.1219942 
   0.052997400     0.1671118   -0.3052812    -0.6714365    0.4471820    -0.6723846    0.4498174    -0.2502058   -0.0400767 
   0.054997300     0.1557881   -0.3143208    -0.5801619    0.5573584    -0.5813108    0.5565184    -0.2552349    0.0457164 
   0.056997200     0.1410270   -0.3209843    -0.4786652    0.6448606    -0.4745326    0.6456226    -0.2335740    0.1240796 
   0.058997100     0.1234826   -0.3244612    -0.3639797    0.7156690    -0.3585649    0.7134171    -0.1890670    0.1893957 
   0.060997000     0.1043788   -0.3240301    -0.2397998    0.7668496    -0.2351547    0.7612029    -0.1279375    0.2358145 
   0.062996900     0.0848028   -0.3194149    -0.1093052    0.7971266    -0.1072537    0.7890692    -0.0572517    0.2598733 
   0.064996800     0.0669231   -0.3108797     0.0245022    0.8062882     0.0228172    0.7971003     0.0161295    0.2607913 
   0.066996700     0.0515823   -0.2989929     0.1586018    0.7938256     0.1523840    0.7847626     0.0848998    0.2394759 
   0.068996600     0.0396933   -0.2847342     0.2894125    0.7593448     0.2795687    0.7521626     0.1428540    0.1987355 
   0.070996500     0.0318886   -0.2695242     0.4137404    0.7034796     0.4009112    0.6998357     0.1851837    0.1429307 
   0.072996400     0.0281852   -0.2541615     0.5272130    0.6264045     0.5133723    0.6271386     0.2082500    0.0778692 
   0.074996300     0.0283136   -0.2401679     0.6268688    0.5309299     0.6129522    0.5360588     0.2101957    0.0099655 
   0.076996200     0.0314883   -0.2286638     0.7083576    0.4193765     0.6967748    0.4280739     0.1916392   -0.0545953 
   0.078996100     0.0366103   -0.2203805     0.7693942    0.2951957     0.7608210    0.3062770     0.1546991   -0.1092867 
   0.080996000     0.0423026   -0.2157556     0.8080924    0.1623006     0.8033375    0.1747082     0.1033584   -0.1493295 
   0.082995900     0.0473345   -0.2146019     0.8236690    0.0248862     0.8218489    0.0373905     0.0429571   -0.1712627 
   0.084995800     0.0507405   -0.2160085     0.8149946   -0.1115790     0.8156941   -0.1004860    -0.0199952   -0.1731279 
   0.086995700     0.0516513   -0.2196620     0.7840492   -0.2440090     0.7857468   -0.2343416    -0.0795476   -0.1556885 
   0.088995600     0.0494634   -0.2242311     0.7319523   -0.3686469     0.7341953   -0.3597576    -0.1300320   -0.1211807 
   0.090995500     0.0440946   -0.2286174     0.6605488   -0.4822856     0.6629319   -0.4737575    -0.1667383   -0.0737954 
   0.092995400     0.0361324   -0.2320563     0.5732710   -0.5825388     0.5753092   -0.5730821    -0.1869726   -0.0184855 
   0.094995300     0.0258336   -0.2332299     0.4711086   -0.6660572     0.4734851   -0.6564134    -0.1895332    0.0391567 
   0.096995200     0.0143645   -0.2317364     0.3575149   -0.7319106     0.3610631   -0.7219338    -0.1749244    0.0940007 
   0.098995100     0.0025093   -0.2274181     0.2352922   -0.7791922     0.2408408   -0.7689612    -0.1453396    0.1410150 
   0.100995000    -0.0105733   -0.2204609     0.1059887   -0.8073421     0.1146496   -0.7973803    -0.1017835    0.1777604 
   0.102994900    -0.0202492   -0.2102551    -0.0245464   -0.8141284    -0.0129269   -0.8053399    -0.0520491    0.1985606 
   0.104994800    -0.0275003   -0.1980529    -0.1544177   -0.8000689    -0.1403989   -0.7939300     0.0004141    0.2036206 
   0.106994700    -0.0317885   -0.1845008    -0.2807429   -0.7653263    -0.2650606   -0.7629866     0.0509628    0.1929997 
   0.108994600    -0.0329930   -0.1707731    -0.4004191   -0.7111979    -0.3842038   -0.7128826     0.0954410    0.1682194 
   0.110994500    -0.0310479   -0.1576725    -0.5101668   -0.6381827    -0.4947816   -0.6439236     0.1296225    0.1322747 
   0.112994400    -0.0265242   -0.1459335    -0.6072706   -0.5482662    -0.5938264   -0.5576765     0.1510223    0.0887292 
   0.114994300    -0.0196895   -0.1364456    -0.6886585   -0.4432857    -0.6778200   -0.4554969     0.1579283    0.0418012 
   0.116994200    -0.0114855   -0.1298207    -0.7518671   -0.3263034    -0.7443236   -0.3401831     0.1503583   -0.0041535 
   0.118994100    -0.0028435   -0.1261078    -0.7950025   -0.2001752    -0.7909936   -0.2146260     0.1295472   -0.0443572 
   0.120994000     0.0056109   -0.1251691    -0.8171034   -0.0689208    -0.8161579   -0.0826404     0.0978946   -0.0752778 
   0.122993900     0.0126687   -0.1265970    -0.8169869    0.0640967    -0.8184451    0.0512474     0.0589407   -0.0942536 
   0.124993800     0.0179785   -0.1298666    -0.7952304    0.1949881    -0.7980409    0.1836160     0.0169211   -0.0995358 
   0.126993700     0.0211334   -0.1342344    -0.7523296    0.3205003    -0.7563077    0.3100270    -0.0238489   -0.0911181 
   0.128993600     0.0222095   -0.1389390    -0.6897031    0.4364367    -0.6944908    0.4270375    -0.0592357   -0.0701442 
   0.130993500     0.0211774   -0.1433894    -0.6097555    0.5406805    -0.6152562    0.5316042    -0.0852213   -0.0393220 
   0.132993400     0.0185126   -0.1469403    -0.5144415    0.6303976    -0.5209768    0.6213146    -0.0996482   -0.0022583 
   0.134993300     0.0146397   -0.1490695    -0.4064166    0.7034614    -0.4143006    0.6946838    -0.1012631    0.0370951 
   0.136993200     0.0101525   -0.1496498    -0.2886028    0.7583189    -0.2984311    0.7499286    -0.0901419    0.0747406 
   0.138993100     0.0056588   -0.1487844    -0.1640356    0.7936142    -0.1758516    0.7866493    -0.0677052    0.1067441 
   0.140993000     0.0017370   -0.1466676    -0.0353332    0.8086478    -0.0495617    0.8036689    -0.0363256    0.1300987 
   0.142992900    -0.0012708   -0.1436291     0.0936041    0.8035186     0.0778870    0.8010997     0.0010482    0.1424468 
   0.144992800    -0.0032097   -0.1401838     0.2202738    0.7781598     0.2037402    0.7793177     0.0404135    0.1424777 
   0.146992700    -0.0040198   -0.1367562     0.3410250    0.7326383     0.3247590    0.7376079     0.0781928    0.1305580 
   0.148992600    -0.0037874   -0.1338644     0.4531525    0.6684934     0.4381350    0.6771107     0.1107819    0.1077531 
   0.150992500    -0.0028163   -0.1317305     0.5533298    0.5874137     0.5402994    0.5988694     0.1351677    0.0760278 
   0.152992400    -0.0016338   -0.1308326     0.6394627    0.4912519     0.6294180    0.5049496     0.1489953    0.0382409 
   0.154992300    -0.0006241   -0.1311005     0.7088999    0.3828329     0.7022009    0.3977113     0.1510295   -0.0020161 
   0.156992200    -0.0003372   -0.1324050     0.7600669    0.2643826     0.7566891    0.2798929     0.1411361   -0.0411666 
   0.158992100    -0.0011323   -0.1344936     0.7914438    0.1399441     0.7909363    0.1548271     0.1202186   -0.0758497 
   0.160992000    -0.0033242   -0.1369020     0.8023853    0.0120533     0.8042430    0.0260073     0.0900716   -0.1027210 
   0.162991900    -0.0069987   -0.1391072     0.7928939   -0.1154137     0.7965982   -0.1025499     0.0534292   -0.1196438 
   0.164991800    -0.0121758   -0.1406162     0.7632046   -0.2393688     0.7679535   -0.2278340     0.0136805   -0.1250564 
   0.166991700    -0.0185550   -0.1408840     0.7146053   -0.3564058     0.7206172   -0.3458957    -0.0256865   -0.1186413 
   0.168991600    -0.0257622   -0.1395337     0.6481168   -0.4639140     0.6553040   -0.4541166    -0.0610919   -0.1012101 
   0.170991500    -0.0334129   -0.1362357     0.5661339   -0.5596495     0.5739732   -0.5506245    -0.0894766   -0.0745279 
   0.172991400    -0.0407157   -0.1309589     0.4706329   -0.6407762     0.4796402   -0.6325721    -0.1086158   -0.0415295 
   0.174991300    -0.0472258   -0.1237139     0.3635518   -0.7062516     0.3743798   -0.6989139    -0.1171743   -0.0049338 
   0.176991200    -0.0523116   -0.1147094     0.2478993   -0.7540914     0.2603698   -0.7482563    -0.1149074    0.0318230 
   0.178991100    -0.0555302   -0.1043684     0.1264536   -0.7836674     0.1400443   -0.7797434    -0.1023890    0.0654905 
   0.180991000    -0.0566219   -0.0932105     0.0019223   -0.7942787     0.0164274   -0.7923715    -0.0811289    0.0934410 
   0.182990900    -0.0551940   -0.0818151    -0.1233504   -0.7847348    -0.1078171   -0.7860307    -0.0533114    0.1135312 
   0.184990800    -0.0513202   -0.0708815    -0.2454841   -0.7559940    -0.2305218   -0.7602618    -0.0217638    0.1243597 
   0.186990700    -0.0452039   -0.0610093    -0.3619316   -0.7084239    -0.3483554   -0.7152394     0.0103179    0.1253759 
   0.188990600    -0.0361685   -0.0536059    -0.4495007   -0.6560717    -0.4412097   -0.6634582     0.0365730    0.1183812 
   0.190990500    -0.0275289   -0.0465536    -0.5633667   -0.5622177    -0.5541241   -0.5742728     0.0652265    0.1012891 
   0.192990400    -0.0172844   -0.0425291    -0.6478161   -0.4632676    -0.6411473   -0.4769120     0.0840519    0.0789885 
   0.194990300    -0.0066649   -0.0409728    -0.7135369   -0.3543835    -0.7095253   -0.3685721     0.0942448    0.0535008 
   0.196990200     0.0035644   -0.0417495    -0.7609103   -0.2363860    -0.7594699   -0.2505488     0.0958261    0.0273433 
   0.198990100     0.0129637   -0.0445958    -0.7887198   -0.1120671    -0.7894335   -0.1261779     0.0893431    0.0030960 
   0.200990000     0.0210056   -0.0491805    -0.7961890    0.0149864    -0.7988060    0.0015281     0.0758947   -0.0166383 
   0.202989900     0.0273683   -0.0550139    -0.7830917    0.1415451    -0.7873181    0.1289543     0.0574126   -0.0300152 
   0.204989800     0.0319810   -0.0615702    -0.7498620    0.2641921    -0.7554680    0.2526121     0.0362604   -0.0359267 
   0.206989700     0.0348477   -0.0683666    -0.6979558    0.3795723    -0.7046683    0.3685690     0.0149896   -0.0341237 
   0.208989600     0.0360243   -0.0749612    -0.6279012    0.4850486    -0.6365122    0.4745281    -0.0036794   -0.0252567 
   0.210989500     0.0358558   -0.0809864    -0.5422664    0.5778359    -0.5525247    0.5682954    -0.0174964   -0.0105140 
   0.212989400     0.0346393   -0.0862153    -0.4434090    0.6555995    -0.4547126    0.6478081    -0.0249436    0.0081391 
   0.214989300     0.0326770   -0.0904868    -0.3337246    0.7164847    -0.3463911    0.7106193    -0.0252569    0.0282423 
   0.216989200     0.0303683   -0.0937888    -0.2156326    0.7593824    -0.2300630    0.7557683    -0.0183747    0.0474371 
   0.218989100     0.0280235   -0.0962228    -0.0927915    0.7828729    -0.1083023    0.7819607    -0.0048785    0.0633660 
   0.220989000     0.0258498   -0.0979676     0.0317143    0.7868132     0.0162889    0.7887949     0.0137942    0.0741182 
   0.222988900     0.0240526   -0.0992026     0.1553365    0.7711964     0.1411280    0.7760282     0.0356258    0.0782839 
   0.224988800     0.0226503   -0.1001593     0.2752627    0.7360814     0.2623304    0.7435231     0.0582753    0.0750638 
   0.226988700     0.0216849   -0.1011292     0.3877055    0.6826102     0.3769011    0.6922656     0.0793951    0.0645624 
   0.228988600     0.0210728   -0.1022634     0.4899860    0.6123899     0.4812874    0.6237444     0.0967963    0.0475545 
   0.230988500     0.0206533   -0.1037356     0.5798808    0.5268147     0.5736857    0.5390627     0.1085871    0.0254403 
   0.232988400     0.0201501   -0.1055228     0.6549900    0.4276435     0.6512260    0.4407675     0.1132794    0.0002272 
   0.234988300     0.0194616   -0.1078254     0.7136335    0.3186340     0.7118297    0.3310708     0.1102052   -0.0258462 
   0.236988200     0.0183096   -0.1104615     0.7539423    0.2013726     0.7543706    0.2133256     0.0994169   -0.0503195 
   0.238988100     0.0166148   -0.1133492     0.7754763    0.0797353     0.7770062    0.0906763     0.0816153   -0.0708325 
   0.240988000     0.0142359   -0.1162464     0.7771494   -0.0437218     0.7800912   -0.0330673     0.0582034   -0.0854426 
   0.242987900     0.0111675   -0.1189902     0.7596319   -0.1654802     0.7635591   -0.1548815     0.0312341   -0.0925892 
   0.244987800     0.0073921   -0.1213366     0.7226670   -0.2829184     0.7286121   -0.2718910     0.0031935   -0.0914198 
   0.246987700     0.0030073   -0.1230987     0.6682525   -0.3927481     0.6757020   -0.3822581    -0.0232738   -0.0820498 
   0.248987600    -0.0018268   -0.1240934     0.5975103   -0.4921239     0.6062147   -0.4830587    -0.0458872   -0.0652695 
   0.250987500    -0.0069459   -0.1242386     0.5115408   -0.5793763     0.5221915   -0.5715491    -0.0625155   -0.0427132 
   0.252987400    -0.0120696   -0.1234246     0.4134727   -0.6517645     0.4258799   -0.6458209    -0.0716998   -0.0162403 
   0.254987300    -0.0169107   -0.1217465     0.3056991   -0.7078817     0.3198164   -0.7039394    -0.0726885    0.0117490 
   0.256987200    -0.0212726   -0.1192010     0.1906490   -0.7463188     0.2057950   -0.7450467    -0.0653971    0.0385785 
   0.258987100    -0.0249805   -0.1160604     0.0710482   -0.7665779     0.0867331   -0.7682253    -0.0505238    0.0619817 
   0.260987000    -0.0278652   -0.1123013    -0.0500590   -0.7673942    -0.0350459   -0.7722827    -0.0293981    0.0799934 
   0.262986900    -0.0299192   -0.1081255    -0.1700398   -0.7495277    -0.1565865   -0.7574814    -0.0040774    0.0908059 
   0.264986800    -0.0309897   -0.1038456    -0.2856711   -0.7130997    -0.2745245   -0.7230095     0.0231234    0.0936343 
   0.266986700    -0.0311440   -0.0997858    -0.3943370   -0.6587939    -0.3858612   -0.6702917     0.0499042    0.0883113 
   0.268986600    -0.0304277   -0.0961238    -0.4929053   -0.5882406    -0.4871734   -0.6004342     0.0738071    0.0754259 
   0.270986500    -0.0289582   -0.0931259    -0.5791298   -0.5029411    -0.5756906   -0.5154340     0.0925702    0.0561697 
   0.272986400    -0.0270451   -0.0909215    -0.6510274   -0.4050399    -0.6493767   -0.4175385     0.1047141    0.0323601 
   0.274986300    -0.0248211   -0.0895319    -0.7063513   -0.2970074    -0.7062942   -0.3093349     0.1092082    0.0062484 
   0.276986200    -0.0225491   -0.0889663    -0.7439457   -0.1814231    -0.7455960   -0.1934567     0.1056261   -0.0196785 
   0.278986100    -0.0204898   -0.0891589    -0.7625510   -0.0612929    -0.7655470   -0.0728720     0.0945313   -0.0431429 
   0.280986000    -0.0187891   -0.0900635    -0.7620556    0.0601584    -0.7662656    0.0494195     0.0769815   -0.0618895 
   0.282985900    -0.0176179   -0.0915025    -0.7422214    0.1796238    -0.7472677    0.1700316     0.0548244   -0.0741229 
   0.284985800    -0.0170269   -0.0933247    -0.7035290    0.2945171    -0.7096757    0.2858378     0.0303133   -0.0787260 
   0.286985700    -0.0170830   -0.0953693    -0.6470055    0.4016401    -0.6544086    0.3937576     0.0060377   -0.0753490 
   0.288985600    -0.0176934   -0.0975779    -0.5746498    0.4980919    -0.5836027    0.4908342    -0.0155310   -0.0645775 
   0.290985500    -0.0188205   -0.0996825    -0.4878184    0.5820618    -0.4987598    0.5756983    -0.0321684   -0.0475643 
   0.292985400    -0.0203865   -0.1016174    -0.3888633    0.6507823    -0.4017998    0.6461403    -0.0421828   -0.0261947 
   0.294985300    -0.0223215   -0.1032498    -0.2805955    0.7027456    -0.2947354    0.7003830    -0.0444676   -0.0029614 
   0.296985200    -0.0245121   -0.1045420    -0.1657972    0.7368899    -0.1798905    0.7373127    -0.0386886    0.0196436 
   0.298985100    -0.0267767   -0.1055060    -0.0470112    0.7524143    -0.0601636    0.7556798    -0.0254464    0.0391386 
   0.300985000    -0.0290573   -0.1062822     0.0726501    0.7487347     0.0613306    0.7541774    -0.0061870    0.0529599 
   0.302984900    -0.0313249   -0.1070409     0.1900567    0.7260336     0.1808558    0.7333091     0.0171468    0.0594447 
   0.304984800    -0.0336155   -0.1079389     0.3021393    0.6849064     0.2947717    0.6934339     0.0419913    0.0575301 
   0.306984700    -0.0360298   -0.1090450     0.4057907    0.6264256     0.4005162    0.6354653     0.0652739    0.0469094 
   0.308984600    -0.0386563   -0.1105305     0.4981867    0.5523836     0.4944507    0.5614325     0.0843690    0.0282915 
   0.310984500    -0.0418011   -0.1123076     0.5771171    0.4647565     0.5746428    0.4739334     0.0965026    0.0033133 
   0.312984400    -0.0456968   -0.1142784     0.6403918    0.3660268     0.6389440    0.3752244     0.0996159   -0.0254627 
   0.314984300    -0.0505870   -0.1162343     0.6866120    0.2590249     0.6857032    0.2686305     0.0925251   -0.0547657 
