! MS46122B
! 2250307/22442219
! 8/5/2025 7:40:07 AM
! C:\USERS\SPARKY\DOCUMENTS\VNA_DATA\AUGUST5_2025\3K\THRU_REPEAT1.S2P
! CHANNEL.1
! TR.MEASUREMENT
! RAW.DATA
# GHZ S RI R 50.0
! FREQ.GHZ         S11RE         S11IM         S21RE         S21IM         S12RE         S12IM         S22RE         S22IM         
!; PortSelection: Port_12
   0.001000000     1.0443690   -0.0683394    -0.0007836   -0.0011651    -0.0004229   -0.0010641     0.8134730   -0.5563679 
   0.002999900     0.9589646   -0.1916528    -0.0244605    0.0005959    -0.0250234   -0.0158738     0.0524291   -0.8754178 
   0.004999800     0.8887268   -0.3082646    -0.0930199   -0.0000787    -0.1492351    0.0305061    -0.6990331   -0.3570701 
   0.006999700     0.7577046   -0.4136564    -0.2296111    0.1644564    -0.1907426    0.1474238    -0.7471948    0.2605138 
   0.008999600     0.5912422   -0.4003158    -0.0610656    0.5292552    -0.0638197    0.5187180     0.2622222    0.6571943 
   0.010999500     0.5604913   -0.3290436     0.3675480    0.5096336     0.3640116    0.5220014     0.5196903   -0.2091739 
   0.012999400     0.5742742   -0.3368691     0.5599334    0.2736158     0.5774953    0.2908678     0.0558019   -0.5523547 
   0.014999300     0.5620804   -0.3741293     0.6147616    0.0748847     0.6382415    0.0718025    -0.3273973   -0.4839906 
   0.016999200     0.5380455   -0.4134493     0.6132206   -0.1002300     0.6331575   -0.1091820    -0.5363229   -0.2779546 
   0.018999100     0.5011508   -0.4501078     0.5778536   -0.2460869     0.5925179   -0.2620727    -0.6100723   -0.0438994 
   0.020999000     0.4555911   -0.4787264     0.5212262   -0.3730554     0.5272105   -0.3920137    -0.5800266    0.1714362 
   0.022998900     0.4054361   -0.4980660     0.4454624   -0.4848998     0.4428107   -0.5021665    -0.4783163    0.3417129 
   0.024998800     0.3488884   -0.4829203     0.3940873   -0.5870133     0.3355995   -0.5991886    -0.3631842    0.4870062 
   0.026998700     0.3000306   -0.5032591     0.2376747   -0.6619291     0.2258980   -0.6657686    -0.1654591    0.5092962 
   0.028998600     0.2502901   -0.4890485     0.1067094   -0.7199655     0.0966963   -0.7164940     0.0019880    0.5041229 
   0.030998500     0.2059871   -0.4646741    -0.0384781   -0.7515187    -0.0435557   -0.7425141     0.1509808    0.4465175 
   0.032998400     0.1717831   -0.4149349    -0.1617821   -0.7903548    -0.1999043   -0.7399075     0.2848748    0.3812975 
   0.034998300     0.1472483   -0.3952948    -0.3467596   -0.7162578    -0.3386938   -0.7079511     0.3387067    0.2181578 
   0.036998200     0.1349548   -0.3580116    -0.4932378   -0.6465561    -0.4806144   -0.6432641     0.3598813    0.0793733 
   0.038998100     0.1336123   -0.3243572    -0.6213613   -0.5445573    -0.6089963   -0.5473425     0.3319354   -0.0515975 
   0.040998000     0.1403443   -0.2976284    -0.7236112   -0.4159329    -0.7143779   -0.4237057     0.2620647   -0.1581616 
   0.042997900     0.1521523   -0.2797530    -0.7950678   -0.2692696    -0.7908834   -0.2794099     0.1636034   -0.2289589 
   0.044997800     0.1628392   -0.2590007    -0.8602386   -0.1599479    -0.8375078   -0.1123327     0.0642964   -0.2737883 
   0.046997700     0.1753974   -0.2715772    -0.8386964    0.0444988    -0.8435163    0.0378738    -0.0564911   -0.2465744 
   0.048997600     0.1819320   -0.2778899    -0.8140019    0.1959912    -0.8199171    0.1937551    -0.1490930   -0.2000330 
   0.050997500     0.1826395   -0.2881499    -0.7634329    0.3367404    -0.7678159    0.3378607    -0.2163454   -0.1284827 
   0.052997400     0.1773453   -0.2997165    -0.6902978    0.4630188    -0.6922191    0.4659912    -0.2536796   -0.0428708 
   0.054997300     0.1664537   -0.3107382    -0.5961551    0.5750946    -0.5992504    0.5736185    -0.2599529    0.0465073 
   0.056997200     0.1504474   -0.3197286    -0.4915164    0.6644477    -0.4881513    0.6655424    -0.2381521    0.1285136 
   0.058997100     0.1315101   -0.3248003    -0.3734557    0.7369723    -0.3684919    0.7349029    -0.1922220    0.1970013 
   0.060997000     0.1108556   -0.3254270    -0.2457989    0.7891364    -0.2415792    0.7837704    -0.1286750    0.2458223 
   0.062996900     0.0896769   -0.3213115    -0.1118101    0.8202831    -0.1102330    0.8122982    -0.0549599    0.2713838 
   0.064996800     0.0701893   -0.3127614     0.0258081    0.8296689     0.0235064    0.8206211     0.0218397    0.2726033 
   0.066996700     0.0535388   -0.3003867     0.1637566    0.8171094     0.1567407    0.8081703     0.0939894    0.2505183 
   0.068996600     0.0406651   -0.2852814     0.2985108    0.7817357     0.2876543    0.7750137     0.1549321    0.2080045 
   0.070996500     0.0322838   -0.2689976     0.4266489    0.7246054     0.4128344    0.7215917     0.1996755    0.1494013 
   0.072996400     0.0284993   -0.2524552     0.5439619    0.6452293     0.5291219    0.6469547     0.2241330    0.0809522 
   0.074996300     0.0289952   -0.2373450     0.6469957    0.5467139     0.6324609    0.5532174     0.2264605    0.0093362 
   0.076996200     0.0329667   -0.2249438     0.7313322    0.4314543     0.7194085    0.4417882     0.2070919   -0.0588958 
   0.078996100     0.0391899   -0.2161125     0.7945233    0.3030349     0.7865525    0.3160731     0.1682305   -0.1168201 
   0.080996000     0.0461838   -0.2113379     0.8344064    0.1654199     0.8303044    0.1793609     0.1141376   -0.1593730 
   0.082995900     0.0525316   -0.2104802     0.8502762    0.0232154     0.8494212    0.0369722     0.0503451   -0.1827509 
   0.084995800     0.0571353   -0.2126617     0.8408303   -0.1180766     0.8427437   -0.1059856    -0.0161198   -0.1848639 
   0.086995700     0.0589520   -0.2173683     0.8082920   -0.2551458     0.8117286   -0.2449372    -0.0789983   -0.1665951 
   0.088995600     0.0574640   -0.2232731     0.7537355   -0.3838574     0.7572045   -0.3746229    -0.1321306   -0.1302435 
   0.090995500     0.0524131   -0.2291247     0.6793306   -0.5011392     0.6827836   -0.4922132    -0.1706608   -0.0804541 
   0.092995400     0.0444050   -0.2340609     0.5884614   -0.6040999     0.5914336   -0.5945933    -0.1917057   -0.0223566 
   0.094995300     0.0334701   -0.2365237     0.4823042   -0.6897384     0.4856865   -0.6804575    -0.1940653    0.0379698 
   0.096995200     0.0211560   -0.2363684     0.3646257   -0.7569994     0.3689477   -0.7470968    -0.1784077    0.0952458 
   0.098995100     0.0082729   -0.2330106     0.2381744   -0.8051174     0.2445547   -0.7948958    -0.1470485    0.1439468 
   0.100995000    -0.0058716   -0.2268138     0.1049167   -0.8331791     0.1144373   -0.8232991    -0.1012389    0.1817097 
   0.102994900    -0.0169856   -0.2169504    -0.0298308   -0.8394154    -0.0171060   -0.8308697    -0.0491197    0.2025727 
   0.104994800    -0.0255246   -0.2048583    -0.1636091   -0.8242421    -0.1485783   -0.8186907     0.0056249    0.2068667 
   0.106994700    -0.0310695   -0.1911028    -0.2938957   -0.7875456    -0.2771267   -0.7861169     0.0580213    0.1946968 
   0.108994600    -0.0333744   -0.1769426    -0.4169782   -0.7310709    -0.3998791   -0.7339680     0.1037993    0.1677707 
   0.110994500    -0.0324000   -0.1632342    -0.5301098   -0.6553076    -0.5137925   -0.6624357     0.1384473    0.1293118 
   0.112994400    -0.0285630   -0.1507849    -0.6297042   -0.5619519    -0.6158203   -0.5730010     0.1594614    0.0831304 
   0.114994300    -0.0222599   -0.1404123    -0.7132049   -0.4532224    -0.7023731   -0.4670812     0.1651639    0.0336705 
   0.116994200    -0.0143518   -0.1328561    -0.7779251   -0.3319808    -0.7707677   -0.3476033     0.1555742   -0.0142489 
   0.118994100    -0.0057730   -0.1282756    -0.8219443   -0.2015593    -0.8186374   -0.2174619     0.1321268   -0.0558271 
   0.120994000     0.0027977   -0.1265240    -0.8440892   -0.0658316    -0.8440288   -0.0807959     0.0973982   -0.0873057 
   0.122993900     0.0101087   -0.1272706    -0.8433052    0.0718950    -0.8458146    0.0580402     0.0553022   -0.1058034 
   0.124993800     0.0158149   -0.1299444    -0.8200036    0.2070779    -0.8242143    0.1949489     0.0103436   -0.1095813 
   0.126993700     0.0194469   -0.1338566    -0.7747322    0.3366184    -0.7799314    0.3257098    -0.0327712   -0.0987861 
   0.128993600     0.0210683   -0.1382257    -0.7091595    0.4562411    -0.7151073    0.4465232    -0.0696568   -0.0747909 
   0.130993500     0.0206727   -0.1424693    -0.6257679    0.5635024    -0.6325454    0.5543444    -0.0961774   -0.0405482 
   0.132993400     0.0186094   -0.1459155    -0.5264581    0.6556955    -0.5340865    0.6466374    -0.1100517   -0.0001036 
   0.134993300     0.0153765   -0.1481203    -0.4140883    0.7307211    -0.4230268    0.7217973    -0.1100256    0.0423998 
   0.136993200     0.0115422   -0.1489303    -0.2915663    0.7864209    -0.3025791    0.7781871    -0.0963192    0.0825510 
   0.138993100     0.0076505   -0.1484043    -0.1621855    0.8219912    -0.1753252    0.8152137    -0.0706433    0.1161466 
   0.140993000     0.0043019   -0.1468280    -0.0289192    0.8365823    -0.0443116    0.8319094    -0.0355839    0.1400694 
   0.142992900     0.0017287   -0.1444962     0.1049860    0.8298429     0.0878488    0.8282942     0.0055093    0.1517151 
   0.144992800     0.0001567   -0.1418135     0.2359006    0.8024477     0.2179977    0.8045158     0.0481873    0.1499996 
   0.146992700    -0.0004768   -0.1393424     0.3605063    0.7538919     0.3431866    0.7602084     0.0887314    0.1353982 
   0.148992600    -0.0002980   -0.1375081     0.4759454    0.6860858     0.4600824    0.6963425     0.1230745    0.1089427 
   0.150992500     0.0003646   -0.1364875     0.5787674    0.6009379     0.5653206    0.6142818     0.1482262    0.0732836 
   0.152992400     0.0009714   -0.1366881     0.6669723    0.5002527     0.6567933    0.5158422     0.1615635    0.0314122 
   0.154992300     0.0011320   -0.1379967     0.7373557    0.3871051     0.7309693    0.4037319     0.1619646   -0.0126911 
   0.156992200     0.0002760   -0.1401962     0.7886615    0.2637667     0.7862052    0.2811316     0.1493650   -0.0552717 
   0.158992100    -0.0018866   -0.1429534     0.8195187    0.1347160     0.8200306    0.1508311     0.1248325   -0.0923597 
   0.160992000    -0.0056684   -0.1457401     0.8292022    0.0023884     0.8322142    0.0172897     0.0904969   -0.1206983 
   0.162991900    -0.0110642   -0.1480014     0.8175552   -0.1291877     0.8224327   -0.1156617     0.0493798   -0.1378451 
   0.164991800    -0.0180339   -0.1492886     0.7852455   -0.2568744     0.7915991   -0.2448420     0.0052162   -0.1422413 
   0.166991700    -0.0261086   -0.1489176     0.7335439   -0.3769828     0.7406766   -0.3661950    -0.0381005   -0.1337371 
   0.168991600    -0.0349638   -0.1464865     0.6636764   -0.4873752     0.6718457   -0.4771293    -0.0767214   -0.1132690 
   0.170991500    -0.0439566   -0.1416982     0.5777712   -0.5850313     0.5867637   -0.5758824    -0.1074590   -0.0828533 
   0.172991400    -0.0523308   -0.1345219     0.4781563   -0.6678126     0.4884562   -0.6595450    -0.1279050   -0.0456782 
   0.174991300    -0.0595022   -0.1253221     0.3671446   -0.7340082     0.3790672   -0.7268003    -0.1366237   -0.0047689 
   0.176991200    -0.0649432   -0.1142267     0.2470087   -0.7825695     0.2606973   -0.7767470    -0.1333658    0.0361696 
   0.178991100    -0.0680070   -0.1017222     0.1214085   -0.8116510     0.1361367   -0.8081855    -0.1189444    0.0734804 
   0.180991000    -0.0684995   -0.0885045    -0.0076491   -0.8214201     0.0083239   -0.8202387    -0.0949858    0.1043998 
   0.182990900    -0.0660626   -0.0751974    -0.1371478   -0.8104360    -0.1203391   -0.8128425    -0.0639153    0.1265004 
   0.184990800    -0.0607816   -0.0626302    -0.2634272   -0.7794616    -0.2474710   -0.7850256    -0.0288445    0.1384188 
   0.186990700    -0.0529665   -0.0514444    -0.3837487   -0.7290064    -0.3693234   -0.7375721     0.0067766    0.1395405 
   0.188990600    -0.0423444   -0.0433266    -0.4739531   -0.6738701    -0.4653378   -0.6826696     0.0359149    0.1317147 
   0.190990500    -0.0314375   -0.0357027    -0.5911227   -0.5751845    -0.5819838   -0.5890630     0.0675468    0.1130350 
   0.192990400    -0.0191473   -0.0316432    -0.6778519   -0.4715539    -0.6713873   -0.4867009     0.0884259    0.0885766 
   0.194990300    -0.0066614   -0.0305145    -0.7449498   -0.3574963    -0.7414204   -0.3732008     0.0997972    0.0606775 
   0.196990200     0.0052211   -0.0320899    -0.7926089   -0.2341240    -0.7920548   -0.2496821     0.1017824    0.0320779 
   0.198990100     0.0159516   -0.0360335    -0.8198414   -0.1044767    -0.8217847   -0.1196325     0.0949324    0.0056592 
   0.200990000     0.0250012   -0.0419171    -0.8257774    0.0280022    -0.8294933    0.0135645     0.0805276   -0.0159097 
   0.202989900     0.0320320   -0.0491062    -0.8102659    0.1594381    -0.8156267    0.1460903     0.0606581   -0.0304987 
   0.204989800     0.0369143   -0.0571033    -0.7737140    0.2864183    -0.7805381    0.2743281     0.0379625   -0.0369738 
   0.206989700     0.0397657   -0.0651734    -0.7177296    0.4057947    -0.7257344    0.3941155     0.0151722   -0.0351106 
   0.208989600     0.0406364   -0.0729028    -0.6432105    0.5139662    -0.6532202    0.5032106    -0.0047453   -0.0256071 
   0.210989500     0.0399199   -0.0798709    -0.5525361    0.6090495    -0.5641495    0.5994134    -0.0193621   -0.0098475 
   0.212989400     0.0380426   -0.0858028    -0.4482010    0.6882734    -0.4612638    0.6803880    -0.0271071    0.0100397 
   0.214989300     0.0353588   -0.0904938    -0.3332282    0.7495495    -0.3473043    0.7438758    -0.0271721    0.0313858 
   0.216989200     0.0323536   -0.0940029    -0.2097527    0.7919654    -0.2256178    0.7887569    -0.0195141    0.0515898 
   0.218989100     0.0293463   -0.0964186    -0.0815759    0.8139902    -0.0985955    0.8139175    -0.0048701    0.0682292 
   0.220989000     0.0266694   -0.0979756     0.0479947    0.8159296     0.0310589    0.8189471     0.0152342    0.0792152 
   0.222988900     0.0244787   -0.0988986     0.1759698    0.7972860     0.1607365    0.8035254     0.0385419    0.0830643 
   0.224988800     0.0228817   -0.0995254     0.2999223    0.7585935     0.2865574    0.7677036     0.0625343    0.0790108 
   0.226988700     0.0218925   -0.1001239     0.4158060    0.7009488     0.4045059    0.7123117     0.0847200    0.0672007 
   0.228988600     0.0213981   -0.1009438     0.5208611    0.6258411     0.5122455    0.6387096     0.1027522    0.0485532 
   0.230988500     0.0212113   -0.1022048     0.6128860    0.5351949     0.6066430    0.5489331     0.1145957    0.0246426 
   0.232988400     0.0210358   -0.1038861     0.6888365    0.4305666     0.6855353    0.4450147     0.1187909   -0.0024052 
   0.234988300     0.0206803   -0.1061973     0.7475925    0.3158400     0.7467207    0.3296388     0.1146284   -0.0301740 
   0.236988200     0.0198742   -0.1090112     0.7873096    0.1931773     0.7883705    0.2061638     0.1022153   -0.0558845 
   0.238988100     0.0184504   -0.1121594     0.8069718    0.0661197     0.8095296    0.0778390     0.0824244   -0.0771586 
   0.240988000     0.0162804   -0.1154618     0.8062032   -0.0624579     0.8100129   -0.0509058     0.0568855   -0.0918886 
   0.242987900     0.0133073   -0.1186187     0.7851312   -0.1887404     0.7904871   -0.1773442     0.0277618   -0.0984562 
   0.244987800     0.0094832   -0.1214361     0.7442881   -0.3101600     0.7512545   -0.2985511    -0.0021301   -0.0960894 
   0.246987700     0.0049199   -0.1236366     0.6849603   -0.4230486     0.6937303   -0.4120268    -0.0300387   -0.0850087 
   0.248987600    -0.0002336   -0.1250672     0.6090645   -0.5249472     0.6192726   -0.5154429    -0.0535160   -0.0661257 
   0.250987500    -0.0057746   -0.1255176     0.5177186   -0.6136037     0.5298569   -0.6056586    -0.0703532   -0.0412895 
   0.252987400    -0.0113725   -0.1249346     0.4141024   -0.6866672     0.4280330   -0.6807699    -0.0790530   -0.0125350 
   0.254987300    -0.0167687   -0.1233605     0.3005677   -0.7424265     0.3163950   -0.7389671    -0.0789197    0.0174455 
   0.256987200    -0.0216507   -0.1206516     0.1800962   -0.7796122     0.1968149   -0.7792946    -0.0699156    0.0458616 
   0.258987100    -0.0258653   -0.1173292     0.0552768   -0.7977313     0.0723703   -0.8006371    -0.0529705    0.0702556 
   0.260987000    -0.0291883   -0.1131867    -0.0707354   -0.7958661    -0.0545414   -0.8025113    -0.0295834    0.0885753 
   0.262986900    -0.0316042   -0.1085746    -0.1951613   -0.7743849    -0.1807502   -0.7839166    -0.0020655    0.0990759 
   0.264986800    -0.0329324   -0.1037620    -0.3145088   -0.7337493    -0.3029797   -0.7454671     0.0271007    0.1008916 
   0.266986700    -0.0331382   -0.0990633    -0.4261894   -0.6745890    -0.4176421   -0.6878242     0.0554269    0.0940571 
   0.268986600    -0.0323459   -0.0948224    -0.5270221   -0.5988756    -0.5216475   -0.6127152     0.0803105    0.0793084 
   0.270986500    -0.0307070   -0.0912268    -0.6146396   -0.5079028    -0.6118082   -0.5218632     0.0994387    0.0580127 
   0.272986400    -0.0284141   -0.0884986    -0.6870570   -0.4042452    -0.6860456   -0.4180495     0.1113046    0.0321653 
   0.274986300    -0.0257229   -0.0866611    -0.7419721   -0.2903868    -0.7427617   -0.3038091     0.1148522    0.0042296 
   0.276986200    -0.0228919   -0.0857530    -0.7782553   -0.1690978    -0.7808919   -0.1823239     0.1097731   -0.0230374 
   0.278986100    -0.0201768   -0.0857584    -0.7944989   -0.0434962    -0.7986699   -0.0559503     0.0968627   -0.0472413 
   0.280986000    -0.0177972   -0.0865728    -0.7908976    0.0829934    -0.7960497    0.0714881     0.0773585   -0.0660186 
   0.282985900    -0.0158982   -0.0880794    -0.7670404    0.2069776    -0.7732005    0.1968713     0.0532822   -0.0775892 
   0.284985800    -0.0146240   -0.0901211    -0.7236746    0.3256979    -0.7309955    0.3167072     0.0272553   -0.0808630 
   0.286985700    -0.0140375   -0.0925295    -0.6617372    0.4358953    -0.6705603    0.4276861     0.0019739   -0.0756560 
   0.288985600    -0.0140536   -0.0951248    -0.5835563    0.5348009    -0.5942435    0.5272936    -0.0199024   -0.0627047 
   0.290985500    -0.0146925   -0.0978292    -0.4906865    0.6195220    -0.5033630    0.6132154    -0.0360286   -0.0434323 
   0.292985400    -0.0158564   -0.1003870    -0.3855150    0.6883512    -0.4002918    0.6841839    -0.0447137   -0.0200237 
   0.294985300    -0.0174708   -0.1027988    -0.2711534    0.7393484    -0.2868434    0.7379464    -0.0449225    0.0047955 
   0.296985200    -0.0195161   -0.1048897    -0.1503280    0.7715314    -0.1660438    0.7733594    -0.0365234    0.0283269 
   0.298985100    -0.0218442   -0.1067259    -0.0260563    0.7842239    -0.0402936    0.7890200    -0.0203502    0.0478230 
   0.300985000    -0.0242662   -0.1083653     0.0984798    0.7765540     0.0866024    0.7839390     0.0018742    0.0606786 
   0.302984900    -0.0268370   -0.1099543     0.2201553    0.7492738     0.2105159    0.7582648     0.0279136    0.0652703 
   0.304984800    -0.0295624   -0.1116168     0.3355494    0.7026994     0.3283311    0.7128900     0.0547658    0.0605599 
   0.306984700    -0.0325676   -0.1134698     0.4417107    0.6385708     0.4366433    0.6492602     0.0793629    0.0464767 
   0.308984600    -0.0359275   -0.1155576     0.5355211    0.5584580     0.5322549    0.5690557     0.0985797    0.0241005 
   0.310984500    -0.0398814   -0.1178658     0.6146293    0.4648616     0.6129675    0.4750966     0.1096446   -0.0046735 
   0.312984400    -0.0447603   -0.1201495     0.6772411    0.3599133     0.6765597    0.3702361     0.1105496   -0.0368694 
   0.314984300    -0.0507136   -0.1222447     0.7218580    0.2471118     0.7218763    0.2578307     0.1003021   -0.0687621 
