! Created with skrf 1.8.0 (http://scikit-rf.org).
# GHz S RI R 50.0 
!freq ReS11 ImS11
0.001 -0.942822531470494 0.005019133463795563
0.0029999 -0.9422276977944796 0.011579977443643683
0.0049998 -0.9413088405799366 0.01786935823044998
0.0069997 -0.9408254479794891 0.024290911999976537
0.0089996 -0.9401228433763997 0.031003292497351724
0.0109995 -0.9397647934890904 0.03718417474278091
0.0129994 -0.9392749647291062 0.04341740240279719
0.0149993 -0.938416558392473 0.05002077458790982
0.0169992 -0.9378522481226959 0.05624209102501134
0.0189991 -0.9369396021872203 0.06262196221619887
0.020999 -0.9364690953008524 0.06878845524754315
0.0229989 -0.935508336389115 0.075117746849611
0.0249988 -0.9342763863949918 0.08134889978816631
0.0269987 -0.9339468135083341 0.08768249769311563
0.0289986 -0.9330280376072243 0.09390890400439869
0.0309985 -0.9319819632716653 0.10006903609366144
0.0329984 -0.9309829729472304 0.10619824579313153
0.0349983 -0.930032176730917 0.11263894057419341
0.0369982 -0.9290010411228675 0.11879735288409596
0.0389981 -0.9279929823058518 0.1250157935014401
0.040998 -0.9272412405923921 0.13091234879702476
0.0429979 -0.9257500964092807 0.13689323986429067
0.0449978 -0.9247956859289842 0.1430101402167176
0.0469977 -0.9234127646762768 0.1493080032829642
0.0489976 -0.9222781869213611 0.15538664750308323
0.0509975 -0.9209015847034691 0.1615648855698696
0.0529974 -0.9195903618004546 0.16774612126639604
0.0549973 -0.9183253033572357 0.1734699676187937
0.0569972 -0.9170365781169793 0.1795319149066179
0.0589971 -0.9155395622060682 0.18547623226736054
0.060997 -0.9139979585325921 0.1914425576520474
0.0629969 -0.9126235923160921 0.19726927439349845
0.0649968 -0.9111392546247349 0.20307879179033173
0.0669967 -0.9098972404578437 0.20906756076220026
0.0689966 -0.9081106373843304 0.21509067571568127
0.0709965 -0.9064174250977289 0.22089285527765828
0.0729964 -0.9050310187985452 0.2268572847609865
0.0749963 -0.9031858067725296 0.2324475390889384
0.0769962 -0.9010075378459727 0.23836617537876306
0.0789961 -0.8993564818986013 0.24427524434918413
0.080996 -0.897574263238433 0.2501447588517236
0.0829959 -0.8958802159489597 0.2560011549690505
0.0849958 -0.8936369319592158 0.2615876038216994
0.0869957 -0.8918786901725786 0.2672930799600119
0.0889956 -0.8896886247776504 0.2730973333555793
0.0909955 -0.8876799210542925 0.2787730083930022
0.0929954 -0.8855322922594024 0.2847232790366693
0.0949953 -0.8837480385183344 0.2901669181936278
0.0969952 -0.8815036162641419 0.2958761343249372
0.0989951 -0.879315277724738 0.3018032730564153
0.100995 -0.8769657375399942 0.30741004626070606
0.1029949 -0.8747465669383359 0.3129871925057686
0.1049948 -0.8725636335749399 0.31876938932045323
0.1069947 -0.870145910021135 0.32428248781525937
0.1089946 -0.8680299735958916 0.32983942015953055
0.1109945 -0.8655694744267292 0.335879862306268
0.1129944 -0.8630438194519059 0.3414151733937234
0.1149943 -0.8609074891119856 0.3470299319528153
0.1169942 -0.8582727367839087 0.35254670509084
0.1189941 -0.8560669125107432 0.35827548475222404
0.120994 -0.853519286639595 0.36369478246840187
0.1229939 -0.85115813371509 0.369139818978779
0.1249938 -0.8487858353031038 0.37457831822967613
0.1269937 -0.8463994142303094 0.38011524461145546
0.1289936 -0.8438620835054985 0.38565150793558844
0.1309935 -0.8408406389097944 0.39095884200120906
0.1329934 -0.838349351430954 0.3960152793490412
0.1349933 -0.8356512567373481 0.40146694646047076
0.1369932 -0.8332408693544606 0.4069294366447105
0.1389931 -0.8305273905719336 0.41231087638284764
0.140993 -0.8276261744889034 0.4173644887804656
0.1429929 -0.8248288332225571 0.4228645020985416
0.1449928 -0.8217849520021827 0.4281316314709003
0.1469927 -0.8190795208546919 0.4334569977344089
0.1489926 -0.815970948474678 0.43811222429893243
0.1509925 -0.8130863603174378 0.4435321727753716
0.1529924 -0.8097674781982344 0.44851174921086984
0.1549923 -0.8067329802039175 0.4532777632078015
0.1569922 -0.8032560336244434 0.4584132581265829
0.1589921 -0.8003814487819126 0.46395493024028106
0.160992 -0.7968727794510229 0.4689639168645554
0.1629919 -0.7938023295749156 0.4740236700381048
0.1649918 -0.7905588785326465 0.47895579168785696
0.1669917 -0.7871255544758988 0.4838337914881177
0.1689916 -0.7840021404501962 0.48874081947903114
0.1709915 -0.7806400099198583 0.494244159803614
0.1729914 -0.7769414316743074 0.49912755394276614
0.1749913 -0.7736158597103518 0.5042143938178585
0.1769912 -0.7698329879493958 0.5089601276323092
0.1789911 -0.7666361056590345 0.5141968395810683
0.180991 -0.762946752350735 0.5192681098552225
0.1829909 -0.7591697464771224 0.5242006201106124
0.1849908 -0.7560565470940852 0.5289300273659565
0.1869907 -0.7526813884206426 0.5345497271653014
0.1889906 -0.7484113612114058 0.5393688893302783
0.1909905 -0.7447850158097352 0.5443270094773833
0.1929904 -0.7413362679475004 0.5493932029603449
0.1949903 -0.7377548565388847 0.5540986557361297
0.1969902 -0.7344339542094587 0.5588812312933295
0.1989901 -0.7305984641303225 0.5635934186634882
0.20099 -0.7272983713036809 0.568717894960486
0.2029899 -0.7233213053687378 0.5730336941472254
0.2049898 -0.7192155929272611 0.5779082668377536
0.2069897 -0.7155073918382236 0.5825264828939738
0.2089896 -0.7118064482514567 0.5870335439261275
0.2109895 -0.7080667346745491 0.5915754229168395
0.2129894 -0.7041791707222719 0.5964202872299342
0.2149893 -0.700348874567348 0.6008111816589773
0.2169892 -0.6964485343624937 0.6051401903776783
0.2189891 -0.692391132274395 0.6096123921736428
0.220989 -0.6883191000274197 0.6140053227700812
0.2229889 -0.6842027697031098 0.6185038670769668
0.2249888 -0.680250496991087 0.6228810867097498
0.2269887 -0.6759327874815013 0.6268899523201027
0.2289886 -0.6718891091693164 0.6312376556963892
0.2309885 -0.6676643204395137 0.6352347602828731
0.2329884 -0.6630431458248349 0.6395160230250341
0.2349883 -0.6591423101493535 0.6438787262173219
0.2369882 -0.6546851737488578 0.647997244639876
0.2389881 -0.6503956447992679 0.6520405700666174
0.240988 -0.6458101527201077 0.6560917175426396
0.2429879 -0.6411602806010204 0.6602168998779957
0.2449878 -0.6368054590184881 0.6642698750953303
0.2469877 -0.6322368979645931 0.6682125057473658
0.2489876 -0.6275971422253804 0.6726934057398725
0.2509875 -0.6231085342495901 0.6764791762706447
0.2529874 -0.6182880829892992 0.6805748377914665
0.2549873 -0.6135659491842762 0.6848495137015911
0.2569872 -0.6089571541538225 0.6887551272827181
0.2589871 -0.604449340267016 0.6931903041660372
0.260987 -0.5995028788817925 0.6972432897594121
0.2629869 -0.594863580826501 0.7010553662217783
0.2649868 -0.5902427705234979 0.7050625390093749
0.2669867 -0.58537785631056 0.709016127443453
0.2689866 -0.5806334382906824 0.7127377811502696
0.2709865 -0.5760930342946098 0.7165764381187409
0.2729864 -0.5710749942749527 0.7204422941774304
0.2749863 -0.5662134778615485 0.7243736571844844
0.2769862 -0.5614605377772194 0.7282785891605179
0.2789861 -0.5566910949039009 0.7319682970764383
0.280986 -0.5517384531108432 0.7356036573261597
0.2829859 -0.5466040795906453 0.7393233204945368
0.2849858 -0.5421182763008061 0.7428166550005854
0.2869857 -0.5373153543794091 0.7464304781757434
0.2889856 -0.5323163889843816 0.7498688553438727
0.2909855 -0.5274000774930557 0.7536673921625685
0.2929854 -0.5224851408213484 0.7572303072468658
0.2949853 -0.5174432129886584 0.7603064681970508
0.2969852 -0.512110040563535 0.7636525726447371
0.2989851 -0.5072949099292708 0.7669328623989151
0.300985 -0.5017034186588603 0.7701221375970521
0.3029849 -0.49664994197030493 0.7730248415195082
0.3049848 -0.49138838326948164 0.7766237062201654
0.3069847 -0.48605933695000914 0.7797667738005721
0.3089846 -0.48100689900814014 0.7823871464375287
0.3109845 -0.4752537690286098 0.7856053601570344
0.3129844 -0.4703446025422374 0.7885712643021596
0.3149843 -0.464908875325456 0.7914261868779574
0.3169842 -0.45920829194411644 0.7944779932773657
0.3189841 -0.4539191713454436 0.7975082064945289
0.320984 -0.44823234590243394 0.8006550146665341
0.3229839 -0.442624095965888 0.8038999850467083
0.3249838 -0.4372614233637696 0.8067148187517155
0.3269837 -0.43165486048397683 0.8098063721209925
0.3289836 -0.42591282759337856 0.8125617170503763
0.3309835 -0.42030366637492933 0.8151419349993732
0.3329834 -0.4148571875557165 0.8186406290885864
0.3349833 -0.40929624133240805 0.820448069392994
0.3369832 -0.4034743430873753 0.8235086140128844
0.3389831 -0.39810965727599507 0.8266470323983915
0.340983 -0.392391708498071 0.8292591774452475
0.3429829 -0.38669054440891665 0.8319210941743485
0.3449828 -0.380773333646792 0.834745205517608
0.3469827 -0.3754011268462575 0.8374951287581469
0.3489826 -0.36952130917641574 0.8401291615000107
0.3509825 -0.3638211072919817 0.8425988649090541
0.3529824 -0.35787185158620016 0.8453345232697822
0.3549823 -0.3527756917357791 0.8478037177200707
0.3569822 -0.3467974920335465 0.8503102823515265
0.3589821 -0.3405522986570723 0.8525354824486042
0.360982 -0.33504685998722444 0.8544913360654275
0.3629819 -0.32918033885382386 0.8572710997661465
0.3649818 -0.3233729549861606 0.8589591714297093
0.3669817 -0.3176671707011801 0.8613746364713892
0.3689816 -0.31167010945287166 0.863441349984627
0.3709815 -0.3060527130671281 0.8654150365685536
0.3729814 -0.3002652851513456 0.8675688565044024
0.3749813 -0.2941197496451257 0.8697109962749725
0.3769812 -0.2883054482112173 0.8717024386061596
0.3789811 -0.28262464979086627 0.873775800732417
0.380981 -0.2765489165340067 0.8752100824130974
0.3829809 -0.27068132360818853 0.877239269162121
0.3849808 -0.26458054023797567 0.8788405139468339
0.3869807 -0.2586463321381219 0.8806914913685977
0.3889806 -0.25263893141424926 0.8824430193993299
0.3909805 -0.24624310875092054 0.8839424060089559
0.3929804 -0.24056087750395183 0.8855354863192256
0.3949803 -0.23384475776500901 0.8870980884047814
0.3969802 -0.2277040341050416 0.8883590755490001
0.3989801 -0.2216610179111265 0.8898848074370903
0.40098 -0.21543599531382537 0.8915955080921503
0.4029799 -0.2092074775994581 0.8926211460942252
0.4049798 -0.20274842111717706 0.8942506721263269
0.4069797 -0.1964322757016762 0.8956145161662346
0.4089796 -0.18999541334887868 0.8969335599702916
0.4109795 -0.1837876213920039 0.8982568004335075
0.4129794 -0.1773797003719011 0.8995505769551588
0.4149793 -0.17125983669798203 0.9007051151293537
0.4169792 -0.1642709430757793 0.9024902037662623
0.4189791 -0.1583248191927603 0.9031543732024526
0.420979 -0.15201573557365194 0.9042823686867189
0.4229789 -0.145350433748007 0.9050571369008036
0.4249788 -0.13926102217553932 0.9062187097383683
0.4269787 -0.13286590994369785 0.9073136804286108
0.4289786 -0.1263169983697502 0.9082752620319114
0.4309785 -0.12018244763835312 0.9091112989139652
0.4329784 -0.11371757525382753 0.9100975099228377
0.4349783 -0.10731875536826699 0.9108499552967148
0.4369782 -0.10057247333431495 0.9118338597939281
0.4389781 -0.0941027011208506 0.9126476576932512
0.440978 -0.08779528249189093 0.9134316797112496
0.4429779 -0.0815190953081652 0.913762744780538
0.4449778 -0.07514197714573716 0.9142770645644911
0.4469777 -0.06859466154285887 0.9146854093389392
0.4489776 -0.06210030944037312 0.915125809421137
0.4509775 -0.05567861633363742 0.9155186043239247
0.4529774 -0.04944301485960241 0.9158864411291856
0.4549773 -0.04314621297701757 0.9165740180022747
0.4569772 -0.03626069646658389 0.9169760319013296
0.4589771 -0.03003857361848855 0.9167653790980116
0.460977 -0.023135968587959268 0.9171659530728019
0.4629769 -0.01648404272789772 0.9172021779765602
0.4649768 -0.010119214948304874 0.9172079983254208
0.4669767 -0.0030843130729009127 0.9169122909967407
0.4689766 0.003463203441246473 0.9171857415261901
0.4709765 0.009908829663595187 0.9168177027233505
0.4729764 0.01660583269694753 0.917335352797199
0.4749763 0.02331308422064967 0.9169933980541178
0.4769762 0.0296512325485192 0.9167529840420512
0.4789761 0.0364043073136472 0.9165468428308703
0.480976 0.04293702537641493 0.9165814828499995
0.4829759 0.049584382741027264 0.9162411092240329
0.4849758 0.05604316492445869 0.9162040483450873
0.4869757 0.06295593530680006 0.9157554117424804
0.4889756 0.06945307221543262 0.9157239487484692
0.4909755 0.07601549825029674 0.9151858920546111
0.4929754 0.08233180220979959 0.9147377425051765
0.4949753 0.08906655936291538 0.9142086293731364
0.4969752 0.09574299917212307 0.9133965549261915
0.4989751 0.10215384722044575 0.9131307268647081
0.500975 0.10844973721974598 0.9127801412885901
0.5029749 0.1150065725946398 0.9118367302337447
0.5049748 0.12131108332485255 0.9109553562183558
0.5069747 0.12747086644707545 0.9099812610529173
0.5089746 0.13425703888562063 0.9093538686748264
0.5109745 0.14082089095194672 0.908229511640515
0.5129744 0.1471309135864915 0.9068820880909676
0.5149743 0.1537427957104899 0.9057675589941486
0.5169742 0.16043244415068775 0.9048493656881198
0.5189741 0.16685087603371102 0.9038716361747612
0.520974 0.1734715581952313 0.9024072496868383
0.5229739 0.17982187015406423 0.9007590095162358
0.5249738 0.18642942493795053 0.8996457016873242
0.5269737 0.1926679889553547 0.8979991613820738
0.5289736 0.19915928350591944 0.896371880845197
0.5309735 0.20575890821248755 0.8948709742674195
0.5329734 0.21220345543618663 0.8930886577292082
0.5349733 0.21877761840072935 0.8913337020317802
0.5369732 0.22531169005876764 0.8894240363794682
0.5389731 0.2322121487342475 0.8878855824428841
0.540973 0.23892146754100557 0.8859612252681108
0.5429729 0.24528695389579297 0.8843441079883186
0.5449728 0.25200978130282065 0.8825506283152369
0.5469727 0.2584987314314345 0.8804572629355361
0.5489726 0.2652001854354734 0.8787193472485944
0.5509725 0.2715665931020309 0.8768265270210578
0.5529724 0.27819502991556194 0.8747885076889793
0.5549723 0.2846839397352086 0.8724060252082141
0.5569722 0.29157608868125895 0.8706616667193355
0.5589721 0.29785277632971613 0.8686110691472844
0.560972 0.30455492917279425 0.8665624694510292
0.5629719 0.3113115271659563 0.8646086172145462
0.5649718 0.31806147148745495 0.8626956798625859
0.5669717 0.3238648041728825 0.8605801885449624
0.5689716 0.3307100517968611 0.8582527602513801
0.5709715 0.33688916189787926 0.8557404331268039
0.5729714 0.34364408102865446 0.8534104250077221
0.5749713 0.3497243282412916 0.8510161678101111
0.5769712 0.35585052607932854 0.8487160258080075
0.5789711 0.3621362621463279 0.8461441861600068
0.580971 0.36802408042427 0.8438167703710874
0.5829709 0.3744376962678856 0.8409212795113888
0.5849708 0.3803242717034076 0.8384082237218247
0.5869707 0.3864130891308365 0.8356635811494816
0.5889706 0.39264188357168434 0.8326393264961637
0.5909705 0.39865258533698766 0.8296714287829976
0.5929704 0.4049385071539432 0.826562715597088
0.5949703 0.41068121655865986 0.8235244215423525
0.5969702 0.41664561873541484 0.819972680396472
0.5989701 0.42302690323852093 0.8170374707014354
0.60097 0.4292333794708782 0.8138046069216416
0.6029699 0.43518874876373526 0.8098929176309182
0.6049698 0.44106289763725176 0.806549772835364
0.6069697 0.4468014156688751 0.8029632420720265
0.6089696 0.45328907652340394 0.7999599469600024
0.6109695 0.45912161633851234 0.7963605411873713
0.6129694 0.4653616488399035 0.7924359919608708
0.6149693 0.4711014000652145 0.7893517281542917
0.6169692 0.47758862071478986 0.7855419002754478
0.6189691 0.4837512632639003 0.7815797942720725
0.620969 0.4894756721155987 0.7781853152132419
0.6229689 0.49550841769643417 0.7741089084460687
0.6249688 0.5015421297673548 0.770500931725477
0.6269687 0.5075912097230335 0.7665343735669805
0.6289686 0.513475149669184 0.7630613038283576
0.6309685 0.5194047426099195 0.7589281672871312
0.6329684 0.525118743458461 0.7549940133320023
0.6349683 0.5313188555511701 0.7515035627210641
0.6369682 0.5369143980179804 0.7471760296367786
0.6389681 0.5429365550848567 0.7433242351085022
0.640968 0.5486498832050711 0.7395719500263268
0.6429679 0.554341127630997 0.7357048899718077
0.6449678 0.5595311310271336 0.731612750030476
0.6469677 0.565261723627771 0.7274934588844771
0.6489676 0.5703971136654253 0.7238478026330573
0.6509675 0.5758128945953358 0.7198708140242066
0.6529674 0.581940644177131 0.7151964496517047
0.6549673 0.5872143239504132 0.7112257760407265
0.6569672 0.5921788990756915 0.7061852473825154
0.6589671 0.5973216124746655 0.7022971550195906
0.660967 0.6024695029611733 0.6977155511720172
0.6629669 0.6075572419200392 0.6930996409193199
0.6649668 0.6125807930332049 0.6881895662655523
0.6669667 0.6175348618210257 0.6834153806067077
0.6689666 0.6226660761456904 0.6792955714074519
0.6709665 0.6274830090215633 0.6743425756072806
0.6729664 0.6325976174417117 0.6691424489530268
0.6749663 0.6374584835476799 0.6643987116934766
0.6769662 0.6430754544917578 0.6591364598730488
0.6789661 0.6478645657187194 0.6543206661079161
0.680966 0.6522133959582145 0.6491326018457476
0.6829659 0.657664451541196 0.6438769420253807
0.6849658 0.6625214474670851 0.6392769261276203
0.6869657 0.6674515687096584 0.6339053809938904
0.6889656 0.6719375606019773 0.6283322293129281
0.6909655 0.6768428318958359 0.6231780762300154
0.6929654 0.6821736707793484 0.61729519094635
0.6949653 0.6866559340038225 0.6123883371726246
0.6969652 0.6915695266252095 0.6065603976644232
0.6989651 0.6965597841186345 0.6013291090318992
0.700965 0.7012009656397765 0.5958167372185842
0.7029649 0.7057700243788446 0.5903474653097949
0.7049648 0.710580318806443 0.5850081594610644
0.7069647 0.7153371142139207 0.5792002400041506
0.7089646 0.7202377808111663 0.5740331263602539
0.7109645 0.7248779987102972 0.5684852915900575
0.7129644 0.7295529570940746 0.563165516116643
0.7149643 0.7337558755596741 0.5574701100571745
0.7169642 0.7384224978246466 0.5519423311760168
0.7189641 0.7425607124943293 0.5465275423066205
0.720964 0.7466121174524388 0.5410195755672625
0.7229639 0.750888956409343 0.5353558209370052
0.7249638 0.7552841541532193 0.5295618243617981
0.7269637 0.7594688495369771 0.5239792012583282
0.7289636 0.763141492910906 0.5181493304662954
0.7309635 0.7678434042467079 0.5122712786218204
0.7329634 0.771271216984442 0.5068731704053496
0.7349633 0.7752910922913775 0.500821862754455
0.7369632 0.7786314748272772 0.495264791299704
0.7389631 0.7825734117027885 0.48912388234073045
0.740963 0.786273036616016 0.4825343217460429
0.7429629 0.7896589245856822 0.4768895177408828
0.7449628 0.7935349597803087 0.47093380464261525
0.7469627 0.7967950842907812 0.46502286840972396
0.7489626 0.8001247268089704 0.4586546259482091
0.7509625 0.8037039093868141 0.45179769046370905
0.7529624 0.8072040158004001 0.4463964231128806
0.7549623 0.81064357750985 0.4398531745900294
0.7569622 0.8137213569825525 0.43314656834680904
0.7589621 0.8166094208944367 0.4266069994907679
0.760962 0.8197641198260288 0.4206455473889019
0.7629619 0.8234726561751744 0.41362607581173455
0.7649618 0.8266907523872279 0.4074010370185107
0.7669617 0.829898955319725 0.4008741486976457
0.7689616 0.8328788323742887 0.3939783967444068
0.7709615 0.8358465670344777 0.38748046365331446
0.7729614 0.8391153013081619 0.38082957186836364
0.7749613 0.8421704507427481 0.3740925570647944
0.7769612 0.8450883788089282 0.36753048917770764
0.7789611 0.8476210746229759 0.3605935221502895
0.780961 0.8506220999310161 0.35401936628416875
0.7829609 0.8533435704132529 0.3474490969930437
0.7849608 0.8566118861262331 0.3408176252363215
0.7869607 0.8590856318564504 0.33396880504644766
0.7889606 0.8618405862520792 0.327316859279533
0.7909605 0.8642538130786479 0.3207457585175281
0.7929604 0.866956874007352 0.3139766523250693
0.7949603 0.8692006151714426 0.30735347635947896
0.7969602 0.8720555073728569 0.30016737193466075
0.7989601 0.8743339645679592 0.29367691520814665
0.80096 0.8766794427944965 0.28683945347603834
0.8029599 0.8791548659576306 0.28014217378879347
0.8049598 0.8809968422273986 0.27320975232822126
0.8069597 0.8831962722686422 0.26660858225867057
0.8089596 0.8849607599721871 0.25946407221919054
0.8109595 0.886672339348766 0.25277577384228833
0.8129594 0.8887992724800219 0.24611434119212905
0.8149593 0.890792446161307 0.23949010091168152
