! Created with skrf 1.8.0 (http://scikit-rf.org).
# GHz S RI R 50.0 
!freq ReS11 ImS11
0.001 0.9946525456599385 -0.0067868342393879195
0.0029999 0.992792384354184 -0.017015117654178083
0.0049998 0.9909141806239167 -0.02504282369822132
0.0069997 0.9886297863895487 -0.03139550542247722
0.0089996 0.9869285271117227 -0.03810851821074904
0.0109995 0.9859037893585332 -0.045439916620406355
0.0129994 0.9854148366577946 -0.05249102607998257
0.0149993 0.984584285012241 -0.05980915316075109
0.0169992 0.9840672121810249 -0.06660109991959515
0.0189991 0.9832270765255159 -0.07433500665743223
0.020999 0.9825360245021456 -0.08185973719436596
0.0229989 0.9816630555149497 -0.08909429612390492
0.0249988 0.9806218969950473 -0.09653289518688837
0.0269987 0.9799224797692287 -0.1038778721536755
0.0289986 0.9791598549785097 -0.11138286476768963
0.0309985 0.9780258080284697 -0.11878313750183608
0.0329984 0.9768605157298429 -0.12591197871414306
0.0349983 0.9758932711978507 -0.13372472264292778
0.0369982 0.9751005446178505 -0.14097860897256878
0.0389981 0.9735204439443845 -0.14859603716459122
0.040998 0.9727341809479065 -0.15525630844138533
0.0429979 0.9710290588679564 -0.1629073784153157
0.0449978 0.9696831232621484 -0.17026558629184357
0.0469977 0.9684309839491174 -0.1776466595304947
0.0489976 0.9668165089802535 -0.1848338212596609
0.0509975 0.9652924419049775 -0.192162581232655
0.0529974 0.9635646811069019 -0.19943378101076098
0.0549973 0.9623171361058496 -0.20687575302862204
0.0569972 0.9602570996751089 -0.21392853135124817
0.0589971 0.9584335698246594 -0.22145053978851556
0.060997 0.9565342960809211 -0.22869262281199704
0.0629969 0.954665931786436 -0.23612962401532894
0.0649968 0.9528566925733725 -0.24319757207156903
0.0669967 0.9509591734796791 -0.2502555888056643
0.0689966 0.9488577688080898 -0.25765455638108237
0.0709965 0.9469169582164076 -0.2649319109737224
0.0729964 0.9451268965366953 -0.2722495686559181
0.0749963 0.9426361641401074 -0.2792512843944135
0.0769962 0.9404706684196737 -0.2861995686620198
0.0789961 0.9383124435279127 -0.29335148386354154
0.080996 0.9359021482476327 -0.3005802069444357
0.0829959 0.9334090504822571 -0.3073844143081969
0.0849958 0.9311404097783402 -0.31451844469155577
0.0869957 0.9286526540254628 -0.3216122835359552
0.0889956 0.9258906061962566 -0.3288233773244758
0.0909955 0.9235766299523546 -0.33566105748520403
0.0929954 0.9208015246614852 -0.3424120828836524
0.0949953 0.9182658700164007 -0.3493073652311394
0.0969952 0.9154940452882694 -0.35665395424714763
0.0989951 0.9127867886342663 -0.3630139179903726
0.100995 0.9099051899063995 -0.3695625935235812
0.1029949 0.9070225084519037 -0.3770170442422606
0.1049948 0.904216778377947 -0.3833932703455197
0.1069947 0.9013480380792859 -0.3902657818407057
0.1089946 0.8982633544113926 -0.39719804991712276
0.1109945 0.8949440273613756 -0.40379942140894237
0.1129944 0.8916033625531393 -0.4102564875912792
0.1149943 0.888506482536833 -0.4170668876967979
0.1169942 0.8852290026302546 -0.4234692141694394
0.1189941 0.8816439578217612 -0.42963999346655923
0.120994 0.8786377225207842 -0.4366273866667933
0.1229939 0.8747645493097317 -0.44321419378701044
0.1249938 0.871291886338278 -0.44963008304935675
0.1269937 0.8680398713636449 -0.4560420563669265
0.1289936 0.8638768391922504 -0.4624979660858516
0.1309935 0.8603926611816265 -0.46865346368759186
0.1329934 0.8563185165239742 -0.4753315454660781
0.1349933 0.8527296044998839 -0.4815838774470692
0.1369932 0.848962497096436 -0.4881700322865679
0.1389931 0.8449406790053726 -0.4943501704677145
0.140993 0.8408961000900544 -0.5007710810762948
0.1429929 0.837136287981788 -0.5074319166469088
0.1449928 0.8332129351126943 -0.5136705322739226
0.1469927 0.82914956647222 -0.5197668838984096
0.1489926 0.8249148953766801 -0.5261172110014989
0.1509925 0.8209063580725852 -0.5324378901653835
0.1529924 0.8167802112664682 -0.5385118015849083
0.1549923 0.812853016336254 -0.5445543956913401
0.1569922 0.809023600932901 -0.5510291030653618
0.1589921 0.8047881507383666 -0.5570423572687186
0.160992 0.8002996767007093 -0.5630961005818119
0.1629919 0.7960411094907396 -0.5685696657623566
0.1649918 0.7916277663359589 -0.5745810206270883
0.1669917 0.7873395341840397 -0.5805301691027814
0.1689916 0.7833767994904268 -0.5860824017988682
0.1709915 0.7790277517634694 -0.5917008395503538
0.1729914 0.7743890630235165 -0.5977602000068687
0.1749913 0.7698288338660995 -0.6034558527719439
0.1769912 0.7654524782799235 -0.6090298699278973
0.1789911 0.7609449817192665 -0.6144993341516286
0.180991 0.7560751039014434 -0.6200576748931084
0.1829909 0.7516444231091115 -0.6252423160322752
0.1849908 0.7467532863625643 -0.6306755125087761
0.1869907 0.7418807193946437 -0.6360664030772142
0.1889906 0.7374065372491903 -0.6408918477031305
0.1909905 0.7324516059877635 -0.646170520983815
0.1929904 0.727252508288431 -0.6513531551340508
0.1949903 0.7222764084706373 -0.6563633599106365
0.1969902 0.7169385270824956 -0.6610033575734878
0.1989901 0.7121408012345048 -0.6662564383809894
0.20099 0.7067846673092357 -0.6715616789318173
0.2029899 0.7013878668899419 -0.6766180042642029
0.2049898 0.6963001701697612 -0.6816746550867371
0.2069897 0.690844695210733 -0.6865388573419137
0.2089896 0.685622010953694 -0.6915354272356649
0.2109895 0.6801793156465274 -0.6962017556915009
0.2129894 0.6745961447684866 -0.7009678964510708
0.2149893 0.6693154416857224 -0.7061698366983776
0.2169892 0.6636089109844927 -0.7111789210882178
0.2189891 0.6582382022320183 -0.7160386000483645
0.220989 0.6527199726905725 -0.7209180434728117
0.2229889 0.6473195712601357 -0.7251689294714461
0.2249888 0.6414568284578361 -0.7299436125162143
0.2269887 0.6361043887664214 -0.7347926280110813
0.2289886 0.6306607147452292 -0.7393523068115385
0.2309885 0.6254916016490606 -0.7441443529751671
0.2329884 0.6194571408997961 -0.7488856438246698
0.2349883 0.6140689695297388 -0.7531733414255505
0.2369882 0.6083581112761518 -0.75788597946876
0.2389881 0.6026953094789965 -0.7619340914534563
0.240988 0.5969437666654833 -0.7663852887468382
0.2429879 0.5915261666875476 -0.770752719250696
0.2449878 0.585392569556194 -0.7750263571552916
0.2469877 0.5801166540128074 -0.7788464772015914
0.2489876 0.5743260282384297 -0.7831783577450971
0.2509875 0.5686841882970769 -0.7871539174382789
0.2529874 0.5630254201749114 -0.7914579750145684
0.2549873 0.5573246074462959 -0.7954029275332989
0.2569872 0.5516294996875788 -0.7989254823876674
0.2589871 0.5454897058774059 -0.8024244838578144
0.260987 0.5395392773677385 -0.8063104808579149
0.2629869 0.5338301713502619 -0.8101275169578197
0.2649868 0.5279442003640319 -0.8134139183876632
0.2669867 0.5219600683462179 -0.8171093096078761
0.2689866 0.5156973535841217 -0.8203618270786582
0.2709865 0.5094363916241589 -0.8237837731478747
0.2729864 0.5032700952290845 -0.8271502906266354
0.2749863 0.4977177100783974 -0.8309285285783741
0.2769862 0.49133030793654986 -0.8339908905911827
0.2789861 0.4849910132593314 -0.8370962025768531
0.280986 0.4785435238309777 -0.8405199561273262
0.2829859 0.47244960757368337 -0.8437398044081855
0.2849858 0.4662771760844023 -0.8467729496562828
0.2869857 0.4595867794817603 -0.8498789222148181
0.2889856 0.45309124459391903 -0.8528369838460175
0.2909855 0.4471913205844453 -0.8558456866724345
0.2929854 0.4406087585858517 -0.8589237270952784
0.2949853 0.43408286119034833 -0.8621084660584295
0.2969852 0.4279348154652993 -0.8653244813344808
0.2989851 0.4214405433989332 -0.8683580132471552
0.300985 0.4154306205242281 -0.870939403090838
0.3029849 0.4092732117918787 -0.873927235422481
0.3049848 0.4023641477112739 -0.8769181147536698
0.3069847 0.3958980829439807 -0.8795135361747494
0.3089846 0.3896607836181491 -0.8825635259938276
0.3109845 0.38347946461819504 -0.8850188481908816
0.3129844 0.3767579450514643 -0.8878082358805884
0.3149843 0.37070547992520747 -0.8901371677537734
0.3169842 0.3646231245629544 -0.8927961930663763
0.3189841 0.3580235960027476 -0.8952478447508638
0.320984 0.3516182734895268 -0.8972985698243368
0.3229839 0.34518089752930287 -0.8995470650080335
0.3249838 0.33870971911236086 -0.9019420052678709
0.3269837 0.3325514421369995 -0.9042069742880463
0.3289836 0.3262928126647986 -0.9064330810892474
0.3309835 0.31980541567362547 -0.908502613772066
0.3329834 0.3131536383901249 -0.9106416949775541
0.3349833 0.30651840567921795 -0.9122274248329614
0.3369832 0.3004209582535583 -0.9141163970611375
0.3389831 0.29398893915658686 -0.915978967030281
0.340983 0.28749458337076184 -0.9178413044159552
0.3429829 0.2810174202170034 -0.9191152510441463
0.3449828 0.2744756681833196 -0.9211136549397304
0.3469827 0.2679672221275844 -0.9226361516208298
0.3489826 0.2615955517021548 -0.9242604661750967
0.3509825 0.2549043605884631 -0.9256737422157825
0.3529824 0.24833690949945394 -0.9271393813479208
0.3549823 0.24183375727806464 -0.9283293254875999
0.3569822 0.23491293606980881 -0.9298768584687078
0.3589821 0.22836742595148135 -0.9307748931911637
0.360982 0.2218083478771679 -0.9322874705298221
0.3629819 0.21518348480025 -0.9333619536044533
0.3649818 0.2088813072176663 -0.9342478772088634
0.3669817 0.2015288189673895 -0.9355676345945535
0.3689816 0.19477226305941334 -0.9366194972968737
0.3709815 0.18826384034191246 -0.9380013657491109
0.3729814 0.181104678695219 -0.9390614714115786
0.3749813 0.1746641876122716 -0.9403313034161578
0.3769812 0.1682765870875876 -0.9411929586138121
0.3789811 0.1611104359965133 -0.9422626446612477
0.380981 0.15458098456569366 -0.9433393770083359
0.3829809 0.14794899823618646 -0.9443045353081648
0.3849808 0.14150567011507026 -0.9448994936260895
0.3869807 0.13461671809962097 -0.9459283717268341
0.3889806 0.12773810177624437 -0.9465106252762462
0.3909805 0.12167133307213214 -0.9474051837332849
0.3929804 0.11477312437501556 -0.9477816926559829
0.3949803 0.10833890995384571 -0.9485097308410704
0.3969802 0.10198098991335121 -0.949341807922065
0.3989801 0.09575316808509839 -0.9502213136639015
0.40098 0.08898422595066657 -0.9503306368915913
0.4029799 0.08274195372276993 -0.9508883897726473
0.4049798 0.07584201783005343 -0.9508867566633591
0.4069797 0.06968427543619204 -0.95151764279297
0.4089796 0.0630978760753853 -0.9516241828970617
0.4109795 0.05669507247979563 -0.9515655337642481
0.4129794 0.050245330469768784 -0.9514384577607273
0.4149793 0.043798992307984626 -0.951760437900213
0.4169792 0.0371261470349214 -0.9517288401089599
0.4189791 0.031090203428535385 -0.9516157852349642
0.420979 0.024589119394469925 -0.9516686344009806
0.4229789 0.01795942873747157 -0.9518159623173759
0.4249788 0.011505075109242244 -0.9512553549136618
0.4269787 0.00512061357454258 -0.9511665901697393
0.4289786 -0.0016534909889079213 -0.950805946362125
0.4309785 -0.00785724712564996 -0.9508287855801862
0.4329784 -0.014522458467510387 -0.9496115641680156
0.4349783 -0.021381269058377964 -0.9495333434285955
0.4369782 -0.02689106723952643 -0.9493266307481906
0.4389781 -0.033467578474902206 -0.9488710818053534
0.440978 -0.04002239907634137 -0.948410916231055
0.4429779 -0.04655845566129889 -0.9478478313881841
0.4449778 -0.05340971363835892 -0.946908857164698
0.4469777 -0.059699442616478984 -0.9464761130016219
0.4489776 -0.06607707133100561 -0.9460368935909549
0.4509775 -0.07222663837009713 -0.9449989027700327
0.4529774 -0.0788737941655317 -0.9441432554983993
0.4549773 -0.08497079781353967 -0.943853243329931
0.4569772 -0.09160746719756932 -0.9425543612706457
0.4589771 -0.09767120486655118 -0.9418955065186275
0.460977 -0.1040183447220769 -0.9407631319793478
0.4629769 -0.11043233562842435 -0.9398205309633897
0.4649768 -0.11662906245381012 -0.9390026695414087
0.4669767 -0.12280919488049657 -0.9377021055214715
0.4689766 -0.12888363333066274 -0.9373516193871052
0.4709765 -0.13507938027927172 -0.9356426192615401
0.4729764 -0.14119347662852885 -0.9347264521594753
0.4749763 -0.14766008288225307 -0.9334190430614573
0.4769762 -0.1535157440910149 -0.9321793423582548
0.4789761 -0.1597089831236312 -0.9308001172136201
0.480976 -0.16528825250402776 -0.9293136618449022
0.4829759 -0.17177079969222284 -0.9281978772679733
0.4849758 -0.1779206708577386 -0.926883567652378
0.4869757 -0.1842850580594511 -0.925481353525657
0.4889756 -0.19016924653043668 -0.9236027056025301
0.4909755 -0.19633910480000538 -0.9217580621241956
0.4929754 -0.202398280456127 -0.920557237696654
0.4949753 -0.20856626689011926 -0.9182543053711609
0.4969752 -0.21482570980476473 -0.916958914446785
0.4989751 -0.22032158863243134 -0.9145711080011435
0.500975 -0.2265731515860464 -0.9128105464140841
0.5029749 -0.23278251854958745 -0.9109752376213056
0.5049748 -0.23897505784882983 -0.9091994155448039
0.5069747 -0.24495327185282872 -0.9075510354300818
0.5089746 -0.25105206801885444 -0.9054461776832982
0.5109745 -0.2569358577679477 -0.9036882658642895
0.5129744 -0.26277063426056935 -0.9019822235982048
0.5149743 -0.2689338887646627 -0.9001524521275304
0.5169742 -0.27471162807973964 -0.8984224043846878
0.5189741 -0.28069461144146046 -0.8966580600519461
0.520974 -0.2867767802019928 -0.8940339402438134
0.5229739 -0.2925238312645742 -0.8926415000495771
0.5249738 -0.29829683021587416 -0.890047590378879
0.5269737 -0.3041175899470468 -0.888166485803608
0.5289736 -0.3101360834851839 -0.8861644058243229
0.5309735 -0.3158003831244325 -0.8837647530977115
0.5329734 -0.3212615837308009 -0.8815513389101235
0.5349733 -0.3271933026276921 -0.8793147713545479
0.5369732 -0.33281713714561006 -0.877372713299252
0.5389731 -0.3380709301636545 -0.8752295869676271
0.540973 -0.34391741270047177 -0.8725945522372862
0.5429729 -0.34948469860221354 -0.8700342840567975
0.5449728 -0.3546111006194562 -0.8677341672835378
0.5469727 -0.36003858779733333 -0.8655975372794599
0.5489726 -0.36534936302847704 -0.8627746975007838
0.5509725 -0.37062592157493696 -0.8598692796306912
0.5529724 -0.3761338397705269 -0.8580996737246045
0.5549723 -0.38170824116519275 -0.8554245893198831
0.5569722 -0.38704189070199085 -0.8523571724957093
0.5589721 -0.3919924550794124 -0.8496517902482104
0.560972 -0.3967655806651275 -0.8463460138877427
0.5629719 -0.4023729922550543 -0.8435703662198545
0.5649718 -0.407438387828508 -0.8401475116418301
0.5669717 -0.4125642823030151 -0.8374131515094997
0.5689716 -0.4177973868851111 -0.8339236823742264
0.5709715 -0.42338389909260826 -0.8310787117076023
0.5729714 -0.42787741386843253 -0.8285570287997709
0.5749713 -0.4332825199469057 -0.8248135379376413
0.5769712 -0.43852459655464493 -0.8215534637820561
0.5789711 -0.4439663205581393 -0.8182355831605692
0.580971 -0.44934753345510603 -0.8154020215456736
0.5829709 -0.4553310966945837 -0.8122689101043624
0.5849708 -0.4596980436078206 -0.8092443465223489
0.5869707 -0.46536849881110903 -0.8061446557810611
0.5889706 -0.4704970216721236 -0.8028686047458871
0.5909705 -0.4754191604321693 -0.7996298645489662
0.5929704 -0.48038510710212656 -0.7961385251977904
0.5949703 -0.4855919515788238 -0.7930392771765195
0.5969702 -0.4904594355596571 -0.7899456885932458
0.5989701 -0.4955424456490316 -0.786466410592019
0.60097 -0.5006653378903781 -0.7834156488161071
0.6029699 -0.5054908564500827 -0.7800480509794574
0.6049698 -0.5104069574110616 -0.776930162129621
0.6069697 -0.5152476752183629 -0.7734024377864331
0.6089696 -0.5200631983619737 -0.7697918626456137
0.6109695 -0.5246214842446568 -0.7664929176547428
0.6129694 -0.5293669953207404 -0.7633045211840559
0.6149693 -0.5341637547913071 -0.7594569856520071
0.6169692 -0.5392209934089507 -0.7563654502530759
0.6189691 -0.5434413241711175 -0.753054032169555
0.620969 -0.5476028632620652 -0.7496815614728989
0.6229689 -0.5524313116146321 -0.7459080926721455
0.6249688 -0.5568511910784368 -0.7423084550211301
0.6269687 -0.5612333069547383 -0.7386173218647898
0.6289686 -0.565890613768978 -0.7350465359476118
0.6309685 -0.5698909714516311 -0.7310741552983453
0.6329684 -0.5740675283766086 -0.7270385391144768
0.6349683 -0.578479901670642 -0.7228658330888272
0.6369682 -0.5825097481453569 -0.7191678314951387
0.6389681 -0.5868598867433593 -0.7150614070251867
0.640968 -0.5911571349966166 -0.7107622257432222
0.6429679 -0.595374662320901 -0.7065427462459479
0.6449678 -0.5998225740315605 -0.7022545997057278
0.6469677 -0.6044228714313702 -0.698258702805868
0.6489676 -0.6089087763433985 -0.6942161637747115
0.6509675 -0.6126827725120164 -0.6896621447286144
0.6529674 -0.6170662954007079 -0.6859343293170617
0.6549673 -0.6212945247213622 -0.682042793435414
0.6569672 -0.6254084441489761 -0.6781540251379164
0.6589671 -0.6300673693074097 -0.673915905537081
0.660967 -0.6344504325166129 -0.6696756141537606
0.6629669 -0.6386503998571046 -0.665481157220506
0.6649668 -0.6426852763278127 -0.6613494820273106
0.6669667 -0.646670200493795 -0.6573386701711887
0.6689666 -0.651087997819524 -0.6531736743231118
0.6709665 -0.6553396915963483 -0.6490934998428673
0.6729664 -0.6591652699116702 -0.6444374235457814
0.6749663 -0.6625870914985794 -0.6398798471131181
0.6769662 -0.6664288933748355 -0.6361826142323926
0.6789661 -0.6707598165533166 -0.6316811490981984
0.680966 -0.6741172670581108 -0.6280401625144854
0.6829659 -0.678235142418973 -0.6235626130447133
0.6849658 -0.6819637080195073 -0.6194711740571595
0.6869657 -0.6854136141023978 -0.6148538237590827
0.6889656 -0.6892360603268354 -0.6106425784467515
0.6909655 -0.6932042830241144 -0.6065995259619046
0.6929654 -0.6965495125702504 -0.6024432402320062
0.6949653 -0.6997898887308044 -0.5980922867431548
0.6969652 -0.703467835002141 -0.5941698465384175
0.6989651 -0.7067626963459935 -0.5898202519060206
0.700965 -0.7104704656710888 -0.5854212756181484
0.7029649 -0.7130739203011621 -0.580501028225989
0.7049648 -0.7167507788167631 -0.5763284036845688
0.7069647 -0.7199454987559877 -0.57160038342677
0.7089646 -0.7227531037915133 -0.5670691727312174
0.7109645 -0.7260121405278722 -0.5624230103427769
0.7129644 -0.728888992953168 -0.5577348084604606
0.7149643 -0.7320551461597099 -0.5530477755443065
0.7169642 -0.7351413511697676 -0.5483242542507467
0.7189641 -0.7382966784038755 -0.5434623009925122
0.720964 -0.7414236514443927 -0.5386133823617038
0.7229639 -0.7447385331743541 -0.5340554712539612
0.7249638 -0.7477811920815626 -0.5293034919643502
0.7269637 -0.7503681064769429 -0.5240853082776455
0.7289636 -0.7535744773903306 -0.5194015823528033
0.7309635 -0.7568378554536592 -0.5140408436432194
0.7329634 -0.7599659091336266 -0.5094550095221648
0.7349633 -0.7628313628061629 -0.5045639880741075
0.7369632 -0.7661209585195399 -0.49930509563604697
0.7389631 -0.7689414465698241 -0.49458538208508906
0.740963 -0.7721869124379602 -0.48973904910941035
0.7429629 -0.775151758947599 -0.48472410664697385
0.7449628 -0.7777882974148396 -0.4799418871519606
0.7469627 -0.7811063663536064 -0.4753072420952071
0.7489626 -0.7838771694214469 -0.47000593832466564
0.7509625 -0.7865233030464753 -0.46532780522905187
0.7529624 -0.7898243942672185 -0.46036026911429334
0.7549623 -0.7924915907960612 -0.4557507644979688
0.7569622 -0.7953085404593502 -0.45075315799148863
0.7589621 -0.7973994529749014 -0.4459923279731547
0.760962 -0.8004000825969224 -0.440764435260952
0.7629619 -0.8027568071710176 -0.4360930647536846
0.7649618 -0.8055976608480203 -0.431236135422205
0.7669617 -0.8078335313456261 -0.4264715987867308
0.7689616 -0.8099773998957629 -0.4212568774656654
0.7709615 -0.8124307678120196 -0.41652979429013715
0.7729614 -0.8150756515761635 -0.41144451342156624
0.7749613 -0.8170900952840578 -0.40654721795719573
0.7769612 -0.8189939658204971 -0.4015468137198392
0.7789611 -0.8217235704029906 -0.3966453540682969
0.780961 -0.8237794083402459 -0.3917527967578024
0.7829609 -0.8262874007416797 -0.38643631209693724
0.7849608 -0.8278435727153305 -0.38146552401629713
0.7869607 -0.8302192453856355 -0.3761089961990878
0.7889606 -0.8326090575627437 -0.3710653486430687
0.7909605 -0.833823107540362 -0.36621254091138306
0.7929604 -0.8360549758510303 -0.360624507671374
0.7949603 -0.8379706614086773 -0.35544941820910875
0.7969602 -0.840262819821089 -0.3503835072140189
0.7989601 -0.8417660659885982 -0.3450749818917064
0.80096 -0.8434072947472342 -0.3398813790564689
