! Created with skrf 1.8.0 (http://scikit-rf.org).
# GHz S RI R 50.0 
!freq ReS11 ImS11
0.001 -0.9429224292276578 0.004857006664761545
0.0029999 -0.9425328522533897 0.010875136699052372
0.0049998 -0.9417371347476488 0.017021871636874047
0.0069997 -0.9408951553375503 0.02291305736959723
0.0089996 -0.9404779722884532 0.02920407334476665
0.0109995 -0.9400599031283089 0.035293151863423626
0.0129994 -0.9396369611132258 0.04115406515539186
0.0149993 -0.9388257148702186 0.047230062275085874
0.0169992 -0.9383314876652338 0.05300511658522391
0.0189991 -0.9374265821550611 0.05898671639796625
0.020999 -0.9369556897056154 0.06483724334847657
0.0229989 -0.9361737772936605 0.07069548051753971
0.0249988 -0.9351072782150309 0.07679364339605672
0.0269987 -0.9348114222383077 0.08254858410888011
0.0289986 -0.9339036480831246 0.08849342263484547
0.0309985 -0.9330449433104403 0.09424513242274046
0.0329984 -0.9320529451159878 0.10011704370127306
0.0349983 -0.9312197726047733 0.10613026725470989
0.0369982 -0.9302044542633996 0.11199580945930304
0.0389981 -0.9293530289603801 0.1179792947546954
0.040998 -0.928454622023916 0.12309804687746845
0.0429979 -0.9273167235068596 0.1288809266117312
0.0449978 -0.9264268443247772 0.134761781030589
0.0469977 -0.9250139320125375 0.14081110400553917
0.0489976 -0.9241472973308096 0.14642454468411908
0.0509975 -0.9228501025636568 0.1522106990239751
0.0529974 -0.9219262629195051 0.15812536753611836
0.0549973 -0.9206717554048833 0.16356140800609034
0.0569972 -0.9193730462169686 0.16928540493782754
0.0589971 -0.9180736372769241 0.17478806011513914
0.060997 -0.9166854914826656 0.18041241636340088
0.0629969 -0.9153736786274113 0.18587326305166188
0.0649968 -0.9141334254962846 0.19143299073864412
0.0669967 -0.9129529542792004 0.1971452907912623
0.0689966 -0.9112917965467963 0.2027590097612784
0.0709965 -0.9098295571960482 0.20819962012034024
0.0729964 -0.908622731770778 0.2139147178978173
0.0749963 -0.9068789277017604 0.219191102498902
0.0769962 -0.9048999387407521 0.22477177521900804
0.0789961 -0.9033503151331539 0.2303181557066301
0.080996 -0.901824282634229 0.2358758713905111
0.0829959 -0.9003718051427346 0.2413740995821842
0.0849958 -0.8983213442184823 0.24669252885414916
0.0869957 -0.8967300188736925 0.25201100579765867
0.0889956 -0.8948589442498264 0.25751778824025523
0.0909955 -0.8930785518573426 0.26301502412244415
0.0929954 -0.8909824402998398 0.26844037800556897
0.0949953 -0.8894694913046874 0.27357397258916377
0.0969952 -0.8873798665480424 0.2793787624549609
0.0989951 -0.885542151864085 0.28464983268797434
0.100995 -0.883337025902788 0.29015335248637203
0.1029949 -0.8813019581974118 0.2950992511348714
0.1049948 -0.879446249652758 0.3006894233293713
0.1069947 -0.8771570204543421 0.3059838714373744
0.1089946 -0.8752128531142594 0.3112154328819022
0.1109945 -0.8731356081002577 0.316938260626378
0.1129944 -0.8711025542407992 0.3220099549817688
0.1149943 -0.8690360470928012 0.3274328996286787
0.1169942 -0.8665790060290397 0.33270819683550346
0.1189941 -0.864690410073835 0.33816620896778005
0.120994 -0.8625071701317637 0.3431909203266104
0.1229939 -0.8602485558603445 0.34826752298226743
0.1249938 -0.8581854305411185 0.35374248964922395
0.1269937 -0.8561001722629484 0.35876607651149794
0.1289936 -0.8538360407925267 0.36420372462638523
0.1309935 -0.8510820343260147 0.36930408439748286
0.1329934 -0.8488658869445322 0.3738916584908189
0.1349933 -0.8465584903084278 0.3791692861414153
0.1369932 -0.8443198801320504 0.38414904361634017
0.1389931 -0.8419326270271944 0.3892987437307679
0.140993 -0.8392546885182788 0.3943543334082655
0.1429929 -0.83676474212748 0.39946141387737183
0.1449928 -0.8341349683696934 0.40447709281948513
0.1469927 -0.8316384003082123 0.40916970434888295
0.1489926 -0.8291478294348309 0.41382417349706874
0.1509925 -0.8262040957820889 0.4189980012298582
0.1529924 -0.8235097908859791 0.42391268808310245
0.1549923 -0.8206013829727632 0.4284078153863169
0.1569922 -0.8174922673169936 0.43321662295992847
0.1589921 -0.8151174073929931 0.43844802328404414
0.160992 -0.8116305773846013 0.4434703771269458
0.1629919 -0.8091112036052984 0.44831081597710987
0.1649918 -0.8062800629474359 0.45287551269761145
0.1669917 -0.8030440952406146 0.45761097395935113
0.1689916 -0.8002485183975472 0.4622977365231915
0.1709915 -0.7973945058614832 0.46743987329402437
0.1729914 -0.7939553845570411 0.47223308483558835
0.1749913 -0.7908050435332994 0.47668173656031076
0.1769912 -0.7876667384790114 0.4815224065875118
0.1789911 -0.7845315720242967 0.4863655667174893
0.180991 -0.7812979931729254 0.49128951084621403
0.1829909 -0.7780642268883443 0.4962728729000758
0.1849908 -0.775267034865337 0.5007284770574234
0.1869907 -0.7722394292044891 0.5059198578885169
0.1889906 -0.7683454904646555 0.5107116493063283
0.1909905 -0.7651367697057226 0.5156258781031374
0.1929904 -0.7620428734134317 0.5203986789816692
0.1949903 -0.7591024841159947 0.5248690285059499
0.1969902 -0.7559933788264359 0.5294928151108864
0.1989901 -0.7526154687006946 0.5339497763738676
0.20099 -0.7495843594869215 0.5389283722450012
0.2029899 -0.7460249465784299 0.5432320471744122
0.2049898 -0.7424349107068994 0.5479583495963765
0.2069897 -0.7389978329353606 0.5521711132529458
0.2089896 -0.7357300631847865 0.5568066394918308
0.2109895 -0.7324664403803426 0.5610079025374204
0.2129894 -0.7288276411494311 0.5654500772609912
0.2149893 -0.7254318254294825 0.5697822217194662
0.2169892 -0.7221255406719687 0.5741430502716245
0.2189891 -0.7182695834023928 0.5784507481513433
0.220989 -0.7146833294373228 0.582835469878916
0.2229889 -0.7110893432571095 0.5870455586389949
0.2249888 -0.7074869576261797 0.5910992056048032
0.2269887 -0.7038948291108689 0.5953716516950611
0.2289886 -0.7000328357715201 0.5995913507292417
0.2309885 -0.6963366728265286 0.6033787079498875
0.2329884 -0.6924014776015388 0.6075797076268428
0.2349883 -0.6888787249201774 0.6118674866397866
0.2369882 -0.6849254176032361 0.615903815285285
0.2389881 -0.6807234532257043 0.619904759367039
0.240988 -0.6767890645729339 0.6238188678481406
0.2429879 -0.6726171023050912 0.6279495124309016
0.2449878 -0.6687974036212141 0.6318709643277214
0.2469877 -0.6646054096673709 0.6356412872260078
0.2489876 -0.6605151322147126 0.6401228827591197
0.2509875 -0.6563660187486864 0.6436233411945705
0.2529874 -0.6521882739448125 0.6478931674035058
0.2549873 -0.6481492232757309 0.6519729162330681
0.2569872 -0.6439161583362553 0.6559617604573045
0.2589871 -0.6396719121157792 0.6601354776224683
0.260987 -0.635398934150681 0.6640977010324278
0.2629869 -0.6313501028805567 0.6679324987431573
0.2649868 -0.6270828346399985 0.671944154433199
0.2669867 -0.6227805954273749 0.6759179697494674
0.2689866 -0.6186392286216521 0.6794562465202981
0.2709865 -0.6145994097425845 0.6833782782692496
0.2729864 -0.6103119591271648 0.6872865561353108
0.2749863 -0.60599716425429 0.6910002078615235
0.2769862 -0.6014644769908114 0.6950554836584762
0.2789861 -0.5971317836943834 0.6982233461835635
0.280986 -0.5929352839976391 0.702239465474875
0.2829859 -0.5887841518803689 0.705891641890298
0.2849858 -0.5842438973737909 0.7095847633246778
0.2869857 -0.5800784624955196 0.7130065569179644
0.2889856 -0.5755605722182714 0.7164939077271486
0.2909855 -0.5711070019602855 0.7201812490371872
0.2929854 -0.5667478978905105 0.7236658690572457
0.2949853 -0.5623821325240707 0.7269590312511292
0.2969852 -0.55762971057328 0.7303591579201313
0.2989851 -0.5532484165904924 0.7337650289551549
0.300985 -0.5482385291550791 0.7368647640240026
0.3029849 -0.5436969343666158 0.7398477198410963
0.3049848 -0.5394929354388129 0.743281851294904
0.3069847 -0.5344244363604093 0.7463209205251479
0.3089846 -0.5297491804611177 0.7494479833410624
0.3109845 -0.52484598257398 0.7525064895318024
0.3129844 -0.5199365963849457 0.7554546816043324
0.3149843 -0.5152077725859783 0.7587739597440711
0.3169842 -0.5102164399433751 0.7618673226745618
0.3189841 -0.50543685640122 0.7649565296717803
0.320984 -0.5004297592186332 0.7681562125940283
0.3229839 -0.49573770575642023 0.7710725274890033
0.3249838 -0.49070664700730005 0.7745099365811995
0.3269837 -0.4854421094437046 0.7775313528558565
0.3289836 -0.48055151484827013 0.780282474097207
0.3309835 -0.4750287771505457 0.7836739072377802
0.3329834 -0.4705688644188515 0.7865673956307361
0.3349833 -0.4653213615789689 0.7890163869603987
0.3369832 -0.4602409603553978 0.7920500327520497
0.3389831 -0.4556636686700195 0.7951849483914686
0.340983 -0.44999292811322944 0.7981167344722462
0.3429829 -0.4448138789843491 0.8011706636303665
0.3449828 -0.4399912264950247 0.8036995672980092
0.3469827 -0.4348250910961858 0.806769629810098
0.3489826 -0.4299728763655095 0.8096694227655256
0.3509825 -0.4245276997259927 0.8123178161817808
0.3529824 -0.4195096672501334 0.8151251069557578
0.3549823 -0.41445502232992126 0.8178957404775002
0.3569822 -0.409109493749992 0.8206395750376396
0.3589821 -0.4037677777531365 0.8229102287132595
0.360982 -0.3990350680076488 0.8252352156038594
0.3629819 -0.39353651113286653 0.8280195634452284
0.3649818 -0.38840924558538154 0.8303720547733399
0.3669817 -0.3831681110774046 0.833172873217867
0.3689816 -0.3779439122292928 0.8351414686639137
0.3709815 -0.3725589468254197 0.8374203178095202
0.3729814 -0.36745851986871203 0.83997326004946
0.3749813 -0.36212710703673223 0.842433849225686
0.3769812 -0.35678605571286853 0.8444940380893459
0.3789811 -0.35144940925286805 0.8469982410058158
0.380981 -0.3461579388592415 0.8486491918654208
0.3829809 -0.34097420304692916 0.8506276128436885
0.3849808 -0.33547085594460896 0.8528251610732509
0.3869807 -0.32970027631228616 0.8550761428890558
0.3889806 -0.3245006427454139 0.8570390030676819
0.3909805 -0.31875496364226125 0.8589619073414685
0.3929804 -0.31353401886291377 0.860550374116921
0.3949803 -0.30777419830972347 0.862656772249205
0.3969802 -0.3020238524845009 0.8643800961390401
0.3989801 -0.29670341064471073 0.8662555161428395
0.40098 -0.2907086323529867 0.868251128603519
0.4029799 -0.28507330739396775 0.869578873738467
0.4049798 -0.2794173465114915 0.871336239212684
0.4069797 -0.27353743875120634 0.8733239973204832
0.4089796 -0.2678089794233801 0.8751342135387123
0.4109795 -0.26205126964540504 0.8770066652588783
0.4129794 -0.256426529607682 0.8785226532428623
0.4149793 -0.250509524673408 0.8802855356607139
0.4169792 -0.2447835686631892 0.8819710128922426
0.4189791 -0.239050198278334 0.8834829252864717
0.420979 -0.23312809597954814 0.8851174799034968
0.4229789 -0.22758325116177583 0.8861971831486591
0.4249788 -0.22167653617707636 0.8879632152770484
0.4269787 -0.21620164012025606 0.8894692582897133
0.4289786 -0.21024630950805756 0.890797777898161
0.4309785 -0.2044288694866535 0.8920762385004227
0.4329784 -0.1985994050656167 0.8936559764512075
0.4349783 -0.19294095196190286 0.8948018937943224
0.4369782 -0.18695263541392806 0.896249694769264
0.4389781 -0.18083966230427148 0.897573918302143
0.440978 -0.17527865700233133 0.8987900644345119
0.4429779 -0.16947965909853685 0.8997410596335204
0.4449778 -0.1636990707266014 0.9008003460608981
0.4469777 -0.15779198226321062 0.9015942743112658
0.4489776 -0.15172996296654379 0.9027954609828545
0.4509775 -0.14611703082500735 0.9036215290463661
0.4529774 -0.14040865122109836 0.9046581549116329
0.4549773 -0.13418095414400788 0.9056226004509237
0.4569772 -0.12843584711538303 0.9065632074577253
0.4589771 -0.12221424398531876 0.9072676528586843
0.460977 -0.11597540887610368 0.9080660960154725
0.4629769 -0.11015967152009812 0.9084807291880619
0.4649768 -0.10424496971920838 0.9095588902620769
0.4669767 -0.09782023890493766 0.9099226292311066
0.4689766 -0.0918594474120465 0.9103219475042653
0.4709765 -0.08595260906941592 0.9107337463641282
0.4729764 -0.08001565168205893 0.9115948230750663
0.4749763 -0.07384792072142658 0.9120807127240088
0.4769762 -0.06781475595894437 0.9125724622838047
0.4789761 -0.06176889743929423 0.913207565605243
0.480976 -0.05556358061983659 0.9134631535948782
0.4829759 -0.049345737751239266 0.9139707991810839
0.4849758 -0.04336038811436616 0.9145398657974684
0.4869757 -0.03708103318212073 0.9147139777459116
0.4889756 -0.03137837044067395 0.9153542626754677
0.4909755 -0.025125119833132103 0.9156767449631092
0.4929754 -0.01908692213796362 0.9157483395832293
0.4949753 -0.012827734454738074 0.9159141621929734
0.4969752 -0.006769257926507177 0.9158762181726364
0.4989751 -0.0008091867823287746 0.9163285126477079
0.500975 0.005124892764004331 0.9164879132794664
0.5029749 0.01111547624679883 0.916470595455421
0.5049748 0.016915067659552495 0.916387901835648
0.5069747 0.022827107955002097 0.916018106298756
0.5089746 0.028529599503657195 0.9159405697590366
0.5109745 0.03489319079438485 0.9157383944481944
0.5129744 0.040960323223074115 0.9154152382641514
0.5149743 0.04713612126788563 0.9148867076499584
0.5169742 0.053086569608792614 0.9145729992556854
0.5189741 0.059118509302629706 0.9142869510158594
0.520974 0.06541288025029668 0.9140894660077203
0.5229739 0.07133247931507103 0.9128895119271448
0.5249738 0.07741544741880227 0.9125932868485013
0.5269737 0.08358254574919258 0.9117789900466354
0.5289736 0.08914657172189187 0.9109033734974894
0.5309735 0.09597536039683431 0.9102750532390236
0.5329734 0.10202520205459982 0.9093035176418803
0.5349733 0.1078046355333455 0.9082682652752979
0.5369732 0.11443544527304872 0.9074478294511413
0.5389731 0.12035076546230024 0.9068165571195068
0.540973 0.12695092009567738 0.9057308456407623
0.5429729 0.13315658478285006 0.9047140188964204
0.5449728 0.13936850857518432 0.9038110428242405
0.5469727 0.14569335342906317 0.9029935533657883
0.5489726 0.15206342829558409 0.9014904192906219
0.5509725 0.15806020877434698 0.9010774409664641
0.5529724 0.164364994314368 0.8998772913858312
0.5549723 0.17083140921380682 0.8986548286270739
0.5569722 0.17675423754431496 0.8974068646539209
0.5589721 0.18309082153740236 0.8964115856847257
0.560972 0.18952842105832257 0.8952047121979679
0.5629719 0.19608787721248327 0.8943338061631839
0.5649718 0.20186990718394954 0.893571281735492
0.5669717 0.20817925957716166 0.8921687562337184
0.5689716 0.2143084945607385 0.8907910752518319
0.5709715 0.2203100237049072 0.8894894930051186
0.5729714 0.2267640513297215 0.8879806301369958
0.5749713 0.23279770546545442 0.8866476000537225
0.5769712 0.23874312998606623 0.8853649441580539
0.5789711 0.24436632756029847 0.8838441215843853
0.580971 0.24989691505112718 0.8823049112023229
0.5829709 0.2560213113146468 0.8806148158122296
0.5849708 0.26195497418048214 0.8788943100219985
0.5869707 0.26775197380260957 0.8773548067116382
0.5889706 0.2736582055279873 0.8753554572750811
0.5909705 0.27966845247762223 0.8732819229485445
0.5929704 0.2856384163298112 0.8713411043345687
0.5949703 0.2913680249006849 0.8691385229478836
0.5969702 0.29709438146879213 0.8671916199847257
0.5989701 0.3035484126771704 0.8645761719131957
0.60097 0.3088929153016312 0.8626384216241852
0.6029699 0.3155975970307973 0.8601640156542344
0.6049698 0.320921053692285 0.857795883527954
0.6069697 0.32648835174885066 0.8549274184370101
0.6089696 0.33265130228285733 0.8529662753018514
0.6109695 0.33856622140982867 0.8504541175967563
0.6129694 0.34464108202524213 0.8479222316694633
0.6149693 0.3504109163833549 0.8456275261603929
0.6169692 0.35665342477315426 0.8432940529046606
0.6189691 0.36271011041285306 0.8405365746959118
0.620969 0.368395460231838 0.8381844221090817
0.6229689 0.3744220405196388 0.8355001715914079
0.6249688 0.38050224869041316 0.8327324856463179
0.6269687 0.3864382849067553 0.8297166325406358
0.6289686 0.39219304876761935 0.8275749400678689
0.6309685 0.3982248727136936 0.8246668443028264
0.6329684 0.403885852284942 0.8218300691485464
0.6349683 0.41015637818187084 0.8196067502159421
0.6369682 0.41574321433904327 0.8166694604103314
0.6389681 0.42155054851034585 0.8137475309493833
0.640968 0.42770186864627696 0.8112479461783282
0.6429679 0.43312468527972725 0.8085665134108493
0.6449678 0.4384305974768909 0.8057288779532598
0.6469677 0.4440380072613431 0.8025903967581431
0.6489676 0.4496169908084657 0.7999569187615352
0.6509675 0.4547596409728112 0.7972041742894181
0.6529674 0.4609826802227653 0.7939120685844607
0.6549673 0.4665676058993421 0.7908917276990014
0.6569672 0.4717152974273651 0.7871440130686783
0.6589671 0.47672117174571127 0.7840478172538715
0.660967 0.48195799681895607 0.7807525041398972
0.6629669 0.487464040318465 0.7776743995585468
0.6649668 0.4924731435877101 0.774137031272298
0.6669667 0.49777069148321695 0.7701898322630825
0.6689666 0.5026091539244663 0.7670370515603853
0.6709665 0.5079126547467621 0.7634593455634918
0.6729664 0.5130207933159476 0.7595645118828255
0.6749663 0.5187813245276441 0.7559202176832958
0.6769662 0.5240262284563201 0.7520361443054497
0.6789661 0.5292056444696605 0.748014794693932
0.680966 0.5344382575704122 0.7439396431346802
0.6829659 0.5395489626200811 0.7400269010384524
0.6849658 0.544895614571181 0.7359643370138322
0.6869657 0.550267391225775 0.7322450154312107
0.6889656 0.5554792926197314 0.7280002834970762
0.6909655 0.5604199023938616 0.7238275835408616
0.6929654 0.5658628133422098 0.7193824265307661
0.6949653 0.5706326459304213 0.7152762916243917
0.6969652 0.5761493601334587 0.7108897072937926
0.6989651 0.5816273301672278 0.7068427395813783
0.700965 0.5867265531093963 0.7021966622018561
0.7029649 0.5917786965848244 0.698190783774719
0.7049648 0.5968606077720825 0.694003875199806
0.7069647 0.6023822009847978 0.6894447898170573
0.7089646 0.6076032075284554 0.685668914379695
0.7109645 0.6125151997653893 0.681444122164686
0.7129644 0.6178822291727464 0.677019000530881
0.7149643 0.6226169772297854 0.6729351291156834
0.7169642 0.6277688533747299 0.6685334549905945
0.7189641 0.6324081322780774 0.6642438008548024
0.720964 0.63716970312852 0.6598863900707674
0.7229639 0.6417506903110457 0.6554814363615852
0.7249638 0.6466768464308306 0.650862218698933
0.7269637 0.651799502187052 0.6468057225280938
0.7289636 0.655640519792313 0.642294133737533
0.7309635 0.6606031336740519 0.6376742921127441
0.7329634 0.6651237716770836 0.6332220105868686
0.7349633 0.6692644986004427 0.6287148768600807
0.7369632 0.6740890332343972 0.6238478797209371
0.7389631 0.677686217994555 0.6195079721837012
0.740963 0.6818308291541373 0.6142203460055011
0.7429629 0.6865336723286213 0.6096535834416996
0.7449628 0.6907696791461644 0.6049291988175745
0.7469627 0.6944838423216088 0.6000679941319063
0.7489626 0.6989093908557855 0.5950185974625362
0.7509625 0.7028641800187365 0.5895914912971403
0.7529624 0.7068708327219618 0.5846561637385179
0.7549623 0.7109718290867373 0.5794042047856887
0.7569622 0.7150180961613011 0.5741105288004767
0.7589621 0.7184618760038062 0.5685744596491621
0.760962 0.7226621037212959 0.5634640786896813
0.7629619 0.7269808459353531 0.557951946506358
0.7649618 0.7308061303092277 0.5527470009208506
0.7669617 0.735251780511457 0.5474516708905226
0.7689616 0.7386995615183536 0.5414608378539976
0.7709615 0.742719949079031 0.5359625478457478
0.7729614 0.7465202148503265 0.5305112527847395
0.7749613 0.7505669214474664 0.5253075195539668
0.7769612 0.7541914002230573 0.5191882705503187
0.7789611 0.7580480086884005 0.5139475539082585
0.780961 0.7616378323307654 0.5081350717266353
0.7829609 0.7655931652284625 0.5029284612828718
0.7849608 0.7693239149474353 0.49734552370136803
0.7869607 0.7733424446204108 0.491908282544285
0.7889606 0.776848619678216 0.48610067001837387
0.7909605 0.780662058343822 0.48042490809943894
0.7929604 0.7840133757889383 0.4752426952081588
0.7949603 0.7875418149373279 0.4693755388416916
0.7969602 0.7908268272262109 0.4639406384048216
0.7989601 0.7945943146334807 0.45810353507266255
0.80096 0.7979478080390154 0.45244981162924874
0.8029599 0.8011669536487285 0.44685591459230456
0.8049598 0.8045504413491096 0.4411640957132056
0.8069597 0.8073583613705211 0.43557112697300343
0.8089596 0.8104661988900493 0.4298748482627001
0.8109595 0.8128002577665452 0.42377600744999583
0.8129594 0.8162356091429361 0.4182273775861667
0.8149593 0.8188713291903641 0.41249623648074096
