! Created with skrf 1.8.0 (http://scikit-rf.org).
# GHz S RI R 50.0 
!freq ReS11 ImS11
0.001 -0.9399774717518018 0.006366725652083268
0.0029999 -0.9393083409491504 0.014812961398678937
0.0049998 -0.938576495921269 0.023639881207833585
0.0069997 -0.937439374765438 0.03201640194546639
0.0089996 -0.9367378010198626 0.04081801372463237
0.0109995 -0.9360423385104694 0.04927542955829238
0.0129994 -0.9352231676192316 0.05788519859990067
0.0149993 -0.9341758060558365 0.06631807484378738
0.0169992 -0.9333201117688713 0.074497669253316
0.0189991 -0.9321090536022716 0.08317887375380241
0.020999 -0.931064614754219 0.09128133146089631
0.0229989 -0.9298104327514087 0.09960625678593354
0.0249988 -0.9282395796559011 0.10793793241254777
0.0269987 -0.9272743559853592 0.1165426662353817
0.0289986 -0.925860970376904 0.12463870469612123
0.0309985 -0.9244462518577778 0.13265346994343255
0.0329984 -0.9228047775182256 0.14099482529721868
0.0349983 -0.9212931155944579 0.14958613147771851
0.0369982 -0.9197042440174594 0.157962233048473
0.0389981 -0.917800988499955 0.1660051224606159
0.040998 -0.9164691415377934 0.17374786294727684
0.0429979 -0.9141369675503052 0.1822313201087961
0.0449978 -0.9125761814990799 0.1898967754773982
0.0469977 -0.9105083612763076 0.1985497231777012
0.0489976 -0.9082984182801375 0.2063605242172904
0.0509975 -0.9063560448961565 0.21449573108867875
0.0529974 -0.9040361907867097 0.22225409797047185
0.0549973 -0.9018422660235224 0.2305318353045892
0.0569972 -0.8997391053426936 0.23823276033744184
0.0589971 -0.8973123652438083 0.24600778975094761
0.060997 -0.8948992470536028 0.25378668961828915
0.0629969 -0.8926360396885917 0.26183927500345416
0.0649968 -0.890018284271512 0.26941046043484107
0.0669967 -0.8875257562002664 0.27715387878568776
0.0689966 -0.8846853544917134 0.28498661269760267
0.0709965 -0.881803406026935 0.2929291555822627
0.0729964 -0.8792982655362406 0.3004470773969928
0.0749963 -0.8763907453011345 0.3078759495275829
0.0769962 -0.8730479448723794 0.31560825133971177
0.0789961 -0.8699859998199088 0.3233850549873085
0.080996 -0.8671733275538879 0.3308733877166806
0.0829959 -0.8640409972884642 0.3384363968983749
0.0849958 -0.8606209237371665 0.3461623228652442
0.0869957 -0.8573322834575882 0.35315970418004955
0.0889956 -0.8540028129417583 0.3609554620896677
0.0909955 -0.8505687957982659 0.36827906458920256
0.0929954 -0.8469430781754069 0.3754599487534815
0.0949953 -0.8436812909489362 0.3829767936706489
0.0969952 -0.8399172135663526 0.39056638030838053
0.0989951 -0.8358591783270164 0.39763873063489924
0.100995 -0.8324752902386544 0.4052170639120835
0.1029949 -0.8285568361104729 0.41170973477212564
0.1049948 -0.8246912237694557 0.41954108143652646
0.1069947 -0.8205990309901212 0.42668270251231355
0.1089946 -0.8169702552184666 0.43393258583419914
0.1109945 -0.812650911629557 0.4413704558664782
0.1129944 -0.8086839772104254 0.44849912008417625
0.1149943 -0.8047082711122426 0.4556264478000502
0.1169942 -0.8004326950485829 0.4627504451366774
0.1189941 -0.7964821699213457 0.4695519526833725
0.120994 -0.7921731563217156 0.4763254466030883
0.1229939 -0.7879350147867976 0.4833334335680668
0.1249938 -0.7838148132230773 0.49029649781002693
0.1269937 -0.7794248089572544 0.4973690771369789
0.1289936 -0.7751092339453716 0.5041803577485718
0.1309935 -0.770405769831238 0.5105827122355655
0.1329934 -0.7661168007679586 0.5172163572093035
0.1349933 -0.7615019686206952 0.5238869291135515
0.1369932 -0.7566133740816329 0.5309856472946494
0.1389931 -0.7523557286006205 0.537082815883024
0.140993 -0.7473879050262551 0.5438644033544864
0.1429929 -0.7426997613762819 0.5503041853636231
0.1449928 -0.7374169591142267 0.5566126779635736
0.1469927 -0.7327874281827974 0.5627103282196102
0.1489926 -0.7276333194782248 0.5692677177440965
0.1509925 -0.7221529980112763 0.5753309625388339
0.1529924 -0.7171970602286665 0.5812066996917182
0.1549923 -0.7116870803279555 0.587313862286374
0.1569922 -0.7062496645046191 0.5934058138442689
0.1589921 -0.7008134222129234 0.5998859350036186
0.160992 -0.6953216533538952 0.6058448999736752
0.1629919 -0.6899824400466512 0.6120327647683735
0.1649918 -0.6843485277480537 0.6177360064819568
0.1669917 -0.6785901714724354 0.6233790132818537
0.1689916 -0.6731143922449867 0.6295785315537467
0.1709915 -0.6671886483680366 0.6356068208073233
0.1729914 -0.661137708877485 0.6412636928145395
0.1749913 -0.6550304942122713 0.6470914069889491
0.1769912 -0.6493923439608985 0.6529232967964007
0.1789911 -0.6433993285230037 0.6587280818993547
0.180991 -0.6372300598100025 0.6643316389231235
0.1829909 -0.6313203517145923 0.6698862091303674
0.1849908 -0.625321360460705 0.6761014489029198
0.1869907 -0.6188856525772518 0.6819786518176113
0.1889906 -0.6123831391093844 0.6874261148431986
0.1909905 -0.6061700678159928 0.692988464722362
0.1929904 -0.6002507458755092 0.6986581046317193
0.1949903 -0.5940585399775742 0.7040468035669335
0.1969902 -0.5880538075551042 0.7094618983060459
0.1989901 -0.5819079102438298 0.7149763415839786
0.20099 -0.5756642898283881 0.7199931866224571
0.2029899 -0.5689432083658021 0.7252408928427333
0.2049898 -0.5622519369775262 0.7303859138314315
0.2069897 -0.5559651341637978 0.7352952615449911
0.2089896 -0.549451258183392 0.7400942990266833
0.2109895 -0.5430170125250583 0.7453232310931153
0.2129894 -0.5361974722068984 0.7501621891416386
0.2149893 -0.5297089453679562 0.7549838309918935
0.2169892 -0.5232418927287201 0.7593831617287659
0.2189891 -0.5163260506922658 0.7641365973249955
0.220989 -0.5094211411807926 0.7686734715007575
0.2229889 -0.5026699983804773 0.773333953372958
0.2249888 -0.4956789580810598 0.7774962489357282
0.2269887 -0.4886799312492021 0.7818599936705365
0.2289886 -0.4817796538794994 0.7860810209561659
0.2309885 -0.47478589425643947 0.7901848328248726
0.2329884 -0.4674791199089355 0.7942919939336318
0.2349883 -0.4601804383751783 0.7985136244715376
0.2369882 -0.45318858920170313 0.8025826255658493
0.2389881 -0.44576416728442586 0.806488548928377
0.240988 -0.4382965679981946 0.8098632277732691
0.2429879 -0.4307379815289781 0.8139433933585403
0.2449878 -0.4235249845057932 0.8176884306321637
0.2469877 -0.4160757214773721 0.8214236679964557
0.2489876 -0.40830638038684175 0.8252717504569314
0.2509875 -0.4007141471884823 0.828781520581573
0.2529874 -0.3927034474320044 0.832371886542214
0.2549873 -0.3851504152907729 0.8362396200635033
0.2569872 -0.37738555119133826 0.8396699469800861
0.2589871 -0.3695205638384667 0.8434008154660455
0.260987 -0.36171593431517707 0.8467581939554565
0.2629869 -0.35405993469328423 0.8502024863389122
0.2649868 -0.3463065659582868 0.8533901653488466
0.2669867 -0.3385330000181339 0.8569322829990256
0.2689866 -0.3304493855894516 0.859882541491283
0.2709865 -0.3222826734801001 0.8628281835783697
0.2729864 -0.3146191600060055 0.8662524097167595
0.2749863 -0.3068897971882339 0.869341104136544
0.2769862 -0.29869664088684156 0.8723097769610619
0.2789861 -0.29069167091257564 0.8750761639711425
0.280986 -0.2829332235050659 0.877721645155041
0.2829859 -0.2749020289067605 0.8806962702652598
0.2849858 -0.2667316355393221 0.8829780941043482
0.2869857 -0.25893206876241703 0.8857136593249377
0.2889856 -0.2508595866251889 0.8882642718494473
0.2909855 -0.24265895992454944 0.8905885797936591
0.2929854 -0.23470601792029583 0.8928785049178303
0.2949853 -0.22645134209175302 0.8948830335545781
0.2969852 -0.21818715660609062 0.8967575609452275
0.2989851 -0.21013265855062918 0.8989421831366233
0.300985 -0.20146573299450293 0.9005853169907807
0.3029849 -0.1935726915257553 0.9025045753289418
0.3049848 -0.18525836908273147 0.9039253189581763
0.3069847 -0.17661835418967123 0.9053702175179958
0.3089846 -0.16868532501951242 0.9072747708452106
0.3109845 -0.15987614115301796 0.9084592685206244
0.3129844 -0.151602744443549 0.9096357746870518
0.3149843 -0.1429789103170129 0.9112218149636241
0.3169842 -0.1344963366967686 0.9121259170602546
0.3189841 -0.12550056616027666 0.9139342514821015
0.320984 -0.11687536129566883 0.9150104276723784
0.3229839 -0.10825948820592152 0.916110836914582
0.3249838 -0.09956743780013719 0.9172285201190657
0.3269837 -0.09079113598171615 0.9178570739526322
0.3289836 -0.08240701850095186 0.9185237502029596
0.3309835 -0.07289000866205748 0.9192700616362254
0.3329834 -0.06467936037921022 0.9208859578881268
0.3349833 -0.05607369207390206 0.920870577584504
0.3369832 -0.047200991771954276 0.921579490758176
0.3389831 -0.03873365464659893 0.922232542196093
0.340983 -0.029666986565912545 0.9225787672036272
0.3429829 -0.020832127570841644 0.9231562551423936
0.3449828 -0.011865724401635747 0.9234964891885212
0.3469827 -0.0031987734787351715 0.9240016953352977
0.3489826 0.005811295067026621 0.9241743951095391
0.3509825 0.014490300676745345 0.9244619687302666
0.3529824 0.023254894007943082 0.9241954150920425
0.3549823 0.031711802783627924 0.9241989067610143
0.3569822 0.04060781022585384 0.9242154643820958
0.3589821 0.04975919838311449 0.9236787728160828
0.360982 0.058406745455243936 0.9233659042330479
0.3629819 0.06722585752561931 0.9227864907683562
0.3649818 0.0756958021859912 0.9224368929648874
0.3669817 0.08464234852231554 0.9218542725713688
0.3689816 0.09342800080785697 0.9211459006675294
0.3709815 0.10152489916335646 0.9203381100543098
0.3729814 0.11078931441161598 0.9196212110804458
0.3749813 0.11915130304746105 0.9186216003474481
0.3769812 0.12783001757289678 0.9174341390034944
0.3789811 0.1368280211225199 0.9164848046711318
0.380981 0.14549976726068248 0.914929718329014
0.3829809 0.15390514613998793 0.9141811207803276
0.3849808 0.16281640045174745 0.9122999566634294
0.3869807 0.17176549681255343 0.9108249648882436
0.3889806 0.1802915717456555 0.9090487280299044
0.3909805 0.18879035074687994 0.9071526259977907
0.3929804 0.1978276747975033 0.9056481464414327
0.3949803 0.20635157707051635 0.9033652312775406
0.3969802 0.21525886203620387 0.9010607703737858
0.3989801 0.22415410334666472 0.8990876621663441
0.40098 0.23286791330081869 0.8971427656229448
0.4029799 0.2416836394282164 0.8945981163477502
0.4049798 0.2503276563711794 0.8922904919907493
0.4069797 0.25928032912275656 0.889953517514475
0.4089796 0.267912498881241 0.8875900871887801
0.4109795 0.2770382706969524 0.8852953393406057
0.4129794 0.28565750375338594 0.8823759094487608
0.4149793 0.294234784807637 0.8797186279425776
0.4169792 0.30302078654234765 0.8766431934150984
0.4189791 0.31143406219464986 0.8738160553969777
0.420979 0.32004893401605966 0.871060700156494
0.4229789 0.32872518284030877 0.8677896842689707
0.4249788 0.3373528797925743 0.8650362563180011
0.4269787 0.3457841488708405 0.8618534023997696
0.4289786 0.3541774560295926 0.8585008172349367
0.4309785 0.3627003011542414 0.8552235524753462
0.4329784 0.37132108601320646 0.851999245526208
0.4349783 0.37967626510976443 0.848238249546056
0.4369782 0.3878827524265185 0.8444824829136791
0.4389781 0.39660248491581857 0.84072556364024
0.440978 0.4049487449799618 0.8370139450770129
0.4429779 0.4127273568291535 0.8331536577188081
0.4449778 0.4212978980563477 0.8293482180827602
0.4469777 0.4292503654598487 0.8250777285868796
0.4489776 0.4371366311879983 0.8209127862474751
0.4509775 0.4456390110913083 0.8171399072068218
0.4529774 0.4536994118136683 0.8129197592306058
0.4549773 0.4614941381165433 0.8084056697796739
0.4569772 0.4697301877541541 0.8041041947308856
0.4589771 0.47782558462148583 0.7990773762228239
0.460977 0.4857664838904194 0.7939681999872907
0.4629769 0.4937320636639997 0.7894738303452786
0.4649768 0.5014629295993291 0.7847641189172492
0.4669767 0.5093508780134615 0.7795306881810354
0.4689766 0.5170704187873213 0.7745588847415434
0.4709765 0.5250102547215698 0.7693415150260937
0.4729764 0.5331214312557392 0.7645973738363401
0.4749763 0.5406180776016792 0.7592801478454169
0.4769762 0.548248415099268 0.753868649898809
0.4789761 0.5561795245259997 0.7486287345283167
0.480976 0.5636779495937878 0.7432153584751853
0.4829759 0.5707206889929418 0.7374884911486919
0.4849758 0.5784443090183521 0.7320738175871028
0.4869757 0.586022092927378 0.726152888581827
0.4889756 0.5932486341278012 0.7203797879156139
0.4909755 0.6006705718151663 0.7146081710165233
0.4929754 0.6080009491388452 0.7088199996503659
0.4949753 0.6150912975286427 0.7029578365390035
0.4969752 0.6219937209548394 0.6968504775920127
0.4989751 0.6292256250891505 0.690845988096627
0.500975 0.6363367008208896 0.6849707670764626
0.5029749 0.6430261912591455 0.6784970903384462
0.5049748 0.6496420130900614 0.6721997584053863
0.5069747 0.6563650982800956 0.665879471336785
0.5089746 0.6631011756679285 0.6595120224328824
0.5109745 0.6699227932194404 0.652873058399197
0.5129744 0.6765349278998962 0.6462180251079832
0.5149743 0.6831976188302039 0.6392040436960218
0.5169742 0.6892573980065216 0.6325468021401602
0.5189741 0.6957400743021757 0.6257302053751078
0.520974 0.7023058135268041 0.6186305731463208
0.5229739 0.7078869405729323 0.6114092924881758
0.5249738 0.7145392227692201 0.6044068346499881
0.5269737 0.7205492404308014 0.596975590084317
0.5289736 0.7260059071859343 0.5899757115509604
0.5309735 0.7325180166869523 0.582285670398248
0.5329734 0.7380304813197341 0.5747604071248175
0.5349733 0.7436806310575839 0.5675650756083872
0.5369732 0.7497999631004301 0.5596281835089761
0.5389731 0.7556945048238174 0.5521837958080267
0.540973 0.761436633667199 0.5445233161981144
0.5429729 0.7672934600724972 0.5366391343152853
0.5449728 0.7725657642190943 0.5288725541982875
0.5469727 0.7779348545349707 0.5210517451042569
0.5489726 0.783250311520267 0.5130249755856295
0.5509725 0.7887961571763823 0.5051972230671478
0.5529724 0.7938333997318914 0.49727396000958757
0.5549723 0.7988936167944598 0.4889707487662779
0.5569722 0.8042638380672493 0.4809741546165764
0.5589721 0.8093709175339767 0.4726766020280847
0.560972 0.8141167968324684 0.4646423133861136
0.5629719 0.8192597728890253 0.45643472775134686
0.5649718 0.8242774106006658 0.4483517766242418
0.5669717 0.8288184202109441 0.44002417180634884
0.5689716 0.8335042714939133 0.43130402398669193
0.5709715 0.8379925246761991 0.4232638105087394
0.5729714 0.84200062926815 0.4146944473412293
0.5749713 0.8463998981293877 0.4061859771211785
0.5769712 0.8509554163600798 0.3974670966914474
0.5789711 0.8550458421440169 0.3894323557421043
0.580971 0.8589136256805605 0.38078019964397125
0.5829709 0.8626388177838121 0.3719443241877905
0.5849708 0.8663220774854795 0.3630538964742072
0.5869707 0.8699017966658176 0.3547915508877553
0.5889706 0.87393348537853 0.3454108152937549
0.5909705 0.877267439706018 0.3370763235322066
0.5929704 0.8806758126142249 0.32783839902725953
0.5949703 0.8838272897435084 0.319096494541514
0.5969702 0.8868242619905672 0.3102423154797411
0.5989701 0.8903502105772529 0.3008460142858134
0.60097 0.8933062462449954 0.29176899392650835
0.6029699 0.8962633282557613 0.2822689091262772
0.6049698 0.8992953786653468 0.2736123298770139
0.6069697 0.9017279951698438 0.264105316140542
0.6089696 0.9048352867563703 0.25527335081489233
0.6109695 0.9074730661257097 0.24590014382227798
0.6129694 0.9096704732167767 0.2364214448864569
0.6149693 0.9126070464326782 0.22735620535268952
0.6169692 0.9152250032319937 0.21774422597504606
0.6189691 0.917440628997467 0.2084678362380753
0.620969 0.9189885412017694 0.19918711917281876
0.6229689 0.9210434867843201 0.18950648798376446
0.6249688 0.9233710557975068 0.1798798224985299
0.6269687 0.9251019726898042 0.17071965258169114
0.6289686 0.9267615797636606 0.16150829884352402
0.6309685 0.9285886152649191 0.15176739600723604
0.6329684 0.9300407579677367 0.1424932146641147
0.6349683 0.931591617117894 0.1327796390854134
0.6369682 0.9330314747114753 0.12348946472112007
0.6389681 0.9341762365037644 0.114248180018081
0.640968 0.9356404740244253 0.10443647897633607
0.6429679 0.9364478316680368 0.09508737915606384
0.6449678 0.9375703033755993 0.08534548719682358
0.6469677 0.938092418199622 0.07584746342935847
0.6489676 0.9389477961182942 0.06642411328585239
0.6509675 0.9398766335790285 0.05714379221275979
0.6529674 0.9402856696845797 0.04738628677246259
0.6549673 0.9408473943137773 0.03790513104542323
0.6569672 0.9408737635898752 0.028525298419142912
0.6589671 0.9413402044444396 0.018430263411510734
0.660967 0.9415594859210583 0.009220222227186346
0.6629669 0.9414525295466308 -0.0008858485371833966
0.6649668 0.9416614627453842 -0.009832984754086206
0.6669667 0.9409599274051145 -0.01968095803595747
0.6689666 0.941351047189181 -0.02888354541613904
0.6709665 0.9408945786035527 -0.03869780721398906
0.6729664 0.9402100153653997 -0.04830298328926095
0.6749663 0.9399674310985586 -0.0578910033111401
0.6769662 0.9396857935419421 -0.06775527077794855
0.6789661 0.9384620932536522 -0.07705912910354615
0.680966 0.9375310786990887 -0.086461957154164
0.6829659 0.9370935316795171 -0.09578583764696469
0.6849658 0.9359354557799414 -0.105479620203693
0.6869657 0.9352247448460109 -0.11520964369658668
0.6889656 0.933717710336847 -0.12432873299085599
0.6909655 0.9326926870853898 -0.1335212540543711
0.6929654 0.9313870832553062 -0.14339237631649715
0.6949653 0.9298611209227947 -0.1527569414331768
0.6969652 0.9283154360046059 -0.16184498145593923
0.6989651 0.9268579091364182 -0.1716574673977423
0.700965 0.9247585457225059 -0.1807506632957323
0.7029649 0.9230203104437241 -0.19008443604641015
0.7049648 0.9211679424715153 -0.1991470521925908
0.7069647 0.9189693889259182 -0.20845376906930532
0.7089646 0.9169930402773881 -0.21768628171072676
0.7109645 0.9148020086838152 -0.22674287028232978
0.7129644 0.9120915389433684 -0.2355027504401002
0.7149643 0.9097316955627962 -0.24504070840290965
0.7169642 0.9072768217131041 -0.2536416386083816
0.7189641 0.9043242388858276 -0.26277599051997547
0.720964 0.9012799477973665 -0.2719710225782392
0.7229639 0.8984039793395945 -0.2812380507527759
0.7249638 0.8959537645073652 -0.2898122662295836
0.7269637 0.892686611067393 -0.29893722948508833
0.7289636 0.8895584966167225 -0.30755907626342516
0.7309635 0.8864724730642044 -0.31688868589465796
0.7329634 0.8830493324895392 -0.32531913504390353
0.7349633 0.8797239214324277 -0.3345354157303314
0.7369632 0.8758949911404341 -0.3431439676350514
0.7389631 0.8723422307361894 -0.35227998497757906
0.740963 0.8687532701388095 -0.36063294335192864
0.7429629 0.8650294222626439 -0.37019021767437665
0.7449628 0.8613847860439197 -0.37831497477261256
0.7469627 0.8578962348014825 -0.3874472163115101
0.7489626 0.8542477330577422 -0.3959192720224072
0.7509625 0.8495648734662544 -0.4040989034677599
0.7529624 0.8463613637329064 -0.41309149998062533
0.7549623 0.8421225835619013 -0.4215194506121905
0.7569622 0.8382209286053478 -0.42996835920357634
0.7589621 0.8336220354988655 -0.4380332440634103
0.760962 0.8295376080162005 -0.44634020542972047
0.7629619 0.8248266758248624 -0.45476143510639816
0.7649618 0.8207104592991352 -0.463021942891354
0.7669617 0.8162641226306842 -0.47041814869212295
0.7689616 0.8116787703235142 -0.47854687367666626
0.7709615 0.8064721781866169 -0.4865191203287085
0.7729614 0.8020249093877511 -0.4943230129744906
0.7749613 0.7971606159908875 -0.5021187899568884
0.7769612 0.7919043560943819 -0.5099793494108462
0.7789611 0.7873118984586478 -0.5175527492726064
0.780961 0.7820076270433798 -0.5248601241785297
0.7829609 0.776716595557566 -0.5326168451921681
0.7849608 0.7714020737415782 -0.5398958461859734
0.7869607 0.7659217973503034 -0.5474346549360617
0.7889606 0.760869048635407 -0.5544870711895361
0.7909605 0.7550404732742236 -0.5616548913886146
0.7929604 0.7491976963364995 -0.5688439528770988
0.7949603 0.7435017217158983 -0.5759831397976318
0.7969602 0.737694503406036 -0.5829126351274355
0.7989601 0.7319986405231678 -0.5900204831131368
0.80096 0.7260289552717447 -0.5967887628254358
0.8029599 0.7197748640854369 -0.6037344131980565
0.8049598 0.7137041895864147 -0.6107073900599141
0.8069597 0.7073146920694444 -0.6176036392805199
0.8089596 0.7009049830250893 -0.6243908094700614
0.8109595 0.6946006299661328 -0.6311276941236035
0.8129594 0.6887260011982289 -0.6384050211027151
0.8149593 0.682107547829035 -0.6447453930865551
