! Created with skrf 1.8.0 (http://scikit-rf.org).
# GHz S RI R 50.0 
!freq ReS11 ImS11
0.001 -0.9387056642286176 0.005071676403093101
0.0029999 -0.9382866820797627 0.01145706426073309
0.0049998 -0.9374804191800665 0.01810367171149059
0.0069997 -0.9367992631944101 0.02450051802223424
0.0089996 -0.9361207394493438 0.031113561429464767
0.0109995 -0.9356625862781693 0.03763537352294172
0.0129994 -0.934965383603858 0.04402532027632286
0.0149993 -0.9342981359485572 0.05036048855930141
0.0169992 -0.93369212071736 0.05659491409577336
0.0189991 -0.9328197408305046 0.06295759303820761
0.020999 -0.9322467242166671 0.06921781927296142
0.0229989 -0.9312966463566558 0.07550085331668357
0.0249988 -0.9300765253615264 0.0821144592719945
0.0269987 -0.9297985161405276 0.08809950668649051
0.0289986 -0.9287044192242019 0.0943461708565915
0.0309985 -0.9277080050227248 0.10057083523737986
0.0329984 -0.9267910341187845 0.10654287261742752
0.0349983 -0.9257448112477592 0.11320316569422782
0.0369982 -0.9246920693861603 0.11943071478779053
0.0389981 -0.923594229589152 0.1257027286188346
0.040998 -0.922863429032902 0.13156892991397195
0.0429979 -0.9212672245707181 0.13788784583696773
0.0449978 -0.9203272084997376 0.14368613968349314
0.0469977 -0.918724345699685 0.15006593977645588
0.0489976 -0.91780898398087 0.1561563709710113
0.0509975 -0.9162692455223621 0.16230714640936583
0.0529974 -0.9148619541462448 0.16859385752991946
0.0549973 -0.913730698825064 0.17440187571579546
0.0569972 -0.9123720705458215 0.18039117247600348
0.0589971 -0.9108657479812609 0.18634064695475547
0.060997 -0.909310832980396 0.19225854020679736
0.0629969 -0.9078996090740881 0.19812009635386443
0.0649968 -0.9064092092526617 0.20399056228292298
0.0669967 -0.9050100178664812 0.20997677012003488
0.0689966 -0.9032221448816293 0.21599167949980416
0.0709965 -0.9014858235496407 0.22175991674988582
0.0729964 -0.9001110112523877 0.22780804304124405
0.0749963 -0.8982075192521158 0.23341026885495852
0.0769962 -0.8960426706275115 0.2393223049534713
0.0789961 -0.8942491437564981 0.24522547155376326
0.080996 -0.8925152744802968 0.2509370320565707
0.0829959 -0.8906825545519769 0.25703308029261007
0.0849958 -0.8885290289483646 0.2624517379174651
0.0869957 -0.8866489396665479 0.26819909367073075
0.0889956 -0.8843267406025542 0.2741491942192068
0.0909955 -0.8824362796603077 0.2797591862869775
0.0929954 -0.880308821706962 0.2855251965441985
0.0949953 -0.8785559683615819 0.2909553017139859
0.0969952 -0.8763070842121152 0.2966831175194058
0.0989951 -0.8740930107236023 0.3026261412737981
0.100995 -0.8715947220453483 0.3084606443882104
0.1029949 -0.8694497475532715 0.3139985030376582
0.1049948 -0.8671273565331836 0.31960946182231964
0.1069947 -0.8645393280084264 0.32523871398147913
0.1089946 -0.8623989736964802 0.3307010847426603
0.1109945 -0.860051587008779 0.3366897396865631
0.1129944 -0.8575771952068256 0.34227165817855565
0.1149943 -0.8553747194237634 0.34783727530718506
0.1169942 -0.8527195860432562 0.35332345298248263
0.1189941 -0.8505747116230286 0.35891918265467754
0.120994 -0.8478182152218023 0.3645270776605316
0.1229939 -0.845370070774155 0.36983020079834483
0.1249938 -0.8431161911454711 0.375523291753984
0.1269937 -0.8407264742735182 0.38081284258500586
0.1289936 -0.8381199552645605 0.38631259602700474
0.1309935 -0.8351200108919686 0.3915537563143918
0.1329934 -0.8326287947049088 0.3967384300001425
0.1349933 -0.8298673207339093 0.40219056537900627
0.1369932 -0.8273845451274153 0.40763917467247457
0.1389931 -0.8246591137231061 0.41305828184879745
0.140993 -0.821825744764431 0.4178902048537746
0.1429929 -0.8190383280096892 0.4234129555076676
0.1449928 -0.815900470104568 0.4286704693944122
0.1469927 -0.8131941057953945 0.43383642263628974
0.1489926 -0.8101989248086257 0.43866756012439767
0.1509925 -0.8071207737178724 0.44400063403199663
0.1529924 -0.8038637885107501 0.44884118504207987
0.1549923 -0.8005366246252354 0.4539279131833816
0.1569922 -0.7972499037453864 0.45880604900873495
0.1589921 -0.7942992019502133 0.4643627078480607
0.160992 -0.7907133322133454 0.46936486136805716
0.1629919 -0.7879198754236212 0.47457372223952915
0.1649918 -0.7844286876831759 0.47929452543480044
0.1669917 -0.7808972905305429 0.4841029143976194
0.1689916 -0.7778272211540792 0.48900069516206124
0.1709915 -0.7744995840643211 0.49445721213821775
0.1729914 -0.770738597220448 0.49932126678659094
0.1749913 -0.7672273224278058 0.5043688371486472
0.1769912 -0.763552642291137 0.5092347740650836
0.1789911 -0.7603143720942885 0.5142388011142779
0.180991 -0.7565284215208837 0.5192538986590975
0.1829909 -0.7528922352306888 0.5242403505498077
0.1849908 -0.7496717737433014 0.5290188912382283
0.1869907 -0.7462697300451215 0.5345363753040692
0.1889906 -0.7417588302897165 0.5395000448835758
0.1909905 -0.738256006529876 0.5441926049038323
0.1929904 -0.7348137300475541 0.5492831130878978
0.1949903 -0.7309969623019269 0.5540184642966596
0.1969902 -0.7279167254083171 0.5586843119054751
0.1989901 -0.7240214849448345 0.5634892411123287
0.20099 -0.7206905482902402 0.5682923127420099
0.2029899 -0.7166701989256171 0.5728685094134307
0.2049898 -0.7124657634595425 0.5775039484908037
0.2069897 -0.7088405644660873 0.5822488123937203
0.2089896 -0.7051706922118904 0.5866625474477076
0.2109895 -0.7014505000885325 0.5912091537153625
0.2129894 -0.6974357038662566 0.5959547348156787
0.2149893 -0.6936194317179617 0.6003930189981651
0.2169892 -0.6897639313182742 0.6046241810046468
0.2189891 -0.6855236196073453 0.6090549278972638
0.220989 -0.6815579235677356 0.6135167442495423
0.2229889 -0.6774837270288062 0.6178377972669749
0.2249888 -0.6735288642597168 0.6222781922705012
0.2269887 -0.6691512993308486 0.6263054716907543
0.2289886 -0.6650383362215851 0.6305355688757783
0.2309885 -0.6608527534760382 0.6346659946631144
0.2329884 -0.6563570259243873 0.6388718894469954
0.2349883 -0.6524051516384176 0.6432476260669087
0.2369882 -0.6478661518533801 0.6473110530862652
0.2389881 -0.6435731535591567 0.6513475684890924
0.240988 -0.6389689293651293 0.6552456753897129
0.2429879 -0.6343471653386759 0.6592653001653835
0.2449878 -0.6300110421620972 0.6633786822244738
0.2469877 -0.6254328379624479 0.6671959709714431
0.2489876 -0.6207519663350667 0.6715762126312946
0.2509875 -0.6163598226038115 0.6753500874291265
0.2529874 -0.6114672723134806 0.6796171578265078
0.2549873 -0.6067179474092518 0.6836359556699608
0.2569872 -0.6021707022293327 0.6875765891595281
0.2589871 -0.5975452271216329 0.6919538007983379
0.260987 -0.5927423028606508 0.6959378852637985
0.2629869 -0.588025225217149 0.6996654303411225
0.2649868 -0.5832449872611438 0.703681999423929
0.2669867 -0.5783818927800926 0.7074217770412612
0.2689866 -0.5736580183267352 0.7112631295006875
0.2709865 -0.569383975931155 0.715055924427143
0.2729864 -0.564358879020905 0.7188614981509852
0.2749863 -0.5596775541959627 0.7226377356401251
0.2769862 -0.5547136780553891 0.7264693881478566
0.2789861 -0.5498335226674615 0.730043741541357
0.280986 -0.5451502438270459 0.7338391760279825
0.2829859 -0.5399109481499942 0.7374524228869213
0.2849858 -0.5354810629893174 0.7410393382371941
0.2869857 -0.5306707635020247 0.7445124605984754
0.2889856 -0.5255235602610794 0.748004610880643
0.2909855 -0.5207048269403647 0.7516655667926694
0.2929854 -0.5156602018454925 0.7550914881163002
0.2949853 -0.510880823675735 0.7581757193566709
0.2969852 -0.5055354906961732 0.7614851636594502
0.2989851 -0.5007297706233738 0.7647178374012168
0.300985 -0.49517336654645017 0.7678972934287066
0.3029849 -0.49023494886272073 0.7708104958406509
0.3049848 -0.48498348362557747 0.7742961572670956
0.3069847 -0.47967970354968764 0.7772356939227815
0.3089846 -0.47452579804890194 0.7798213295501912
0.3109845 -0.46887002609898026 0.7829917898114745
0.3129844 -0.4638897910058311 0.7858566041850371
0.3149843 -0.4584736923512253 0.7888784912214195
0.3169842 -0.4529164678927669 0.79184098233835
0.3189841 -0.4475650765014394 0.7950482420454207
0.320984 -0.441841157142328 0.7980245047222494
0.3229839 -0.43614715486148575 0.801214603929534
0.3249838 -0.4310891360188969 0.8038012983349936
0.3269837 -0.4252872204641926 0.8069197105255175
0.3289836 -0.41964002116190835 0.8096329665767179
0.3309835 -0.41377466624455267 0.8122291325935953
0.3329834 -0.40862377951656875 0.8155194055252446
0.3349833 -0.40295206147014667 0.8173495002487796
0.3369832 -0.3974958942652155 0.8203365884406758
0.3389831 -0.39203406566117555 0.8234902778090014
0.340983 -0.3861455714297745 0.8260826089175767
0.3429829 -0.38057866364992604 0.8286739198095525
0.3449828 -0.3749041991771046 0.8312598426230019
0.3469827 -0.3692538323974378 0.8339657068249187
0.3489826 -0.36377740570214767 0.8367398649942498
0.3509825 -0.3577540416022368 0.8393781265290712
0.3529824 -0.35199883946362476 0.8418757435487593
0.3549823 -0.34668076933054365 0.844241886404097
0.3569822 -0.3405793232322345 0.8467167569771591
0.3589821 -0.3348197562893397 0.8487974706880088
0.360982 -0.3291691303257055 0.8510550336384681
0.3629819 -0.3233647534840466 0.8535519547979504
0.3649818 -0.31756717635927567 0.8552955878119062
0.3669817 -0.3119131489624598 0.8577937939830353
0.3689816 -0.30586353943737676 0.8597121188631873
0.3709815 -0.30036632011836145 0.8616998233605082
0.3729814 -0.29440243648229975 0.8637306087622446
0.3749813 -0.2887052059846575 0.8658231784214155
0.3769812 -0.28280316188709725 0.8678668417253478
0.3789811 -0.27701352836061494 0.8698934266147512
0.380981 -0.2711366741060071 0.8712740806390513
0.3829809 -0.26524243759238697 0.8731193343934023
0.3849808 -0.25918920264845935 0.8748374641139942
0.3869807 -0.25311820054786804 0.8765504900730428
0.3889806 -0.24700558415743537 0.8784408036374612
0.3909805 -0.24117813499638235 0.8797178863111894
0.3929804 -0.23539986399885138 0.8811146783202383
0.3949803 -0.22873257756695053 0.8828028728054684
0.3969802 -0.22252664127156324 0.8839667779180664
0.3989801 -0.21610991354222567 0.8856807589953689
0.40098 -0.2101330641688453 0.8870458618354984
0.4029799 -0.20412467869708245 0.8882695771764613
0.4049798 -0.19779217162432428 0.8898083584926173
0.4069797 -0.19146335961417113 0.8910205325995193
0.4089796 -0.18515846443933204 0.8924965757325473
0.4109795 -0.17862153293315067 0.8938209373258301
0.4129794 -0.17275656288812813 0.8950080553731498
0.4149793 -0.16629612932350327 0.8960916781385296
0.4169792 -0.15972238368341252 0.8978729214541208
0.4189791 -0.1536572552300549 0.8985549495090164
0.420979 -0.14728904763637732 0.8994188714640698
0.4229789 -0.14112311629807844 0.9005074706460976
0.4249788 -0.1347167687851223 0.9015670162764461
0.4269787 -0.12847527278743928 0.9026782858948205
0.4289786 -0.12217634908112725 0.9037119385156671
0.4309785 -0.11592210912672471 0.904564036976042
0.4329784 -0.10954856567646318 0.9052895280348622
0.4349783 -0.10329852812739385 0.9062123130931905
0.4369782 -0.09662226077888875 0.9069759216022193
0.4389781 -0.08988265985979146 0.9075981806099053
0.440978 -0.08393809860170698 0.90867267119451
0.4429779 -0.07756341661232521 0.9090233809603744
0.4449778 -0.0712695567438682 0.9093756105726499
0.4469777 -0.06508314837958265 0.9096848250876375
0.4489776 -0.05845538155392487 0.9102811701800144
0.4509775 -0.05218589571923534 0.910759842389309
0.4529774 -0.046011463252706906 0.9108721864876064
0.4549773 -0.03949653972759839 0.9116033769576835
0.4569772 -0.03285840324167337 0.9119430323808624
0.4589771 -0.02667022439593696 0.9118375759048424
0.460977 -0.019860834123911264 0.9122220812539984
0.4629769 -0.013398932277142846 0.9121744629708879
0.4649768 -0.0070809470327191535 0.9123745670774366
0.4669767 -0.00023807495965692642 0.9118716210844124
0.4689766 0.006374321347502208 0.9120543153628782
0.4709765 0.012735473551019873 0.9116241137447627
0.4729764 0.019336599657863426 0.9121165417094502
0.4749763 0.025764849163429804 0.9118076195875767
0.4769762 0.03230169961359433 0.9116962528729411
0.4789761 0.03886927825525568 0.9114596367119046
0.480976 0.045441241695133944 0.9113649228651245
0.4829759 0.05200940925687253 0.9111433445067736
0.4849758 0.05844491562319454 0.9111581885325994
0.4869757 0.06514817929019671 0.9105991069350089
0.4889756 0.07170924349653351 0.9106397998211176
0.4909755 0.0781651865044328 0.9100415472926461
0.4929754 0.08435762416730502 0.9094880646274611
0.4949753 0.09113076791365285 0.9090526337181164
0.4969752 0.09785942010177702 0.9080801965357386
0.4989751 0.10413095999230887 0.9080735987374672
0.500975 0.11058040405074847 0.9076408161637243
0.5029749 0.11700986942501235 0.9065639332207189
0.5049748 0.12319488768213346 0.9059006970098653
0.5069747 0.1293518392292633 0.9048212812555784
0.5089746 0.13586679900322124 0.9043171109419024
0.5109745 0.14233128883589952 0.903139343471417
0.5129744 0.14868010021677783 0.9017642708429245
0.5149743 0.15521248056488518 0.9008712310398072
0.5169742 0.16176535849195223 0.8996638376579511
0.5189741 0.16806918757259492 0.8986802249412578
0.520974 0.17478794374623205 0.8973793497841567
0.5229739 0.18104676292413374 0.8958276333498636
0.5249738 0.18736213478972275 0.8944640119175985
0.5269737 0.19363929572547794 0.8929917873568314
0.5289736 0.2001968624204377 0.891295055785172
0.5309735 0.206631724273069 0.8897596359750115
0.5329734 0.2131232609706499 0.8879802031042455
0.5349733 0.2194933406085894 0.8860532322096306
0.5369732 0.22606335907689076 0.8843145006887855
0.5389731 0.2327754557573111 0.8826450991106528
0.540973 0.23946966147387508 0.8808582222158802
0.5429729 0.24587756331044175 0.8792941560203146
0.5449728 0.25236538421260024 0.8773653994271934
0.5469727 0.258825555666678 0.8754604491113641
0.5489726 0.2655084805624382 0.8737021404424864
0.5509725 0.27190675317432267 0.871824634783308
0.5529724 0.2784909113917549 0.869718945655106
0.5549723 0.28495466687479043 0.8675793194184844
0.5569722 0.29173418698228576 0.8655924496828105
0.5589721 0.29795105615628004 0.8634172495113598
0.560972 0.304532190975091 0.8615140254379368
0.5629719 0.31165011355850836 0.8595708569051541
0.5649718 0.3178732471294381 0.8577939935827718
0.5669717 0.3238851209310991 0.8556441993409651
0.5689716 0.3305084702491352 0.8532808800740472
0.5709715 0.3365764003751822 0.8509721011927242
0.5729714 0.34342163534872944 0.848401256668603
0.5749713 0.3495385087445404 0.8461774550445654
0.5769712 0.3554376436228606 0.8439028102448201
0.5789711 0.3617870560582536 0.8415194232575951
0.580971 0.3675696701638321 0.8389977846801363
0.5829709 0.37355470103526306 0.8363436495534443
0.5849708 0.37965147082496187 0.8338426594159417
0.5869707 0.3856273971449883 0.8311051345444654
0.5889706 0.3918561030056846 0.828226894029102
0.5909705 0.39788248032832135 0.825248464737015
0.5929704 0.4037714483871889 0.8221826425474972
0.5949703 0.4096916287754562 0.8193579715879378
0.5969702 0.41549420522244707 0.8157954533224854
0.5989701 0.4220726782527208 0.8127246360548628
0.60097 0.4275255245658034 0.8096026190518893
0.6029699 0.4340298147319155 0.8057727582832528
0.6049698 0.43950731282191746 0.8024536241740061
0.6069697 0.44554235309388823 0.7989147452704859
0.6089696 0.4515435079248093 0.7959638358985371
0.6109695 0.45758707456054676 0.7923035771518119
0.6129694 0.46350219118048774 0.7883868081882368
0.6149693 0.4691672323061089 0.7853785536910243
0.6169692 0.4757144749553315 0.7817769746478753
0.6189691 0.48169963849839353 0.7779237741556195
0.620969 0.4874139971461924 0.7745240185338703
0.6229689 0.4933154283244483 0.7703696149874867
0.6249688 0.49929215355627254 0.7667685921156437
0.6269687 0.5052891388048036 0.7629735547267227
0.6289686 0.5111367386285725 0.759530643310216
0.6309685 0.5170377539204901 0.7554346785324006
0.6329684 0.522671086439807 0.7515843492996435
0.6349683 0.5287428022230353 0.7481588482777708
0.6369682 0.5343425673027745 0.7439104773704481
0.6389681 0.5402251228766064 0.740177720005745
0.640968 0.5461227914933522 0.7365195419066066
0.6429679 0.5511797028644342 0.732647211030606
0.6449678 0.5565775518980701 0.7285828483749481
0.6469677 0.5623844153034561 0.7245148430381088
0.6489676 0.5674135739665609 0.7208797333914675
0.6509675 0.5731744104383564 0.7169120021306863
0.6529674 0.578968026728663 0.7123361861723289
0.6549673 0.5843793154005235 0.7082010485631222
0.6569672 0.5891019219162965 0.7033579308858086
0.6589671 0.5943104314868077 0.6993723045970054
0.660967 0.5990732511615112 0.6952374510954559
0.6629669 0.604527862608787 0.6904083916470942
0.6649668 0.6092111953389037 0.6859290037672565
0.6669667 0.614393629596765 0.680861083378995
0.6689666 0.6193634567224586 0.6768468869002374
0.6709665 0.6241326805937992 0.6721045438628908
0.6729664 0.6292086874848684 0.6667250022077656
0.6749663 0.6337457026294724 0.6625164178791072
0.6769662 0.63950746347341 0.6569517867411909
0.6789661 0.643910323325182 0.6519420464622386
0.680966 0.6489745046167205 0.6469775304095005
0.6829659 0.653934238338039 0.6419071250461794
0.6849658 0.6589392662748179 0.6371018665018572
0.6869657 0.6638695711141757 0.6319150039365009
0.6889656 0.6681740114777062 0.6263931069358879
0.6909655 0.6730568309661304 0.6213752125778383
0.6929654 0.6783026274787539 0.6154248443480831
0.6949653 0.6826908152544607 0.6107677612143262
0.6969652 0.6876333687631943 0.6048571238938519
0.6989651 0.6926778793743102 0.599637463460468
0.700965 0.6973345156660307 0.5941204304018775
0.7029649 0.7019119696727386 0.5887025205115884
0.7049648 0.7066571928451423 0.5835331347734304
0.7069647 0.7114519640552595 0.5776486237019187
0.7089646 0.7163027928184915 0.5726791514866693
0.7109645 0.7209646600409333 0.5671224905413248
0.7129644 0.7256509013460491 0.5617701910772506
0.7149643 0.7297755960403937 0.556124864751778
0.7169642 0.7342701970859782 0.550793197729055
0.7189641 0.7386361382242425 0.5453701165280427
0.720964 0.7427456942542495 0.5399359236518545
0.7229639 0.7469311951200838 0.5342727171163778
0.7249638 0.7513224827592037 0.5286438853675492
0.7269637 0.7554948984369362 0.5232401112135832
0.7289636 0.7595056066739064 0.5173013402084623
0.7309635 0.7636377811545535 0.5118151616207537
0.7329634 0.7676688388318789 0.50601187682405
0.7349633 0.7715148250125895 0.5003456104542311
0.7369632 0.7751140863204358 0.4943408211450876
0.7389631 0.7786768060388705 0.48888319560383076
0.740963 0.7821156563492493 0.4827175657795898
0.7429629 0.7858375754279733 0.47672449089024316
0.7449628 0.7894292822216153 0.471071965476385
0.7469627 0.7928429509860083 0.46518183193352025
0.7489626 0.7962228648435166 0.4586049440391521
0.7509625 0.7994557456736004 0.45205634150036156
0.7529624 0.803346555646761 0.4465047601480666
0.7549623 0.8066088383479985 0.4402533423265496
0.7569622 0.8097028275502071 0.43329338514607235
0.7589621 0.8126973506874038 0.4269805036406107
0.760962 0.8159287066562931 0.4209880289979779
0.7629619 0.8193880899259205 0.413942340869647
0.7649618 0.8226476810015698 0.40790562609186387
0.7669617 0.8256915349968119 0.401442553796782
0.7689616 0.8287244472604409 0.3946691358042502
0.7709615 0.8316163633638969 0.3883086700079029
0.7729614 0.8349330487545215 0.3817133214070299
0.7749613 0.8378252388955887 0.375087238001273
0.7769612 0.8406083165990876 0.3683594158308483
0.7789611 0.8435938415171158 0.361796871924922
0.780961 0.8465474428745706 0.35532301064206306
0.7829609 0.8493045727229307 0.3488189802431945
0.7849608 0.8524812540120685 0.34230910207148774
0.7869607 0.8551674218648864 0.33539586590921966
0.7889606 0.8578659905637384 0.32888387173842465
0.7909605 0.8604116953660483 0.32230736704214624
0.7929604 0.8630500778044885 0.31546837487474355
0.7949603 0.8654388066906413 0.3089878337168717
0.7969602 0.868119082333078 0.3021379244970704
0.7989601 0.8705105070993953 0.2954885750299012
0.80096 0.8728676030880668 0.28867996226218867
0.8029599 0.8752400174462674 0.2821461332232994
0.8049598 0.8771869421256275 0.2752672364569927
0.8069597 0.8793860138032251 0.2687684817294161
0.8089596 0.8810959236711304 0.2616783835358723
0.8109595 0.8828612021537396 0.25484382158887925
0.8129594 0.8852001081408747 0.24806948315828256
0.8149593 0.8872723769888645 0.24135329348756493
