! Created with skrf 1.8.0 (http://scikit-rf.org).
# GHz S RI R 50.0 
!freq ReS11 ImS11
0.001 -0.9432809027544243 0.0051194920509543655
0.0029999 -0.9427289767813054 0.011418985804305538
0.0049998 -0.9420039697286858 0.018097198882416232
0.0069997 -0.9412845360571374 0.02457009377483263
0.0089996 -0.940658808502098 0.03126584527106529
0.0109995 -0.9403232729100351 0.03778634266332324
0.0129994 -0.9396759624346936 0.04418105263592035
0.0149993 -0.9388914663625433 0.050527405953803534
0.0169992 -0.938362216567215 0.056841436269516314
0.0189991 -0.9373562256341265 0.06304938067438833
0.020999 -0.9368464447989073 0.0694951118141802
0.0229989 -0.935977632761227 0.07581127502239496
0.0249988 -0.9347696012232813 0.08223585322278686
0.0269987 -0.9344797724023675 0.08847958209087803
0.0289986 -0.9334472650115887 0.09479451008027959
0.0309985 -0.9325339355136636 0.10088919535139268
0.0329984 -0.9314503644451771 0.10717733661732659
0.0349983 -0.9304518449937761 0.11380141687376241
0.0369982 -0.9293263615982789 0.11999237972416199
0.0389981 -0.928368912870199 0.12639682206148156
0.040998 -0.9275807910183663 0.13211787919096812
0.0429979 -0.9260272628138124 0.13828890477402836
0.0449978 -0.9250036236829089 0.1444443744905218
0.0469977 -0.9235722964125617 0.15076093381061081
0.0489976 -0.9225431778979091 0.15686669354928848
0.0509975 -0.9210445402188704 0.16305736456547162
0.0529974 -0.9201198109193955 0.1692948916594632
0.0549973 -0.9185063988334454 0.17515571532834326
0.0569972 -0.9171036879489433 0.18130274729111565
0.0589971 -0.915590995256073 0.18727453591367393
0.060997 -0.9140425913851526 0.19326170383484453
0.0629969 -0.9126211551781828 0.1991870416111925
0.0649968 -0.9111869823899859 0.20510119603021743
0.0669967 -0.9097989517204603 0.2110971712150288
0.0689966 -0.9079303999225077 0.21714765515988158
0.0709965 -0.9062418104523475 0.22292810971090846
0.0729964 -0.9048249616845355 0.2290256695301862
0.0749963 -0.9029523362774055 0.2347087282659318
0.0769962 -0.9007605739956099 0.24066222231600928
0.0789961 -0.899024751097913 0.2465600495257836
0.080996 -0.8972651091500647 0.25251531660502263
0.0829959 -0.8955289390308053 0.2584172591459021
0.0849958 -0.8932905819166754 0.26400913734367937
0.0869957 -0.8914330940793731 0.2696823902349644
0.0889956 -0.8892117886720754 0.27565517123192135
0.0909955 -0.887317896472636 0.281411023126516
0.0929954 -0.8850579986472766 0.2871865462564628
0.0949953 -0.8832366650933722 0.29266696018250776
0.0969952 -0.880896494354249 0.29856427007126746
0.0989951 -0.8788095197897611 0.30444373514898104
0.100995 -0.8762932478002886 0.3102526043386163
0.1029949 -0.8740203695128324 0.3156191784090718
0.1049948 -0.8718393462315521 0.32150633012751206
0.1069947 -0.8693586620891498 0.32724916874451615
0.1089946 -0.8672611132660849 0.33280069908420545
0.1109945 -0.8647243170536598 0.3387674666055629
0.1129944 -0.8622571955703989 0.3443564359167999
0.1149943 -0.8600402757783892 0.34996769767812497
0.1169942 -0.8572984967121486 0.3555135644386178
0.1189941 -0.8551307380286475 0.3613625562803533
0.120994 -0.8524366135337077 0.36673209941420665
0.1229939 -0.84998856886069 0.37218385322731107
0.1249938 -0.8476205940339029 0.37781111892632685
0.1269937 -0.8452839293104395 0.3833353545943747
0.1289936 -0.842660470377164 0.3889493811803751
0.1309935 -0.8396367196313322 0.3942891421090845
0.1329934 -0.8370430850610744 0.39919219092420233
0.1349933 -0.8343377935735806 0.40478382040158434
0.1369932 -0.8319700361862082 0.41011875910715817
0.1389931 -0.8290725027445439 0.4157352623866341
0.140993 -0.8261303650297229 0.4208721478057324
0.1429929 -0.8232759489040569 0.42629227201968095
0.1449928 -0.8202018187475175 0.43162184417476646
0.1469927 -0.8174435640214797 0.43696387455376123
0.1489926 -0.8145443164188226 0.44162210329453205
0.1509925 -0.8113114837440185 0.4470806326029546
0.1529924 -0.8081173610357522 0.45192257771057975
0.1549923 -0.80473063411867 0.4570502489535986
0.1569922 -0.8014147167057734 0.46192889308845553
0.1589921 -0.7985140795828889 0.46760548813924074
0.160992 -0.7948465363714863 0.4726405574895466
0.1629919 -0.7919886080234146 0.47774836245700397
0.1649918 -0.7885994555090093 0.48269823589892263
0.1669917 -0.7850450072065371 0.4876122683385016
0.1689916 -0.7818546077627715 0.4924629457359027
0.1709915 -0.7785395422153352 0.4979495039650407
0.1729914 -0.7747604541032307 0.5028503108311885
0.1749913 -0.7712409117975326 0.5078304663958657
0.1769912 -0.7674300025639715 0.5128670995115926
0.1789911 -0.7642567449772018 0.5179209703357658
0.180991 -0.7604601298378626 0.5228629522239353
0.1829909 -0.7567201279670217 0.5281075534783103
0.1849908 -0.7534450199811551 0.5326839999164736
0.1869907 -0.7500041402723302 0.538311561339219
0.1889906 -0.7455247902235214 0.5435508065867174
0.1909905 -0.7420511314863154 0.5481686269786981
0.1929904 -0.7384874922489498 0.5533181476297633
0.1949903 -0.7349198868403488 0.5580329258955313
0.1969902 -0.7315681971293143 0.5628475533449986
0.1989901 -0.7275813783834717 0.5675448540868607
0.20099 -0.7241794077562888 0.5728328320669743
0.2029899 -0.7202423901795344 0.5770603578904054
0.2049898 -0.7160085194495859 0.5820219304092861
0.2069897 -0.7122227383864099 0.58659948564455
0.2089896 -0.7084653114714349 0.591217725352341
0.2109895 -0.7047695780227728 0.5956898951758216
0.2129894 -0.7007320782369528 0.6004569852069132
0.2149893 -0.6968341424949046 0.6048978506509152
0.2169892 -0.692939914515825 0.6091982286052993
0.2189891 -0.6887054634002526 0.6137401143202306
0.220989 -0.6845872652119342 0.618180790166908
0.2229889 -0.6804875747611859 0.6225906287476791
0.2249888 -0.6764698151936135 0.6271185248115569
0.2269887 -0.6721575647145974 0.6310603156090153
0.2289886 -0.6678957036670506 0.6354246155304543
0.2309885 -0.6637411574460369 0.6395279788851569
0.2329884 -0.659120556868224 0.643894100775602
0.2349883 -0.6550293164197213 0.6481319801703245
0.2369882 -0.650589556109309 0.652162799048637
0.2389881 -0.6461776482401141 0.6564903576932073
0.240988 -0.6415819155160107 0.6603438096498557
0.2429879 -0.6368209589908449 0.6645295876152008
0.2449878 -0.63256792224009 0.6685571549802394
0.2469877 -0.6277658717287444 0.6724829099156101
0.2489876 -0.6231176523888107 0.6768388397694326
0.2509875 -0.618660973603503 0.6806035434087838
0.2529874 -0.6138111197051165 0.6848080403716397
0.2549873 -0.6089080660846906 0.6889647463019538
0.2569872 -0.6043215190532915 0.6929264737743758
0.2589871 -0.5996645055705857 0.6974155072462458
0.260987 -0.5948400917402102 0.7013850854175572
0.2629869 -0.5900072065599481 0.705219511400974
0.2649868 -0.5854042235655694 0.7091308706243206
0.2669867 -0.5804293024285074 0.713031701918415
0.2689866 -0.575730035034644 0.716837572186479
0.2709865 -0.5710434494361669 0.7205887281208639
0.2729864 -0.5661384980202915 0.7245255119975432
0.2749863 -0.5610645871813458 0.7284271163859226
0.2769862 -0.5563604903858723 0.7323098885118994
0.2789861 -0.5514157135189272 0.7357756488893146
0.280986 -0.5465836766493416 0.7395324533795975
0.2829859 -0.5414558626034265 0.7432395441259154
0.2849858 -0.5367375616299653 0.7468408753333007
0.2869857 -0.5319472636466159 0.7503236226304266
0.2889856 -0.5268413598068138 0.7539007335179044
0.2909855 -0.5217275524064329 0.7575253863663263
0.2929854 -0.5169249235942313 0.7610511141135797
0.2949853 -0.5119407326010065 0.7640814480060633
0.2969852 -0.5065582481576584 0.7674178617936622
0.2989851 -0.5016976458812441 0.7707261761676748
0.300985 -0.4958628019500426 0.7739765069107499
0.3029849 -0.4908464644457457 0.7768279506816427
0.3049848 -0.48570216430183466 0.7802244783386277
0.3069847 -0.480235400688177 0.7833642694610542
0.3089846 -0.47510756519421665 0.7859595416658083
0.3109845 -0.46948776707023065 0.7890686992617516
0.3129844 -0.46423929910124273 0.7921913442874986
0.3149843 -0.45885773783681283 0.7949848015961511
0.3169842 -0.453103466823842 0.7979274450592792
0.3189841 -0.4477748573643032 0.8010771722436082
0.320984 -0.4421880699056032 0.8039738650661021
0.3229839 -0.4363106754117185 0.807102672668776
0.3249838 -0.43091204812802686 0.810173731800991
0.3269837 -0.425078391263215 0.8132028351463123
0.3289836 -0.4198377923484677 0.8157010003533083
0.3309835 -0.4136122398570253 0.8185907340107149
0.3329834 -0.4084264469954655 0.8217333386182049
0.3349833 -0.4026363680939748 0.8237853182849213
0.3369832 -0.39685475615109994 0.8266647851961525
0.3389831 -0.3914642656897924 0.829797189100013
0.340983 -0.385634644483118 0.8322073375521909
0.3429829 -0.37980713965730567 0.8349592744239115
0.3449828 -0.3740843006025167 0.8376793411405612
0.3469827 -0.368390817696813 0.8405169064337629
0.3489826 -0.3626247029034783 0.8431359901697212
0.3509825 -0.3567586595790547 0.8455952749440272
0.3529824 -0.35084937103527003 0.8481762547413412
0.3549823 -0.345534844358479 0.850764292175923
0.3569822 -0.3393854150084746 0.8529753752765247
0.3589821 -0.33342033403545673 0.8551484712309965
0.360982 -0.3278531226194657 0.8572838471808959
0.3629819 -0.3217886030800662 0.8598391562939144
0.3649818 -0.3160601865898378 0.861663201286731
0.3669817 -0.3101987231722682 0.8641711204765208
0.3689816 -0.304192257077853 0.866022105508393
0.3709815 -0.29857233936603356 0.8679734879086995
0.3729814 -0.2926236042877357 0.870124723522532
0.3749813 -0.28665272341596315 0.8722619128180128
0.3769812 -0.2806865041861531 0.8741060231739691
0.3789811 -0.274918941276619 0.8762223459877853
0.380981 -0.2688908144088406 0.8776216046236252
0.3829809 -0.2630086728883436 0.8794511430246458
0.3849808 -0.25692619201057687 0.8811432311371793
0.3869807 -0.25061457470196846 0.8830771075581986
0.3889806 -0.24451820006955333 0.8847078316894762
0.3909805 -0.2383451978873266 0.8860273237654787
0.3929804 -0.2325408157492198 0.8874418379396606
0.3949803 -0.22584720415017648 0.8890785435987882
0.3969802 -0.21977586639760194 0.8903493059290793
0.3989801 -0.2132885634601218 0.8919285444170567
0.40098 -0.20720996532202787 0.8933784125312552
0.4029799 -0.20103603071887483 0.8945697046976911
0.4049798 -0.19460879651886767 0.8958849613004457
0.4069797 -0.18824227770230398 0.8972392655569599
0.4089796 -0.18177793101411174 0.8986238818286395
0.4109795 -0.17552368937050858 0.8997983717791674
0.4129794 -0.16910227709117662 0.901148473282376
0.4149793 -0.16262936707952919 0.902328790501786
0.4169792 -0.1560942475018404 0.9039506471582962
0.4189791 -0.15001727789669608 0.9046336690445723
0.420979 -0.14338010435996265 0.9057138064684798
0.4229789 -0.13700851904060637 0.9063741742740233
0.4249788 -0.13069912423084976 0.9074672809711329
0.4269787 -0.12447732816196377 0.9085914485019597
0.4289786 -0.11802327886800064 0.9095734663375649
0.4309785 -0.11155242706322088 0.9104514090053346
0.4329784 -0.1051920523909976 0.9114373991015182
0.4349783 -0.09888902183241129 0.9118419610508646
0.4369782 -0.09218874734271043 0.9129396110008065
0.4389781 -0.08554925446181447 0.9135618646739624
0.440978 -0.07937246067222525 0.9141644839296871
0.4429779 -0.07303463015173853 0.9146185565668938
0.4449778 -0.06635626890720141 0.9151181302909248
0.4469777 -0.06037412926423268 0.9152583933970814
0.4489776 -0.0535607198854774 0.9158441048995505
0.4509775 -0.04721991115126804 0.916303522499894
0.4529774 -0.041017570358609326 0.91657754369634
0.4549773 -0.03458532913931229 0.9169980732236086
0.4569772 -0.027753499967458968 0.917444189212508
0.4589771 -0.021311740213946218 0.9172706971361031
0.460977 -0.014559795862387828 0.9176048472312099
0.4629769 -0.007930444484524145 0.9173970925500994
0.4649768 -0.001464296024389966 0.9175943659456534
0.4669767 0.005444248361333679 0.917182474681146
0.4689766 0.011842348106158297 0.9172567746639206
0.4709765 0.018443267929332614 0.9168782161141298
0.4729764 0.025069387778872066 0.9172374092967416
0.4749763 0.031739793200077235 0.9168951016780021
0.4769762 0.03814387617313485 0.9166147009781993
0.4789761 0.04470521776489124 0.9164022950346895
0.480976 0.05149084913130528 0.9163529981077836
0.4829759 0.05812707968559608 0.9158906779820786
0.4849758 0.0647969518326991 0.9157974130104501
0.4869757 0.0715071880987701 0.9152409481260729
0.4889756 0.0778975768280364 0.9151935450592954
0.4909755 0.08459171564601907 0.9145390412293622
0.4929754 0.09093860500029274 0.9139681274537296
0.4949753 0.097674271109361 0.9135123913812416
0.4969752 0.10447153985952407 0.9126904191125643
0.4989751 0.11080374956544008 0.9122203876528836
0.500975 0.11726145027082943 0.9117798031028942
0.5029749 0.12382513037081884 0.9108645144236934
0.5049748 0.13012162658603693 0.9098783369043151
0.5069747 0.13607782510984937 0.9088295628363809
0.5089746 0.1428600874099492 0.9081607155625194
0.5109745 0.1494511244578716 0.9069705831032543
0.5129744 0.15596279704926697 0.9057134794936548
0.5149743 0.16231987238542184 0.9043906984719867
0.5169742 0.16907667782239974 0.9033927908270122
0.5189741 0.17543122134122982 0.9022121604455892
0.520974 0.18219028975268212 0.9007925064151514
0.5229739 0.1884888490227865 0.8991398548458995
0.5249738 0.19502490116632848 0.8978586948888386
0.5269737 0.2012721026829845 0.8962273730986702
0.5289736 0.20775013047732968 0.8945502923075334
0.5309735 0.21435766331749403 0.8929553204360855
0.5329734 0.22097333725336193 0.8911053718777933
0.5349733 0.2273098025655098 0.8891472310702845
0.5369732 0.23394129759395796 0.8873216384288981
0.5389731 0.24066444717233476 0.8856728037041783
0.540973 0.24733350580594513 0.8836739924817052
0.5429729 0.2538734129447827 0.8820758980689754
0.5449728 0.2605341309126563 0.8800451928059168
0.5469727 0.26696123136357675 0.8780246105246556
0.5489726 0.2737250802675703 0.8760906428523789
0.5509725 0.28024905616923623 0.8742364956214872
0.5529724 0.28675263812899365 0.8720841766017297
0.5549723 0.29323683896140945 0.8695991481992751
0.5569722 0.3000470554529165 0.8677444063147385
0.5589721 0.3065079353463689 0.8655176322369217
0.560972 0.3130547777135571 0.8635822134788547
0.5629719 0.3200947556575324 0.8615520807873455
0.5649718 0.32639906969222116 0.8596686795702405
0.5669717 0.3324594423558388 0.8572614219013999
0.5689716 0.3390024556597288 0.8549845477213704
0.5709715 0.3454294772565864 0.8525892729167349
0.5729714 0.3521536841583843 0.8498905908995803
0.5749713 0.3582746706505793 0.8474708689394244
0.5769712 0.3645747852613811 0.8451856657982711
0.5789711 0.37040645993340854 0.8427112319203904
0.580971 0.37624924720936753 0.8402779739363992
0.5829709 0.38251378091496746 0.837312787402363
0.5849708 0.38877285985038784 0.8346769129839928
0.5869707 0.3946800453239159 0.8320283329629249
0.5889706 0.4009250164022241 0.8288790854450053
0.5909705 0.40677413912045546 0.8257993742479802
0.5929704 0.41316288788088906 0.8227275918168984
0.5949703 0.4188315049488448 0.8196181657496088
0.5969702 0.4248702089215314 0.8160638432425551
0.5989701 0.4312907188570956 0.8130024159332824
0.60097 0.4368880465051301 0.8098372075134149
0.6029699 0.4433999696213095 0.8060251593397812
0.6049698 0.44878437415373157 0.8024927267144792
0.6069697 0.45460782230958063 0.7987978675417166
0.6089696 0.46093302315937545 0.7958259177398669
0.6109695 0.4666842181435706 0.7921785950706465
0.6129694 0.47285740773993923 0.7881367413996119
0.6149693 0.4787129299013359 0.7848930053573769
0.6169692 0.484971885835165 0.7813547479312324
0.6189691 0.4909954025778309 0.7773977961365229
0.620969 0.4966621322389472 0.7738688360477219
0.6229689 0.502708487175884 0.7697073533654505
0.6249688 0.5085259426306417 0.7658392684206032
0.6269687 0.5146016936835583 0.762100886254023
0.6289686 0.5205664964020302 0.7585646993359587
0.6309685 0.5263203600729183 0.7543945918828747
0.6329684 0.5320935223112465 0.750443344712091
0.6349683 0.5381347494011736 0.7469169454772138
0.6369682 0.543705323035283 0.7425025737443781
0.6389681 0.549504374055821 0.7387315689981669
0.640968 0.5554067299206206 0.7348517800539246
0.6429679 0.5608389945326137 0.731017704139978
0.6449678 0.5662124229315505 0.7267494978951348
0.6469677 0.5717183957621459 0.722607633918397
0.6489676 0.5768954660405424 0.7188625117146259
0.6509675 0.5822347218085233 0.7148540806907197
0.6529674 0.588368143843597 0.7102373077675408
0.6549673 0.5935272413093415 0.7060493111289249
0.6569672 0.5984459418220849 0.700991998971955
0.6589671 0.6037848740050135 0.6969276928070668
0.660967 0.608728474135965 0.6925139908628786
0.6629669 0.6140144323503631 0.687724030508235
0.6649668 0.6184394915345355 0.683293391581367
0.6669667 0.623712761344327 0.6782279677452708
0.6689666 0.628528389277665 0.6740744901288763
0.6709665 0.6334432249757546 0.669039481126842
0.6729664 0.6382435165317457 0.6638291152165199
0.6749663 0.6433755708470534 0.6592726243411616
0.6769662 0.6487606911895187 0.6538294017733233
0.6789661 0.65357200465159 0.6487350815968826
0.680966 0.65820232015594 0.6436563388584128
0.6829659 0.663197611050038 0.638265068083632
0.6849658 0.6680725312308986 0.6334735743099638
0.6869657 0.67297720738056 0.6281655181203555
0.6889656 0.677433366756458 0.622569790251467
0.6909655 0.6821016306056639 0.6174694850831715
0.6929654 0.6873873139833153 0.6115107307778715
0.6949653 0.6916876651595164 0.6067954581565888
0.6969652 0.6966912604603188 0.6005069405225593
0.6989651 0.7016024249259196 0.5954140809459303
0.700965 0.706214782520088 0.5896203802281507
0.7029649 0.7107039398446134 0.5841616558258732
0.7049648 0.7155206777749258 0.5788615679926034
0.7069647 0.7202230438040916 0.5728761315060367
0.7089646 0.7249767948927535 0.5678889361358203
0.7109645 0.7296616181615738 0.5621933553674615
0.7129644 0.7341383944613318 0.5569045136852215
0.7149643 0.7384441832890937 0.5511683169681216
0.7169642 0.7430527495550528 0.5456606332732598
0.7189641 0.7471497923210166 0.5401937825830181
0.720964 0.7512291734383376 0.5346724932794263
0.7229639 0.7551707369315915 0.529004050978038
0.7249638 0.7597263762623386 0.5230223195358678
0.7269637 0.7639145988555386 0.5175727150578678
0.7289636 0.767543165220399 0.5116306578387181
0.7309635 0.7718255219076088 0.5061152637316578
0.7329634 0.7755572114237171 0.5002956784310131
0.7349633 0.7793763710806911 0.4946872053347474
0.7369632 0.7829182220965204 0.4884615523861889
0.7389631 0.7865366760916102 0.4828101523498447
0.740963 0.7898975235512656 0.47625111290058625
0.7429629 0.79377310547998 0.4707446813830336
0.7449628 0.7972232204547405 0.46470714664217416
0.7469627 0.8005386528630902 0.4588164714632225
0.7489626 0.8038957581096153 0.4523553884001327
0.7509625 0.8074273194673507 0.4455710675646453
0.7529624 0.8108780533934759 0.4400557185517172
0.7549623 0.8141518789046356 0.4334285598757649
0.7569622 0.8170663653604266 0.42692107488151265
0.7589621 0.8199176914085315 0.4204741902964707
0.760962 0.8230640439104521 0.4143717883478758
0.7629619 0.8266926800817226 0.40741706701830294
0.7649618 0.8298852406720924 0.40103973603377346
0.7669617 0.8327833840219172 0.3947808061874052
0.7689616 0.8357731603507976 0.38778572070713146
0.7709615 0.8385591845427857 0.3813883210585908
0.7729614 0.8417220630393294 0.37466112089612846
0.7749613 0.8447543743938982 0.3680172646721237
0.7769612 0.8475771757735734 0.36157361677446903
0.7789611 0.8501363220164121 0.354518258111857
0.780961 0.8530346294770813 0.3479951770175129
0.7829609 0.8555871186948744 0.3415298185718835
0.7849608 0.8588620146728421 0.33486730840798684
0.7869607 0.861342393157288 0.32801367849012936
0.7889606 0.8640162599696473 0.32125618906783043
0.7909605 0.8662696604979756 0.3146935931114094
0.7929604 0.8690225639167579 0.3078482250410136
0.7949603 0.8712259082008468 0.30155714987868754
0.7969602 0.8738795506228423 0.2946860879230392
0.7989601 0.8762921099312581 0.2879489156913575
0.80096 0.8785322209111945 0.2812599239520772
0.8029599 0.8808376458506508 0.27440588459992177
0.8049598 0.8826251999947603 0.26757551642676114
0.8069597 0.8846860945631551 0.2610929727454114
0.8089596 0.8863247057532997 0.2540222724640214
0.8109595 0.8880642708312091 0.2471238900030665
0.8129594 0.8902424897574113 0.2405206102124406
0.8149593 0.8921233549114774 0.23364862624106536
0.8169592 0.8940155889514091 0.22666288762434553
