! Created with skrf 1.8.0 (http://scikit-rf.org).
# GHz S RI R 50.0 
!freq ReS11 ImS11
0.001 0.9946208632338036 -0.006569616307918496
0.0029999 0.992824685021881 -0.01693999231296006
0.0049998 0.9909997614421815 -0.024771469648838675
0.0069997 0.9886225263095472 -0.031090235086126697
0.0089996 0.9868952429796141 -0.03769826527195886
0.0109995 0.9858007393111913 -0.0447281621551572
0.0129994 0.9854524750926554 -0.051755889616929125
0.0149993 0.9845785392379793 -0.05898073858850186
0.0169992 0.9838577330974404 -0.0658689581962845
0.0189991 0.98327162197678 -0.07311623511431273
0.020999 0.9826466773696879 -0.08062210849685433
0.0229989 0.9818072385569534 -0.08773826904824854
0.0249988 0.9808218395372523 -0.09505809723512126
0.0269987 0.9800912961685593 -0.101996176284868
0.0289986 0.9793700771744192 -0.10954559022643934
0.0309985 0.9782397943525407 -0.1169914013189822
0.0329984 0.9771643613015359 -0.12394881127455085
0.0349983 0.9762399995430605 -0.13144165615748443
0.0369982 0.9754558347033601 -0.13861242092053994
0.0389981 0.9738319649013253 -0.14632228935714964
0.040998 0.9729468807928127 -0.15292448675697817
0.0429979 0.9713889244084697 -0.1603137676275374
0.0449978 0.9702186705110745 -0.16754183920672117
0.0469977 0.9691328379302798 -0.17480005478200045
0.0489976 0.9673940591298523 -0.18182476260205763
0.0509975 0.9658338971119984 -0.18912000717438798
0.0529974 0.9642641596767848 -0.19605729255120782
0.0549973 0.9629194872726823 -0.20362564737287045
0.0569972 0.9611114717868164 -0.21065599059801654
0.0589971 0.959337648720054 -0.2179805875741733
0.060997 0.9574678448693444 -0.22512031069706548
0.0629969 0.9555628635064239 -0.23239670137988044
0.0649968 0.9539248101008424 -0.23931547036916814
0.0669967 0.9521542558163303 -0.24638119678125614
0.0689966 0.9500993616028213 -0.25357842373306655
0.0709965 0.9482164462873716 -0.2608306315488995
0.0729964 0.9464843780695972 -0.26808791977628216
0.0749963 0.9439941802973215 -0.27496122036030524
0.0769962 0.9419061716068786 -0.28181555896439076
0.0789961 0.939859591427684 -0.2888506260752753
0.080996 0.9375909763075297 -0.29596519291778756
0.0829959 0.9351441580833069 -0.3026709711275277
0.0849958 0.932940584806564 -0.30970042913532364
0.0869957 0.9306189798978255 -0.3167050896013437
0.0889956 0.9279960277696779 -0.32353958870315824
0.0909955 0.9256470567028261 -0.3305326974603818
0.0929954 0.9229301359229115 -0.33731056631717127
0.0949953 0.9205116590218683 -0.3441261705365495
0.0969952 0.9178032338756505 -0.3513190720323228
0.0989951 0.9151578067150364 -0.3575327829796838
0.100995 0.9123673982678164 -0.3642977307627648
0.1029949 0.9098206590893628 -0.37111540154595785
0.1049948 0.9068782725050569 -0.3778291699117883
0.1069947 0.9041773753478793 -0.3844577768732459
0.1089946 0.9013731219456883 -0.3909809175092782
0.1109945 0.8979820954855694 -0.39779604772679517
0.1129944 0.8948153653902247 -0.40409545247517087
0.1149943 0.8918054791249217 -0.41075102259227114
0.1169942 0.8886834465097599 -0.417056834146506
0.1189941 0.8851158991132639 -0.4234347058056553
0.120994 0.8821956154096563 -0.43009581794541235
0.1229939 0.8785038811425682 -0.43645955966003785
0.1249938 0.8751813053626112 -0.44299469767439265
0.1269937 0.8720171901456831 -0.4493400183545829
0.1289936 0.8680570584437359 -0.45580931219738335
0.1309935 0.8645999611275976 -0.461866015012857
0.1329934 0.8607586737473963 -0.46844014330524475
0.1349933 0.8572389048435304 -0.4745375986687022
0.1369932 0.8535017995488604 -0.4810730625104374
0.1389931 0.8495529622568847 -0.48718182640319546
0.140993 0.8458844359480141 -0.49371451604044353
0.1429929 0.8421773407374605 -0.5001853592486512
0.1449928 0.8383459124183132 -0.5061685944065588
0.1469927 0.8344726688779138 -0.5123739701387093
0.1489926 0.8303524042921577 -0.5186040407499233
0.1509925 0.8264760703738245 -0.5249518810654181
0.1529924 0.8226742728608826 -0.5308103172848763
0.1549923 0.8185085806097088 -0.5370900014587484
0.1569922 0.814858706837697 -0.5433939728465883
0.1589921 0.8108041911953566 -0.5492608266064731
0.160992 0.8064176412034206 -0.5556635404074735
0.1629919 0.8022717448951252 -0.5609158683565535
0.1649918 0.7983438411538518 -0.5665153668840728
0.1669917 0.7940267055038126 -0.5723866297269016
0.1689916 0.7900092129314701 -0.578270408959924
0.1709915 0.7857301842626478 -0.5837639873420951
0.1729914 0.7813798528383775 -0.5898443756229872
0.1749913 0.7768749338709957 -0.595408638993461
0.1769912 0.7728134853583253 -0.6009408902057494
0.1789911 0.7681912104282446 -0.6064663099003834
0.180991 0.7636484029745375 -0.6120092450731477
0.1829909 0.7592069791031225 -0.6172605348106517
0.1849908 0.7546701664088344 -0.6224187227919767
0.1869907 0.7499590710924925 -0.627834525834154
0.1889906 0.7454242732587516 -0.6327566868864936
0.1909905 0.7407342085381466 -0.6380147110311538
0.1929904 0.7355466205971992 -0.6431775501696277
0.1949903 0.730903494967288 -0.6480185827327781
0.1969902 0.7256372243922097 -0.6529700922706867
0.1989901 0.720939079809644 -0.6581611005029147
0.20099 0.7156972613131843 -0.6634690370683988
0.2029899 0.7105023012827698 -0.6684673672683906
0.2049898 0.7055673837138663 -0.6734802996139343
0.2069897 0.700247541619626 -0.6784294975733148
0.2089896 0.6953568067707048 -0.6829766248232282
0.2109895 0.6898760664983833 -0.6879738202866654
0.2129894 0.6843367933725399 -0.6928408412667786
0.2149893 0.6793175225564474 -0.6981551627657956
0.2169892 0.6737651548775885 -0.7032036457751957
0.2189891 0.6685897079229539 -0.7079246149977475
0.220989 0.6631100400543062 -0.7127073722527403
0.2229889 0.6579218850018909 -0.7171419947087583
0.2249888 0.6522731204079973 -0.7219610131454453
0.2269887 0.6469893085888311 -0.7267474254183449
0.2289886 0.6417166373694831 -0.7313979585290555
0.2309885 0.6365871123684262 -0.736270121521006
0.2329884 0.6310217400123748 -0.7409035394631872
0.2349883 0.6256349899438566 -0.745389836590066
0.2369882 0.6200150347840434 -0.7500681586950753
0.2389881 0.6146642338264278 -0.7542556621865646
0.240988 0.6090501766028803 -0.7586622403725484
0.2429879 0.6038706298745748 -0.762890203594722
0.2449878 0.5979771763608768 -0.7672329153495734
0.2469877 0.5925031907899337 -0.7713697366206811
0.2489876 0.586937974706397 -0.7754384402723138
0.2509875 0.5813541770311181 -0.7796829793147069
0.2529874 0.5761867913505185 -0.7836565277679685
0.2549873 0.5705366038337045 -0.7874424269866362
0.2569872 0.5649577238299083 -0.7913103461154045
0.2589871 0.5589661573806446 -0.794958348092165
0.260987 0.5535159029084727 -0.7988222344281302
0.2629869 0.5475500045827807 -0.8027420127392009
0.2649868 0.5419083639834998 -0.8062518992496966
0.2669867 0.5361703796602885 -0.8098241874297546
0.2689866 0.530014309669779 -0.8132577318590448
0.2709865 0.5238968764569192 -0.8167055326341883
0.2729864 0.5182468894229114 -0.8199227627360621
0.2749863 0.5123424221675904 -0.8238113011230283
0.2769862 0.5063702309450229 -0.8272059769738945
0.2789861 0.5001789016679602 -0.830221394923393
0.280986 0.4939776060160763 -0.8337769744255294
0.2829859 0.4878071633000119 -0.8370746225127449
0.2849858 0.481523025311679 -0.8398942786411409
0.2869857 0.475535097520856 -0.8433380532883055
0.2889856 0.46916094545375503 -0.846353618900986
0.2909855 0.46292702197220204 -0.8496639237932765
0.2929854 0.45680360634237027 -0.8526631969622624
0.2949853 0.4503731814502811 -0.8559085648811451
0.2969852 0.44458200263506636 -0.8592006697051525
0.2989851 0.4380351928766651 -0.862358675379171
0.300985 0.4323232757191933 -0.8647760649489408
0.3029849 0.4261753766831209 -0.8680229259132226
0.3049848 0.4194226555031327 -0.8710949625754737
0.3069847 0.4133934073737189 -0.873764014880745
0.3089846 0.4070439183489545 -0.8768757282797338
0.3109845 0.4010653651267875 -0.8794663183645192
0.3129844 0.39446183167182447 -0.882486920076059
0.3149843 0.3886097262389188 -0.8848205613341866
0.3169842 0.38237094265802624 -0.8875186700849039
0.3189841 0.37597251855836566 -0.8900758092905517
0.320984 0.36992686765773997 -0.8922853237130686
0.3229839 0.36350619910189913 -0.8944158542161877
0.3249838 0.3572630993446865 -0.8970235634772982
0.3269837 0.351147685316479 -0.8994445948466058
0.3289836 0.3451213643228612 -0.9017708286505766
0.3309835 0.3388620614843849 -0.9037751744535175
0.3329834 0.33242297472426924 -0.9061461570826159
0.3349833 0.3257009181626467 -0.9082207278539108
0.3369832 0.31968100734001026 -0.9099020979841126
0.3389831 0.3134696934759319 -0.9118203140500417
0.340983 0.3071021971086595 -0.913764088386679
0.3429829 0.3003768029168612 -0.9154205837512562
0.3449828 0.29436594183459097 -0.9173342598879269
0.3469827 0.2877655739104875 -0.9190156822215818
0.3489826 0.2818038759864666 -0.9208219536841591
0.3509825 0.2749292101558843 -0.9224881771184406
0.3529824 0.2686822052504492 -0.9239924431988211
0.3549823 0.26207290235079594 -0.9252769646921273
0.3569822 0.2553803426675291 -0.927099614669805
0.3589821 0.24889250351018896 -0.9282753273957793
0.360982 0.24234371273291802 -0.9298952451824241
0.3629819 0.23594872622480761 -0.930926884753303
0.3649818 0.22931335438648784 -0.932173749118463
0.3669817 0.22282401103012955 -0.9333882000542585
0.3689816 0.21587607867713002 -0.9348206181352972
0.3709815 0.2095058594426562 -0.9362746703549538
0.3729814 0.2024236177761941 -0.9372923961821977
0.3749813 0.19630723739527567 -0.9387898345630459
0.3769812 0.1897818871684141 -0.9398762483523337
0.3789811 0.18290018990563878 -0.9412063188072702
0.380981 0.1762523769300285 -0.9424115103088646
0.3829809 0.16997835537505965 -0.9431426749357001
0.3849808 0.16338353918067078 -0.944365710527427
0.3869807 0.15651648191456985 -0.9455645302349305
0.3889806 0.15030883899136552 -0.9462865581544532
0.3909805 0.14387817959180904 -0.9471466720135627
0.3929804 0.13713707823475824 -0.9478184327947407
0.3949803 0.13065244223235264 -0.9487219721199223
0.3969802 0.12420120150107776 -0.9496070354719528
0.3989801 0.1182755095087065 -0.9506289877468209
0.40098 0.11159750737361028 -0.9510580362198121
0.4029799 0.105463300642324 -0.9517329150189185
0.4049798 0.09888312783883385 -0.9517918856711172
0.4069797 0.09263360981977047 -0.95258306708009
0.4089796 0.08609524772408557 -0.9529850814550332
0.4109795 0.07974200881661474 -0.9531347977914082
0.4129794 0.07336835536618927 -0.953127749284462
0.4149793 0.06714323884587325 -0.9534774664833289
0.4169792 0.0605522159772325 -0.9537046303239943
0.4189791 0.054460387577477516 -0.9536504081515741
0.420979 0.047966305348837904 -0.9542207672719496
0.4229789 0.04152255249012107 -0.9544516580040354
0.4249788 0.034872225510664975 -0.9542226044180817
0.4269787 0.02890822264243016 -0.9542074723737342
0.4289786 0.021937980233871657 -0.9539522541865287
0.4309785 0.01591828598807149 -0.9540316351928474
0.4329784 0.00924447654125584 -0.9532869113472301
0.4349783 0.002702448528778441 -0.9534049106688348
0.4369782 -0.002477453578884875 -0.9532812852220126
0.4389781 -0.009363856732663933 -0.9530086909334381
0.440978 -0.015945146446381807 -0.952694049216371
0.4429779 -0.022438498519712302 -0.9523207754363909
0.4449778 -0.028724441272429624 -0.9517238992855969
0.4469777 -0.03525018049756695 -0.9513270821949831
0.4489776 -0.04155816116736895 -0.9512127355774656
0.4509775 -0.04767013021148232 -0.9502119413762125
0.4529774 -0.0542812817624555 -0.9496060400215527
0.4549773 -0.060473578333059136 -0.9495894355138212
0.4569772 -0.06691776435979156 -0.948534543115697
0.4589771 -0.0728521609999638 -0.9481387202680085
0.460977 -0.07901131105477023 -0.9470728748986158
0.4629769 -0.0856269547367575 -0.9463505115631828
0.4649768 -0.09149363382655838 -0.9457913705834491
0.4669767 -0.09778789709468376 -0.9448534280038741
0.4689766 -0.10378500815301252 -0.9442812298510623
0.4709765 -0.1097586634623799 -0.9430771214323768
0.4729764 -0.11594279271839672 -0.9421886569239369
0.4749763 -0.12240258808024822 -0.9411357677905641
0.4769762 -0.12810455868625412 -0.9398110219619978
0.4789761 -0.13435361480805283 -0.9388724472957758
0.480976 -0.1401316101763972 -0.9375407240582248
0.4829759 -0.14629494270946627 -0.9364222596662163
0.4849758 -0.15251746093493554 -0.9354167192658533
0.4869757 -0.1585939466341037 -0.9343093806580465
0.4889756 -0.1646577038121005 -0.932667019164994
0.4909755 -0.17062056297038622 -0.9309931551612088
0.4929754 -0.17679397516111645 -0.9297689471106362
0.4949753 -0.18309562235548787 -0.9279564767108649
0.4969752 -0.18927543624017823 -0.926633031813946
0.4989751 -0.19487969984843306 -0.9246332124794499
0.500975 -0.20105658077734007 -0.9230194716134108
0.5029749 -0.20703689697855054 -0.9216353767181826
0.5049748 -0.21346535637509356 -0.9197956801495248
0.5069747 -0.21963425888738664 -0.9183686382188411
0.5089746 -0.22573510201537553 -0.9165049227666945
0.5109745 -0.2315058294033894 -0.9153441797428685
0.5129744 -0.23735034284246945 -0.9134111133582496
0.5149743 -0.2433864781711097 -0.9118379797660932
0.5169742 -0.24924417596408038 -0.9103468167341517
0.5189741 -0.2551477778527276 -0.9088256369285754
0.520974 -0.2611892764752278 -0.9062615182006152
0.5229739 -0.2669828699665939 -0.9050428767809562
0.5249738 -0.2728952734029087 -0.9028617579015477
0.5269737 -0.2786767441365313 -0.9012012958055168
0.5289736 -0.28446130929923197 -0.8993505852529344
0.5309735 -0.2904350633962088 -0.8970134832538207
0.5329734 -0.2960109700667999 -0.8951910251481592
0.5349733 -0.30188512487125074 -0.8929392181150126
0.5369732 -0.30729627495524436 -0.8913481324693588
0.5389731 -0.31298827465779266 -0.8894290787538081
0.540973 -0.3185499093040044 -0.8870304387168559
0.5429729 -0.3240400207244539 -0.8846130367755467
0.5449728 -0.32956274416384795 -0.8824370141488085
0.5469727 -0.3349462316103133 -0.8805620673824813
0.5489726 -0.3403307655894481 -0.8778275351878224
0.5509725 -0.34562636079082304 -0.8754422993043275
0.5529724 -0.3513074861154685 -0.8733092736030561
0.5549723 -0.35677345518622694 -0.8711651182244023
0.5569722 -0.3619067014065195 -0.8682597192319752
0.5589721 -0.36726101027711594 -0.8655792862442648
0.560972 -0.3720134444385526 -0.862621547297711
0.5629719 -0.37738854659306326 -0.8603517704036362
0.5649718 -0.3827659942109911 -0.856809875639424
0.5669717 -0.3883678186969073 -0.8543303138632687
0.5689716 -0.3932767623822485 -0.8514555895811025
0.5709715 -0.39887196795856583 -0.8484627081542396
0.5729714 -0.4040704853935846 -0.8459108703271104
0.5749713 -0.4090427342794257 -0.8423112089306033
0.5769712 -0.4145211473499967 -0.8394054444791637
0.5789711 -0.4198697010893103 -0.8365156605053867
0.580971 -0.42535260381385454 -0.8336640101474303
0.5829709 -0.43120920282443553 -0.8310018354747696
0.5849708 -0.43622938559608887 -0.8279385486797537
0.5869707 -0.44155993655127806 -0.8249972894048906
0.5889706 -0.44709959955195766 -0.8219314483048993
0.5909705 -0.45177224664793564 -0.8189021921823634
0.5929704 -0.45698492704680227 -0.8157615849579656
0.5949703 -0.4618835910346723 -0.8130132241694487
0.5969702 -0.4670576569627285 -0.8102134685724552
0.5989701 -0.47203854941558565 -0.806713059431464
0.60097 -0.4772664600434224 -0.8039379346951063
0.6029699 -0.48229769106831943 -0.8006340403449271
0.6049698 -0.48724328760177393 -0.797685565745793
0.6069697 -0.49237088460380923 -0.794413317893981
0.6089696 -0.49699552737107355 -0.7911448527261931
0.6109695 -0.5018153537883487 -0.7880470153483835
0.6129694 -0.5064627526283363 -0.7851029926492195
0.6149693 -0.5115572488647914 -0.7813668658283757
0.6169692 -0.5160659659354334 -0.7787822838826569
0.6189691 -0.5206268966529732 -0.7752464570941051
0.620969 -0.5252613802750468 -0.7720951040040556
0.6229689 -0.5301824101960094 -0.7684314335150632
0.6249688 -0.5342596280950689 -0.7650422185410641
0.6269687 -0.5389912573241207 -0.7618084355766855
0.6289686 -0.5436441342987758 -0.7583417480699064
0.6309685 -0.5476106459102568 -0.754639152468517
0.6329684 -0.5518646671654366 -0.7511690751224486
0.6349683 -0.5564974226733459 -0.7465966147444694
0.6369682 -0.5607512626527961 -0.7432384661979153
0.6389681 -0.5648973364382978 -0.7391124989438602
0.640968 -0.5696197028257594 -0.7349823525589185
0.6429679 -0.5739687412396457 -0.730940091401633
0.6449678 -0.5785879575459367 -0.726972306137899
0.6469677 -0.5830145557354095 -0.7232641146417788
0.6489676 -0.5877065309641589 -0.7193114907705879
0.6509675 -0.5921625143798227 -0.7148658137217269
0.6529674 -0.5960742496385816 -0.7117166236558369
0.6549673 -0.6008304072495027 -0.7076159136113056
0.6569672 -0.6047962333517684 -0.7039204948691844
0.6589671 -0.6096543172481026 -0.6999391730339026
0.660967 -0.6137783398016249 -0.6960174495676819
0.6629669 -0.6184366877497885 -0.6918901836548407
0.6649668 -0.6225940265052676 -0.6878187990215868
0.6669667 -0.6267672702989108 -0.6840542553144912
0.6689666 -0.6311935264816637 -0.6801081003035181
0.6709665 -0.6352724898628979 -0.6763476185728516
0.6729664 -0.6396324249436163 -0.6717717253856219
0.6749663 -0.6431398771651312 -0.6674672672354021
0.6769662 -0.6473803620572549 -0.6636113696514685
0.6789661 -0.6515830083005618 -0.65942506697073
0.680966 -0.6551967978589522 -0.6556896369044809
0.6829659 -0.6592285408621674 -0.6515064351680468
0.6849658 -0.6631879828399303 -0.647472019690945
0.6869657 -0.6669241778356124 -0.6431704199434158
0.6889656 -0.6707972969763347 -0.6391830937769563
0.6909655 -0.6747752524751914 -0.6352671480455319
0.6929654 -0.6784035133760726 -0.6312986959497191
0.6949653 -0.681743669576353 -0.6270468564869441
0.6969652 -0.6857088213036503 -0.6234014868529574
0.6989651 -0.6890445648768458 -0.6190127051529257
0.700965 -0.6928783929333975 -0.6145833127508608
0.7029649 -0.6958143911218607 -0.61051452444246
0.7049648 -0.6994825757945451 -0.6060064729670627
0.7069647 -0.7028449197811292 -0.6012309596150155
0.7089646 -0.7058054108913374 -0.597061734796951
0.7109645 -0.7094808955130195 -0.5923738111885852
0.7129644 -0.7120966617142409 -0.5877131788155863
0.7149643 -0.7158134481709624 -0.5830877527535465
0.7169642 -0.7190919007457015 -0.5784340623118147
0.7189641 -0.7220599952684392 -0.5740103712492632
0.720964 -0.7257279398970415 -0.5690790107971673
0.7229639 -0.7286800407521098 -0.565037904378314
0.7249638 -0.7322728712689403 -0.5599313200685269
0.7269637 -0.7349460488911725 -0.555055432117929
0.7289636 -0.7384313407748162 -0.5502836649047088
0.7309635 -0.7419377345204906 -0.5451639324839465
0.7329634 -0.7449137147012901 -0.5406702281616272
0.7349633 -0.7484700814016152 -0.5359832366777142
0.7369632 -0.7516750653157361 -0.5308153267868186
0.7389631 -0.7549683368226411 -0.5261877502666484
0.740963 -0.7583631394879882 -0.5213443362170649
0.7429629 -0.7612611099640707 -0.5166500660913761
0.7449628 -0.7642001120714954 -0.5118374753244911
0.7469627 -0.7676849481147439 -0.5074717257874055
0.7489626 -0.7707882573000551 -0.5026440176991425
0.7509625 -0.7734826704725699 -0.497689256142841
0.7529624 -0.7770770438625336 -0.49322846993091846
0.7549623 -0.7798514314754388 -0.48845386267998575
0.7569622 -0.7828037307128634 -0.4837396030827861
0.7589621 -0.7851731326326596 -0.4789361161845882
0.760962 -0.7882655597625323 -0.47391745045270783
0.7629619 -0.7909163985111947 -0.46928441369456214
0.7649618 -0.7937802805349157 -0.4645078085957498
0.7669617 -0.7962923109251482 -0.45996535318066534
0.7689616 -0.798644109482476 -0.4548727863632252
0.7709615 -0.8011583448740378 -0.4502795304010991
0.7729614 -0.8039219997694788 -0.4452051677275622
0.7749613 -0.806270145238984 -0.44041034841242566
0.7769612 -0.8083820118003904 -0.43562958097319116
0.7789611 -0.8113548541474876 -0.4307235584740461
0.780961 -0.8134740471444512 -0.4260649012206016
0.7829609 -0.8161614240922859 -0.42065373386923366
0.7849608 -0.8180325372936335 -0.4159240249721383
0.7869607 -0.8205393417926639 -0.41072165419283324
0.7889606 -0.8229227851731499 -0.4060579285907848
0.7909605 -0.8246300625778731 -0.40091461334422024
0.7929604 -0.826949063296021 -0.3957133214566843
0.7949603 -0.8289842290192263 -0.39028077194694377
0.7969602 -0.8314723671373806 -0.38537004530640845
0.7989601 -0.8333718422801571 -0.3804297493965624
0.80096 -0.8349455572134376 -0.3750065639215254
