! Created with skrf 1.8.0 (http://scikit-rf.org).
# GHz S RI R 50.0 
!freq ReS11 ImS11
0.001 0.9945062401207543 -0.006642664194194645
0.0029999 0.9927070805726195 -0.016891459696001955
0.0049998 0.9910247168763076 -0.02487250502917951
0.0069997 0.9887347831411123 -0.03137546196232162
0.0089996 0.9868147423952816 -0.03794823185030582
0.0109995 0.9859274955707551 -0.04512885601168653
0.0129994 0.985494250768697 -0.052132787060866395
0.0149993 0.9846490785984434 -0.05950223013357189
0.0169992 0.9836934308077216 -0.06653639489666831
0.0189991 0.9832574443794985 -0.0738081585287183
0.020999 0.9827202515306848 -0.08147699659442866
0.0229989 0.9819057624250976 -0.08877216434475053
0.0249988 0.9807156304525503 -0.09598432579053974
0.0269987 0.9799565715261916 -0.10323603482491765
0.0289986 0.9792713470343303 -0.11035025255964562
0.0309985 0.9780780112305499 -0.11804126615833813
0.0329984 0.9769336191735319 -0.12516400597178495
0.0349983 0.9760212577043209 -0.13300224615732928
0.0369982 0.975171788476641 -0.13996328226045535
0.0389981 0.9736211116945471 -0.14761728079938963
0.040998 0.9727652203966544 -0.15450662804524506
0.0429979 0.9712133821443598 -0.16203336993448286
0.0449978 0.9698294909434134 -0.16934354855503692
0.0469977 0.9687982481800413 -0.176576888189445
0.0489976 0.9670287508975257 -0.18379978762162635
0.0509975 0.9654169987934872 -0.19104429861856603
0.0529974 0.9635867716585383 -0.19879027371724672
0.0549973 0.9627359779839113 -0.20557392211754716
0.0569972 0.9605633017144259 -0.21275351954552515
0.0589971 0.9588015226343474 -0.2200574298091391
0.060997 0.9569240894046509 -0.2273264745883976
0.0629969 0.9550192344507614 -0.23475776853947486
0.0649968 0.9533691445714629 -0.241700438681735
0.0669967 0.9514810614733705 -0.2487475455394224
0.0689966 0.9494273230036594 -0.2560871925936157
0.0709965 0.9475150911026052 -0.263349820522759
0.0729964 0.9457421052679931 -0.270717472951517
0.0749963 0.9432932683477818 -0.277577200303717
0.0769962 0.9410764324470338 -0.2845604240102656
0.0789961 0.9389174133115653 -0.2915350826881692
0.080996 0.936694661532373 -0.29884524345483454
0.0829959 0.9342049315308524 -0.3056752267470615
0.0849958 0.9319546306742372 -0.3127051639499644
0.0869957 0.929487693298091 -0.31970322429303155
0.0889956 0.9267505319724342 -0.3267410188213471
0.0909955 0.9244678541839959 -0.3336934679131282
0.0929954 0.9216230833185663 -0.3405126565019131
0.0949953 0.9191892701382007 -0.3474137312710855
0.0969952 0.9163660445873741 -0.3545976203932981
0.0989951 0.9137544136675123 -0.3609869898163202
0.100995 0.9108579758292213 -0.3678320650460245
0.1029949 0.9081003418484958 -0.3748913274147251
0.1049948 0.9052622198338173 -0.38145124904993905
0.1069947 0.9025342517562964 -0.38816121266745035
0.1089946 0.8995555594716038 -0.39498554078346987
0.1109945 0.8961735832612403 -0.40156277011363234
0.1129944 0.892903350332901 -0.4079021949532238
0.1149943 0.8898268748457694 -0.41463702026523225
0.1169942 0.886698096396413 -0.42105776373048065
0.1189941 0.8830882587553635 -0.42735857452532744
0.120994 0.8799024298472496 -0.43404477797340235
0.1229939 0.8762826826069198 -0.4407039593253049
0.1249938 0.8729513529305671 -0.4473135721549947
0.1269937 0.8697481247622887 -0.45360675703453845
0.1289936 0.8657687472242349 -0.4599102081726672
0.1309935 0.8621764142164904 -0.46612987817318785
0.1329934 0.8583015913517129 -0.47281222866218486
0.1349933 0.8546713129065674 -0.47892223930476435
0.1369932 0.8508938143287135 -0.48560891290738684
0.1389931 0.84687442224689 -0.4918448558900904
0.140993 0.8430322248309021 -0.49813727575969324
0.1429929 0.8393183808794612 -0.5047989095095664
0.1449928 0.8354610497490375 -0.5109923736827029
0.1469927 0.831433051297499 -0.5170674316757102
0.1489926 0.8273072158764218 -0.5232921511682986
0.1509925 0.8232339181505919 -0.5296899987544508
0.1529924 0.8192887977524757 -0.5357436556312161
0.1549923 0.8153501957101109 -0.5416604736590771
0.1569922 0.8115141497831757 -0.5482007331245556
0.1589921 0.8074141087321529 -0.5541723122183425
0.160992 0.8028429191756881 -0.5604781001786963
0.1629919 0.7987743621562408 -0.5657163921443198
0.1649918 0.7945800666792378 -0.5715398347288765
0.1669917 0.7903570451885827 -0.577389810737601
0.1689916 0.7861402987851568 -0.5833618981634303
0.1709915 0.7817642340286756 -0.588912663089395
0.1729914 0.7774595196604963 -0.5949753406755768
0.1749913 0.7728100688996076 -0.6006181405316589
0.1769912 0.7686319620062976 -0.6059940174584992
0.1789911 0.7639814945940755 -0.6118193183970626
0.180991 0.7594147625020626 -0.6171270893583194
0.1829909 0.7548234223451723 -0.6225106774388948
0.1849908 0.7500548985521411 -0.6278426629005064
0.1869907 0.7452673921213535 -0.6332362347265359
0.1889906 0.7409119709653065 -0.6380363237596939
0.1909905 0.7359798387901181 -0.6432401705136696
0.1929904 0.7308325633692376 -0.6483776242619002
0.1949903 0.7260407646715792 -0.6533776814436809
0.1969902 0.720750000040551 -0.65821164237433
0.1989901 0.7159488523714774 -0.6634778937820532
0.20099 0.7106476265102466 -0.6687608642568201
0.2029899 0.7052972108956646 -0.6738410269553539
0.2049898 0.700335876551144 -0.6789264888210903
0.2069897 0.6948760036776578 -0.6837728196407511
0.2089896 0.6899785346589332 -0.6886058453979111
0.2109895 0.6843371859320126 -0.693472028021516
0.2129894 0.6789757630876864 -0.6981469180333066
0.2149893 0.6736435746123719 -0.7034461304462326
0.2169892 0.6682023634390825 -0.7084627587085451
0.2189891 0.6629407763536925 -0.7132765161253316
0.220989 0.6573269895031052 -0.7181246934636544
0.2229889 0.6519673167799274 -0.7225851270897573
0.2249888 0.6462633068437755 -0.7273308140333021
0.2269887 0.6409788057388245 -0.7321253444756134
0.2289886 0.6357317072788261 -0.7366515909339466
0.2309885 0.6303703154317769 -0.7415438603165272
0.2329884 0.6245870997016669 -0.7462850010160398
0.2349883 0.6192040146440477 -0.7504668016818414
0.2369882 0.6135618426819777 -0.7552574051489925
0.2389881 0.60799186166484 -0.7593580391081055
0.240988 0.6021841591309294 -0.7638876381934109
0.2429879 0.5970841158570018 -0.7680723623741228
0.2449878 0.591023269048537 -0.7725245547859241
0.2469877 0.5855857669164795 -0.7763370235260836
0.2489876 0.5799927483446539 -0.7807041203214529
0.2509875 0.5744299762544389 -0.7849259314705517
0.2529874 0.5686701073633222 -0.7888908945543054
0.2549873 0.5630010558729343 -0.7928429491765648
0.2569872 0.5574495267176346 -0.7963899513685034
0.2589871 0.5514342458010988 -0.8001161396405181
0.260987 0.5458782581891363 -0.8038529198224715
0.2629869 0.5399119169315206 -0.8078801998930464
0.2649868 0.5341063329869894 -0.8112370592583075
0.2669867 0.5282246043967413 -0.8149515679776457
0.2689866 0.5219542000285674 -0.8181490080987807
0.2709865 0.515759839318158 -0.8215503139430119
0.2729864 0.5100403313102161 -0.8249199489668312
0.2749863 0.5042674471407665 -0.8285195982497183
0.2769862 0.49819883237065193 -0.8317857546871756
0.2789861 0.49161694341096895 -0.8351680943421617
0.280986 0.48544140356620946 -0.8385822036288126
0.2829859 0.4792315010379462 -0.841781585742032
0.2849858 0.4732528356432947 -0.8446706381655168
0.2869857 0.466777768683809 -0.8480078312592324
0.2889856 0.4603565793405103 -0.8508897244816898
0.2909855 0.45415847886567773 -0.8542447574690076
0.2929854 0.4478843782326343 -0.8572114005714315
0.2949853 0.44136907398067415 -0.8603925277911146
0.2969852 0.4355033085212766 -0.8634830507362284
0.2989851 0.42911880509669437 -0.8666338341466985
0.300985 0.42299384934946277 -0.8693918917338486
0.3029849 0.4169231543872376 -0.8723632559641917
0.3049848 0.4101474660538754 -0.875191749917585
0.3069847 0.4038518737084689 -0.8782865579512631
0.3089846 0.39757878541735714 -0.8811388121972434
0.3109845 0.39135538287046523 -0.8836814334081498
0.3129844 0.3847407660332658 -0.8865800137044136
0.3149843 0.37881664623229033 -0.8889473370123443
0.3169842 0.3726238213746792 -0.8915546995240684
0.3189841 0.365935143029736 -0.8941613843165089
0.320984 0.3601271204876881 -0.8962513730849005
0.3229839 0.3534181930652253 -0.8985761575202827
0.3249838 0.3470306730831696 -0.9009375387730016
0.3269837 0.34072732714914994 -0.9031828052054717
0.3289836 0.3348657589785371 -0.9054712314163987
0.3309835 0.3286013733509456 -0.9076217420580098
0.3329834 0.3219256668428709 -0.9098478875889324
0.3349833 0.31512622863899564 -0.9117451730236127
0.3369832 0.3092637957250029 -0.9133482629841829
0.3389831 0.30286123061588377 -0.915334470059248
0.340983 0.2964585454417835 -0.9172397112789378
0.3429829 0.2896933216474477 -0.9187209113821085
0.3449828 0.28341249518503075 -0.9206865746076325
0.3469827 0.276862134313325 -0.9224224750757831
0.3489826 0.27082922261081294 -0.9239173620070895
0.3509825 0.2642818529754741 -0.9253560737970152
0.3529824 0.2573816339256332 -0.9269693228092127
0.3549823 0.2510679259452437 -0.9283802718536939
0.3569822 0.24433595828054827 -0.9300425161287162
0.3589821 0.2377081696432971 -0.9309307625051283
0.360982 0.2312460380482366 -0.9325013601391825
0.3629819 0.22463792488425482 -0.9335015543382981
0.3649818 0.21793067135260358 -0.9347252726019265
0.3669817 0.21130049654386426 -0.9358168812683535
0.3689816 0.204473809061667 -0.9372065596297786
0.3709815 0.19785147516465224 -0.9386213879571703
0.3729814 0.19093039994422173 -0.9396112450222512
0.3749813 0.18462080287264948 -0.9411387123652135
0.3769812 0.17801386940186278 -0.9419544245114136
0.3789811 0.17130528711426438 -0.9432036066286951
0.380981 0.16449754319409018 -0.9442807902693158
0.3829809 0.15791678682668525 -0.9451197312557617
0.3849808 0.15137947876108854 -0.9461880927763933
0.3869807 0.14471218471599606 -0.9473792920694535
0.3889806 0.13793620694935937 -0.9479541410013851
0.3909805 0.13179421710686906 -0.9488100588462587
0.3929804 0.1250527787058103 -0.9494382153579023
0.3949803 0.11852689281503605 -0.9502180621516857
0.3969802 0.11229004801358244 -0.9510899196366547
0.3989801 0.10619961093973684 -0.9519024905248931
0.40098 0.09957167730379879 -0.9522528038013643
0.4029799 0.09313991391468529 -0.9527106750687598
0.4049798 0.0862856223810956 -0.952831156239521
0.4069797 0.08017175896235618 -0.9535820963382864
0.4089796 0.07377757133876556 -0.9536975186500798
0.4109795 0.06732076972611512 -0.953931003383597
0.4129794 0.06081860504801005 -0.9538563860465228
0.4149793 0.054498991471585864 -0.9542162403672562
0.4169792 0.048006256905848636 -0.9540638807457306
0.4189791 0.041614607019703216 -0.9541294226673341
0.420979 0.03544837216141321 -0.9546759536340376
0.4229789 0.028561072532282343 -0.9545196596072412
0.4249788 0.02237063293697055 -0.9543259222235836
0.4269787 0.01592658231775807 -0.9541404342648848
0.4289786 0.009470061678753826 -0.9537233216839224
0.4309785 0.0033890676533047566 -0.9538777024045995
0.4329784 -0.003685682568162832 -0.9531187768159685
0.4349783 -0.010459624468392055 -0.9530334114729198
0.4369782 -0.015836277701130122 -0.952848158431149
0.4389781 -0.022195096048610884 -0.9524768171996555
0.440978 -0.028664900688356275 -0.9521444161266396
0.4429779 -0.03540089817538032 -0.9514904045974336
0.4449778 -0.042088898678103615 -0.9509601507544413
0.4469777 -0.04805005927475158 -0.9504268929628529
0.4489776 -0.054624306027314766 -0.9501320052227252
0.4509775 -0.060993959983012776 -0.9490754776702834
0.4529774 -0.06729443842579716 -0.9485283098752226
0.4549773 -0.07326250230764733 -0.9481782154189253
0.4569772 -0.08031155959226616 -0.9474362233663018
0.4589771 -0.08616880431337552 -0.9466377551653679
0.460977 -0.09230157993494117 -0.9455070083649727
0.4629769 -0.09909416726184556 -0.944615918897059
0.4649768 -0.10510914951759426 -0.9439722135737202
0.4669767 -0.11131172779030635 -0.9429853281811957
0.4689766 -0.1172248181232809 -0.9425487683926395
0.4709765 -0.12336153752606041 -0.941234338208387
0.4729764 -0.1295699258961716 -0.9401421016498072
0.4749763 -0.1359688830126683 -0.9389991740803322
0.4769762 -0.14159367371845843 -0.9376983212667951
0.4789761 -0.14786202059520928 -0.9365239677389541
0.480976 -0.1534398719979918 -0.9353261806897871
0.4829759 -0.15991727106751485 -0.9340873146633147
0.4849758 -0.16603297044473903 -0.9328979308324427
0.4869757 -0.1720878961461484 -0.9316633669276994
0.4889756 -0.17817999491643635 -0.9298889487589055
0.4909755 -0.18422890437605396 -0.9281748381549922
0.4929754 -0.19018698948121007 -0.9270620310819078
0.4949753 -0.19647564691638197 -0.924968208126641
0.4969752 -0.20282346628156206 -0.9235230397292388
0.4989751 -0.20824293325102997 -0.9214923041427786
0.500975 -0.21468818541178397 -0.9197708371036727
0.5029749 -0.22063700986679932 -0.9181156317429753
0.5049748 -0.2268996841214146 -0.9162920651762417
0.5069747 -0.23306215943385655 -0.9146088475199402
0.5089746 -0.23912777534573204 -0.9126760819872908
0.5109745 -0.24489692238391525 -0.9113221867606768
0.5129744 -0.25098380761371497 -0.9096488061635786
0.5149743 -0.2568892981971194 -0.9076953314973072
0.5169742 -0.2626833200929932 -0.9062694730088844
0.5189741 -0.2685716903966804 -0.9044851704114112
0.520974 -0.2743957427243832 -0.9018772457310578
0.5229739 -0.28044686687571313 -0.9005188413578821
0.5249738 -0.2864119189492051 -0.8983771549304242
0.5269737 -0.2922247590717606 -0.896467562727389
0.5289736 -0.2981114853757976 -0.8946361600193706
0.5309735 -0.3039465880987624 -0.8921724036007204
0.5329734 -0.3094174375507971 -0.8902545250595963
0.5349733 -0.3153895763972215 -0.8881638661633777
0.5369732 -0.32101923208354255 -0.8863246833323628
0.5389731 -0.32623056621901925 -0.8842582741154342
0.540973 -0.3319851075015645 -0.8817237528688328
0.5429729 -0.3374863469288147 -0.8794505564071874
0.5449728 -0.3428869011114142 -0.8772313695818515
0.5469727 -0.3482659157935313 -0.875002279521568
0.5489726 -0.35355061750162164 -0.8721016940993599
0.5509725 -0.3589165327667557 -0.8696801747699245
0.5529724 -0.3645258041797761 -0.8678481570011287
0.5549723 -0.3698639018061214 -0.8653750422902885
0.5569722 -0.37526627610020025 -0.8624234779489048
0.5589721 -0.38043945033683774 -0.8598160012397618
0.560972 -0.3850698452166872 -0.856901940527414
0.5629719 -0.3904242907700102 -0.8540819962573121
0.5649718 -0.39581483178734517 -0.8506795669197135
0.5669717 -0.4011967826312668 -0.8480372538217098
0.5689716 -0.4063058347359173 -0.8446583817755955
0.5709715 -0.4115452824116135 -0.8419832900523534
0.5729714 -0.4166473313662282 -0.8394895035400884
0.5749713 -0.42163387773487976 -0.835837669278072
0.5769712 -0.42720829450228154 -0.832758329828434
0.5789711 -0.43267405721239305 -0.8296025200928938
0.580971 -0.4382519600382714 -0.8267882953500966
0.5829709 -0.4437591387802981 -0.8241334320652718
0.5849708 -0.44867470732980025 -0.8208158560082166
0.5869707 -0.4539729386027799 -0.8179056272842808
0.5889706 -0.4594628006315842 -0.814650863252889
0.5909705 -0.46391540599077197 -0.8113065223956459
0.5929704 -0.4693006988450015 -0.808272985792798
0.5949703 -0.47452227277218967 -0.8051846560364257
0.5969702 -0.47947013848758985 -0.8023459894024166
0.5989701 -0.4844572835206413 -0.7989152208882241
0.60097 -0.48970327951643483 -0.7962694694470621
0.6029699 -0.4946948820526644 -0.7926418244845488
0.6049698 -0.49944602639889407 -0.7894922232625567
0.6069697 -0.504302486529447 -0.7864180755528484
0.6089696 -0.5095246338484333 -0.7827788289117227
0.6109695 -0.5141976919341227 -0.7796727468751203
0.6129694 -0.5186938425214366 -0.7765457981658793
0.6149693 -0.5237034029379048 -0.7729204973597358
0.6169692 -0.52863622992348 -0.7700159704818534
0.6189691 -0.5328459151063486 -0.7667067168559492
0.620969 -0.5372613784001994 -0.7633093312677698
0.6229689 -0.5420873783866305 -0.7597262121300069
0.6249688 -0.5465562518330047 -0.7564299333970713
0.6269687 -0.5510014887640482 -0.7529455733458206
0.6289686 -0.5555724741328143 -0.7492250752188715
0.6309685 -0.5595384360870073 -0.7454631892959316
0.6329684 -0.5636735253306165 -0.7418016144154375
0.6349683 -0.5683048870845376 -0.7374390229418863
0.6369682 -0.5724059368641118 -0.7339882095977155
0.6389681 -0.5767395919524428 -0.7297702391788963
0.640968 -0.5811489499930973 -0.7256259252613673
0.6429679 -0.585560669262597 -0.7214505493376898
0.6449678 -0.5900642470773168 -0.7174435451051558
0.6469677 -0.5943125783784805 -0.7136773987773724
0.6489676 -0.5989943471191979 -0.7096582118986954
0.6509675 -0.6031621217208667 -0.7051401533472784
0.6529674 -0.6075430343322052 -0.7016489517290881
0.6549673 -0.6117361206557395 -0.6978616778704294
0.6569672 -0.6158980636060475 -0.6939171991550194
0.6589671 -0.6206248816678902 -0.6896304780153614
0.660967 -0.6249985622376112 -0.6857426784847284
0.6629669 -0.6294261314756286 -0.6814770948187665
0.6649668 -0.6335291365166446 -0.6773744993214685
0.6669667 -0.6375387921203798 -0.6735648590608699
0.6689666 -0.6418434698686262 -0.6695415294381876
0.6709665 -0.646071504611265 -0.6653848061274629
0.6729664 -0.6502226852444681 -0.6610078308545743
0.6749663 -0.6537228645887391 -0.656710361476582
0.6769662 -0.657649019924489 -0.6528937189608749
0.6789661 -0.6621747434759502 -0.6483310822008902
0.680966 -0.6658303584584836 -0.6446533452137523
0.6829659 -0.6697972646329802 -0.6404314869671777
0.6849658 -0.6735661816036754 -0.6363959740681768
0.6869657 -0.677234229339879 -0.6318716926230068
0.6889656 -0.6810160962715953 -0.6280866073011615
0.6909655 -0.6852394777069858 -0.6239642515205255
0.6929654 -0.6886399992725512 -0.6199168862888553
0.6949653 -0.6921064188589021 -0.6155563781503303
0.6969652 -0.6957594067480758 -0.6118586419809351
0.6989651 -0.69922857458777 -0.6074691690346357
0.700965 -0.7026548612632795 -0.6032839089203865
0.7029649 -0.7057701097754444 -0.5987383156609106
0.7049648 -0.7094951129421896 -0.5942367197328613
0.7069647 -0.7127000164144471 -0.589833335445745
0.7089646 -0.7154371275908561 -0.5853238863029855
0.7109645 -0.7189857584953263 -0.5806996894556509
0.7129644 -0.7218201657915002 -0.5760481549089947
0.7149643 -0.7251598612651551 -0.5713985130483432
0.7169642 -0.7284608874699313 -0.5667060055363888
0.7189641 -0.731396409390124 -0.5621056963263042
0.720964 -0.7348150425895451 -0.5572429714000384
0.7229639 -0.738084060408145 -0.5530434290010063
0.7249638 -0.740862115558571 -0.5481071040287709
0.7269637 -0.7439108448768283 -0.5429927784132271
0.7289636 -0.7471068918941745 -0.538300937162778
0.7309635 -0.7505557223120728 -0.5330778989148905
0.7329634 -0.7534084707094415 -0.5284689479073235
0.7349633 -0.7568492877994832 -0.5237203956523784
0.7369632 -0.7598813040073626 -0.5184340006774832
0.7389631 -0.7632137862521885 -0.5137255991696774
0.740963 -0.7664012462654683 -0.5088472725313347
0.7429629 -0.7692733657915807 -0.504230338070866
0.7449628 -0.772317473887266 -0.4992982532042994
0.7469627 -0.7756271158419226 -0.4948617886007757
0.7489626 -0.7786268575042485 -0.4899323796399627
0.7509625 -0.7812453728433006 -0.4850066320033338
0.7529624 -0.7847340284210894 -0.48045040560684626
0.7549623 -0.7876394582697879 -0.4756102197247937
0.7569622 -0.7903047253416358 -0.47090334943703177
0.7589621 -0.7926933581182212 -0.4660026317348762
0.760962 -0.7956509181129922 -0.46082826665754484
0.7629619 -0.7983091142015927 -0.4561823120066777
0.7649618 -0.8010788432247637 -0.45139391217278185
0.7669617 -0.8036297510793531 -0.4468811056407625
0.7689616 -0.8058689291524763 -0.4415744508408765
0.7709615 -0.8083834827038089 -0.4370260391575699
0.7729614 -0.8111632051983853 -0.43173546251399536
0.7749613 -0.8133211435143658 -0.42715767809244803
0.7769612 -0.8155399790562516 -0.4221925095569051
0.7789611 -0.8182646261491934 -0.4173147380868048
0.780961 -0.8203564374551467 -0.4127021509715886
0.7829609 -0.8229366146683871 -0.40721311602657073
0.7849608 -0.8247140463080623 -0.40248971650216997
0.7869607 -0.8270768416851243 -0.39713413648177864
0.7889606 -0.8294123294543245 -0.3923527516254759
0.7909605 -0.831060627786792 -0.38732413455732423
0.7929604 -0.8333114237489778 -0.38201089342421446
0.7949603 -0.8352277179164292 -0.3766054751790412
0.7969602 -0.8375505464698276 -0.3716281155397328
0.7989601 -0.8393497824709821 -0.3667504735365405
0.80096 -0.8410120152776355 -0.36124233683688833
