! Created with skrf 1.8.0 (http://scikit-rf.org).
# GHz S RI R 50.0 
!freq ReS11 ImS11
0.001 -0.9434801388386923 0.0062522871477913005
0.0029999 -0.9431388672316827 0.01496029914867368
0.0049998 -0.9420389294650728 0.02355930437616692
0.0069997 -0.9411304710611643 0.03212074226796781
0.0089996 -0.9402306286423872 0.04076860207589257
0.0109995 -0.939584614394889 0.04950691360003011
0.0129994 -0.9386968026336163 0.05785593583066134
0.0149993 -0.9376758962537065 0.06637487357010619
0.0169992 -0.9367369141707718 0.07458818397772073
0.0189991 -0.9356193633489189 0.0831700228704389
0.020999 -0.9346344752140653 0.09146599404121206
0.0229989 -0.9332524479394175 0.09980581050737772
0.0249988 -0.9316517115346818 0.1085194464082947
0.0269987 -0.9308628526698663 0.1167142817093982
0.0289986 -0.9293602487357504 0.12473654955088948
0.0309985 -0.9278227882141795 0.1331615672465488
0.0329984 -0.9263267613034947 0.14117334579715618
0.0349983 -0.9247620369769994 0.14972366638371615
0.0369982 -0.9232269479449555 0.15814375512065204
0.0389981 -0.9213784687694189 0.16622185984245852
0.040998 -0.9199249648099731 0.17401441521940458
0.0429979 -0.9175269682511292 0.18255222755027256
0.0449978 -0.916107855204768 0.19016043687705758
0.0469977 -0.9137201876046079 0.19895107674792023
0.0489976 -0.9117536643893168 0.20669369133643614
0.0509975 -0.9096038805571062 0.2147561142070285
0.0529974 -0.907644463994282 0.22298426945757308
0.0549973 -0.905424830000803 0.23075894722404577
0.0569972 -0.9032196391530518 0.23859151970405496
0.0589971 -0.9008584672040105 0.24647002126747675
0.060997 -0.8982519737950969 0.2541368122665168
0.0629969 -0.8958859709704223 0.2620983074298476
0.0649968 -0.8934558083751066 0.2698443354489923
0.0669967 -0.890948727309947 0.2775844834009069
0.0689966 -0.8880664988114697 0.2853688870274321
0.0709965 -0.885234252472399 0.2933086259033685
0.0729964 -0.8827318017967887 0.3009727028877555
0.0749963 -0.8796825214443365 0.3083448794809526
0.0769962 -0.8763619866074287 0.3161544000546845
0.0789961 -0.8732821892625091 0.32386613874232434
0.080996 -0.8704828834585853 0.33132717740947526
0.0829959 -0.8673379508542077 0.33898442937484574
0.0849958 -0.8640321890538292 0.3465447511269768
0.0869957 -0.8606604811559588 0.3538567160856503
0.0889956 -0.8571816820946339 0.3615717589277827
0.0909955 -0.8538763406899191 0.3687915949279348
0.0929954 -0.8501611598720544 0.37606553901070805
0.0949953 -0.8469923790918081 0.38376798841917636
0.0969952 -0.8434731866524461 0.3909444328575499
0.0989951 -0.8393610734193225 0.3981068658244983
0.100995 -0.8357605841164988 0.4058299837805496
0.1029949 -0.8318732430220162 0.41275270832566135
0.1049948 -0.828089931949126 0.4201815729836424
0.1069947 -0.8238759160145943 0.42737608711802394
0.1089946 -0.8202786948762967 0.4345018151990556
0.1109945 -0.8161360865813901 0.4420067386368687
0.1129944 -0.8120559595193898 0.44909515270444533
0.1149943 -0.8080204634816273 0.45632171447199343
0.1169942 -0.803835662227336 0.46350372201646295
0.1189941 -0.799792177439432 0.47042602577404796
0.120994 -0.7954246066449728 0.4771817642841775
0.1229939 -0.7911252542379787 0.48412695339301787
0.1249938 -0.7869911594230032 0.49126993308038774
0.1269937 -0.7826692800036495 0.4981066026446155
0.1289936 -0.7782391442988817 0.5049365603039293
0.1309935 -0.7735908129547056 0.5113729573070367
0.1329934 -0.7693527898535948 0.5181667291361082
0.1349933 -0.7645793663524103 0.5248028738043846
0.1369932 -0.7599837595922203 0.5317853363640499
0.1389931 -0.7554471547671731 0.5380480025331207
0.140993 -0.7505248121697188 0.5447308643228587
0.1429929 -0.7458616487392233 0.5511369063223196
0.1449928 -0.740550498421975 0.5575047162715836
0.1469927 -0.7357939648531298 0.5639460658600136
0.1489926 -0.7308802584168438 0.5700564692366964
0.1509925 -0.7253190588771153 0.5760098070788615
0.1529924 -0.7202979844378579 0.5821707413129444
0.1549923 -0.7147485777820163 0.5882940753605587
0.1569922 -0.7095368228391743 0.5944122231021067
0.1589921 -0.7040021271409299 0.6008285214765153
0.160992 -0.6984713194972844 0.606763270077409
0.1629919 -0.6930632588323322 0.6129909457505076
0.1649918 -0.6873849001297673 0.6186037953195362
0.1669917 -0.681700127473116 0.6243369115617907
0.1689916 -0.676287697068559 0.6305708013865716
0.1709915 -0.670332171974464 0.6365881490068047
0.1729914 -0.6641067022595583 0.6422914632574726
0.1749913 -0.6582418793036592 0.6481414009604771
0.1769912 -0.6525890212796424 0.6537806216367945
0.1789911 -0.6465243890465835 0.659703671318506
0.180991 -0.6402827957976369 0.6654371656987288
0.1829909 -0.6344782937178503 0.6711760093285795
0.1849908 -0.6283141474819651 0.6769624104933885
0.1869907 -0.6222657816386783 0.6829974655769042
0.1889906 -0.6154535097495049 0.6885659950068784
0.1909905 -0.6091655131964459 0.6940176111419539
0.1929904 -0.6033365048484595 0.6996331252769186
0.1949903 -0.597110494128424 0.7050374567873123
0.1969902 -0.5911459680284398 0.7105312993985092
0.1989901 -0.5850265167518451 0.7158400672560096
0.20099 -0.5787021912590933 0.7210361753683596
0.2029899 -0.5718659185450159 0.7262484164319861
0.2049898 -0.5652492431658924 0.7312492658661421
0.2069897 -0.5590115460609089 0.7362769766309283
0.2089896 -0.5524184350375145 0.7412309555023215
0.2109895 -0.5460531023451842 0.7463843945096027
0.2129894 -0.5391308372707319 0.7512136520190954
0.2149893 -0.5327621069822743 0.7558764379376899
0.2169892 -0.5260833076202825 0.7603758437820267
0.2189891 -0.519177752741542 0.7651242662388821
0.220989 -0.5124409262324597 0.7696177553777878
0.2229889 -0.5057437450397827 0.7742357880184533
0.2249888 -0.4986035736052659 0.7785402283658005
0.2269887 -0.4917553873743301 0.7828361106738445
0.2289886 -0.48482546134571297 0.787171070679748
0.2309885 -0.4777056112002017 0.7911414761944433
0.2329884 -0.4705094049791639 0.7953542345477663
0.2349883 -0.4633850978828315 0.799644647977056
0.2369882 -0.4560265267223613 0.8035830827976224
0.2389881 -0.448713232068489 0.8075168126580756
0.240988 -0.441242380238276 0.8109631395217135
0.2429879 -0.43371555092091807 0.8148495684848704
0.2449878 -0.42655492128858197 0.8187804846654048
0.2469877 -0.4189662177890502 0.8223395345627285
0.2489876 -0.4112183403688526 0.826366169406743
0.2509875 -0.40373622894615174 0.8299486483697539
0.2529874 -0.3956901185763725 0.8336075694604939
0.2549873 -0.38803262264131994 0.8373911021878122
0.2569872 -0.3803761155051195 0.8407739119018912
0.2589871 -0.3724509026900969 0.8444747135168841
0.260987 -0.3646742434635933 0.8478729681182193
0.2629869 -0.35698183751698376 0.8512242132744549
0.2649868 -0.349209212463629 0.8544335765308348
0.2669867 -0.34120544944988274 0.8579164557059424
0.2689866 -0.3334303813383617 0.8609768201395647
0.2709865 -0.32539859655205133 0.8640732809406835
0.2729864 -0.31754363372228306 0.8671851859280526
0.2749863 -0.3098705306214296 0.8704712348871801
0.2769862 -0.3016187359357953 0.8732384362373601
0.2789861 -0.29371165834439084 0.8760407738042751
0.280986 -0.2858598956072993 0.8788948598214948
0.2829859 -0.277818174934683 0.8816836687605567
0.2849858 -0.26971191679393997 0.8842716927684284
0.2869857 -0.2619065743149268 0.8865490069610323
0.2889856 -0.25381303877284095 0.8892829822790733
0.2909855 -0.24558267356134061 0.8918147709347994
0.2929854 -0.23758175636512488 0.8939931332572163
0.2949853 -0.22950459856321037 0.8959440973797795
0.2969852 -0.22110061261200045 0.8978407566939779
0.2989851 -0.21309295790161056 0.9000428225048512
0.300985 -0.20452617169769566 0.9016121089853706
0.3029849 -0.19650161972189642 0.9035696425865198
0.3049848 -0.18808106677993144 0.9051621831346464
0.3069847 -0.17974056332716667 0.9065360004225496
0.3089846 -0.17184021547185446 0.9082417423541173
0.3109845 -0.16295472384718404 0.9095340786778596
0.3129844 -0.15475668862293646 0.91080305673523
0.3149843 -0.14614094416419243 0.9123760644732042
0.3169842 -0.13765494144032686 0.9133391775091422
0.3189841 -0.12858500516981916 0.9151882165668025
0.320984 -0.1201018110021144 0.9160443864822483
0.3229839 -0.11135456720522387 0.9173797227276864
0.3249838 -0.10287985019845593 0.9184352692493469
0.3269837 -0.09404659828988729 0.9191111675302014
0.3289836 -0.08524811935373924 0.9198702222922844
0.3309835 -0.07629499943235363 0.9204606985027579
0.3329834 -0.06791427840756914 0.9220719000505894
0.3349833 -0.0592466610462281 0.9220297710181337
0.3369832 -0.050580499212584326 0.9229684616384075
0.3389831 -0.042051826086977016 0.9236248340785317
0.340983 -0.03295300329454909 0.9240036956774826
0.3429829 -0.024119081211585194 0.9245588670443106
0.3449828 -0.015463341148381451 0.9247850200194399
0.3469827 -0.006518566320772086 0.9252941578953309
0.3489826 0.0020472468875538993 0.9256279055442563
0.3509825 0.011097105129148799 0.9258117042479639
0.3529824 0.01976376129853664 0.9256221607262851
0.3549823 0.02833324928744223 0.9255984928280137
0.3569822 0.03728394870795362 0.9255966929398289
0.3589821 0.04620321231512463 0.925164684847789
0.360982 0.05483089633776763 0.9248879726319572
0.3629819 0.06361523189674792 0.9243193252566533
0.3649818 0.07206453399413708 0.9239656207829664
0.3669817 0.08098064883261677 0.9235520091719324
0.3689816 0.08974161136537925 0.9226367603276293
0.3709815 0.09786140484379716 0.9218669135954187
0.3729814 0.10686923523374273 0.9212810497617738
0.3749813 0.11547109629226618 0.9201106270706344
0.3769812 0.12410848962325222 0.9191387965127624
0.3789811 0.13289338593825387 0.9181055419861628
0.380981 0.14156455240485644 0.9167993720629947
0.3829809 0.15003401336051186 0.9156576330523616
0.3849808 0.15897809002997215 0.9140958854953292
0.3869807 0.1679383076910773 0.9124342688759832
0.3889806 0.17623649557702792 0.9108783657243393
0.3909805 0.1850405355223435 0.9089562258956768
0.3929804 0.19351573667001204 0.9074159607446222
0.3949803 0.20247081915988618 0.9052292392903586
0.3969802 0.2112207631617122 0.9030144006449973
0.3989801 0.22025715379701855 0.9010473554376865
0.40098 0.2288924662725938 0.8989295938382256
0.4029799 0.23763661064946062 0.8966684560148354
0.4049798 0.24633269033577876 0.8943776604176721
0.4069797 0.25526431423205226 0.8920136918848492
0.4089796 0.2639455382002315 0.8896302932201908
0.4109795 0.2729886361570575 0.8873896378575781
0.4129794 0.28160072996751556 0.8845134304657517
0.4149793 0.29022795897953013 0.8819026832476646
0.4169792 0.29894141310894545 0.8788970169777265
0.4189791 0.3075412469458584 0.8762109294854861
0.420979 0.3160304875256475 0.8731104312073008
0.4229789 0.32461703467356473 0.8703103275389196
0.4249788 0.3332583370025178 0.8672408655942816
0.4269787 0.34168249295176356 0.8641893611894772
0.4289786 0.35004075700092 0.8610736025291073
0.4309785 0.35857697455504817 0.8579261296481966
0.4329784 0.36711578291506747 0.8544157656537336
0.4349783 0.3755153198173414 0.8508372948962293
0.4369782 0.38363741624932685 0.8470830101311908
0.4389781 0.3923251311613749 0.8431706444935597
0.440978 0.4008192590537815 0.8398446093017365
0.4429779 0.40872536448142827 0.8358061660768583
0.4449778 0.416747915522681 0.8322740896900834
0.4469777 0.4249208795297558 0.827881621554753
0.4489776 0.4326665099908809 0.8238239799640522
0.4509775 0.44149647101818246 0.819986881040538
0.4529774 0.44948100492760895 0.815622286285552
0.4549773 0.45728775317914877 0.811324909977289
0.4569772 0.46550816362151315 0.8069851727304808
0.4589771 0.4734952420896946 0.8020923499787513
0.460977 0.4815200968421015 0.7971755900299379
0.4629769 0.4893591413197128 0.7926396525469013
0.4649768 0.4971462393742873 0.7880050290660875
0.4669767 0.5050871078138103 0.7827561511339289
0.4689766 0.512930540777301 0.7777337001867053
0.4709765 0.520509379289537 0.7726280338197586
0.4729764 0.5286717199383076 0.7679824911923255
0.4749763 0.5362666532675722 0.7627799617964045
0.4769762 0.54403356821022 0.7574664488163982
0.4789761 0.5518645619381998 0.7519533998895395
0.480976 0.5593369868432942 0.7468395505913576
0.4829759 0.5664320333008301 0.741178386913437
0.4849758 0.5740592879439352 0.7358180554850211
0.4869757 0.5817333572159198 0.730010794794748
0.4889756 0.5890132382553495 0.7241780270043399
0.4909755 0.59637825795813 0.7187011941998748
0.4929754 0.6035620583944533 0.7128128559915257
0.4949753 0.6107987250407206 0.706866874898711
0.4969752 0.617619431428367 0.7009060101940113
0.4989751 0.6249971874886803 0.6949610926462972
0.500975 0.6320899430456398 0.6890092424300962
0.5029749 0.6387433577614414 0.6826737530197395
0.5049748 0.6453952824590009 0.6766357870303992
0.5069747 0.6519157311620299 0.6703257252803317
0.5089746 0.6589816495976347 0.6641292302176451
0.5109745 0.6654052409278866 0.6574888932313459
0.5129744 0.6722183947649754 0.650984313620119
0.5149743 0.6790114680944614 0.6441903267667574
0.5169742 0.684977763319945 0.6373699286732474
0.5189741 0.691363698245948 0.6306375445303503
0.520974 0.6981292642544011 0.6236222053300622
0.5229739 0.7037527513844192 0.6164915746285324
0.5249738 0.7101000994835994 0.6096181196442311
0.5269737 0.7161851921577599 0.602276461646475
0.5289736 0.7217660002985479 0.5951869616171341
0.5309735 0.7283749026871268 0.5875318337884217
0.5329734 0.7337745804214294 0.5803289533280955
0.5349733 0.7394791990760399 0.5730017686360506
0.5369732 0.7456760608973887 0.5651657034019468
0.5389731 0.7513349770912102 0.5580795815021735
0.540973 0.7573143395657188 0.5500957100426933
0.5429729 0.7631581415439548 0.5424980320208185
0.5449728 0.7684195105907865 0.534809319178018
0.5469727 0.7738991795421033 0.5269529548789185
0.5489726 0.7791933011962755 0.5191368060701461
0.5509725 0.7846961900691151 0.511164262338119
0.5529724 0.7897975018424077 0.5033433575808411
0.5549723 0.7950120776450719 0.49520331864685707
0.5569722 0.8003828650469677 0.4872193998471133
0.5589721 0.8055651010731153 0.479052803545461
0.560972 0.810280497999653 0.47126084109087296
0.5629719 0.8155610560414166 0.4627155714410359
0.5649718 0.8205156590274232 0.4549957161041929
0.5669717 0.8251214054270539 0.4466252395776635
0.5689716 0.8297406314449761 0.43795932972006324
0.5709715 0.8343339519954697 0.4300414357532049
0.5729714 0.8384838438331785 0.4216319903061803
0.5749713 0.8428651542064958 0.4131626590869531
0.5769712 0.8473528525171456 0.4045257880230095
0.5789711 0.8517838926087439 0.3963350477686282
0.580971 0.855600887666112 0.38796571914671374
0.5829709 0.8594529903787257 0.37916893707365473
0.5849708 0.8630724273341275 0.37067757131708134
0.5869707 0.8667341594616876 0.36218871172421985
0.5889706 0.8706001386740894 0.3532765292501611
0.5909705 0.8741927960098266 0.34458525862988454
0.5929704 0.8775002817242886 0.3356669011103344
0.5949703 0.8809937459971913 0.32656534744531973
0.5969702 0.8840086092916579 0.3181839850088109
0.5989701 0.8876212077418176 0.30849300003857283
0.60097 0.8902932425576164 0.299902140201989
0.6029699 0.8935253314365486 0.2902015706657549
0.6049698 0.8964954497791677 0.28169080957723514
0.6069697 0.8990157954247047 0.27210201832411907
0.6089696 0.9022617089362858 0.2634245727962531
0.6109695 0.9048947663888645 0.2541288176624982
0.6129694 0.9072530129232582 0.2447335497296858
0.6149693 0.9100230792491764 0.23588245803429544
0.6169692 0.9128817330901349 0.22641357646593138
0.6189691 0.9147569220205594 0.21692434009257627
0.620969 0.9167932361855378 0.20778635903839385
0.6229689 0.9188916570554841 0.19827996614484297
0.6249688 0.9211879314415271 0.1887695382886882
0.6269687 0.9231082802638242 0.17961630463872663
0.6289686 0.924865256740117 0.1704067935820936
0.6309685 0.9267813837278567 0.16088764245770992
0.6329684 0.9282426170564873 0.151570623018493
0.6349683 0.929970293330539 0.14193593670913374
0.6369682 0.9315152946351629 0.13266677889084755
0.6389681 0.9327659574283417 0.12372555574597699
0.640968 0.9342953862243573 0.11375947835724784
0.6429679 0.9351579689641653 0.10456640943371634
0.6449678 0.936341329357071 0.09542210791184344
0.6469677 0.937181342035589 0.08551953319587571
0.6489676 0.9379441390547292 0.07632716058818
0.6509675 0.9389673300434407 0.06677853125125943
0.6529674 0.939517494781987 0.05716897820966307
0.6549673 0.9403154185157634 0.04748681690864409
0.6569672 0.9403640206063449 0.038488883192072096
0.6589671 0.94082427350844 0.02855821064370823
0.660967 0.941045024365015 0.019290079019238394
0.6629669 0.941222787850197 0.009469082282825395
0.6649668 0.9414414504272313 0.00022389622180807658
0.6669667 0.9409595878890121 -0.00955275528466865
0.6689666 0.9413046047234594 -0.01865780884168188
0.6709665 0.941064426583616 -0.028212059894151383
0.6729664 0.9406867586409711 -0.037944901395705895
0.6749663 0.940200356718772 -0.04703123931107536
0.6769662 0.9398778194104597 -0.056885937159886116
0.6789661 0.9387756488986297 -0.06642283790477961
0.680966 0.9385197245598598 -0.07589487788189214
0.6829659 0.9378924776916736 -0.08502585126933992
0.6849658 0.9367458247427187 -0.09486431099414486
0.6869657 0.9361645023627355 -0.10437474829613488
0.6889656 0.9347658191215671 -0.1134939214603359
0.6909655 0.9338716680311883 -0.12284458710790998
0.6929654 0.9326225300702262 -0.1324827677214904
0.6949653 0.931212232448582 -0.14204785648583085
0.6969652 0.9298289634383009 -0.1509247008373232
0.6989651 0.9285745490833746 -0.160516204455632
0.700965 0.9263876500278659 -0.1697304271557793
0.7029649 0.9248427729771012 -0.17876785357785846
0.7049648 0.923376606152708 -0.1879593350706621
0.7069647 0.9211353372055877 -0.19732952377914773
0.7089646 0.9191867947769445 -0.20656237849558526
0.7109645 0.9170940093672372 -0.21565046824828182
0.7129644 0.9146338342836139 -0.2243007126751737
0.7149643 0.9124731060205598 -0.23344065400051556
0.7169642 0.9100064223123717 -0.24252583940584976
0.7189641 0.9073218008714842 -0.2514350548012386
0.720964 0.9045038136422457 -0.26057360110199956
0.7229639 0.9019470751210564 -0.2695738039848288
0.7249638 0.8993976462450168 -0.27823160922154366
0.7269637 0.896355291637162 -0.28737723883936533
0.7289636 0.8930381376657142 -0.2965363635176543
0.7309635 0.8901656090969444 -0.305341491881405
0.7329634 0.8870533740778452 -0.3146805952131758
0.7349633 0.8839583115291461 -0.3223610652054961
0.7369632 0.880323357216432 -0.33205984387492943
0.7389631 0.8769285234420504 -0.34073441537591564
0.740963 0.8734297850675276 -0.3494101374816628
0.7429629 0.8696479108868679 -0.35875839281083066
0.7449628 0.8661839908656408 -0.36682178124251075
0.7469627 0.8630270195266351 -0.3755992995102153
0.7489626 0.859190914656357 -0.3845332127676016
0.7509625 0.8547659031827902 -0.39244360610813833
0.7529624 0.8518471779338536 -0.40166541723249016
0.7549623 0.8476716736880509 -0.4099982692788464
0.7569622 0.843438715358744 -0.4185608133193491
0.7589621 0.839327822159072 -0.4266325751418544
0.760962 0.8351773729161382 -0.4349904837965739
0.7629619 0.8308172814776869 -0.4433508088536279
0.7649618 0.8267202681000204 -0.4516989270733693
0.7669617 0.8226581068431589 -0.4589616909930035
0.7689616 0.8181537927425443 -0.4671487480152225
0.7709615 0.8128456681986881 -0.4752769843109028
0.7729614 0.8086586127657889 -0.4830257654465823
0.7749613 0.8039986627822888 -0.4908130501226795
0.7769612 0.7989985161781512 -0.49855577307376575
0.7789611 0.7945667857455795 -0.5065215917867175
0.780961 0.789270503732366 -0.5136807408240445
0.7829609 0.7841243302249609 -0.5215662218426272
0.7849608 0.7792373952300665 -0.5286244878370151
0.7869607 0.7736928407463002 -0.5363961447219963
0.7889606 0.7687112954073614 -0.5435946549967854
0.7909605 0.7630913446524353 -0.5507007561889095
0.7929604 0.7573205562313279 -0.5580666728173912
0.7949603 0.7517834519285976 -0.565247639872355
0.7969602 0.7461521745133771 -0.5720600732965215
0.7989601 0.7407015898591524 -0.5792891815304806
0.80096 0.7347348441574327 -0.5861051485275957
0.8029599 0.729009865223776 -0.5930859762407938
0.8049598 0.7227348652278763 -0.6001258507840823
0.8069597 0.7168017862441314 -0.6069880331416937
0.8089596 0.7105248315318119 -0.6138415904764978
0.8109595 0.7043751697282904 -0.6207270513710299
0.8129594 0.6983164266860814 -0.6278930218187491
0.8149593 0.6920078084586995 -0.634432166101715
