! Created with skrf 1.8.0 (http://scikit-rf.org).
# GHz S RI R 50.0 
!freq ReS11 ImS11
0.001 -0.9433085713083754 0.005590419197136464
0.0029999 -0.9429376061691223 0.013167597693588676
0.0049998 -0.942037224598447 0.020639256743702025
0.0069997 -0.9412113155977345 0.02827696829371508
0.0089996 -0.9404575582043082 0.03599209171338931
0.0109995 -0.9399493606798337 0.04346137414016055
0.0129994 -0.9391403103963929 0.051000541227077076
0.0149993 -0.938331525631441 0.05834713688509804
0.0169992 -0.9375992690291962 0.06563481454871245
0.0189991 -0.9366002167817415 0.07305481285765933
0.020999 -0.9358273481457804 0.08036398347824983
0.0229989 -0.9347649076954666 0.08761011816785139
0.0249988 -0.9333535141759832 0.09522444738400489
0.0269987 -0.9327227006601161 0.10255389819235523
0.0289986 -0.931601609709408 0.10967547239860251
0.0309985 -0.9303943084292475 0.11704492259635502
0.0329984 -0.9291354436906434 0.1239871976599886
0.0349983 -0.9279040757589894 0.13162790941672325
0.0369982 -0.926696387676487 0.13906712203185329
0.0389981 -0.9251632161482998 0.14607999798838056
0.040998 -0.9239823601970871 0.1530980756722342
0.0429979 -0.9220779336718031 0.16058412781171322
0.0449978 -0.9209902901570322 0.1672286671262243
0.0469977 -0.9192003080168318 0.17472249088811143
0.0489976 -0.9177366509036511 0.18163207097263437
0.0509975 -0.9158624439880422 0.18884383179796932
0.0529974 -0.9142954923506369 0.19618286909901142
0.0549973 -0.9125335750289937 0.202897102388575
0.0569972 -0.9108406086060002 0.2099050161567923
0.0589971 -0.9089064652339123 0.2168782828078749
0.060997 -0.9069365605874051 0.2236987712038277
0.0629969 -0.9050288673119959 0.2306935540053349
0.0649968 -0.9031377044294572 0.2375401065777305
0.0669967 -0.9012032045138636 0.244371139593515
0.0689966 -0.8988679430690083 0.25133954829602556
0.0709965 -0.8966983397180389 0.25821474850390286
0.0729964 -0.8947675057429787 0.26511633110334604
0.0749963 -0.8924433824618173 0.27173182834837123
0.0769962 -0.8896738538408401 0.2787247247600359
0.0789961 -0.88732555980225 0.2854281304144332
0.080996 -0.8850986263621771 0.2922457442998785
0.0829959 -0.8825858985659117 0.29904614087841314
0.0849958 -0.8799219314228178 0.30539602137896527
0.0869957 -0.8772841695831997 0.3122467185404892
0.0889956 -0.8745566427417665 0.31908597672645833
0.0909955 -0.8719671021953163 0.32572744871305254
0.0929954 -0.8690848490681308 0.33204876218176405
0.0949953 -0.8664303715786533 0.33884428819083456
0.0969952 -0.8637803360432513 0.3452203695709525
0.0989951 -0.8606867540578852 0.3519628587454462
0.100995 -0.8576013875329987 0.35850237371078375
0.1029949 -0.8547145638117164 0.3650066557477084
0.1049948 -0.8517711877102585 0.37143367006679867
0.1069947 -0.8484085511632975 0.37812945655804947
0.1089946 -0.8455620804162192 0.3846647512708684
0.1109945 -0.8424727136640926 0.39122374264330334
0.1129944 -0.8390962079591335 0.39745253228915933
0.1149943 -0.836062857420806 0.4039801620885151
0.1169942 -0.832813078358247 0.41045525537297456
0.1189941 -0.8296075211822582 0.41687957607943893
0.120994 -0.8260871095497389 0.4230946776187759
0.1229939 -0.8228701101254671 0.4293206887190597
0.1249938 -0.819680600215322 0.43585014096967517
0.1269937 -0.8162078817622166 0.4419858321370592
0.1289936 -0.8129230977172482 0.4479877275835084
0.1309935 -0.8090826461697391 0.45413824399006286
0.1329934 -0.8055460465973519 0.4602977948921889
0.1349933 -0.802133528838016 0.4663074148461656
0.1369932 -0.7983583286867733 0.472464812208947
0.1389931 -0.7948408209277003 0.4785273669393123
0.140993 -0.7909692525536552 0.48439481309548826
0.1429929 -0.7875187196766211 0.49044414191705926
0.1449928 -0.7833782076439079 0.4961278260785307
0.1469927 -0.779432298672373 0.5022410197269415
0.1489926 -0.7753945239879244 0.5078937502293782
0.1509925 -0.771536251042107 0.5135379813917471
0.1529924 -0.7673175689050937 0.5190077824848027
0.1549923 -0.7628257049409664 0.5248458857420836
0.1569922 -0.7586181578003174 0.5304270443056386
0.1589921 -0.754652728074586 0.5363494968811163
0.160992 -0.7500097279222121 0.5420575374794288
0.1629919 -0.7458761396617148 0.5478825074644649
0.1649918 -0.741318953685845 0.5532244513599095
0.1669917 -0.7367286109388862 0.5587125552252862
0.1689916 -0.7325366902568771 0.5645063738384335
0.1709915 -0.7279565258934059 0.5700318645446371
0.1729914 -0.7229142465120951 0.5753821596518786
0.1749913 -0.7184706754909124 0.5809551052487794
0.1769912 -0.7136286382682864 0.5863576482367716
0.1789911 -0.7090294188206413 0.5921731907766229
0.180991 -0.7040268960532268 0.5976477577000906
0.1829909 -0.6995849320364805 0.6028420510151875
0.1849908 -0.6948001295550688 0.6084541846600912
0.1869907 -0.6903001849952952 0.614156481337764
0.1889906 -0.6845820190644808 0.6194729239038027
0.1909905 -0.6795514009611762 0.625025694061189
0.1929904 -0.6749927424735997 0.6303805295034306
0.1949903 -0.6701588486713603 0.6355970744998144
0.1969902 -0.6655653884313756 0.6408938977747091
0.1989901 -0.6606534335086504 0.6461100422589173
0.20099 -0.6558959138708462 0.6511648883048529
0.2029899 -0.6506325606529909 0.6563285370372305
0.2049898 -0.6450374973067399 0.6610713705282357
0.2069897 -0.6400930751104431 0.6660847961531134
0.2089896 -0.6349278377015395 0.6710991511012718
0.2109895 -0.6299148322756043 0.6757282196349467
0.2129894 -0.6247454746891589 0.6808083781319745
0.2149893 -0.6195131886524425 0.6855786245810633
0.2169892 -0.614145096941929 0.6902293726336671
0.2189891 -0.6088144630833945 0.695004510517306
0.220989 -0.603490991343083 0.6994701947554234
0.2229889 -0.5980561044305128 0.7039974737483589
0.2249888 -0.5925149213942073 0.7086124372065271
0.2269887 -0.5869620368833897 0.713126115936545
0.2289886 -0.5813738503510711 0.7173754807618827
0.2309885 -0.5757000579005069 0.7215837645278329
0.2329884 -0.5700837667711163 0.7259412466098412
0.2349883 -0.564457915939026 0.730302427677918
0.2369882 -0.5585874776529486 0.7345256222523044
0.2389881 -0.5526507193698768 0.7387352992710443
0.240988 -0.5468575056155419 0.7427553432959835
0.2429879 -0.5406918491191162 0.746863750275391
0.2449878 -0.5347627001599863 0.7509373679869231
0.2469877 -0.5289993242082257 0.7548546947530229
0.2489876 -0.5225915172252471 0.7593103722599119
0.2509875 -0.5166138295503184 0.7630523074229512
0.2529874 -0.5103024368955644 0.7672520113345778
0.2549873 -0.5040807479171341 0.7711370406751009
0.2569872 -0.49803645159484516 0.7753527458491912
0.2589871 -0.4916493958301224 0.7792523049904091
0.260987 -0.48540227668259717 0.7832308384465424
0.2629869 -0.4791495365164626 0.7869438939705619
0.2649868 -0.4732282386084576 0.7907008466995502
0.2669867 -0.4664855258042866 0.7946360917588788
0.2689866 -0.4605356061112169 0.7984578290189907
0.2709865 -0.45414395968779253 0.8018961079961228
0.2729864 -0.44724399236637535 0.8056412177988859
0.2749863 -0.44127440853482536 0.8092994813560906
0.2769862 -0.4347973863212224 0.8130176015919396
0.2789861 -0.4283340530479706 0.8162118622319832
0.280986 -0.4219035487751518 0.8199236419344424
0.2829859 -0.41550807969338993 0.8230526116169309
0.2849858 -0.40930746945028584 0.8266909847176404
0.2869857 -0.40261573623186486 0.8295596695903208
0.2889856 -0.39622103816187604 0.8328638470962215
0.2909855 -0.3896681822818055 0.836392797118568
0.2929854 -0.38304531075702336 0.839349862842742
0.2949853 -0.3768087160337418 0.8420186686302848
0.2969852 -0.3698414742381116 0.8450123566377972
0.2989851 -0.3629911537647241 0.8476224682860071
0.300985 -0.3559725127633812 0.8503856770138589
0.3029849 -0.34957298068514064 0.853144137856566
0.3049848 -0.3427424015922678 0.8560261605297316
0.3069847 -0.3357835236622139 0.8580800247256931
0.3089846 -0.3290474045060876 0.8604998473792584
0.3109845 -0.322099422329212 0.8632468675385124
0.3129844 -0.3152005198847356 0.8654036000181693
0.3149843 -0.3080335056823628 0.867857150020369
0.3169842 -0.30102716149321773 0.8702213544898776
0.3189841 -0.29395845346450084 0.8726714683391233
0.320984 -0.2865577134876918 0.875196900696182
0.3229839 -0.2793675708256475 0.8773796852044338
0.3249838 -0.2723669746311843 0.8798266215539339
0.3269837 -0.26507155009262956 0.8819479727605345
0.3289836 -0.25753623724831637 0.8837184927730463
0.3309835 -0.25040864226829546 0.885678087538805
0.3329834 -0.24309713851690704 0.8883366554029304
0.3349833 -0.23623629140991909 0.8897497713593874
0.3369832 -0.22896080047718795 0.891877008496663
0.3389831 -0.2218965161254229 0.8938277264340341
0.340983 -0.2141780305010906 0.8957380960671324
0.3429829 -0.2069528591253628 0.8974569469571825
0.3449828 -0.19942894226281196 0.899582986379687
0.3469827 -0.19218665560657636 0.9011851750732501
0.3489826 -0.18515638903922302 0.902970010991717
0.3509825 -0.1774127039788087 0.9045086046930799
0.3529824 -0.170126943929003 0.9064438669942542
0.3549823 -0.16297116132237918 0.9072355654405204
0.3569822 -0.15548689459480802 0.908821469572663
0.3589821 -0.14786208874230916 0.9100991489442181
0.360982 -0.14073199393495373 0.9115924759905358
0.3629819 -0.13303460948728196 0.9125757613893833
0.3649818 -0.12596093126651403 0.9135986343914577
0.3669817 -0.11845551712686946 0.9150701352278247
0.3689816 -0.11089587334923919 0.9158623331784106
0.3709815 -0.10380942865465989 0.9163883283230555
0.3729814 -0.09651741548140236 0.9177077534360013
0.3749813 -0.08892204664651131 0.9182118581688711
0.3769812 -0.08136713993435597 0.9193456932922162
0.3789811 -0.07410916218784182 0.9201171240184871
0.380981 -0.06668864511878306 0.9204122184714129
0.3829809 -0.05923750133746621 0.9207237931566561
0.3849808 -0.051386362289807724 0.9214856240746842
0.3869807 -0.04391557173498616 0.9217919287946617
0.3889806 -0.036703043427885385 0.9218308468197896
0.3909805 -0.02872999064108493 0.9221795353925735
0.3929804 -0.021641156737030407 0.9221087016939763
0.3949803 -0.013899718350718918 0.9224126296443256
0.3969802 -0.005698417708110377 0.9220707600301292
0.3989801 0.0018752977402803697 0.9221674118970415
0.40098 0.009845436583032954 0.922109221929016
0.4029799 0.017267508187620212 0.9219225942248404
0.4049798 0.025243642879617296 0.9220567570779283
0.4069797 0.03312208348092548 0.92165195716026
0.4089796 0.04077942961927829 0.9214532518223125
0.4109795 0.04868088459160149 0.9211729998921016
0.4129794 0.056171744044021955 0.9210008150455753
0.4149793 0.064190927507725 0.920265935836002
0.4169792 0.07203389099868308 0.9201361234502651
0.4189791 0.07957848149348709 0.9191623234676404
0.420979 0.08742581489782307 0.918624652002534
0.4229789 0.09511593629276928 0.9180361805930729
0.4249788 0.10293822029773207 0.9170224058855404
0.4269787 0.11044619049790762 0.9162866465042834
0.4289786 0.11831514393050761 0.9157209962120673
0.4309785 0.12574611175429506 0.9148991136390509
0.4329784 0.13356001467619785 0.9139341526183554
0.4349783 0.14122964625054457 0.9128827263689642
0.4369782 0.1491987577607533 0.9114663569679103
0.4389781 0.15696359333716592 0.9100995066514291
0.440978 0.1646233443998936 0.9093564668086396
0.4429779 0.1721561635441477 0.907713711206246
0.4449778 0.179772480258753 0.9063541074446488
0.4469777 0.18731617753732901 0.9048952791458185
0.4489776 0.1948070804436445 0.903231301397398
0.4509775 0.2024155076714064 0.9016279656594115
0.4529774 0.2102705906550761 0.8999039036932801
0.4549773 0.21741151299541966 0.8983616645743715
0.4569772 0.2256770901886697 0.8965818125374396
0.4589771 0.23299099212321747 0.8944910312778396
0.460977 0.24100172958148203 0.892575871794452
0.4629769 0.24846848795746157 0.8902046525105723
0.4649768 0.25606887643561477 0.8881716825431617
0.4669767 0.26370493553651836 0.8857560360687986
0.4689766 0.27162151727421113 0.8837077873407342
0.4709765 0.2789125866450624 0.8811051391306344
0.4729764 0.2865082098869942 0.879373519183288
0.4749763 0.2941460245719418 0.8767430283653418
0.4769762 0.3015923087495498 0.8744138354349239
0.4789761 0.3093329446483382 0.8719038315195481
0.480976 0.31701688376111825 0.8692325271586243
0.4829759 0.3244059040785792 0.8666583642979171
0.4849758 0.3316723043525499 0.8642478006011222
0.4869757 0.3392643158476043 0.8610203296095232
0.4889756 0.3469033095862046 0.8584770447366111
0.4909755 0.3545639128056639 0.8558380319284565
0.4929754 0.3616875393551522 0.8526030752607815
0.4949753 0.36902539629852027 0.8498124176348598
0.4969752 0.37644034274669513 0.8464545146544026
0.4989751 0.38388967849056604 0.8437684424512109
0.500975 0.3908828561255686 0.8407487231595562
0.5029749 0.39800379390936336 0.8370936067353656
0.5049748 0.4052265053140657 0.8340384204865048
0.5069747 0.4119342478918941 0.8307861407204447
0.5089746 0.41902697717735143 0.8274322161560222
0.5109745 0.4262427752570653 0.8234625411263066
0.5129744 0.4334682500009689 0.8198809884984806
0.5149743 0.440686199951494 0.8164636871183731
0.5169742 0.44748430067940903 0.8124730391875563
0.5189741 0.454454719988903 0.808685900798129
0.520974 0.4614723021568273 0.8045521377971365
0.5229739 0.46811745190851956 0.8003677423715214
0.5249738 0.47528309855135015 0.7964362187196908
0.5269737 0.4818567782538212 0.7922394472412697
0.5289736 0.488678034079225 0.7879171259421955
0.5309735 0.4959097594286927 0.783369132509017
0.5329734 0.5021897473873733 0.7792758074828934
0.5349733 0.5090549775498631 0.7743124057745548
0.5369732 0.5160301196618389 0.7697357033537482
0.5389731 0.5224540727634254 0.7654315993286381
0.540973 0.5297292799042653 0.7606814603844954
0.5429729 0.5363719162227334 0.7561971063893821
0.5449728 0.5431311431192695 0.7513939606874235
0.5469727 0.5501552024730771 0.7465860300639231
0.5489726 0.5565834878280398 0.7418216486041797
0.5509725 0.5627118670394927 0.7367830151150297
0.5529724 0.5696296836473458 0.7317153230201723
0.5549723 0.5760797508310735 0.7267506751284182
0.5569722 0.5827945213074129 0.7216580053874065
0.5589721 0.589266544428725 0.7165666421011666
0.560972 0.5958230443738882 0.7115983914962904
0.5629719 0.6027076146091317 0.7063801785891654
0.5649718 0.6087463633182603 0.701811646294327
0.5669717 0.6151877929686563 0.6965395455289276
0.5689716 0.6214588524719966 0.6910584947879547
0.5709715 0.6276298635971219 0.6857758585670923
0.5729714 0.6337370317058589 0.6798878513260248
0.5749713 0.6397465215047032 0.6748286205974359
0.5769712 0.6455532361058024 0.6693212971785223
0.5789711 0.6516911260553494 0.6639800677706427
0.580971 0.6575514659033328 0.6585843246194855
0.5829709 0.6632771573906489 0.652964919860031
0.5849708 0.6686145059432043 0.6471626322265059
0.5869707 0.6742912481775881 0.6413457680120526
0.5889706 0.6797499516243948 0.635428841845492
0.5909705 0.685432584510171 0.6296084292971592
0.5929704 0.6911151784208655 0.6231708029842791
0.5949703 0.6962149805537825 0.6174172007772271
0.5969702 0.7017018650031286 0.6111384694291793
0.5989701 0.7073388860280504 0.6045371462520176
0.60097 0.7119978322117928 0.5982922411321239
0.6029699 0.7177668732398385 0.5915470014438027
0.6049698 0.7227178361174179 0.5855483441425788
0.6069697 0.7277475395424323 0.5788429293715658
0.6089696 0.7333574447371345 0.5725019445945945
0.6109695 0.7378679376567998 0.5655245030181051
0.6129694 0.7430625478576445 0.5592226919767863
0.6149693 0.7480429996830175 0.5529635681909576
0.6169692 0.7534578429552086 0.5462278550292637
0.6189691 0.7583585765824148 0.5390100926813639
0.620969 0.7631084450110582 0.5323343097514951
0.6229689 0.7677778488827601 0.5253028243162428
0.6249688 0.7727226730442108 0.518477942996378
0.6269687 0.7775088106530184 0.5115808010206748
0.6289686 0.7822994575995547 0.5048565676420635
0.6309685 0.7865773549981172 0.49765807263689066
0.6329684 0.7910521967684049 0.4906787680299409
0.6349683 0.7960407151278522 0.4837160818488828
0.6369682 0.8000226328679423 0.4765743817383621
0.6389681 0.8045935056774196 0.4696290592649689
0.640968 0.8093356228499284 0.46264103428068626
0.6429679 0.8129834166627656 0.4554999334737069
0.6449678 0.8171021932162806 0.4486999332650138
0.6469677 0.8213906473608582 0.4410719902410679
0.6489676 0.8251886439531939 0.43448138205776843
0.6509675 0.8291014704025657 0.4271332065588728
0.6529674 0.8332943102746151 0.4193058067694888
0.6549673 0.8369222731942292 0.41257881135738467
0.6569672 0.8403050407905589 0.40487840480427595
0.6589671 0.8438905759648994 0.3974635314099171
0.660967 0.847031166287451 0.39017431541961556
0.6629669 0.8507527829556097 0.3824617713126603
0.6649668 0.8539794519388373 0.37504734972773945
0.6669667 0.8570544511594625 0.3669949129209478
0.6689666 0.8603190328493515 0.36010141313434013
0.6709665 0.8627360387884881 0.3519173199008301
0.6729664 0.8665430383047583 0.3441695835195957
0.6749663 0.8697802851305982 0.3365479138047345
0.6769662 0.8726044158570175 0.32883612838822274
0.6789661 0.8754301776082639 0.32077140886416505
0.680966 0.8785507949153316 0.3131201714112904
0.6829659 0.8811153215046782 0.30521858023066956
0.6849658 0.8837775972851897 0.29704192594068224
0.6869657 0.8863228351294611 0.2891284839362529
0.6889656 0.8889508677695074 0.2809106832518542
0.6909655 0.8916605575286816 0.27302212251425495
0.6929654 0.8938355236627286 0.26481982495846484
0.6949653 0.8961778233745523 0.25686967879922246
0.6969652 0.8984893494201686 0.2486982204962566
0.6989651 0.9006800204699572 0.24064679007610926
0.700965 0.9029801714673836 0.23251889245333668
0.7029649 0.9050605325323251 0.2246104632931408
0.7049648 0.9072218008263385 0.21636145397422887
0.7069647 0.9091724069238396 0.20818538363413128
0.7089646 0.9111408483328103 0.20004548712073406
0.7109645 0.9130723133646987 0.19188030572474574
0.7129644 0.9148108679763721 0.18372158111756973
0.7149643 0.9164603736213728 0.17584725207206298
0.7169642 0.918128797188086 0.16733496089353023
0.7189641 0.9198325618276104 0.1591673962173838
0.720964 0.9211075044602975 0.15109843428462183
0.7229639 0.9223515708710429 0.14332258851312243
0.7249638 0.923963464254438 0.1348900896911979
0.7269637 0.9252320769775487 0.1265895691238098
0.7289636 0.925778348532207 0.11859737635316624
0.7309635 0.9272299689772011 0.11021386904660782
0.7329634 0.928362233714304 0.10186505151148922
0.7349633 0.9289428385869736 0.09411351502900075
0.7369632 0.9300793657146014 0.0851603933451429
0.7389631 0.9306974111364371 0.07746597040023445
0.740963 0.9311605127583957 0.06905167514116263
0.7429629 0.9317347182654779 0.06052995890746035
0.7449628 0.9322318544319262 0.05266240499452441
0.7469627 0.9327951885829763 0.044184747635334205
0.7489626 0.932982112735284 0.035512383001555514
0.7509625 0.9332760007266769 0.027496499136014332
0.7529624 0.9336531580660533 0.01919045181461726
0.7549623 0.9337080521039984 0.01093562417948822
0.7569622 0.9333667318122716 0.002238468767759773
0.7589621 0.9335685517615745 -0.005724836111374462
0.760962 0.9335800396119667 -0.01428342220467499
0.7629619 0.9332753469991133 -0.02265387866468769
0.7649618 0.9331838265920865 -0.03087245845814706
0.7669617 0.933078170061701 -0.03878207042589725
0.7689616 0.932494951389546 -0.04702565482190102
0.7709615 0.9320927080308332 -0.05579260213063182
0.7729614 0.9316949869310693 -0.06389173624361168
0.7749613 0.930902143668042 -0.07224797404254392
0.7769612 0.9302446641228457 -0.08037598550266623
0.7789611 0.9301466412841648 -0.08874234942037265
0.780961 0.9288496538267835 -0.096971045543984
0.7829609 0.9283313379731315 -0.10518795089709482
0.7849608 0.9270066277657246 -0.11310543352623761
0.7869607 0.9261592972927056 -0.12148884566341833
0.7889606 0.9249457078901991 -0.129458351949583
0.7909605 0.9237458935186543 -0.1378318464811572
0.7929604 0.922293903985167 -0.1455708161580147
0.7949603 0.9208662516644426 -0.15406854808454123
0.7969602 0.9194349266055334 -0.16185629646415367
0.7989601 0.9181180934623808 -0.17005776643158804
0.80096 0.9164951817615098 -0.17799094360903728
0.8029599 0.9146938647804537 -0.18611952838757384
0.8049598 0.9131166059240566 -0.19410819122070072
0.8069597 0.9114558539791326 -0.20245659005586047
0.8089596 0.9090288413937809 -0.2107502149961183
0.8109595 0.9072879419449684 -0.21796600799320853
0.8129594 0.9054202505854528 -0.2265941009684249
0.8149593 0.9030825690461068 -0.23445713108250077
