! Created with skrf 1.8.0 (http://scikit-rf.org).
# GHz S RI R 50.0 
!freq ReS11 ImS11
0.001 -0.9433337920697453 0.0047697380964953715
0.0029999 -0.9429783319093937 0.01077380261882531
0.0049998 -0.9421719494247656 0.016935976125409744
0.0069997 -0.9412674154010549 0.022790546278101766
0.0089996 -0.9408883386665239 0.028873440307228923
0.0109995 -0.9405116845846868 0.034910239579237515
0.0129994 -0.939867185063905 0.04117206128686267
0.0149993 -0.9392907044371585 0.0470374031596887
0.0169992 -0.9387854048827134 0.05280312737058179
0.0189991 -0.9378127623287901 0.05883406089544199
0.020999 -0.9373481539502959 0.0645990339809519
0.0229989 -0.936570671582513 0.07045108417499088
0.0249988 -0.935477631175194 0.07636745327052522
0.0269987 -0.9351945768076145 0.08229534168173608
0.0289986 -0.9342208080845394 0.08803046115522623
0.0309985 -0.9333905460353862 0.09379191945016746
0.0329984 -0.9324230537093655 0.09959845300603222
0.0349983 -0.9316011319117726 0.10576303178068264
0.0369982 -0.9306074438654606 0.1115948836908823
0.0389981 -0.9296382477340303 0.11744073065759422
0.040998 -0.9291250597101698 0.1227779500300468
0.0429979 -0.927687509750581 0.12870252601932308
0.0449978 -0.9267848461796084 0.1342530897913154
0.0469977 -0.9255743402949548 0.1402130513658466
0.0489976 -0.9245638309976018 0.14588910720261788
0.0509975 -0.9232638088782661 0.15165358197557055
0.0529974 -0.9223652688189926 0.15739547933007073
0.0549973 -0.9210207830511914 0.16305909017020573
0.0569972 -0.9197964485348251 0.16860100890919344
0.0589971 -0.9184446695530123 0.17405462157704527
0.060997 -0.9171150356926697 0.1797382725512023
0.0629969 -0.915945884845654 0.18517052883552515
0.0649968 -0.9144684548636198 0.19066871218720444
0.0669967 -0.913346514561994 0.19631756759881375
0.0689966 -0.9117046336477151 0.20190686377015982
0.0709965 -0.9101729521828563 0.2073440171417629
0.0729964 -0.9090671033936019 0.21300964741472184
0.0749963 -0.9074158735371983 0.21825717366323988
0.0769962 -0.9053989419251639 0.22368809957495514
0.0789961 -0.9038784449620273 0.22941242258176686
0.080996 -0.9022866544152652 0.23476017068721666
0.0829959 -0.9009250589423077 0.24024050062379054
0.0849958 -0.8987500837430353 0.24566720502044842
0.0869957 -0.8972051263741669 0.2509539109095735
0.0889956 -0.8953800555721391 0.256401300684217
0.0909955 -0.8935268109262721 0.2619036130847608
0.0929954 -0.8915959346385811 0.26736339444559265
0.0949953 -0.890173282957883 0.27214122619071385
0.0969952 -0.8880114015021594 0.2778875699537936
0.0989951 -0.8860945932154249 0.28320926602527746
0.100995 -0.8839775311581606 0.28877847600076667
0.1029949 -0.8818658416146797 0.29373195923393886
0.1049948 -0.8800329784370704 0.29923494886955976
0.1069947 -0.8779040991769126 0.30459236806740486
0.1089946 -0.8758783577442681 0.3098041347634545
0.1109945 -0.8737786023924896 0.31552878823990027
0.1129944 -0.8717356970096 0.32062923789770864
0.1149943 -0.8697019392479716 0.3259735089599511
0.1169942 -0.8673314384859818 0.33119431050442244
0.1189941 -0.8654521973892123 0.3366235507969044
0.120994 -0.8632219869389173 0.34165775003015914
0.1229939 -0.8610390032391607 0.3467244094512938
0.1249938 -0.8589132577545981 0.3520278851843177
0.1269937 -0.856955984191021 0.35718814467650667
0.1289936 -0.8547432075929271 0.36223014563491385
0.1309935 -0.8519815761327827 0.3672854386592644
0.1329934 -0.849733981076853 0.37211408292528336
0.1349933 -0.8474706352143164 0.3773664870533448
0.1369932 -0.8451268383482782 0.38246927926021257
0.1389931 -0.8429275446666035 0.3876579693097627
0.140993 -0.8403182242768167 0.39232427210088794
0.1429929 -0.8379391249955799 0.3974762988288548
0.1449928 -0.8352363134733589 0.4023544704123494
0.1469927 -0.8326955787526591 0.40716021811504527
0.1489926 -0.8301244872107145 0.41194297065178437
0.1509925 -0.8273273243319867 0.4170046058580774
0.1529924 -0.8245590706799716 0.4217159970893756
0.1549923 -0.8217793129676642 0.42633737289507034
0.1569922 -0.8186863028245753 0.4312029456440725
0.1589921 -0.8162757950842446 0.43633704970555337
0.160992 -0.81291244428865 0.44137547215518047
0.1629919 -0.8105221656274759 0.4461929778647391
0.1649918 -0.8076292687268735 0.45068066565675424
0.1669917 -0.8043271022947681 0.45540391011227793
0.1689916 -0.8015816721518274 0.4601346658394269
0.1709915 -0.7986745257772668 0.465283769475084
0.1729914 -0.7954572219546427 0.46997887694710055
0.1749913 -0.7923328848774386 0.4744845637578005
0.1769912 -0.7891980292957065 0.4792079218262855
0.1789911 -0.7859740043690615 0.4841734957196066
0.180991 -0.7829587452469357 0.488946993456985
0.1829909 -0.7795825174445308 0.4939616507936976
0.1849908 -0.7768106819776518 0.49843926296507446
0.1869907 -0.7737829722921448 0.5035252618541277
0.1889906 -0.7699453109381279 0.5083253219800149
0.1909905 -0.7668195231216417 0.5131693995320887
0.1929904 -0.7637210621926924 0.5179734949928687
0.1949903 -0.7607455425740787 0.5224633138609074
0.1969902 -0.7577366074984915 0.527057417076541
0.1989901 -0.7544419035482157 0.5317361371926561
0.20099 -0.7515102500495978 0.5361180791258728
0.2029899 -0.7480412172807099 0.5408951938971076
0.2049898 -0.7443289830047976 0.545466351657538
0.2069897 -0.7409725035523116 0.5496643431212624
0.2089896 -0.7377744437460135 0.5540271554812498
0.2109895 -0.7344038479698128 0.5585709110391278
0.2129894 -0.73092949120086 0.562884140178401
0.2149893 -0.7276411640483952 0.567412315523446
0.2169892 -0.7243602578712923 0.5714379976795033
0.2189891 -0.7204974418664313 0.5759206679752991
0.220989 -0.7168748648680778 0.5801791184530418
0.2229889 -0.7133709960226235 0.5843983364124159
0.2249888 -0.709798202653411 0.5884777913516542
0.2269887 -0.7063029471951392 0.5928462541520048
0.2289886 -0.7024721953226217 0.5968460845685976
0.2309885 -0.6986940103781216 0.6008032474795978
0.2329884 -0.6948356291922405 0.604989786889208
0.2349883 -0.6912199566771291 0.6092852368931351
0.2369882 -0.6875354995898829 0.6132555149028771
0.2389881 -0.6833021343139607 0.617130865388583
0.240988 -0.6793369357315552 0.6211495061885206
0.2429879 -0.6753236496143603 0.6252323912914741
0.2449878 -0.671340781193389 0.6289972558993945
0.2469877 -0.6673897789033286 0.6328551768799944
0.2489876 -0.6632092019517211 0.6374320510425999
0.2509875 -0.659048872737969 0.6409064537789959
0.2529874 -0.654936111014261 0.6451833049524857
0.2549873 -0.6510163152710484 0.6491915496428272
0.2569872 -0.6467353568167498 0.6532461736718173
0.2589871 -0.642626526329552 0.6572698779047358
0.260987 -0.6383040040522002 0.6613528851343514
0.2629869 -0.6343222556195934 0.6651535448581912
0.2649868 -0.6302784835249658 0.6691563790931813
0.2669867 -0.6260009199498429 0.6730929488955285
0.2689866 -0.6217143236236018 0.67677051004269
0.2709865 -0.6176932503925803 0.6807024928708675
0.2729864 -0.6134472502923701 0.6846161548883375
0.2749863 -0.6091946495219001 0.6882207483238825
0.2769862 -0.6047708913197498 0.6923585835062784
0.2789861 -0.6004959179825433 0.6956886515460575
0.280986 -0.5963015695694989 0.6995983474171915
0.2829859 -0.5920878944097491 0.7033428450735735
0.2849858 -0.5875165605693481 0.706814683008369
0.2869857 -0.5835634483013288 0.7105876017690823
0.2889856 -0.5790138556856581 0.7139572981846839
0.2909855 -0.5745545954050275 0.7175443341990525
0.2929854 -0.5703615518190706 0.7210129382615874
0.2949853 -0.5659448770918343 0.7243701804419457
0.2969852 -0.5611932324251817 0.7277863360558096
0.2989851 -0.5568218451952862 0.7310972982367784
0.300985 -0.5519896553947704 0.7341968032972256
0.3029849 -0.5476024461123459 0.7374133311025861
0.3049848 -0.5433419424759471 0.7406888891691248
0.3069847 -0.538196198849335 0.74371810329279
0.3089846 -0.5334456935783078 0.7469945656679877
0.3109845 -0.5285984142860128 0.7500827628443707
0.3129844 -0.5239564939486283 0.7527280478995261
0.3149843 -0.5190778648743016 0.7562093895745235
0.3169842 -0.5141362655592823 0.7594107861295628
0.3189841 -0.5094555047125883 0.7625135202771617
0.320984 -0.5045840344819958 0.7658049072625072
0.3229839 -0.49973475953802654 0.7688761131520302
0.3249838 -0.49466260027312314 0.7720497239543124
0.3269837 -0.4896612844099978 0.7749669550904803
0.3289836 -0.4845361482467621 0.7779058908920286
0.3309835 -0.4793490076363853 0.7811490839773038
0.3329834 -0.4747190047455882 0.7842051386714423
0.3349833 -0.46979607486339425 0.7864650593458187
0.3369832 -0.4644627737357535 0.7897361611136421
0.3389831 -0.4602122698424865 0.7926592039928393
0.340983 -0.4544733373235771 0.7957030159843317
0.3429829 -0.44950791464925355 0.7987019758853713
0.3449828 -0.4443747571455878 0.8013430693365393
0.3469827 -0.43947127893280613 0.8044151061549416
0.3489826 -0.43432168258272114 0.807387644057447
0.3509825 -0.4290237075887236 0.8100847374135708
0.3529824 -0.4241086538498777 0.812878736935234
0.3549823 -0.4190099665024332 0.815595185894341
0.3569822 -0.41405198334903154 0.8182460066069677
0.3589821 -0.4083474959009405 0.8208649559812533
0.360982 -0.40367386068988603 0.8231047322038713
0.3629819 -0.3981545293060528 0.8258860696403787
0.3649818 -0.39314548752057005 0.8283612944199461
0.3669817 -0.38784880286664897 0.8310838616587279
0.3689816 -0.3827691036937397 0.8332448273134279
0.3709815 -0.37748622400818493 0.835533398586079
0.3729814 -0.3722380613462602 0.8382072421842677
0.3749813 -0.36715251509079116 0.8405071575565114
0.3769812 -0.36172774797477536 0.8426136834257609
0.3789811 -0.35648158213268155 0.8451219041578871
0.380981 -0.351025324033466 0.8467143418929456
0.3829809 -0.34598908499075975 0.8487898367322156
0.3849808 -0.3403972471317433 0.8510348126911409
0.3869807 -0.334989805336975 0.8534076306440608
0.3889806 -0.32963580023636185 0.8553642083051429
0.3909805 -0.32408250975690833 0.857230761119723
0.3929804 -0.31867086254346655 0.8588734078787026
0.3949803 -0.31330185599764837 0.8608268990671615
0.3969802 -0.3070775306583024 0.8625946381187581
0.3989801 -0.3020622023268069 0.8646532579085704
0.40098 -0.29606154022612524 0.8666066156730897
0.4029799 -0.2904129853281571 0.8679264536230995
0.4049798 -0.28468841073956536 0.8697591157685238
0.4069797 -0.27882761833856906 0.8718684905345144
0.4089796 -0.27287170564859264 0.8737914456946343
0.4109795 -0.2674956710845662 0.8755261979945375
0.4129794 -0.2617651193459068 0.877335004050186
0.4149793 -0.2559445063028894 0.8787003385530648
0.4169792 -0.25018310199094185 0.8806286149581428
0.4189791 -0.24449023199663522 0.8822657884790772
0.420979 -0.2388873058164535 0.8838447970552086
0.4229789 -0.23307729524719312 0.8849874661321198
0.4249788 -0.22739173884064923 0.8868475904766475
0.4269787 -0.22153021353768837 0.8882494553578734
0.4289786 -0.215674248537491 0.8896421736907029
0.4309785 -0.20994346275798795 0.8909858909150346
0.4329784 -0.2042240580513455 0.8925778056628781
0.4349783 -0.198560292166841 0.8938825634931236
0.4369782 -0.19259760402091747 0.8952454409340802
0.4389781 -0.18656512038451664 0.8967107411567917
0.440978 -0.18090729248185752 0.8978570209187144
0.4429779 -0.1751162254221557 0.8988794857861071
0.4449778 -0.16943938377996037 0.9000211107655649
0.4469777 -0.16334035642854572 0.90094970208724
0.4489776 -0.1575597471414977 0.9019271353371546
0.4509775 -0.15186649055310542 0.9028359042485848
0.4529774 -0.14587825320380463 0.9039456462753119
0.4549773 -0.1399559578481246 0.9050997973375642
0.4569772 -0.13447140412120606 0.9060080733671972
0.4589771 -0.12813751526431458 0.9067827891915669
0.460977 -0.12179247158090505 0.9074753951327095
0.4629769 -0.1160016824247498 0.908119401602508
0.4649768 -0.11004569660221308 0.9091539427010975
0.4669767 -0.10382822819441323 0.9094432374785281
0.4689766 -0.0977765471457964 0.9098967002939635
0.4709765 -0.09165620441208314 0.9105709443033643
0.4729764 -0.08581565251324946 0.9115100750639081
0.4749763 -0.0794201429288492 0.9119092650510662
0.4769762 -0.07364722382571513 0.9123360912239203
0.4789761 -0.06748712088344604 0.91314702742893
0.480976 -0.0613768747429079 0.9134897542324091
0.4829759 -0.05515428701719241 0.9138263931913276
0.4849758 -0.04943301418997427 0.9145763805844842
0.4869757 -0.04298037453956868 0.914668707810089
0.4889756 -0.03723774924799425 0.915352587226228
0.4909755 -0.031093859478822004 0.915882350739265
0.4929754 -0.024870407982607406 0.9159788103527595
0.4949753 -0.018921734621409073 0.9159746268261044
0.4969752 -0.012617642484508765 0.9161379304010696
0.4989751 -0.006818058909477613 0.9167982097637803
0.500975 -0.0010079845362050213 0.916944813367538
0.5029749 0.005073327915958575 0.9169449424291732
0.5049748 0.011022395752710044 0.9168601774883397
0.5069747 0.017053145090049585 0.9166484309495027
0.5089746 0.022734095182391126 0.9164374216588574
0.5109745 0.029245719870831834 0.9163474166778166
0.5129744 0.03513158035998988 0.9159673915759152
0.5149743 0.04145437223622233 0.9155538201233603
0.5169742 0.047327984984397144 0.9152253477658757
0.5189741 0.05332370086927262 0.9150758439095353
0.520974 0.059563791264657294 0.9148265829243414
0.5229739 0.06554739070943587 0.9136798083642449
0.5249738 0.07159384585890607 0.9136742029663245
0.5269737 0.07778115454882828 0.9127375007574228
0.5289736 0.08346888864198357 0.911794123031589
0.5309735 0.09017706373577819 0.9112644214390427
0.5329734 0.09621356752337613 0.9103104824341698
0.5349733 0.10211013818492046 0.9094105441637615
0.5369732 0.10883230428515334 0.9085253106206834
0.5389731 0.1148694590409666 0.9078708817119608
0.540973 0.12149240766805493 0.9069063262542282
0.5429729 0.12771688053328048 0.905842701827437
0.5449728 0.13385425804548826 0.9050090251831258
0.5469727 0.1403277390861837 0.9041769802061718
0.5489726 0.14662952504249832 0.9027621102938133
0.5509725 0.15268439132472175 0.9023417924630005
0.5529724 0.1589809561598289 0.9012982656072731
0.5549723 0.165514642058986 0.9000304595639559
0.5569722 0.17143889239843965 0.898877391637453
0.5589721 0.1777891733034476 0.8977859331450765
0.560972 0.1842828640178841 0.8967319310018543
0.5629719 0.1907946628371057 0.8958421395641636
0.5649718 0.19687632136084057 0.8951273448586009
0.5669717 0.20306771634467544 0.8939312940930624
0.5689716 0.20911004687760285 0.8927231237246798
0.5709715 0.21500538851116635 0.8912294469170052
0.5729714 0.22158138450263154 0.8897894481730033
0.5749713 0.2277453850472052 0.8884940573281336
0.5769712 0.23363452291737838 0.8870929362044793
0.5789711 0.2393509031598174 0.8857088723693554
0.580971 0.24498421059138814 0.8841580458079621
0.5829709 0.2511297451761139 0.8824006614186594
0.5849708 0.25697686326122526 0.8808123360578785
0.5869707 0.26281873813228196 0.8792370368050572
0.5889706 0.2689981703998651 0.8772747262119447
0.5909705 0.2748584924611712 0.8753892563388865
0.5929704 0.2810305870659163 0.8733450077179161
0.5949703 0.2863841613550536 0.87132814026427
0.5969702 0.292611958732605 0.8690981126035838
0.5989701 0.2986790011687911 0.8666481355147768
0.60097 0.30476501462267486 0.8648298938005063
0.6029699 0.3107970993063792 0.862468342681129
0.6049698 0.31642153171513887 0.859926114096708
0.6069697 0.3220839646266688 0.8571875164807935
0.6089696 0.32801927331952513 0.8553398541865813
0.6109695 0.3341764548142186 0.8528121802599301
0.6129694 0.34032966428913614 0.8501030786662285
0.6149693 0.34609175274639215 0.8480420908821746
0.6169692 0.3526236253132756 0.8453746953833018
0.6189691 0.3586432683068865 0.8429524727068941
0.620969 0.3643728087485477 0.8404048498869863
0.6229689 0.370760335505562 0.8376694419076233
0.6249688 0.37670360528333413 0.8350901628608713
0.6269687 0.38264404531741925 0.8321847386223544
0.6289686 0.3884269861582875 0.8297453057087703
0.6309685 0.3943160138323506 0.8268746534699165
0.6329684 0.40018518088377697 0.8240813311555422
0.6349683 0.40653903481722664 0.8219666829733727
0.6369682 0.41220675394957845 0.8189558021646194
0.6389681 0.41802035430908785 0.8158908748624751
0.640968 0.42401174395094765 0.8135806009484907
0.6429679 0.4296675711773163 0.8107518646997334
0.6449678 0.4351871173704174 0.808127147347177
0.6469677 0.44082044634058865 0.8048035247926472
0.6489676 0.4463451645680086 0.8022717597079918
0.6509675 0.45175065081790866 0.7995964961780677
0.6529674 0.4577851135476619 0.7961835761490113
0.6549673 0.46346783393444646 0.7931390140242371
0.6569672 0.4686169919882417 0.789439935124843
0.6589671 0.4740103410603768 0.786358667509709
0.660967 0.4788601807131753 0.7832614767101649
0.6629669 0.484401522364159 0.7799168971523935
0.6649668 0.4896263503377595 0.7763767910836571
0.6669667 0.4948708552329651 0.7723815262256786
0.6689666 0.5000397246894572 0.7691218670229886
0.6709665 0.5053079614406569 0.7654204725983551
0.6729664 0.5103809828222673 0.7616868824731252
0.6749663 0.5161814805529511 0.7582642319296576
0.6769662 0.5214672019435674 0.754155621882437
0.6789661 0.5267233363689218 0.7501604760050277
0.680966 0.5319934635383462 0.7458408738559829
0.6829659 0.5371644402463686 0.7421532535961015
0.6849658 0.5426880825357965 0.738047779980479
0.6869657 0.5481300178485128 0.7344876772363513
0.6889656 0.5531577066025227 0.7299970033136896
0.6909655 0.5583543844468654 0.7258724302781886
0.6929654 0.5638089440872918 0.7214976980839038
0.6949653 0.5687692330251827 0.7173834712363634
0.6969652 0.5743428608931042 0.7130433035522189
0.6989651 0.5797664919893504 0.7088845214351539
0.700965 0.5849782831900486 0.7041321341382065
0.7029649 0.5901155811321781 0.7002064610524017
0.7049648 0.5953605447908826 0.6957789127235552
0.7069647 0.6008970327940457 0.6914906723667085
0.7089646 0.6062531330337295 0.6874421001973368
0.7109645 0.6112555205902077 0.6832839501944883
0.7129644 0.6165857670923436 0.6787980277372788
0.7149643 0.6215201245532703 0.6745996194459508
0.7169642 0.626730700315943 0.6702425479634572
0.7189641 0.6316318497741966 0.6659957075856655
0.720964 0.636200864826927 0.6615204960255391
0.7229639 0.6408170996109049 0.6569984852853348
0.7249638 0.6458376301820804 0.6525495926508571
0.7269637 0.6509051475175207 0.648318257094325
0.7289636 0.6550205642317788 0.6435590424074178
0.7309635 0.6601943934491535 0.6389341452388534
0.7329634 0.6644242633158248 0.6345987563984259
0.7349633 0.6688915200049736 0.6298169371724605
0.7369632 0.6733719567406128 0.6250659009735257
0.7389631 0.6774398135927804 0.6206238774584176
0.740963 0.6814675029482038 0.615130238229235
0.7429629 0.6859958529682579 0.6104415748338651
0.7449628 0.6904832360075142 0.6058779141712164
0.7469627 0.6944295079718745 0.6009050925848038
0.7489626 0.6985362351054873 0.5956461375953589
0.7509625 0.7025364515202829 0.5903299645800523
0.7529624 0.706722736660433 0.5850883687208851
0.7549623 0.7109842934178131 0.5800944864810863
0.7569622 0.7151672898726524 0.5745914370165152
0.7589621 0.7186355657487739 0.5689475309121659
0.760962 0.7228684688088869 0.5639760789146495
0.7629619 0.7272321664913238 0.5581515856471446
0.7649618 0.7309929915276417 0.552920209877469
0.7669617 0.7356684205927244 0.5477060516344691
0.7689616 0.7392876927483216 0.5415901769580672
0.7709615 0.7434667960741859 0.5358756331942494
0.7729614 0.7471793366041064 0.5304567935411061
0.7749613 0.7513222202702305 0.5249525490087865
0.7769612 0.7550987957073644 0.5188259329144951
0.7789611 0.7587093345322227 0.5134107427082548
0.780961 0.7625091270516322 0.5076878502028971
0.7829609 0.7664741150408108 0.502302780254792
0.7849608 0.7704541201932084 0.4964881989841423
0.7869607 0.7743676137230413 0.4911253417412351
0.7889606 0.7779794204894723 0.4851925843169532
0.7909605 0.7818632081127999 0.4798138320167985
0.7929604 0.7852974184024392 0.474153259445457
0.7949603 0.7886393425414816 0.4682326407967756
0.7969602 0.7922236924156445 0.46264080298167826
0.7989601 0.7959476090530576 0.45679617993796257
0.80096 0.799254555758181 0.45099924064566455
0.8029599 0.8025878901572386 0.44535197747794025
0.8049598 0.805952911674391 0.4394948265306424
0.8069597 0.8088145133166317 0.43372260035156884
0.8089596 0.8122219060759169 0.4277186296503092
0.8109595 0.8143329002446601 0.42174808693598176
0.8129594 0.8178634890256267 0.4160711417389059
0.8149593 0.8205472444841265 0.4101978412348112
