! Created with skrf 1.8.0 (http://scikit-rf.org).
# GHz S RI R 50.0 
!freq ReS11 ImS11
0.001 -0.9421683754481133 0.00603243572595237
0.0029999 -0.9417074123455345 0.01489428822409429
0.0049998 -0.9405994922140972 0.02337305571261901
0.0069997 -0.9398453603777348 0.031837058535998365
0.0089996 -0.9389265446771158 0.04046805811421628
0.0109995 -0.9383045504854763 0.04888311928585734
0.0129994 -0.9374699846378287 0.057243715022122055
0.0149993 -0.9364463602548216 0.06595862697065205
0.0169992 -0.9355574813657587 0.07413164847246731
0.0189991 -0.934377227634553 0.08258704153880389
0.020999 -0.9333957984786264 0.09084902248455859
0.0229989 -0.932058013709276 0.0991993102606209
0.0249988 -0.9304732697104816 0.10749127509664777
0.0269987 -0.9295063309596108 0.11583339785415435
0.0289986 -0.9281986239813673 0.1239784081300799
0.0309985 -0.9266497920458495 0.13221881146494488
0.0329984 -0.9251196525253635 0.14032067083978828
0.0349983 -0.9235978957653278 0.14874048649639138
0.0369982 -0.9221057509401411 0.15709682379422535
0.0389981 -0.9203131110365866 0.1650138702700107
0.040998 -0.9188386591284528 0.1727581306858297
0.0429979 -0.9165951213857033 0.18119161238297068
0.0449978 -0.9150795463841344 0.1889410647424599
0.0469977 -0.9129762628362269 0.19751848684742707
0.0489976 -0.9108456024936706 0.20515517512453646
0.0509975 -0.908863418189203 0.2132770411608466
0.0529974 -0.9068857316706836 0.22121269114817219
0.0549973 -0.9046544142079183 0.22886600267645055
0.0569972 -0.9023347302141083 0.2368505666432968
0.0589971 -0.8999890687173906 0.24470732038587886
0.060997 -0.8975242231391509 0.2524570354323916
0.0629969 -0.895175237518464 0.2603628250949711
0.0649968 -0.8926575921136811 0.26793106771172487
0.0669967 -0.8902455892853162 0.2756321768285291
0.0689966 -0.8874748244030699 0.2834375885467478
0.0709965 -0.8846322125123429 0.2912772791201388
0.0729964 -0.8820726105414717 0.2988612060981661
0.0749963 -0.8792051619748767 0.3061744262871945
0.0769962 -0.8758601183639144 0.3140023886824136
0.0789961 -0.8728006018376077 0.3216326519899306
0.080996 -0.869998679452584 0.32911640487335236
0.0829959 -0.8669229135178663 0.3366525716227935
0.0849958 -0.8636815928780409 0.34416327725929685
0.0869957 -0.8603191567159462 0.3513351604236745
0.0889956 -0.8569657461415533 0.3590905333510349
0.0909955 -0.853678767514569 0.36631978054976816
0.0929954 -0.8499524369611547 0.3736899730491779
0.0949953 -0.8466717819354056 0.3811110663868465
0.0969952 -0.843245703398891 0.38850532842073837
0.0989951 -0.8391905776208516 0.3956830381101863
0.100995 -0.8357949344048702 0.4030355305540823
0.1029949 -0.8318181288237737 0.4099943120447066
0.1049948 -0.8281926019035749 0.4175079537016369
0.1069947 -0.8240728521171253 0.4245699456427917
0.1089946 -0.8203286701299494 0.43170397394875754
0.1109945 -0.8161915402462077 0.4392312852802745
0.1129944 -0.8122596633381799 0.44633945599213076
0.1149943 -0.8082130177325324 0.4534877204455384
0.1169942 -0.8039908515165255 0.460638074817314
0.1189941 -0.8001126866775624 0.4673063151470026
0.120994 -0.7958781337608115 0.47417458355602504
0.1229939 -0.7915677398188187 0.4812107333649781
0.1249938 -0.7875352180217459 0.48799729488175553
0.1269937 -0.7830907316207697 0.4951424070216446
0.1289936 -0.778903349242019 0.5019630517412788
0.1309935 -0.7741880505221878 0.5082613180519747
0.1329934 -0.7699599033923487 0.5151548194032923
0.1349933 -0.7653587510600594 0.521638748344071
0.1369932 -0.7608104573230487 0.5284795939774048
0.1389931 -0.7562824709197747 0.5348301847370055
0.140993 -0.7513454824730451 0.5415951182725778
0.1429929 -0.7466575501758685 0.5478804900328158
0.1449928 -0.7414595420415098 0.5542487231469655
0.1469927 -0.7368433787898837 0.5606019150754491
0.1489926 -0.7315838094493994 0.5668689133660549
0.1509925 -0.7264363387494449 0.572893722786218
0.1529924 -0.7212545722397696 0.5789896920336327
0.1549923 -0.7161200761743574 0.585030896313974
0.1569922 -0.7107294590184745 0.5910372587360578
0.1589921 -0.7054325979686853 0.5974584371463539
0.160992 -0.6998779523995661 0.6033738601102775
0.1629919 -0.6942440740983347 0.6095790729471754
0.1649918 -0.6887743456571168 0.6151994382865568
0.1669917 -0.6831540622188188 0.6209901612798837
0.1689916 -0.677800189070023 0.6272206226917425
0.1709915 -0.6718035975260596 0.6332307473995415
0.1729914 -0.6657671618602438 0.6389085053863831
0.1749913 -0.659961714005924 0.6448489133230754
0.1769912 -0.6542582264063094 0.6504185302051023
0.1789911 -0.648282588122969 0.6563747869488857
0.180991 -0.6421346582874013 0.6621291459293349
0.1829909 -0.6362880263325793 0.6675867675907277
0.1849908 -0.6302293675328862 0.6734692830628484
0.1869907 -0.6241525167033918 0.6796243640642107
0.1889906 -0.6175609433985563 0.6850312643234343
0.1909905 -0.6112203364692917 0.6907374284090263
0.1929904 -0.6054964819608922 0.6963369474689168
0.1949903 -0.5994087442080416 0.7016755835630273
0.1969902 -0.5933438272089628 0.707067704961023
0.1989901 -0.5873677034241905 0.7124823101066347
0.20099 -0.5810616471798987 0.7178493829054126
0.2029899 -0.5744496061928978 0.7227823265275242
0.2049898 -0.5679134449528118 0.7279356428503624
0.2069897 -0.5616174231519702 0.7330167789965679
0.2089896 -0.5549895004184633 0.7379198951429968
0.2109895 -0.5484823670506203 0.7429561207516412
0.2129894 -0.5418960960705591 0.7479351074043752
0.2149893 -0.5356154271659426 0.7526263310142406
0.2169892 -0.5289410093622614 0.7571644577757675
0.2189891 -0.5222214173445763 0.7618239724475316
0.220989 -0.5153351114321874 0.7664605427259402
0.2229889 -0.5086248830038963 0.7710002725075141
0.2249888 -0.5015702012712534 0.7752691520653372
0.2269887 -0.49476067878800767 0.7796497865506449
0.2289886 -0.48792943937547656 0.7840415731075862
0.2309885 -0.48088731032204535 0.787933181376384
0.2329884 -0.4736368371733176 0.7920718004007964
0.2349883 -0.46652463989652115 0.796374657831155
0.2369882 -0.4592755590859876 0.8004940977934479
0.2389881 -0.45203519486938526 0.8043401342383646
0.240988 -0.4445501399932688 0.8078445513525597
0.2429879 -0.4370402037562497 0.8117562877189567
0.2449878 -0.42987344658651283 0.8156861585768826
0.2469877 -0.42240488151093697 0.8194365174464914
0.2489876 -0.4146758475368621 0.8234274354638335
0.2509875 -0.4071901854098661 0.8270511494312309
0.2529874 -0.39923881452707655 0.8305291271509551
0.2549873 -0.3915404963294148 0.834261700577017
0.2569872 -0.38393446972376266 0.8378459804139796
0.2589871 -0.3762424166399478 0.8415531065371673
0.260987 -0.3683696580163294 0.8450488630155786
0.2629869 -0.3604947290897561 0.8484245141617244
0.2649868 -0.35304652530129715 0.8516996985706374
0.2669867 -0.3452002671319079 0.8553397481019842
0.2689866 -0.3372798882384858 0.8582989940797198
0.2709865 -0.3292727521484718 0.8613372608973031
0.2729864 -0.3214102102537672 0.8645734089613494
0.2749863 -0.31368270087572975 0.8679056833716592
0.2769862 -0.3055554909758699 0.8708388268607072
0.2789861 -0.2977640313152835 0.8736794171476818
0.280986 -0.28966745296320306 0.8763198523286155
0.2829859 -0.2818401508740827 0.8793344721075294
0.2849858 -0.2738319282611338 0.8818247547954832
0.2869857 -0.2658155441278112 0.884290119402519
0.2889856 -0.2579923905207893 0.887086008148267
0.2909855 -0.24966901536658254 0.8896140707773919
0.2929854 -0.2416086487999264 0.8919454648017663
0.2949853 -0.23362894699832026 0.89371000530116
0.2969852 -0.22512995196845392 0.89577669741877
0.2989851 -0.21722509548274563 0.8979333372961897
0.300985 -0.20865257745441879 0.8995636084884236
0.3029849 -0.20052286524299975 0.9016405722788213
0.3049848 -0.19217625114282513 0.9031657578034687
0.3069847 -0.1836699087659946 0.9047433035789206
0.3089846 -0.17595930171635688 0.9065763411876582
0.3109845 -0.1670413352407031 0.9078619712159739
0.3129844 -0.1589918586788444 0.9091711195064339
0.3149843 -0.15033536720704965 0.9105949381303939
0.3169842 -0.14182704128597384 0.9116902313720279
0.3189841 -0.13270326062446067 0.913654552952444
0.320984 -0.12432582094455036 0.9146086898699609
0.3229839 -0.11551220513288334 0.9159286777494069
0.3249838 -0.10694420051925477 0.917020768667641
0.3269837 -0.0981911268011637 0.9177581588273815
0.3289836 -0.08943184731965023 0.918574973776762
0.3309835 -0.0803801808263904 0.9192825280584297
0.3329834 -0.07185012758113453 0.9209997585681182
0.3349833 -0.06326427099363233 0.920861360821435
0.3369832 -0.05452363196367098 0.9216783294917033
0.3389831 -0.046363128773466364 0.9224110189503922
0.340983 -0.03717691916653458 0.9230289582870582
0.3429829 -0.028223272839172912 0.9235549932233861
0.3449828 -0.01949265617288653 0.9238711536912745
0.3469827 -0.010691595637271706 0.9245220275181236
0.3489826 -0.0019272346089890743 0.9247407525639024
0.3509825 0.006910541803929249 0.9249600556928574
0.3529824 0.015761318165019196 0.9247071480696868
0.3549823 0.02431157834107114 0.9249897772259541
0.3569822 0.033046716416715534 0.9250649278450911
0.3589821 0.04233609486797583 0.9245783500209758
0.360982 0.0509164635286595 0.9242258941160522
0.3629819 0.05976783092546216 0.9237835592926297
0.3649818 0.06812125178993941 0.923387403697445
0.3669817 0.07702880187016464 0.9229268552140661
0.3689816 0.08588356456666418 0.9222160545752598
0.3709815 0.09410058257630893 0.9214189086420806
0.3729814 0.10303244349417544 0.9208363224948839
0.3749813 0.11185686927836225 0.9196553610068773
0.3769812 0.12060479915504535 0.9186758446962209
0.3789811 0.1295196656064927 0.9178815308657743
0.380981 0.13818620943257864 0.9164501181633327
0.3829809 0.146680832997481 0.9155236612238427
0.3849808 0.15560525745745213 0.9137812883929542
0.3869807 0.16453984025876922 0.9123650830632686
0.3889806 0.17271395659225322 0.9106203847742496
0.3909805 0.18171061329315344 0.9088511670170306
0.3929804 0.19063562707145715 0.9074834734215598
0.3949803 0.19931343012219713 0.9051486088539786
0.3969802 0.20840512467577177 0.9030408325676599
0.3989801 0.21696998553672528 0.9010881902605384
0.40098 0.2259219208188855 0.899132254351172
0.4029799 0.2346995712192719 0.8966403380193911
0.4049798 0.24349201978913637 0.8944368467923756
0.4069797 0.2524739313057575 0.8921355003611349
0.4089796 0.2612014585962323 0.889738295489949
0.4109795 0.27030113874823464 0.8875083974667164
0.4129794 0.27875699909952817 0.8846366934587617
0.4149793 0.2875751843646838 0.8821147672778206
0.4169792 0.2964483987299051 0.8789308538861286
0.4189791 0.30490097609324945 0.8763376456279776
0.420979 0.31354810521571524 0.8733686887142316
0.4229789 0.32230920770814564 0.8701881850281508
0.4249788 0.3309291179512776 0.8672619103112487
0.4269787 0.33942079813647225 0.8642762698258915
0.4289786 0.34794380256507784 0.8610318055013807
0.4309785 0.3563965752297907 0.857873755814218
0.4329784 0.3652118802827826 0.8545718814085477
0.4349783 0.37355243262797844 0.8508034125395206
0.4369782 0.38188551411000343 0.8470582624484836
0.4389781 0.39067504356382965 0.843311771358572
0.440978 0.39923833703206146 0.8397830609208708
0.4429779 0.4070834159513901 0.8358590366990287
0.4449778 0.41545347923367637 0.8319822920105281
0.4469777 0.4237177932087396 0.8278560915928854
0.4489776 0.43166626863017404 0.8236591688683335
0.4509775 0.44019115996797936 0.8198501282840397
0.4529774 0.4485582444338104 0.8155422088600379
0.4549773 0.45608932899504906 0.8113003360125922
0.4569772 0.46453746379688077 0.8068369167891223
0.4589771 0.47231864119603256 0.8019404310733326
0.460977 0.48058882211400156 0.7968832543269764
0.4629769 0.4887403526268145 0.7923282417027113
0.4649768 0.49641600942636543 0.787563917964867
0.4669767 0.5045675188504027 0.782358185414376
0.4689766 0.5124871074322382 0.7773579116223218
0.4709765 0.5203503207887379 0.7721525576758109
0.4729764 0.5285020689194079 0.7674596276588873
0.4749763 0.5362612640874561 0.7621255464940762
0.4769762 0.543758674479006 0.7568321042958805
0.4789761 0.5517048848335285 0.7513095304927995
0.480976 0.5592416664690614 0.7461691092233278
0.4829759 0.5664863286974329 0.740378970603651
0.4849758 0.5741759293054823 0.7350382208641282
0.4869757 0.5819254899845805 0.7292418705067228
0.4889756 0.589192787743784 0.7232874583507407
0.4909755 0.5967164986648967 0.71767896141903
0.4929754 0.6042090279449284 0.7117679621711146
0.4949753 0.6112077238141741 0.7058569451817773
0.4969752 0.6181842339309007 0.6998005948864507
0.4989751 0.6255760269943468 0.6936041602886636
0.500975 0.6326628659540309 0.6878371247884838
0.5029749 0.6394673472130898 0.6814540209753013
0.5049748 0.6461768346604925 0.6751749935958838
0.5069747 0.6527985207160707 0.6688919273238422
0.5089746 0.6598122994209948 0.662357305522483
0.5109745 0.666494828807379 0.6557233841882868
0.5129744 0.6732754175526724 0.64905879818204
0.5149743 0.6800053314645496 0.6421045523137744
0.5169742 0.6862851220796056 0.6353054764736771
0.5189741 0.6926391971620285 0.6283988138596934
0.520974 0.6992647979504608 0.6213559733364257
0.5229739 0.7051764027156667 0.6140283856435022
0.5249738 0.7118172593063953 0.6069962442947728
0.5269737 0.7175668588679167 0.5996139285259942
0.5289736 0.7234602255140892 0.5924891968482315
0.5309735 0.7301043466313746 0.5847228219669961
0.5329734 0.7356333999085721 0.5773518962590599
0.5349733 0.741530129664268 0.5700470046999536
0.5369732 0.7474927686768315 0.5619929181815339
0.5389731 0.7535093257614517 0.5546887173307794
0.540973 0.7593979147938101 0.5467104938835585
0.5429729 0.7651688268983212 0.5389539978394187
0.5449728 0.7705764525754558 0.5310517484004627
0.5469727 0.7760738151649574 0.5231433457263143
0.5489726 0.781467056896753 0.515136350805535
0.5509725 0.7869187099302554 0.5072139552641376
0.5529724 0.792010479428194 0.49923620839878186
0.5549723 0.7973975140300651 0.49088171013195775
0.5569722 0.8027218465488595 0.4827546886645479
0.5589721 0.8078739488431261 0.4745177985461803
0.560972 0.8127330077513559 0.4663698721195223
0.5629719 0.8177431593178209 0.4580814232217201
0.5649718 0.8229590856163649 0.4498425263595126
0.5669717 0.8274289873575579 0.4415133443846217
0.5689716 0.8322153261902198 0.4325214664326833
0.5709715 0.83676253035446 0.4244517792454533
0.5729714 0.8409613124297388 0.41601749119482057
0.5749713 0.8452917377713555 0.407301027581334
0.5769712 0.8496319662466889 0.39873139279717296
0.5789711 0.8539872144029873 0.39040685279847676
0.580971 0.8579738134502269 0.38153488351706616
0.5829709 0.8619154842585135 0.37259919907737166
0.5849708 0.8654666481067026 0.3638272494163472
0.5869707 0.8691673826561429 0.35529861571747334
0.5889706 0.8730986785521635 0.34593620296368516
0.5909705 0.8765222241623105 0.33736419399690687
0.5929704 0.8801061117953991 0.32784446816937723
0.5949703 0.8831787116557887 0.31908565674155503
0.5969702 0.8864137867767561 0.31026653123371667
0.5989701 0.8897442243838896 0.3006820366855506
0.60097 0.8928778496188309 0.2912845756757836
0.6029699 0.8955790979147238 0.2820283082108971
0.6049698 0.898695634169699 0.27307486363913214
0.6069697 0.9014279995584782 0.26373576678047894
0.6089696 0.9044838526467793 0.2541851112711629
0.6109695 0.9071049381061238 0.24502575251164513
0.6129694 0.9094864610285948 0.23525956860095582
0.6149693 0.9120930556389526 0.22641654183474086
0.6169692 0.9148097825228689 0.21656986196551647
0.6189691 0.9167340085473938 0.2071117016992855
0.620969 0.9187282926061576 0.19775687117176
0.6229689 0.9207096492479828 0.18802536349341148
0.6249688 0.9230022973401405 0.1783415622741511
0.6269687 0.9247298894754491 0.16908856568831107
0.6289686 0.9264384612152057 0.15977466149056768
0.6309685 0.9282839914878627 0.14988330375852404
0.6329684 0.9297180158880309 0.1404389707005757
0.6349683 0.9312355495047848 0.13070516535839288
0.6369682 0.9326964762462809 0.12121102330867069
0.6389681 0.9338347379157202 0.11189817217820386
0.640968 0.9353094374265732 0.10171895625239083
0.6429679 0.9360829162956799 0.09247465777613784
0.6449678 0.9370865410843514 0.08287753638747582
0.6469677 0.9376927625177456 0.0731733449517148
0.6489676 0.9384838608122329 0.06359632112124956
0.6509675 0.9393148302978693 0.05384019145758189
0.6529674 0.9398455805331133 0.04401534579766341
0.6549673 0.9403766240112269 0.03487385314592998
0.6569672 0.9402406560875406 0.02522756654083253
0.6589671 0.9409875854458023 0.015495093204260669
0.660967 0.9406735924290496 0.005424024603619328
0.6629669 0.9406609131435402 -0.003965534784660666
0.6649668 0.940591680286449 -0.01373638798301139
0.6669667 0.9402687715093755 -0.0238002392589975
0.6689666 0.9404841443486891 -0.032945089776387174
0.6709665 0.9399754859053591 -0.04275763948994115
0.6729664 0.9394920047365333 -0.05268151373587816
0.6749663 0.9387500868635957 -0.062211691890817204
0.6769662 0.9386566903711567 -0.07209957240843694
0.6789661 0.9375378995041321 -0.08162333309943934
0.680966 0.9365144213983981 -0.09086148424247398
0.6829659 0.93585018117207 -0.10037097526855611
0.6849658 0.9348513230674255 -0.10994859545583473
0.6869657 0.9338815168246917 -0.11989914513288494
0.6889656 0.9323162286094622 -0.12920691490316713
0.6909655 0.9312269386322203 -0.13869855737848705
0.6929654 0.9298005325601685 -0.14853078992746546
0.6949653 0.9282684268560949 -0.1580558087258972
0.6969652 0.9266717654118226 -0.16715992561077808
0.6989651 0.9250069616590615 -0.17704693930733847
0.700965 0.9228817199750742 -0.18625489356380703
0.7029649 0.9211115183589405 -0.19550037707792023
0.7049648 0.9192495799653652 -0.20475118367201606
0.7069647 0.9168608573371876 -0.21390914983668752
0.7089646 0.9148046921788747 -0.22369057422509642
0.7109645 0.9125719065324724 -0.23264783544225742
0.7129644 0.9097917435325297 -0.24144002416279498
0.7149643 0.9074122117446863 -0.25104444191583214
0.7169642 0.9045930941436177 -0.26000397495285493
0.7189641 0.9016464468724282 -0.26930999178229803
0.720964 0.8985512695795117 -0.27834271747889916
0.7229639 0.8956571535817189 -0.287626514599144
0.7249638 0.8930558175343127 -0.2966281190234577
0.7269637 0.8896526285781182 -0.305673943608203
0.7289636 0.8863870176330142 -0.3144168885281974
0.7309635 0.8830582777641779 -0.323858163566036
0.7329634 0.8796457374898949 -0.33226386157520543
0.7349633 0.8763362967812651 -0.3414447741197306
0.7369632 0.872295027792725 -0.35046300082800813
0.7389631 0.8687654082720241 -0.3595989182602269
0.740963 0.8651407092268112 -0.36852998828310285
0.7429629 0.8609257342359582 -0.37770674671241383
0.7449628 0.8571418935101717 -0.3860629343898932
0.7469627 0.8536687615637318 -0.3950158139547557
0.7489626 0.8499302457953289 -0.4036807635241282
0.7509625 0.8450239850808697 -0.4120361122976513
0.7529624 0.8418852582462157 -0.4209470216808358
0.7549623 0.8373390494487225 -0.4293276484190865
0.7569622 0.8331003437651187 -0.43796457516749526
0.7589621 0.8285725056321811 -0.4460495900202289
0.760962 0.824284667218463 -0.45438644442539633
0.7629619 0.8195781759014471 -0.4628250661812607
0.7649618 0.8150560779853525 -0.4713823817784698
0.7669617 0.8106170623950189 -0.47867097794528357
0.7689616 0.8056936840462836 -0.48702459735655806
0.7709615 0.8005744442218049 -0.4948416889989233
0.7729614 0.7960219240317414 -0.5029568906315455
0.7749613 0.7909578800652707 -0.5106615686988525
0.7769612 0.7857648146097702 -0.5183130401975901
0.7789611 0.7809183209601664 -0.5261652029811311
0.780961 0.7754268217228265 -0.5336152408842828
0.7829609 0.770008127973497 -0.5411946304429138
0.7849608 0.7644918922565129 -0.5484907867553627
0.7869607 0.7589644479286402 -0.5560873614664666
0.7889606 0.7537371859021608 -0.5630627305275467
0.7909605 0.7477389362441034 -0.5702309584898788
0.7929604 0.7419701912778701 -0.5774168048345139
0.7949603 0.7359220124140918 -0.584749778925
0.7969602 0.7299134094430912 -0.5916994141447498
0.7989601 0.7239862327920816 -0.5988385883188172
0.80096 0.7177635071762207 -0.6056363594024042
0.8029599 0.7117777834106362 -0.6124851143780006
0.8049598 0.7052990246097686 -0.6194642691909393
0.8069597 0.6989249820502408 -0.6262746484704381
0.8089596 0.6923837119729759 -0.6331993049148605
0.8109595 0.6860979516385118 -0.639727947045307
0.8129594 0.6798535828405243 -0.6468884599307522
