! Created with skrf 1.8.0 (http://scikit-rf.org).
# GHz S RI R 50.0 
!freq ReS11 ImS11
0.001 -0.9431072183172466 0.005453326465021245
0.0029999 -0.9427570020595525 0.013368301320785737
0.0049998 -0.941665577511738 0.02067193015260052
0.0069997 -0.9407828836679485 0.028139896477344016
0.0089996 -0.9401615740198246 0.03592181002561826
0.0109995 -0.93961245148532 0.04320021682804131
0.0129994 -0.9389825158361564 0.05071093865234025
0.0149993 -0.9380325409770581 0.058194543555374185
0.0169992 -0.937383758412684 0.06544033327038401
0.0189991 -0.9362362127660396 0.07279142993110083
0.020999 -0.9355827857576265 0.08017828510898148
0.0229989 -0.934405508386234 0.08743023315838896
0.0249988 -0.9330388447511171 0.09484806609203975
0.0269987 -0.932478481770759 0.10216889220727901
0.0289986 -0.9312988225288608 0.10940803464257565
0.0309985 -0.9300963460639485 0.11673038726473065
0.0329984 -0.9288359347652212 0.1234588341390413
0.0349983 -0.9275614096735133 0.13122210909137527
0.0369982 -0.9263841887199101 0.13866402904155123
0.0389981 -0.924829000615145 0.1457851245680389
0.040998 -0.9238079266337714 0.15253084240577586
0.0429979 -0.9218521653701118 0.15988363555743004
0.0449978 -0.9206586200665614 0.16668870852296552
0.0469977 -0.9189068938872839 0.17406024708355938
0.0489976 -0.9174027313645685 0.1809557913416939
0.0509975 -0.9156060160722632 0.18819442569859562
0.0529974 -0.9139896587132326 0.19555058367635086
0.0549973 -0.912380579702494 0.2020863016659703
0.0569972 -0.9105326031449508 0.20915521952140698
0.0589971 -0.9086293008119235 0.21605705950616674
0.060997 -0.9065764178516708 0.22297456732795728
0.0629969 -0.904842920808138 0.22985447405347026
0.0649968 -0.9027688158668656 0.2366934794281264
0.0669967 -0.90096788215239 0.24350532771339103
0.0689966 -0.8986577334010751 0.2503990206170445
0.0709965 -0.896384295780144 0.257285546911956
0.0729964 -0.8944445904146282 0.26415018373231147
0.0749963 -0.8921893442131145 0.2706909061349928
0.0769962 -0.8894607035315929 0.27767245036330607
0.0789961 -0.8871765657089459 0.28424016450976475
0.080996 -0.8848874610480232 0.29114948748005604
0.0829959 -0.8824101575520653 0.29783682712593756
0.0849958 -0.879715300804362 0.3041996143427189
0.0869957 -0.8771593740985392 0.3109807983759928
0.0889956 -0.8744442341996623 0.3178268660526369
0.0909955 -0.8718916404742496 0.3243130262047399
0.0929954 -0.8688783761448594 0.33093445054076825
0.0949953 -0.8663938550738202 0.33737477412183836
0.0969952 -0.8633609916174654 0.34405039792818914
0.0989951 -0.86060534452995 0.3506230424036803
0.100995 -0.8576459392710996 0.35692018861238517
0.1029949 -0.854699566108376 0.3632366316494204
0.1049948 -0.8517577374059412 0.36984724765448196
0.1069947 -0.8485514606442318 0.376468711519571
0.1089946 -0.845641053257516 0.38300236292545997
0.1109945 -0.8426367856570978 0.389579978616619
0.1129944 -0.8392457870660959 0.3958233157824558
0.1149943 -0.8363012985994017 0.4021866558683236
0.1169942 -0.8329282983571525 0.40872019291547096
0.1189941 -0.8296565821953402 0.4151528132552484
0.120994 -0.826358857554262 0.4212319026088572
0.1229939 -0.8231032873657288 0.4274989926928802
0.1249938 -0.820014296369626 0.4337194523871857
0.1269937 -0.8164933112122879 0.44006106614600926
0.1289936 -0.8131991957825869 0.4462865692925469
0.1309935 -0.8093508321088402 0.45224092167698343
0.1329934 -0.805954708057536 0.45822982414376584
0.1349933 -0.8024373523507504 0.4643827174345472
0.1369932 -0.7987503618182109 0.47045091366342584
0.1389931 -0.7952965310638083 0.47647594068890786
0.140993 -0.791408343399243 0.4823640054909363
0.1429929 -0.7880116958193434 0.4884732507130545
0.1449928 -0.7837288392692063 0.4942308602490237
0.1469927 -0.7800458427519634 0.5000310077856133
0.1489926 -0.7757097513638845 0.5058652856686908
0.1509925 -0.7720677703006523 0.5114713691193524
0.1529924 -0.7679637331683425 0.5169109596090125
0.1549923 -0.7636387538588466 0.5226678605571228
0.1569922 -0.7591805172160282 0.5280494588773634
0.1589921 -0.7553378995791025 0.5343094478207397
0.160992 -0.7506071163648145 0.5397751697335827
0.1629919 -0.7463268295803214 0.5455347707918062
0.1649918 -0.7421366510568933 0.5510368023264651
0.1669917 -0.7375901601865336 0.5564265586236907
0.1689916 -0.7334550357751385 0.5623405134536457
0.1709915 -0.728713051175645 0.5677309179112281
0.1729914 -0.7238824339028753 0.5729727896274358
0.1749913 -0.7195569882350802 0.5786389671939087
0.1769912 -0.7147165891487558 0.5838740788645149
0.1789911 -0.7101035050092427 0.5897651116565007
0.180991 -0.7052542015121904 0.5953515771793972
0.1829909 -0.700660118233875 0.600599873198775
0.1849908 -0.6959477619824367 0.606046209850301
0.1869907 -0.6910835019630295 0.6118768950795379
0.1889906 -0.6857408151465806 0.6173350769674015
0.1909905 -0.6809129642600159 0.622592825568112
0.1929904 -0.6764238770999046 0.6280109441245809
0.1949903 -0.6714099153480175 0.6331116582999889
0.1969902 -0.6669377959852689 0.6384367566873325
0.1989901 -0.6620196207588732 0.6435621384576573
0.20099 -0.657313756297069 0.6487145316185043
0.2029899 -0.6520066148716614 0.6539415515584771
0.2049898 -0.6465225060733937 0.6585820963991343
0.2069897 -0.6415923931709093 0.6636815475168254
0.2089896 -0.6364153401977302 0.6687272766664002
0.2109895 -0.6315237652025321 0.6735313531031866
0.2129894 -0.6262294546614807 0.6782766650794326
0.2149893 -0.6212142863566752 0.6833595292351786
0.2169892 -0.6158566915109084 0.6878145409722818
0.2189891 -0.6106140095251191 0.6926102429508868
0.220989 -0.6052414139199246 0.6971295532580535
0.2229889 -0.5994826751212595 0.7016681627380092
0.2249888 -0.5943444316846521 0.7063979105466814
0.2269887 -0.588729810650394 0.710700154643792
0.2289886 -0.5831733191679782 0.7150402428126887
0.2309885 -0.5775729524389789 0.7192174844149305
0.2329884 -0.5719218101697738 0.7235772136437187
0.2349883 -0.5661976687907454 0.7280681967564248
0.2369882 -0.5604719964109581 0.7321682336484943
0.2389881 -0.5546408160508745 0.7365168010740296
0.240988 -0.5488233172754277 0.7404361257157313
0.2429879 -0.5428045449129723 0.7445596246902562
0.2449878 -0.5367563328796258 0.7485269571682636
0.2469877 -0.5311639140466573 0.7526113909624735
0.2489876 -0.5249584387069682 0.7567238546048823
0.2509875 -0.5188852324443014 0.7607574916969606
0.2529874 -0.5124516853572594 0.7649960818354616
0.2549873 -0.506321054650943 0.7688739004305336
0.2569872 -0.5003415976362936 0.773041513410002
0.2589871 -0.49413354544431537 0.7770374352088737
0.260987 -0.4876843659496142 0.780939697251826
0.2629869 -0.4814646264737963 0.7848061706203553
0.2649868 -0.4752280099724937 0.7887179907398587
0.2669867 -0.46896291831664627 0.792388965201904
0.2689866 -0.4628910102676328 0.7961116313239079
0.2709865 -0.45650355430571254 0.7997050728654531
0.2729864 -0.44981523866484024 0.8035170706742037
0.2749863 -0.4436303383516382 0.8070183293895239
0.2769862 -0.4373746445702398 0.8108806949924642
0.2789861 -0.4308735192114597 0.8141246680308519
0.280986 -0.42433998514338167 0.8177317490638739
0.2829859 -0.4181194713150101 0.8211558421874681
0.2849858 -0.4118011696253882 0.8244874912150347
0.2869857 -0.4051612543761314 0.8276372485567348
0.2889856 -0.3988541323762966 0.8309024858643008
0.2909855 -0.39236616860679074 0.8344464175800095
0.2929854 -0.38571018839349036 0.8373085601206723
0.2949853 -0.3792215406216428 0.8403407126961777
0.2969852 -0.37252149303010884 0.8431695571468202
0.2989851 -0.36571856913292017 0.8458243852076001
0.300985 -0.35877205849619537 0.8484967098120731
0.3029849 -0.3522935030800345 0.8512764008007296
0.3049848 -0.3455585685157366 0.8542689594283586
0.3069847 -0.3385105120787433 0.8562937510155709
0.3089846 -0.33191493684128903 0.8588398342697986
0.3109845 -0.32502951552915293 0.8615041356299405
0.3129844 -0.3179875352550483 0.8638417574582588
0.3149843 -0.31096182563130625 0.8660620749529838
0.3169842 -0.303863789586309 0.8685782377937938
0.3189841 -0.2970029544006753 0.8708960762380206
0.320984 -0.28951986626400267 0.8737134252747616
0.3229839 -0.2825578967631189 0.8758434894315247
0.3249838 -0.27506562921721206 0.8783105834014792
0.3269837 -0.26823210155331745 0.8805966074893711
0.3289836 -0.2607502041724249 0.8820686778936422
0.3309835 -0.2531681930202796 0.8844666661395422
0.3329834 -0.24620811085047972 0.8867539828699758
0.3349833 -0.23919487728236763 0.8882739906075324
0.3369832 -0.23163346986488884 0.8904611468811812
0.3389831 -0.2248263264931782 0.8923618905881394
0.340983 -0.21739937488532338 0.8943498912040216
0.3429829 -0.2098011529742201 0.8962081225207057
0.3449828 -0.2024678555610625 0.898241649353205
0.3469827 -0.19511042409447407 0.8999542181125296
0.3489826 -0.18775715712642618 0.901807888917512
0.3509825 -0.18028882015782208 0.9033261604782596
0.3529824 -0.17283705534277083 0.9052890962287935
0.3549823 -0.1657801868440072 0.9063178312781616
0.3569822 -0.15837379127500556 0.9078039951764851
0.3589821 -0.1507354220728488 0.9091538712788249
0.360982 -0.14335768413388192 0.9104631363260943
0.3629819 -0.1359269763185891 0.9115425590504058
0.3649818 -0.12878040678668937 0.9126925526290475
0.3669817 -0.12119095912043831 0.9139540190264314
0.3689816 -0.1137359686968541 0.9150051305242021
0.3709815 -0.10665874294274734 0.915400550219695
0.3729814 -0.0993231545840674 0.9168270623683396
0.3749813 -0.09162129593908522 0.9175575524836795
0.3769812 -0.08392999980508217 0.9185618759893516
0.3789811 -0.07664866105192239 0.9194078329460085
0.380981 -0.06929531591389695 0.9195531971238028
0.3829809 -0.06194039981870526 0.9201150789583906
0.3849808 -0.054060437770920844 0.9208288634216258
0.3869807 -0.046600997900721766 0.9211959554525697
0.3889806 -0.039168035375567 0.9213255284570908
0.3909805 -0.031449126917251144 0.9216861048569897
0.3929804 -0.023670614270899306 0.9215949195747567
0.3949803 -0.016309334637215105 0.9221677264097048
0.3969802 -0.00800446329195267 0.9217159293644253
0.3989801 -0.00047412682059131545 0.9216624323260658
0.40098 0.007418033519375401 0.9217264421099816
0.4029799 0.014861152252552183 0.9213782810254761
0.4049798 0.023045971624817054 0.9215990057146864
0.4069797 0.030842934255364947 0.9212000273717722
0.4089796 0.03846546076524378 0.9211295165584382
0.4109795 0.04654945362034636 0.920805360863418
0.4129794 0.0540948034071633 0.920468555597578
0.4149793 0.06207289902484047 0.9199657815038742
0.4169792 0.07006288969590342 0.9195390693574604
0.4189791 0.0775220174025782 0.9187685214036816
0.420979 0.08555805640982767 0.9183866516566995
0.4229789 0.093277225550358 0.917682041579679
0.4249788 0.10105205900841467 0.9169265836267049
0.4269787 0.10877652439854649 0.9161274843301214
0.4289786 0.11670634584555095 0.9153805385231002
0.4309785 0.1242060694489894 0.9146563092126768
0.4329784 0.1320056916989389 0.9137265237372973
0.4349783 0.1395637712959505 0.912639811186809
0.4369782 0.14766139274227535 0.9115404263439582
0.4389781 0.15556323696872232 0.9100630256358276
0.440978 0.16316897494071742 0.909093053670748
0.4429779 0.17059994784812046 0.9076190080102156
0.4449778 0.1786078472297787 0.9062816799716076
0.4469777 0.18632397212896473 0.9048505877130074
0.4489776 0.19351714812878046 0.9032187762452794
0.4509775 0.2013245230328087 0.901732233840865
0.4529774 0.20928373379650267 0.8999676287078694
0.4549773 0.216563061344824 0.8983021423787909
0.4569772 0.22429435654385163 0.8965909700425968
0.4589771 0.2323316202715685 0.8946036522637855
0.460977 0.23997017496920053 0.892530679409612
0.4629769 0.2477415529293704 0.8902176747317397
0.4649768 0.25537103081806045 0.8880384579847537
0.4669767 0.2630649409741686 0.8857133161488466
0.4689766 0.27105463829497756 0.883763181470286
0.4709765 0.2783204607018812 0.8809659682972462
0.4729764 0.28612548283660466 0.8791969950352848
0.4749763 0.2936444014629152 0.8766746047389682
0.4769762 0.30121599008763894 0.8742244911998641
0.4789761 0.3088842907465335 0.8717964163826171
0.480976 0.31684563325547616 0.8690772568233559
0.4829759 0.32449505966004677 0.866375318114323
0.4849758 0.3319167099751913 0.8639761403347667
0.4869757 0.33927944875312 0.8606531783363821
0.4889756 0.34682037145771655 0.8582387868774082
0.4909755 0.35471662346983085 0.855457799409472
0.4929754 0.3619800802500461 0.8523156844620443
0.4949753 0.3693342663231086 0.8495101340021122
0.4969752 0.37693672296645503 0.8460659701687894
0.4989751 0.38428056133074917 0.843306728664051
0.500975 0.39147529617295085 0.8401925128048823
0.5029749 0.39874015632489007 0.8367095887764452
0.5049748 0.40602878681444887 0.8334647114576977
0.5069747 0.41291999768726256 0.8299103682366626
0.5089746 0.4200040072144578 0.826728981279454
0.5109745 0.42721079331527745 0.8227188511561762
0.5129744 0.4345957599700706 0.8190872720298784
0.5149743 0.4417243324009921 0.8156160713991902
0.5169742 0.44884097494209724 0.8116551010950203
0.5189741 0.45578809852353336 0.8078280478465912
0.520974 0.46279626206292923 0.803533564456123
0.5229739 0.46965619594625974 0.7992721614739735
0.5249738 0.4768827786239947 0.795435710195879
0.5269737 0.48352576378221257 0.7912110616959587
0.5289736 0.49042093244482504 0.7869639253379248
0.5309735 0.49765938181069663 0.7822101969259956
0.5329734 0.5043601979861263 0.7777152786005934
0.5349733 0.5108283968373 0.7729358513263912
0.5369732 0.517935536901567 0.7683304342580445
0.5389731 0.5247911179077692 0.7638997167542839
0.540973 0.532012836964851 0.7590193518683973
0.5429729 0.5386723221447524 0.7544943065933895
0.5449728 0.5456248489449042 0.7495958714190687
0.5469727 0.5523997986036545 0.7447769550316422
0.5489726 0.5593879480500329 0.739648567532319
0.5509725 0.5654832389864105 0.7347348679380578
0.5529724 0.572274792315645 0.7297263348996563
0.5549723 0.5787897231101905 0.7244219374257408
0.5569722 0.5855667364396177 0.7193244367665637
0.5589721 0.5921824915746 0.7142176439477168
0.560972 0.5989230728518606 0.7090382932338635
0.5629719 0.6056434480410073 0.7037178072510394
0.5649718 0.6119506089577657 0.6990055463054533
0.5669717 0.6184123253926738 0.6936112710431386
0.5689716 0.6247894926064985 0.6880416577685909
0.5709715 0.6310622007579594 0.6827498443566516
0.5729714 0.6373379398152764 0.6767573099781793
0.5749713 0.6432531147954458 0.6715777688114983
0.5769712 0.649413440738766 0.665894120788892
0.5789711 0.6552327101793561 0.6604114783563267
0.580971 0.6611743759003521 0.6548952677103841
0.5829709 0.6669316559500458 0.6491921522482776
0.5849708 0.6727693080957208 0.6429716838509272
0.5869707 0.6781076412281899 0.6373187104260108
0.5889706 0.6838791480111738 0.6309619886820108
0.5909705 0.6894937265342275 0.6252022076386206
0.5929704 0.695219602677509 0.6186388526033579
0.5949703 0.7003263765343426 0.6128809295714287
0.5969702 0.7059643759709813 0.6064365748481471
0.5989701 0.7116973820795603 0.5996107494991045
0.60097 0.7162459347162664 0.5930993993809262
0.6029699 0.7223734578506398 0.5862960346514688
0.6049698 0.7272164805979138 0.5800774103563363
0.6069697 0.7321654524616412 0.5734869934882705
0.6089696 0.7375189289728767 0.5670604598484692
0.6109695 0.74265615425155 0.5597276324270328
0.6129694 0.7474568469598988 0.5531155197851828
0.6149693 0.7528178740378901 0.5468674515326655
0.6169692 0.7583059719742516 0.5395853973943159
0.6189691 0.7631217455541606 0.5324184344951973
0.620969 0.7678194058892899 0.525576392167723
0.6229689 0.772576412823132 0.5183781862692957
0.6249688 0.7773615810014651 0.5113007572871222
0.6269687 0.782350285643435 0.5042208045018458
0.6289686 0.7871940382611986 0.4974281455245368
0.6309685 0.7918494190947591 0.48981113600230486
0.6329684 0.7958345008498567 0.4830364128998981
0.6349683 0.8007730644909908 0.4756769074184266
0.6369682 0.805041625513862 0.4683601212391292
0.6389681 0.8092074216096052 0.46134279644512405
0.640968 0.8142613429923063 0.4539190874277511
0.6429679 0.81813743219267 0.4465408698065682
0.6449678 0.822208849180659 0.439433056754133
0.6469677 0.8263149943840973 0.43181170107093403
0.6489676 0.8301108724337753 0.42502283448403544
0.6509675 0.8340872627875604 0.4175368697043682
0.6529674 0.8381095731304863 0.4096129555521644
0.6549673 0.841669327454772 0.4025395476236274
0.6569672 0.8453534727282699 0.3945338066918802
0.6589671 0.8488789763922877 0.38707727973465833
0.660967 0.8516059330364072 0.3793730970524968
0.6629669 0.8556168346814917 0.3713573080609589
0.6649668 0.8584147675623678 0.36420519156134323
0.6669667 0.862028941360487 0.356127499011966
0.6689666 0.8650289573707707 0.34836117101006764
0.6709665 0.8675730539886918 0.33994081823284406
0.6729664 0.8712228085511878 0.3322130822179414
0.6749663 0.8742606557435746 0.32475442646190056
0.6769662 0.8771812503677796 0.31643448727851925
0.6789661 0.8802346944266759 0.30812479992191805
0.680966 0.882835187695654 0.3003352971645419
0.6829659 0.8857009383821102 0.2919164724581641
0.6849658 0.8881533870691981 0.2839325800206061
0.6869657 0.8907163433174377 0.2756182320342215
0.6889656 0.89326009027565 0.2673324553050087
0.6909655 0.8956224522589578 0.25949280882561193
0.6929654 0.8980047624667661 0.2507826441101204
0.6949653 0.9002038747957102 0.24270224272337088
0.6969652 0.9024463931379294 0.23425502010056737
0.6989651 0.9045406682559559 0.22594439549667128
0.700965 0.9068303142696992 0.21758006720662715
0.7029649 0.9087645240697293 0.20937196116364765
0.7049648 0.9108613828073762 0.20083882275268897
0.7069647 0.9127299824506843 0.19250939549014204
0.7089646 0.9147445238955763 0.18400087667849907
0.7109645 0.9165078449353331 0.17580197204372444
0.7129644 0.9181832788407656 0.16736888072960848
0.7149643 0.9197315936173882 0.15917643640761725
0.7169642 0.9212667704942895 0.1506311331828838
0.7189641 0.9228692950046241 0.1420137223971008
0.720964 0.923982967133603 0.13382134079339103
0.7229639 0.9251072088594327 0.12526529449792578
0.7249638 0.9265628842521428 0.11700490856377119
0.7269637 0.9278038796005346 0.1082503965685255
0.7289636 0.9280311087027913 0.10013812030511214
0.7309635 0.9295081407352705 0.09149005308692831
0.7329634 0.9303530697761144 0.08294853194311998
0.7349633 0.9307923530987221 0.07498228307668879
0.7369632 0.9316602296639657 0.06607025165652411
0.7389631 0.9319414619324192 0.05800758841660032
0.740963 0.9323743076477673 0.04924493030412683
0.7429629 0.9330912364366812 0.04056945212275194
0.7449628 0.9333792277824168 0.03228046761240614
0.7469627 0.9334857670203632 0.023078593113767802
0.7489626 0.9336722947258799 0.014956079729740085
0.7509625 0.933878383571043 0.006431241776959848
0.7529624 0.9339914303422563 -0.002308831028875115
0.7549623 0.9337892769046382 -0.010913392045644454
0.7569622 0.9335933541263342 -0.019334643869603797
0.7589621 0.9334637413425064 -0.027800565176807707
0.760962 0.9332763902842272 -0.03603515033668545
0.7629619 0.9327622337555455 -0.04499065863853123
0.7649618 0.9324006363784355 -0.053484460101478025
0.7669617 0.9319483432484293 -0.061899923944457445
0.7689616 0.9312121987648001 -0.07050666884128327
0.7709615 0.9305981327076327 -0.07899693086919365
0.7729614 0.9302241719257298 -0.0872916118835983
0.7749613 0.9290624650488575 -0.0961345860790716
0.7769612 0.9280144311646765 -0.10463378469890175
0.7789611 0.9277208027351304 -0.11291877610515175
0.780961 0.9262504759183504 -0.12139238223761123
0.7829609 0.9254270579038858 -0.12965277019825183
0.7849608 0.9239080017862439 -0.13783874977291025
0.7869607 0.9226651846080197 -0.14633884413725992
0.7889606 0.9211902865060804 -0.15471106742376894
0.7909605 0.9195173427325802 -0.16320846946696216
0.7929604 0.9181463940329402 -0.17126691431543828
0.7949603 0.9163518372747654 -0.1800279432674013
0.7969602 0.914868137602638 -0.18790575965755468
0.7989601 0.912945243672923 -0.1964724200040287
0.80096 0.9111087927440231 -0.2042243250470252
0.8029599 0.9090431949002302 -0.21266399888576418
0.8049598 0.9071556340249717 -0.2209687249914173
0.8069597 0.9048882782851102 -0.22907006007246533
0.8089596 0.9027296786118039 -0.23744835897226665
0.8109595 0.9003203816889779 -0.24533786797390808
0.8129594 0.8981746109948606 -0.25385179778253186
0.8149593 0.8954845984722501 -0.2623048038503154
