! Created with skrf 1.8.0 (http://scikit-rf.org).
# GHz S RI R 50.0 
!freq ReS11 ImS11
0.001 -0.9438572711330439 0.004886846576348976
0.0029999 -0.9433321234406544 0.011234656082048322
0.0049998 -0.9427085319930006 0.01800566154997009
0.0069997 -0.9419721055411399 0.024491780700201297
0.0089996 -0.9413908199219405 0.0310493949823836
0.0109995 -0.9409443442173553 0.037315184825756534
0.0129994 -0.9403806627898138 0.0439149771813062
0.0149993 -0.939564959395945 0.05035331320184565
0.0169992 -0.9390536988962819 0.056264152308271836
0.0189991 -0.9380863539284204 0.06288357745539055
0.020999 -0.9375365847559093 0.06918286814054914
0.0229989 -0.9366846126621472 0.07546846834836894
0.0249988 -0.9355092835593617 0.08194995843345759
0.0269987 -0.9351995567332608 0.08816619150336157
0.0289986 -0.9341960118228164 0.09444653268304018
0.0309985 -0.9333385422323526 0.10072085381993442
0.0329984 -0.9322246746233432 0.10656706122750952
0.0349983 -0.9311957570244926 0.1133133441332212
0.0369982 -0.9301824012109707 0.11966469959417314
0.0389981 -0.929122909586838 0.1258462622946659
0.040998 -0.9283910335140128 0.1317180213526762
0.0429979 -0.9268698041897389 0.1378249196856683
0.0449978 -0.9258723051302569 0.14392160748298655
0.0469977 -0.924584688993636 0.15023103828873732
0.0489976 -0.9233650579080118 0.15641012939572557
0.0509975 -0.9219754170305268 0.1625963968694902
0.0529974 -0.9205335190695729 0.16871946307843552
0.0549973 -0.9194234128736154 0.17482890674620935
0.0569972 -0.9180332607338126 0.18077162981197537
0.0589971 -0.916526765744923 0.18669077849434976
0.060997 -0.9150556028650136 0.19265278825314539
0.0629969 -0.9137687850351502 0.19864440075834766
0.0649968 -0.9121581480062936 0.20449495778424884
0.0669967 -0.910818412778201 0.2104999111345337
0.0689966 -0.9089738263439373 0.21652716861348126
0.0709965 -0.9072970279929874 0.22235821296978855
0.0729964 -0.9059094252911347 0.22843337759835175
0.0749963 -0.9040792012412753 0.2340539637092489
0.0769962 -0.9018897842388558 0.23994076290481978
0.0789961 -0.9001800723219303 0.2459848591487941
0.080996 -0.8984535384766142 0.2517673192555286
0.0829959 -0.8967378245718737 0.25775880871002066
0.0849958 -0.8944277701250141 0.26339052236719857
0.0869957 -0.8926195430604249 0.26908332965900866
0.0889956 -0.890479329965248 0.2749683445832634
0.0909955 -0.8884921637941041 0.2807627715284081
0.0929954 -0.8863748974728731 0.286563804725897
0.0949953 -0.8846981170148878 0.2918253178430279
0.0969952 -0.8820869628942574 0.29812088375861534
0.0989951 -0.8800230872280748 0.30348602239140027
0.100995 -0.8775784658184959 0.3095625222421552
0.1029949 -0.8753794608250455 0.3148039879885889
0.1049948 -0.8731295370204611 0.32084018292951316
0.1069947 -0.8706279358714053 0.32647434707249895
0.1089946 -0.8686404233230587 0.3321661260253527
0.1109945 -0.8660792840439824 0.3381374149575523
0.1129944 -0.8635748486666253 0.3437457147130478
0.1149943 -0.8613661450173783 0.3493190174056418
0.1169942 -0.8587708397646501 0.3548608881926001
0.1189941 -0.8565034001661177 0.3606811954554464
0.120994 -0.8538897334982254 0.36607300139761095
0.1229939 -0.8515183607825008 0.3715120878238224
0.1249938 -0.8491008806840226 0.3771122750457884
0.1269937 -0.8467695334032895 0.38257628962326706
0.1289936 -0.8441692597260537 0.38820710154678134
0.1309935 -0.8411376694690363 0.393471875330062
0.1329934 -0.8386071589277249 0.3986080685903955
0.1349933 -0.8358886072994152 0.40414534118695933
0.1369932 -0.83324054840218 0.4096282850729727
0.1389931 -0.8307092549817662 0.415124098126564
0.140993 -0.8277774324824175 0.4199849615295471
0.1429929 -0.8250273051510004 0.4256363392429736
0.1449928 -0.8219131314155163 0.43070209710723706
0.1469927 -0.8191526773405369 0.43604044024509675
0.1489926 -0.8161977050070285 0.4408301642948727
0.1509925 -0.8129866321776473 0.4463922747598598
0.1529924 -0.8098923394295979 0.45117211887961994
0.1549923 -0.8064761916760408 0.45622522726642956
0.1569922 -0.8031615390084509 0.4613208108667671
0.1589921 -0.8001809128630788 0.46687839977581075
0.160992 -0.7965938201606176 0.4720066716596672
0.1629919 -0.7937973680184399 0.47697442521397637
0.1649918 -0.7903199532224349 0.48204634742963465
0.1669917 -0.7867613459357894 0.4867831582969124
0.1689916 -0.7836061515100582 0.4918323244952559
0.1709915 -0.7802073767847969 0.4972557791121586
0.1729914 -0.7765600752894976 0.5021614943942873
0.1749913 -0.7729609708822319 0.5072651224274936
0.1769912 -0.76919097954335 0.5121887651827337
0.1789911 -0.7659611972445302 0.5173182428809928
0.180991 -0.7622673190990865 0.5222387748265107
0.1829909 -0.7587088777740518 0.5273123039796935
0.1849908 -0.7553233754070272 0.5321445287966518
0.1869907 -0.7515717959793788 0.5378152024765228
0.1889906 -0.7474617569918119 0.5426714963776956
0.1909905 -0.7438221236943987 0.5475503404568419
0.1929904 -0.7403215785682996 0.5527057441062845
0.1949903 -0.7364738908510615 0.557469485205703
0.1969902 -0.7333851414204534 0.562207979632455
0.1989901 -0.7294509906410418 0.5670446658571986
0.20099 -0.7261123126986594 0.571878146217039
0.2029899 -0.7221544146593425 0.5764949197370537
0.2049898 -0.7179408238631542 0.5813403306988757
0.2069897 -0.7142098780304025 0.5860328185745536
0.2089896 -0.7104646125160919 0.5902854999176732
0.2109895 -0.706652311809856 0.5950802637710029
0.2129894 -0.7026021134170781 0.5998426325878274
0.2149893 -0.698896548247515 0.604484642894719
0.2169892 -0.6949659012034044 0.6085778831836129
0.2189891 -0.6907464279857451 0.6131340328445214
0.220989 -0.6865660733226163 0.6175918902699319
0.2229889 -0.6825022404063664 0.6220740365361943
0.2249888 -0.678539203176593 0.6263139355020415
0.2269887 -0.6741164048795638 0.6305423858267611
0.2289886 -0.6700442012971769 0.6347490728041639
0.2309885 -0.6657364694556871 0.6389646399809582
0.2329884 -0.6611521415932329 0.6432887362492453
0.2349883 -0.6570410573278579 0.6476103858505956
0.2369882 -0.6527527210826832 0.6516571106448793
0.2389881 -0.6482917592420762 0.655811094006076
0.240988 -0.6436355197313453 0.6597694647237335
0.2429879 -0.6390705539986895 0.663891905437908
0.2449878 -0.6345691108224422 0.6678673025066943
0.2469877 -0.6299793012096583 0.6718206410348347
0.2489876 -0.6252621104359553 0.676277107432698
0.2509875 -0.6208287375729223 0.6799733364303602
0.2529874 -0.6158924697695731 0.6842746224259598
0.2549873 -0.6111104627337619 0.6883820364635408
0.2569872 -0.6064676986912425 0.6924239849733509
0.2589871 -0.6018447178779226 0.6968286268833679
0.260987 -0.5969889647287028 0.7008486189915033
0.2629869 -0.5922158582468932 0.7046308318779133
0.2649868 -0.5874467088015812 0.7087755685272846
0.2669867 -0.5826041233802274 0.7125302156754694
0.2689866 -0.5777440163075359 0.7163792202811681
0.2709865 -0.5733854725544788 0.7200640961272374
0.2729864 -0.5683882056900246 0.724074075273378
0.2749863 -0.5633441724543153 0.7279609391612852
0.2769862 -0.558642580024473 0.7318539238613269
0.2789861 -0.5538716116366453 0.7355419387155858
0.280986 -0.5489028468486965 0.7391115817099321
0.2829859 -0.5436855750203411 0.7428958498975244
0.2849858 -0.5389614116940316 0.7462999685171543
0.2869857 -0.5343281516667707 0.7500941955299918
0.2889856 -0.5291106456030717 0.7535140948207869
0.2909855 -0.524174771301815 0.7570487954238532
0.2929854 -0.5193007165848641 0.760655525440894
0.2949853 -0.5143170396435544 0.7637594359975601
0.2969852 -0.5088822274540608 0.767101429929411
0.2989851 -0.5039449070920972 0.7703585038891243
0.300985 -0.4983559009092757 0.7736136113179034
0.3029849 -0.49342865920016704 0.776454958468759
0.3049848 -0.48816110948179203 0.7798488011041603
0.3069847 -0.4826546223163604 0.7829594515865579
0.3089846 -0.477433451157067 0.7857696374012076
0.3109845 -0.47181235081048484 0.7888336528960441
0.3129844 -0.46680124965075476 0.7917755560234587
0.3149843 -0.4612288210152981 0.7946656212197508
0.3169842 -0.45542885132252275 0.7977404233716282
0.3189841 -0.45022943356788186 0.8007450753662918
0.320984 -0.4444475251559763 0.8041260635664098
0.3229839 -0.4389653428249827 0.8068822897224442
0.3249838 -0.43332491914179344 0.8098149809327206
0.3269837 -0.42759159070028213 0.8129865428727947
0.3289836 -0.42233529607880055 0.8153919307518024
0.3309835 -0.4162023268857916 0.8183482058516445
0.3329834 -0.41084810719254605 0.8215918371169014
0.3349833 -0.4053196430478871 0.8234931543139039
0.3369832 -0.3994255048677838 0.8264020390725745
0.3389831 -0.3939246727085573 0.829626577948812
0.340983 -0.38810244388992243 0.8320598862899995
0.3429829 -0.3824713517973586 0.8348203121440343
0.3449828 -0.3766055286722951 0.8374747639261548
0.3469827 -0.37100239386269185 0.8401484811359371
0.3489826 -0.3652564819449478 0.8429243800879146
0.3509825 -0.3592095546742003 0.8456027777947894
0.3529824 -0.3535010290975827 0.8481187537706042
0.3549823 -0.348072741868596 0.8505777184968216
0.3569822 -0.3420955435781002 0.8530159771196923
0.3589821 -0.33598259468731356 0.8550697908774029
0.360982 -0.33033219372118044 0.8572421320097664
0.3629819 -0.32447748264129644 0.8598766395760695
0.3649818 -0.31856735688535337 0.8616524066673097
0.3669817 -0.31270758308091434 0.8640365607130548
0.3689816 -0.30679257395417425 0.8661340875889709
0.3709815 -0.30113672455493834 0.8682197143526779
0.3729814 -0.2949619930158246 0.8702164317774076
0.3749813 -0.28939980930611264 0.8723149218326475
0.3769812 -0.2833683610187329 0.8742302409762531
0.3789811 -0.27740463605870336 0.8763106818087373
0.380981 -0.2713675406022569 0.8777036158208271
0.3829809 -0.2657747853764969 0.8794824819915456
0.3849808 -0.2594957366856579 0.8813247661888194
0.3869807 -0.2534207098789716 0.8833255514697064
0.3889806 -0.24713898022724173 0.8849606496634743
0.3909805 -0.24134782743725852 0.886150208337882
0.3929804 -0.23509966910116148 0.8876787002260083
0.3949803 -0.2286356173360719 0.8892161889272943
0.3969802 -0.2224863707094834 0.8903714413205926
0.3989801 -0.2158921765114838 0.8921526310447818
0.40098 -0.21002162088560794 0.893553068811367
0.4029799 -0.20368167815629762 0.8946796451075524
0.4049798 -0.19731986460512993 0.8961432390954176
0.4069797 -0.1909023657306265 0.8975045753415655
0.4089796 -0.18446055641219392 0.8988782553282627
0.4109795 -0.17801172686130898 0.9002641606034296
0.4129794 -0.17209920073910354 0.9014718033319723
0.4149793 -0.16533401687387247 0.9024972049460069
0.4169792 -0.1586868093528272 0.9042865972004374
0.4189791 -0.15254855835685388 0.9050637212954388
0.420979 -0.1462994218313261 0.905991987242616
0.4229789 -0.13971445984932412 0.9067324985389744
0.4249788 -0.13365074206285688 0.9080618436708241
0.4269787 -0.1272081235162738 0.9090254514891158
0.4289786 -0.12060475625988115 0.909877647797275
0.4309785 -0.11426606106313156 0.9108735856116558
0.4329784 -0.10793293146246657 0.9116837560930298
0.4349783 -0.10159774959900421 0.9123779426374125
0.4369782 -0.09491518622218141 0.9132967204737591
0.4389781 -0.08817408580869157 0.914123389196268
0.440978 -0.08200363045872788 0.9146739453587682
0.4429779 -0.07572886679944073 0.9150898063279362
0.4449778 -0.0690054453639051 0.9156587499996387
0.4469777 -0.06286014987044325 0.9158758642298559
0.4489776 -0.05627003433400013 0.9164304199911996
0.4509775 -0.04997460535444494 0.9167212892628959
0.4529774 -0.043675808447888494 0.9171295966154052
0.4549773 -0.037059850707566976 0.9176775193597592
0.4569772 -0.030814315949102243 0.9181546268416523
0.4589771 -0.024040937990201204 0.9179820448515101
0.460977 -0.017283575080144227 0.9181758951009501
0.4629769 -0.010711630240344116 0.9181074001642047
0.4649768 -0.004202331533328356 0.9182595675204772
0.4669767 0.00252585251682072 0.9178107724423692
0.4689766 0.009134378303688555 0.91790717163504
0.4709765 0.015749846645380858 0.9177039941938421
0.4729764 0.022398719157669843 0.9180583135494663
0.4749763 0.028981985101756442 0.9176153845437305
0.4769762 0.035528848131673445 0.9173402647743103
0.4789761 0.04206229733983998 0.9172186131748402
0.480976 0.048828159219882594 0.9172134972756896
0.4829759 0.05556712408908018 0.9166895729691337
0.4849758 0.06196494443077427 0.9166686276852676
0.4869757 0.0688533825259661 0.9160476668976175
0.4889756 0.07524050123706491 0.9160313477705806
0.4909755 0.08204169685728438 0.9153070620973969
0.4929754 0.0883027458474926 0.9149222468437372
0.4949753 0.09498806172231467 0.9144351279626556
0.4969752 0.10189519527197628 0.9135313438279151
0.4989751 0.10796928402991496 0.9133758623799814
0.500975 0.11445539628481102 0.9129317949497197
0.5029749 0.12096807310258267 0.9118679557925914
0.5049748 0.12751235432660674 0.9109172772667677
0.5069747 0.1336944884747554 0.9099436411808792
0.5089746 0.1402560974561785 0.909113606864784
0.5109745 0.14695928221654675 0.90800761697759
0.5129744 0.15303019025367567 0.906760764375798
0.5149743 0.15971040780880785 0.9054300338351919
0.5169742 0.1664131813928868 0.9043896440735849
0.5189741 0.1728218190112979 0.9033958875207725
0.520974 0.17953606157145563 0.9018695931266218
0.5229739 0.18580488099843384 0.900220774548714
0.5249738 0.19240335730732916 0.8991157167949134
0.5269737 0.19860895247666788 0.8974368048806575
0.5289736 0.20520084554269868 0.8956493813888114
0.5309735 0.21168270008257362 0.8940968877322419
0.5329734 0.2184254018178901 0.8922136647927785
0.5349733 0.2246648355661088 0.8903752529328589
0.5369732 0.2313614910125054 0.8884736860159861
0.5389731 0.23796725708985375 0.8867710486342149
0.540973 0.24481063811242976 0.8849273939600902
0.5429729 0.2513387710695832 0.8831750581123801
0.5449728 0.25802831776377083 0.8813859599321244
0.5469727 0.2644288490101583 0.8793296697825702
0.5489726 0.2713233119856473 0.8773500344046464
0.5509725 0.2777278776980487 0.8756165835530181
0.5529724 0.28431043403300515 0.8734930880550451
0.5549723 0.29083520227611104 0.8709672055289678
0.5569722 0.29753400603325975 0.8690957900729801
0.5589721 0.3038565254773229 0.8667963009948852
0.560972 0.3107016629376946 0.8647105167781798
0.5629719 0.3174513213416379 0.862878836963297
0.5649718 0.3240828835148643 0.8609917315549112
0.5669717 0.3301913213896285 0.8588091448637518
0.5689716 0.3365218086966518 0.8566401543582199
0.5709715 0.3429329878990618 0.853992388839699
0.5729714 0.34964086350512863 0.8514606508741005
0.5749713 0.3558591882114249 0.8490500569760828
0.5769712 0.3618458118272393 0.8468367740578754
0.5789711 0.3678968444896216 0.844263191053912
0.580971 0.3739299107270176 0.8416988905014882
0.5829709 0.38006796981092034 0.8387394570524517
0.5849708 0.3863462357281558 0.8363005477814507
0.5869707 0.39205122631657696 0.8335747861366236
0.5889706 0.39866592514862353 0.830386496195739
0.5909705 0.4044427794265641 0.8274614973432872
0.5929704 0.41066235351392044 0.8243340332298996
0.5949703 0.4162824520371093 0.8213579609916717
0.5969702 0.4224842530725491 0.8176536934498919
0.5989701 0.4285971823991246 0.8146483646407642
0.60097 0.43465205392405215 0.8115716289398232
0.6029699 0.44086668293124676 0.8077751130302616
0.6049698 0.4464465089404969 0.804198892720041
0.6069697 0.45226417052113765 0.8005649847106895
0.6089696 0.4583476945071547 0.797664193248365
0.6109695 0.46462125651744923 0.7939381600698943
0.6129694 0.47037672572154265 0.7897222713564029
0.6149693 0.4764278497301419 0.786799548803711
0.6169692 0.4824927208053489 0.7831608696239675
0.6189691 0.48872155915632304 0.77930744934345
0.620969 0.49437321104875676 0.775659759428698
0.6229689 0.5004157754205091 0.771389095556664
0.6249688 0.506417876851787 0.7677526614104205
0.6269687 0.512537067654277 0.7639443040675308
0.6289686 0.5182643753094507 0.76032030042998
0.6309685 0.5241362960516028 0.7561190182370127
0.6329684 0.5298881537296551 0.7522681948530359
0.6349683 0.536032811950843 0.7487207673179004
0.6369682 0.5415739307856849 0.7443367767968179
0.6389681 0.5473632724889851 0.74053209874275
0.640968 0.5531798591938972 0.736825387353418
0.6429679 0.5589386584033122 0.7328751156282916
0.6449678 0.5641011135862424 0.7286373014852116
0.6469677 0.5698085847022081 0.7244906797905887
0.6489676 0.5747980781246362 0.7207995624366215
0.6509675 0.5800920560270206 0.7170438164532819
0.6529674 0.5862886794670985 0.7121823431160773
0.6549673 0.5915012906900675 0.7079965555606398
0.6569672 0.5963311390714218 0.703101279374672
0.6589671 0.601737746222053 0.6989790649860533
0.660967 0.6065739795278877 0.694876597334156
0.6629669 0.611867284675527 0.6898825399277443
0.6649668 0.6164230239641658 0.6852893678713875
0.6669667 0.6217350991786342 0.6802529496663923
0.6689666 0.6265781129760774 0.676001341357256
0.6709665 0.6316104463488696 0.6709681377677346
0.6729664 0.6363213010936832 0.6658639550209204
0.6749663 0.6411184885441777 0.6615611914392535
0.6769662 0.6468596498807222 0.6558919579467457
0.6789661 0.6515584719795445 0.650939310257545
0.680966 0.6562535865168789 0.6454791816643461
0.6829659 0.6612205640311798 0.6404231975671422
0.6849658 0.6662099340136329 0.6355876909429768
0.6869657 0.6711146715546081 0.6303741210183528
0.6889656 0.6755700146891223 0.6246867160337436
0.6909655 0.6802447106411637 0.6195403314524814
0.6929654 0.6855292327151463 0.6135887860004922
0.6949653 0.6898665407779039 0.608920900049073
0.6969652 0.69485284389565 0.6028456142478603
0.6989651 0.6997792150150575 0.5975685466182189
0.700965 0.704357200018493 0.5918132443829975
0.7029649 0.7089617055982005 0.5865046759967455
0.7049648 0.7136961375417897 0.5810140169123056
0.7069647 0.7184814963526825 0.5753134798472495
0.7089646 0.7232327191312025 0.5701928377529678
0.7109645 0.7279528019989636 0.56457393935374
0.7129644 0.732454915097485 0.5592579807390551
0.7149643 0.736824304696077 0.5533703666845894
0.7169642 0.741404945806349 0.5481131819940355
0.7189641 0.745526247461808 0.5425197077012481
0.720964 0.7494880246454808 0.5368310487880703
0.7229639 0.7536122650069998 0.5311858914224266
0.7249638 0.7580012853521984 0.5255858008836656
0.7269637 0.7622125838434676 0.5199030398057005
0.7289636 0.7658642247991383 0.514108524683164
0.7309635 0.7703387972282778 0.5084651891185175
0.7329634 0.7738978561776844 0.5027136340846484
0.7349633 0.7779635496331329 0.49680862935410397
0.7369632 0.7811430657692007 0.49107131588244396
0.7389631 0.785005061141288 0.48519630404294967
0.740963 0.7881610911778323 0.47873357690508933
0.7429629 0.7920172808953682 0.4732228628133264
0.7449628 0.7957474654282433 0.4672111295154979
0.7469627 0.7990480433370799 0.4612333114233626
0.7489626 0.8022828243634452 0.454975059317278
0.7509625 0.8055147787840053 0.448253790822544
0.7529624 0.8091885818363915 0.4424947995434429
0.7549623 0.8126131801561306 0.4362356497276565
0.7569622 0.8155688197493418 0.42949338167834317
0.7589621 0.8183649999382039 0.4229734748743573
0.760962 0.82161084492521 0.4170912525095412
0.7629619 0.8251854864360901 0.40995192715572204
0.7649618 0.828193465333188 0.40380789173350157
0.7669617 0.8314559822195678 0.3973722536633405
0.7689616 0.8344151500175981 0.39048523191144935
0.7709615 0.8371984468049413 0.38396243166744776
0.7729614 0.8403910098225964 0.3774157687863868
0.7749613 0.8433738578101044 0.3707640252518473
0.7769612 0.8461286614216105 0.36398035019217506
0.7789611 0.8487156893213048 0.3571461653780547
0.780961 0.8516720923537862 0.3507404549630366
0.7829609 0.8543357752536944 0.34423083643986346
0.7849608 0.8574881561705106 0.337602821544042
0.7869607 0.8600268658801716 0.3307542275110151
0.7889606 0.8627389492880712 0.3241769953448763
0.7909605 0.8651873223869115 0.31765024902983097
0.7929604 0.867762294584564 0.3108313618251414
0.7949603 0.8699581379209089 0.30447058583448255
0.7969602 0.8727664855636807 0.29749851789651
0.7989601 0.8751460944011211 0.29076135458096947
0.80096 0.8773117585975313 0.28420349565783326
0.8029599 0.8796564120792135 0.2773603868061113
0.8049598 0.881424943882656 0.2706322885330787
0.8069597 0.8834774397553075 0.2641062570370188
0.8089596 0.8853340123047084 0.2567694382861693
0.8109595 0.8868864416105379 0.2502061775708166
0.8129594 0.8892253786368798 0.24355201582757202
0.8149593 0.8910044401221765 0.23677840160739674
0.8169592 0.8927865730359565 0.22978457908992517
