! Created with skrf 1.8.0 (http://scikit-rf.org).
# GHz S RI R 50.0 
!freq ReS11 ImS11
0.001 -0.939368648477253 0.005181615474903041
0.0029999 -0.9394043636217339 0.011871700154057592
0.0049998 -0.938171951914397 0.018101510847794558
0.0069997 -0.9373604896529565 0.024429712927935436
0.0089996 -0.936864658672858 0.031257590880982754
0.0109995 -0.9364479038072635 0.0374367375077951
0.0129994 -0.9359266824050232 0.043954794490700236
0.0149993 -0.9350903299341385 0.05048143280099176
0.0169992 -0.934628652215708 0.05660528912270766
0.0189991 -0.9336624933259895 0.06308646422691269
0.020999 -0.933089485445724 0.06937039742295573
0.0229989 -0.9321917226880246 0.07569900143367841
0.0249988 -0.9310083142294328 0.0821537443060738
0.0269987 -0.9306082027477046 0.08850462799999864
0.0289986 -0.9296741751063695 0.09469334362035539
0.0309985 -0.9286524588838025 0.10086717482421673
0.0329984 -0.9276703962311735 0.10697690237274934
0.0349983 -0.9267529767004975 0.11354065804475379
0.0369982 -0.9255973325961059 0.1198175302340064
0.0389981 -0.9245981646261446 0.12618932460556717
0.040998 -0.923861011130542 0.13202578104633036
0.0429979 -0.9223250809167243 0.13812095396286705
0.0449978 -0.9213736014349372 0.144156520572078
0.0469977 -0.9198303609517042 0.15044322437793867
0.0489976 -0.9187630161329465 0.15655169473680597
0.0509975 -0.9172379774498415 0.16279757866947342
0.0529974 -0.9160905504535105 0.16944271894387444
0.0549973 -0.9150008391492143 0.17484659781949774
0.0569972 -0.9134225845388462 0.18098695351180982
0.0589971 -0.9119380027405989 0.18685466832658668
0.060997 -0.91033731007567 0.19296466327175882
0.0629969 -0.9089931370124126 0.19879821783983104
0.0649968 -0.9073780597762694 0.2047542211817395
0.0669967 -0.9060278012613083 0.21072599007856702
0.0689966 -0.9042470122037516 0.21677789554907262
0.0709965 -0.9025048074948968 0.22259599338124061
0.0729964 -0.9010225421055826 0.22869187129757004
0.0749963 -0.8992295746417424 0.23431802876146024
0.0769962 -0.8969911635655397 0.24036716279896483
0.0789961 -0.8953352916661275 0.24623860784776608
0.080996 -0.8934728828536062 0.252088991844343
0.0829959 -0.8917825610161536 0.2580875550770673
0.0849958 -0.8894990182891581 0.26363838705736675
0.0869957 -0.8877525577426177 0.2693375761419155
0.0889956 -0.8854490822935609 0.27539256125987716
0.0909955 -0.8834992750291191 0.28094328090587567
0.0929954 -0.8813306481898073 0.28691887577236236
0.0949953 -0.879603127230397 0.2922288112077933
0.0969952 -0.8771539736273388 0.2980822177310091
0.0989951 -0.8751236814354791 0.3036879736051866
0.100995 -0.8726264841360697 0.30945844333126815
0.1029949 -0.870419858645551 0.3151361950200054
0.1049948 -0.8680946456255907 0.32099367898136066
0.1069947 -0.8657209072009319 0.3265936238862614
0.1089946 -0.8634862797704451 0.33215826861056985
0.1109945 -0.8611301409081507 0.3381956904117951
0.1129944 -0.8586594809083791 0.34381311836176265
0.1149943 -0.8564103133254531 0.34938620758952005
0.1169942 -0.8536161415081278 0.35500849973721094
0.1189941 -0.8513943542119486 0.3608080211657642
0.120994 -0.8488144079988553 0.366107503973995
0.1229939 -0.846379501211336 0.37153190315451684
0.1249938 -0.8440146737710605 0.37718686963812803
0.1269937 -0.84164171718391 0.3826715392128478
0.1289936 -0.838977324092469 0.3882622868619588
0.1309935 -0.8359309678703437 0.3933390963103712
0.1329934 -0.8333866383801235 0.3985291128091165
0.1349933 -0.8306810199746896 0.4041907980809417
0.1369932 -0.8281607082497212 0.40956667770946664
0.1389931 -0.8254079722981001 0.4150880655306207
0.140993 -0.822520801138405 0.4200958760683758
0.1429929 -0.8197893343828336 0.42560169372505424
0.1449928 -0.8165575692533051 0.4308867060738575
0.1469927 -0.8138525837141869 0.4360980476310103
0.1489926 -0.810679675946527 0.44089890025492895
0.1509925 -0.8076769688117325 0.4463816497941398
0.1529924 -0.8045146470317717 0.4510909090081426
0.1549923 -0.8013095790719807 0.4562269190967102
0.1569922 -0.7978304146252311 0.461280601563445
0.1589921 -0.7949174384628308 0.4669146513003742
0.160992 -0.7911939995598158 0.4718419084217597
0.1629919 -0.7881090612391775 0.47686082942570557
0.1649918 -0.785002491836588 0.4819200646203752
0.1669917 -0.7815581936398341 0.48674593285981554
0.1689916 -0.7783585192766379 0.49175365820566025
0.1709915 -0.7750132386927786 0.49714407218331
0.1729914 -0.7712447532505081 0.5019644598522524
0.1749913 -0.7678271783496565 0.5071071117586807
0.1769912 -0.7639788258010506 0.5120736135888859
0.1789911 -0.7608204410143494 0.517087134855797
0.180991 -0.7570767118602214 0.5221623435646521
0.1829909 -0.7532407064738725 0.5271712215418849
0.1849908 -0.7500665040569211 0.5318423218599353
0.1869907 -0.7463419917411768 0.5374472363866615
0.1889906 -0.7421484149771435 0.5426470019509729
0.1909905 -0.738652951919626 0.5471249737909859
0.1929904 -0.735057694660561 0.5523940009397339
0.1949903 -0.7313494258293732 0.5570591693350722
0.1969902 -0.7281301074965376 0.5617836812274263
0.1989901 -0.7242240072326654 0.5665935337396333
0.20099 -0.720822811179124 0.5714823124043984
0.2029899 -0.7167697014120559 0.5761659851983069
0.2049898 -0.7125990114681562 0.5806812326216334
0.2069897 -0.7088893600553007 0.5855586321570849
0.2089896 -0.7051230203656567 0.590073029313784
0.2109895 -0.7013756786749953 0.594734792192107
0.2129894 -0.6972242795190718 0.5993630626145935
0.2149893 -0.6935994881708262 0.6041041924207704
0.2169892 -0.6895902805586378 0.6081043713761792
0.2189891 -0.6854759978008852 0.6127032809429067
0.220989 -0.6813924495215485 0.6171889806646296
0.2229889 -0.6769808877635061 0.6216370576430014
0.2249888 -0.6731290555465282 0.6260890507133553
0.2269887 -0.6687491535758244 0.6300364402155373
0.2289886 -0.6646650539886492 0.6342898127476814
0.2309885 -0.6603952917259807 0.63849842368814
0.2329884 -0.6557914597418271 0.64278849871737
0.2349883 -0.6516743093137222 0.6471744508767007
0.2369882 -0.6473017936340203 0.6511894995362241
0.2389881 -0.6430032788872465 0.6554392708123612
0.240988 -0.638395815659424 0.6592631655505878
0.2429879 -0.6337373181244087 0.6634107608879983
0.2449878 -0.6292440501085308 0.6673654440812167
0.2469877 -0.6247991158924231 0.6713421484393187
0.2489876 -0.6200032923307205 0.6757256158595908
0.2509875 -0.6155895963453271 0.6795317732492171
0.2529874 -0.6105997843909523 0.6837662573114202
0.2549873 -0.6058914798146993 0.6878592341810469
0.2569872 -0.6012513253276465 0.6917822466099248
0.2589871 -0.5967387130764412 0.6962067060400761
0.260987 -0.5916746816922968 0.7001411209328889
0.2629869 -0.5869181683691125 0.7040363727794988
0.2649868 -0.5820978509880782 0.708096350070989
0.2669867 -0.5771672281922172 0.7118141400366983
0.2689866 -0.5724730649369812 0.7156254553457373
0.2709865 -0.5679727616359747 0.7194440907381814
0.2729864 -0.5629677808687353 0.7233285290116271
0.2749863 -0.5578443784223407 0.7271612008469812
0.2769862 -0.553220673933126 0.7310823173023863
0.2789861 -0.5482706245414047 0.7346394944134181
0.280986 -0.5433821050115779 0.7384151766565662
0.2829859 -0.5382593359629735 0.7422323852223388
0.2849858 -0.5335025811385434 0.7455605732410413
0.2869857 -0.5288007338405314 0.7494011473531345
0.2889856 -0.5236301319176664 0.7527548995512714
0.2909855 -0.5187279992020134 0.7564317273403692
0.2929854 -0.5135990388533307 0.7597929196106218
0.2949853 -0.5086920853871404 0.7631125559378152
0.2969852 -0.5033901032235515 0.7664254523744979
0.2989851 -0.49850135403055035 0.7695712919620062
0.300985 -0.49285264066205087 0.772768584183129
0.3029849 -0.4878031209827943 0.7757118312907904
0.3049848 -0.48267242871026955 0.7792132148075831
0.3069847 -0.4771476701095292 0.782171797385412
0.3089846 -0.47199916179512674 0.7848274265092902
0.3109845 -0.46622590159911625 0.7880168523684731
0.3129844 -0.4612996630640168 0.7910148087579727
0.3149843 -0.45571144124382906 0.793843180026229
0.3169842 -0.449999658927954 0.7968294111998587
0.3189841 -0.44481961301831147 0.7998960869687677
0.320984 -0.4390979239790296 0.8030109010504689
0.3229839 -0.43345938482279234 0.8060763687930078
0.3249838 -0.42785289019383493 0.8089232848597222
0.3269837 -0.42236535668372216 0.8121325208886649
0.3289836 -0.41656650179220694 0.8145079453265666
0.3309835 -0.41050995216715885 0.8172845189503966
0.3329834 -0.40549530278240786 0.8204773806694298
0.3349833 -0.3996798736843227 0.8224335716075724
0.3369832 -0.39384763977336384 0.8253976432633923
0.3389831 -0.3883823897882366 0.8285327925672198
0.340983 -0.3826880797766064 0.8310922121228952
0.3429829 -0.3769345824105911 0.83374848337525
0.3449828 -0.3711727288347834 0.8362767232834581
0.3469827 -0.36546749432852904 0.8391609792989626
0.3489826 -0.35964566165137546 0.8418355492629891
0.3509825 -0.3537328872952842 0.8443226248933347
0.3529824 -0.3477962746383015 0.8469586597565247
0.3549823 -0.3424738115753339 0.8495990154365595
0.3569822 -0.3363750797017591 0.8518085188406808
0.3589821 -0.33036374042329447 0.8539796465037552
0.360982 -0.32485831963978223 0.8559919545322602
0.3629819 -0.31880788890083217 0.8586381918801465
0.3649818 -0.3130366995567587 0.860408757603189
0.3669817 -0.30717248193368746 0.8626578265123469
0.3689816 -0.30124386399417397 0.8648076565853334
0.3709815 -0.2956294445513458 0.8667722152244988
0.3729814 -0.2896705175933387 0.8687574480283834
0.3749813 -0.2838015203855662 0.8709886593330194
0.3769812 -0.27770917371552584 0.8729525398746912
0.3789811 -0.2717455504084766 0.874914124552946
0.380981 -0.26592218335805157 0.8763997392254823
0.3829809 -0.26025708479367876 0.878101214880471
0.3849808 -0.2539978258179124 0.8798756775190599
0.3869807 -0.24792842673956042 0.8817608683489784
0.3889806 -0.24165988725532078 0.883466981132852
0.3909805 -0.23573980108233036 0.8848847874699188
0.3929804 -0.22952556158946627 0.8862426566065595
0.3949803 -0.22326068673156213 0.8878853532560785
0.3969802 -0.21696069999219475 0.8889374342268425
0.3989801 -0.21063097589014648 0.8905906974574294
0.40098 -0.20426086649476266 0.8919734413255569
0.4029799 -0.19811838577968494 0.8930067572997927
0.4049798 -0.1918379295591052 0.8946792341128889
0.4069797 -0.18541732451396262 0.8958137507009618
0.4089796 -0.17924893755442914 0.89711865643099
0.4109795 -0.17259622158418766 0.8984661696887419
0.4129794 -0.16622350845551398 0.8996093438113651
0.4149793 -0.15975992555177132 0.9007565754629611
0.4169792 -0.15300614717181443 0.9023301492349741
0.4189791 -0.14691511007313696 0.9031792348531751
0.420979 -0.1405226159943948 0.9041041807222049
0.4229789 -0.13417079572276053 0.9050030038424891
0.4249788 -0.12789084198254724 0.9062723896506298
0.4269787 -0.12145021838554862 0.9071709727813376
0.4289786 -0.11495353581221088 0.908055337713835
0.4309785 -0.10859868129318925 0.9090485803786829
0.4329784 -0.10224251121599079 0.9097193000424467
0.4349783 -0.09603378837102441 0.9104274636302122
0.4369782 -0.08938780805300345 0.9115350984472891
0.4389781 -0.08245374091853734 0.9120771033233832
0.440978 -0.07645533535492482 0.9127349701050533
0.4429779 -0.07020233719059848 0.9131722368514822
0.4449778 -0.06352106849602712 0.9136430613924195
0.4469777 -0.05718447561887646 0.9139129025585012
0.4489776 -0.05076867756187069 0.9143074603781167
0.4509775 -0.04436919670453697 0.9150209087759679
0.4529774 -0.03796726598646155 0.9151126947175936
0.4549773 -0.03161118385962218 0.9155843813593362
0.4569772 -0.024981827585457146 0.9158063412694911
0.4589771 -0.018361175618340907 0.9157875606356051
0.460977 -0.011718954499450766 0.9160191305820294
0.4629769 -0.005092291613703077 0.9159851325957147
0.4649768 0.001312966535668785 0.9159731089514878
0.4669767 0.008222102963640012 0.9155557181812101
0.4689766 0.014836552201186718 0.9157298538210331
0.4709765 0.021243772126583984 0.9152882427901262
0.4729764 0.028000616695047276 0.9157662820868762
0.4749763 0.03447595593597047 0.9153115540952284
0.4769762 0.041018972627846595 0.9149690356114305
0.4789761 0.04758453746936754 0.9147173204496749
0.480976 0.05430021362390504 0.9147155086530125
0.4829759 0.06130105917597301 0.9141682548078327
0.4849758 0.0676211005376843 0.9140512345046489
0.4869757 0.07417754365464868 0.9135561446779178
0.4889756 0.08080652714677573 0.9135597954060073
0.4909755 0.08763733191148686 0.9127607864784988
0.4929754 0.09369420033916827 0.9122837405413631
0.4949753 0.10060628884471774 0.9117739948340573
0.4969752 0.10755578201673698 0.9108848334397689
0.4989751 0.11366724099768441 0.9105753354174867
0.500975 0.12023869449668778 0.9101176413770758
0.5029749 0.1267447677856124 0.9091737399432992
0.5049748 0.13314136603026283 0.9083605155682493
0.5069747 0.13916357840048413 0.9071504513597798
0.5089746 0.14593083762150588 0.9065367852542735
0.5109745 0.15256959584312446 0.9052065588595075
0.5129744 0.15870412081366128 0.9039385036278268
0.5149743 0.1654105289227365 0.9028208128913998
0.5169742 0.17197978219152565 0.9017874911760178
0.5189741 0.17832697409998274 0.900652406262116
0.520974 0.18500997756967738 0.8991655867639394
0.5229739 0.19136972972241914 0.8974913656787641
0.5249738 0.19781757644960757 0.8962648759639947
0.5269737 0.20406880261025168 0.8946748449396283
0.5289736 0.21062323958024198 0.8930776270173382
0.5309735 0.21702276969936557 0.8912854605654796
0.5329734 0.2238160863577311 0.889359535163241
0.5349733 0.22994830523434115 0.8873587148654691
0.5369732 0.2368012390479311 0.8856451815853211
0.5389731 0.24339427911954384 0.883892328974189
0.540973 0.25021965524437084 0.8819467487949397
0.5429729 0.25653858989145023 0.8803114945472282
0.5449728 0.2632428056842956 0.8782784794687853
0.5469727 0.2697296743046149 0.8761998287138777
0.5489726 0.2765599326093303 0.8742906680364583
0.5509725 0.2830581508330688 0.8726249602356876
0.5529724 0.2894892079229981 0.8703163754880283
0.5549723 0.2959429414146499 0.8679932583788519
0.5569722 0.30260250127242644 0.865978826474472
0.5589721 0.30915766999186867 0.8636510572041167
0.560972 0.31591272560431555 0.8615054383236013
0.5629719 0.3227932729832278 0.8596076133366086
0.5649718 0.32919714803232836 0.8577268857219442
0.5669717 0.33544973165989783 0.8554534135095808
0.5689716 0.3418521872125336 0.853032669418451
0.5709715 0.34803470925813723 0.850667265541792
0.5729714 0.3549777244430252 0.8481924357306132
0.5749713 0.3609390166835255 0.8457306861363576
0.5769712 0.36724606678809363 0.8433410882169823
0.5789711 0.37331157592372627 0.840781077529488
0.580971 0.37907722961516244 0.8382526350399719
0.5829709 0.38535326756406546 0.8353962727965546
0.5849708 0.39159654780789294 0.8328249669283765
0.5869707 0.39718574139833984 0.830087510288688
0.5889706 0.40371032102103765 0.8269542154438283
0.5909705 0.4096600342258411 0.8239699050467384
0.5929704 0.41574124368258636 0.8208119388843464
0.5949703 0.4214633325950041 0.8179088327594536
0.5969702 0.42770873520503944 0.8142162434800075
0.5989701 0.4339255487701403 0.8112878952392962
0.60097 0.4395755255915315 0.8078375539127896
0.6029699 0.4462261762062419 0.8040761654471379
0.6049698 0.45156694593963603 0.8005560907128512
0.6069697 0.45726815026713363 0.796982942057464
0.6089696 0.4635607020161506 0.7938018321932746
0.6109695 0.4697397026672914 0.7901302805870383
0.6129694 0.4754219566352316 0.7858764803934921
0.6149693 0.4814882252507034 0.7828990374532855
0.6169692 0.4877849437680608 0.7790456266664623
0.6189691 0.4937566880742379 0.7751285387804672
0.620969 0.49952351195354006 0.7716375089326709
0.6229689 0.5054364929361438 0.7673792084741491
0.6249688 0.5113142537968709 0.7636036477758111
0.6269687 0.5174421274770709 0.7597921369482367
0.6289686 0.5232852501197162 0.7562150145290767
0.6309685 0.5292332724601143 0.7519179581874091
0.6329684 0.5348314745640241 0.7479899641809165
0.6349683 0.540958391484218 0.7444395393446885
0.6369682 0.5464986753315892 0.7401833128779669
0.6389681 0.5522706124300991 0.7362476344966954
0.640968 0.5583847664081862 0.7323909796975641
0.6429679 0.5639613631279552 0.7284265221530714
0.6449678 0.569144906179589 0.7242809828855415
0.6469677 0.5747486832409774 0.7199679359487832
0.6489676 0.5797414399463352 0.7163530247462551
0.6509675 0.5854220943700009 0.7124247040193675
0.6529674 0.5913157286715754 0.7076521430965353
0.6549673 0.5964008633935182 0.70354465140934
0.6569672 0.6014995198069066 0.6986310732316338
0.6589671 0.6067669385568082 0.6946319246945609
0.660967 0.611504980443294 0.6902909416068905
0.6629669 0.6171064943586868 0.6851392368199748
0.6649668 0.621136420204085 0.680670390979539
0.6669667 0.6266109815820772 0.6756342892852779
0.6689666 0.6318054608806106 0.6712427761387573
0.6709665 0.636472944030163 0.6664957145189074
0.6729664 0.6414892728720716 0.6611528781939682
0.6749663 0.6459532048690103 0.6567590220287016
0.6769662 0.651709224944804 0.6510138256418452
0.6789661 0.6565441530822409 0.6460369875430151
0.680966 0.6608363910384506 0.6410575965048944
0.6829659 0.6661878859134364 0.6355646851188897
0.6849658 0.6710574175169501 0.6306936179167982
0.6869657 0.6757497410041932 0.6253512618962058
0.6889656 0.6803946542795447 0.6198014648188948
0.6909655 0.684933140380928 0.6146744052850096
0.6929654 0.6902319841202806 0.6086464818316101
0.6949653 0.6947645697743724 0.6037408636974705
0.6969652 0.6995699951597155 0.5978197869004289
0.6989651 0.7044558212822368 0.5924038568000298
0.700965 0.7091060903156872 0.5867898602831951
0.7029649 0.7137236146059072 0.5812329425743664
0.7049648 0.7184323914015326 0.5758162417086923
0.7069647 0.7231894771620215 0.570004036622574
0.7089646 0.7280357044957015 0.5647647075624165
0.7109645 0.7327215601968691 0.5591805028619085
0.7129644 0.7373007032459782 0.5537962643949812
0.7149643 0.7415317497054468 0.5479726404936291
0.7169642 0.7461810233113989 0.5424100323998273
0.7189641 0.7501379114879847 0.5369833040388956
0.720964 0.7541913738119697 0.5312577876175267
0.7229639 0.7583018048424898 0.5254905842201624
0.7249638 0.7627807432205955 0.5196638986160307
0.7269637 0.7670249199475088 0.5140686862275048
0.7289636 0.7706762400069517 0.5082509602700201
0.7309635 0.7748783107953816 0.50280083050297
0.7329634 0.778703293840129 0.496894352284217
0.7349633 0.7824388594765068 0.4910593750083738
0.7369632 0.7857123118496376 0.48519820204700426
0.7389631 0.789340374409371 0.47933978971653624
0.740963 0.7929228349978732 0.4726452140633217
0.7429629 0.7966785028968846 0.46712929530744784
0.7449628 0.8001349347177578 0.4610482744417005
0.7469627 0.8035614181159073 0.4549845969284215
0.7489626 0.8068345049451807 0.4486503384287662
0.7509625 0.8103732378475286 0.44192165875203776
0.7529624 0.8138217438131423 0.43618491548744304
0.7549623 0.8172218092236228 0.42958637040555947
0.7569622 0.8200971653121513 0.42307120400080434
0.7589621 0.8229547548860616 0.4164297512496174
0.760962 0.8260444133405689 0.41042638236476375
0.7629619 0.8297145151293324 0.40333862398896897
0.7649618 0.8327161991715321 0.3969017728263636
0.7669617 0.8356252266303554 0.3904632279822449
0.7689616 0.8387170892590795 0.38357645166989873
0.7709615 0.8414960242960665 0.37713378689782107
0.7729614 0.8447976767281248 0.37037007560891805
0.7749613 0.8476264844173549 0.36380387092762934
0.7769612 0.8503308586412781 0.357076417792239
0.7789611 0.8529972194361478 0.35005703060633603
0.780961 0.8559069668021527 0.3435996892634875
0.7829609 0.8584635725386869 0.3369523313405246
0.7849608 0.8616294651643731 0.33031400001840233
0.7869607 0.8641143719486237 0.3234936370777617
0.7889606 0.8667753706653273 0.3166011497927135
0.7909605 0.8690435440036992 0.30998942909263605
0.7929604 0.8717584668190235 0.30343096049149265
0.7949603 0.8741685966692976 0.2966770772174067
0.7969602 0.8766991928737453 0.2899148221869813
0.7989601 0.8789824312824797 0.283079984082333
0.80096 0.8812684489672739 0.27619225636744077
0.8029599 0.883692812599196 0.26942732165419003
0.8049598 0.885544438061833 0.2627199172719602
0.8069597 0.8873219330865856 0.2560447188703672
0.8089596 0.8890355914308469 0.24902041115342596
0.8109595 0.890900725779939 0.2419768235848409
0.8129594 0.8931073824465786 0.23541289461762055
0.8149593 0.894947772999701 0.22845125693701837
