! Created with skrf 1.8.0 (http://scikit-rf.org).
# GHz S RI R 50.0 
!freq ReS11 ImS11
0.001 -0.9391381790978517 0.00474739209780454
0.0029999 -0.9387795789255774 0.010929437811047889
0.0049998 -0.9375195685168247 0.01699019073671222
0.0069997 -0.9374785918501449 0.023115141317110288
0.0089996 -0.9366120082301731 0.029121236343485533
0.0109995 -0.9361657316999715 0.03511219846285934
0.0129994 -0.9358619827011503 0.04122712605552399
0.0149993 -0.9349237690006041 0.0472543467327064
0.0169992 -0.9345080462612073 0.05301737027086516
0.0189991 -0.9338108359558229 0.058942836534592646
0.020999 -0.9330489047534749 0.06494181978122904
0.0229989 -0.9323707202722924 0.07089474915775223
0.0249988 -0.9310994928806475 0.07688987909145527
0.0269987 -0.9308130731047363 0.0827066422248034
0.0289986 -0.929909682106984 0.08853055627694861
0.0309985 -0.9289203228550044 0.0943642882941337
0.0329984 -0.9280379006849913 0.1001164311496901
0.0349983 -0.9271721552035134 0.10615942686839316
0.0369982 -0.9260771435738511 0.11198175422819011
0.0389981 -0.9252604544484705 0.11796834956548582
0.040998 -0.9245808540811018 0.1233040663028126
0.0429979 -0.9232149680480651 0.12925607724780327
0.0449978 -0.9221876072668357 0.1347091107738656
0.0469977 -0.9207989963136767 0.14070275963112597
0.0489976 -0.9200606122716906 0.14636850737068766
0.0509975 -0.9188800676468868 0.15222423864899742
0.0529974 -0.9176055169759563 0.1578652068530247
0.0549973 -0.9164375601983066 0.16353248313975283
0.0569972 -0.9152164206549609 0.16921322989131496
0.0589971 -0.913783772307229 0.17462856466564614
0.060997 -0.9123816393177803 0.1803423370104718
0.0629969 -0.9111426909107755 0.18579434071373335
0.0649968 -0.9097670257972925 0.19130880743099432
0.0669967 -0.9086626541132947 0.1969262242392599
0.0689966 -0.9069679909646745 0.2024919052500712
0.0709965 -0.9053936022536927 0.20788747394137544
0.0729964 -0.9041722714693157 0.21362033058114527
0.0749963 -0.9024937374862636 0.21890390322288722
0.0769962 -0.9005798918790848 0.22436569670493012
0.0789961 -0.8990218086315921 0.23000818238715506
0.080996 -0.8973350602822714 0.23535210978249027
0.0829959 -0.895965257290639 0.24103161659347436
0.0849958 -0.8938543676945636 0.24632319648626727
0.0869957 -0.8922331127358236 0.25158433167806066
0.0889956 -0.8903377219160157 0.2571179216817858
0.0909955 -0.8884058045221209 0.26253080481036684
0.0929954 -0.8866095797700564 0.2680002524361618
0.0949953 -0.885092503942018 0.2729219343638832
0.0969952 -0.8828321147207417 0.278637827484554
0.0989951 -0.8810040137430311 0.28369526193161987
0.100995 -0.878900703066267 0.2892497189107471
0.1029949 -0.8767757717791906 0.2944887930703102
0.1049948 -0.87488515604521 0.29983703459617417
0.1069947 -0.8724821002335144 0.3052800642283862
0.1089946 -0.8706908586052937 0.31037929057943975
0.1109945 -0.8685446843197464 0.3160081163352598
0.1129944 -0.8663539099862217 0.32126191091843925
0.1149943 -0.8644221305178048 0.3265575323945117
0.1169942 -0.8621212664052699 0.33173889292645914
0.1189941 -0.8600466595174346 0.33720738165824604
0.120994 -0.8576709438714679 0.3423028696459219
0.1229939 -0.8556428813962005 0.34727154235082275
0.1249938 -0.8535927186272608 0.352612953708531
0.1269937 -0.8514957579106288 0.35748283667144815
0.1289936 -0.8489803414144451 0.36274385819147825
0.1309935 -0.8464266414358098 0.36801375535139946
0.1329934 -0.8442638348385979 0.3727090475303811
0.1349933 -0.8418891818689387 0.37785970083551307
0.1369932 -0.8395155489438609 0.38300596363098977
0.1389931 -0.8372816836706238 0.388033871202987
0.140993 -0.8347411653105087 0.3925350947596563
0.1429929 -0.8322255937046987 0.39805449820361216
0.1449928 -0.8295154504974888 0.4028633658329424
0.1469927 -0.8270660579182064 0.40753928738740774
0.1489926 -0.8242228307143012 0.4123319275200414
0.1509925 -0.8215193692823982 0.4174704890725373
0.1529924 -0.8186588674528558 0.42204033636974075
0.1549923 -0.8160174803281012 0.4265736693853111
0.1569922 -0.8129072171923244 0.43147087838391157
0.1589921 -0.8104166613337399 0.43678212270251293
0.160992 -0.8070192614385105 0.441735140007164
0.1629919 -0.8046052119648084 0.4465885118318736
0.1649918 -0.8016317949940653 0.45112943043785925
0.1669917 -0.7985081439152103 0.45577996911616314
0.1689916 -0.7957573794302818 0.46047413756646033
0.1709915 -0.7927850360365448 0.4654534949246885
0.1729914 -0.7895372985260047 0.4703017013362071
0.1749913 -0.7862880964649775 0.4747748745821527
0.1769912 -0.7832285699767618 0.47935255284642114
0.1789911 -0.7800592577148102 0.4842701130762556
0.180991 -0.7768936784944357 0.48911365139736174
0.1829909 -0.7736963926612545 0.49404495641366486
0.1849908 -0.770852047701837 0.49843883634245717
0.1869907 -0.767659079331248 0.5036193100316882
0.1889906 -0.7639451781185934 0.5083728235419094
0.1909905 -0.7606478412734382 0.5131519083069123
0.1929904 -0.7576160166770197 0.5178940363711932
0.1949903 -0.7544650815996183 0.5222262998540497
0.1969902 -0.7515647261533268 0.5267916070550233
0.1989901 -0.7481154857884287 0.5315420748446986
0.20099 -0.7452188810346496 0.5359635706999769
0.2029899 -0.7417036723693554 0.5404156869870135
0.2049898 -0.7379488561507703 0.5451447286952334
0.2069897 -0.7346841283020288 0.5494042873883431
0.2089896 -0.7314683428462966 0.5536710410172276
0.2109895 -0.7281137752194222 0.5582597901887193
0.2129894 -0.7246802160446005 0.5625969344878948
0.2149893 -0.7213213905752018 0.5669085499247385
0.2169892 -0.7179289800496862 0.5711278587166723
0.2189891 -0.7141776045728783 0.5754814767022708
0.220989 -0.7104320070281562 0.5797345883938995
0.2229889 -0.706961105590163 0.5840529895581562
0.2249888 -0.7033909653402602 0.5879012910907446
0.2269887 -0.6999380504999171 0.5923276700009931
0.2289886 -0.6959834915821124 0.5963108099765492
0.2309885 -0.6922989011449303 0.6002540992530615
0.2329884 -0.6885155286003353 0.6043473532543444
0.2349883 -0.6847281261741573 0.6087086677632797
0.2369882 -0.6810321796791278 0.6125799527929108
0.2389881 -0.6767530575701323 0.6164952902568537
0.240988 -0.6729843221284826 0.6204511547423764
0.2429879 -0.6688204458882507 0.6246076519933462
0.2449878 -0.6648330461194382 0.6282412598849985
0.2469877 -0.6608459899807375 0.6320657021529276
0.2489876 -0.6567266215113664 0.6364802875268998
0.2509875 -0.6526838041136075 0.6401828322316648
0.2529874 -0.6483972316170008 0.644269829004523
0.2549873 -0.6444755315931686 0.6482503251237396
0.2569872 -0.6402340115640175 0.6521777608826385
0.2589871 -0.6361808496214169 0.6562964426800116
0.260987 -0.6317129754348648 0.6601453436590612
0.2629869 -0.6278368261364292 0.6640033060917839
0.2649868 -0.6237143551700004 0.6679786594168432
0.2669867 -0.6195160490349554 0.6718132219943705
0.2689866 -0.6151611167988995 0.6754759042566565
0.2709865 -0.6111816119190502 0.6792421100529288
0.2729864 -0.606862117332401 0.6832352502657174
0.2749863 -0.6026527964828969 0.6868498342651642
0.2769862 -0.5980286416015816 0.6908026062593997
0.2789861 -0.5939131435873142 0.6941497809845741
0.280986 -0.5896645306673309 0.698066526757786
0.2829859 -0.5853350958622858 0.7016943307257457
0.2849858 -0.5809056850233819 0.7052004904316438
0.2869857 -0.5769173384898044 0.708776721139385
0.2889856 -0.5723976116422056 0.7123006937555111
0.2909855 -0.5680247011594813 0.7157719680638973
0.2929854 -0.5637335321026189 0.719281619410993
0.2949853 -0.5593899784663725 0.7225996587006945
0.2969852 -0.5543942899070405 0.7258282199575663
0.2989851 -0.5503201763543313 0.7292628613239701
0.300985 -0.5452621521298099 0.7323988518221939
0.3029849 -0.5410150717546457 0.7355059122959364
0.3049848 -0.536648349519139 0.7387489385043667
0.3069847 -0.531771171254235 0.7417561764320919
0.3089846 -0.5268982192122217 0.744920419064242
0.3109845 -0.5222634528338962 0.7479323645973156
0.3129844 -0.5174606167675418 0.7507123674005763
0.3149843 -0.5125319170332685 0.7538562460267102
0.3169842 -0.5077838625432987 0.7572172920534838
0.3189841 -0.5030190930995708 0.7602139024356256
0.320984 -0.4979415764137524 0.7633639868289261
0.3229839 -0.4932708261695334 0.7666174537837276
0.3249838 -0.48835093764136556 0.7697037643911334
0.3269837 -0.483142021583805 0.7725402152624927
0.3289836 -0.47806886779880575 0.7754783115285814
0.3309835 -0.47317793472308867 0.7784628437106212
0.3329834 -0.46847117550503176 0.7811912075427444
0.3349833 -0.46344694829509386 0.783781674779398
0.3369832 -0.45810496003471857 0.7869713153834982
0.3389831 -0.4536760747101489 0.7901416386802758
0.340983 -0.4479031981992299 0.7930761374868275
0.3429829 -0.44315252528449356 0.795962410540591
0.3449828 -0.43803123924613996 0.7986792176647883
0.3469827 -0.43293890663127854 0.8016321693308113
0.3489826 -0.4280423524892695 0.8045198136740042
0.3509825 -0.42282424153996534 0.8069892401083134
0.3529824 -0.41773209564180264 0.809857932866455
0.3549823 -0.4129387993821053 0.8126237245071325
0.3569822 -0.4075635473416726 0.8154460153316531
0.3589821 -0.4022734154530889 0.8177917579710932
0.360982 -0.39742346504334186 0.8199270761642996
0.3629819 -0.3921149692245247 0.8225361537201883
0.3649818 -0.3873905441969746 0.8251625523585061
0.3669817 -0.38174546031147727 0.8275356685479435
0.3689816 -0.37697369971490147 0.8299197157297882
0.3709815 -0.3715606084499785 0.8320612891798422
0.3729814 -0.36666152778763095 0.8345922335762872
0.3749813 -0.36126275462856944 0.8367399654919901
0.3769812 -0.3560255565648907 0.8390885937659368
0.3789811 -0.3506773445052345 0.8414355342021775
0.380981 -0.3453558773419398 0.8431861542800269
0.3829809 -0.34027416981438524 0.8451534203121749
0.3849808 -0.33487093985811345 0.8471098829428036
0.3869807 -0.3292656978211964 0.8494311814056917
0.3889806 -0.32401421800271446 0.8514646859622371
0.3909805 -0.31836672262240956 0.8533363163004836
0.3929804 -0.31315856192378866 0.8550729964943209
0.3949803 -0.30763927495892235 0.8570117197564566
0.3969802 -0.3016245270750856 0.8587285692590508
0.3989801 -0.2964894453462869 0.8604532475058321
0.40098 -0.2905035694423328 0.8624552460585145
0.4029799 -0.2849825024523532 0.863753981652577
0.4049798 -0.2793691001429017 0.8657020442835541
0.4069797 -0.2734641085457624 0.867718741726463
0.4089796 -0.26762537854048923 0.869264808948054
0.4109795 -0.26214198095942665 0.8712804161929988
0.4129794 -0.2564613262193861 0.872910428226485
0.4149793 -0.25055626126170927 0.8744573342365198
0.4169792 -0.24501023908817263 0.8762114245799909
0.4189791 -0.23926432412189882 0.8778483148483476
0.420979 -0.23368050388787243 0.8795541058387006
0.4229789 -0.2280469681164554 0.8805252089049074
0.4249788 -0.2223512421790013 0.8823813921868189
0.4269787 -0.21661587545643535 0.883732812481273
0.4289786 -0.2109062322448765 0.8853103392807727
0.4309785 -0.20526503729660062 0.8864680725158582
0.4329784 -0.1995004219885848 0.8880691867164985
0.4349783 -0.1939329396500875 0.8892653392063901
0.4369782 -0.18803293859075532 0.8906759578247558
0.4389781 -0.18192471241512553 0.8917207065302024
0.440978 -0.17629111454415225 0.8932085281826595
0.4429779 -0.1706137896706189 0.8944130942537326
0.4449778 -0.1651192450009691 0.8951636602240449
0.4469777 -0.1590573673619398 0.8961918980385994
0.4489776 -0.1534083387935824 0.8970126331998116
0.4509775 -0.14774598287249793 0.8980292919686768
0.4529774 -0.14188352622662062 0.8990359726538873
0.4549773 -0.13603378371418806 0.9001703505932878
0.4569772 -0.13040651041353812 0.9009085180335129
0.4589771 -0.12432848801079802 0.9017489350169369
0.460977 -0.11786451849906605 0.9023047588908912
0.4629769 -0.11227368244372014 0.9030112804071475
0.4649768 -0.10631713673462508 0.9040032818947638
0.4669767 -0.10004322424761089 0.9043715790381698
0.4689766 -0.09398830696170925 0.9048040710953752
0.4709765 -0.08807624058177208 0.9052238029384824
0.4729764 -0.08231549941013211 0.9061544105895769
0.4749763 -0.0760845436102935 0.9065430737423074
0.4769762 -0.07019346367373562 0.9071726715920156
0.4789761 -0.06421827235755678 0.9075581701296462
0.480976 -0.05807699646478086 0.9081889875538484
0.4829759 -0.05196669753810415 0.9083899651560164
0.4849758 -0.04617109511465779 0.9091259824135646
0.4869757 -0.03987482475974997 0.9093883767086494
0.4889756 -0.034196116942150835 0.9099888190850816
0.4909755 -0.028135066626284608 0.9104753007948113
0.4929754 -0.021953623568465908 0.9104907591263064
0.4949753 -0.01601483455574186 0.9104859822468904
0.4969752 -0.00993626219498682 0.9107656946485707
0.4989751 -0.004097421655430228 0.9113423596541508
0.500975 0.0019399481707314606 0.911319680053762
0.5029749 0.007795356448018022 0.9115897071881351
0.5049748 0.013688209993631323 0.9114339721131998
0.5069747 0.01934326101477187 0.9111529030104002
0.5089746 0.025088662301558144 0.9110570321634895
0.5109745 0.03137215198335391 0.9109558024388525
0.5129744 0.037306969225392186 0.9104476068796684
0.5149743 0.04353102164365082 0.9102479104821773
0.5169742 0.04941850065794817 0.9099357782500928
0.5189741 0.055346114818969075 0.9094931230511614
0.520974 0.06171880284673713 0.9092922888281252
0.5229739 0.06737625781558894 0.9081431636255823
0.5249738 0.07325484777148675 0.9081005696878008
0.5269737 0.07941072943428808 0.9072829996419747
0.5289736 0.08503758528641968 0.9062415406787986
0.5309735 0.09170574000546564 0.9057690590401626
0.5329734 0.09784639965297941 0.9047492582678776
0.5349733 0.1035396680914575 0.9037649490547017
0.5369732 0.11014191191758864 0.9028648370251021
0.5389731 0.11598103023177991 0.9019892221596509
0.540973 0.12251931533006065 0.9012779331641738
0.5429729 0.12874375332537616 0.900260610249357
0.5449728 0.1347891097449724 0.8994908209109034
0.5469727 0.1413081789646537 0.8986122268003985
0.5489726 0.14745462171229076 0.8971787926599148
0.5509725 0.1534339289649346 0.8967501597043416
0.5529724 0.15968536440645628 0.8957026983276197
0.5549723 0.1661977418537109 0.8945901203739096
0.5569722 0.172164201515743 0.8932288877562382
0.5589721 0.17835170891319585 0.8924239142993965
0.560972 0.1844499500286517 0.8914668851877987
0.5629719 0.1910814833665613 0.8904132869114486
0.5649718 0.19708374457695807 0.8896559522560216
0.5669717 0.20314241551376352 0.8885509365359189
0.5689716 0.20936436615417015 0.8872990118190747
0.5709715 0.21492139210967243 0.8858583160211841
0.5729714 0.22142034916348133 0.8844339511897693
0.5749713 0.22744605990757177 0.8831424105388426
0.5769712 0.23329852336691737 0.8816988405524492
0.5789711 0.23893355185421372 0.880517696285918
0.580971 0.24446040340082043 0.8788797670594253
0.5829709 0.2507143838718001 0.877325072895116
0.5849708 0.25620302561139746 0.8756342601843008
0.5869707 0.2618280179860478 0.8741108998746392
0.5889706 0.26793462025773357 0.8722265281834087
0.5909705 0.27397399497259156 0.870364578664462
0.5929704 0.2799617713557213 0.8682795812175644
0.5949703 0.28546652544215206 0.8664510314954482
0.5969702 0.291343366262271 0.8642097134456365
0.5989701 0.2975704542410755 0.8616689330185606
0.60097 0.30329534758522986 0.8597691881705027
0.6029699 0.3093677661921857 0.8573958158530655
0.6049698 0.31462011068905354 0.8550753512186348
0.6069697 0.32052697669124414 0.8522913798255606
0.6089696 0.32660540100872903 0.8502337160452167
0.6109695 0.3322717988159539 0.8477298706623247
0.6129694 0.33839898342502234 0.8449580757556111
0.6149693 0.34430138540204464 0.8427657088833032
0.6169692 0.35041578763407377 0.840714538747485
0.6189691 0.35665231244352885 0.8381453971948013
0.620969 0.36236101761692197 0.8358574526116229
0.6229689 0.3685735513687243 0.8330685827172433
0.6249688 0.37436875821173293 0.8305817123852817
0.6269687 0.38032046063344715 0.8277598408072844
0.6289686 0.38589053041538307 0.8254299296971832
0.6309685 0.39193429692967574 0.822636086989629
0.6329684 0.39758928519041004 0.819823365067393
0.6349683 0.4038597694627659 0.8178247402373977
0.6369682 0.4093801045302336 0.8147824668435326
0.6389681 0.415233968970222 0.8119102008328672
0.640968 0.4212872767323305 0.8096006466692233
0.6429679 0.4268513810475554 0.807027830707975
0.6449678 0.4319712298562832 0.804245275807126
0.6469677 0.4376698166398227 0.8011545221186134
0.6489676 0.4429150442528687 0.7985380316260225
0.6509675 0.44842677797750763 0.7957671844493992
0.6529674 0.45398841037235704 0.7925409633044066
0.6549673 0.4598379233653016 0.7895461647571571
0.6569672 0.46511450707898583 0.7860738497899673
0.6589671 0.4702817297548927 0.7829337304363153
0.660967 0.4750393162033206 0.7798195841608989
0.6629669 0.4806749045784615 0.7766602608070637
0.6649668 0.48566648966600723 0.7729673343333413
0.6669667 0.4910486012302236 0.7694129027359428
0.6689666 0.49610613659339425 0.7659289769907796
0.6709665 0.500878972890616 0.7625842043203401
0.6729664 0.5062234967779 0.7587577776751538
0.6749663 0.5117778791454306 0.7550831545625886
0.6769662 0.5170418268607124 0.7511935727782766
0.6789661 0.5220801036018631 0.7473784110281902
0.680966 0.5275027219423887 0.743463897426852
0.6829659 0.5325760873141605 0.7394489638579581
0.6849658 0.537977683328103 0.735620382417811
0.6869657 0.5434297247620918 0.7321435719404051
0.6889656 0.5483928885022726 0.7277005343763989
0.6909655 0.5535072237722004 0.7235442407086292
0.6929654 0.5589568510972217 0.7191978563394599
0.6949653 0.5639571684615813 0.7152893673978459
0.6969652 0.569281450637835 0.7111554965191791
0.6989651 0.574758148697359 0.7069261011720728
0.700965 0.5798178036156811 0.7025269914770521
0.7029649 0.585011046982081 0.6986186806560614
0.7049648 0.590080451913441 0.6944664030408041
0.7069647 0.5954544859259905 0.6901341600135606
0.7089646 0.6007637475794925 0.6860385739703415
0.7109645 0.6057639842391659 0.6820858914429375
0.7129644 0.6112716503867354 0.6777654724922078
0.7149643 0.6159267103819493 0.6736885124885961
0.7169642 0.621085245369108 0.6694187228926045
0.7189641 0.6256249814309408 0.6653765448026586
0.720964 0.6304386181632488 0.6609709565974295
0.7229639 0.6348898421959928 0.6565410761483761
0.7249638 0.6399599761578979 0.6521385621187663
0.7269637 0.644978213486935 0.6480336568754912
0.7289636 0.6490557294712505 0.6434233974403575
0.7309635 0.6537246446096067 0.6391174419480246
0.7329634 0.6582922428888689 0.6345619560410887
0.7349633 0.6624802442101966 0.6300750269632831
0.7369632 0.6669823120072138 0.6253031482162918
0.7389631 0.6707802170082592 0.6209165893899099
0.740963 0.6751542944399516 0.6158728969157642
0.7429629 0.6799822038209976 0.6110987871040869
0.7449628 0.6839576307467118 0.606719807001685
0.7469627 0.6880276432950667 0.6016823348173952
0.7489626 0.6922198313987962 0.5966952541637189
0.7509625 0.69619805584534 0.5913055486266121
0.7529624 0.7000530033633596 0.586360843996131
0.7549623 0.7042093875427728 0.58125386829748
0.7569622 0.7086998663362585 0.5758681777085494
0.7589621 0.712358630061262 0.5705834310935269
0.760962 0.7164871445928744 0.5653543108721172
0.7629619 0.7207861989305345 0.5599033969546487
0.7649618 0.7244407609708593 0.5546421511565218
0.7669617 0.7290756572580455 0.5495079444537299
0.7689616 0.7326467920610457 0.5436243420606488
0.7709615 0.7365496105386334 0.5380970720221958
0.7729614 0.740601970420356 0.5327843620124106
0.7749613 0.7445739293989948 0.5275827396048868
0.7769612 0.7484053734794076 0.5216270711641309
0.7789611 0.7519023322246117 0.5161990713332761
0.780961 0.7557860056578143 0.5106376822146123
0.7829609 0.7595555616107673 0.5053351658783016
0.7849608 0.7637927608834123 0.4999976831517061
0.7869607 0.767503279564349 0.4945819176167746
0.7889606 0.7710797169773282 0.4885861887432029
0.7909605 0.7748135211914969 0.4831850396208228
0.7929604 0.7782321567362285 0.4779996651030671
0.7949603 0.7819854953305081 0.4721826764808811
0.7969602 0.7852107020977321 0.46684946173085556
0.7989601 0.7890069249441541 0.4610921784102355
0.80096 0.7922942907121382 0.45536894915434756
0.8029599 0.7955770254868635 0.44984118344171575
0.8049598 0.7990547086587988 0.444166515458154
0.8069597 0.8017201426503875 0.4385202943481012
0.8089596 0.8050247391697347 0.4328007353758027
0.8109595 0.8073608830279152 0.4267838569158219
0.8129594 0.8107725358483444 0.4212865968148557
0.8149593 0.813687068725145 0.41527934905316694
