! Created with skrf 1.8.0 (http://scikit-rf.org).
# GHz S RI R 50.0 
!freq ReS11 ImS11
0.001 -0.9374532094949742 0.0064601507034747156
0.0029999 -0.9367614119192164 0.014855916090711456
0.0049998 -0.9358631722186077 0.023597501477249927
0.0069997 -0.9347875075912611 0.03175157677979544
0.0089996 -0.9340803638089259 0.04072186722448561
0.0109995 -0.9333529865834505 0.04951403320705872
0.0129994 -0.9324988779696767 0.05769720167479551
0.0149993 -0.9315326683268199 0.06608077650552928
0.0169992 -0.9306438060710995 0.07426000905979957
0.0189991 -0.9293164988629499 0.08265575714619938
0.020999 -0.9283922933767914 0.09102583237294001
0.0229989 -0.9270788889918201 0.09913361174567423
0.0249988 -0.9255129777109347 0.10762238014781893
0.0269987 -0.9245440437585616 0.11595912105579684
0.0289986 -0.9231983174471432 0.12414835641900485
0.0309985 -0.9217041615152735 0.1323055247516061
0.0329984 -0.9200720493400838 0.1405744031312498
0.0349983 -0.9185603035305376 0.1488751750134306
0.0369982 -0.9169336788022439 0.15724121698448124
0.0389981 -0.9151641907969398 0.16534698618628962
0.040998 -0.9135567923050666 0.17310186294649677
0.0429979 -0.9114179640388667 0.18131439060628307
0.0449978 -0.9099135429222249 0.18900857106083854
0.0469977 -0.9076016701763575 0.1976242421726896
0.0489976 -0.9055714304589737 0.20539303267363937
0.0509975 -0.9035302614837338 0.21344817420659254
0.0529974 -0.9017536407567961 0.22164228329741323
0.0549973 -0.8992949118648907 0.22933349624138316
0.0569972 -0.8970208098728503 0.2370805111707472
0.0589971 -0.8946725562613346 0.244892587571677
0.060997 -0.8921996089020469 0.2526120568035497
0.0629969 -0.8898430957048509 0.26044938335378026
0.0649968 -0.8873981773100295 0.26804976541334297
0.0669967 -0.8848198961751883 0.2756950511210581
0.0689966 -0.8819956689480564 0.28354084858245576
0.0709965 -0.8791818560549908 0.2913118302431125
0.0729964 -0.8766923327164394 0.2989273523603961
0.0749963 -0.873728393657863 0.3062933193290402
0.0769962 -0.8704126188613286 0.31402944252251963
0.0789961 -0.8673218475898801 0.32166513189155127
0.080996 -0.8645214364503777 0.3291573541999593
0.0829959 -0.8614224043415201 0.33668951515821877
0.0849958 -0.8580957733672607 0.3441936266497504
0.0869957 -0.8548173296350653 0.3512891262753346
0.0889956 -0.8513876577894908 0.3590519402931488
0.0909955 -0.8481995269809343 0.36627973217159293
0.0929954 -0.8443538366045554 0.3733489227347096
0.0949953 -0.8410704185475978 0.380829073028957
0.0969952 -0.8373857080392917 0.38857807659033433
0.0989951 -0.8334994266064712 0.3954713560986951
0.100995 -0.8300339300247485 0.40299122361455075
0.1029949 -0.8261306697311103 0.40941473093538844
0.1049948 -0.8223619754261074 0.4171812142403818
0.1069947 -0.818201329204383 0.4242530793039973
0.1089946 -0.8146155181313746 0.4314338507675461
0.1109945 -0.8103547764542368 0.4388135383562888
0.1129944 -0.806490420451173 0.44586528276611076
0.1149943 -0.8025201201536357 0.452997126183046
0.1169942 -0.7982115955491199 0.46002534735216394
0.1189941 -0.7941919737974079 0.46691186203437424
0.120994 -0.789983427246933 0.47361446131656487
0.1229939 -0.7857193558814382 0.4805779315626497
0.1249938 -0.7816434232280199 0.4875064078837666
0.1269937 -0.7772709317070536 0.4944301917230469
0.1289936 -0.7730685491916512 0.5012722967232751
0.1309935 -0.76834033448229 0.507709021357558
0.1329934 -0.7640656593661778 0.5141416236788535
0.1349933 -0.7593888612705753 0.5208537058546663
0.1369932 -0.7549061006003167 0.5276634933838695
0.1389931 -0.7503583254318879 0.5340238217029062
0.140993 -0.7453761196628083 0.5407307272752893
0.1429929 -0.7407178013934652 0.5469940627457679
0.1449928 -0.7355974734995266 0.5533254940009674
0.1469927 -0.7309378464257837 0.5595206848832317
0.1489926 -0.7259421681631312 0.5657909942183992
0.1509925 -0.7204422183600789 0.5718224903063582
0.1529924 -0.7155309587959455 0.5777775170269628
0.1549923 -0.7100072198099929 0.583728208834279
0.1569922 -0.7047782334446671 0.5897871448588996
0.1589921 -0.6994251832132717 0.5962867493666214
0.160992 -0.6938458615365543 0.6021281540763834
0.1629919 -0.6884416512549073 0.608258381853139
0.1649918 -0.6829753755179298 0.6139572928957946
0.1669917 -0.677304786020499 0.619700712780623
0.1689916 -0.671841210265777 0.6257283953756656
0.1709915 -0.6659866817347402 0.6316936487519604
0.1729914 -0.659957059875364 0.637379916552034
0.1749913 -0.6539635837592127 0.6430641985941693
0.1769912 -0.6482847380477388 0.6487759774768952
0.1789911 -0.6424508814392361 0.6546128694105724
0.180991 -0.6361695068368173 0.6602282275375377
0.1829909 -0.6304129469454304 0.665861605117081
0.1849908 -0.6244641003521976 0.6718867342335876
0.1869907 -0.6182321582066701 0.6775822828204447
0.1889906 -0.611638895791568 0.6832431066722667
0.1909905 -0.6054538676819647 0.6886941387729804
0.1929904 -0.5996077243640672 0.6943675020175863
0.1949903 -0.5935452344976845 0.6996180026178441
0.1969902 -0.5875145813045549 0.7049328129893929
0.1989901 -0.5814618359050376 0.7103850794232246
0.20099 -0.575119622503036 0.7157383328416391
0.2029899 -0.5686273531184453 0.7205561301618979
0.2049898 -0.5619037369749678 0.7257164320904865
0.2069897 -0.5556163165939505 0.7305589080650153
0.2089896 -0.5490936075953612 0.7356960374594151
0.2109895 -0.5427869426906956 0.7406805333480778
0.2129894 -0.536114696523479 0.7455776986036875
0.2149893 -0.5297729667109765 0.7500724327513509
0.2169892 -0.5232255049301975 0.7546331672025969
0.2189891 -0.5164356939381848 0.7593322153750155
0.220989 -0.5097299523351078 0.763766746536326
0.2229889 -0.5030377775659243 0.7683765009215124
0.2249888 -0.4959559186076604 0.7727279688797954
0.2269887 -0.489080579723538 0.7769542312490358
0.2289886 -0.4821797870183477 0.7811743283613989
0.2309885 -0.4753639361330875 0.7851708116783996
0.2329884 -0.4681236716927694 0.7893959003715805
0.2349883 -0.46100902961071016 0.7935769665576589
0.2369882 -0.45383178146746017 0.7975490121007495
0.2389881 -0.4465583896510781 0.8015158862560134
0.240988 -0.43917886440619286 0.8049699837190095
0.2429879 -0.4316802538400615 0.8088277159495731
0.2449878 -0.4246049766481306 0.812757133586576
0.2469877 -0.4170291550762619 0.8162471728609806
0.2489876 -0.40947760325086674 0.8202508809217277
0.2509875 -0.4019991783705067 0.8237474836890704
0.2529874 -0.39410023471034883 0.8273077659522323
0.2549873 -0.38648894603607736 0.8310054581196411
0.2569872 -0.3788952755566293 0.8345474914267219
0.2589871 -0.37106363765525735 0.8382967101096246
0.260987 -0.3634972903682553 0.8417014786670065
0.2629869 -0.35575774486609185 0.8450484036460666
0.2649868 -0.34808620181043204 0.8482054079585218
0.2669867 -0.34048258074730786 0.8517596696679928
0.2689866 -0.3324418567049983 0.85472032782548
0.2709865 -0.3245152062348503 0.8577388320077212
0.2729864 -0.3167581805080221 0.8609192041796264
0.2749863 -0.3092151280279298 0.8640469409168688
0.2769862 -0.30099927022373396 0.867168501526345
0.2789861 -0.29307110713790097 0.8696218391955506
0.280986 -0.28534855453083086 0.8725116813031177
0.2829859 -0.2776412990456885 0.875472796967136
0.2849858 -0.26948644727518073 0.877803567172814
0.2869857 -0.2616524353684975 0.8803052748026636
0.2889856 -0.2537955649872644 0.8830827821639831
0.2909855 -0.24556927724504177 0.8854851943602451
0.2929854 -0.23758388757129814 0.8878173495574955
0.2949853 -0.22959124897434383 0.8896512063893055
0.2969852 -0.22140382730608407 0.8916172635173503
0.2989851 -0.21349826215280743 0.893827850446125
0.300985 -0.20471502386656634 0.8954781303443015
0.3029849 -0.19694129675239933 0.8972594068299858
0.3049848 -0.1886781694155272 0.8988620467960243
0.3069847 -0.18016624260755026 0.9004066127788088
0.3089846 -0.172398176601339 0.9022193500174244
0.3109845 -0.16386346431741436 0.9035161564494472
0.3129844 -0.1552631643095484 0.9046795574544078
0.3149843 -0.14696554034300083 0.9063024490312478
0.3169842 -0.13860150927800655 0.9072340279865325
0.3189841 -0.1295961716433383 0.9091274243857758
0.320984 -0.1210459150407325 0.9100547366862665
0.3229839 -0.11262290584577103 0.9112060111535244
0.3249838 -0.1038753915527081 0.9125320258423979
0.3269837 -0.09536261437291813 0.9131623853489927
0.3289836 -0.08686847239813351 0.9139033980670016
0.3309835 -0.0773991338963349 0.9146406226082181
0.3329834 -0.069420731200819 0.9161380714562986
0.3349833 -0.06080749856187536 0.916284754812751
0.3369832 -0.05197920456766659 0.91690751620835
0.3389831 -0.04365952152639904 0.9177544405842034
0.340983 -0.03454199147102956 0.918194596027303
0.3429829 -0.025631208110993967 0.9188113326595518
0.3449828 -0.017223430277674593 0.9191697069793295
0.3469827 -0.008410598041525923 0.9196303802425819
0.3489826 0.00020377400620842645 0.9200068056451491
0.3509825 0.009118260967782654 0.9202056286672022
0.3529824 0.017683818670209864 0.9198277700228358
0.3549823 0.026135973830943144 0.920179103375051
0.3569822 0.035100688656635744 0.9200664162934162
0.3589821 0.043959107703424885 0.9197549802456811
0.360982 0.05243300393842356 0.919439310360218
0.3629819 0.06123564427152874 0.918817615889582
0.3649818 0.06958934658945763 0.9186046731207376
0.3669817 0.07851758293815801 0.9182325152008988
0.3689816 0.08725083204536234 0.9172890429858324
0.3709815 0.09528897277942666 0.9166138417981712
0.3729814 0.10430046346102881 0.9160709340953466
0.3749813 0.11290308564964568 0.9151108776666601
0.3769812 0.12148755318898614 0.9138614374134149
0.3789811 0.13030689079381225 0.9130424827611056
0.380981 0.13889370216395763 0.9118056024559994
0.3829809 0.14741658559205864 0.91081411610498
0.3849808 0.15617644110581075 0.9090656780278856
0.3869807 0.16502951242943448 0.9075468848683332
0.3889806 0.17335445565273022 0.9059656243422831
0.3909805 0.18204576535325323 0.9041177247707722
0.3929804 0.19078368038690466 0.9026624085930661
0.3949803 0.19944139139953765 0.9005609813098988
0.3969802 0.2083864763925408 0.8984992398513074
0.3989801 0.21726444039045348 0.8963969080445847
0.40098 0.2256995640823805 0.894528531782257
0.4029799 0.23452216016437738 0.8922557144949027
0.4049798 0.24308457643120576 0.8898051752675632
0.4069797 0.252016497071722 0.8876178785095221
0.4089796 0.26054406084577475 0.8852986503099253
0.4109795 0.26943979331264 0.8831511629956287
0.4129794 0.2781829118418822 0.8802492332912936
0.4149793 0.2867493912272278 0.8778472454597938
0.4169792 0.29546501822259624 0.8747397303664398
0.4189791 0.3038821946328332 0.872207956415277
0.420979 0.31251073206346525 0.8692118603776101
0.4229789 0.3209732731728238 0.8661335128206433
0.4249788 0.32959409503436765 0.8633276137307743
0.4269787 0.33803251835057696 0.8604457120622462
0.4289786 0.34633329406505087 0.8573375930980989
0.4309785 0.3548360266161007 0.8540471039250811
0.4329784 0.3633997725587505 0.8509223844382251
0.4349783 0.3716672768706494 0.8470761224164045
0.4369782 0.37992829143924184 0.843558653083187
0.4389781 0.3884768452898375 0.8396759385989182
0.440978 0.39688981914937044 0.8362538201949775
0.4429779 0.40470311823806454 0.8324665705618685
0.4449778 0.41308440373537814 0.8289275630322583
0.4469777 0.42099202175377615 0.8245970272562125
0.4489776 0.42900193623730193 0.8205845799968439
0.4509775 0.43760066330557523 0.816875752847465
0.4529774 0.44538224218725336 0.8126873398684138
0.4549773 0.45333777347774423 0.808299032287267
0.4569772 0.4617228683846938 0.8039794563199457
0.4589771 0.4696255053741431 0.7992339778749502
0.460977 0.47759820939640196 0.7942711920603236
0.4629769 0.48531671577109753 0.7895662022265783
0.4649768 0.49304611501813317 0.7851319273724632
0.4669767 0.501220331137209 0.7800257738536438
0.4689766 0.5088102218390496 0.7752141161434654
0.4709765 0.5165728597887679 0.7700101527222625
0.4729764 0.5247256882778322 0.7652825458416904
0.4749763 0.5325209826782359 0.7601071195155287
0.4769762 0.5400172702665895 0.7548315866579645
0.4789761 0.5476211715332431 0.7496257320449604
0.480976 0.5553899109113953 0.7444227434837518
0.4829759 0.5624316555974136 0.73880631604006
0.4849758 0.5702010313946269 0.7333496079464417
0.4869757 0.5777451661365766 0.7277882035078691
0.4889756 0.5849538373257281 0.7220638949134416
0.4909755 0.5923299046357314 0.7164216731563249
0.4929754 0.5997894032883939 0.7105713352067033
0.4949753 0.6068483751860838 0.7048596350465219
0.4969752 0.6136424649788778 0.698882075391858
0.4989751 0.6209875833880826 0.6928800229039349
0.500975 0.6280417810950584 0.6869532517438682
0.5029749 0.635011441295925 0.680671272635528
0.5049748 0.6415443370780493 0.6746154451803692
0.5069747 0.6480061944040594 0.6683820648251844
0.5089746 0.6550538395162067 0.6621084497337612
0.5109745 0.6615463382830256 0.6555889323491907
0.5129744 0.6684504602629529 0.6490167198253951
0.5149743 0.675024011864109 0.6422467745065132
0.5169742 0.6812311699411467 0.6355360165511098
0.5189741 0.6875774938513346 0.6287540843796727
0.520974 0.6944397627552901 0.621758194302936
0.5229739 0.7000022797902626 0.614566172467198
0.5249738 0.7065717887549853 0.607824582541374
0.5269737 0.7126505742963312 0.600327852890308
0.5289736 0.7182837072383094 0.5935317947823509
0.5309735 0.7248686663119639 0.5858769395433656
0.5329734 0.73032980756194 0.5786084287230875
0.5349733 0.7360040767900492 0.5712903650967146
0.5369732 0.7421403629468647 0.5635189515022181
0.5389731 0.7479123003570537 0.5564633037555278
0.540973 0.7538363459800287 0.5486541799626776
0.5429729 0.7597611573062953 0.5408855284193278
0.5449728 0.7651268139340667 0.5330454611582892
0.5469727 0.77055565917557 0.5253744427188082
0.5489726 0.7758807452241009 0.5175337605529629
0.5509725 0.7814956099678653 0.5096285540159032
0.5529724 0.7865409974713992 0.5018514492066032
0.5549723 0.791691923176458 0.49364626309032095
0.5569722 0.7971891491958473 0.485690839051061
0.5589721 0.8022493754581298 0.4775124675132317
0.560972 0.8071742019234637 0.4696496740985454
0.5629719 0.8124190379408484 0.4613183742744734
0.5649718 0.8173714797074834 0.45348877325984166
0.5669717 0.8219639811743082 0.44510495434219444
0.5689716 0.8266743148240164 0.4363691029804073
0.5709715 0.8313710375555529 0.42844441762941143
0.5729714 0.8353719762764537 0.42009845720489486
0.5749713 0.8397396802021447 0.4116827978841038
0.5769712 0.8446798614228102 0.40279601779134955
0.5789711 0.8486526682100084 0.39497731818327336
0.580971 0.8524784954710638 0.3864403062437385
0.5829709 0.8565285384868162 0.377536043087744
0.5849708 0.8601649480180945 0.36888576929219613
0.5869707 0.8639365118425532 0.36065376751417433
0.5889706 0.8678776512486495 0.35115966631073964
0.5909705 0.8711981593829249 0.34321357966173954
0.5929704 0.8748888866411261 0.3338697178798107
0.5949703 0.8781341496076229 0.3250202749750013
0.5969702 0.881216689789037 0.31648706780877167
0.5989701 0.8848553514947175 0.30676858243622773
0.60097 0.8876059518188728 0.29820939695336285
0.6029699 0.8909425619979419 0.2882804853476516
0.6049698 0.8937635086236086 0.27986820004678614
0.6069697 0.8962637577995158 0.270455224909673
0.6089696 0.8995599277986432 0.261475910759194
0.6109695 0.9022729252849288 0.25234295792239336
0.6129694 0.9045243508838019 0.24288984336237687
0.6149693 0.907502182454544 0.23384760059909881
0.6169692 0.9102771031451156 0.22442957117166024
0.6189691 0.9122865158434971 0.21490007418870524
0.620969 0.914232395541481 0.20591012801800823
0.6229689 0.9163893433121877 0.19614241363183682
0.6249688 0.9185106033473718 0.1866979171928698
0.6269687 0.9205785927713124 0.17747374480511524
0.6289686 0.9224228016538019 0.16828209996612875
0.6309685 0.9242584548399406 0.15860599268024744
0.6329684 0.9257764693222752 0.14925663513082688
0.6349683 0.9274693000314235 0.13971935281296527
0.6369682 0.9289891575353151 0.1302518805049047
0.6389681 0.9302216361311837 0.12119618803461646
0.640968 0.9316592028183668 0.11104463433807571
0.6429679 0.9326732233856966 0.10217304253960591
0.6449678 0.9337471171894876 0.0923291747250108
0.6469677 0.9345406317614741 0.08300745732746262
0.6489676 0.9353889821236302 0.07345808611860931
0.6509675 0.9363866777672947 0.06419640646644553
0.6529674 0.9368850092128418 0.0543352155850969
0.6549673 0.9376406859455488 0.04465900146672139
0.6569672 0.9376776945728637 0.035579032384045944
0.6589671 0.9381107767861713 0.025437658617881206
0.660967 0.9382190098573465 0.01601098130152403
0.6629669 0.9382429569804742 0.006072975151997416
0.6649668 0.9385758268966858 -0.00291881103218394
0.6669667 0.9378848975758171 -0.012860678618244914
0.6689666 0.9384518203373211 -0.021842824543916204
0.6709665 0.9381266456229721 -0.03158994174989146
0.6729664 0.9375875390954754 -0.041272329072383304
0.6749663 0.9371403038459265 -0.05099779061253702
0.6769662 0.937026579184824 -0.060579791631111046
0.6789661 0.9359360507390735 -0.07002038709596194
0.680966 0.9354679167925445 -0.07953995462183658
0.6829659 0.9347732621990424 -0.08864573082361844
0.6849658 0.9336787420525732 -0.09830181802672014
0.6869657 0.9329988257507597 -0.10815028433249588
0.6889656 0.9316130342317898 -0.11729304844503485
0.6909655 0.9306895612799128 -0.12657024607653194
0.6929654 0.9294764461605148 -0.13633599521758327
0.6949653 0.9279067074865479 -0.14567743357862037
0.6969652 0.9265487163649128 -0.15482351541499775
0.6989651 0.9252158058118595 -0.16460259592395088
0.700965 0.9231600133887901 -0.17379501770781505
0.7029649 0.9214982422602815 -0.1829304344549058
0.7049648 0.9197456951624665 -0.19211654367317077
0.7069647 0.9176787866570667 -0.20154371431730256
0.7089646 0.9156517446960603 -0.21071683425639529
0.7109645 0.9135443594931864 -0.21982240184765856
0.7129644 0.9109645678781851 -0.22852837144347352
0.7149643 0.9087814347605638 -0.23783177763854438
0.7169642 0.906406750893768 -0.2467874932704912
0.7189641 0.9035088266297227 -0.2558872012459288
0.720964 0.9005941199508799 -0.26502566774120917
0.7229639 0.897737720606202 -0.27440837990505584
0.7249638 0.895455219855086 -0.28273747587747977
0.7269637 0.8922772540236475 -0.29206529418481053
0.7289636 0.8890957153754843 -0.30108296870584894
0.7309635 0.8862178202339547 -0.3099452316922633
0.7329634 0.8829477925888368 -0.31916144216115944
0.7349633 0.8797945996975438 -0.32768921557474584
0.7369632 0.8758381727708735 -0.3369236469394147
0.7389631 0.8724076307036348 -0.34565446464730487
0.740963 0.8687584743684537 -0.3542745168453421
0.7429629 0.8653215168196252 -0.3638389822026584
0.7449628 0.8615439316559607 -0.37212713416279675
0.7469627 0.8583869209859771 -0.3810673180278458
0.7489626 0.8546177388719993 -0.3896738993538254
0.7509625 0.8499604891314726 -0.3984706208939515
0.7529624 0.8468254446691184 -0.40730030293887115
0.7549623 0.8425749519970274 -0.41571704448717484
0.7569622 0.8385170339338834 -0.4241248564175364
0.7589621 0.8341639175361726 -0.4322798247572634
0.760962 0.8300273295782575 -0.44054445228963884
0.7629619 0.8254362869250369 -0.4490612938600623
0.7649618 0.8211929695332467 -0.4574667476069604
0.7669617 0.816907491282669 -0.4648682553682905
0.7689616 0.8123682948388062 -0.4730310856311537
0.7709615 0.8071697967780466 -0.4810816289179132
0.7729614 0.8026605734967069 -0.48887975403977474
0.7749613 0.7978710627305643 -0.49695997868693215
0.7769612 0.7927858013586193 -0.504750363965886
0.7789611 0.7882300573355333 -0.5125308893018813
0.780961 0.7828786795619308 -0.5198372160118548
0.7829609 0.7775809040640932 -0.5275639759028858
0.7849608 0.7724647111039993 -0.5348685888082798
0.7869607 0.7668453622906803 -0.542533926199298
0.7889606 0.7617371163672322 -0.5497608583364708
0.7909605 0.755920411449725 -0.5568286621587063
0.7929604 0.7501100897488713 -0.5641878049521113
0.7949603 0.7444471185901431 -0.5714975178673881
0.7969602 0.738657709027674 -0.5783580697591322
0.7989601 0.7330462250447347 -0.5855230010119304
0.80096 0.727124623200656 -0.5924647927311807
0.8029599 0.7210481137448446 -0.5993345488004121
0.8049598 0.7146139687353317 -0.6065503093497325
0.8069597 0.7085529890672494 -0.6132353228881899
0.8089596 0.7021287613218806 -0.6201193207730783
0.8109595 0.6957101173050054 -0.6270367224899398
0.8129594 0.6898025326190356 -0.6342413589049921
