! Created with skrf 1.8.0 (http://scikit-rf.org).
# GHz S RI R 50.0 
!freq ReS11 ImS11
0.001 -0.9429588972741294 0.0053160414967276665
0.0029999 -0.9423839841659607 0.012152664383190216
0.0049998 -0.9415928281073769 0.0191867641758606
0.0069997 -0.9407524044659427 0.025810153565640773
0.0089996 -0.9402345415258543 0.03314545408790629
0.0109995 -0.9397195429365035 0.040118428456208104
0.0129994 -0.9392298079727631 0.04673480477647927
0.0149993 -0.9382977944987039 0.05370491757776778
0.0169992 -0.9377012982239752 0.06032353967922783
0.0189991 -0.9366546974827292 0.06719251921913859
0.020999 -0.9360750471088051 0.07383233577020112
0.0229989 -0.9351280038858113 0.08047847990303489
0.0249988 -0.9338649588942868 0.08739427962989983
0.0269987 -0.9334577440074515 0.09400058510171194
0.0289986 -0.9323545089320082 0.10066222749147691
0.0309985 -0.9313625094619479 0.10748737918474252
0.0329984 -0.9301450104666471 0.11399352727578374
0.0349983 -0.9291095585531959 0.1209521498719078
0.0369982 -0.9278489947833775 0.12758475357964333
0.0389981 -0.9267520102947119 0.13431474832137844
0.040998 -0.9256886943796526 0.14065747431970382
0.0429979 -0.9242293785071851 0.14718151900848198
0.0449978 -0.9230701606974132 0.1536574138376324
0.0469977 -0.921427505485477 0.16041263016785753
0.0489976 -0.9203555343940069 0.16675545597443445
0.0509975 -0.9187001878453743 0.17344750854359026
0.0529974 -0.9177118471086895 0.17997531714589604
0.0549973 -0.9157490873706824 0.18642183298095344
0.0569972 -0.9143111002373125 0.19280449332335883
0.0589971 -0.9126869892491043 0.19914527815525168
0.060997 -0.9109666744933328 0.20553848978561773
0.0629969 -0.9094588139895152 0.2118349956741698
0.0649968 -0.9077871827804845 0.21813180974444335
0.0669967 -0.9061386240310685 0.22448429031096914
0.0689966 -0.9041354405254607 0.2308817379691129
0.0709965 -0.902233387903357 0.23711778105653208
0.0729964 -0.9005645978621272 0.24354583358596743
0.0749963 -0.8985711947727085 0.24961531211358365
0.0769962 -0.8961243997833745 0.2560017000375902
0.0789961 -0.8941963518613844 0.2621659451401173
0.080996 -0.8922798326112951 0.2686213200260726
0.0829959 -0.8902168679055651 0.2748216741927908
0.0849958 -0.8877955554365319 0.28074807300908144
0.0869957 -0.8856937728373241 0.2867910276307951
0.0889956 -0.8831743375162948 0.29317193201536124
0.0909955 -0.8810483776432448 0.2992035254349671
0.0929954 -0.8786372338303456 0.3053334596320022
0.0949953 -0.8763864995808619 0.31138708047545177
0.0969952 -0.873929222348103 0.31741198743919996
0.0989951 -0.8713970892433938 0.32364517716308194
0.100995 -0.8687642244286627 0.329817340908762
0.1029949 -0.8662200009615031 0.3355158604388636
0.1049948 -0.8638143089582947 0.34170732549809557
0.1069947 -0.8609542265630633 0.3479504865412707
0.1089946 -0.8587054506679958 0.3537968416650864
0.1109945 -0.8558518464231273 0.3598975270850229
0.1129944 -0.8530179857266382 0.3658989608413506
0.1149943 -0.8504961628263461 0.37183694467313444
0.1169942 -0.8474159217596312 0.3778329471023637
0.1189941 -0.8449443657827607 0.38391582502445487
0.120994 -0.842031829995197 0.38957708491587445
0.1229939 -0.8392308333280483 0.39533473589661156
0.1249938 -0.8366129110992111 0.4012476159680481
0.1269937 -0.8337185637878857 0.4072218345599034
0.1289936 -0.8309623615904094 0.4130306930093707
0.1309935 -0.8275712175335815 0.418698212206874
0.1329934 -0.8246271876391263 0.42411403734874376
0.1349933 -0.8215909504101101 0.4297462881808039
0.1369932 -0.8187540681479261 0.4356199265233704
0.1389931 -0.8155679970839081 0.4412951395927355
0.140993 -0.8119960029613251 0.4471219656807153
0.1429929 -0.8091158744618068 0.4524393674066317
0.1449928 -0.8055748641733633 0.45815856795871684
0.1469927 -0.8023758307188337 0.46368888562551536
0.1489926 -0.7990087509044541 0.46880025936687036
0.1509925 -0.7955537044956047 0.4744091393521228
0.1529924 -0.7920793365464148 0.4795766088521117
0.1549923 -0.788154924264252 0.48488089868984635
0.1569922 -0.7845449438411739 0.4899630826858024
0.1589921 -0.7811825155832357 0.49589976608538916
0.160992 -0.7770950243444225 0.5011827463802785
0.1629919 -0.7738616116236758 0.5066742928681695
0.1649918 -0.7700449971522871 0.5116849643900331
0.1669917 -0.7660164702411224 0.5170305842729079
0.1689916 -0.762200950104298 0.5220494147887659
0.1709915 -0.7586774091996749 0.5276701348243388
0.1729914 -0.7542549439725221 0.5328094421945557
0.1749913 -0.750427909857173 0.5380664528089916
0.1769912 -0.7462456562884041 0.5431939251741199
0.1789911 -0.742380512795193 0.5489049713913013
0.180991 -0.738349364588099 0.553670412184637
0.1829909 -0.7341716682122333 0.5591306461404442
0.1849908 -0.7301815823811908 0.5641396228960326
0.1869907 -0.7264353146395951 0.5698814390349658
0.1889906 -0.721518573404151 0.5751582083758008
0.1909905 -0.7174689336532803 0.5804069917598236
0.1929904 -0.713461618791743 0.5853552107895654
0.1949903 -0.7095495590854851 0.5902763073550311
0.1969902 -0.7054742793029554 0.5953806194397665
0.1989901 -0.7012181089188387 0.6002557134581354
0.20099 -0.6972500855410171 0.6055796795568481
0.2029899 -0.6927778381541109 0.6101017340385791
0.2049898 -0.6878910443169302 0.6152107937670139
0.2069897 -0.6838210482788346 0.6198570305304324
0.2089896 -0.6795715216880398 0.6247946143373966
0.2109895 -0.6752125664954697 0.6293721860584893
0.2129894 -0.6707295735605526 0.6343649137414792
0.2149893 -0.6664016207096768 0.638786696478079
0.2169892 -0.6619900643120926 0.6434121240259338
0.2189891 -0.6571773644839363 0.6478733851166489
0.220989 -0.6523757707878265 0.6525735356095138
0.2229889 -0.6479567019417546 0.6569117200534288
0.2249888 -0.6433546704265897 0.6616046107353344
0.2269887 -0.6384410205597673 0.6656717445890539
0.2289886 -0.6337130471768803 0.6701779326554157
0.2309885 -0.6290554451338456 0.6744625797793086
0.2329884 -0.6239365617721077 0.6787409083655883
0.2349883 -0.6192596995542413 0.6833168911065335
0.2369882 -0.614119322583057 0.6874016313676296
0.2389881 -0.6089673467458743 0.6917453269171283
0.240988 -0.6041389416538246 0.6954846281590696
0.2429879 -0.5988468708912059 0.6996685537496806
0.2449878 -0.5938911847661162 0.7038237445010413
0.2469877 -0.588453666331296 0.7078183109304469
0.2489876 -0.5832786651515562 0.7122184852118074
0.2509875 -0.577948810038285 0.7162073895549893
0.2529874 -0.572625129643721 0.7202608849167336
0.2549873 -0.5672603337471995 0.7245052553758269
0.2569872 -0.561921512415098 0.7284498360878708
0.2589871 -0.5566155191640733 0.7328097543885677
0.260987 -0.5513129361492647 0.7368582239946178
0.2629869 -0.5457712864563395 0.7406634955242769
0.2649868 -0.5406795462161871 0.7446625510754922
0.2669867 -0.534938414811247 0.7486417954570118
0.2689866 -0.5299330428108959 0.7524865638426966
0.2709865 -0.5240972108453986 0.7561771867689241
0.2729864 -0.5188944617171082 0.7603253608554186
0.2749863 -0.513565049971741 0.7639349974499545
0.2769862 -0.5077492461584319 0.7678066612537936
0.2789861 -0.5021537803720502 0.7713244495441013
0.280986 -0.49675598910786395 0.775118302077466
0.2829859 -0.4912639327608591 0.7784907466764879
0.2849858 -0.48582399501079976 0.7822775214875561
0.2869857 -0.4802912776043182 0.7856090734374865
0.2889856 -0.4744893938627144 0.7890463827979648
0.2909855 -0.46879331665084273 0.7926791980482826
0.2929854 -0.4631233178911954 0.795931648518641
0.2949853 -0.4576449614353184 0.7990729495718053
0.2969852 -0.45179222175134426 0.8022512418200008
0.2989851 -0.4459874428283862 0.8053416976122973
0.300985 -0.4397004452530201 0.8084599119664873
0.3029849 -0.4343608861820984 0.8113306683426429
0.3049848 -0.42837983741138097 0.8142846413652085
0.3069847 -0.4222216672878397 0.8173418408711142
0.3089846 -0.4162918161589951 0.8200522539321062
0.3109845 -0.4101360311821044 0.8227754905929572
0.3129844 -0.40388531280779755 0.8257328196493677
0.3149843 -0.39820200173234793 0.8282823123693871
0.3169842 -0.39186962629194927 0.8310959099747909
0.3189841 -0.38578360644775 0.8341757755489018
0.320984 -0.3794520079058837 0.8371120346962582
0.3229839 -0.3729038349230617 0.8396972625843192
0.3249838 -0.36696229605007075 0.8425786054570158
0.3269837 -0.36053267599384087 0.8452320315962132
0.3289836 -0.354309448433274 0.8476418636991032
0.3309835 -0.34743202875766566 0.8501402998217356
0.3329834 -0.34156553908747644 0.8530572803803825
0.3349833 -0.33514792804909616 0.8550468084882403
0.3369832 -0.32898463490577995 0.8577879019902982
0.3389831 -0.32249942471061105 0.860263877272943
0.340983 -0.31572415304448914 0.8627189132386984
0.3429829 -0.3093816638985278 0.8651004259373034
0.3449828 -0.30307756152101895 0.8676025933432087
0.3469827 -0.29643322416924534 0.8700523273702454
0.3489826 -0.2902257175761176 0.8724296604295464
0.3509825 -0.283584115751919 0.8744504582979383
0.3529824 -0.27713251982017045 0.8767581505196587
0.3549823 -0.27070776467680874 0.8791330666202994
0.3569822 -0.26420189563062396 0.8808787040464997
0.3589821 -0.2576925538311955 0.8828438302850813
0.360982 -0.25135987928310266 0.8847733661371476
0.3629819 -0.24445881812087825 0.8866224430217995
0.3649818 -0.238085540115951 0.8884988096426166
0.3669817 -0.23174893664175253 0.8903122789944793
0.3689816 -0.2249343059293293 0.8919003649310998
0.3709815 -0.2185956696626093 0.8934008930975134
0.3729814 -0.21209054831341756 0.895435366445374
0.3749813 -0.20544776269849413 0.8969050162560052
0.3769812 -0.198523592735798 0.8984184498599793
0.3789811 -0.19199160426241335 0.9000610654105732
0.380981 -0.1856486002522716 0.9008879929165301
0.3829809 -0.1789139661951663 0.9022635125309273
0.3849808 -0.17196589612420188 0.9037357724682862
0.3869807 -0.1653689500149138 0.9050693523644945
0.3889806 -0.1585731641461951 0.9059846939523054
0.3909805 -0.1515510657677862 0.9070337059598375
0.3929804 -0.14551227084129884 0.9079123947675851
0.3949803 -0.13786226895151302 0.9090523795274713
0.3969802 -0.13073661981729048 0.9101826423059799
0.3989801 -0.12421990790851534 0.9108237049251761
0.40098 -0.11697515632700244 0.9119573665369818
0.4029799 -0.11027715354509329 0.9122657981397921
0.4049798 -0.10325659313738797 0.9131651765534134
0.4069797 -0.0957283446617859 0.9141436248787193
0.4089796 -0.08928435686665406 0.9147763937382392
0.4109795 -0.08214318137806383 0.9156669824259787
0.4129794 -0.07473359675279782 0.9161822118848484
0.4149793 -0.06802264938996432 0.9169896984045829
0.4169792 -0.06063192706669852 0.9174257720140067
0.4189791 -0.05362451328495346 0.918085781940932
0.420979 -0.04682593863910732 0.9180292546349081
0.4229789 -0.0397041706472491 0.9184052972336374
0.4249788 -0.03256649512625847 0.9189082533558074
0.4269787 -0.025586072564850588 0.9192277690393812
0.4289786 -0.018757875587353243 0.9194484628317139
0.4309785 -0.01163615962402332 0.9196843805866644
0.4329784 -0.004534586302221984 0.9200182010394182
0.4349783 0.0022707969582372936 0.9199882566279943
0.4369782 0.009452754870127283 0.9200350489396097
0.4389781 0.01703646408515514 0.9198106159086059
0.440978 0.02380002956281005 0.9199771987608614
0.4429779 0.030612130183050142 0.919674941585051
0.4449778 0.03781486279717492 0.9194751974538832
0.4469777 0.04482483052551205 0.9190654098830249
0.4489776 0.05192074049735192 0.9187423521927524
0.4509775 0.05859083905015816 0.9184707079530063
0.4529774 0.06558280436722155 0.9179044975346047
0.4549773 0.07317224729462046 0.9176371384568875
0.4569772 0.0800342869314747 0.9171413477181676
0.4589771 0.0873950771455475 0.9164280484338947
0.460977 0.09452874714107806 0.9156969617269608
0.4629769 0.10164743590931162 0.9146394631934048
0.4649768 0.10877986025056385 0.913880337151568
0.4669767 0.11611126490062817 0.9127100214916983
0.4689766 0.12295078059126732 0.9120889016654709
0.4709765 0.1301572731925674 0.9109124398749618
0.4729764 0.1373847071973329 0.9102398833181722
0.4749763 0.14466736014946574 0.9091223196748021
0.4769762 0.1516128133181494 0.9078491429770073
0.4789761 0.1586708395528525 0.9070629695709544
0.480976 0.16607710929426356 0.9059518664255127
0.4829759 0.17308369238421217 0.9045435116426706
0.4849758 0.18017702876770175 0.903454477244083
0.4869757 0.1876059045625793 0.9021084215745412
0.4889756 0.1944966287246453 0.9007938297606057
0.4909755 0.20170747388443355 0.8993196869133321
0.4929754 0.20870132060511415 0.8978829508591631
0.4949753 0.21580221286859885 0.8964234589287544
0.4969752 0.22266661823574882 0.8945869437017683
0.4989751 0.22989220134998878 0.8932357802327161
0.500975 0.23667564707472216 0.8917109026813417
0.5029749 0.24376435028421295 0.889692995156689
0.5049748 0.2504561108053368 0.8878842546092942
0.5069747 0.25708124296688106 0.8859109198125839
0.5089746 0.26398017719049716 0.8841088546502589
0.5109745 0.2708768572899797 0.8817425741952052
0.5129744 0.27792898072572886 0.8799544286287097
0.5149743 0.28469207114330514 0.8771132066303282
0.5169742 0.29176904220551525 0.8753904769205696
0.5189741 0.2986457299251943 0.8728792350078525
0.520974 0.3055595488781387 0.8706302075313018
0.5229739 0.3119630797214231 0.8677926965646159
0.5249738 0.31903485799069065 0.8654186780842884
0.5269737 0.32602898849264045 0.8628668067645283
0.5289736 0.33236729562923023 0.8599804629450091
0.5309735 0.33973203766928833 0.8572699912383245
0.5329734 0.34663936235415255 0.8542186301375565
0.5349733 0.35293315119639135 0.8514133927147011
0.5369732 0.3601738409641367 0.8482068526397727
0.5389731 0.36673001667452615 0.8454060388015363
0.540973 0.37366867326748726 0.842508885701117
0.5429729 0.38077445954482514 0.839487287764208
0.5449728 0.3875030872128353 0.8361421556539167
0.5469727 0.3944885872253315 0.8332290973358415
0.5489726 0.40106853737252307 0.829925835333472
0.5509725 0.407826310638081 0.8268023802064585
0.5529724 0.4145623282277671 0.823446921446844
0.5549723 0.42143913550748974 0.8199482970310734
0.5569722 0.4281049784445758 0.8166710575053463
0.5589721 0.4348974870009244 0.8134045672150785
0.560972 0.4417073958690026 0.810055431019885
0.5629719 0.44896688179236643 0.8067273315705639
0.5649718 0.4551056615457651 0.8036723119675492
0.5669717 0.4615901682310646 0.7999506747095562
0.5689716 0.4683841614989597 0.7961652017995623
0.5709715 0.4750140477547172 0.7928658945782237
0.5729714 0.48146598332295215 0.7886289458319082
0.5749713 0.48777577728173793 0.7851131974047734
0.5769712 0.4943283009027656 0.7814074577887302
0.5789711 0.500308017118708 0.7778096900828357
0.580971 0.5060875296847381 0.773992313584356
0.5829709 0.512598917224884 0.7700166581219926
0.5849708 0.5187671010216193 0.7658312053587616
0.5869707 0.5248859589473854 0.7617113478507818
0.5889706 0.5309183264958897 0.7573645261066043
0.5909705 0.5367883088407406 0.7532656006500557
0.5929704 0.5431554752526394 0.7487601039969043
0.5949703 0.5488692584646787 0.7441505158341366
0.5969702 0.5548343622846046 0.739813154911689
0.5989701 0.5610168079551794 0.7351284478392898
0.60097 0.5667333027821171 0.7303679762755212
0.6029699 0.572923749413748 0.7251500917102591
0.6049698 0.578441911014703 0.7205808573715529
0.6069697 0.5841577957991654 0.7157285224181835
0.6089696 0.5904947264578155 0.7111234469130835
0.6109695 0.5958559775544814 0.7063358635621496
0.6129694 0.6017582917872314 0.7007520612273938
0.6149693 0.6073195349870758 0.6964935946724913
0.6169692 0.6137653822132855 0.6915131808502603
0.6189691 0.6195631077953084 0.6861527882171469
0.620969 0.6247502939793358 0.6810064500667836
0.6229689 0.630640756451377 0.6753601018186247
0.6249688 0.6361418910230137 0.6706040021431978
0.6269687 0.6419242648091493 0.6652089117114878
0.6289686 0.6475811168832444 0.6601254127424016
0.6309685 0.6534260802222218 0.6546187601650055
0.6329684 0.6585871346535827 0.6493023006247378
0.6349683 0.664574400992712 0.6441304557069267
0.6369682 0.6695647029945512 0.6384720564528923
0.6389681 0.6749170823710429 0.6331527812580284
0.640968 0.6804470171935388 0.6279813305978665
0.6429679 0.6856343052312703 0.6223463287592413
0.6449678 0.6905486855659853 0.617082937871887
0.6469677 0.6955419578206871 0.6115788848573404
0.6489676 0.7006298510236504 0.6061068953028779
0.6509675 0.7056235023142263 0.6006061014279949
0.6529674 0.7111205521604833 0.5946403511212497
0.6549673 0.7156811014227097 0.588797318497778
0.6569672 0.7205557271684252 0.5828662215542499
0.6589671 0.7252764364963264 0.5771534839155423
0.660967 0.7298646497677612 0.5710455277228643
0.6629669 0.7342265857154903 0.5649686717935088
0.6649668 0.7387873808338651 0.5591070416989541
0.6669667 0.7434019876218085 0.5531300447979296
0.6689666 0.7477250685293941 0.5475052733794975
0.6709665 0.7520543711746421 0.5412630849200284
0.6729664 0.7561205705004823 0.5346539703864812
0.6749663 0.7608818913318176 0.5281207401149164
0.6769662 0.7651638788690648 0.5216408601512658
0.6789661 0.7694262922445406 0.5152978840411768
0.680966 0.773556364761731 0.5085823745508917
0.6829659 0.7779178133681501 0.502330011897137
0.6849658 0.7820159793789879 0.4954324232418633
0.6869657 0.7859707214374059 0.4888411212915279
0.6889656 0.7901008207322062 0.48215643904691236
0.6909655 0.7938536932000966 0.47553559838452636
0.6929654 0.798202241293672 0.4688103231702223
0.6949653 0.8018525520199021 0.46184089364706216
0.6969652 0.805833566592574 0.45484024691842784
0.6989651 0.8099254212505154 0.4482234878986062
0.700965 0.8135656789382438 0.44117242693891706
0.7029649 0.8173443513375244 0.43447714189935827
0.7049648 0.8210126285431589 0.42765393389508466
0.7069647 0.8248142718135666 0.4204501452033245
0.7089646 0.8288077283887184 0.4136471335054829
0.7109645 0.8324268627205003 0.4069527264010283
0.7129644 0.8358006086744415 0.4000605781974207
0.7149643 0.8391985772425476 0.393147138037673
0.7169642 0.8426424863005458 0.3862023691632121
0.7189641 0.845991696329239 0.37908566853900194
0.720964 0.8490410046515868 0.3723558898652526
0.7229639 0.852204409876922 0.3655306743377533
0.7249638 0.855548740040522 0.35808508471326056
0.7269637 0.858653622138078 0.35106288928544516
0.7289636 0.8612181847437613 0.34440910501880295
0.7309635 0.8645726365044429 0.3374330309729513
0.7329634 0.8674427080777612 0.33025045609552095
0.7349633 0.8696409344309383 0.3232637252445529
0.7369632 0.8725576613155958 0.31548581155633804
0.7389631 0.8749656998999553 0.3085393643671932
0.740963 0.8771702789232878 0.3012209603631442
0.7429629 0.8800049705619392 0.2939360811214704
0.7449628 0.8822663897465958 0.28707320728555014
0.7469627 0.8846732870876042 0.2796703963866804
0.7489626 0.8870116771190941 0.2722238949914291
0.7509625 0.8891866898702976 0.2645255619143953
0.7529624 0.891686959077179 0.2574265944579971
0.7549623 0.8933597361598549 0.24969445806676135
0.7569622 0.8948670144278497 0.24208095021452586
0.7589621 0.8968565068709489 0.23423625421259228
0.760962 0.899057112212617 0.2269558939688899
0.7629619 0.9010668840033987 0.21922178955921628
0.7649618 0.9025680793804911 0.21163659028255843
0.7669617 0.9045565567183289 0.20430330468534846
0.7689616 0.9061097917385866 0.1961427878050274
0.7709615 0.9075959633365344 0.18874092333368464
0.7729614 0.9094561525057475 0.18093149813760373
0.7749613 0.9109891670317718 0.1734891029435138
0.7769612 0.912177613996307 0.1655761208279578
0.7789611 0.9138181575595825 0.15810568865977315
0.780961 0.9149330541561312 0.15048307177164358
0.7829609 0.9162061957248483 0.14257521266554102
0.7849608 0.9174230275848207 0.13513708816789669
0.7869607 0.9187752944706332 0.12705397886661934
0.7889606 0.9198744371593434 0.11955787036288379
0.7909605 0.9206668055138493 0.1117178327340749
0.7929604 0.9215915991198405 0.10422422259057784
0.7949603 0.9225933645213108 0.09663882420999115
0.7969602 0.9234104060792709 0.08894137389671267
0.7989601 0.9240612169755846 0.08117711284309531
0.80096 0.9249902441806617 0.07380084427709256
0.8029599 0.9253306529217505 0.06600165540838457
0.8049598 0.9256610902626234 0.05828138168879379
0.8069597 0.9259037904743049 0.05031416821447675
0.8089596 0.9267009079098635 0.04246891053340556
0.8109595 0.9263270497357576 0.03512220540160477
0.8129594 0.9273511639002288 0.027373153685236653
0.8149593 0.9271247455055878 0.019824039383214337
