! Created with skrf 1.8.0 (http://scikit-rf.org).
# GHz S RI R 50.0 
!freq ReS11 ImS11
0.001 -0.939861560683975 0.00578821886338963
0.0029999 -0.9393709987026143 0.01331979946495699
0.0049998 -0.9384340521450899 0.02073770482059671
0.0069997 -0.9374980457543599 0.028386769398332012
0.0089996 -0.9368870611159615 0.036157555435762816
0.0109995 -0.9362775669012599 0.043690888242491156
0.0129994 -0.9357428993522808 0.05102485941241023
0.0149993 -0.9347224133405022 0.05855726045388704
0.0169992 -0.9340382875610679 0.06583846638385357
0.0189991 -0.9329252162816228 0.07322269810799277
0.020999 -0.9321756018908 0.08057062681081092
0.0229989 -0.9310951282941508 0.0878824602257384
0.0249988 -0.9298027205233709 0.09536385290323288
0.0269987 -0.9290588809327435 0.10276724085146835
0.0289986 -0.9279497183682491 0.10996829733699123
0.0309985 -0.9267941733307716 0.1172639627309599
0.0329984 -0.9254455325548325 0.12458481584152609
0.0349983 -0.9242209637523495 0.13203280278037696
0.0369982 -0.9228611114478628 0.13929454293513163
0.0389981 -0.9214728466069647 0.14655996303438631
0.040998 -0.9204070482459666 0.1533277914587471
0.0429979 -0.918472016703441 0.16071041359550467
0.0449978 -0.917264924018143 0.1675941904004995
0.0469977 -0.9154062410720921 0.17496253674889298
0.0489976 -0.9139110768494956 0.18199055472328338
0.0509975 -0.912055960199589 0.18923834908150272
0.0529974 -0.910410623007418 0.19675734228376587
0.0549973 -0.9087919273000706 0.20330668765557008
0.0569972 -0.9069153519663113 0.210293489896924
0.0589971 -0.9050163206250929 0.217239094910448
0.060997 -0.9030570715466152 0.2241759539257755
0.0629969 -0.9012044612251777 0.23109898998406567
0.0649968 -0.8991896581011355 0.23787365878721994
0.0669967 -0.8972586239670965 0.24479532682117225
0.0689966 -0.8949383330784453 0.2517633591515129
0.0709965 -0.8926790099632773 0.25866007968609794
0.0729964 -0.8907633005796223 0.26554522327320884
0.0749963 -0.8884001424284078 0.27212113976481833
0.0769962 -0.8856503000678173 0.27915163582803976
0.0789961 -0.8832800815777486 0.2857360239278275
0.080996 -0.8810421126684457 0.2927146897617529
0.0829959 -0.8785340150928456 0.2994606392561963
0.0849958 -0.8758182893848402 0.3058166235996624
0.0869957 -0.8732920545364307 0.31260098285362603
0.0889956 -0.8705215924351306 0.31941074600761404
0.0909955 -0.8679863631315691 0.3261417894052177
0.0929954 -0.8649139503528155 0.3325711946190429
0.0949953 -0.8621260857891959 0.33917136400596487
0.0969952 -0.8593619100301568 0.3458083875416575
0.0989951 -0.8564340324606959 0.3525173981850561
0.100995 -0.8534219748271461 0.3588188415209213
0.1029949 -0.8504639281579036 0.36508350176089704
0.1049948 -0.8475396435812619 0.3717270359611039
0.1069947 -0.8442019026699747 0.3784293445875987
0.1089946 -0.8412876940548563 0.3849974894829584
0.1109945 -0.8381278719138381 0.3916753965160026
0.1129944 -0.8348765077351454 0.39774663520057624
0.1149943 -0.8317811185920736 0.4042522270247579
0.1169942 -0.8284222936421088 0.4106607126401276
0.1189941 -0.8252536915871206 0.4171449504444769
0.120994 -0.8217943491855948 0.4232878506351187
0.1229939 -0.8184464338813581 0.42965978050961273
0.1249938 -0.815360321694365 0.4359285820603631
0.1269937 -0.8118663717057462 0.4421722062378617
0.1289936 -0.8085944030440069 0.4483339865584653
0.1309935 -0.8047230632038549 0.45444223822706314
0.1329934 -0.8011657577683892 0.4604537875230914
0.1349933 -0.7976305909209316 0.4665438742616179
0.1369932 -0.7940077002161285 0.47259770028386056
0.1389931 -0.7904366881126902 0.4785633388882236
0.140993 -0.7863086243825028 0.4847523707837003
0.1429929 -0.7828799461105512 0.49070252647446433
0.1449928 -0.7787698569207205 0.49641392237658716
0.1469927 -0.7749712811253188 0.5023013345806104
0.1489926 -0.770880598409346 0.5079942991303295
0.1509925 -0.7669701288180669 0.5137491348318614
0.1529924 -0.7628280287198866 0.5192530855929128
0.1549923 -0.7582361302733577 0.5249924293303508
0.1569922 -0.7539804317800741 0.5303499115923215
0.1589921 -0.7500467582441313 0.5365477463400601
0.160992 -0.7452597872431614 0.5421637668598812
0.1629919 -0.7412190504209815 0.5479508105600958
0.1649918 -0.7366999125781595 0.5535401988672434
0.1669917 -0.7321306576174046 0.5588333544572558
0.1689916 -0.7279183081566805 0.5645546782203364
0.1709915 -0.7232184556560682 0.5701667157132881
0.1729914 -0.7183330072231852 0.5753744347380908
0.1749913 -0.7138417814059929 0.5808955084229349
0.1769912 -0.7089465141333816 0.5863437451879565
0.1789911 -0.7043901709587016 0.5922227446040976
0.180991 -0.6993143928138121 0.5976275821203799
0.1829909 -0.6948937398841643 0.6030216128968321
0.1849908 -0.6901751559722462 0.6083386980868943
0.1869907 -0.6853452442429872 0.6143923574836296
0.1889906 -0.6798888243151787 0.6196736436363245
0.1909905 -0.674894039851232 0.6250863037768025
0.1929904 -0.6703740702301694 0.6304056181847247
0.1949903 -0.6655717378253614 0.6355880181158521
0.1969902 -0.6609055452972868 0.6409009598621069
0.1989901 -0.6559073581456492 0.6459543282054231
0.20099 -0.6510417475305067 0.6514182455767191
0.2029899 -0.6458453170987137 0.65614999694094
0.2049898 -0.6402948265066631 0.6610455338210792
0.2069897 -0.6352686745194907 0.6660490725873615
0.2089896 -0.6299971166197441 0.6711967948388043
0.2109895 -0.6251131483448914 0.6758448544537444
0.2129894 -0.6198333217585917 0.6808175674790723
0.2149893 -0.6146887287785471 0.6854808406400992
0.2169892 -0.6093703866982513 0.6901112765296875
0.2189891 -0.603960520054002 0.6949952755928326
0.220989 -0.5984591020367913 0.6994108022185105
0.2229889 -0.5930536770768515 0.7039607599909256
0.2249888 -0.5875776234431546 0.7085662824034206
0.2269887 -0.5820720131202068 0.71295243069404
0.2289886 -0.5763362929385561 0.7173639378735829
0.2309885 -0.5707549945111505 0.7215550402739419
0.2329884 -0.5651244730421073 0.7258871081345077
0.2349883 -0.5593407698022044 0.7303413669859455
0.2369882 -0.5535528259804441 0.734446928221082
0.2389881 -0.5475618442215132 0.7387323904535669
0.240988 -0.5416897498682962 0.7426166045457808
0.2429879 -0.5356475624196431 0.7468178249360911
0.2449878 -0.5297212341123114 0.7508995143988679
0.2469877 -0.5238098362992982 0.7548692846900831
0.2489876 -0.5176305758554566 0.7590156076021964
0.2509875 -0.5114642115208458 0.7629054091787831
0.2529874 -0.5051620761857281 0.7670295799450677
0.2549873 -0.49885332511702934 0.7710394479332314
0.2569872 -0.4928983701717665 0.7752057508232603
0.2589871 -0.48645451142743856 0.7792267759180723
0.260987 -0.4802406750923714 0.7830965463676633
0.2629869 -0.4738253329674328 0.786977411907634
0.2649868 -0.4678422786555501 0.7904750740588453
0.2669867 -0.4612837712263016 0.7943994622710011
0.2689866 -0.45535304371453633 0.7981941737081394
0.2709865 -0.4487143206357184 0.801573254487899
0.2729864 -0.44226393007985265 0.8054685670280228
0.2749863 -0.43604994953756904 0.8090719100417211
0.2769862 -0.42954881805700046 0.8128489317154839
0.2789861 -0.4230408684232514 0.815898989497079
0.280986 -0.4163963190537154 0.8194293021495962
0.2829859 -0.4102749984778079 0.8227885971863369
0.2849858 -0.40388232016606274 0.8263536558608658
0.2869857 -0.39718897449031443 0.8292556864316258
0.2889856 -0.3908677952947178 0.8325517471184328
0.2909855 -0.38413485850162954 0.8359381429987286
0.2929854 -0.3775935111604424 0.8389243701297039
0.2949853 -0.37125251245361074 0.8416300779267878
0.2969852 -0.3643784917995428 0.8445884333875607
0.2989851 -0.3575595197873034 0.8473108653596987
0.300985 -0.3504127818076149 0.8500135803649473
0.3029849 -0.3439748302775219 0.8525526069665791
0.3049848 -0.33724745180018934 0.85540601564442
0.3069847 -0.3301313275162414 0.8576703546603941
0.3089846 -0.3234228205196237 0.8601819095269791
0.3109845 -0.3164672780307311 0.8628164670436007
0.3129844 -0.3093243584493051 0.8649876975264424
0.3149843 -0.3024319756031459 0.8673073443947059
0.3169842 -0.29537369926558277 0.8696265577395696
0.3189841 -0.2881914707832287 0.8721851864092988
0.320984 -0.28062392402526093 0.8747504590053209
0.3229839 -0.27365395398753145 0.8766179023574626
0.3249838 -0.26653992355723616 0.8793201081010229
0.3269837 -0.25918355466237647 0.8813523513084403
0.3289836 -0.2518474554150667 0.8829843494963312
0.3309835 -0.24420852362398243 0.8852122976098257
0.3329834 -0.23725551417556276 0.8875304496651463
0.3349833 -0.23027255058414714 0.8890615942199199
0.3369832 -0.2227295811981471 0.891049852998332
0.3389831 -0.21576111561798472 0.8930103218423247
0.340983 -0.2082762121423173 0.8948159635215555
0.3429829 -0.20083534124626812 0.896638381275318
0.3449828 -0.19327770089412724 0.8987426953986615
0.3469827 -0.18609498177199144 0.9003025186355803
0.3489826 -0.17887023226049845 0.90211596625524
0.3509825 -0.1712896786020608 0.9035516360409491
0.3529824 -0.16379927296911667 0.9054267875041085
0.3549823 -0.15669855792164647 0.9063611156881538
0.3569822 -0.14933225744752276 0.9078077386030501
0.3589821 -0.14156451110632415 0.9091495486800496
0.360982 -0.13435375032246122 0.9103624180416282
0.3629819 -0.12660800881451395 0.9115122710197207
0.3649818 -0.11962745748723931 0.9125680537449629
0.3669817 -0.11194479247584496 0.9139396097242323
0.3689816 -0.10452646125049238 0.9146297102151733
0.3709815 -0.09736870938475409 0.9151928442741004
0.3729814 -0.08992588808884722 0.9165176630263714
0.3749813 -0.08225550947435606 0.9170572180899428
0.3769812 -0.07475460717406135 0.9179717539900463
0.3789811 -0.06740536834476239 0.9187612441994664
0.380981 -0.06010273988460382 0.9188999323529781
0.3829809 -0.05232460089949574 0.9196180046572908
0.3849808 -0.044802452320537416 0.9201073196867924
0.3869807 -0.03717661269907746 0.9204626015848659
0.3889806 -0.02970011244579085 0.9204131939404612
0.3909805 -0.021950801221615048 0.9206339290502823
0.3929804 -0.014563453203610719 0.9206304357786849
0.3949803 -0.006714713609550248 0.9209107342029917
0.3969802 0.0013576635771083978 0.9206197214523167
0.3989801 0.008850208602060677 0.9206020273655959
0.40098 0.016715700951558613 0.9205686068066208
0.4029799 0.024256647451662172 0.9202788107901099
0.4049798 0.032378418587887314 0.9200750263349224
0.4069797 0.04011585650814011 0.9198327204321327
0.4089796 0.0476871094699117 0.9196114381816992
0.4109795 0.055686480978467956 0.9192703537889064
0.4129794 0.06353209996173965 0.9187968332784202
0.4149793 0.07125503262755348 0.9183112138903187
0.4169792 0.07942480550556566 0.918109016489251
0.4189791 0.08670657255677201 0.9169919230155344
0.420979 0.09472881969370578 0.9164564287843581
0.4229789 0.1025302764363013 0.9155296738740646
0.4249788 0.11032670490110894 0.9148377691562181
0.4269787 0.11775552980529595 0.9139916120098719
0.4289786 0.1256836348795663 0.9133587470922286
0.4309785 0.1333691721176337 0.9123403824026753
0.4329784 0.1409791369778515 0.9115957371115073
0.4349783 0.1486216252612163 0.9102154391486816
0.4369782 0.1567216414364898 0.9089513577675239
0.4389781 0.1643850946841899 0.9076891201033397
0.440978 0.17203303239906337 0.9065423750296959
0.4429779 0.17952542450823755 0.9049088713705535
0.4449778 0.18755636719801339 0.9036979940616237
0.4469777 0.19483463122007916 0.902026751448681
0.4489776 0.2023718116203991 0.900434135380759
0.4509775 0.20997909988247268 0.8987870924562361
0.4529774 0.21775652578693344 0.897039857802896
0.4549773 0.22523971883136507 0.8953434184388749
0.4569772 0.23322918269978918 0.8936144429559137
0.4589771 0.24071032476449578 0.8914541235484904
0.460977 0.24869350145923413 0.889416225419972
0.4629769 0.2562650417884976 0.8868540107917608
0.4649768 0.2638972300143321 0.8847404075843852
0.4669767 0.27164012711555274 0.8824827256392931
0.4689766 0.2792293565933623 0.8803659274594395
0.4709765 0.28672326371430756 0.8776200220547422
0.4729764 0.29448131769503494 0.875648043831074
0.4749763 0.30209251983868585 0.8731320193788051
0.4769762 0.3093870431939192 0.8707450715493826
0.4789761 0.3171783035742337 0.8682215411710006
0.480976 0.3248856088528672 0.8653840506790276
0.4829759 0.33229662657149817 0.8628153991820007
0.4849758 0.3396764590604784 0.8602122405737583
0.4869757 0.34728376002584005 0.8569526591126448
0.4889756 0.35467379803204996 0.8544031403851166
0.4909755 0.36256128000151544 0.8515194011277321
0.4929754 0.3697342633598121 0.8485447637313012
0.4949753 0.3771640209785375 0.8453970324241213
0.4969752 0.3844658737697864 0.8420878606018851
0.4989751 0.39178195112936787 0.8391454864751475
0.500975 0.39887242148692137 0.8361223889907979
0.5029749 0.4062116495677611 0.8324863621565245
0.5049748 0.41341620563660186 0.8292388267128614
0.5069747 0.42005825719690837 0.8258993415805962
0.5089746 0.42717521541058817 0.8222931325788915
0.5109745 0.43439898041061725 0.8183797994426607
0.5129744 0.441789338559241 0.8148833543640236
0.5149743 0.44867351642152237 0.8110574830712032
0.5169742 0.4557332262976964 0.8072500362162004
0.5189741 0.46268065168363864 0.80326797422891
0.520974 0.4698079231550517 0.7989203417319273
0.5229739 0.47634807902156545 0.7946552972150273
0.5249738 0.4835905089162118 0.7907428578440027
0.5269737 0.4901674027791299 0.7864486994490651
0.5289736 0.49696170255332284 0.7821039255906923
0.5309735 0.5042779290856371 0.7774458184713704
0.5329734 0.5106922992842181 0.7732316496337276
0.5349733 0.5174246387227285 0.7681906755216401
0.5369732 0.5243570450075858 0.763535934874079
0.5389731 0.5311117307816862 0.7590997760848068
0.540973 0.5379910292848289 0.754397918373775
0.5429729 0.5449214552603916 0.7497455068217899
0.5449728 0.5515583164276697 0.7448680774340437
0.5469727 0.5584302491763649 0.7400868671244781
0.5489726 0.5648108886149575 0.7349872361442811
0.5509725 0.5710962632896515 0.7299956604988085
0.5529724 0.5779912732906991 0.7248806883673271
0.5549723 0.5843796704769754 0.7195377393709843
0.5569722 0.5910668004225347 0.7145272428277086
0.5589721 0.597597646634812 0.7093863029210244
0.560972 0.6042238107356507 0.7042140804960595
0.5629719 0.6109905719304726 0.6990704756398589
0.5649718 0.6171025008007384 0.6943280119184526
0.5669717 0.6233245584483419 0.6888440457244396
0.5689716 0.6298021816748709 0.6830854093607435
0.5709715 0.6360594650388556 0.6779421657564474
0.5729714 0.6419413216482018 0.6719230328684025
0.5749713 0.6479962290371674 0.6667274236760095
0.5769712 0.6541579138787237 0.6611008596840303
0.5789711 0.6596886543031797 0.6556965905696028
0.580971 0.6655867423163724 0.6501544466456246
0.5829709 0.6713917131728642 0.6444875125500535
0.5849708 0.6769684975962332 0.6383170609854486
0.5869707 0.6826577892539332 0.6325643366209026
0.5889706 0.6880924371048106 0.6263584450147458
0.5909705 0.6935853837707936 0.6204343546235358
0.5929704 0.6995470393147828 0.613893545885023
0.5949703 0.7041586675897624 0.6081728912525474
0.5969702 0.7097597712235858 0.6018085905237838
0.5989701 0.7153580326852469 0.5951420116525904
0.60097 0.7201028476370587 0.5886023198006287
0.6029699 0.7259322328207154 0.5819027181295531
0.6049698 0.7308194849996291 0.5756795921960789
0.6069697 0.7356396229532346 0.5690235392184433
0.6089696 0.7412822286748542 0.5625697451776673
0.6109695 0.7457478431705893 0.5557425879111386
0.6129694 0.7510512506004139 0.5488766264892043
0.6149693 0.7560956799317229 0.5428215164173827
0.6169692 0.7613839595415396 0.5356378059847331
0.6189691 0.7661177187392647 0.5284580663483713
0.620969 0.7706983276909221 0.5217027305749463
0.6229689 0.7755503105602787 0.5145652392314481
0.6249688 0.7801430464960365 0.5073922901419708
0.6269687 0.7850812399446154 0.5005128034354471
0.6289686 0.7898703094040644 0.4937013373813526
0.6309685 0.7943962119326087 0.4861893422166202
0.6329684 0.7986632871586851 0.4792599288047774
0.6349683 0.8032655311427749 0.4721722332785902
0.6369682 0.8073789409082723 0.46483193405676476
0.6389681 0.81200329533474 0.4578685374919538
0.640968 0.8164209172056928 0.4507199350265047
0.6429679 0.8202084039039266 0.4434234513049774
0.6449678 0.8242285547682757 0.4362087529080134
0.6469677 0.8283838953925882 0.42883752515867635
0.6489676 0.8321504229382806 0.42190372477095617
0.6509675 0.8357785778300381 0.4146910664746201
0.6529674 0.8400599877774078 0.4066113415377421
0.6549673 0.8434792308639472 0.399618533725981
0.6569672 0.8469245023209954 0.3917035018847178
0.6589671 0.8503932078049327 0.3841457653989131
0.660967 0.8533528054348402 0.37655970982712234
0.6629669 0.8571429102430729 0.36877217935782364
0.6649668 0.8603056035770015 0.3613445968330833
0.6669667 0.863484140814775 0.3533789769312543
0.6689666 0.8663349060924412 0.346209831295647
0.6709665 0.8692191892339912 0.3378919940924863
0.6729664 0.8722940933619011 0.33010979715942856
0.6749663 0.8756293723343098 0.3222355026790784
0.6769662 0.8783931483393962 0.31430118631952647
0.6789661 0.8814601909252106 0.3061869544079512
0.680966 0.8842555092824793 0.2984391738616809
0.6829659 0.8866802511504458 0.29017362810063685
0.6849658 0.8892117766844988 0.2821286470008379
0.6869657 0.891642132821393 0.2740291421875155
0.6889656 0.8943747367050136 0.2657251355184209
0.6909655 0.8968144630986544 0.2578926300077833
0.6929654 0.8989392105947975 0.24941963856717958
0.6949653 0.9011317251895098 0.2413925521527252
0.6969652 0.9033668403449718 0.23298241457171018
0.6989651 0.9055353266547607 0.22479987062148116
0.700965 0.9077454365085454 0.21654984963625565
0.7029649 0.9095335199610124 0.20838184816390898
0.7049648 0.9116481848165927 0.19998859559924032
0.7069647 0.9134932780351627 0.19174822182021967
0.7089646 0.9155238428082219 0.1833753321158585
0.7109645 0.9171413558542475 0.17528417659172252
0.7129644 0.9188194023203036 0.1669835760602475
0.7149643 0.9203765335011457 0.1588973605966236
0.7169642 0.9218706121473403 0.15029126933336912
0.7189641 0.9234777866619104 0.1419153501136924
0.720964 0.9245656969170876 0.13364000340426607
0.7229639 0.9257104035118933 0.12557711755870463
0.7249638 0.9271210691364746 0.11716087854642786
0.7269637 0.928315946358693 0.10874210041553169
0.7289636 0.9286161956570803 0.10067603498182429
0.7309635 0.9300950066437497 0.09230721493817226
0.7329634 0.930903323137931 0.08369000574000605
0.7349633 0.9313688098839873 0.07567536836253566
0.7369632 0.932276899954074 0.06669958856001594
0.7389631 0.9328402452480372 0.058897082451209476
0.740963 0.9328816352690368 0.050481352243886626
0.7429629 0.9337663002205839 0.04166907625151046
0.7449628 0.9341215180460682 0.03353367460866058
0.7469627 0.934184043656421 0.024874193309202278
0.7489626 0.9344190744703216 0.016486464001494887
0.7509625 0.9348006523290537 0.00793760880151504
0.7529624 0.9348450621320751 -0.0005589403549976502
0.7549623 0.9346109599185873 -0.0088499823329935
0.7569622 0.934300276222769 -0.017266815853720585
0.7589621 0.9342694956420996 -0.025594800500948534
0.760962 0.933987953981215 -0.033938789935206555
0.7629619 0.9335753762187505 -0.042608866010121774
0.7649618 0.9332934287330183 -0.05098471277311518
0.7669617 0.9330292455538832 -0.059092761049314074
0.7689616 0.9321090173290603 -0.06747242759519605
0.7709615 0.9315855101751865 -0.07621214350900499
0.7729614 0.9310773122418597 -0.08429065449139674
0.7749613 0.9300255660779905 -0.09305000526734475
0.7769612 0.9291829915114312 -0.10137642642572847
0.7789611 0.9288398991909902 -0.1096509588281877
0.780961 0.9273455501394336 -0.11799087053283322
0.7829609 0.9265835689882296 -0.12615422860125325
0.7849608 0.9251875965638432 -0.13435300909768533
0.7869607 0.9240036871715609 -0.1428032979285218
0.7889606 0.922633123025987 -0.15076863275440805
0.7909605 0.9209748423649654 -0.15939100637281872
0.7929604 0.919642265689836 -0.16730103621783898
0.7949603 0.9179569436322219 -0.1757608632504244
0.7969602 0.9164344514542719 -0.18381936757713135
0.7989601 0.9146634272641665 -0.19218075264441262
0.80096 0.9129678906706571 -0.1998184142088835
0.8029599 0.9108318124391465 -0.20813707036926363
0.8049598 0.9090863902576619 -0.21636253292149982
0.8069597 0.9070061818169013 -0.2244190565259831
0.8089596 0.9048046299516943 -0.23293817298472402
0.8109595 0.9024193700070595 -0.2406671467156391
0.8129594 0.9005163345098961 -0.24881274095872194
