! Created with skrf 1.8.0 (http://scikit-rf.org).
# GHz S RI R 50.0 
!freq ReS11 ImS11
0.001 -0.9426201517967073 0.0046870255101768565
0.0029999 -0.9426936101695987 0.011094672162749696
0.0049998 -0.9416441214884202 0.0169087859288133
0.0069997 -0.9407639325005329 0.022721931136938565
0.0089996 -0.9403188851076381 0.028832299236993174
0.0109995 -0.9399707562013392 0.03488227918546046
0.0129994 -0.9395343962627836 0.040632705790050266
0.0149993 -0.9387028050100376 0.04692381404886938
0.0169992 -0.938251638243951 0.05269891742954134
0.0189991 -0.9373734001698407 0.0586391944081455
0.020999 -0.9369580609315407 0.06458022802545957
0.0229989 -0.9360556592372097 0.07041137560402527
0.0249988 -0.9349783632917116 0.07637328811408828
0.0269987 -0.9348334620294778 0.08213332704973489
0.0289986 -0.9339024386226744 0.08805260480247606
0.0309985 -0.9329465538205429 0.09383352694044222
0.0329984 -0.9320819172776234 0.09928212240983852
0.0349983 -0.9312117683357111 0.10555319774222725
0.0369982 -0.9302288819329166 0.11136935824277924
0.0389981 -0.9291928587591021 0.1172814286174812
0.040998 -0.928780539088007 0.12245335480560313
0.0429979 -0.92729277576112 0.12824958579739992
0.0449978 -0.9263711941379601 0.13395643630852022
0.0469977 -0.9250361602216928 0.13986865194937675
0.0489976 -0.9242113538826641 0.1456092740607684
0.0509975 -0.9228347140370151 0.1513274098987355
0.0529974 -0.9219612020955587 0.1575848636531053
0.0549973 -0.9207348986046988 0.16245713994591104
0.0569972 -0.9194811009655609 0.1682489737380572
0.0589971 -0.9181070674097485 0.1736396374203259
0.060997 -0.9167432015565061 0.1794053546782663
0.0629969 -0.9154942042302314 0.18479006603445702
0.0649968 -0.9141251471752944 0.19031001713262755
0.0669967 -0.9130195136372053 0.19593851774898696
0.0689966 -0.9114169622762173 0.20150727894930295
0.0709965 -0.9099326666084503 0.20692424753869174
0.0729964 -0.9087429369532033 0.21262345995586232
0.0749963 -0.9070731317504114 0.21789288527407916
0.0769962 -0.905047634789608 0.22343172320942553
0.0789961 -0.9036312667671427 0.22901381522910305
0.080996 -0.9020228811328592 0.23441169150974225
0.0829959 -0.9005922147820747 0.2399710940899168
0.0849958 -0.8985860724559407 0.24524866518660468
0.0869957 -0.8970352917893197 0.25062451495539606
0.0889956 -0.8951049160957882 0.2560960800971148
0.0909955 -0.8933103357928407 0.2614255558403016
0.0929954 -0.8913424758642545 0.26702745471515704
0.0949953 -0.8899554505373574 0.27204605041423713
0.0969952 -0.8876861349813168 0.27775079067505176
0.0989951 -0.8859406998751386 0.2828894692703091
0.100995 -0.8838168764751664 0.2880882933574352
0.1029949 -0.8817358263039764 0.29337429527019265
0.1049948 -0.8798662887366333 0.29886190964914083
0.1069947 -0.8776728942079635 0.30412358472774964
0.1089946 -0.8757827391917437 0.30928213252922876
0.1109945 -0.8737423270340574 0.31504830534200085
0.1129944 -0.8716119611702071 0.3201552549125879
0.1149943 -0.8697111183782523 0.32548387719324884
0.1169942 -0.8672403119717662 0.3306981046242708
0.1189941 -0.8652810741414542 0.3362184448987332
0.120994 -0.8631674480178042 0.34114649098100047
0.1229939 -0.8609220922128915 0.34630421892218305
0.1249938 -0.8589382507726295 0.3515790798970972
0.1269937 -0.8568116124782319 0.35662121327758306
0.1289936 -0.8546028924932171 0.3619615287888214
0.1309935 -0.8517948703796641 0.3669889112019793
0.1329934 -0.84956206276984 0.37158873112363167
0.1349933 -0.8474158420198216 0.37692369315769897
0.1369932 -0.845158222736598 0.3819134642287976
0.1389931 -0.8428395010297349 0.3870161443169563
0.140993 -0.8401841176580528 0.3918563639420703
0.1429929 -0.837875105715638 0.39711768779321727
0.1449928 -0.8351554863409311 0.4021871264336928
0.1469927 -0.832605765484651 0.4067626088176864
0.1489926 -0.8298414085639113 0.41172623731288205
0.1509925 -0.8272686109940576 0.4166086758332479
0.1529924 -0.8245650427835112 0.421331698940427
0.1549923 -0.8218999064105995 0.4257201933441833
0.1569922 -0.8186365275651282 0.43082674922605224
0.1589921 -0.8163535951501334 0.4360027574213149
0.160992 -0.8128796111568353 0.44087906587547154
0.1629919 -0.8101136159717439 0.4457522706604613
0.1649918 -0.8075834898795081 0.4503049068461748
0.1669917 -0.8045060576678831 0.45486171004267945
0.1689916 -0.8016528150824221 0.45976673942123786
0.1709915 -0.7987979733560735 0.46484517948807863
0.1729914 -0.7954869444326738 0.4695233806957586
0.1749913 -0.7925098643109169 0.4739408006296798
0.1769912 -0.7893727499394451 0.47877791106378437
0.1789911 -0.7861159938801838 0.4836519224738432
0.180991 -0.7831057472892112 0.488641121165006
0.1829909 -0.7796802407583354 0.4935937700588309
0.1849908 -0.7769568148258299 0.4980029201438215
0.1869907 -0.7738502332007093 0.5030844463160653
0.1889906 -0.7702070108752881 0.507997965188105
0.1909905 -0.7670019929676497 0.5126474710274657
0.1929904 -0.7638645888057837 0.517572545426231
0.1949903 -0.7611269154211808 0.5219896557148032
0.1969902 -0.7579410185898202 0.5265343491700744
0.1989901 -0.7545839994367692 0.5310903784900571
0.20099 -0.7516352048080027 0.5356161637124119
0.2029899 -0.7480559496448014 0.5403697796428184
0.2049898 -0.7445140312122469 0.5448345677443954
0.2069897 -0.7411699935387296 0.5490764651924206
0.2089896 -0.7379758800136151 0.553760023070986
0.2109895 -0.7346501180821926 0.5581341511306508
0.2129894 -0.7311062377156923 0.5624051084470268
0.2149893 -0.7278615599859434 0.5669777754857457
0.2169892 -0.7244157262254203 0.5710948170127356
0.2189891 -0.7207315461741385 0.5754860989949688
0.220989 -0.717238273643143 0.5798378790692742
0.2229889 -0.7133407372527963 0.5840683427865268
0.2249888 -0.7099820420844342 0.5881648183227898
0.2269887 -0.7065372402311122 0.5923758166492361
0.2289886 -0.7026591981247469 0.5964421766908721
0.2309885 -0.6988689831669411 0.6004498135605497
0.2329884 -0.6950493017327797 0.6045693259631711
0.2349883 -0.6914021907604913 0.6089303593291893
0.2369882 -0.6875922635548047 0.6129015702562599
0.2389881 -0.683569155443113 0.6168681262256888
0.240988 -0.6796589730476362 0.620789849582946
0.2429879 -0.6755565254987816 0.6248449278320243
0.2449878 -0.671637893028335 0.6285720823809252
0.2469877 -0.6677422057678392 0.6325787377918757
0.2489876 -0.6636175629487987 0.6369686311572003
0.2509875 -0.6595104811929677 0.6405661584322693
0.2529874 -0.6552438278990353 0.6449058017024717
0.2549873 -0.6513598531983805 0.6489245202919365
0.2569872 -0.6471652640745822 0.6529174538404297
0.2589871 -0.6430708280750665 0.6570605290439353
0.260987 -0.6386131418713095 0.6609486532107287
0.2629869 -0.6346303061006237 0.6648880581705673
0.2649868 -0.6307029280233066 0.6687244445587458
0.2669867 -0.6262837035486819 0.6727392169719635
0.2689866 -0.6221895615345964 0.676323444374065
0.2709865 -0.6179529373655561 0.6804017685950763
0.2729864 -0.6137834093529343 0.6842270627717382
0.2749863 -0.6092723563448365 0.6879251257053101
0.2769862 -0.6050301139977362 0.6919694409751699
0.2789861 -0.6007078757154877 0.6952637294937132
0.280986 -0.5964180412699644 0.6992877850666839
0.2829859 -0.5923883348833833 0.7031222385932423
0.2849858 -0.5878674355359058 0.7065219417370018
0.2869857 -0.5838157472773695 0.7102335190128269
0.2889856 -0.5793903016399241 0.7136309053672888
0.2909855 -0.5749415559399637 0.7173406009217119
0.2929854 -0.5705644369867788 0.7206937499679162
0.2949853 -0.5661761230181086 0.7242266807304187
0.2969852 -0.5614473033579078 0.7275573504686734
0.2989851 -0.5571342812746554 0.7309026943698802
0.300985 -0.5522591305031987 0.7339396812475409
0.3029849 -0.5477925439684591 0.737100648067206
0.3049848 -0.54364681450266 0.7405889774133689
0.3069847 -0.5385025017733982 0.7434726537142579
0.3089846 -0.5341695811877483 0.7466053569433276
0.3109845 -0.5288756846136464 0.7497963074596603
0.3129844 -0.5243783045283694 0.7526421068689098
0.3149843 -0.5195331342000231 0.75599465747722
0.3169842 -0.5145343078991891 0.7591092726619877
0.3189841 -0.5097694073029004 0.7621494867004036
0.320984 -0.5049160137496345 0.7655012510824066
0.3229839 -0.5000821104621156 0.7687828626309493
0.3249838 -0.4951548458253962 0.771661578617974
0.3269837 -0.49003754699499474 0.7749954026352613
0.3289836 -0.48509481494701734 0.7776143340773461
0.3309835 -0.47971305492769717 0.7809445757696316
0.3329834 -0.47534807151290087 0.7837534181196434
0.3349833 -0.4698706752114127 0.7863675361294462
0.3369832 -0.4648977738610627 0.7894284015981079
0.3389831 -0.4605454628611963 0.792406132382497
0.340983 -0.4549097691951109 0.7955854670308432
0.3429829 -0.44988644826742263 0.7984773270535481
0.3449828 -0.44485076562914455 0.8011076870607025
0.3469827 -0.4397942267716838 0.8042100489861121
0.3489826 -0.4345483926350913 0.8073196078186499
0.3509825 -0.4294785770853841 0.8098626194024618
0.3529824 -0.42447059921800345 0.8126634882369331
0.3549823 -0.4194567227739378 0.815482815045631
0.3569822 -0.414144111694364 0.8183257335912748
0.3589821 -0.4088005963074256 0.8206606452642102
0.360982 -0.40403943161452127 0.822893557277551
0.3629819 -0.39863247600527224 0.8257166486514695
0.3649818 -0.3936303269452149 0.8281172011709409
0.3669817 -0.3883229998597655 0.8307486900145022
0.3689816 -0.38321603541235005 0.8329593731712324
0.3709815 -0.3778940782397792 0.8351284410976285
0.3729814 -0.37312497978157044 0.8377176276771248
0.3749813 -0.3675418158926406 0.8401957640619311
0.3769812 -0.3621774794931997 0.842419185404949
0.3789811 -0.3567135197698214 0.844892973619185
0.380981 -0.35161025100497195 0.8465463538014439
0.3829809 -0.34662189669975263 0.8484709770695478
0.3849808 -0.34096774893068815 0.8505630114991167
0.3869807 -0.33538789148163517 0.8530471815741509
0.3889806 -0.33037787700601573 0.8550423534487087
0.3909805 -0.3245885734932638 0.8571531411893939
0.3929804 -0.31908287578307004 0.8586365132098761
0.3949803 -0.3136719991594469 0.8608608662254764
0.3969802 -0.3078045306727155 0.8624023413422321
0.3989801 -0.30231429670139504 0.8642677870141021
0.40098 -0.29651431487967644 0.8663474366737006
0.4029799 -0.290881237898518 0.8676355328594865
0.4049798 -0.2853221583990757 0.8696804186856166
0.4069797 -0.2794764092775014 0.8715830931770172
0.4089796 -0.2738511197325445 0.873413348880156
0.4109795 -0.26810509144930267 0.8752344681275284
0.4129794 -0.26227771452092763 0.8768219373857485
0.4149793 -0.2564970775926697 0.878514029311625
0.4169792 -0.25063005472736016 0.8802286448833699
0.4189791 -0.24505198499784112 0.8818511266272774
0.420979 -0.2393484299694643 0.8834829425278278
0.4229789 -0.23372935027205016 0.8847268235635191
0.4249788 -0.22793316081154485 0.8865238908005292
0.4269787 -0.22190767506606363 0.8879852867853036
0.4289786 -0.21624735730755024 0.8892707477881392
0.4309785 -0.21053959430722055 0.8908438131907329
0.4329784 -0.20462876523999415 0.8922752185608631
0.4349783 -0.199165578688637 0.893606893513206
0.4369782 -0.1933232585213017 0.8951823342106237
0.4389781 -0.18701608798785585 0.8963857908991941
0.440978 -0.18149970718667768 0.8976093827608319
0.4429779 -0.17585720801945093 0.8987038387489628
0.4449778 -0.17002563330042125 0.899739876090349
0.4469777 -0.16393707509965327 0.9007893823832341
0.4489776 -0.15816842900468395 0.9017215862449753
0.4509775 -0.1524072639920353 0.9027701423675559
0.4529774 -0.1465714659820662 0.9037753647720557
0.4549773 -0.14072722344198504 0.9048286160649877
0.4569772 -0.1350084384577788 0.9056877972779352
0.4589771 -0.12871841417045118 0.9065970520423466
0.460977 -0.1225494565689792 0.9071261485191228
0.4629769 -0.1166545201492273 0.9079907781109261
0.4649768 -0.11069057332850787 0.9089194456428807
0.4669767 -0.10439238290432191 0.9092632991120221
0.4689766 -0.0984474886893165 0.9097693260112087
0.4709765 -0.09254151278239224 0.9101063595767371
0.4729764 -0.0864861937285883 0.9111888485920427
0.4749763 -0.08032384672995985 0.9116257902611249
0.4769762 -0.07444528587833114 0.912076437368743
0.4789761 -0.0682493665244272 0.9127797957874362
0.480976 -0.0622197777197442 0.913213476055764
0.4829759 -0.05589875740338914 0.9136322997799396
0.4849758 -0.05018388654797223 0.9142662532802982
0.4869757 -0.04380942625779522 0.9144082940293522
0.4889756 -0.038069988357632895 0.9152044281675376
0.4909755 -0.031800517300881695 0.9155551609048662
0.4929754 -0.025923765369093226 0.9156492441787571
0.4949753 -0.019773795349277905 0.915666700741932
0.4969752 -0.013374622148179947 0.9159184377684804
0.4989751 -0.007613266497947413 0.9164580008805066
0.500975 -0.0015761779851920232 0.9165989036043868
0.5029749 0.004321847909773094 0.9167280046190047
0.5049748 0.010161469859434946 0.9167221730416181
0.5069747 0.015901356022886712 0.9162313423513807
0.5089746 0.021822277068918837 0.9164168996738046
0.5109745 0.028172232298039307 0.9161293003022398
0.5129744 0.03421997725462911 0.9157288623537526
0.5149743 0.04034002149351053 0.9155234716477094
0.5169742 0.04627629594973627 0.9152268663044787
0.5189741 0.05221692940685776 0.914954218612024
0.520974 0.05866807738163686 0.914745764193387
0.5229739 0.06443643360352153 0.9136943805227199
0.5249738 0.07038185224341736 0.9134803789598746
0.5269737 0.07662162071240224 0.9127077615903171
0.5289736 0.082195085674241 0.912067397830097
0.5309735 0.08893134803298253 0.9112576858076231
0.5329734 0.09488276162907294 0.9102038391407565
0.5349733 0.10066519394292789 0.9091978613248494
0.5369732 0.10758969056412106 0.9085384760041195
0.5389731 0.11337861269818743 0.9077299024820614
0.540973 0.12014717795141344 0.9069329147407681
0.5429729 0.1261701367408119 0.9058560261596018
0.5449728 0.1323794171013541 0.9050395552076842
0.5469727 0.13872839875752968 0.9042459560475333
0.5489726 0.14498669949276743 0.9028187288029579
0.5509725 0.15102098416816284 0.9024878295612601
0.5529724 0.15743110455569073 0.9013635176906332
0.5549723 0.16371180491637732 0.900175243382079
0.5569722 0.1697389619290299 0.8990427408474861
0.5589721 0.17613993183630744 0.898026839950433
0.560972 0.18258762633627848 0.8968292374452391
0.5629719 0.1892754607936065 0.895968522822434
0.5649718 0.19507273353868507 0.895273180864738
0.5669717 0.2013406192189743 0.8940498104211585
0.5689716 0.20732774881727764 0.8926785182481278
0.5709715 0.21313608216642368 0.891473793291732
0.5729714 0.21985020193867508 0.8901281591018346
0.5749713 0.22582962672650855 0.8888017114787128
0.5769712 0.23184833227253604 0.8873363560320544
0.5789711 0.23768364091098165 0.8859683923559677
0.580971 0.24310034009039744 0.8843868284978511
0.5829709 0.2492206281174999 0.8828564278811272
0.5849708 0.2550402609234011 0.8811499391195453
0.5869707 0.2608060926698111 0.8795607623132512
0.5889706 0.2667944703545219 0.8777596698802239
0.5909705 0.27292354677511543 0.8758375774617021
0.5929704 0.27902431821009704 0.873779739844379
0.5949703 0.2845561636059963 0.8717977604739191
0.5969702 0.29036136422461356 0.8698649299007272
0.5989701 0.29674153797941777 0.867271337932173
0.60097 0.30216422711582924 0.8652861404987108
0.6029699 0.30867786163927524 0.863017768852642
0.6049698 0.3140415512555732 0.8605686316593711
0.6069697 0.3197374913700436 0.8578959603500278
0.6089696 0.32581222065140414 0.8558697684007373
0.6109695 0.3320643057592684 0.8535721383082435
0.6129694 0.3380148939507963 0.8507278603624975
0.6149693 0.34354795448783 0.8487003962120075
0.6169692 0.3502308281263385 0.8460774563594244
0.6189691 0.3562770176294429 0.8435311576881992
0.620969 0.3621731917038238 0.8411970067158778
0.6229689 0.36828372734450976 0.8384914396065638
0.6249688 0.37407995405974903 0.8359167629347082
0.6269687 0.38001049601055337 0.8328555047777352
0.6289686 0.38582890138157416 0.8306785700547132
0.6309685 0.3920063448653601 0.8277733620189182
0.6329684 0.39751912095686626 0.8249644853933247
0.6349683 0.4039430162520499 0.8228127558379339
0.6369682 0.40940622816244765 0.8200270169311946
0.6389681 0.41536235328945265 0.8169966931353169
0.640968 0.4214678755377044 0.8146540555295972
0.6429679 0.42726274363871275 0.8118146902078412
0.6449678 0.43243928551686467 0.8093259626954233
0.6469677 0.43814153183351584 0.805914961434032
0.6489676 0.44342144044650045 0.8035667750426531
0.6509675 0.4491391721036103 0.8009307932729838
0.6529674 0.45483659592626347 0.7977344051601324
0.6549673 0.46047293416279433 0.7946901923034368
0.6569672 0.4659069450667964 0.7910369856233034
0.6589671 0.4710097057800633 0.7880857800861644
0.660967 0.475844184873923 0.7846980488036123
0.6629669 0.4817050817922327 0.7816293977478348
0.6649668 0.4864942972935721 0.7780267960914942
0.6669667 0.49188319481794585 0.7740424167879223
0.6689666 0.49728118895186946 0.770976153996226
0.6709665 0.5023093762236338 0.7675329950017699
0.6729664 0.5077929897308053 0.7635777131644369
0.6749663 0.5128644908410182 0.7601408982074133
0.6769662 0.5184590407469792 0.7561695205678723
0.6789661 0.5237505438965374 0.7522186418394569
0.680966 0.5285386793986319 0.7482097039033817
0.6829659 0.534095815355153 0.7443021912752532
0.6849658 0.5395783510056935 0.7403505298553793
0.6869657 0.5450287012841994 0.7368116135431262
0.6889656 0.549986858420493 0.732314655915844
0.6909655 0.5549243655611593 0.7281594143483211
0.6929654 0.5605068278794852 0.7237974114195701
0.6949653 0.5656475050398684 0.7197671241156055
0.6969652 0.5708551121324519 0.7155210303981164
0.6989651 0.5763320142081501 0.711421272179032
0.700965 0.5815712015929028 0.7069316687635392
0.7029649 0.5867357540926408 0.7028309866240673
0.7049648 0.5918106334018504 0.6985219848825133
0.7069647 0.597381449535233 0.6942822738533196
0.7089646 0.6026911351854746 0.6902844073182874
0.7109645 0.6077934720193914 0.6862896273425937
0.7129644 0.613231547794552 0.6818211065857911
0.7149643 0.617909147557947 0.677741179005548
0.7169642 0.6231232089406259 0.6732967752721455
0.7189641 0.6279400135435902 0.6692020492220682
0.720964 0.6325626813003189 0.6648251749936724
0.7229639 0.6372186685020527 0.6602666499126156
0.7249638 0.6422930543358688 0.655768189623877
0.7269637 0.6471224035862759 0.6518810819532125
0.7289636 0.6516523704937516 0.6469710873276767
0.7309635 0.656315017750942 0.6428834978712472
0.7329634 0.661009723295164 0.6385159698701268
0.7349633 0.6651171418270079 0.6336938887466025
0.7369632 0.6697096970141472 0.6290407310878489
0.7389631 0.673423006238022 0.6245261212398594
0.740963 0.6778099304125949 0.6193260488122414
0.7429629 0.6824276839667568 0.6148435973074193
0.7449628 0.6866532354275025 0.6100727520945641
0.7469627 0.6907973426580672 0.6051405653046341
0.7489626 0.694704618571966 0.5999768545327874
0.7509625 0.6989399286737401 0.5947862289526503
0.7529624 0.7028567651939336 0.5899387712315889
0.7549623 0.7073881189918142 0.5846726397537536
0.7569622 0.7114380063431543 0.5793978767305398
0.7589621 0.7149521935445584 0.5738691259957776
0.760962 0.718960367696754 0.5688106051248077
0.7629619 0.7232398437190157 0.5634351817922281
0.7649618 0.7273073567304988 0.5580760402867502
0.7669617 0.7317178101094448 0.5527989701643806
0.7689616 0.7353599763531391 0.5467582901493582
0.7709615 0.7393158742691919 0.5413802904247521
0.7729614 0.7434326840016021 0.5358776426989625
0.7749613 0.7473019053212848 0.5307322449070362
0.7769612 0.751033267845717 0.524485418409239
0.7789611 0.7549609585607836 0.5192369487179634
0.780961 0.7586884267537269 0.5134978257603848
0.7829609 0.7626274923792494 0.5081924326443906
0.7849608 0.7662770992907736 0.5026707776803622
0.7869607 0.7704739893606444 0.4972775909693889
0.7889606 0.7740722929635752 0.4913721921812068
0.7909605 0.7778552194088566 0.48570721874949324
0.7929604 0.7814496637446382 0.4805941298631287
0.7949603 0.7850861586210627 0.4745923196045208
0.7969602 0.7882660708445928 0.46934089104894955
0.7989601 0.7921033966221923 0.4633920199170342
0.80096 0.7955375234662323 0.45766423330675665
0.8029599 0.7988675240420312 0.4521873298165533
0.8049598 0.8023662144588238 0.44635575797025756
0.8069597 0.8050279173369268 0.4407020068790637
0.8089596 0.8082719335676635 0.4350650683992303
0.8109595 0.8107392891649234 0.42904073750432103
0.8129594 0.8142350583837492 0.42351756962882425
0.8149593 0.8171747132616768 0.4174970543855224
