! Created with skrf 1.8.0 (http://scikit-rf.org).
# GHz S RI R 50.0 
!freq ReS11 ImS11
0.001 0.9946298465302283 -0.0066023816638299026
0.0029999 0.99279176533763 -0.017034503799298994
0.0049998 0.9909920980644422 -0.02490852864305365
0.0069997 0.9887421420480693 -0.031506759891323705
0.0089996 0.9869195531310195 -0.03811905420848197
0.0109995 0.9858447957814244 -0.04526303172254567
0.0129994 0.9852565666885252 -0.052267790369330866
0.0149993 0.9845404544225185 -0.05968767681405186
0.0169992 0.9838899264525545 -0.06643171560811739
0.0189991 0.9831769030904188 -0.07391138618439318
0.020999 0.9825444056377486 -0.08156671141142838
0.0229989 0.9815926900622195 -0.08877694212055026
0.0249988 0.980582689614644 -0.09625720906452981
0.0269987 0.9799033288273538 -0.1034783563485285
0.0289986 0.9790849189227755 -0.11083263390479497
0.0309985 0.9779370268830901 -0.11840049903648937
0.0329984 0.9768800218918244 -0.12545422125959396
0.0349983 0.9758508580672632 -0.13305509312965752
0.0369982 0.9750994269006342 -0.14002849805752923
0.0389981 0.973526523341681 -0.1476865929007778
0.040998 0.9724422674041697 -0.1550619988766564
0.0429979 0.971009825501651 -0.16216361191004675
0.0449978 0.9696779623218373 -0.16946506854462404
0.0469977 0.9685832760366062 -0.17710259566986314
0.0489976 0.9669284932248594 -0.18421912572097632
0.0509975 0.9652720754494705 -0.19147490989311322
0.0529974 0.963599172222726 -0.1992104679037166
0.0549973 0.9623540235325517 -0.20598524945701802
0.0569972 0.9604643676721702 -0.21320645397628119
0.0589971 0.9586076858882859 -0.2205490696576377
0.060997 0.9567494844358543 -0.22781340140154482
0.0629969 0.9548787468697829 -0.23520299865515215
0.0649968 0.9530638654068838 -0.24221335300311198
0.0669967 0.951231814447513 -0.2492964682333707
0.0689966 0.9491503380646249 -0.2565914998192729
0.0709965 0.9472298550403677 -0.2638882330947506
0.0729964 0.945501132475481 -0.27129453435450057
0.0749963 0.9430126895426616 -0.2781958206316362
0.0769962 0.9407793787652748 -0.2850944494330247
0.0789961 0.9386546911266518 -0.2921402666036435
0.080996 0.936311574933953 -0.29941541917391973
0.0829959 0.9338437327275769 -0.3063433930417341
0.0849958 0.9315401306450937 -0.31337361669142616
0.0869957 0.9291559892600347 -0.32039783592509097
0.0889956 0.9263687909726855 -0.32749343622720717
0.0909955 0.9240083273304897 -0.3343642067054519
0.0929954 0.9212964064308043 -0.3412124891487712
0.0949953 0.9188441068682829 -0.3480728865914887
0.0969952 0.9159661733422672 -0.3551052175560416
0.0989951 0.9134705420306922 -0.36172456558421295
0.100995 0.9104178916418868 -0.3684616904048032
0.1029949 0.9076413964434991 -0.37576168886591227
0.1049948 0.9048527045436883 -0.38218657810170953
0.1069947 0.9020606593122943 -0.38898705549660867
0.1089946 0.8990644031063182 -0.39573882921906073
0.1109945 0.8956560228223229 -0.4023624120567797
0.1129944 0.8924558925286922 -0.4086317448692658
0.1149943 0.8892641333883037 -0.4156405799452866
0.1169942 0.886165496983686 -0.4219232367585943
0.1189941 0.882517585048732 -0.4282042548488127
0.120994 0.879436437391442 -0.43505094180906195
0.1229939 0.8756508400842355 -0.4416272256509472
0.1249938 0.8723839658289754 -0.4481581042450555
0.1269937 0.8690214539112705 -0.45458763412711056
0.1289936 0.8650790418980224 -0.46095848756279434
0.1309935 0.8614607594219068 -0.46708711489232957
0.1329934 0.857536319115071 -0.47375853760531744
0.1349933 0.8538928054407616 -0.4799762949385008
0.1369932 0.8502550743957533 -0.4864974744893343
0.1389931 0.8460362659943348 -0.4928300008781519
0.140993 0.8423943060722984 -0.49923193568165913
0.1429929 0.8385553103064147 -0.5057244150909395
0.1449928 0.8345980733119516 -0.5119330292848325
0.1469927 0.8306960809369529 -0.5180549240060365
0.1489926 0.8264408604811172 -0.524396734900618
0.1509925 0.8224498224973494 -0.5307183928190878
0.1529924 0.8183882308853719 -0.5367648474738267
0.1549923 0.8143265615254702 -0.5428148847828134
0.1569922 0.8105025139867732 -0.5492716066520217
0.1589921 0.8064541141974026 -0.5552690378498564
0.160992 0.8017961475426686 -0.5614862606625297
0.1629919 0.7976786426829098 -0.5669246495344084
0.1649918 0.7932984294820918 -0.572940180308011
0.1669917 0.7892131217091136 -0.5785132250429409
0.1689916 0.7850246399176289 -0.5844231445283147
0.1709915 0.7805709835194787 -0.589984871546848
0.1729914 0.7762091681434419 -0.5960703149868904
0.1749913 0.7715636568927691 -0.6018864217057573
0.1769912 0.7672592525129497 -0.6073793380934489
0.1789911 0.7628007516129637 -0.6127796471449484
0.180991 0.7580608517492944 -0.6183604756836807
0.1829909 0.7536251890166814 -0.6237148971120183
0.1849908 0.7487302888756894 -0.6291054758527234
0.1869907 0.7439448668502768 -0.6341598046446855
0.1889906 0.7393027687180516 -0.6392458093412511
0.1909905 0.7345563224363094 -0.6444945216347582
0.1929904 0.7294180010171524 -0.6496520334849026
0.1949903 0.7246309224021898 -0.6546057146590128
0.1969902 0.7192402290663314 -0.659455495173089
0.1989901 0.7144109345466552 -0.664726262542904
0.20099 0.7090761287706383 -0.6700210613420069
0.2029899 0.703871552322768 -0.6751070449886274
0.2049898 0.6988099094777691 -0.6802265199328442
0.2069897 0.6933792798227435 -0.6851164566255694
0.2089896 0.6883090477206306 -0.6898981545568648
0.2109895 0.6827958996035496 -0.6946217957546743
0.2129894 0.6772582459588273 -0.6994054587041891
0.2149893 0.6720417436764485 -0.7048583924040996
0.2169892 0.666430234354358 -0.7097285605063459
0.2189891 0.6610658030658152 -0.714506526836938
0.220989 0.6555513236575425 -0.7193386510896699
0.2229889 0.6502736211510349 -0.7238341209459282
0.2249888 0.6444640785483 -0.7285106436451299
0.2269887 0.639379446031329 -0.7334087686455738
0.2289886 0.6338410408944589 -0.7378038460518537
0.2309885 0.6286500991340935 -0.7426212491744525
0.2329884 0.6225793970157609 -0.7474357262287481
0.2349883 0.6170605020861448 -0.7518125494252377
0.2369882 0.6114802954028777 -0.7567172756070323
0.2389881 0.6058163503782654 -0.7605401215421548
0.240988 0.6001917646794629 -0.7649724207671832
0.2429879 0.5948121934016182 -0.769431084606011
0.2449878 0.5886855913122896 -0.7737692635962568
0.2469877 0.5832787496041669 -0.7776929470353916
0.2489876 0.5776115891680653 -0.7820214858335829
0.2509875 0.5719374472285614 -0.7861784235430561
0.2529874 0.5663220795164389 -0.790146450721449
0.2549873 0.56072784970196 -0.794205409969026
0.2569872 0.5549889966028725 -0.797803636807461
0.2589871 0.5489609256141725 -0.8012492334261203
0.260987 0.5433298621961172 -0.8052229731501622
0.2629869 0.5372449493600769 -0.8089934786640202
0.2649868 0.5315618491727875 -0.8124695061749775
0.2669867 0.5255508869410522 -0.8161826155910998
0.2689866 0.5192187240736195 -0.8194529209585517
0.2709865 0.5130936849103112 -0.8228419695249294
0.2729864 0.5072941625992781 -0.8261281202798675
0.2749863 0.5014029848531305 -0.8299835816864347
0.2769862 0.49526807959330216 -0.8331803779387789
0.2789861 0.4888781198373908 -0.8363350615485513
0.280986 0.4826306731548682 -0.8398366225751878
0.2829859 0.4764677275707536 -0.8429947302024648
0.2849858 0.4703854193496314 -0.8459397458283402
0.2869857 0.4637053201637024 -0.8492474096999828
0.2889856 0.45722820945611187 -0.8522103985168747
0.2909855 0.451188008868306 -0.8553581857120423
0.2929854 0.44476355061243555 -0.8584432839792697
0.2949853 0.43841038368528845 -0.8616373668197571
0.2969852 0.43236693004917137 -0.8646294352091359
0.2989851 0.4257297669791011 -0.8678926698463492
0.300985 0.41971348166321737 -0.8704721005738005
0.3029849 0.4136472170193029 -0.8735810325491066
0.3049848 0.4067817929381169 -0.8761883040742957
0.3069847 0.4004131772002039 -0.8791591607826184
0.3089846 0.3942390309464017 -0.8821437211231016
0.3109845 0.387865302346959 -0.8848207888906925
0.3129844 0.3810034865951948 -0.8875541343043035
0.3149843 0.37520150002960434 -0.8899263152143376
0.3169842 0.3690852487023265 -0.8926074231104407
0.3189841 0.3626050397327141 -0.8948506307036568
0.320984 0.35619208317684997 -0.8971903184311133
0.3229839 0.34975200032032816 -0.8995534466822863
0.3249838 0.3432552054048888 -0.9018872957130781
0.3269837 0.3371265968864099 -0.9040480739264564
0.3289836 0.33085452281925654 -0.9064973209294541
0.3309835 0.3246280013133124 -0.9084443802404814
0.3329834 0.3180356597486484 -0.9107361626128507
0.3349833 0.31124502058601067 -0.9124325871261804
0.3369832 0.3051827075129611 -0.9142979542599137
0.3389831 0.2988586736778833 -0.9162287167880825
0.340983 0.29219163475795024 -0.918011063166043
0.3429829 0.28578366777338626 -0.9194808429537814
0.3449828 0.27926666203340217 -0.9213957440551077
0.3469827 0.2727469160991043 -0.9230824710403752
0.3489826 0.266521228086234 -0.9247908093852988
0.3509825 0.25976003705090484 -0.9261852447643935
0.3529824 0.25312304658848256 -0.9276713750700233
0.3549823 0.24678491638664668 -0.9288848853108009
0.3569822 0.24006974836143802 -0.9305885479786766
0.3589821 0.2331362432727793 -0.9315717371385901
0.360982 0.22672133589484078 -0.9330229547429604
0.3629819 0.22025668222728936 -0.9341299074163996
0.3649818 0.21380702490586553 -0.9351473890873792
0.3669817 0.20660332210370028 -0.9365316950366458
0.3689816 0.19984717855805822 -0.9376911680411272
0.3709815 0.1931497292066604 -0.9393793551966972
0.3729814 0.18634521697277856 -0.9399350226887119
0.3749813 0.1797705732776662 -0.9412622472242822
0.3769812 0.17357358673686554 -0.94222520137246
0.3789811 0.166345236300655 -0.9434185863780635
0.380981 0.1596063107522943 -0.9445638603024786
0.3829809 0.15305499435633757 -0.9454217046079297
0.3849808 0.14644332585557449 -0.946317105742129
0.3869807 0.1398479212457164 -0.9474593782939114
0.3889806 0.13286601706632906 -0.9479695391547263
0.3909805 0.12672034489382575 -0.9487874845039039
0.3929804 0.11979466029399652 -0.9493835108483011
0.3949803 0.11313788207974068 -0.9500146903505058
0.3969802 0.10689181760375584 -0.9509679555874118
0.3989801 0.10083976554522447 -0.9518131764259526
0.40098 0.09410183634639951 -0.9520952402740221
0.4029799 0.08783623806305116 -0.9526665910668537
0.4049798 0.08087586889525014 -0.9526623638205022
0.4069797 0.0746769547489741 -0.9534162959411842
0.4089796 0.0681936326783867 -0.9535643813113921
0.4109795 0.061761936668700196 -0.9535417151759388
0.4129794 0.05511769817325721 -0.9537140382263767
0.4149793 0.04896722009962525 -0.953938559246095
0.4169792 0.04238033096257078 -0.9539434456323928
0.4189791 0.03604631915254568 -0.9539680842599839
0.420979 0.029787907897280457 -0.9541666477023508
0.4229789 0.022998443890561146 -0.9541537608693972
0.4249788 0.016507135468972096 -0.9536568708330654
0.4269787 0.009964506371983203 -0.9535684726503102
0.4289786 0.0035126582971807645 -0.9532638004518783
0.4309785 -0.002802478539155412 -0.953258309859749
0.4329784 -0.009368766498507236 -0.9524252367546799
0.4349783 -0.01632215859327877 -0.9521651934728435
0.4369782 -0.02188999986629852 -0.9517703075359772
0.4389781 -0.028269201063825036 -0.951596502100393
0.440978 -0.03499152154680686 -0.9512946729954311
0.4429779 -0.04105320436820422 -0.9505211660500814
0.4449778 -0.04800114298317833 -0.949922802158264
0.4469777 -0.05464791194702395 -0.9492071596282358
0.4489776 -0.06092528648953967 -0.9490932106497063
0.4509775 -0.06746088478681103 -0.9479640453697615
0.4529774 -0.0738166814720411 -0.9472495537689573
0.4549773 -0.07996967816486492 -0.9470144503787022
0.4569772 -0.08664715434137596 -0.9460671114960164
0.4589771 -0.09265616429062005 -0.9451836188535923
0.460977 -0.09900903057973945 -0.9441245165453157
0.4629769 -0.10553965807554541 -0.9431078916520511
0.4649768 -0.11196189804123663 -0.9424094228423356
0.4669767 -0.11797847150245168 -0.9414001820997006
0.4689766 -0.12392261502967836 -0.9409285610418455
0.4709765 -0.12994062503769357 -0.9394010351255259
0.4729764 -0.13625257436146143 -0.9384641092791561
0.4749763 -0.1427117709694361 -0.9371263269484552
0.4769762 -0.14860873343207892 -0.9357206179039987
0.4789761 -0.15496302049214228 -0.9347034788168718
0.480976 -0.16046183569793598 -0.9333136633511454
0.4829759 -0.16708421324969852 -0.9321448862257238
0.4849758 -0.17298628810299435 -0.9308910731147749
0.4869757 -0.1794990943891711 -0.9294741979865222
0.4889756 -0.18536264435853156 -0.9276517285150121
0.4909755 -0.19132828591703904 -0.9259042906378289
0.4929754 -0.1975366933330338 -0.9246471322337102
0.4949753 -0.20371266848705422 -0.9225094141896328
0.4969752 -0.21013610454202059 -0.9211768712426425
0.4989751 -0.2154450289382146 -0.9189684131701574
0.500975 -0.2217976505795757 -0.9172739001946949
0.5029749 -0.2281029817883128 -0.9153403473849884
0.5049748 -0.23424496457651614 -0.9135757843221475
0.5069747 -0.24027338586162983 -0.9118428262061046
0.5089746 -0.24649562708279557 -0.9099259244770908
0.5109745 -0.2522639622308418 -0.9083839763767023
0.5129744 -0.258330020047562 -0.906695452403125
0.5149743 -0.2644302721154336 -0.9046105659645477
0.5169742 -0.27014094796474847 -0.9030895323304571
0.5189741 -0.2761375900745674 -0.9012234613667175
0.520974 -0.2821547282801075 -0.8986809376118112
0.5229739 -0.2880228095446359 -0.8972219796043325
0.5249738 -0.29380470630885686 -0.894903763619234
0.5269737 -0.29983512394126594 -0.893008574271662
0.5289736 -0.30567212530614646 -0.8910916678507834
0.5309735 -0.31163016682891176 -0.8885273640400657
0.5329734 -0.3170443047447187 -0.8865620044240728
0.5349733 -0.3231947046519806 -0.884412649845681
0.5369732 -0.32866786391408903 -0.8824106986583943
0.5389731 -0.33402359867392584 -0.8802379983305016
0.540973 -0.33986987039898064 -0.8776836034465995
0.5429729 -0.34571669614376477 -0.8752423690385193
0.5449728 -0.3507769553658753 -0.8728533001700514
0.5469727 -0.3561769536286727 -0.8707287902255728
0.5489726 -0.36165297525907436 -0.867981512852242
0.5509725 -0.3668773107919013 -0.865123036181389
0.5529724 -0.3725371813614477 -0.8634649005312174
0.5549723 -0.37774134621524486 -0.8608208980161312
0.5569722 -0.38340209125050667 -0.8576266530275182
0.5589721 -0.3881995944119604 -0.8550584548997724
0.560972 -0.3933761723194304 -0.8520305132878662
0.5629719 -0.39875680232737737 -0.8491392240719231
0.5649718 -0.40418232395345693 -0.8457674793381363
0.5669717 -0.40929415641279765 -0.84303942530892
0.5689716 -0.41429547139462375 -0.8395762671330357
0.5709715 -0.41974782203909194 -0.8367758034164637
0.5729714 -0.4246264183915342 -0.8341098617189019
0.5749713 -0.42985847260978133 -0.8303703405585277
0.5769712 -0.4354162382110322 -0.82727296827519
0.5789711 -0.4408560332879579 -0.8241770561761462
0.580971 -0.4464897513394469 -0.8211315498213176
0.5829709 -0.45207378087625627 -0.8182455250416087
0.5849708 -0.4569797128343051 -0.8149426444895613
0.5869707 -0.4623254629232942 -0.8120528726493607
0.5889706 -0.467763537322692 -0.8086718796179035
0.5909705 -0.4722408981035786 -0.8053193675396513
0.5929704 -0.4775385342889942 -0.8021567618423383
0.5949703 -0.4828787060435026 -0.7989797554950433
0.5969702 -0.487753663097694 -0.7960907806091392
0.5989701 -0.4926948313464837 -0.7924050726159021
0.60097 -0.49806523560491883 -0.7896434955220687
0.6029699 -0.5028468300736563 -0.7859240027948291
0.6049698 -0.5078827636822059 -0.7826833375912406
0.6069697 -0.512573870114466 -0.7794246416608993
0.6089696 -0.5178939676027859 -0.7759558912624054
0.6109695 -0.522333413418879 -0.7725898100914821
0.6129694 -0.5271214121465339 -0.7695081395403273
0.6149693 -0.5318457510496591 -0.7656738290754417
0.6169692 -0.5372763348120974 -0.762655895687809
0.6189691 -0.54116858423194 -0.7592529418897458
0.620969 -0.5456018996711439 -0.7558538143788623
0.6229689 -0.5505610359565316 -0.7521003195574999
0.6249688 -0.5548454843555966 -0.7486990243664553
0.6269687 -0.5593989289552033 -0.7450625765826354
0.6289686 -0.5640507123416731 -0.7414140883587079
0.6309685 -0.568052990769924 -0.737487551446904
0.6329684 -0.5723199308891126 -0.7333386986043675
0.6349683 -0.5768675634615517 -0.7293998024654265
0.6369682 -0.5807456293561303 -0.7256213219934621
0.6389681 -0.5852927785216286 -0.7215455422571275
0.640968 -0.5895815395638091 -0.7171265435716311
0.6429679 -0.5939554004402758 -0.7130159393847628
0.6449678 -0.59841306094773 -0.7087856431175639
0.6469677 -0.603056601414622 -0.7048228891245147
0.6489676 -0.6076274641048957 -0.7007243366765258
0.6509675 -0.6113472084958308 -0.6961350190880361
0.6529674 -0.6157433348437672 -0.6925599937652769
0.6549673 -0.6203033650626627 -0.68866814866048
0.6569672 -0.6241525419324021 -0.6846115913959332
0.6589671 -0.6288989476262087 -0.6803977415529017
0.660967 -0.6333642960703169 -0.6762871884565017
0.6629669 -0.637534224975596 -0.6718540658282303
0.6649668 -0.641960291108439 -0.667944845528565
0.6669667 -0.6458009211828466 -0.6639108706390404
0.6689666 -0.6502059806232566 -0.6595033579497506
0.6709665 -0.6545168757153972 -0.6554974462747243
0.6729664 -0.6582813732989411 -0.6510736249828215
0.6749663 -0.6620834452813898 -0.6464575393209392
0.6769662 -0.6658184773656095 -0.6427454928965246
0.6789661 -0.6702514023818014 -0.6380246699905204
0.680966 -0.6738835929895813 -0.6343547424135045
0.6829659 -0.6778993762955781 -0.6299102232119079
0.6849658 -0.6816504953350524 -0.6258970842650692
0.6869657 -0.685270899088452 -0.6210618350901189
0.6889656 -0.689197589031208 -0.617258621235739
0.6909655 -0.6931916167160048 -0.6130486600855362
0.6929654 -0.6965960845676242 -0.6087752109079574
0.6949653 -0.6998502985735937 -0.604430834665934
0.6969652 -0.7037230052721525 -0.6004340584960909
0.6989651 -0.7070918208182382 -0.5960336447909248
0.700965 -0.7106890770095494 -0.5915665272852515
0.7029649 -0.7135488741594791 -0.5866679085512971
0.7049648 -0.7173316005159852 -0.582594455905481
0.7069647 -0.720445019362722 -0.5778216722772054
0.7089646 -0.723282915324117 -0.573349158451235
0.7109645 -0.7266328001731888 -0.5686672037935311
0.7129644 -0.7295190182810665 -0.5637518204247236
0.7149643 -0.7327327177758176 -0.559105966417124
0.7169642 -0.736077272177595 -0.5543016592248946
0.7189641 -0.7391677996814812 -0.5494158605707573
0.720964 -0.7422808998628719 -0.5447141260086976
0.7229639 -0.7454135263112549 -0.5402648240526512
0.7249638 -0.7484387429046898 -0.5352982151545036
0.7269637 -0.7514181501279433 -0.530082957099308
0.7289636 -0.7545495678341537 -0.525267001725868
0.7309635 -0.7580151015678108 -0.5198445083468153
0.7329634 -0.7609730211521735 -0.5152434453388383
0.7349633 -0.7642443390445338 -0.5104674894855759
0.7369632 -0.7672304591487381 -0.5050967835795185
0.7389631 -0.7703630999808496 -0.5003411772739289
0.740963 -0.7736463666515629 -0.4953308069795584
0.7429629 -0.7765281937333113 -0.490503369736847
0.7449628 -0.7792361717947454 -0.4855239082712374
0.7469627 -0.7825760733531714 -0.48076632724898355
0.7489626 -0.7854242536960476 -0.4756625635935806
0.7509625 -0.7880525818357988 -0.47072802011197745
0.7529624 -0.7914234455842417 -0.46621839775700685
0.7549623 -0.7943503409550754 -0.4611051273492579
0.7569622 -0.7970030509210903 -0.45611590610206065
0.7589621 -0.7994351332002045 -0.45128068794200854
0.760962 -0.8023142376256038 -0.4460672052807709
0.7629619 -0.8047763924565612 -0.44136323287619594
0.7649618 -0.8074703670531209 -0.43643757119991516
0.7669617 -0.809904628020758 -0.4317356312990038
0.7689616 -0.8121773273415124 -0.42646801632589243
0.7709615 -0.8145911147995547 -0.42172330733750285
0.7729614 -0.8172900275521402 -0.416377081164325
0.7749613 -0.819384611651403 -0.41160204131523015
0.7769612 -0.8214167707181592 -0.40660917073807795
0.7789611 -0.8242962506336257 -0.40149355041330087
0.780961 -0.826279293747063 -0.39679930187534546
0.7829609 -0.8288775103981066 -0.3912828938615416
0.7849608 -0.8304584945822514 -0.3863209916895235
0.7869607 -0.8328053379453249 -0.38100381158364155
0.7889606 -0.8350456024162383 -0.3758490736386472
0.7909605 -0.8366334296399824 -0.3709957998081588
0.7929604 -0.8386704137384834 -0.36539884205092316
0.7949603 -0.8406892882858324 -0.36008051972021027
0.7969602 -0.8430834360155697 -0.3549323772624638
0.7989601 -0.8448064545121046 -0.3497643194665287
0.80096 -0.8462756511193167 -0.34430848615381426
