! Created with skrf 1.8.0 (http://scikit-rf.org).
# GHz S RI R 50.0 
!freq ReS11 ImS11
0.001 -0.9439850994686265 0.0051756590442494504
0.0029999 -0.9435120129385589 0.012323108068582708
0.0049998 -0.9428132401555219 0.019167797626465546
0.0069997 -0.941807938101189 0.026175962532655424
0.0089996 -0.9412941711914079 0.03320171333855412
0.0109995 -0.9407995088573191 0.04014685424786696
0.0129994 -0.9402634400674725 0.047095075858578125
0.0149993 -0.9393227027066199 0.054210101615394135
0.0169992 -0.9387278646519177 0.06086060413905811
0.0189991 -0.9376680545597893 0.06792388782276844
0.020999 -0.9370787870669298 0.07456926615334539
0.0229989 -0.9360608702663181 0.08138238750879266
0.0249988 -0.9347857833505518 0.0881840345230786
0.0269987 -0.9342789358433737 0.09510901166752231
0.0289986 -0.9332826080745298 0.10172771517609527
0.0309985 -0.9322702126984596 0.10847542921553394
0.0329984 -0.9310279158260265 0.11490809098233036
0.0349983 -0.9299751239780442 0.1221525997029412
0.0369982 -0.9287598658250317 0.12889841086929532
0.0389981 -0.927519780833941 0.13548996751961237
0.040998 -0.9265645156977255 0.14196743416949023
0.0429979 -0.9248701879433456 0.14881084204747724
0.0449978 -0.9238374462847693 0.1550804815039482
0.0469977 -0.9223377117822458 0.16189692327010283
0.0489976 -0.9209893132451555 0.16839011273372023
0.0509975 -0.9193778816538061 0.17512856821493475
0.0529974 -0.9181727744209001 0.18174480958330524
0.0549973 -0.916320455142426 0.18827020950861134
0.0569972 -0.9149012578971444 0.19461132344211654
0.0589971 -0.9131954568792068 0.20096799905342705
0.060997 -0.9114984838407332 0.20746527852770316
0.0629969 -0.9100522396267414 0.21387249429467853
0.0649968 -0.9081704226606303 0.22014010597520905
0.0669967 -0.9065825824526715 0.22654450727916473
0.0689966 -0.9045378957124838 0.23307502955301232
0.0709965 -0.9025787961920981 0.2393651447216129
0.0729964 -0.9009447670888843 0.24578810915471797
0.0749963 -0.8989060832640374 0.2517976006915625
0.0769962 -0.8964856227849789 0.25837914481007396
0.0789961 -0.8944815884020968 0.2646108179044515
0.080996 -0.8924609016474133 0.27092172817925214
0.0829959 -0.8903426887391965 0.27733280978179575
0.0849958 -0.8879003154394235 0.2833098928395401
0.0869957 -0.8857255930734176 0.2894088100069178
0.0889956 -0.8832295618933502 0.29579399284726615
0.0909955 -0.8809954336249635 0.3020081410963492
0.0929954 -0.8786388589770372 0.3081214235746878
0.0949953 -0.8764550308126094 0.313965986769749
0.0969952 -0.873816325273864 0.32015225702484595
0.0989951 -0.871191206645334 0.3264690884356467
0.100995 -0.8685867553515985 0.33267710100055337
0.1029949 -0.865986408876065 0.33842310329860853
0.1049948 -0.8634911634166893 0.3444922016563752
0.1069947 -0.8605994774485163 0.3509881803976602
0.1089946 -0.8582796089675475 0.35691013029117347
0.1109945 -0.8553718243034389 0.3631284284932075
0.1129944 -0.8525010203970997 0.3691301798932846
0.1149943 -0.8499891515178016 0.37512402096482234
0.1169942 -0.8468963408900324 0.38108498044091665
0.1189941 -0.844338779183988 0.3872011927627941
0.120994 -0.8413426337289815 0.39292509814129156
0.1229939 -0.8385392118412508 0.3986779534987429
0.1249938 -0.8358186866406615 0.40476040851220185
0.1269937 -0.8328898288855303 0.4107438768482584
0.1289936 -0.8301103426040397 0.41636471117753704
0.1309935 -0.8266228170650053 0.4220706787663375
0.1329934 -0.8236966517085357 0.4276373558550214
0.1349933 -0.8206327456695425 0.4333694143946687
0.1369932 -0.8175451063581531 0.43934045383220943
0.1389931 -0.8145519805544558 0.44498819650075117
0.140993 -0.8110692427694493 0.45063356223126344
0.1429929 -0.8081020530112335 0.45610097900198127
0.1449928 -0.804478268712625 0.4616249806789611
0.1469927 -0.8011020861250294 0.467284809949186
0.1489926 -0.7976671856489723 0.472543977197478
0.1509925 -0.7942393893604835 0.4781064298875014
0.1529924 -0.7907385525292041 0.4832558002293226
0.1549923 -0.7867639219105124 0.48880578557125254
0.1569922 -0.7829465144172256 0.49380667491531494
0.1589921 -0.7795658292464072 0.4997182559890796
0.160992 -0.7755348298002291 0.5050599688595867
0.1629919 -0.7723207439655276 0.5106431625418747
0.1649918 -0.768314371899142 0.5155768896019934
0.1669917 -0.7642166111795463 0.5209638314405861
0.1689916 -0.7603588188831645 0.5260904222223045
0.1709915 -0.7567663600944439 0.5316167600330675
0.1729914 -0.75235061022841 0.5369172605179643
0.1749913 -0.748367008956861 0.5421279523023058
0.1769912 -0.7441835422968455 0.5472589818648832
0.1789911 -0.7402115863970186 0.5530003591968639
0.180991 -0.7362347475804273 0.5577807390649671
0.1829909 -0.732103574327868 0.5630794166233103
0.1849908 -0.7279060782619541 0.5685383867547318
0.1869907 -0.7239397661916049 0.5739706170262819
0.1889906 -0.7190274328622376 0.5792127735019073
0.1909905 -0.7149502494715928 0.584545250487756
0.1929904 -0.7107443631755107 0.5897587008456675
0.1949903 -0.7067802242213443 0.5946211278002529
0.1969902 -0.7027938899244529 0.5996785061791606
0.1989901 -0.6985387227019355 0.6047073010036168
0.20099 -0.6945902068158336 0.6095325025457707
0.2029899 -0.6900006501445508 0.6144630872478215
0.2049898 -0.6850586421879241 0.6195265731926674
0.2069897 -0.6808983220847207 0.6242476065551386
0.2089896 -0.6766424199365131 0.6288771121229859
0.2109895 -0.6721679620303134 0.6337127737436149
0.2129894 -0.6673838075396183 0.6386121314143032
0.2149893 -0.6632451228798578 0.6432724250301568
0.2169892 -0.658851974949933 0.6477102052217474
0.2189891 -0.6538515138956014 0.6522295352141765
0.220989 -0.649011185436631 0.6568823774225326
0.2229889 -0.6443525045585471 0.6614706572488176
0.2249888 -0.6399438051155375 0.6658357763089219
0.2269887 -0.6348950403095299 0.670236445992017
0.2289886 -0.6302272098316194 0.6745107424852094
0.2309885 -0.6254049982419664 0.6788475073712734
0.2329884 -0.6201575585892872 0.6830637063871932
0.2349883 -0.6153862643859026 0.6876437342326069
0.2369882 -0.6104168653284133 0.6917421929699354
0.2389881 -0.6051420187312844 0.6960089470016296
0.240988 -0.6001287726338357 0.6999338343758313
0.2429879 -0.594861437532747 0.7038913810508739
0.2449878 -0.5897078665561255 0.7080060393140465
0.2469877 -0.584431269353701 0.712015665416081
0.2489876 -0.5790103836285649 0.7164780417283543
0.2509875 -0.5737373390551477 0.7204019438298023
0.2529874 -0.568268732737528 0.7244818219381182
0.2549873 -0.5628963666291537 0.7286940690450634
0.2569872 -0.5574711099672581 0.7326190166641634
0.2589871 -0.5520945526710328 0.7369880327195052
0.260987 -0.5466663121802854 0.7409671899373134
0.2629869 -0.5410777602834552 0.7448086647964172
0.2649868 -0.5358662894689867 0.748852079182081
0.2669867 -0.5301357831112531 0.7528127680968129
0.2689866 -0.5248414133510451 0.7565081493320998
0.2709865 -0.5193206127583695 0.7602978999711052
0.2729864 -0.5139720053561488 0.764513073292009
0.2749863 -0.5081207002445807 0.7681660349232884
0.2769862 -0.5026724673344997 0.7717982157228598
0.2789861 -0.497140609490015 0.7755157117696073
0.280986 -0.4916520123351394 0.7792059533556219
0.2829859 -0.4858765751342295 0.782719979335528
0.2849858 -0.48041483612954 0.7861198120385152
0.2869857 -0.47492508681465184 0.7897313834663038
0.2889856 -0.4690117504520497 0.7930319024014841
0.2909855 -0.46335557309451086 0.796442908273794
0.2929854 -0.45765879570517104 0.7998012348576895
0.2949853 -0.45201135590411246 0.8029425352766606
0.2969852 -0.44594968739577245 0.8062698000019615
0.2989851 -0.44022381415878725 0.8090988689133422
0.300985 -0.43396283941914154 0.8121924307597088
0.3029849 -0.4286502915708435 0.8151798004151537
0.3049848 -0.422616511153379 0.817963288994064
0.3069847 -0.4161716108219576 0.8209764989193761
0.3089846 -0.4103449298880072 0.8237381590208348
0.3109845 -0.40405507996272255 0.8264886515397146
0.3129844 -0.3981275133139222 0.829223098830776
0.3149843 -0.3919894004249167 0.8317198493896949
0.3169842 -0.3855401466708406 0.8346647539239931
0.3189841 -0.3796160440859575 0.837588019007924
0.320984 -0.3732835130676224 0.8405076515672008
0.3229839 -0.366662368902486 0.8431529529973575
0.3249838 -0.360495668330872 0.8458048788398448
0.3269837 -0.3539584562294584 0.8484555643579209
0.3289836 -0.3478503582931894 0.8508054377723618
0.3309835 -0.34088557461119073 0.8532448454911616
0.3329834 -0.33493102016508536 0.8562878394414303
0.3349833 -0.3283494245749522 0.8582216421115696
0.3369832 -0.3222955768627033 0.8608130717075991
0.3389831 -0.31569725746881044 0.8632850952742508
0.340983 -0.3089159326575188 0.8658309676870279
0.3429829 -0.3027252472062494 0.8680001669564252
0.3449828 -0.29622335229303737 0.8703204941769399
0.3469827 -0.28967607189760486 0.8729154881036826
0.3489826 -0.283177438631414 0.8750360302798734
0.3509825 -0.27657298075757647 0.8771868174081766
0.3529824 -0.27012585807184825 0.8795038256493161
0.3549823 -0.26354455670708876 0.8816616985596262
0.3569822 -0.25711386696964833 0.8835196568229177
0.3589821 -0.25029206020933575 0.8852873128547035
0.360982 -0.244050971277393 0.8872892590856388
0.3629819 -0.23733210221749376 0.8892590998612742
0.3649818 -0.23068202500796797 0.8909720589042882
0.3669817 -0.2241348502889383 0.8926309898800058
0.3689816 -0.21752277800379893 0.8943773468140723
0.3709815 -0.21117819835436208 0.8958623074314443
0.3729814 -0.20403206258902473 0.8976330099645513
0.3749813 -0.19808528463741487 0.8990749113243488
0.3769812 -0.19100904774003663 0.9006589956350588
0.3789811 -0.18456626012342894 0.9022781631630988
0.380981 -0.17768688581430309 0.9028417617544293
0.3829809 -0.17142112503342388 0.9042345868565572
0.3849808 -0.16420107358187588 0.905674328607077
0.3869807 -0.15782452504216782 0.9070635141641434
0.3889806 -0.1506089750245878 0.9078939416821119
0.3909805 -0.1437398418192395 0.9090140899707282
0.3929804 -0.13746006417669704 0.9097547340796793
0.3949803 -0.13027321220845042 0.910623867906552
0.3969802 -0.1228975274164845 0.9115636295397961
0.3989801 -0.1160890635800393 0.9123573456971804
0.40098 -0.1090432606965486 0.9134128523660932
0.4029799 -0.10226191363295273 0.9135994089638673
0.4049798 -0.09528998727304724 0.9145343252213787
0.4069797 -0.08758815503079115 0.9153963241176837
0.4089796 -0.08092327412411945 0.916051235654958
0.4109795 -0.07379213179569456 0.9167610147804581
0.4129794 -0.06665902232601237 0.9173520207879519
0.4149793 -0.059956678384294936 0.9178014069311743
0.4169792 -0.05225371598081395 0.9184498245521766
0.4189791 -0.04548799703860393 0.9190631734245397
0.420979 -0.03865638173668699 0.9190682644115481
0.4229789 -0.03148706488608416 0.9192194759968949
0.4249788 -0.024405785689385735 0.9197820528630828
0.4269787 -0.017289441757593327 0.9198331369597258
0.4289786 -0.010356712176562796 0.9199190362031073
0.4309785 -0.003273048989347181 0.9201841896924928
0.4329784 0.003845320058070506 0.920438739869826
0.4349783 0.010718003482908332 0.9204307925680342
0.4369782 0.017887089662482432 0.9203266445847716
0.4389781 0.025430388779589037 0.9201351438308714
0.440978 0.032410104411746354 0.9201975951336419
0.4429779 0.03906287466746556 0.9198358369773484
0.4449778 0.046295903262890264 0.919577536150296
0.4469777 0.053436852243785124 0.9191343087489783
0.4489776 0.0602559135830466 0.9188313857341319
0.4509775 0.06695399369734899 0.9182782866002672
0.4529774 0.0742350961942356 0.9177212676405526
0.4549773 0.08161021887942341 0.9173822315356229
0.4569772 0.088396202044869 0.9169127397647326
0.4589771 0.09595189540348442 0.9160438459503283
0.460977 0.10301207447774777 0.9151449903772094
0.4629769 0.11015764324874056 0.914208892944736
0.4649768 0.11729609593160017 0.9132932247476104
0.4669767 0.1243699863351945 0.9119721997973665
0.4689766 0.1315432585378451 0.9113006167956882
0.4709765 0.1388231618963554 0.9103372777621949
0.4729764 0.14602103548405548 0.9094392372046372
0.4749763 0.15332631900970528 0.908161807441124
0.4769762 0.16003000750134444 0.9068084841263856
0.4789761 0.16723540217751126 0.9060505021482491
0.480976 0.17462446931725675 0.9048545065044998
0.4829759 0.18164621420114077 0.9033290760838573
0.4849758 0.188689285153532 0.902375411007165
0.4869757 0.19589250424868548 0.9006511529005173
0.4889756 0.20306969160113697 0.8993446024990414
0.4909755 0.2102026066258141 0.8978456753703388
0.4929754 0.2171416084057869 0.8963657892874821
0.4949753 0.22423880870302193 0.8948587138224868
0.4969752 0.2312112696951487 0.8929028884787955
0.4989751 0.23830222136442838 0.891708217029002
0.500975 0.24507182823821289 0.890102489479805
0.5029749 0.25190805940218297 0.8878344392154705
0.5049748 0.2588099209913832 0.8859572491929981
0.5069747 0.265810934440325 0.883974830859036
0.5089746 0.272390301433847 0.8820189541794182
0.5109745 0.2793919832665267 0.8797695069817121
0.5129744 0.2862454158931923 0.877498187418357
0.5149743 0.2931645299424852 0.8750436628617935
0.5169742 0.3000195262811189 0.8730015551762846
0.5189741 0.3068442412294009 0.8705132797615744
0.520974 0.314011949282234 0.8680073713987048
0.5229739 0.3202343615964648 0.8652984394082531
0.5249738 0.32730840872355993 0.8630028350627151
0.5269737 0.3342673200307963 0.860069622984
0.5289736 0.34056317218452525 0.8571483001889767
0.5309735 0.3478261168304399 0.8544482498690973
0.5329734 0.35475360739715106 0.851288746672586
0.5349733 0.3610140924861328 0.8486052964350961
0.5369732 0.3682989718774091 0.8451688817048308
0.5389731 0.3749866028153866 0.8421332972246691
0.540973 0.38186542861739475 0.8392329605063896
0.5429729 0.38888185026455296 0.8361550897338602
0.5449728 0.39556353076387496 0.8327974556115897
0.5469727 0.40251619915336384 0.8298548669571111
0.5489726 0.40917806310205124 0.8264399592618911
0.5509725 0.41573252160186464 0.8233211306888982
0.5529724 0.4225860986586555 0.819967400984406
0.5549723 0.42928312542265257 0.8163172131743857
0.5569722 0.43603939403076947 0.8129951878958447
0.5589721 0.4426380630903683 0.8095497554223983
0.560972 0.44961591817996005 0.8059830550968907
0.5629719 0.4566272891535672 0.8027169375434191
0.5649718 0.4630360693397616 0.7995830248006696
0.5669717 0.46932738762629406 0.7960921351935708
0.5689716 0.47602193975180745 0.792385214904823
0.5709715 0.48251235898273803 0.7887459102760556
0.5729714 0.4889601724867307 0.7845160113087297
0.5749713 0.49523915504807153 0.7809128655194744
0.5769712 0.5015391216644818 0.7770820175587664
0.5789711 0.5076115400084833 0.7734669965364731
0.580971 0.5136373079069468 0.7696428928082918
0.5829709 0.520038792826576 0.765270506799417
0.5849708 0.5260596031829475 0.7612838791444756
0.5869707 0.5318998752670361 0.7572580494428545
0.5889706 0.5380094211671189 0.7527373406271234
0.5909705 0.5438175963244128 0.7486118876387045
0.5929704 0.5502176807490357 0.7440240184464233
0.5949703 0.5559811431337409 0.7393528739060908
0.5969702 0.5616940450643872 0.7348620563319629
0.5989701 0.5678392875937867 0.730194135719491
0.60097 0.5737915560947694 0.7254803590429619
0.6029699 0.5797006612067264 0.7202302214753499
0.6049698 0.5852079537375707 0.7155599443713943
0.6069697 0.590853859492523 0.7106767216280765
0.6089696 0.5969522549653978 0.7061188822344101
0.6109695 0.6027033411058808 0.7011598472844359
0.6129694 0.6081089480451198 0.6954607361858107
0.6149693 0.6138778262403974 0.6913270747473841
0.6169692 0.6201385697394758 0.6860354840487636
0.6189691 0.6259556492280185 0.6809778370022957
0.620969 0.6311738997949732 0.6755399005716969
0.6229689 0.6368666806107024 0.6698682000021482
0.6249688 0.642657272271528 0.6650468520635269
0.6269687 0.6482394607362794 0.6596230388819829
0.6289686 0.6537027380962938 0.6543740914386945
0.6309685 0.6593984547489004 0.6489208064069002
0.6329684 0.6645823221164184 0.643587620617222
0.6349683 0.6705451900550673 0.6384164176794691
0.6369682 0.6754475700465425 0.6326012644711474
0.6389681 0.6804847685014597 0.6273185785007335
0.640968 0.6862271634772372 0.6221429222227131
0.6429679 0.6915605268044425 0.6162540343695802
0.6449678 0.6963523048954671 0.6109451948076422
0.6469677 0.7014158853207213 0.6052226241391817
0.6489676 0.7062130183640973 0.5999476416734126
0.6509675 0.7111286339364202 0.5944892635340966
0.6529674 0.716324005945343 0.5885647824226984
0.6549673 0.7208688845683193 0.582535518843781
0.6569672 0.7257113205139837 0.5767678383006092
0.6589671 0.730477039636565 0.5709848779988524
0.660967 0.7347907547357261 0.5652310730999147
0.6629669 0.7391032712344615 0.5588682248306402
0.6649668 0.743735021152713 0.5532626485501735
0.6669667 0.7482164906543682 0.546615970064406
0.6689666 0.7524367348457064 0.5408740904099494
0.6709665 0.7565808770121428 0.534839566467244
0.6729664 0.7607575537572797 0.5283265540582996
0.6749663 0.7652107195523746 0.5220556059302826
0.6769662 0.7696029026322831 0.5151960038367854
0.6789661 0.7737505022195708 0.5089668714241056
0.680966 0.7777808941872093 0.5020216901604394
0.6829659 0.7820484897802333 0.4959109348039515
0.6849658 0.7863155485731244 0.488911216374664
0.6869657 0.7901643545015076 0.4823846093929681
0.6889656 0.7940064008593369 0.4754772729014018
0.6909655 0.797734899257796 0.46916670082864054
0.6929654 0.8020529878288204 0.4622993562602096
0.6949653 0.8057394870031117 0.455468705107565
0.6969652 0.8097737338393232 0.44836587846504156
0.6989651 0.8135557794788358 0.44172069293220423
0.700965 0.8171349987135268 0.43450087050843744
0.7029649 0.8209086677686279 0.4279097280541817
0.7049648 0.8245291091689358 0.4209817089470608
0.7069647 0.8282362111008307 0.4140236734095417
0.7089646 0.8321803654829559 0.4071670521662155
0.7109645 0.8357192659624922 0.40052071941274203
0.7129644 0.8390459479415169 0.39348282495963216
0.7149643 0.842247135331862 0.3864875399639345
0.7169642 0.8457427615953551 0.37971339602703946
0.7189641 0.8489359236207601 0.37250292669772467
0.720964 0.8518955946541963 0.36584102849015004
0.7229639 0.8549909250389055 0.35875516611251884
0.7249638 0.8583112592280857 0.3514536513194547
0.7269637 0.8612636304682049 0.34477982306341465
0.7289636 0.8638717327956644 0.33759550764274615
0.7309635 0.8672005865240885 0.3304967543899434
0.7329634 0.8698069869251246 0.32352435816025105
0.7349633 0.8721087810921003 0.3165144239809146
0.7369632 0.8746609883343629 0.30915328328692704
0.7389631 0.8774493868437683 0.3019159806977099
0.740963 0.8793402411207888 0.29462990764629515
0.7429629 0.8820658770413975 0.287491598206512
0.7449628 0.8842149606433152 0.28056627617039986
0.7469627 0.8866434818450009 0.2731748101345798
0.7489626 0.8888278170950223 0.265714828692107
0.7509625 0.8907957688084334 0.2580773163223069
0.7529624 0.8931039040540236 0.25104673963979507
0.7549623 0.8951307336982011 0.2434576781996105
0.7569622 0.8965676163710316 0.23574182560580592
0.7589621 0.8983904862772767 0.22772540808934003
0.760962 0.9006503340566662 0.22062694602111055
0.7629619 0.9025188881741564 0.2125829689423494
0.7649618 0.9038960311415797 0.20536239105191278
0.7669617 0.9059835422144612 0.1978282021052035
0.7689616 0.9074535516015345 0.1897432348137389
0.7709615 0.9088078972346372 0.1823227953816929
0.7729614 0.9107118417719591 0.17470019349661314
0.7749613 0.9120362297842044 0.1672051558737219
0.7769612 0.9131178218735152 0.15927744422008322
0.7789611 0.9145652513615237 0.15178560646651199
0.780961 0.915900572443503 0.14429869905726023
0.7829609 0.9170318486997731 0.13634410862042812
0.7849608 0.9180846607548441 0.12887593432630795
0.7869607 0.9193098531670739 0.12092658550351948
0.7889606 0.9204382670076786 0.11344432377814265
0.7909605 0.9212822552808791 0.10593278180872093
0.7929604 0.9220675238064775 0.09840414906430933
0.7949603 0.9229525647348548 0.09084090874947107
0.7969602 0.9236272713171643 0.08268451740896049
0.7989601 0.92431544676013 0.0754019588819157
0.80096 0.9251244507929354 0.06795372063325116
0.8029599 0.9255112986920339 0.06022563896821686
0.8049598 0.9257254915848363 0.05260185640989491
0.8069597 0.9261601986246241 0.04463868306519729
0.8089596 0.9265709725989464 0.03698947678332201
0.8109595 0.9261485492592827 0.029494997455528825
0.8129594 0.9272775627548873 0.021831882732006442
0.8149593 0.9269681039123145 0.01420757664303375
