! Created with skrf 1.8.0 (http://scikit-rf.org).
# GHz S RI R 50.0 
!freq ReS11 ImS11
0.001 -0.9430217478624741 0.006146650948023339
0.0029999 -0.9428244976293751 0.015102211121063573
0.0049998 -0.9416161800144337 0.023472850939164333
0.0069997 -0.9406024335078998 0.03194623191365816
0.0089996 -0.9398608833499147 0.04074083271650445
0.0109995 -0.9391348368007781 0.04910820431477444
0.0129994 -0.9384604821904204 0.057393319798234047
0.0149993 -0.9373197228550711 0.0660851183653253
0.0169992 -0.9364984015877447 0.07435675166397482
0.0189991 -0.9354026097268338 0.08281784990495239
0.020999 -0.9342999154148207 0.09116678576526624
0.0229989 -0.9329479223927355 0.09940904450621374
0.0249988 -0.9313678728457361 0.10795606899681368
0.0269987 -0.9304698967403506 0.1162527345779163
0.0289986 -0.92918903142152 0.12438013842757092
0.0309985 -0.9275895851502497 0.13269235384186903
0.0329984 -0.9261583600855429 0.14038746597989404
0.0349983 -0.9245605160022768 0.14917106241075512
0.0369982 -0.9230174760128355 0.15760766008085997
0.0389981 -0.9211216777928019 0.16568380961703746
0.040998 -0.9198584644465111 0.1734066218677194
0.0429979 -0.9175115535184986 0.1817210665129829
0.0449978 -0.91600855053154 0.18951729403971637
0.0469977 -0.9137661660035441 0.19809765008529004
0.0489976 -0.9117423611675926 0.20583905667540195
0.0509975 -0.9097137311952359 0.21405215640310166
0.0529974 -0.9076537942442204 0.22217508926034446
0.0549973 -0.9054184299323726 0.22975110504804802
0.0569972 -0.9032371144800121 0.2377826766510297
0.0589971 -0.9008940217858041 0.2455488234807283
0.060997 -0.8983324572609731 0.25339046393205394
0.0629969 -0.8960409257568601 0.2612979710671602
0.0649968 -0.8934834534201 0.2689564487683299
0.0669967 -0.8909827477273381 0.2766973682036648
0.0689966 -0.8882149445503532 0.2844745662176459
0.0709965 -0.8853704534847756 0.29241337671909107
0.0729964 -0.8829018908476907 0.3000505030183094
0.0749963 -0.8799980207327577 0.3074823833003639
0.0769962 -0.8765944872657381 0.3152153960736154
0.0789961 -0.8735876243358477 0.3229457262210009
0.080996 -0.870726060683722 0.33045917498652144
0.0829959 -0.8676481460072899 0.33797505230009445
0.0849958 -0.864308755520933 0.34560499212484147
0.0869957 -0.8610503883087836 0.3527611262404111
0.0889956 -0.8576606417854896 0.36057259092633087
0.0909955 -0.8542578151399051 0.36783440909771015
0.0929954 -0.8505232426398338 0.37510119665259795
0.0949953 -0.8476004348752381 0.38249311898455807
0.0969952 -0.8436363544701511 0.39023612965915383
0.0989951 -0.8398371601917022 0.3972106960744749
0.100995 -0.8363649811261005 0.4047494339061672
0.1029949 -0.8323533640247623 0.4115347076082873
0.1049948 -0.8285434968355532 0.41911398436617453
0.1069947 -0.8244869834094778 0.42618809369436017
0.1089946 -0.8209044611257886 0.4334227323752503
0.1109945 -0.8168356751087843 0.44084468705809626
0.1129944 -0.8127209618999144 0.448029915568377
0.1149943 -0.8087484852494171 0.4551345182419315
0.1169942 -0.8044587082275237 0.46233293253627095
0.1189941 -0.8004128308407957 0.4691315568837264
0.120994 -0.7962190444669622 0.4759548332153617
0.1229939 -0.7919030564116498 0.48292185402121135
0.1249938 -0.7878055419815433 0.4899866503735304
0.1269937 -0.7835369147948129 0.4968595636913419
0.1289936 -0.7790843068825986 0.5038009128773016
0.1309935 -0.7743749660774193 0.5101958931111461
0.1329934 -0.7700747435561219 0.5169774276421883
0.1349933 -0.765457829247255 0.5236300087056527
0.1369932 -0.7608194981261067 0.5304910187055806
0.1389931 -0.7564386660146504 0.536736733537716
0.140993 -0.7514550487568634 0.543479929951885
0.1429929 -0.7467979543069987 0.5500316101801691
0.1449928 -0.7414346754828941 0.5563245246952964
0.1469927 -0.736788527942199 0.5627338720540462
0.1489926 -0.7315541503260075 0.5689901646339444
0.1509925 -0.7262791184880556 0.5750471675432819
0.1529924 -0.7213117501799734 0.5809785380814075
0.1549923 -0.7159625825128312 0.5871130519917834
0.1569922 -0.7104650203195826 0.5932317180612742
0.1589921 -0.7050977971090424 0.5997330010252737
0.160992 -0.6995457757606502 0.6055384830667034
0.1629919 -0.6938922307787843 0.6117011377359712
0.1649918 -0.6886039443275458 0.6175162334210833
0.1669917 -0.6829397368711947 0.6231746964704052
0.1689916 -0.6774884558519731 0.6294302287531787
0.1709915 -0.67152605371334 0.635399120695809
0.1729914 -0.6654879461133325 0.6410861046020898
0.1749913 -0.6595871965265636 0.6469198117015786
0.1769912 -0.6538943152767535 0.652611497943536
0.1789911 -0.6478905825088848 0.6584745842567465
0.180991 -0.6416895639155196 0.66432814225643
0.1829909 -0.6357465188180764 0.6698696162414033
0.1849908 -0.6297691405196023 0.67596489382169
0.1869907 -0.6234516935254704 0.6815385999524219
0.1889906 -0.6171032119677053 0.6871618040451789
0.1909905 -0.6107370137118601 0.6926840331812738
0.1929904 -0.6047361145050825 0.6984930230190285
0.1949903 -0.5986362410580239 0.7037357988236556
0.1969902 -0.5926310560852471 0.7092422697815076
0.1989901 -0.5865727677688017 0.7145089630980759
0.20099 -0.580278444737844 0.7197913107910988
0.2029899 -0.5734646561917416 0.725101928162014
0.2049898 -0.5669353992550668 0.7299724275069179
0.2069897 -0.5606536791579484 0.7350595481246414
0.2089896 -0.5539944851627174 0.7400897693422597
0.2109895 -0.5475340119576608 0.745228029391484
0.2129894 -0.5408565623908943 0.749923437392725
0.2149893 -0.534630390711269 0.7548768225271779
0.2169892 -0.5278833407303082 0.7592277737264335
0.2189891 -0.5210825190999904 0.7640651708395115
0.220989 -0.514247216319717 0.7686457401560154
0.2229889 -0.5073324064925055 0.773137849549404
0.2249888 -0.5003664954278227 0.7774405670568045
0.2269887 -0.4935237936667882 0.7817171317384255
0.2289886 -0.48675855844837773 0.7860015671646239
0.2309885 -0.4796227096007679 0.7901547336204461
0.2329884 -0.4724204140782572 0.7942300847422283
0.2349883 -0.46512742284454434 0.7984971234451138
0.2369882 -0.4580164041846588 0.8025286987025536
0.2389881 -0.45071914062809415 0.8065288369233218
0.240988 -0.4433040311794753 0.8099253805391854
0.2429879 -0.43575883471751986 0.8138740583673431
0.2449878 -0.4286069031614873 0.8175887442437352
0.2469877 -0.4211806185364621 0.8213581193782604
0.2489876 -0.41341440430023935 0.8252976922499751
0.2509875 -0.40600776992952115 0.8288678650007307
0.2529874 -0.3979159597627172 0.8324754742432764
0.2549873 -0.3903570388864346 0.8361534573903444
0.2569872 -0.3826962445969774 0.8396644913147255
0.2589871 -0.3750824278572315 0.8434765496172943
0.260987 -0.3671166762404294 0.8467081047135613
0.2629869 -0.3592134958461246 0.8502003065316232
0.2649868 -0.351710983201058 0.8533769387454787
0.2669867 -0.34394167592727937 0.8569545568041719
0.2689866 -0.33614289576629347 0.8599516027013313
0.2709865 -0.327810185525514 0.8630222984197783
0.2729864 -0.3201063325944542 0.8662118580523377
0.2749863 -0.312387231706667 0.869270111884016
0.2769862 -0.30431039673949517 0.8723675418408178
0.2789861 -0.29637166391036207 0.8750665301568572
0.280986 -0.2884037677547078 0.8777839114235796
0.2829859 -0.28056798113490794 0.8809142310945444
0.2849858 -0.27240989213575456 0.8831201973241333
0.2869857 -0.26454803463973486 0.8858952383910949
0.2889856 -0.2566484873178921 0.8884457416133889
0.2909855 -0.24844855689993112 0.8910383342296962
0.2929854 -0.24032364357387787 0.8930731162777975
0.2949853 -0.23228939996368606 0.8950671200485071
0.2969852 -0.22400946863449128 0.8971220050313697
0.2989851 -0.21603813085656967 0.8993625814347379
0.300985 -0.20741860592235284 0.9009213590184514
0.3029849 -0.19953637126159396 0.9027948596276115
0.3049848 -0.19121956177823501 0.9045108932216351
0.3069847 -0.1827261029911951 0.9058420905281932
0.3089846 -0.1749541082811011 0.9076151570915628
0.3109845 -0.1660474031664357 0.908922159102552
0.3129844 -0.1579977496536904 0.910391080489242
0.3149843 -0.1493495850089698 0.9115993640789153
0.3169842 -0.14094850503500864 0.912669541029771
0.3189841 -0.1322833104528976 0.9143657301225103
0.320984 -0.1235926835671857 0.9156519577829422
0.3229839 -0.11476162863134443 0.9169723317180954
0.3249838 -0.10625708232369996 0.9179330681752429
0.3269837 -0.09754542920899323 0.918846590520207
0.3289836 -0.0889357423834533 0.9193658059779317
0.3309835 -0.07961554042529889 0.9201586255110004
0.3329834 -0.07145103481861406 0.9217512683599542
0.3349833 -0.06289856413790104 0.9216531285289972
0.3369832 -0.0538894472430648 0.9223812887048606
0.3389831 -0.0456614965795005 0.9231700159354407
0.340983 -0.03653756248328405 0.9237970492657009
0.3429829 -0.027771308669166522 0.9242584218083334
0.3449828 -0.019204950221638182 0.9246017857006416
0.3469827 -0.01026878789097194 0.9251616770926645
0.3489826 -0.0015566294055122405 0.925404386986074
0.3509825 0.007165249507652191 0.9256300622765303
0.3529824 0.01589521532155929 0.925293637245693
0.3549823 0.024532498523234986 0.9256775619845258
0.3569822 0.03340881692984085 0.9256364935378303
0.3589821 0.04240513948698286 0.9252071258913379
0.360982 0.05098436787001179 0.9248921147690238
0.3629819 0.059649759375033556 0.9242925855146731
0.3649818 0.06808191584138697 0.9240892464867113
0.3669817 0.07688621647921151 0.923468328762221
0.3689816 0.08573017207328133 0.9228277302332513
0.3709815 0.09379357920046656 0.92185954378653
0.3729814 0.10272803428512896 0.9214968057712571
0.3749813 0.11167027854109068 0.9205402945894549
0.3769812 0.12005819993572991 0.9193754865821481
0.3789811 0.12905448360464566 0.9183943257075293
0.380981 0.1374936036199697 0.9171610459304874
0.3829809 0.1459204737806781 0.9161737643048736
0.3849808 0.1547633256425488 0.9145125216392358
0.3869807 0.16351880797090948 0.9130209954002
0.3889806 0.17184600533249417 0.9115660548727006
0.3909805 0.18073112048963916 0.9096915076613269
0.3929804 0.1895898799227954 0.9081459818650851
0.3949803 0.19833152688689065 0.9061633083548734
0.3969802 0.20707487971858668 0.9038049409475262
0.3989801 0.21577923076080086 0.9019126509022757
0.40098 0.22444233409077757 0.899865941825417
0.4029799 0.23323284735426772 0.8974579479524895
0.4049798 0.24178595051833832 0.8953766079200584
0.4069797 0.25071940167202716 0.8930230897977046
0.4089796 0.2593011691405257 0.8906835017005834
0.4109795 0.2682985939663852 0.8886189690174006
0.4129794 0.27695501794827276 0.8855050934433549
0.4149793 0.28558892213810266 0.8831001029068527
0.4169792 0.2943172001094429 0.8799426242639431
0.4189791 0.3026319475523685 0.8774442690326729
0.420979 0.3113670257054131 0.8745742947082993
0.4229789 0.31989175661000124 0.8715754034385271
0.4249788 0.32847075234645856 0.8688552770328817
0.4269787 0.33692046700600237 0.8657651779153557
0.4289786 0.34536341712604274 0.8626415065438273
0.4309785 0.3538715616042996 0.8595669628073546
0.4329784 0.36232308694693693 0.8561893408429802
0.4349783 0.37046370446162635 0.8526824059404178
0.4369782 0.378927993273531 0.8491744727978777
0.4389781 0.3875983717934477 0.8451889271729252
0.440978 0.3958098145774512 0.8416932603055564
0.4429779 0.4035521950323548 0.8380394725684124
0.4449778 0.4119533293472655 0.8343707688440836
0.4469777 0.42027152751421243 0.8300950793139995
0.4489776 0.42782509994712015 0.8260978407358899
0.4509775 0.43659181226600774 0.8224821649949906
0.4529774 0.4445821781364814 0.8181831447669181
0.4549773 0.45197398774161984 0.8139834945492805
0.4569772 0.46042336477262646 0.8095585542583201
0.4589771 0.46837699992229553 0.804893857606302
0.460977 0.47620042689808445 0.8000151163330745
0.4629769 0.48441443580551624 0.7954400801308101
0.4649768 0.49208234379880067 0.7908029561711545
0.4669767 0.5000027058424215 0.785663034812932
0.4689766 0.5079150635754524 0.7808355273076786
0.4709765 0.5155194858379284 0.7756467561815276
0.4729764 0.523570231933324 0.7711569078492252
0.4749763 0.5312521129095469 0.7658674862355681
0.4769762 0.538797439039568 0.7607267177221019
0.4789761 0.5466570090520267 0.7551469418556783
0.480976 0.5541773858555661 0.7502775567455675
0.4829759 0.5615839699368697 0.7446043268340107
0.4849758 0.5688364021880349 0.7393708536095354
0.4869757 0.5765086256600278 0.7336242173749852
0.4889756 0.5837665607013249 0.7280009546636406
0.4909755 0.5912991225493358 0.7224891791629635
0.4929754 0.5984330479315153 0.7166582192628124
0.4949753 0.6056163181560272 0.7109694955250021
0.4969752 0.6124968458609623 0.7049400631616751
0.4989751 0.6197424858599541 0.6990605834269132
0.500975 0.6267491755498757 0.6932455439401546
0.5029749 0.6337299648292217 0.6871018983958995
0.5049748 0.6402358547661112 0.6810195294229457
0.5069747 0.6466742304997652 0.6748997745212153
0.5089746 0.653840840653276 0.6686499032076612
0.5109745 0.660215034842547 0.6621267672273533
0.5129744 0.6670186327722061 0.6556134695703303
0.5149743 0.6738283057970633 0.6489432662134813
0.5169742 0.679971976535518 0.6424070352511269
0.5189741 0.686142982076289 0.6356369239445112
0.520974 0.6928516489564138 0.6288620018597952
0.5229739 0.698630734555023 0.6216560609758521
0.5249738 0.7050226298858456 0.6149492794909178
0.5269737 0.7109352311930528 0.6077330297671206
0.5289736 0.7168638524446282 0.6008454058004871
0.5309735 0.7233067034041247 0.5932104730462431
0.5329734 0.728656836908444 0.5859588347258096
0.5349733 0.7343420718498259 0.5788158781737546
0.5369732 0.740724750504724 0.5709677312019688
0.5389731 0.7463605843044281 0.5640047277553087
0.540973 0.7524595867782143 0.5561150206159817
0.5429729 0.7581277433222384 0.5486289721671168
0.5449728 0.7636806228119488 0.540853840564751
0.5469727 0.7690027016805503 0.5333349411470724
0.5489726 0.7743764517764927 0.5254014835305514
0.5509725 0.7798808644613564 0.5177481820198869
0.5529724 0.7849821644705707 0.5100246023524386
0.5549723 0.7902241447908601 0.5018944871484387
0.5569722 0.7957047938813643 0.49406056928323283
0.5589721 0.8009357211312259 0.4859684982032097
0.560972 0.8057211537517899 0.47816243510852574
0.5629719 0.8109994774464263 0.4698411524177589
0.5649718 0.8159453161715197 0.46216140638036396
0.5669717 0.8206943222050307 0.45391940112421625
0.5689716 0.8253356864217392 0.4454359598343978
0.5709715 0.8299707351219572 0.43758439844313307
0.5729714 0.834379726936965 0.42933811780693787
0.5749713 0.83861814188287 0.42093746629818163
0.5769712 0.8429285668972868 0.41241713287537624
0.5789711 0.8475391030234913 0.40440503185017906
0.580971 0.8513487774067777 0.3961748866834928
0.5829709 0.8554101554567859 0.38731662920794185
0.5849708 0.8591269435270683 0.3787564260716737
0.5869707 0.8626707421859019 0.3705455780140786
0.5889706 0.8667109747127926 0.36164233421457403
0.5909705 0.8701668206228689 0.3533534179673656
0.5929704 0.8738100521646772 0.34421634452724076
0.5949703 0.8771751782374378 0.3357101386324336
0.5969702 0.8803888029932009 0.3270033153821653
0.5989701 0.8839455259618075 0.3175926997964552
0.60097 0.8868455831265256 0.30878814944694516
0.6029699 0.8900794426379988 0.29927320477423935
0.6049698 0.8930718990435376 0.29105187795364107
0.6069697 0.8956485656278903 0.281677382004943
0.6089696 0.8988343743254713 0.2728426772465039
0.6109695 0.901732893981736 0.2637307697592074
0.6129694 0.9038957440189019 0.25452159542021313
0.6149693 0.9069880923500293 0.2457235968604015
0.6169692 0.909759378334322 0.2362442435074106
0.6189691 0.9119504996555164 0.22707500334446845
0.620969 0.9139322930876804 0.21796993371521084
0.6229689 0.9160588780686697 0.2085037208092641
0.6249688 0.9183963986676155 0.19901721220747773
0.6269687 0.9205339390783762 0.19004239165478226
0.6289686 0.9224048983913452 0.18089903285049083
0.6309685 0.9244675595361945 0.17128560167349594
0.6329684 0.9259791698165752 0.1622818732179061
0.6349683 0.9278144525290339 0.15276846993037227
0.6369682 0.9294985028648585 0.14357244508458286
0.6389681 0.9307985853041949 0.13480877505297512
0.640968 0.9323598573643829 0.12459341901787202
0.6429679 0.9334837146688888 0.11555232615380714
0.6449678 0.9347664415821857 0.10642271380785208
0.6469677 0.9356837594276183 0.09702410671131899
0.6489676 0.9366056041232258 0.0874719188674968
0.6509675 0.9378206733733946 0.07850547463074078
0.6529674 0.9385078552380749 0.06875045812001933
0.6549673 0.9392623242828455 0.05952024196149336
0.6569672 0.9393888174367081 0.050247541725104504
0.6589671 0.9403355845518914 0.04074703144723634
0.660967 0.940279901117733 0.031456347788428166
0.6629669 0.9405781927850277 0.02156701431315329
0.6649668 0.9409413176520779 0.012762708872212796
0.6669667 0.9405793344154385 0.0028089484670948232
0.6689666 0.9410235694703056 -0.006643410378373977
0.6709665 0.9406913464764879 -0.01565063508853056
0.6729664 0.9407517716969938 -0.02515742746307207
0.6749663 0.9404949750321638 -0.03435409934342304
0.6769662 0.9401760761187118 -0.04394248689761548
0.6789661 0.9394302729682831 -0.05394564203589403
0.680966 0.939166389477517 -0.0627865746247624
0.6829659 0.9385357764352856 -0.07216520603275739
0.6849658 0.9375069065448418 -0.08157480285126836
0.6869657 0.937196393124638 -0.09116747222871113
0.6889656 0.9358547607546662 -0.10037316947658687
0.6909655 0.9350701088378599 -0.10947257713862915
0.6929654 0.9340088961654562 -0.11921699702347163
0.6949653 0.9327435834646739 -0.12855420085105385
0.6969652 0.9314867033582214 -0.13744325716824926
0.6989651 0.930440021216536 -0.1468854885141735
0.700965 0.9283470176309342 -0.1561813806901536
0.7029649 0.9268943661162934 -0.16515157613003362
0.7049648 0.9256162526591571 -0.17426751804302293
0.7069647 0.923438661018263 -0.1834293406883441
0.7089646 0.9218874653304202 -0.192646800445293
0.7109645 0.919984958250005 -0.2017617171143102
0.7129644 0.9175935981507871 -0.21037661862517443
0.7149643 0.915646014813239 -0.21951811269437374
0.7169642 0.9133414307664398 -0.22865790260290975
0.7189641 0.910770003599581 -0.23749731940168506
0.720964 0.908402613355849 -0.24627550825273598
0.7229639 0.9056436474222396 -0.255459723320496
0.7249638 0.9034271201532789 -0.26399413549366546
0.7269637 0.9004929918826751 -0.27319695763093205
0.7289636 0.8975493722083465 -0.2819551533576953
0.7309635 0.8947702015600718 -0.29098786750549266
0.7329634 0.8916942375699014 -0.2996301474596068
0.7349633 0.888973435233796 -0.30835376712400137
0.7369632 0.8855164464407688 -0.3173083765499521
0.7389631 0.8818318238532158 -0.3259016683419025
0.740963 0.8787865043050822 -0.33462116714514945
0.7429629 0.8756923586597853 -0.34374963368866873
0.7449628 0.8718650455302254 -0.3520743931622774
0.7469627 0.8687588527101436 -0.3610023413029837
0.7489626 0.8653917745645372 -0.3695261151784921
0.7509625 0.8611743850913641 -0.37802904609146215
0.7529624 0.8581257294786946 -0.38666989896146914
0.7549623 0.8542165251834607 -0.3951613611399475
0.7569622 0.8506135734851691 -0.40351674009643745
0.7589621 0.8464017029812214 -0.4116293107500622
0.760962 0.8426283831664474 -0.41974313167754224
0.7629619 0.8383450800766405 -0.42833446872044745
0.7649618 0.8345769638143342 -0.4365429123784325
0.7669617 0.8304034360677498 -0.44397438782648296
0.7689616 0.8261951654613875 -0.4521064649954193
0.7709615 0.8212527135724386 -0.45994384775994035
0.7729614 0.817142496536302 -0.46834293221558787
0.7749613 0.8128145656213003 -0.4756772545568999
0.7769612 0.8077439203426218 -0.48367489089765126
0.7789611 0.8036778804706709 -0.4915650401272087
0.780961 0.7985770552855822 -0.4987286887376318
0.7829609 0.7936434803047546 -0.5064788774433979
0.7849608 0.7888235800199771 -0.513525030979048
0.7869607 0.7838504306869055 -0.5211744795675686
0.7889606 0.7786984996115776 -0.5286298257381987
0.7909605 0.7732745445852203 -0.5355484111896622
0.7929604 0.7680469455736991 -0.5429330297939242
0.7949603 0.762640504141525 -0.5502580809584658
0.7969602 0.7572263064557014 -0.5572385343306223
0.7989601 0.7518784517591071 -0.5645057498160118
0.80096 0.74620950223813 -0.5712721579389869
0.8029599 0.7406815790266813 -0.5782774558474176
0.8049598 0.7347085835819652 -0.5853923645500573
0.8069597 0.7289861434524536 -0.5921736232488096
0.8089596 0.7230163219195735 -0.5991344479333226
0.8109595 0.716704651344765 -0.6060379676836136
0.8129594 0.711224604136931 -0.6133401031479648
0.8149593 0.7050528355454914 -0.6199034697220939
