! Created with skrf 1.8.0 (http://scikit-rf.org).
# GHz S RI R 50.0 
!freq ReS11 ImS11
0.001 -0.9433928069627141 0.004691842513386356
0.0029999 -0.9429339697517075 0.010935145350275594
0.0049998 -0.9420131406471571 0.016917657846044168
0.0069997 -0.9415265108664026 0.023103728925292215
0.0089996 -0.9408042642292584 0.029408780712632705
0.0109995 -0.9404784000078039 0.0352130525133474
0.0129994 -0.9400341087534677 0.04128489093417993
0.0149993 -0.9392496393443622 0.047421037055579346
0.0169992 -0.9386995391592169 0.05330154778250464
0.0189991 -0.9378547294589826 0.05924987547111709
0.020999 -0.9373537971361245 0.06509688101775579
0.0229989 -0.9365623687365783 0.0711700919170348
0.0249988 -0.9353738847425039 0.07706516458688346
0.0269987 -0.9351534421597683 0.08296812011402246
0.0289986 -0.9341710857349678 0.08891809690105087
0.0309985 -0.9332550593950351 0.09470841674599481
0.0329984 -0.9322185972770176 0.10065562806659636
0.0349983 -0.9314906084438387 0.10661448354175904
0.0369982 -0.930515073809606 0.11248752687574534
0.0389981 -0.929569242201211 0.11836022404796646
0.040998 -0.9289706060551277 0.12377059112157837
0.0429979 -0.9275460184298344 0.12971927453231374
0.0449978 -0.9266212862587455 0.1353134153362847
0.0469977 -0.9253266959105235 0.1413263337623638
0.0489976 -0.9244273858072402 0.1470712664274355
0.0509975 -0.9230536621679514 0.1528391178240912
0.0529974 -0.9217737937949761 0.1585180850994958
0.0549973 -0.9208207607132581 0.1639920859228866
0.0569972 -0.9194866432637178 0.16990431265490757
0.0589971 -0.9181494106819399 0.1754429807072101
0.060997 -0.9167419534583063 0.18119791193240536
0.0629969 -0.9154936111088051 0.18665260147509194
0.0649968 -0.914148994838432 0.1921505573018643
0.0669967 -0.9130272393894171 0.1978492908633188
0.0689966 -0.9114002412220964 0.20352262734149307
0.0709965 -0.9098225008961353 0.20898990767888248
0.0729964 -0.9085954310380188 0.21468205384761538
0.0749963 -0.9069265557868786 0.2199530633655105
0.0769962 -0.904934284220466 0.22550893076709178
0.0789961 -0.903333026513333 0.23123390780485362
0.080996 -0.9017525211453987 0.23666177851363931
0.0829959 -0.9003498020351433 0.24222605943500028
0.0849958 -0.8983039743354537 0.24753029938967197
0.0869957 -0.8966718187442745 0.25293948663065385
0.0889956 -0.894690337054647 0.2583464222180459
0.0909955 -0.8928650785780248 0.2637914623562309
0.0929954 -0.8909107547888746 0.26948740612140676
0.0949953 -0.889342008851736 0.2744477458801259
0.0969952 -0.8872910364308454 0.2800201576572884
0.0989951 -0.8853555290716485 0.2856370762989059
0.100995 -0.8831544168613562 0.2906569315299269
0.1029949 -0.8811396515827011 0.2961456315801903
0.1049948 -0.8792367030358883 0.30161704118644866
0.1069947 -0.87702423730538 0.306989714281481
0.1089946 -0.874943316667727 0.3120826187774952
0.1109945 -0.872802011556809 0.3179877554433582
0.1129944 -0.8706363605572572 0.3231030086300456
0.1149943 -0.868687860154345 0.32851586530971
0.1169942 -0.8663311963404514 0.3337761483722042
0.1189941 -0.8643044239633949 0.339242060572333
0.120994 -0.8621475055669607 0.3443325449148442
0.1229939 -0.8599592674286333 0.3494087748378715
0.1249938 -0.8577059557560576 0.35478871191564504
0.1269937 -0.8556522707390818 0.3599125146877083
0.1289936 -0.8534597001568826 0.3652922474541919
0.1309935 -0.8506534213655529 0.37015200711651647
0.1329934 -0.8483831641849459 0.37503385167939446
0.1349933 -0.846044671061964 0.38023156405745
0.1369932 -0.8438401899179111 0.385355326736275
0.1389931 -0.84142387560742 0.39054123083960085
0.140993 -0.8387916711215289 0.3953234891936823
0.1429929 -0.8362999444551599 0.40061328905943266
0.1449928 -0.8336740079327606 0.40552149584800085
0.1469927 -0.8310396970317523 0.4104424735932496
0.1489926 -0.8283217123463431 0.4151371791105195
0.1509925 -0.8257408161066134 0.42020953040279985
0.1529924 -0.8226468530407083 0.42508894786253154
0.1549923 -0.8201288491367819 0.42952669496066503
0.1569922 -0.8168944686809749 0.43446057895248835
0.1589921 -0.8144502637057605 0.4397108029121095
0.160992 -0.8110842296033247 0.44459530363746114
0.1629919 -0.8083932067463423 0.4495228196817353
0.1649918 -0.8055851408881379 0.4540212263927007
0.1669917 -0.8023434850303667 0.45887958360694014
0.1689916 -0.7995684584555444 0.46354635896245944
0.1709915 -0.7965915153749901 0.4687525003483421
0.1729914 -0.7932614137249795 0.47354565719343833
0.1749913 -0.7901365807208802 0.4781602532286794
0.1769912 -0.7870155515641292 0.4827055034029124
0.1789911 -0.7837570302244922 0.4876826353409339
0.180991 -0.7807169542490863 0.49268363225133033
0.1829909 -0.7772318846892823 0.49758686056111695
0.1849908 -0.7744277028479315 0.5020626097354145
0.1869907 -0.7715480816786686 0.5071835287139514
0.1889906 -0.7675678480574338 0.5120298303519306
0.1909905 -0.7642935995237038 0.5169170821588231
0.1929904 -0.761205984547279 0.5217331090857731
0.1949903 -0.7582864091447662 0.5262029237501343
0.1969902 -0.7551494695580732 0.5307558766157189
0.1989901 -0.7519050857575016 0.5353709781969109
0.20099 -0.7488609906072619 0.5400724948983302
0.2029899 -0.7452625589157946 0.5445614813279464
0.2049898 -0.7415833026476915 0.5492136303083034
0.2069897 -0.738184085499912 0.5534653685534715
0.2089896 -0.7349296169609091 0.5579453670951315
0.2109895 -0.7314837391682542 0.5623302768507031
0.2129894 -0.7280733415942385 0.5668586528792817
0.2149893 -0.7246630200644409 0.5712105806547426
0.2169892 -0.7212116826971893 0.5754680324380775
0.2189891 -0.7174894073373745 0.5797687978688195
0.220989 -0.7137822062501669 0.5840626041065236
0.2229889 -0.7101304743095255 0.5883709734092681
0.2249888 -0.7066062887902275 0.592413084952096
0.2269887 -0.7029663772617087 0.5966393982237859
0.2289886 -0.6991336144902127 0.6008937720411336
0.2309885 -0.6953377279772087 0.6045756490049227
0.2329884 -0.6913171891850982 0.6088318655386953
0.2349883 -0.6878133713309871 0.6131064491747634
0.2369882 -0.6839112372302346 0.6172071652537187
0.2389881 -0.6797379370211912 0.6210597566272635
0.240988 -0.6757420063003488 0.625071678479436
0.2429879 -0.6716968633524429 0.6291245012374721
0.2449878 -0.667658484614488 0.632977705202055
0.2469877 -0.6636444689665785 0.6368440833968932
0.2489876 -0.6593959940097376 0.6414402701335244
0.2509875 -0.6552765303093571 0.6449326103030129
0.2529874 -0.650989711749865 0.6491544593930484
0.2549873 -0.6469998074144983 0.6532940234074551
0.2569872 -0.6426731234273699 0.6572058329767921
0.2589871 -0.6384758336102715 0.6613825342943651
0.260987 -0.6341485619676728 0.6653905615953204
0.2629869 -0.630055356358395 0.669206373601023
0.2649868 -0.6259316118538321 0.673177988297698
0.2669867 -0.6214411478599152 0.6772696970822021
0.2689866 -0.6172371625892668 0.6807724607993905
0.2709865 -0.6132774033099349 0.6847237678320491
0.2729864 -0.6087268730022215 0.6885230372582424
0.2749863 -0.6046154859185001 0.6922670432892807
0.2769862 -0.6000798603163867 0.6963212358872436
0.2789861 -0.5956992624808247 0.6996993433950127
0.280986 -0.5913848061613587 0.703606024806374
0.2829859 -0.5872610180668434 0.7073560017275728
0.2849858 -0.5827167312804109 0.7108150923941297
0.2869857 -0.5784681097607329 0.7144836689298578
0.2889856 -0.5740540425079845 0.7178004071865276
0.2909855 -0.5696123123862931 0.721599667962154
0.2929854 -0.5651404106260175 0.7250037420678128
0.2949853 -0.5607407918311562 0.7283470513921024
0.2969852 -0.5558524590407027 0.731757526944881
0.2989851 -0.5515145066374851 0.7350685141792779
0.300985 -0.546534750705507 0.7381309930129962
0.3029849 -0.5419857836158181 0.7413418974736069
0.3049848 -0.5374869275335582 0.7448631542262751
0.3069847 -0.5325992175644358 0.7477548676892468
0.3089846 -0.5279095733210395 0.7508019855768291
0.3109845 -0.5229594851254262 0.7539428567724775
0.3129844 -0.518245830995406 0.7567274150014733
0.3149843 -0.5133780090721859 0.7600720278256948
0.3169842 -0.5085090610140456 0.7632292775486423
0.3189841 -0.503616486418751 0.7664276298019655
0.320984 -0.498538414066825 0.7695392172473394
0.3229839 -0.49371241716648107 0.7728412534132998
0.3249838 -0.48860254173331663 0.7759028300360009
0.3269837 -0.4834347087635942 0.7789267384163338
0.3289836 -0.4783570339363792 0.781835172016394
0.3309835 -0.4733699278956942 0.784821983400893
0.3329834 -0.46851279663516787 0.7879961044779342
0.3349833 -0.4633247171402963 0.7902100683721932
0.3369832 -0.4582921193583247 0.793360838963972
0.3389831 -0.4537689823661186 0.7963779705687998
0.340983 -0.4482680631290702 0.7994591322422431
0.3429829 -0.4430713975232546 0.8023415816803928
0.3449828 -0.437948365562045 0.8050289511518736
0.3469827 -0.4328604594255058 0.8080523791426786
0.3489826 -0.42788408788037235 0.8109768936738319
0.3509825 -0.42248582425489384 0.8134448366045963
0.3529824 -0.41730800336592383 0.8163246165082815
0.3549823 -0.4123928280149348 0.8191373789417368
0.3569822 -0.40733790272988574 0.8218783714022968
0.3589821 -0.4016504321485688 0.8243380749492494
0.360982 -0.39688324157918076 0.8263697642599012
0.3629819 -0.3914308858578735 0.829345296557831
0.3649818 -0.3863833479843441 0.8315236563054391
0.3669817 -0.38110049087061754 0.8342041588628792
0.3689816 -0.3758881841305209 0.836311438260889
0.3709815 -0.3704968810645807 0.8385872907480174
0.3729814 -0.3655595049674663 0.8410854636110592
0.3749813 -0.35988579374978386 0.84340136169004
0.3769812 -0.3546398189237633 0.8455407036843898
0.3789811 -0.3492898778536074 0.8480214918432778
0.380981 -0.34395170176851914 0.8496509473758501
0.3829809 -0.3389493463567828 0.8516308929797558
0.3849808 -0.3331489094563525 0.8538334801584623
0.3869807 -0.3277414619830079 0.856083731819807
0.3889806 -0.3224015514312426 0.8579664992998229
0.3909805 -0.3168163428629784 0.8598231327366568
0.3929804 -0.31129440238646033 0.8616596163159597
0.3949803 -0.3056407259909176 0.8636269532398795
0.3969802 -0.29971598732824045 0.8653447942517202
0.3989801 -0.29471750051262996 0.8671368987242205
0.40098 -0.2884857029188444 0.8692402322758359
0.4029799 -0.2828445347649957 0.8703668690831604
0.4049798 -0.277215681741715 0.8722613642073693
0.4069797 -0.2713194685292239 0.8743146821373007
0.4089796 -0.26552421643868673 0.8760742313759865
0.4109795 -0.2598586879363214 0.8778523742631723
0.4129794 -0.2542617854221439 0.8793932711100674
0.4149793 -0.24820273035080082 0.8810421205854985
0.4169792 -0.24269597321406453 0.8827916215028565
0.4189791 -0.2366322240769606 0.8842196609293386
0.420979 -0.2310248886116941 0.8859951498993481
0.4229789 -0.22508731520285882 0.8871087734278074
0.4249788 -0.21931504067361618 0.8885657431250231
0.4269787 -0.213493831941985 0.8900029163461272
0.4289786 -0.20766622946170066 0.8914548058684135
0.4309785 -0.2021228066122564 0.8925411755400486
0.4329784 -0.19611050214684428 0.8941736720503122
0.4349783 -0.19045137155934536 0.8954636851241402
0.4369782 -0.18442425429126352 0.8968045835484936
0.4389781 -0.1783908274311658 0.898091370395242
0.440978 -0.17276355973770635 0.8995108513658002
0.4429779 -0.1669423742850633 0.9003368928013505
0.4449778 -0.16116608999551937 0.9012254802065289
0.4469777 -0.1550519646059399 0.902316063990001
0.4489776 -0.14916214191275518 0.9032062215273008
0.4509775 -0.14338540274137815 0.9039488111065285
0.4529774 -0.13764813918589397 0.9051674678329553
0.4549773 -0.13169133360878102 0.9062555830817287
0.4569772 -0.12573360653692292 0.9069749396461007
0.4589771 -0.11970364575467607 0.9075411352667537
0.460977 -0.11326079492614785 0.9084663608401892
0.4629769 -0.10741813863763605 0.9089450295788587
0.4649768 -0.10147442654947317 0.9098356327783852
0.4669767 -0.09504848886119276 0.9102582266752954
0.4689766 -0.0889368021665391 0.9107036766521399
0.4709765 -0.08285002518581569 0.9111056835699527
0.4729764 -0.07718179123427452 0.9120653963208675
0.4749763 -0.07099750685729309 0.912386872818034
0.4769762 -0.06492483862557087 0.9128381525970855
0.4789761 -0.058844767823485966 0.9134506289280693
0.480976 -0.05274286017695197 0.9137125106461395
0.4829759 -0.04658753913674186 0.9142407405628616
0.4849758 -0.04062540003859158 0.9148248738021338
0.4869757 -0.03435278092769413 0.9149592266900617
0.4889756 -0.02842177559534751 0.9155444937071779
0.4909755 -0.02234079174903676 0.9160100551840671
0.4929754 -0.016093694879351684 0.9160194886983406
0.4949753 -0.010060227049117632 0.9161212656902751
0.4969752 -0.003847212770745234 0.9161239809411768
0.4989751 0.0020802730603069683 0.9165074053248389
0.500975 0.007842795339404178 0.9166746769996025
0.5029749 0.013723439066336524 0.9165988342757379
0.5049748 0.019754423197376955 0.9165700831005968
0.5069747 0.025685835320054556 0.9161422609441755
0.5089746 0.031439115344630335 0.9161072277046229
0.5109745 0.037952461042788294 0.9157792120052859
0.5129744 0.043771390448793426 0.9154135274885076
0.5149743 0.05009633175506982 0.9149135385672001
0.5169742 0.05596451429613564 0.9146185053607383
0.5189741 0.06217745430277012 0.914413853909596
0.520974 0.06835032237939617 0.9139926618484228
0.5229739 0.07414584941049847 0.912898224207682
0.5249738 0.08017650148346285 0.9127194798327678
0.5269737 0.08645328889276031 0.9118577974239078
0.5289736 0.09200493661523976 0.9108469631509564
0.5309735 0.09871011111484099 0.9102407537175383
0.5329734 0.1047864077130754 0.9092585421809194
0.5349733 0.11064844239227285 0.9083296367991348
0.5369732 0.11723326349738514 0.9073666483647763
0.5389731 0.12321666531624655 0.9067831423716756
0.540973 0.12994974284352528 0.9056790392634282
0.5429729 0.13596693701425447 0.9045766107884123
0.5449728 0.14222375926644634 0.9036602896021769
0.5469727 0.1486573673514486 0.9027685134415064
0.5489726 0.15475029874225196 0.901649234073832
0.5509725 0.16076007990363442 0.9008131358296029
0.5529724 0.16717556758591606 0.899818071594359
0.5549723 0.17355178928505086 0.8984668114343262
0.5569722 0.179467377534515 0.8972646388452489
0.5589721 0.18572457540941828 0.8962800518880037
0.560972 0.1920868755350019 0.8951316713734253
0.5629719 0.1986135663297615 0.8940392790211534
0.5649718 0.20472097167868902 0.8932217447673568
0.5669717 0.21070248915238823 0.8919277073555434
0.5689716 0.21714373318254587 0.8905858033025189
0.5709715 0.22293372895711389 0.8890788455930951
0.5729714 0.22926320799813674 0.887705924755565
0.5749713 0.23530511794052675 0.886328625401464
0.5769712 0.2413134966507574 0.884956233325555
0.5789711 0.24705863600308617 0.8834257900995544
0.580971 0.25254101227548126 0.881897718866709
0.5829709 0.25884467275426903 0.8801875003856084
0.5849708 0.2644452906709251 0.8784604658530805
0.5869707 0.27038291969423084 0.8768051146982452
0.5889706 0.2763248306323961 0.8747039168571512
0.5909705 0.2823692162948462 0.8728296580538135
0.5929704 0.2883670848153519 0.8706843174665518
0.5949703 0.2938675578390528 0.8686131297436209
0.5969702 0.29980910960186247 0.8664621882543243
0.5989701 0.3059489971983743 0.863906185314763
0.60097 0.3118026646984258 0.8620347928312422
0.6029699 0.31776659930403833 0.8593647510080306
0.6049698 0.3236129384938242 0.8569988870171311
0.6069697 0.32904079466936853 0.8542746758834552
0.6089696 0.33532617663288217 0.8521560574554357
0.6109695 0.34129221943156746 0.8497524227827291
0.6129694 0.34737157326828283 0.8471601159540729
0.6149693 0.3531432604150241 0.8449017276679034
0.6169692 0.35935310286593525 0.8422578076037219
0.6189691 0.3655920442544638 0.8395213659163517
0.620969 0.37125229451190034 0.8372022664265413
0.6229689 0.37758045167607196 0.83442686743761
0.6249688 0.38349805859854025 0.8319714262999446
0.6269687 0.3894306437228742 0.8287133890757422
0.6289686 0.39505325146412196 0.8264476178147713
0.6309685 0.40100112705553004 0.8235405005311152
0.6329684 0.4067550676850264 0.8206407608972713
0.6349683 0.41306031388841874 0.8184003857195326
0.6369682 0.41854523493198265 0.8155193102666165
0.6389681 0.4245636887570431 0.812401453114895
0.640968 0.43058203650400495 0.8100399013620998
0.6429679 0.4359762699457087 0.8071721119066593
0.6449678 0.4412723826910828 0.8045584842311201
0.6469677 0.4469210031648138 0.8013083963881801
0.6489676 0.45242903542990676 0.7986970927316963
0.6509675 0.45793917220217295 0.7957813555827375
0.6529674 0.4638266003093642 0.7925737229021043
0.6549673 0.4691675923724927 0.7897166287187657
0.6569672 0.4744615694665617 0.7858383843759664
0.6589671 0.4794504748797738 0.7828787750991373
0.660967 0.4849267865595037 0.7794535756441758
0.6629669 0.4899447557068141 0.7762475538326251
0.6649668 0.4952568029313943 0.7725479639065198
0.6669667 0.5000818523135226 0.7687054089650118
0.6689666 0.5054020767799341 0.7655563187131738
0.6709665 0.5105911140555021 0.7618670212761175
0.6729664 0.5158525715717234 0.7580226157644064
0.6749663 0.521482130473374 0.7542547568242873
0.6769662 0.5266355224371577 0.7504892584343602
0.6789661 0.5318852734929796 0.7465122741887175
0.680966 0.5368705405740836 0.7424505747489847
0.6829659 0.5421411980380685 0.7385445380046641
0.6849658 0.5473921120688446 0.7346697632828378
0.6869657 0.5527614500016753 0.7309879127673327
0.6889656 0.5578144706599992 0.7265177074629323
0.6909655 0.563010732118878 0.7223858097410784
0.6929654 0.568417134101824 0.7180265876978045
0.6949653 0.5732548561404824 0.7139006144878325
0.6969652 0.5786017135494532 0.7096185168206897
0.6989651 0.5841097941897124 0.7053678742679971
0.700965 0.5891904746595376 0.700956050115762
0.7029649 0.594279357317128 0.696824721972128
0.7049648 0.5992451602282884 0.692592511539024
0.7069647 0.6047238270146587 0.6881593035657336
0.7089646 0.6100602289005299 0.6842389527189519
0.7109645 0.6148900603434754 0.6800323014767324
0.7129644 0.6202414204343146 0.6757607790320738
0.7149643 0.6249245416487907 0.671534627528726
0.7169642 0.6301918323309856 0.6670905396638402
0.7189641 0.6347313341350178 0.66288358575933
0.720964 0.639345858754633 0.6584670111477484
0.7229639 0.6441186985566799 0.6538993647704043
0.7249638 0.648933927119059 0.6494408031983581
0.7269637 0.6538269095928498 0.6453485781775612
0.7289636 0.6577260430908694 0.640794623250847
0.7309635 0.6630353003422913 0.6361267954159431
0.7329634 0.6672781120484794 0.6316796830365482
0.7349633 0.6714332783879485 0.6270140243222567
0.7369632 0.6759829422948164 0.6224647095602343
0.7389631 0.6798454967676891 0.6179060897680184
0.740963 0.6842383084100757 0.6125045752458027
0.7429629 0.6883051764745001 0.6076304980707801
0.7449628 0.692935586054405 0.6032624089032828
0.7469627 0.6966650098054964 0.5983542153725321
0.7489626 0.7008884400321549 0.5931186809583674
0.7509625 0.7048203632951276 0.5876542087003137
0.7529624 0.7088068340754166 0.5827214314565518
0.7549623 0.7130533904708403 0.5776503825015191
0.7569622 0.717112574681579 0.5721604318927584
0.7589621 0.7205625595736224 0.566552810823182
0.760962 0.724727362302218 0.5615413479653966
0.7629619 0.7289705264512112 0.5559202815317422
0.7649618 0.7328574661164302 0.5507360578581736
0.7669617 0.7371802487619079 0.5455353359466157
0.7689616 0.7406897495032216 0.539457062530664
0.7709615 0.744775179704141 0.5339596832297292
0.7729614 0.7486160152771841 0.5284778076603834
0.7749613 0.7524683115937132 0.5232973415177083
0.7769612 0.7563968694480013 0.5171979053521857
0.7789611 0.759918659364825 0.5119606002688976
0.780961 0.7636056258922665 0.5061618278927799
0.7829609 0.7675292045394672 0.5008358473367112
0.7849608 0.7713984054607474 0.495145524003999
0.7869607 0.7752514573993391 0.48988927491976764
0.7889606 0.7788016645340238 0.48401967006001345
0.7909605 0.7826233119487078 0.47851704402923534
0.7929604 0.786011723421 0.47320133663846076
0.7949603 0.7893608076963142 0.4673087067266283
0.7969602 0.7927907276375503 0.4616958294431369
0.7989601 0.7964569525351043 0.45583734785731417
0.80096 0.799800329409104 0.45000349317899546
0.8029599 0.8031112517763302 0.4447715957448518
0.8049598 0.8064050828088897 0.43892439394041244
0.8069597 0.8093553715867786 0.43325285740590463
0.8089596 0.8125140262367343 0.4274247713316528
0.8109595 0.8147181371869076 0.4214502996231151
0.8129594 0.8180693332358794 0.4159115951477798
0.8149593 0.8207673146307539 0.41009001932681655
