! Created with skrf 1.8.0 (http://scikit-rf.org).
# GHz S RI R 50.0 
!freq ReS11 ImS11
0.001 -0.9397160300180742 0.0054256332523922556
0.0029999 -0.9391786241002121 0.012421002315076077
0.0049998 -0.9383100502463809 0.019135925101920928
0.0069997 -0.9377314390936358 0.026297214316778388
0.0089996 -0.9369159966206358 0.03324562735647905
0.0109995 -0.9364265501619415 0.04017312118911863
0.0129994 -0.9359272165406269 0.047133407330029436
0.0149993 -0.9350642135235959 0.05406111511806207
0.0169992 -0.9344268661103674 0.06079727969207969
0.0189991 -0.933386193928344 0.06770026707717994
0.020999 -0.9327567565743672 0.07435503171638916
0.0229989 -0.9317621124961616 0.0811880084830163
0.0249988 -0.930463699445728 0.08812378527643597
0.0269987 -0.929931033830736 0.09491524610308748
0.0289986 -0.9289517468413406 0.101525443611059
0.0309985 -0.9278695203406616 0.10830232775515325
0.0329984 -0.9266903134487494 0.11483341401868916
0.0349983 -0.9256371851512047 0.12184918764447689
0.0369982 -0.9246690489615116 0.12868028210215107
0.0389981 -0.9232802016546043 0.13498806096583543
0.040998 -0.9222572086780423 0.14170603885817923
0.0429979 -0.9207287284408567 0.14818233854456053
0.0449978 -0.9197202803103495 0.15466358191813612
0.0469977 -0.9180910095048411 0.16138906291326355
0.0489976 -0.9167446413598009 0.1679981362162267
0.0509975 -0.9151764763280292 0.1746104686851236
0.0529974 -0.9139946562374216 0.1812546090508272
0.0549973 -0.9124723134883951 0.18751342135750218
0.0569972 -0.9106849958972044 0.1941171807645395
0.0589971 -0.908983857584997 0.20055806762566514
0.060997 -0.9072588075301297 0.20690712950183499
0.0629969 -0.905619744152502 0.2133347336109152
0.0649968 -0.903942483139434 0.21962422493667766
0.0669967 -0.9023885055671379 0.22603786588097521
0.0689966 -0.9003850753667301 0.23246029234945056
0.0709965 -0.8983434086774312 0.2388360540065943
0.0729964 -0.8967650084195903 0.24516684006087372
0.0749963 -0.8946314683013574 0.251231402483699
0.0769962 -0.8922540155446765 0.2577008851399683
0.0789961 -0.8902376644516731 0.26391283517576297
0.080996 -0.8882316295990653 0.27021096610880013
0.0829959 -0.88615847787613 0.27662497903598826
0.0849958 -0.8837155526946031 0.28250842250359554
0.0869957 -0.8815450623035733 0.2887910980131916
0.0889956 -0.8789357194921735 0.2950521532772201
0.0909955 -0.8768464419121684 0.30122715680600093
0.0929954 -0.8743019727200281 0.3074963618328103
0.0949953 -0.8719667706817678 0.313422085040793
0.0969952 -0.8696253285395598 0.3194054275552446
0.0989951 -0.866955141290071 0.32592388922033655
0.100995 -0.8644411272951855 0.3317697119157306
0.1029949 -0.8618710288991935 0.33784452831217365
0.1049948 -0.8592632379401737 0.3438728083909683
0.1069947 -0.8566051342125642 0.3500668806677816
0.1089946 -0.8540820075479488 0.35584945240078253
0.1109945 -0.8511995384888479 0.362185473674639
0.1129944 -0.8483527930263964 0.3681670588034158
0.1149943 -0.8457743833821285 0.3742215369804865
0.1169942 -0.8427348511788304 0.38025516251735786
0.1189941 -0.8401389613937772 0.38627328203945277
0.120994 -0.8372262128716684 0.3919843147463562
0.1229939 -0.8343838395563128 0.3977600798311018
0.1249938 -0.8317241471432324 0.4036782299823435
0.1269937 -0.8287064631828274 0.40972654874975634
0.1289936 -0.8259166099852717 0.4154343312320035
0.1309935 -0.8224897577178255 0.42107452310443194
0.1329934 -0.8195071613709045 0.42672923851616745
0.1349933 -0.8164985619423464 0.43223897902712916
0.1369932 -0.8135945074582682 0.43813490881316675
0.1389931 -0.810439475578622 0.44374356057227504
0.140993 -0.8068840277207607 0.44959892149133734
0.1429929 -0.8038529146397132 0.4550328643632361
0.1449928 -0.800430993399488 0.4605455571658677
0.1469927 -0.797065340821157 0.466257227567648
0.1489926 -0.7932485396559155 0.4716572306413279
0.1509925 -0.7902484843152713 0.47696835426466155
0.1529924 -0.7864637693197115 0.4823065373825772
0.1549923 -0.7827221099234963 0.48768774675973764
0.1569922 -0.7789050082862629 0.49267452513043486
0.1589921 -0.7755471259543569 0.4986205989980133
0.160992 -0.7716320963559461 0.5037770568884655
0.1629919 -0.7679915966570214 0.50941460415859
0.1649918 -0.7641889974950342 0.5143351272995699
0.1669917 -0.7601877459304037 0.5197173367170949
0.1689916 -0.7564196480247176 0.5248666222206573
0.1709915 -0.7527340303199488 0.5304216052558495
0.1729914 -0.7482358150313306 0.5356055858168625
0.1749913 -0.7445226960396428 0.5408849235210933
0.1769912 -0.7402456503286785 0.54602054214954
0.1789911 -0.7363084525242578 0.5517145856378064
0.180991 -0.7323132731952343 0.5566130461522836
0.1829909 -0.7281804030889408 0.5618420899211014
0.1849908 -0.723985251378417 0.5668889078031996
0.1869907 -0.7203307078214396 0.5726625465466373
0.1889906 -0.7152398462225615 0.5778858736499188
0.1909905 -0.7108961333966761 0.583247196400556
0.1929904 -0.7070106539530272 0.5883132213262233
0.1949903 -0.7030189772994306 0.5930193461594062
0.1969902 -0.699027363912476 0.5981753861781527
0.1989901 -0.6947824967787857 0.6030564035003094
0.20099 -0.6909168955648781 0.6081401015706525
0.2029899 -0.6863494258256343 0.6129614495879007
0.2049898 -0.6813897294249591 0.6179881211460756
0.2069897 -0.6773173304641783 0.6225961105077229
0.2089896 -0.6730056040751512 0.6274117209739415
0.2109895 -0.6685257382982986 0.6320530826693033
0.2129894 -0.6640368534586962 0.6370772059368106
0.2149893 -0.6595392213429337 0.6416985818340671
0.2169892 -0.6550438020081495 0.6460903645303196
0.2189891 -0.6503934266164493 0.6505362988917138
0.220989 -0.6455810277421564 0.655248522669587
0.2229889 -0.6408680036776288 0.6597846759865531
0.2249888 -0.6364336163737297 0.6641518186310742
0.2269887 -0.6314871569738915 0.6685006651100999
0.2289886 -0.6267894691713827 0.6727997963962796
0.2309885 -0.6220203755016492 0.6769875715101857
0.2329884 -0.6167148173845504 0.6812435327630003
0.2349883 -0.6121310801150921 0.6857953661290971
0.2369882 -0.6069483554603262 0.68994144687126
0.2389881 -0.6017966152524398 0.6941419978910337
0.240988 -0.5968579159328073 0.6980450846212302
0.2429879 -0.591487808838208 0.7020150014314328
0.2449878 -0.5864080693895569 0.7061311261043108
0.2469877 -0.5811336307225917 0.7102095907648106
0.2489876 -0.5758216397156932 0.714641986237581
0.2509875 -0.570453222398306 0.7186634304788052
0.2529874 -0.5650161569183019 0.7226469579972836
0.2549873 -0.5596024168593903 0.7269116225907302
0.2569872 -0.5542883252089075 0.7307799598479607
0.2589871 -0.5488984486820668 0.7351098440909148
0.260987 -0.5434227668865959 0.7390995396182864
0.2629869 -0.5379028133369865 0.7429825295131336
0.2649868 -0.5328345195848647 0.7469525972040622
0.2669867 -0.5269715318385049 0.7509484596949241
0.2689866 -0.5218082093157959 0.7546077529249264
0.2709865 -0.516286502714872 0.758506956428177
0.2729864 -0.5106787745932753 0.76245603340544
0.2749863 -0.5053131191136748 0.7661529546520677
0.2769862 -0.4995252570468063 0.7699064946823397
0.2789861 -0.4939029902916333 0.7737073778653938
0.280986 -0.488376448870977 0.7773149673035098
0.2829859 -0.48264837524860277 0.7808246505841422
0.2849858 -0.47739178159729756 0.7842884563918034
0.2869857 -0.4716672139835231 0.7877230580663752
0.2889856 -0.4659949012245106 0.7910503997508939
0.2909855 -0.4602576659070156 0.7947280054185538
0.2929854 -0.45446512536024225 0.797919991826648
0.2949853 -0.4489667213270411 0.8010470678914523
0.2969852 -0.4428910031627896 0.8042935620168636
0.2989851 -0.43707201012237507 0.807177210063021
0.300985 -0.43093992602317677 0.8101987573770606
0.3029849 -0.42536003683413554 0.8133556619527147
0.3049848 -0.41930869054593567 0.8162268756759717
0.3069847 -0.41315949654352696 0.8191370152213445
0.3089846 -0.40733519135288393 0.8217806994095553
0.3109845 -0.4010287967129762 0.8245679537113304
0.3129844 -0.3949267043865217 0.8273920296830485
0.3149843 -0.38901209190106484 0.829869460221952
0.3169842 -0.3827292883128598 0.8327512107654689
0.3189841 -0.37654437116870165 0.835818008696165
0.320984 -0.3703361208106297 0.8386260897271716
0.3229839 -0.3636168422853529 0.8414927602541064
0.3249838 -0.3574799546311611 0.8440471949381962
0.3269837 -0.3509289878628683 0.8467640334052549
0.3289836 -0.3445869302593325 0.8491270847146214
0.3309835 -0.3381708646398888 0.8514403274759659
0.3329834 -0.33203362221266214 0.8544733513113559
0.3349833 -0.3255082192206517 0.8562132505237449
0.3369832 -0.3195746906796647 0.8590295729173427
0.3389831 -0.31282162419860693 0.8615493656970196
0.340983 -0.3064568968781474 0.8640915828769964
0.3429829 -0.2998120484260472 0.8662803263023695
0.3449828 -0.2934972581615365 0.8685275509593576
0.3469827 -0.2868494257054671 0.87118238169099
0.3489826 -0.2806400426720964 0.8731983244571121
0.3509825 -0.273888622781526 0.8753951361190753
0.3529824 -0.26741915524883103 0.8776328922260817
0.3549823 -0.2609494023024612 0.8799081855074391
0.3569822 -0.25458588776074625 0.8817081252760477
0.3589821 -0.24783906133708392 0.8835960758944996
0.360982 -0.24150866766134418 0.8854003019588332
0.3629819 -0.23479119865290493 0.8873912588794503
0.3649818 -0.2282546186866178 0.8889698104488148
0.3669817 -0.2218693696084774 0.8906841639001873
0.3689816 -0.21511333787081605 0.8924234761229624
0.3709815 -0.2087540534463891 0.893873675386459
0.3729814 -0.20213581695311106 0.8957691166513493
0.3749813 -0.19553998268756 0.8969927053859299
0.3769812 -0.18854678118864326 0.8987009699407282
0.3789811 -0.18191856984396204 0.900130850299377
0.380981 -0.1755468806904632 0.9009257644351495
0.3829809 -0.1690641019952884 0.9024017368666265
0.3849808 -0.1618822724320574 0.9037188995871427
0.3869807 -0.15545713856126464 0.9050184141467703
0.3889806 -0.14850548077574416 0.905799319723355
0.3909805 -0.14158388156357612 0.9070964359438051
0.3929804 -0.13504472114629845 0.9078805097587932
0.3949803 -0.127814365372365 0.9087246202268867
0.3969802 -0.12049778778358977 0.9098115296973439
0.3989801 -0.1141068517966898 0.9104798260571597
0.40098 -0.10679996750632073 0.9115564321764228
0.4029799 -0.10002943834636284 0.9116284946450584
0.4049798 -0.09302624911982288 0.9126278324056682
0.4069797 -0.08553730785801701 0.9135732945780238
0.4089796 -0.07907797513643398 0.9140889859283166
0.4109795 -0.07170071657025345 0.9148875307837487
0.4129794 -0.06458597770875289 0.9153925413772773
0.4149793 -0.05801227577145683 0.9160102108075414
0.4169792 -0.050212842015035765 0.9164781053239909
0.4189791 -0.043340704882268336 0.9169274700736486
0.420979 -0.036367210739402564 0.9169586621602902
0.4229789 -0.029234915856102182 0.9171540037051136
0.4249788 -0.022192225212012313 0.917589510816347
0.4269787 -0.015125746227879117 0.9177795881006817
0.4289786 -0.00828807817020312 0.9179301952904616
0.4309785 -0.0013942454529587076 0.9180393868625265
0.4329784 0.00595757775218821 0.9183435876793756
0.4349783 0.012889853616850227 0.9183744764915022
0.4369782 0.020053090501041725 0.9183172344713293
0.4389781 0.027519375540632347 0.9180513349544774
0.440978 0.0344783399626058 0.9183361795393473
0.4429779 0.04118980828713484 0.9178108367115875
0.4449778 0.04839965479440607 0.9173543878973086
0.4469777 0.055623129466512 0.9171567721119849
0.4489776 0.062458466580274645 0.9165395980779819
0.4509775 0.06930775275813866 0.9160849076083868
0.4529774 0.07651085245311094 0.9156431443036643
0.4549773 0.08353631990497862 0.9153517153136074
0.4569772 0.09044561063251681 0.9147770999762659
0.4589771 0.09778847523358211 0.913816403919458
0.460977 0.10518096696050729 0.913076631442922
0.4629769 0.11234946208168524 0.912042266790642
0.4649768 0.11942495449512651 0.9111443632491617
0.4669767 0.12689001040627518 0.9099565956519597
0.4689766 0.1339843522903598 0.9092631635639298
0.4709765 0.14124221500263862 0.9080661790777648
0.4729764 0.14821111780794843 0.907361113171277
0.4749763 0.15553669946720616 0.9060903600405463
0.4769762 0.16228144873892353 0.9048170680527031
0.4789761 0.1694465631358386 0.9038788319046419
0.480976 0.1767501036562733 0.9027311315503458
0.4829759 0.18390675297068138 0.9012422577405256
0.4849758 0.190962497096806 0.9002626729662224
0.4869757 0.19825902870825712 0.8987869409861388
0.4889756 0.20523456764040685 0.8973076618689593
0.4909755 0.21229261367111152 0.8958945459362831
0.4929754 0.21950556679012112 0.894310459167256
0.4949753 0.22635812292047994 0.8927911022780953
0.4969752 0.23330769228463571 0.8909296815858083
0.4989751 0.2405469724576484 0.8894932588887221
0.500975 0.24708372938672513 0.8880354642438333
0.5029749 0.2540410691945074 0.885866218528548
0.5049748 0.26088331115554164 0.8840088501875073
0.5069747 0.2675852652074925 0.8819554066826107
0.5089746 0.2745427621014536 0.8800618756020993
0.5109745 0.2813524606315839 0.8776666672773261
0.5129744 0.2881462038828395 0.8755034671177837
0.5149743 0.2951748620661758 0.8730981297121021
0.5169742 0.30202412849735166 0.8710920605311482
0.5189741 0.30886742369591275 0.8685061082850034
0.520974 0.3159177777295968 0.8660347543407146
0.5229739 0.32212127264139967 0.8632873255957871
0.5249738 0.32921722372759565 0.8610470461878584
0.5269737 0.33626587184710743 0.8580745993641288
0.5289736 0.342531873199493 0.8552881160448931
0.5309735 0.3496791842133905 0.8526105951647092
0.5329734 0.35665101832673596 0.8494090991236967
0.5349733 0.3629135117161824 0.8467540038604807
0.5369732 0.37011176638365756 0.8433810368823538
0.5389731 0.376629561794631 0.8404945649854109
0.540973 0.3837087447149622 0.837511203686625
0.5429729 0.3904935795878999 0.8344392396565818
0.5449728 0.3972871807429863 0.831078663501832
0.5469727 0.40435844456469294 0.8279847456508246
0.5489726 0.4109185369279114 0.8249402278659883
0.5509725 0.41746644360206375 0.8215671779521031
0.5529724 0.4241730902389188 0.8182179331198959
0.5549723 0.43090469184661234 0.8145849827074455
0.5569722 0.43774340688365165 0.8113213713336165
0.5589721 0.4442194187402432 0.808058808960472
0.560972 0.4511355416380341 0.8044370530069995
0.5629719 0.4580754428709399 0.8010892041178991
0.5649718 0.46459522029207484 0.7978282176489583
0.5669717 0.47077417481753886 0.7943842389388984
0.5689716 0.4777233608289554 0.7904590020357471
0.5709715 0.4840459612666235 0.7869531217624383
0.5729714 0.49061041356748847 0.7828507917018983
0.5749713 0.49678515267263434 0.7790636164600431
0.5769712 0.5031567804431861 0.7754514999090927
0.5789711 0.5092395072496213 0.771615264379574
0.580971 0.5152392380401905 0.7678045116999143
0.5829709 0.521741600599165 0.7635846040366118
0.5849708 0.527399673039932 0.7595749360120032
0.5869707 0.5334817914656266 0.7554731410922486
0.5889706 0.5396200742610513 0.7508467282657272
0.5909705 0.5456228749157007 0.7465945763918308
0.5929704 0.5518243553568589 0.7420362084030279
0.5949703 0.5576817728190847 0.7375140443733359
0.5969702 0.5634224822612807 0.7330468339404212
0.5989701 0.5694649479849248 0.7283173093701629
0.60097 0.5757847971368644 0.7233920013226831
0.6029699 0.5808794380865505 0.7182362754626817
0.6049698 0.5868601763465355 0.7136027867728308
0.6069697 0.5924791102366623 0.7088185579690547
0.6089696 0.5987630574652205 0.704029922208971
0.6109695 0.604225498533761 0.6991663401531992
0.6129694 0.6099796605751112 0.6936269014606038
0.6149693 0.6157417894590439 0.6891581996956938
0.6169692 0.6218834177398089 0.6840195852568646
0.6189691 0.6277807156352319 0.6786571546207351
0.620969 0.6330295316237833 0.673430900850037
0.6229689 0.6387285695164044 0.6677668052416361
0.6249688 0.644605590121246 0.6630215886702429
0.6269687 0.6500902460656528 0.6575301883298265
0.6289686 0.6555932192572311 0.6523206903882479
0.6309685 0.6612429490516119 0.6469060606312038
0.6329684 0.6664598479536883 0.641407858915563
0.6349683 0.67250029814005 0.636152255440857
0.6369682 0.6772964751225512 0.6305427327450407
0.6389681 0.682576404981317 0.6250680829347889
0.640968 0.688327950867341 0.6198197041214173
0.6429679 0.693511401816679 0.6140938920108141
0.6449678 0.6981896932080461 0.6088991925632818
0.6469677 0.7033150166953888 0.6031167401197436
0.6489676 0.7080874378244538 0.5978944093399263
0.6509675 0.7131390402107186 0.592114353862088
0.6529674 0.7183837261619628 0.5863169073991941
0.6549673 0.7229568270859733 0.5805570221203531
0.6569672 0.7276908635881891 0.5745190412758631
0.6589671 0.732291093524469 0.5690164902913525
0.660967 0.7369207446704109 0.56263748203384
0.6629669 0.7409620590562974 0.556710154189188
0.6649668 0.7457603821508736 0.5507623409344065
0.6669667 0.7500568744233767 0.5444860972181351
0.6689666 0.7544823131707634 0.5387114443313884
0.6709665 0.7586832455575989 0.5323532817044054
0.6729664 0.7629719926231482 0.5261059086343535
0.6749663 0.7673444816195982 0.5193038491108488
0.6769662 0.771721928077961 0.512815300666953
0.6789661 0.7758968195214772 0.5066828332998151
0.680966 0.7795725756253481 0.5000732567673378
0.6829659 0.7841774426933814 0.49371149010102683
0.6849658 0.7883394110997385 0.486878441233541
0.6869657 0.7921931088011827 0.4802677442184482
0.6889656 0.7961755277758709 0.47342751517616705
0.6909655 0.7998311945156292 0.46707711020756515
0.6929654 0.8042391064960344 0.46019408517914323
0.6949653 0.8078270179636325 0.4532341245963098
0.6969652 0.8117515827704321 0.446278163132139
0.6989651 0.8156254833049252 0.4395897333509905
0.700965 0.8193728570582304 0.43262705560596065
0.7029649 0.8229990812862948 0.42567118324213754
0.7049648 0.8266257793429355 0.4189712141925223
0.7069647 0.8302949445167572 0.41181937438329363
0.7089646 0.8342645541312632 0.40491574088661936
0.7109645 0.8377736479478751 0.39828754584026205
0.7129644 0.8412241031830147 0.391382035483643
0.7149643 0.8444352018646569 0.38434641912727807
0.7169642 0.8478366589368581 0.3775232643839846
0.7189641 0.8510151253803434 0.37020205628586667
0.720964 0.853880232082884 0.36354566395590227
0.7229639 0.8571675921757342 0.35645295806748
0.7249638 0.8603015892634542 0.34920029973319966
0.7269637 0.8632867273777356 0.3421649310538081
0.7289636 0.8658347091907418 0.33529623043986606
0.7309635 0.8692431678198528 0.32784392462376155
0.7329634 0.8719023672249522 0.3209394698915669
0.7349633 0.87404476865866 0.31385374626979273
0.7369632 0.8768081730997717 0.3064916534406732
0.7389631 0.8795362155195361 0.2992441118351604
0.740963 0.8817732180616668 0.2917837338842332
0.7429629 0.8840119821830814 0.2845056661064005
0.7449628 0.8866163423309351 0.27754488324547416
0.7469627 0.8887930495425421 0.27015979907331794
0.7489626 0.8907829762447603 0.2625841772440561
0.7509625 0.8930330762605468 0.25493173020919374
0.7529624 0.8954174691110658 0.24782751438962575
0.7549623 0.8971149304114138 0.24018155784207704
0.7569622 0.8986295665247297 0.23226408957454714
0.7589621 0.900486260231097 0.22441870143165304
0.760962 0.9026209068360975 0.21737419392637017
0.7629619 0.9046111110285358 0.2093886242277104
0.7649618 0.9060558781603826 0.2017457736099716
0.7669617 0.9080489325300858 0.19436347430740752
0.7689616 0.9094605752284559 0.18617922857508834
0.7709615 0.9108433358389038 0.1786971452477547
0.7729614 0.9127953962603537 0.17087977842051383
0.7749613 0.9140752282316681 0.16345480200883522
0.7769612 0.9151877702650366 0.1554677035615785
0.7789611 0.9167505257216847 0.14805922493250198
0.780961 0.9180260521985909 0.14029029267297394
0.7829609 0.9191167924893378 0.1324181757602551
0.7849608 0.9201173795191938 0.12487451602895533
0.7869607 0.921300638602529 0.11702778726521125
0.7889606 0.9225586099237838 0.10944344985591094
0.7909605 0.9232451260520077 0.10176742076044756
0.7929604 0.9240942239926956 0.09431865791070002
0.7949603 0.9249243064497842 0.08658672897845182
0.7969602 0.9257246810154919 0.07852825580296678
0.7989601 0.92614175089793 0.07095673508959843
0.80096 0.9269375069561024 0.06342518469243297
0.8029599 0.9274887989525579 0.05575222049811848
0.8049598 0.9277326704205526 0.047852857223409546
0.8069597 0.9282117467847822 0.04012136144040124
0.8089596 0.928733851411432 0.032129926008057384
0.8109595 0.9281250662300676 0.0248071021156528
0.8129594 0.9289932782518341 0.01696530092246121
0.8149593 0.9288956749543915 0.00935103071361762
0.8169592 0.9290422627853587 0.0016026546287789267
