! Created with skrf 1.8.0 (http://scikit-rf.org).
# GHz S RI R 50.0 
!freq ReS11 ImS11
0.001 0.9945696612974232 -0.00685659717085191
0.0029999 0.9926865324221977 -0.017280690016400473
0.0049998 0.9910658888105449 -0.025250242679684648
0.0069997 0.9887228061542747 -0.03170689360949677
0.0089996 0.9868528651173691 -0.038441278630515774
0.0109995 0.9858021534129376 -0.04564048045586044
0.0129994 0.9852947026838527 -0.05278621063940341
0.0149993 0.9844929460299545 -0.060048414247566934
0.0169992 0.9839189265930383 -0.06709047441755406
0.0189991 0.9831423033308823 -0.07476235599009905
0.020999 0.9822694644801615 -0.08208993523486516
0.0229989 0.9815961187293285 -0.08940081519328541
0.0249988 0.9806073268660248 -0.09705079412336831
0.0269987 0.9798066176347848 -0.10431559220726885
0.0289986 0.9790565804348876 -0.11181148563959095
0.0309985 0.9778561019900243 -0.11940712884076089
0.0329984 0.9767835785424097 -0.12653070304250175
0.0349983 0.975768611364427 -0.13415478394358724
0.0369982 0.9750004800336669 -0.14134128497712578
0.0389981 0.9734126914665591 -0.1491048318935229
0.040998 0.972560044811638 -0.15599158827001186
0.0429979 0.97087528579545 -0.16358705846334848
0.0449978 0.9695322912880033 -0.17105062982839656
0.0469977 0.9683420798265967 -0.1785361972373359
0.0489976 0.9666473519345163 -0.1857758376566547
0.0509975 0.9649653239446402 -0.19305209998742784
0.0529974 0.9633380301765716 -0.20046359737127428
0.0549973 0.9620068215734499 -0.2078964570894396
0.0569972 0.9600161565349683 -0.21505155998592143
0.0589971 0.9581601552125869 -0.22252647340940981
0.060997 0.9563002794818866 -0.22980035670072324
0.0629969 0.9543853750290855 -0.23721817849790908
0.0649968 0.9525791497759883 -0.24438285557713685
0.0669967 0.9507008552931377 -0.2514536810005827
0.0689966 0.9485703115541543 -0.25882258766632926
0.0709965 0.946607291878113 -0.266112869151309
0.0729964 0.9447954425325049 -0.2735265327611636
0.0749963 0.9422714270607601 -0.2805753360428132
0.0769962 0.9400236445441882 -0.2874919849799577
0.0789961 0.9378718431338644 -0.29462812857833653
0.080996 0.9353981175182094 -0.3019694823230295
0.0829959 0.9330613999158442 -0.3087491173217169
0.0849958 0.9306877725300114 -0.3159506223023223
0.0869957 0.9282159199020321 -0.32312751711304094
0.0889956 0.925434348600637 -0.33025007691076635
0.0909955 0.9230996812887127 -0.33720585816908993
0.0929954 0.9201647162001039 -0.34409557520424655
0.0949953 0.917740937032071 -0.3509787292024585
0.0969952 0.9148591468497187 -0.3582820263368759
0.0989951 0.9122748542662031 -0.3648237158237615
0.100995 0.9093961391545204 -0.37127060762380315
0.1029949 0.9064219933351583 -0.37871257986394513
0.1049948 0.9035319748739111 -0.38527901694703615
0.1069947 0.9006552349668541 -0.39211492544966087
0.1089946 0.8975299339695999 -0.39910428983247187
0.1109945 0.8942647440818812 -0.40547411131016775
0.1129944 0.890847683750049 -0.4119751084303017
0.1149943 0.8877450499316386 -0.4188862175760674
0.1169942 0.8844752015524113 -0.42541701760433637
0.1189941 0.8808113727665079 -0.43158310639209074
0.120994 0.8777416034480708 -0.438484060610262
0.1229939 0.8738881011003734 -0.44506049215703913
0.1249938 0.8705895379949543 -0.45149809744537234
0.1269937 0.8671052362305434 -0.45808041606360556
0.1289936 0.8630761395204035 -0.46451590830755984
0.1309935 0.8594257317662625 -0.47067608942205974
0.1329934 0.8554670103941708 -0.47738703725004766
0.1349933 0.8517907874741 -0.483632551809632
0.1369932 0.8479000387586537 -0.4902639340861033
0.1389931 0.8437880454942964 -0.496604931211021
0.140993 0.8398914076805981 -0.5029753506823029
0.1429929 0.8360608093651957 -0.5095757845553301
0.1449928 0.832092943093175 -0.5158585379608558
0.1469927 0.8280054426886494 -0.5219963761424805
0.1489926 0.8237137243450814 -0.5282901704994867
0.1509925 0.8196644659884073 -0.5347119103033225
0.1529924 0.8155389808092485 -0.5409047902154782
0.1549923 0.8115587170864947 -0.5468436143680222
0.1569922 0.8076732118994101 -0.5532546707167694
0.1589921 0.803507350259593 -0.5592218752290834
0.160992 0.7987959417667945 -0.5656642908586936
0.1629919 0.7947562984558968 -0.5708551163175525
0.1649918 0.7901369418354907 -0.5769893990955277
0.1669917 0.7861268856716008 -0.5828022378350179
0.1689916 0.7818894792006356 -0.5885205917174525
0.1709915 0.7772912632117489 -0.5942809680165605
0.1729914 0.7728923128594335 -0.6001464557324421
0.1749913 0.7682056687021924 -0.6059329103337736
0.1769912 0.7640048308882899 -0.6112278617747171
0.1789911 0.7593204376692242 -0.6169609764647956
0.180991 0.7546265969622084 -0.6223269912156477
0.1829909 0.7497736956081571 -0.6279533463709059
0.1849908 0.7450785726296634 -0.6331364946603886
0.1869907 0.7402617707515383 -0.638442594621233
0.1889906 0.7356369859908882 -0.6434166510542346
0.1909905 0.7306880473820713 -0.6486199250388269
0.1929904 0.72537795241765 -0.6537752219713406
0.1949903 0.7204808937079835 -0.6587554440953914
0.1969902 0.7150947122592635 -0.6635600016850889
0.1989901 0.7103177629958722 -0.6687921733984191
0.20099 0.7049400887034544 -0.674213093551479
0.2029899 0.6994897636417428 -0.6791316853298519
0.2049898 0.6942975900110739 -0.6843043516484942
0.2069897 0.688909392811493 -0.6891482365268305
0.2089896 0.6838344212473988 -0.6941026239320643
0.2109895 0.6780781142103718 -0.6988677941016955
0.2129894 0.6724773298486729 -0.7034685879303421
0.2149893 0.6672834476618877 -0.7088731019624576
0.2169892 0.6614956607322582 -0.7136884396504737
0.2189891 0.6559983220199258 -0.7186402584437974
0.220989 0.6505100222159527 -0.7234561372923974
0.2229889 0.645160017100416 -0.7277852482167985
0.2249888 0.6392799345828178 -0.7325669960135001
0.2269887 0.6337747043114714 -0.7373330442420154
0.2289886 0.6285665408246411 -0.7418806088645572
0.2309885 0.6230750768125157 -0.7467729701800578
0.2329884 0.6172259943540385 -0.7513352965518733
0.2349883 0.6116110098854193 -0.75565634812422
0.2369882 0.6060248033651415 -0.7605099718862747
0.2389881 0.6002770368604431 -0.764574356159263
0.240988 0.5946285469018263 -0.7689736618135425
0.2429879 0.5891585703336267 -0.7732418541369245
0.2449878 0.5829988500374232 -0.7775805836909131
0.2469877 0.5775452856879525 -0.7815633387157755
0.2489876 0.5716785845706627 -0.7857759646537329
0.2509875 0.5660814481912266 -0.7897971413255164
0.2529874 0.5604564700232603 -0.7939041234762283
0.2549873 0.5547272830641015 -0.7979097265162148
0.2569872 0.5488876608003334 -0.8015596556249401
0.2589871 0.5428086069978191 -0.8049537867093031
0.260987 0.5369232664591909 -0.8087734919273895
0.2629869 0.5310257522714624 -0.8125281736346475
0.2649868 0.5252307308004738 -0.8160340890083403
0.2669867 0.5192299970394523 -0.8196169507148323
0.2689866 0.5128398706701358 -0.8229476267194084
0.2709865 0.5066231466424442 -0.8262239272509599
0.2729864 0.5007057681446294 -0.8295156850776745
0.2749863 0.4948593442720994 -0.8333078917548857
0.2769862 0.4884052913457343 -0.8364506133111098
0.2789861 0.4820049762645181 -0.83967630939541
0.280986 0.47565270103507135 -0.8428402683302058
0.2829859 0.4693924939807709 -0.8461018209895608
0.2849858 0.46331231807280393 -0.8491075261062505
0.2869857 0.45673221173614664 -0.8522359196230367
0.2889856 0.4501195971353666 -0.8552643473567356
0.2909855 0.4439813059445309 -0.8584084381262166
0.2929854 0.4376214738227069 -0.8613573913087917
0.2949853 0.43098004609180934 -0.8645331547204775
0.2969852 0.4248123870695374 -0.8677406331923921
0.2989851 0.4181020547121768 -0.8707036060230946
0.300985 0.41215769722512086 -0.8732672224770754
0.3029849 0.4060833270798762 -0.8763704811842505
0.3049848 0.3994616566320094 -0.8790493234390868
0.3069847 0.39262952622209213 -0.8818852579833331
0.3089846 0.38652425523762335 -0.8847672740270042
0.3109845 0.38037450645148574 -0.8872582973633674
0.3129844 0.3736118340662088 -0.8900505144565327
0.3149843 0.3673950899684604 -0.8923379243131606
0.3169842 0.3612725675831808 -0.89504370071449
0.3189841 0.3546975060913864 -0.8973948041341282
0.320984 0.3485078479581502 -0.8995931122809403
0.3229839 0.3417687158875968 -0.901784270213389
0.3249838 0.33527564218801437 -0.9040642711887816
0.3269837 0.32926753165720707 -0.9062583383975029
0.3289836 0.32275416770366855 -0.9085651331670278
0.3309835 0.31655868840077994 -0.9105543287793069
0.3329834 0.30997234220446723 -0.9128506187285512
0.3349833 0.30304628858367044 -0.9144056693640695
0.3369832 0.2968127455585797 -0.9161555415770026
0.3389831 0.2906961982216962 -0.9180134584876797
0.340983 0.2839885262511996 -0.919888576003398
0.3429829 0.27752321581523237 -0.9212033016704365
0.3449828 0.27102036805117596 -0.9231611303765593
0.3469827 0.26450438772261836 -0.9245823201177703
0.3489826 0.25806050943135983 -0.926227994495158
0.3509825 0.2515402603767559 -0.9276011994314932
0.3529824 0.24489969904220946 -0.9290501440026478
0.3549823 0.23832590429024497 -0.9303315416286053
0.3569822 0.23144371773684044 -0.9319873070102292
0.3589821 0.22480147649000032 -0.9326716861812443
0.360982 0.218289705489354 -0.9342579009088356
0.3629819 0.2117499363212828 -0.9352457372425885
0.3649818 0.2050473114735294 -0.9362174385496282
0.3669817 0.1980742077460183 -0.9372780780695736
0.3689816 0.1913369752862857 -0.9387096580913737
0.3709815 0.18472784953941743 -0.9399279821557153
0.3729814 0.1775767939923963 -0.9407162448534636
0.3749813 0.17130004801100712 -0.9421281196820898
0.3769812 0.16493056148292867 -0.9429144527910095
0.3789811 0.15784860875923679 -0.9439959677674494
0.380981 0.15101933809642168 -0.9450568629914583
0.3829809 0.14436706867687732 -0.9459553683607024
0.3849808 0.13784696143383285 -0.9467288106788873
0.3869807 0.13106743367389068 -0.9479427748117606
0.3889806 0.12433797129225005 -0.948306898649728
0.3909805 0.11802176300655479 -0.9490318302300165
0.3929804 0.1114286725451607 -0.9495651211284394
0.3949803 0.1047302566501585 -0.9501761014302593
0.3969802 0.09829375581762864 -0.9508901752274557
0.3989801 0.09219157017507629 -0.9517853403135644
0.40098 0.08526850089749241 -0.9520405749211436
0.4029799 0.07898964164174878 -0.9524326819253381
0.4049798 0.07231339138650647 -0.9524927330621896
0.4069797 0.0660073188039747 -0.9530479174576204
0.4089796 0.05937602871750861 -0.9531971963331478
0.4109795 0.053071448888054464 -0.9531029227108746
0.4129794 0.04654353694013966 -0.9530838337376167
0.4149793 0.04021121780854548 -0.9531936007073107
0.4169792 0.03360764113411169 -0.9530551569075331
0.4189791 0.027292058280494733 -0.9531702667372303
0.420979 0.020994709387866205 -0.9533264885465292
0.4229789 0.014283705746735162 -0.9533291615363255
0.4249788 0.007556510597822856 -0.9529524314590918
0.4269787 0.0013656463748567688 -0.9525412852052092
0.4289786 -0.004947825272278265 -0.9520960620898491
0.4309785 -0.01143942765565524 -0.9520918961713041
0.4329784 -0.01839960274927889 -0.9510639984554908
0.4349783 -0.024958283392799957 -0.9509361467774798
0.4369782 -0.030438087832214182 -0.9506416153325489
0.4389781 -0.03718345128106753 -0.9503371850242398
0.440978 -0.043543948432281106 -0.9498254401984029
0.4429779 -0.05018525732328519 -0.9491130283419352
0.4449778 -0.05665551287106317 -0.9482609223545814
0.4469777 -0.0632245718284341 -0.9477888648280797
0.4489776 -0.06954014116064194 -0.9472613203859439
0.4509775 -0.07603567533688625 -0.9461675329523845
0.4529774 -0.08223201587301363 -0.945359878425958
0.4549773 -0.08862760637531353 -0.9452482614425742
0.4569772 -0.09509866323163207 -0.9438136198103497
0.4589771 -0.10126627091874428 -0.9432587168889669
0.460977 -0.10750395308247973 -0.942014987287457
0.4629769 -0.11406047535382022 -0.9410400090823035
0.4649768 -0.12000365857293646 -0.9402747291805115
0.4669767 -0.12625430289357262 -0.9390924164158251
0.4689766 -0.13206448686026406 -0.938680163184972
0.4709765 -0.13842323915029822 -0.9369391530500297
0.4729764 -0.14459569325729332 -0.9359800560859822
0.4749763 -0.15108209864887173 -0.9345311361261046
0.4769762 -0.15693595374900413 -0.9331316755220348
0.4789761 -0.16304910753948576 -0.9319875611826514
0.480976 -0.16871451457226244 -0.9306778249315468
0.4829759 -0.1750224379640731 -0.9292365641112224
0.4849758 -0.18114910424786856 -0.9280037816915688
0.4869757 -0.18751393321810517 -0.9264951403598453
0.4889756 -0.19346269140027234 -0.9248346889341337
0.4909755 -0.1994088350556294 -0.9230406211598751
0.4929754 -0.20559208892572053 -0.9217443832519538
0.4949753 -0.21148142882865031 -0.9194544120734119
0.4969752 -0.2180336068568625 -0.9181761611991838
0.4989751 -0.2236110035351248 -0.9157084019291944
0.500975 -0.22970789408402248 -0.914026749728538
0.5029749 -0.2359514590881634 -0.9121530700342135
0.5049748 -0.24200573645939594 -0.9103284131267699
0.5069747 -0.24816945881875702 -0.908657245358767
0.5089746 -0.2542598505088679 -0.9066015630153839
0.5109745 -0.2600698316555814 -0.9050050204901923
0.5129744 -0.2658599248596991 -0.9030004107783217
0.5149743 -0.27190993612113945 -0.9012314157093392
0.5169742 -0.2777651137158439 -0.8995665132297791
0.5189741 -0.2836801255211412 -0.8978746211261739
0.520974 -0.2896742356072949 -0.8951907745228118
0.5229739 -0.29539947279293016 -0.8937363335290033
0.5249738 -0.3012713934914751 -0.8914078638460472
0.5269737 -0.30704357683249844 -0.8894044577231178
0.5289736 -0.31307339883478874 -0.8872169386408146
0.5309735 -0.3186622764426874 -0.8848258254457897
0.5329734 -0.324107809525431 -0.8827031032963614
0.5349733 -0.33004435102374124 -0.8805499783853455
0.5369732 -0.33564549151288225 -0.8785476907737798
0.5389731 -0.34090876536563397 -0.8763634273366658
0.540973 -0.34661480838602565 -0.8738045695671527
0.5429729 -0.3523090943866089 -0.8712466889214948
0.5449728 -0.35744511175366844 -0.8688587396224715
0.5469727 -0.3627908415840126 -0.8667038479177791
0.5489726 -0.36814454614114756 -0.8639029825594022
0.5509725 -0.37346386251435415 -0.8611677252448318
0.5529724 -0.3789580621080121 -0.8592367834771345
0.5549723 -0.38440422020974513 -0.8566198248216574
0.5569722 -0.38979728498632094 -0.853524505899504
0.5589721 -0.394444830593626 -0.8509575722388717
0.560972 -0.39934402100496635 -0.8474228742659294
0.5629719 -0.40477806902565583 -0.844894259199902
0.5649718 -0.41013122960704373 -0.8414081349863961
0.5669717 -0.41533430598388804 -0.8387589126945479
0.5689716 -0.42038387116933634 -0.8352702125726005
0.5709715 -0.42551670056512586 -0.8323471374772903
0.5729714 -0.4305767777247162 -0.8298893016520958
0.5749713 -0.4357921151453753 -0.82606537643437
0.5769712 -0.44102217456064446 -0.82274475507457
0.5789711 -0.4466153075060467 -0.8196179865473161
0.580971 -0.45180501505619447 -0.8167969321256152
0.5829709 -0.4577964820385702 -0.8136616961158631
0.5849708 -0.4624219190015047 -0.8104922325638131
0.5869707 -0.46782210647681416 -0.8075572539665217
0.5889706 -0.47278251317387027 -0.8042537429872259
0.5909705 -0.4778342564362812 -0.8011802506613227
0.5929704 -0.4827295216424503 -0.797658077548822
0.5949703 -0.4879633853811781 -0.7945843114106707
0.5969702 -0.49280921776933145 -0.7915692591211809
0.5989701 -0.4979129732329042 -0.7878883962812729
0.60097 -0.5029081189939241 -0.7851353965517075
0.6029699 -0.5077106211426752 -0.7813882327482232
0.6049698 -0.5125602821192511 -0.7783095496651025
0.6069697 -0.5175635424653364 -0.7749050859530051
0.6089696 -0.5225184870389483 -0.771379228576553
0.6109695 -0.5269381599831499 -0.7682141476037766
0.6129694 -0.531483622499104 -0.7649671289200822
0.6149693 -0.5363742944820835 -0.7611293431029094
0.6169692 -0.5413714036423124 -0.7580238516466534
0.6189691 -0.5454889835562793 -0.7546177604031946
0.620969 -0.5498347605373483 -0.751304754860597
0.6229689 -0.5545416720386861 -0.7476316371168075
0.6249688 -0.5589685718364434 -0.7441931704505191
0.6269687 -0.5634320602011357 -0.740233603118025
0.6289686 -0.5679072798187657 -0.7367034495919025
0.6309685 -0.5719768509482196 -0.73286286740821
0.6329684 -0.5760227115036207 -0.7289323276006172
0.6349683 -0.5804802405003191 -0.7247129646946122
0.6369682 -0.5845542558986573 -0.7209951452722047
0.6389681 -0.5888552351969601 -0.7167275273032558
0.640968 -0.5931510313934374 -0.7124617459595355
0.6429679 -0.5973860857613721 -0.7083875936619386
0.6449678 -0.6019877919529454 -0.704085961353233
0.6469677 -0.6064612103010684 -0.700245450176344
0.6489676 -0.6107629074316187 -0.6962178977045883
0.6509675 -0.6149006596721655 -0.6916833327535084
0.6529674 -0.61883467225911 -0.6878046293415686
0.6549673 -0.6233789298187367 -0.6842762596373876
0.6569672 -0.627242802848861 -0.6802135745439672
0.6589671 -0.6318281673037889 -0.675943866350086
0.660967 -0.6360915507892362 -0.671618578903059
0.6629669 -0.6402436366124951 -0.6676341285865566
0.6649668 -0.6446645335093882 -0.6634471309255336
0.6669667 -0.6483943865045098 -0.6595315075182075
0.6689666 -0.6529368282771608 -0.6554365926162526
0.6709665 -0.6567093770024192 -0.6513034997417445
0.6729664 -0.6608704103647353 -0.6466845750645633
0.6749663 -0.6641604155889737 -0.6421171281359879
0.6769662 -0.6680860943162645 -0.6384430627058079
0.6789661 -0.6725194107832879 -0.6340634719257819
0.680966 -0.6760884014794114 -0.630190687946935
0.6829659 -0.6798648359840926 -0.6259832178523403
0.6849658 -0.6836363824906565 -0.6219118483530994
0.6869657 -0.6870713505442133 -0.6174833017075884
0.6889656 -0.6907560911311659 -0.6133283859458315
0.6909655 -0.6949132221106262 -0.6092637817396427
0.6929654 -0.6981753549709233 -0.6051169627368452
0.6949653 -0.7014057719195975 -0.6008217214046668
0.6969652 -0.70510705251909 -0.5969896903886206
0.6989651 -0.7085086764206017 -0.5924999282889204
0.700965 -0.7120679079021648 -0.5881220463939418
0.7029649 -0.7147403353704342 -0.5834272677954767
0.7049648 -0.7181894856130435 -0.5792163634676625
0.7069647 -0.7217284073832837 -0.5745246987865522
0.7089646 -0.7244807396734386 -0.5699697243639469
0.7109645 -0.7277472449206595 -0.5654549710322054
0.7129644 -0.730742944843605 -0.5607867762569312
0.7149643 -0.7338874290949937 -0.556091427315004
0.7169642 -0.7370974120521187 -0.5512047764078383
0.7189641 -0.7399462217326372 -0.5464635518524782
0.720964 -0.7431820551607274 -0.541742165197212
0.7229639 -0.7463894266891913 -0.5372958483325225
0.7249638 -0.7494244138368641 -0.5325291675394203
0.7269637 -0.752104474218682 -0.5273102985641952
0.7289636 -0.7552596592627321 -0.5227616322509456
0.7309635 -0.7586571062906359 -0.5174540786781215
0.7329634 -0.7615689281981661 -0.5128675224517786
0.7349633 -0.7647051683581656 -0.5080360035086908
0.7369632 -0.7676732039846567 -0.5026306668506929
0.7389631 -0.7706534737957008 -0.498112307211365
0.740963 -0.7738934710258636 -0.4931467577967621
0.7429629 -0.7768238233090697 -0.4883741516090551
0.7449628 -0.7794704957132764 -0.48346778997970313
0.7469627 -0.7827602189089509 -0.47895908593856307
0.7489626 -0.7855595354202898 -0.47378550603952463
0.7509625 -0.7881815923691698 -0.4689072677760623
0.7529624 -0.7914536508292352 -0.46437945436407785
0.7549623 -0.7942798061949682 -0.45946891195200334
0.7569622 -0.7968945079060401 -0.4546183807507721
0.7589621 -0.7991563492816358 -0.449848345380111
0.760962 -0.8019476663373131 -0.44477999844430316
0.7629619 -0.8044459773086773 -0.4400046044839643
0.7649618 -0.807225080631285 -0.43512444846854903
0.7669617 -0.8095911237873114 -0.43056197126655565
0.7689616 -0.8117479398368482 -0.42537462338516874
0.7709615 -0.8141929123942462 -0.4206093133463324
0.7729614 -0.8167759000172845 -0.41557976587020107
0.7749613 -0.8188474812615837 -0.41070540861287014
0.7769612 -0.820926129984398 -0.40590178574258295
0.7789611 -0.8236029806579003 -0.4008782382263196
0.780961 -0.8256766768110547 -0.396142096298273
0.7829609 -0.8280578754174698 -0.3907884472395206
0.7849608 -0.8297002585160007 -0.38596188609754195
0.7869607 -0.8319508705736938 -0.3806367022531587
0.7889606 -0.8343830257185247 -0.3755879141325355
0.7909605 -0.835902147206629 -0.37089641306651977
0.7929604 -0.837948062141411 -0.36517933507158645
0.7949603 -0.8399696581879664 -0.36004263866697067
0.7969602 -0.842089019057908 -0.3550540975088615
0.7989601 -0.8438176669112548 -0.34993417146119815
0.80096 -0.8453634922112797 -0.3446728111882042
