! Created with skrf 1.8.0 (http://scikit-rf.org).
# GHz S RI R 50.0 
!freq ReS11 ImS11
0.001 -0.9438029884060475 0.005054141698417966
0.0029999 -0.9433876977455097 0.012311908305295195
0.0049998 -0.9421161686906276 0.019131617728873687
0.0069997 -0.9417812890976602 0.026110594518664654
0.0089996 -0.9410284364540864 0.033113551218575045
0.0109995 -0.9405777254376134 0.039974108216549266
0.0129994 -0.9400993336395258 0.04699595875708172
0.0149993 -0.9391750445375776 0.053879592943979995
0.0169992 -0.9386113078782606 0.06051540546485365
0.0189991 -0.9378292375283871 0.0674132803214539
0.020999 -0.9369092792956997 0.07419681788398283
0.0229989 -0.9360945539468444 0.08104779908710978
0.0249988 -0.9346570186601812 0.0878519692362057
0.0269987 -0.9341575020653827 0.09464785280025821
0.0289986 -0.933125674118321 0.101258991982449
0.0309985 -0.9320654955725939 0.10804237204790622
0.0329984 -0.9308754809245104 0.11480588728268254
0.0349983 -0.9298554177927943 0.12149652789194368
0.0369982 -0.9285397968908174 0.1281720313093414
0.0389981 -0.9275088902615982 0.13500980499074441
0.040998 -0.9266661518688475 0.14130540221708943
0.0429979 -0.9249162581071182 0.1483476864189376
0.0449978 -0.9239639069902041 0.15425136417620344
0.0469977 -0.9221613393671705 0.16116937484087884
0.0489976 -0.9210331829477371 0.16776762207628879
0.0509975 -0.9196663340232583 0.1744048582444746
0.0529974 -0.9179025131781947 0.1808485450060753
0.0549973 -0.9164371856387536 0.18749209835299263
0.0569972 -0.9150331508328983 0.19386766068745873
0.0589971 -0.9134037220919461 0.2002220097702872
0.060997 -0.9116254945903229 0.20667807440842
0.0629969 -0.9101347616567012 0.2131037833616541
0.0649968 -0.9083274738602739 0.21934106803712028
0.0669967 -0.9068064233008001 0.22573125848715794
0.0689966 -0.9047654209609017 0.23211396228725148
0.0709965 -0.9028086388697648 0.23843399438234408
0.0729964 -0.9011460903827 0.24484781858289462
0.0749963 -0.8991531397778959 0.2509423087254883
0.0769962 -0.8968377859174255 0.25746019861047487
0.0789961 -0.8947713624881696 0.26371646601339305
0.080996 -0.892747370371555 0.2699669051049452
0.0829959 -0.8907924808860216 0.27629080009350365
0.0849958 -0.8883398294451972 0.282276925904261
0.0869957 -0.8861384024731377 0.288463117627242
0.0889956 -0.8835945042005777 0.29487149327126966
0.0909955 -0.8812990314243426 0.30091181619667057
0.0929954 -0.8791512259965893 0.3070511908061726
0.0949953 -0.876710070840888 0.31311441252445077
0.0969952 -0.8741712706263065 0.3194540913808869
0.0989951 -0.8716511130554653 0.32564976094787884
0.100995 -0.8691207849027038 0.331492320346764
0.1029949 -0.8666348551039811 0.3376253766766165
0.1049948 -0.8640323627138884 0.34365614660120136
0.1069947 -0.8612555218699454 0.34995589113087916
0.1089946 -0.858893322084689 0.355836098472573
0.1109945 -0.8559967856666952 0.3619233520963905
0.1129944 -0.8531917663019359 0.36804639944320133
0.1149943 -0.8506353631043628 0.37403592584595924
0.1169942 -0.8475924092523526 0.38000700336648224
0.1189941 -0.8449806008537794 0.38606696488855013
0.120994 -0.8420320546740503 0.39185795430559806
0.1229939 -0.839268426368612 0.39760315827829246
0.1249938 -0.8365622778826592 0.40360926825390686
0.1269937 -0.8335127588753272 0.40951676872029963
0.1289936 -0.8306760531204397 0.4150553173876633
0.1309935 -0.8273934689546564 0.4210161425550721
0.1329934 -0.8244568997781625 0.4266104151175103
0.1349933 -0.8213701220298127 0.43220576840050606
0.1369932 -0.8183316728856446 0.4381284985073558
0.1389931 -0.8154318854155206 0.4436573711232445
0.140993 -0.8118758061018996 0.44943175355510656
0.1429929 -0.8089440637815665 0.45498542313349827
0.1449928 -0.8053567057507843 0.460578836578961
0.1469927 -0.8021919638889633 0.46586972080265576
0.1489926 -0.7983114930392673 0.4715311826640745
0.1509925 -0.7951394607368727 0.4770392487234815
0.1529924 -0.7915076939789607 0.4821071034027981
0.1549923 -0.7877956796053409 0.4876258223305711
0.1569922 -0.7839864832789419 0.49267724544637825
0.1589921 -0.7805833038130031 0.49861604095416423
0.160992 -0.7764367078908873 0.5038586842016194
0.1629919 -0.7729998398170811 0.5095194016513821
0.1649918 -0.7693125419891537 0.5144003197082258
0.1669917 -0.765264893094074 0.5198461556041613
0.1689916 -0.7615507172529735 0.5250000203297669
0.1709915 -0.757815061767232 0.5304703701633048
0.1729914 -0.7534314803274311 0.5357907108284669
0.1749913 -0.7495280107780224 0.5409586097807637
0.1769912 -0.7453318839920084 0.5461122251831632
0.1789911 -0.7413068132544662 0.5518311312277835
0.180991 -0.7373277219910909 0.5566402459313914
0.1829909 -0.7333786080117473 0.5619780846735858
0.1849908 -0.7290096639736208 0.567025415826291
0.1869907 -0.7250793309750077 0.5727722187105218
0.1889906 -0.7202590259007575 0.5781052682027378
0.1909905 -0.7161254179435305 0.5833174385930789
0.1929904 -0.7119740362490254 0.5884872557447076
0.1949903 -0.7079621556560298 0.5932046350544226
0.1969902 -0.704009702558304 0.5982870834753199
0.1989901 -0.6997320621011176 0.6033449811453255
0.20099 -0.6957249473890519 0.608276050279675
0.2029899 -0.6912585149237213 0.613064035524428
0.2049898 -0.6863099590625032 0.6181985574340728
0.2069897 -0.6822253764548953 0.6228300175742495
0.2089896 -0.6779589203416315 0.6276348957631854
0.2109895 -0.6734874836497883 0.6324393614329525
0.2129894 -0.6688722883844517 0.6373172414545536
0.2149893 -0.6645175934928349 0.6420093140563827
0.2169892 -0.6600990201837551 0.646500223081184
0.2189891 -0.6553092262431355 0.6509013588729278
0.220989 -0.6504169736172233 0.655574034657047
0.2229889 -0.6458160106932257 0.6601555199099896
0.2249888 -0.641469574434917 0.6644713696919862
0.2269887 -0.6363647428741933 0.6687081534592497
0.2289886 -0.6316368415088728 0.673194323473393
0.2309885 -0.626902099597289 0.6776657589365674
0.2329884 -0.6218674473424588 0.6818073347321421
0.2349883 -0.6169516145260513 0.6864398737735522
0.2369882 -0.6119391082520752 0.6904095611890586
0.2389881 -0.6066522443641084 0.6947135879747635
0.240988 -0.6018430352632154 0.698545095919291
0.2429879 -0.5964543839296161 0.7027331770862916
0.2449878 -0.5913559228688963 0.7067458207688312
0.2469877 -0.5860476834315642 0.7107498800098339
0.2489876 -0.5808248259910609 0.7151010271741524
0.2509875 -0.5753509832647924 0.7192632194903411
0.2529874 -0.5699155375737847 0.7232565691412483
0.2549873 -0.5645980366946753 0.7274993708133126
0.2569872 -0.5592870877227888 0.7313265928376333
0.2589871 -0.5539565722357072 0.7357444420764572
0.260987 -0.5483156341944665 0.7394420294607885
0.2629869 -0.5428698177752439 0.7435033850698357
0.2649868 -0.5377691903551404 0.7475131172799911
0.2669867 -0.532149522514097 0.7514854319129611
0.2689866 -0.5266854914807975 0.7551922676169793
0.2709865 -0.5213405764760012 0.7589746075910527
0.2729864 -0.5157228851125463 0.7630666961760965
0.2749863 -0.5102797350571237 0.7667536417494122
0.2769862 -0.5044578633046326 0.7703558028973834
0.2789861 -0.49902534277861893 0.7741473146073171
0.280986 -0.4935914513961162 0.7778908015932123
0.2829859 -0.4878538635896567 0.7813376313154803
0.2849858 -0.48244031221275596 0.7847749976084324
0.2869857 -0.476863816855516 0.7883096793835946
0.2889856 -0.4710001128744108 0.791718394981032
0.2909855 -0.4653748528176286 0.7950995143856305
0.2929854 -0.45973470824244833 0.7985386032542757
0.2949853 -0.45427586774014317 0.8016029884214801
0.2969852 -0.4480472862116858 0.805007930100309
0.2989851 -0.442360978830991 0.8079112591431546
0.300985 -0.4361269603327986 0.8108811014071952
0.3029849 -0.43084156906479243 0.8139951187772464
0.3049848 -0.4248109140007586 0.8168611902463568
0.3069847 -0.41863438956165905 0.8197502305301456
0.3089846 -0.4126442557156578 0.8225488859741559
0.3109845 -0.4065096577223633 0.8251595847618429
0.3129844 -0.400395382841152 0.8280151972250805
0.3149843 -0.3942926179134993 0.830483362316994
0.3169842 -0.38799563867624726 0.8334369586103054
0.3189841 -0.3819719885427602 0.83640105110493
0.320984 -0.3755013124899154 0.8394395942182745
0.3229839 -0.3690915134405088 0.8421172789798087
0.3249838 -0.36284905955393537 0.8448696249136041
0.3269837 -0.3564014475411081 0.8473663840588
0.3289836 -0.35015743925261283 0.849646815523546
0.3309835 -0.3435462452768864 0.8520299038138364
0.3329834 -0.3375593206241666 0.8548678850646471
0.3349833 -0.3309807133973276 0.8570418358334101
0.3369832 -0.32475921758702364 0.8595846013285859
0.3389831 -0.31831228670894757 0.8622130960077609
0.340983 -0.3115314331567289 0.8647205254005632
0.3429829 -0.3052041954587891 0.8669804889791474
0.3449828 -0.2989076577026636 0.8693296892101623
0.3469827 -0.2920355822811945 0.871860001165146
0.3489826 -0.2859517270088342 0.873975404899461
0.3509825 -0.2792845301221914 0.8761009863459264
0.3529824 -0.2728022183267792 0.8784453538710222
0.3549823 -0.2663210776778038 0.8808374803179745
0.3569822 -0.259748857024351 0.8825251439396079
0.3589821 -0.25322049143818665 0.8844534539028396
0.360982 -0.2469437995807097 0.8863355949743033
0.3629819 -0.24034020371755527 0.8881558377032248
0.3649818 -0.23366358037190935 0.8900038336807735
0.3669817 -0.2271533044821223 0.8916389714397164
0.3689816 -0.22049048718391043 0.8934661358231205
0.3709815 -0.2143412474508165 0.8949924707771526
0.3729814 -0.20752268875634305 0.8967597484582943
0.3749813 -0.2011126269235155 0.8982051963721733
0.3769812 -0.19418975268380062 0.8998063177674277
0.3789811 -0.18759115884681501 0.9013035522769588
0.380981 -0.18091665566341988 0.902098240633082
0.3829809 -0.17459686420052417 0.9034583542773195
0.3849808 -0.16752755941153286 0.9048831924790477
0.3869807 -0.1609355896270992 0.9061543706460847
0.3889806 -0.15393191809099574 0.9069915986734919
0.3909805 -0.14695704536769372 0.9082519552568147
0.3929804 -0.14077847834582607 0.9090547416793101
0.3949803 -0.13335869318914825 0.9100849591229832
0.3969802 -0.12603152111111002 0.9110086174792821
0.3989801 -0.11923593839326556 0.9116865830983881
0.40098 -0.1122865408440186 0.9126004055336238
0.4029799 -0.105584119198606 0.9128261012904907
0.4049798 -0.09853356630152107 0.9138930229160108
0.4069797 -0.09081812313633288 0.9147550714173822
0.4089796 -0.08455086255745047 0.9153927772056648
0.4109795 -0.07711103541342174 0.9162939578350057
0.4129794 -0.06989006002449266 0.9166671976639763
0.4149793 -0.06319483942352119 0.9173784851849173
0.4169792 -0.05566426363600026 0.9178597728962555
0.4189791 -0.048773797033316496 0.9184998397077686
0.420979 -0.04213491841613235 0.9186179224395997
0.4229789 -0.034925786810353104 0.9187948614884189
0.4249788 -0.027905863724760355 0.9194210398539764
0.4269787 -0.020782238061476596 0.9195033193590614
0.4289786 -0.013914499169286998 0.919865680049205
0.4309785 -0.006918122744964748 0.9199437870871218
0.4329784 0.00023874227422550354 0.9203386395089757
0.4349783 0.007015942231193006 0.9201337358675982
0.4369782 0.0142379162762746 0.9202707322348029
0.4389781 0.021712074026262202 0.9198894818137904
0.440978 0.028536642084399672 0.9202138963997261
0.4429779 0.03554509867567891 0.9199266668565603
0.4449778 0.0424410192060728 0.9194036988226907
0.4469777 0.049815530393209934 0.9191996274833509
0.4489776 0.05650245505522162 0.91862816586457
0.4509775 0.06320324568257908 0.9182974504217449
0.4529774 0.07038875138851752 0.9177368237562101
0.4549773 0.07764190579034994 0.9175481234053675
0.4569772 0.08419025271308551 0.9167732385720291
0.4589771 0.0920562771962325 0.9161824975277384
0.460977 0.0992527532620676 0.91525878298985
0.4629769 0.10615936748119947 0.9143534235112147
0.4649768 0.11335041367240767 0.913334622739473
0.4669767 0.1206055426813185 0.9121932360440591
0.4689766 0.12766625751927924 0.9114389563142121
0.4709765 0.134836122725423 0.910296782999441
0.4729764 0.14206438575659186 0.90962146982894
0.4749763 0.14914074636402352 0.9084421103045772
0.4769762 0.15619261277032964 0.9073291323203484
0.4789761 0.16336773621944353 0.906197316163487
0.480976 0.17070540498826392 0.9051674537347038
0.4829759 0.17759342205069353 0.903778071325211
0.4849758 0.1846935353873343 0.9026994847128592
0.4869757 0.19201602148501482 0.9012456009141777
0.4889756 0.1990186827819336 0.8999508583917641
0.4909755 0.2061524963166413 0.8983958090874654
0.4929754 0.21319048323883266 0.8969540711247025
0.4949753 0.22016297916443595 0.8953836710102459
0.4969752 0.22709474069597352 0.8935841983067098
0.4989751 0.23412303088013536 0.8922913556403403
0.500975 0.24111202815148527 0.8906160974931813
0.5029749 0.2479714242539637 0.8886972031574336
0.5049748 0.2549059937278946 0.8868136642540337
0.5069747 0.26164259371609383 0.8848595588485879
0.5089746 0.2682279441403673 0.8829777197265095
0.5109745 0.27524453392937176 0.8806243810698107
0.5129744 0.2820877137732941 0.8785424675102069
0.5149743 0.28905943645312404 0.8763063345460516
0.5169742 0.2959536139841026 0.8742084071621327
0.5189741 0.30271460568193376 0.8716739182325088
0.520974 0.3099116000734871 0.8691387054143234
0.5229739 0.31616718527203586 0.8663106350227897
0.5249738 0.3230428004336445 0.864159413791584
0.5269737 0.3300546057455662 0.8613075096923989
0.5289736 0.336289324035255 0.8584100004193159
0.5309735 0.3435742700503976 0.8558562298302936
0.5329734 0.35047817308067974 0.852564461571807
0.5349733 0.35675745503093015 0.849822029958019
0.5369732 0.36406066666754944 0.846486516159652
0.5389731 0.37059051072501525 0.8435300736543336
0.540973 0.3776136362251356 0.8406850217371327
0.5429729 0.38455754562936695 0.8376558998388247
0.5449728 0.3913493111322197 0.8343499495654331
0.5469727 0.3982997079756185 0.8313998613517533
0.5489726 0.4049848806460449 0.8280742865139677
0.5509725 0.41162800438590874 0.8248597487828441
0.5529724 0.41838616759215247 0.821632033187013
0.5549723 0.4251749637542103 0.8180486098633432
0.5569722 0.4318557214480235 0.814779172194824
0.5589721 0.43850719792526055 0.811473209338036
0.560972 0.44523775078576966 0.8081270910709719
0.5629719 0.4523688192065213 0.8046398022492293
0.5649718 0.45866679317135023 0.8015423234114913
0.5669717 0.4651321058105493 0.798152908584638
0.5689716 0.4719307806761254 0.7943175487068914
0.5709715 0.4781331618552531 0.7909361655302576
0.5729714 0.48454584104182696 0.7866454000764123
0.5749713 0.4909406255143914 0.7830610234901962
0.5769712 0.4972057672391895 0.7791893277745654
0.5789711 0.5032839122682063 0.7758296945485571
0.580971 0.5090902672435993 0.7718781405432716
0.5829709 0.5157935333233954 0.7677699392025648
0.5849708 0.5217298739793556 0.7637766915753487
0.5869707 0.5274127052206231 0.7596874188083406
0.5889706 0.5337656997701032 0.7552568253200937
0.5909705 0.5397078628007399 0.7510709948514891
0.5929704 0.5457499778789189 0.7466272982373146
0.5949703 0.5517483712255665 0.7420348579832238
0.5969702 0.5574428820108093 0.7377661842666849
0.5989701 0.5636299990693421 0.7329374197003854
0.60097 0.5692392495287476 0.7282440300364973
0.6029699 0.5754162788796251 0.7228301051944878
0.6049698 0.5808431503616698 0.7184828145024702
0.6069697 0.5865560547001486 0.7136249983864494
0.6089696 0.5926351528502646 0.7088834794519843
0.6109695 0.5982172725494991 0.7040419484521447
0.6129694 0.6037795072808971 0.6984836470522744
0.6149693 0.6095454492551637 0.6938362320731146
0.6169692 0.6158324089652382 0.6891742444056671
0.6189691 0.6216861352265601 0.6838860017585195
0.620969 0.6271357867504489 0.6787333960209295
0.6229689 0.6327453155112114 0.67307712377801
0.6249688 0.6384795596455523 0.6684280872656694
0.6269687 0.6440720067443032 0.6629864277375237
0.6289686 0.649652429371196 0.6578321831457277
0.6309685 0.655440763088523 0.6524355179334873
0.6329684 0.6604866537528131 0.6470279686784194
0.6349683 0.6666792976629794 0.6419228726981812
0.6369682 0.6714419836865272 0.6362019372538155
0.6389681 0.6765570906637628 0.630941168396442
0.640968 0.6824093912352334 0.625826707980698
0.6429679 0.6877489957093829 0.6200837048894692
0.6449678 0.6922391412301264 0.6151117649809756
0.6469677 0.6973928631435036 0.609491364063462
0.6489676 0.7021648202014861 0.6040929642599842
0.6509675 0.7073421207070559 0.5982684400603138
0.6529674 0.7123945687318877 0.5928507660037547
0.6549673 0.7170466510282724 0.5868716004907648
0.6569672 0.7220656766433041 0.5809842865080478
0.6589671 0.7266761604478716 0.5751650502365838
0.660967 0.7309755697971176 0.5694172386073341
0.6629669 0.7356336114407422 0.5628910657224544
0.6649668 0.7399954517948583 0.5577698612394139
0.6669667 0.744536349063537 0.5512335483010251
0.6689666 0.7488880679032115 0.5451916637674845
0.6709665 0.7528870859742538 0.5393399230041719
0.6729664 0.7572567499961355 0.5328751667433324
0.6749663 0.7615295841976919 0.5264110103393984
0.6769662 0.7660536233324146 0.5197131705874539
0.6789661 0.7699941781237659 0.5135096665091885
0.680966 0.7743988852530885 0.5068919778839456
0.6829659 0.7785846333421704 0.5004945790985369
0.6849658 0.782801673988313 0.4936532198514875
0.6869657 0.7865205271429789 0.4871995687484969
0.6889656 0.790607257888071 0.4804694843597547
0.6909655 0.7943520801213328 0.47411147458786274
0.6929654 0.7987897870354465 0.46722916000229797
0.6949653 0.8025368598266825 0.46043909664839655
0.6969652 0.8065677283131056 0.45348269279167
0.6989651 0.8103985362623102 0.4467874848741876
0.700965 0.8139940063204237 0.4398032066342111
0.7029649 0.8177855922461107 0.4331586882032208
0.7049648 0.8214423494108585 0.4264935671802289
0.7069647 0.8251195081838633 0.41945389763431473
0.7089646 0.8288898289646205 0.41249841586230807
0.7109645 0.8327326104224803 0.40586902788568424
0.7129644 0.8360896737559615 0.3989497030097934
0.7149643 0.8393484541246482 0.3920271001615007
0.7169642 0.8428772559271083 0.3852214410540167
0.7189641 0.8460192605370501 0.3782383114365703
0.720964 0.849039039966258 0.37155959957225726
0.7229639 0.8521953512468222 0.3646358203052517
0.7249638 0.8554444821136554 0.35745472480332835
0.7269637 0.8585076290935701 0.3505463699840903
0.7289636 0.861018053095363 0.34339535764982576
0.7309635 0.8643541559756545 0.33653553029973526
0.7329634 0.8671108768449393 0.32966127053965955
0.7349633 0.8692764307761262 0.32253227325349504
0.7369632 0.8721025443477456 0.3152958020312041
0.7389631 0.874401300952747 0.30819950557684317
0.740963 0.8769156675368253 0.3010224289370061
0.7429629 0.8795004523106567 0.2934560991018852
0.7449628 0.88169483748562 0.28689171662507884
0.7469627 0.8840858607611307 0.279342877886171
0.7489626 0.8865962160056704 0.272033943385916
0.7509625 0.8886345134100045 0.2643211833448128
0.7529624 0.8908466987067072 0.2572307349604265
0.7549623 0.892856718608989 0.24972413698811055
0.7569622 0.8943685228715268 0.24198080385239612
0.7589621 0.8963414228972723 0.2342440673458817
0.760962 0.8985036243825474 0.22723513687827507
0.7629619 0.900609369070304 0.21919714273910237
0.7649618 0.9020987727808321 0.21184599498281403
0.7669617 0.9040911321461946 0.20437337248301762
0.7689616 0.9054484200901364 0.1967313100567206
0.7709615 0.907079986279779 0.18917975112807928
0.7729614 0.9088267811870635 0.18139571248499964
0.7749613 0.9104208571393666 0.17411949690234485
0.7769612 0.9115676642278681 0.16629378060288677
0.7789611 0.9130857933475988 0.15880161234359633
0.780961 0.9145051013096845 0.1513169967993501
0.7829609 0.9155089936536062 0.1435536048656042
0.7849608 0.9167611376847522 0.1361590650455206
0.7869607 0.9181412915134963 0.12841849744166697
0.7889606 0.9191270091735556 0.12067114688041983
0.7909605 0.9199020134570085 0.11317960829033166
0.7929604 0.9209374137157385 0.10589838739972157
0.7949603 0.921865319600671 0.0980303598635952
0.7969602 0.9224701846019074 0.09048127884206238
0.7989601 0.9232932912177086 0.08286120806550307
0.80096 0.924121912634142 0.07542428524949227
0.8029599 0.9246157077757543 0.06772203401541003
0.8049598 0.9249583766118312 0.06023860969375579
0.8069597 0.9251168951037398 0.05240478877458296
0.8089596 0.9256082592530668 0.04487089812665519
0.8109595 0.9254241925385547 0.03723658038780239
0.8129594 0.9265380644274875 0.029585161180976413
0.8149593 0.9262425335358813 0.021713743439107865
0.8169592 0.926750347368335 0.014239293012723551
