! Created with skrf 1.8.0 (http://scikit-rf.org).
# GHz S RI R 50.0 
!freq ReS11 ImS11
0.001 -0.9400009212337431 0.004847822669705454
0.0029999 -0.939739370155435 0.010980322206060822
0.0049998 -0.9389204619610698 0.017112636754671964
0.0069997 -0.9382309550542115 0.023082747158074235
0.0089996 -0.937582533931237 0.029109888464009318
0.0109995 -0.9372076524518752 0.03538711156780423
0.0129994 -0.9367293596012423 0.041249825489177605
0.0149993 -0.9359212339136445 0.04740804627578089
0.0169992 -0.9353633497737514 0.05323183977953068
0.0189991 -0.9346095892707661 0.05924947515460898
0.020999 -0.9340264423950944 0.06508639371260155
0.0229989 -0.9331902785580748 0.07101906210776317
0.0249988 -0.9321150763866578 0.07714383931508213
0.0269987 -0.9318616835149061 0.08303729012348453
0.0289986 -0.9308847441810927 0.088732179721906
0.0309985 -0.9300166164121654 0.09464989176942373
0.0329984 -0.9292103295822317 0.10029185205682124
0.0349983 -0.9282599921311304 0.10649739801432069
0.0369982 -0.9272388120749094 0.11238566158939765
0.0389981 -0.9263232313499775 0.11826168771275986
0.040998 -0.9257750936846556 0.1236642436262243
0.0429979 -0.9242597488719824 0.129744570887592
0.0449978 -0.9234479902991368 0.13516679217965755
0.0469977 -0.9219865817289109 0.14131376521703226
0.0489976 -0.9211616855640757 0.1469313523339181
0.0509975 -0.919782683022965 0.1527640196737144
0.0529974 -0.9185247893786093 0.15886189514565627
0.0549973 -0.9176874680845152 0.16403510251356918
0.0569972 -0.9162926180406004 0.16979652104509318
0.0589971 -0.9148874891489271 0.17529243865903743
0.060997 -0.9135525727451732 0.18101512586457177
0.0629969 -0.9122558714358202 0.18649729130942092
0.0649968 -0.9109746827843441 0.19209759736081164
0.0669967 -0.9097300478295353 0.19769593135714542
0.0689966 -0.9081441766191176 0.20340076163620488
0.0709965 -0.9065979592794955 0.2088358592611804
0.0729964 -0.905374966704056 0.2146185007259353
0.0749963 -0.9036030313180856 0.21990847363589688
0.0769962 -0.9016473675374457 0.22539155097107946
0.0789961 -0.9000560932169603 0.2310980864715713
0.080996 -0.8985177421643195 0.23652303531195856
0.0829959 -0.897000988462611 0.24218901314463917
0.0849958 -0.8949739949247096 0.24743576263615416
0.0869957 -0.8933472106182156 0.2528313323511694
0.0889956 -0.8913977674535819 0.258272550943576
0.0909955 -0.8895627119705246 0.26381086522333824
0.0929954 -0.8875913049991089 0.2692895831402136
0.0949953 -0.8860545568524203 0.27449867549936896
0.0969952 -0.8840701187474861 0.27979796374466803
0.0989951 -0.8822104676331824 0.2852747298306021
0.100995 -0.8799214657420255 0.29093500251382565
0.1029949 -0.8778900562574098 0.2960095777304481
0.1049948 -0.8760280559161123 0.30129351467524607
0.1069947 -0.873681071269364 0.30680798675746557
0.1089946 -0.8717051963070258 0.3119378399111983
0.1109945 -0.8695615874294578 0.31772218713039974
0.1129944 -0.8673871940649267 0.322953533900484
0.1149943 -0.8654869369086545 0.3283017634931053
0.1169942 -0.8630397011268098 0.3334889011025724
0.1189941 -0.8611551678488795 0.3389447581346944
0.120994 -0.8587940365480295 0.34417923187961247
0.1229939 -0.8565989380652159 0.34910207790601444
0.1249938 -0.8545201481034362 0.3547011428402342
0.1269937 -0.8524516477223352 0.3595912173321124
0.1289936 -0.8501408802518723 0.36493535362251406
0.1309935 -0.8473055529405858 0.3700124551713367
0.1329934 -0.8451214229075219 0.3747344977117849
0.1349933 -0.8428515534786252 0.3799926580557451
0.1369932 -0.8405677257338234 0.3850744908840981
0.1389931 -0.8380732443184189 0.39041061689895
0.140993 -0.8356330411397042 0.3948162433079964
0.1429929 -0.8330989563267108 0.40029780987371694
0.1449928 -0.8303847351296754 0.4051871200044451
0.1469927 -0.8277955407710936 0.4099950002256434
0.1489926 -0.8252125849514396 0.41484876386272235
0.1509925 -0.822443696915314 0.41988743434183123
0.1529924 -0.8195850328931497 0.4247409428133672
0.1549923 -0.8166395740851736 0.4292800850646904
0.1569922 -0.8136494664431244 0.43410177498462515
0.1589921 -0.8112278891604269 0.4392907640332081
0.160992 -0.8077493671961026 0.44428916597717916
0.1629919 -0.8053541493336376 0.44914277803311836
0.1649918 -0.8022803178127268 0.4537293773688349
0.1669917 -0.7991164523545238 0.4584206291272954
0.1689916 -0.7963115268697042 0.46316104720848744
0.1709915 -0.7934489955598736 0.46828183711269283
0.1729914 -0.7900655154519842 0.47310244343134655
0.1749913 -0.7868768788535817 0.4776613699078553
0.1769912 -0.7837850836370097 0.4822734789708862
0.1789911 -0.7805893395991507 0.4871883453728648
0.180991 -0.777469383786364 0.49218265385925036
0.1829909 -0.7741191684265978 0.4970164642083422
0.1849908 -0.7713703674574611 0.5014604655792982
0.1869907 -0.7685362199280574 0.5067308550770007
0.1889906 -0.7643654948673827 0.5114258768679721
0.1909905 -0.7611175889491091 0.5163598681649851
0.1929904 -0.7580910215815388 0.5211534367611147
0.1949903 -0.7550975544378582 0.5257226241465262
0.1969902 -0.7519476653137535 0.5302462151751672
0.1989901 -0.7485260761761044 0.5349164761949842
0.20099 -0.7456938502260848 0.5392328140179005
0.2029899 -0.7419851213419377 0.5441337328458105
0.2049898 -0.7382806428869474 0.5484937153207917
0.2069897 -0.7349694786675285 0.5529340392888004
0.2089896 -0.7317598916160633 0.5574192935101907
0.2109895 -0.728329492379083 0.5617838214253166
0.2129894 -0.7248778054250746 0.5663666889052608
0.2149893 -0.7213703196676489 0.5705594478262933
0.2169892 -0.7179713767199428 0.5748670014049072
0.2189891 -0.7140678558525564 0.5792467357980221
0.220989 -0.7105869450138312 0.5836325985714229
0.2229889 -0.7070018322698916 0.5877111899518438
0.2249888 -0.7033794569557001 0.5919090339668541
0.2269887 -0.6996899584569607 0.5961632422485674
0.2289886 -0.6958812483510997 0.6003410716679098
0.2309885 -0.6921632967422299 0.6041765033253601
0.2329884 -0.688208816833565 0.6083595010671381
0.2349883 -0.6846875689593924 0.6126642741279651
0.2369882 -0.6806641120723008 0.6167255870242702
0.2389881 -0.6765214673981558 0.6205620621044474
0.240988 -0.6725694097234046 0.6246035212200164
0.2429879 -0.6683857449999848 0.6285948678486436
0.2449878 -0.664568988922279 0.6325063131110211
0.2469877 -0.6604848398174373 0.6363602846902242
0.2489876 -0.65617307879796 0.640901769773152
0.2509875 -0.6521126846277647 0.6444316651633138
0.2529874 -0.6479061423379078 0.6487645180881445
0.2549873 -0.6439009667193281 0.6527748614317558
0.2569872 -0.639621437856322 0.6566990639618803
0.2589871 -0.6353185966412005 0.6608490634773894
0.260987 -0.6311216264666039 0.6648658537748954
0.2629869 -0.6270166421978444 0.6686268382417194
0.2649868 -0.6230005052945595 0.6724948446154178
0.2669867 -0.618433149156092 0.676647624466255
0.2689866 -0.6142452520112389 0.6802968447862274
0.2709865 -0.6099611175222112 0.6841876588787503
0.2729864 -0.6058133139412657 0.6879933492298526
0.2749863 -0.6015705495387842 0.6918048877731979
0.2769862 -0.5969730713308466 0.6957104102170695
0.2789861 -0.5925277535411669 0.6990338954345032
0.280986 -0.5884342470837293 0.7031107565730448
0.2829859 -0.5840905390602603 0.7067377711445617
0.2849858 -0.5797294785984975 0.7103904971460242
0.2869857 -0.5754175316161961 0.7138705274637343
0.2889856 -0.5708267539645969 0.7172716441612266
0.2909855 -0.5664449496794766 0.7210245161567983
0.2929854 -0.5620395198195669 0.7244524684165156
0.2949853 -0.5576607959229399 0.727739067628081
0.2969852 -0.5527843191413984 0.731201798652217
0.2989851 -0.548448169677023 0.7344717030658133
0.300985 -0.5434335680896174 0.7377103169591437
0.3029849 -0.5390404847200067 0.7407725359135362
0.3049848 -0.5345381070747578 0.7443335790238638
0.3069847 -0.5296233541942258 0.7470564640231382
0.3089846 -0.5247625127420663 0.7501255879613242
0.3109845 -0.5199172159040718 0.7533025331429342
0.3129844 -0.5152779581810056 0.7560900572246938
0.3149843 -0.5102870791722071 0.7594649761149054
0.3169842 -0.5053754491734865 0.7625843838952739
0.3189841 -0.5005306001602661 0.7657802910946923
0.320984 -0.49557297047956533 0.7687806993638956
0.3229839 -0.49065227376871456 0.7721248904787921
0.3249838 -0.485694965610345 0.775205785019278
0.3269837 -0.4803805303351583 0.7782054713365667
0.3289836 -0.4754692695822042 0.7810901402215612
0.3309835 -0.47021253403042 0.7840904453957787
0.3329834 -0.4655023020127021 0.7872579676436142
0.3349833 -0.4602823229786696 0.7895382841422345
0.3369832 -0.4553304058034353 0.7928079629256062
0.3389831 -0.45061668374858665 0.795879066188578
0.340983 -0.44488310277189014 0.7989191834633111
0.3429829 -0.4399947467556306 0.8017122469656688
0.3449828 -0.4347367727236117 0.8042940110220983
0.3469827 -0.42971946299696184 0.8073453178032538
0.3489826 -0.4246121651878104 0.8103574072635918
0.3509825 -0.41926931725353983 0.8129625910249874
0.3529824 -0.4142065503233515 0.8156409656942359
0.3549823 -0.40918254702018436 0.8184231321546716
0.3569822 -0.403897203125115 0.8212322440691596
0.3589821 -0.3985003580226375 0.8234915383886349
0.360982 -0.3936039839384675 0.8258644462769859
0.3629819 -0.38831513945798496 0.8287086812524778
0.3649818 -0.3831591872248949 0.8309004860838944
0.3669817 -0.37781568412905026 0.8336346204076793
0.3689816 -0.3726527980247831 0.835659679236574
0.3709815 -0.36735504073601183 0.8379565949546768
0.3729814 -0.3623434818383742 0.8404606989344238
0.3749813 -0.3566038001588502 0.8428647879733516
0.3769812 -0.3515181974106658 0.8449460998901985
0.3789811 -0.34604086557859015 0.847357299206104
0.380981 -0.3409332995026725 0.848987888207043
0.3829809 -0.33562255430335597 0.8509230901837362
0.3849808 -0.3299353321100258 0.8531729299227822
0.3869807 -0.3244026220485264 0.8553257645828699
0.3889806 -0.31930510749017915 0.8573138804507264
0.3909805 -0.313459609932858 0.8592585046761158
0.3929804 -0.30830004930822447 0.8607526039707788
0.3949803 -0.30235496564631936 0.8628684916190666
0.3969802 -0.29665265188115153 0.8644360349487519
0.3989801 -0.29125900544053235 0.866504743540435
0.40098 -0.2851306582245136 0.8683306670659909
0.4029799 -0.2796573553040738 0.8696976032536495
0.4049798 -0.27401767663094534 0.8715697664519008
0.4069797 -0.2680465468665824 0.8734870902626083
0.4089796 -0.2622095639741306 0.8753244838043168
0.4109795 -0.25661683294307813 0.8770358170529826
0.4129794 -0.25085302479147753 0.8787403997855286
0.4149793 -0.2450049143948136 0.8802826237874983
0.4169792 -0.23924572508994973 0.8819707752648598
0.4189791 -0.23338192166257535 0.8834705834132957
0.420979 -0.22755409248508995 0.8850698830560156
0.4229789 -0.22211469741124862 0.886435339628306
0.4249788 -0.21601687350476592 0.8879197744770101
0.4269787 -0.21031885189213564 0.8892858016208656
0.4289786 -0.20453373888105664 0.8908322820993111
0.4309785 -0.1988520619222766 0.8920606256454938
0.4329784 -0.19284613521874472 0.8933340259655618
0.4349783 -0.18725834373275366 0.8947572770199681
0.4369782 -0.18128390370118547 0.896090263747994
0.4389781 -0.17509229686528585 0.8972513086242845
0.440978 -0.16949250679256364 0.8987242380214562
0.4429779 -0.163576236537898 0.8996031550623161
0.4449778 -0.1580621582631842 0.9003963268525262
0.4469777 -0.15192626043097157 0.9013537467913928
0.4489776 -0.1459472321385553 0.9024329144316121
0.4509775 -0.14020780863077784 0.9032539298933616
0.4529774 -0.13435246866827708 0.9042261362143866
0.4549773 -0.12826533411066657 0.9053683715359528
0.4569772 -0.12246210480137722 0.9061253265286294
0.4589771 -0.11646981460581035 0.906741576790469
0.460977 -0.1099974437337781 0.9075771428782684
0.4629769 -0.1042946739618359 0.9079884398102002
0.4649768 -0.09841028995057982 0.9090964801395417
0.4669767 -0.09197019929325051 0.9093104050378543
0.4689766 -0.08581356674696203 0.9097094649149375
0.4709765 -0.079990817116405 0.9100008321760221
0.4729764 -0.07400015847195966 0.9110630510086343
0.4749763 -0.06783511734383196 0.9114310030950792
0.4769762 -0.061681390069940126 0.9118725820686795
0.4789761 -0.055491607300168014 0.9125121046916501
0.480976 -0.04953839251119775 0.912848199769809
0.4829759 -0.043290699944532746 0.9132026417425633
0.4849758 -0.03746328585200766 0.913807477367453
0.4869757 -0.03102566644868762 0.9138910812608114
0.4889756 -0.02516323816612426 0.9146137976420321
0.4909755 -0.019168163913149395 0.9148449434985593
0.4929754 -0.01309148780253365 0.9148688698265269
0.4949753 -0.0067438423533767375 0.9150715695647265
0.4969752 -0.0005726367492705359 0.9149105567125149
0.4989751 0.00537690528964084 0.915513310180866
0.500975 0.011300054612698278 0.9156265806424324
0.5029749 0.017171955236068223 0.9154041831273598
0.5049748 0.022981113524532172 0.9155171976264562
0.5069747 0.028805902780797463 0.9149610003248281
0.5089746 0.03469728421829558 0.9150963713606572
0.5109745 0.04098339183562096 0.9148176642864131
0.5129744 0.047085282665131394 0.9143152924736029
0.5149743 0.053354157509633605 0.9140175331976685
0.5169742 0.05923277348951732 0.9134940771268907
0.5189741 0.06520197692473212 0.9132960007426506
0.520974 0.07167849802055101 0.9129891686305645
0.5229739 0.0775022222308368 0.9119104160168843
0.5249738 0.08335456258441273 0.9115517213012568
0.5269737 0.08959439483084614 0.9106824907050816
0.5289736 0.09535788436012917 0.909838888718367
0.5309735 0.10196004312980188 0.9090442803993318
0.5329734 0.10807563424259013 0.9080384133858306
0.5349733 0.11388559279739156 0.9069561333013454
0.5369732 0.12052174176578012 0.9060981170181711
0.5389731 0.12646399728666383 0.905365795972455
0.540973 0.13317479085921188 0.9043805561170455
0.5429729 0.13925114377932407 0.9033528145978094
0.5449728 0.14534591915712608 0.9022810751103381
0.5469727 0.1518351444144916 0.9013855523102554
0.5489726 0.15806011855399918 0.9001056307110294
0.5509725 0.1640955270417814 0.8994116544495809
0.5529724 0.1704698147338603 0.8982818508380341
0.5549723 0.17686332153679724 0.8971243854838071
0.5569722 0.18301785623762257 0.8958890969981645
0.5589721 0.1892773837224359 0.8946685971931027
0.560972 0.1954787828886193 0.8934681693997748
0.5629719 0.2023544654675688 0.8925648317095266
0.5649718 0.2080561243772296 0.8917348960232122
0.5669717 0.2142712219556756 0.8904229032105438
0.5689716 0.2205256325415457 0.8889447949244588
0.5709715 0.2262454239992462 0.8875917110460678
0.5729714 0.2328652509653597 0.8860772964037795
0.5749713 0.23890427260209782 0.8848214178016341
0.5769712 0.2448894035957593 0.8832825379562372
0.5789711 0.25078521498648987 0.8819926169181305
0.580971 0.25617291632869243 0.8803556110843244
0.5829709 0.2621973528267785 0.8787269486873197
0.5849708 0.26796508821988674 0.8768855898275665
0.5869707 0.2738144885737445 0.8752448170508231
0.5889706 0.2797448793702362 0.8732912823442285
0.5909705 0.285885043239945 0.8713881726300658
0.5929704 0.2917827172587081 0.8691396985174015
0.5949703 0.2973536179849961 0.8672023194152241
0.5969702 0.3032164873596464 0.8650727417629364
0.5989701 0.30965067504061533 0.8624202965666481
0.60097 0.3150280000072885 0.8603240798009066
0.6029699 0.321479427953202 0.857883394328995
0.6049698 0.3268836572377985 0.8555553966954474
0.6069697 0.33299216518213337 0.8525728644707781
0.6089696 0.33893672069083447 0.8505499607661182
0.6109695 0.34464063995774497 0.8480882836142878
0.6129694 0.35101450522010147 0.8453829303934738
0.6149693 0.35631433726489137 0.842967353505689
0.6169692 0.36271493615161304 0.8406508961464629
0.6189691 0.3688261014647622 0.8378093550936834
0.620969 0.37478183692193456 0.8354653100503404
0.6229689 0.3807502773864298 0.8326562002228055
0.6249688 0.3866700983876765 0.8298079242235914
0.6269687 0.3925225841881437 0.826969181893827
0.6289686 0.398328450185627 0.8245696302566141
0.6309685 0.40441873732224054 0.8216050165845801
0.6329684 0.4101027460245036 0.8187439611375772
0.6349683 0.4164220890073661 0.8164740180346246
0.6369682 0.421927818166265 0.8135674883897729
0.6389681 0.4277712267321492 0.810538485681103
0.640968 0.43366303781735777 0.8080836446996189
0.6429679 0.4389349487432984 0.8051825821544756
0.6449678 0.4446228172264224 0.8025578691704015
0.6469677 0.45039161922406523 0.799367078617343
0.6489676 0.4555119609047176 0.7968099004201752
0.6509675 0.46132900100884744 0.7939959070154397
0.6529674 0.46723280016649926 0.7904991560624572
0.6549673 0.4727561495113287 0.7877350206316384
0.6569672 0.47787070823381395 0.7838176210959643
0.6589671 0.4832324508477197 0.7807327026664785
0.660967 0.4881812959818366 0.7774323937601569
0.6629669 0.493529615791664 0.7743221144530881
0.6649668 0.49870573799537604 0.770855309726463
0.6669667 0.5037148917775647 0.7666468705520486
0.6689666 0.508805922560339 0.7634691868977795
0.6709665 0.513967899717993 0.7600779020382417
0.6729664 0.5193911179592352 0.7559641344544753
0.6749663 0.5246644240959641 0.7524308049087444
0.6769662 0.5301011958146584 0.7483020370364363
0.6789661 0.5351544076262161 0.7441870608902018
0.680966 0.540456520818605 0.7404289802401972
0.6829659 0.5455009383620171 0.7362793249596263
0.6849658 0.5510254505385546 0.732294714508594
0.6869657 0.5563062780734433 0.7285955182676439
0.6889656 0.5612537808566207 0.7239889474032526
0.6909655 0.5665397489063064 0.7198680137159448
0.6929654 0.5718605799549462 0.7153847222872111
0.6949653 0.5767107471586007 0.7112426752464984
0.6969652 0.5820118091578222 0.7070211298605219
0.6989651 0.5875583232093593 0.702779355149656
0.700965 0.5926756975664926 0.6982836836339292
0.7029649 0.5977431577773803 0.6941489047616318
0.7049648 0.602797448832975 0.6898059501813415
0.7069647 0.6082912250016625 0.6853201548327363
0.7089646 0.6135992134075472 0.6812978537224158
0.7109645 0.6185542448805059 0.6771269819239951
0.7129644 0.6240079721426212 0.6726455030213315
0.7149643 0.628530940043157 0.6685082782901457
0.7169642 0.6337178677131875 0.66405215961813
0.7189641 0.6385761226599926 0.6598275569093054
0.720964 0.6431276305857901 0.655340715362407
0.7229639 0.6477933696412991 0.6507455746090839
0.7249638 0.6526277923224155 0.6462730249609424
0.7269637 0.6576604908239698 0.6422360337713905
0.7289636 0.6618743492041319 0.6374031304790373
0.7309635 0.6666975844007917 0.6329359176136367
0.7329634 0.6711740886091406 0.6284151736136423
0.7349633 0.675316063970104 0.6238685501856297
0.7369632 0.6798784214258731 0.6191909393628858
0.7389631 0.6837037955156673 0.6145976301157168
0.740963 0.6878941507392664 0.6093628953217911
0.7429629 0.6922988995763372 0.6046042771637143
0.7449628 0.6964634124494063 0.6000432424651141
0.7469627 0.700563463018655 0.5949561180695548
0.7489626 0.7044860903268131 0.5896593420541014
0.7509625 0.7081836927884545 0.584308501945245
0.7529624 0.7125949156763263 0.5794854405489691
0.7549623 0.7167002199443883 0.5744068016141329
0.7569622 0.7208600969560681 0.5686309389371946
0.7589621 0.7241635700216573 0.5632944138617645
0.760962 0.7286596602612767 0.5581004740858951
0.7629619 0.732556993432836 0.5525233301516441
0.7649618 0.736607494371419 0.5472492767640141
0.7669617 0.7406403790140477 0.5420155338282646
0.7689616 0.7442030692414712 0.5360705915191748
0.7709615 0.7482756990037746 0.5303322787443194
0.7729614 0.7522227617424735 0.5248244427316492
0.7749613 0.7560279371172186 0.5195993820850876
0.7769612 0.7598554024912907 0.5133582381038996
0.7789611 0.7634793215522186 0.5080840229457582
0.780961 0.7672851390475939 0.502349043165323
0.7829609 0.7711080064219827 0.4969220385749434
0.7849608 0.7748618676040434 0.4912587994447141
0.7869607 0.7787450182177643 0.4857892238466161
0.7889606 0.7822957867334647 0.4799211835994448
0.7909605 0.7862532962367855 0.47441143264487606
0.7929604 0.7895461724094348 0.46897408396872375
0.7949603 0.7930251973987923 0.46289617028233354
0.7969602 0.7963644330080833 0.45744978597679953
0.7989601 0.8001025971229863 0.45172546457117024
0.80096 0.8034721046598955 0.44576580591086845
0.8029599 0.8066007015852213 0.4403142312037944
0.8049598 0.8099871410168178 0.4344658321378037
0.8069597 0.8128653868766067 0.4287420358201697
0.8089596 0.8159248638573724 0.4229678409683656
0.8109595 0.8181684191341674 0.4169072991425234
0.8129594 0.821761868761453 0.4111512680216389
0.8149593 0.8243796733422544 0.40542354045486095
