! Created with skrf 1.8.0 (http://scikit-rf.org).
# GHz S RI R 50.0 
!freq ReS11 ImS11
0.001 0.9945242499261993 -0.006392863054342166
0.0029999 0.9925097052305245 -0.016782001010599755
0.0049998 0.9906840863059978 -0.024588861325702198
0.0069997 0.9886900725486156 -0.031210496136367824
0.0089996 0.9870089778316349 -0.037897267536519785
0.0109995 0.9859266800901891 -0.04520700428576546
0.0129994 0.9854603762420852 -0.05234296749539273
0.0149993 0.9846723387303317 -0.05963400960380869
0.0169992 0.9841293916142393 -0.06630519058147735
0.0189991 0.9834109945328016 -0.0742490631079106
0.020999 0.9827636161266798 -0.08151794136603711
0.0229989 0.9818919522242785 -0.08905128131943943
0.0249988 0.9808446550202763 -0.09640699048347674
0.0269987 0.9800644069033162 -0.10364165000398397
0.0289986 0.9793149097895321 -0.1108362331644488
0.0309985 0.9782328986690003 -0.11852948087812612
0.0329984 0.9772748685783249 -0.1256168815648679
0.0349983 0.9760798946598015 -0.13333886211640503
0.0369982 0.9752114045630013 -0.14048318302289964
0.0389981 0.9736439071907308 -0.1483965316844074
0.040998 0.9727433053940681 -0.1549261493744959
0.0429979 0.9712830131050365 -0.16258393867976256
0.0449978 0.9698610339714413 -0.16999689708641727
0.0469977 0.9685364808985865 -0.1772958329426991
0.0489976 0.9670898151008782 -0.18450456062668072
0.0509975 0.9655219119097515 -0.19189854957221691
0.0529974 0.9638986940861746 -0.1990235899664615
0.0549973 0.962293130885369 -0.2069882342649868
0.0569972 0.9604936406671147 -0.2137538613582799
0.0589971 0.9586516806409489 -0.22107644023665418
0.060997 0.9568146650196704 -0.22839906150078834
0.0629969 0.9548664224759282 -0.235820217905686
0.0649968 0.9531513008586702 -0.24288339047719837
0.0669967 0.9512913079990833 -0.24991463970865713
0.0689966 0.9491804205635245 -0.2573244652961657
0.0709965 0.9472105826779805 -0.26455362866841897
0.0729964 0.945422689830257 -0.2719373280961378
0.0749963 0.942951370735392 -0.2790023396818573
0.0769962 0.9407564697568707 -0.28597729426765023
0.0789961 0.9386200476521819 -0.29291752073340827
0.080996 0.9362169051859962 -0.3002365317874729
0.0829959 0.9337796893995274 -0.3070092390969774
0.0849958 0.9316149418159352 -0.3141654268862705
0.0869957 0.9290954509424073 -0.3213358203276463
0.0889956 0.9262352129891624 -0.3284372660745085
0.0909955 0.924009092365539 -0.33538753613328603
0.0929954 0.9211355012023985 -0.3422312469892864
0.0949953 0.9186931158351088 -0.34905237570700504
0.0969952 0.9159531267428785 -0.35611995065678004
0.0989951 0.9132687649514482 -0.36285115351651875
0.100995 0.9103996458756042 -0.3694796562062008
0.1029949 0.9074666298826615 -0.3766592314784626
0.1049948 0.9047008156108579 -0.3831415548902403
0.1069947 0.9018810958237864 -0.38990855337493346
0.1089946 0.8988040389588571 -0.3966991915810435
0.1109945 0.8955211504688102 -0.40319955897120185
0.1129944 0.8921457355892446 -0.40978321697632886
0.1149943 0.8889599306512145 -0.41656545613085394
0.1169942 0.8858709599328748 -0.42299112664776556
0.1189941 0.8821940380188877 -0.42928900043864765
0.120994 0.8789438400946661 -0.4359422404411924
0.1229939 0.8752644077355264 -0.44254990766740393
0.1249938 0.8718529109500497 -0.44928241894286175
0.1269937 0.8685742600460131 -0.4557101545956959
0.1289936 0.864445884124902 -0.462190454882823
0.1309935 0.8609893579084399 -0.4682616764356302
0.1329934 0.8570577453491309 -0.47490277889250126
0.1349933 0.8533936172473406 -0.4811058933222251
0.1369932 0.8495894060173934 -0.4878431232295604
0.1389931 0.8454923469236306 -0.49406433071392536
0.140993 0.8415070758609899 -0.5003315841746659
0.1429929 0.8378998327309134 -0.5070546634923397
0.1449928 0.8338774541805786 -0.5132046236376454
0.1469927 0.829642399363595 -0.5193343400812231
0.1489926 0.825551719571707 -0.5256078955137812
0.1509925 0.8217035130978791 -0.5320288892416591
0.1529924 0.8175832265608721 -0.5380072946934793
0.1549923 0.8136334910058386 -0.5443291822357879
0.1569922 0.809649098841518 -0.5506310747563672
0.1589921 0.8054840929990353 -0.5565633088821625
0.160992 0.8007734885539971 -0.5625293322196453
0.1629919 0.7967297020937685 -0.5681534110727084
0.1649918 0.7925151114702789 -0.5740313908224904
0.1669917 0.7883028726740713 -0.5797996086013572
0.1689916 0.7840094653674384 -0.5856836782721411
0.1709915 0.7797243994045563 -0.5912641813045791
0.1729914 0.775205026088606 -0.5973196119390518
0.1749913 0.7705650177179834 -0.6029976934423071
0.1769912 0.7663635491512684 -0.608359843599393
0.1789911 0.7617005620855893 -0.6141027762976523
0.180991 0.7570578139446361 -0.6195807193883911
0.1829909 0.752400361568372 -0.6249723089288379
0.1849908 0.747646747479424 -0.6303121421118157
0.1869907 0.7428697289300051 -0.6358470199421229
0.1889906 0.7382474713542606 -0.6405728666972548
0.1909905 0.7333498098494462 -0.6457901018703682
0.1929904 0.7280990245623695 -0.6509500425216681
0.1949903 0.7231552393729005 -0.6559959987264005
0.1969902 0.7178146040275387 -0.6607394850322563
0.1989901 0.7130421231114881 -0.666035230254036
0.20099 0.7076877167414546 -0.6712990750258889
0.2029899 0.7023214045979099 -0.6763828246318304
0.2049898 0.6972793967959012 -0.6814233785288761
0.2069897 0.6918660537093129 -0.6863882891709915
0.2089896 0.6866199028565074 -0.6911444850208421
0.2109895 0.6811129879038246 -0.6959638494716746
0.2129894 0.6757387517627356 -0.7007931146191118
0.2149893 0.6704155748203746 -0.7061366297511881
0.2169892 0.6646601084579485 -0.7110058362554887
0.2189891 0.6592947667503875 -0.715776606951975
0.220989 0.6536428486523516 -0.7206797575272175
0.2229889 0.6483318249328659 -0.7249947541863211
0.2249888 0.642461283791223 -0.7297585434973798
0.2269887 0.6372004473009005 -0.734607070391207
0.2289886 0.6319001010105608 -0.7390699346805105
0.2309885 0.6264598878137206 -0.7439003708942049
0.2329884 0.6206016920867159 -0.7485028698844652
0.2349883 0.6150763430748314 -0.7529391762922496
0.2369882 0.6094461749281836 -0.7576793150701291
0.2389881 0.603598598676379 -0.7619436267135062
0.240988 0.5981253532330343 -0.7663310652233654
0.2429879 0.5927477267172442 -0.7706585147374463
0.2449878 0.5867003805064381 -0.774949468506927
0.2469877 0.5811839812053118 -0.7788560867977442
0.2489876 0.5753255612544973 -0.7830289450833824
0.2509875 0.5698958851649721 -0.7870710604319958
0.2529874 0.564136278666209 -0.7911125821050193
0.2549873 0.5585401156213388 -0.795219038936004
0.2569872 0.552756095171611 -0.7988704786224864
0.2589871 0.5468591937254645 -0.802238885934396
0.260987 0.540804636987923 -0.806225274075463
0.2629869 0.5351514182520316 -0.8100679153600766
0.2649868 0.5291781499967784 -0.8131618811151031
0.2669867 0.5232768774734373 -0.8171001390901742
0.2689866 0.5169824027043363 -0.8204080357395857
0.2709865 0.5109333833781348 -0.8238686180387805
0.2729864 0.5047561927606937 -0.8270471281299573
0.2749863 0.4989933850827711 -0.8308350965219559
0.2769862 0.4926538125451028 -0.8339070109295316
0.2789861 0.48625563561877255 -0.8371598108522507
0.280986 0.4797606722955521 -0.8405015325736352
0.2829859 0.4737670654217994 -0.8437927739199872
0.2849858 0.46760364401847676 -0.8467577012177839
0.2869857 0.4610817972311077 -0.8499029340228321
0.2889856 0.45441764063522955 -0.8529409453063642
0.2909855 0.4483548791764251 -0.8561487822359778
0.2929854 0.4419102368259093 -0.859088876872596
0.2949853 0.4353868092403101 -0.8622594796980982
0.2969852 0.42916450714161447 -0.8653016201501058
0.2989851 0.4226580265894919 -0.8684857531942773
0.300985 0.4168375396241924 -0.8710053212375539
0.3029849 0.41053778330524043 -0.874146448298604
0.3049848 0.40368512258930855 -0.8768513370305253
0.3069847 0.3971695853590744 -0.8797552270647993
0.3089846 0.391069927184581 -0.8827095332947381
0.3109845 0.3849422359566193 -0.885251109053629
0.3129844 0.378073212879893 -0.8880520547942683
0.3149843 0.37214299875981977 -0.8903806879661199
0.3169842 0.3659735002715282 -0.8929668384276653
0.3189841 0.3594438653279769 -0.8955719710674122
0.320984 0.3530796282011046 -0.8976259784338751
0.3229839 0.34652500174699674 -0.8996711246477673
0.3249838 0.34002454353006345 -0.9022235348781772
0.3269837 0.33403691367603466 -0.904427146269811
0.3289836 0.327812859931641 -0.9068411798079329
0.3309835 0.32145241481154413 -0.9087263370896319
0.3329834 0.31450914620073633 -0.9109744928478714
0.3349833 0.30805075948151156 -0.9127007893431389
0.3369832 0.3019327477638579 -0.9145804932707994
0.3389831 0.29547858909883984 -0.9163795118477873
0.340983 0.2888179260433542 -0.9183248296919518
0.3429829 0.2823556072814966 -0.9196190206035062
0.3449828 0.27604205520190994 -0.9216265224165592
0.3469827 0.26938855926510274 -0.923293675522126
0.3489826 0.2629937816425834 -0.9247441115536998
0.3509825 0.2566003467694692 -0.9260501213093881
0.3529824 0.24991555826688358 -0.9277009377810431
0.3549823 0.24320474842994605 -0.9288485929482204
0.3569822 0.2364322765366763 -0.930309759517804
0.3589821 0.22949612503072986 -0.931570595418579
0.360982 0.22318168483635176 -0.9329069346963762
0.3629819 0.21675129064703363 -0.9339393107668249
0.3649818 0.20988158223585043 -0.934992184050109
0.3669817 0.20312544802021146 -0.9361309996559106
0.3689816 0.19603447567347204 -0.937252087639924
0.3709815 0.18935235708548084 -0.9387792870464678
0.3729814 0.18265622249990152 -0.9395173724996344
0.3749813 0.17614631434386052 -0.9409321667490154
0.3769812 0.16965031947631193 -0.9418196931460557
0.3789811 0.1628767105579464 -0.9429298747443662
0.380981 0.1559424140154647 -0.9440152865695847
0.3829809 0.1494057299459539 -0.9449249446922174
0.3849808 0.1427448734663384 -0.9457036915597367
0.3869807 0.13618686652843803 -0.9469655117463395
0.3889806 0.12918843613262684 -0.9474236138339416
0.3909805 0.12307736103336063 -0.9482288340351499
0.3929804 0.11637255467123817 -0.9487395207737309
0.3949803 0.10954445417945691 -0.9493571133852406
0.3969802 0.10333051842135352 -0.9502312009553417
0.3989801 0.09710266879322757 -0.9510143407101971
0.40098 0.09039260742927296 -0.9511493363816961
0.4029799 0.08417834434414251 -0.9518353929486323
0.4049798 0.07733908418153812 -0.9518436122840962
0.4069797 0.07119354187210762 -0.9525457647982839
0.4089796 0.06446269501430976 -0.9526790420320254
0.4109795 0.05816241291198021 -0.95249373528564
0.4129794 0.051657986930652426 -0.9526561451276896
0.4149793 0.04522769477887441 -0.9527801561451537
0.4169792 0.03858505645653036 -0.9528329715561572
0.4189791 0.03210899845880308 -0.9530987613240558
0.420979 0.025900802227435255 -0.9527892768371201
0.4229789 0.019450496611080708 -0.9528838763350268
0.4249788 0.01302846837734938 -0.952415853833537
0.4269787 0.006631693354453998 -0.9520952093435595
0.4289786 0.0001200862354683585 -0.9517049622029767
0.4309785 -0.0064233069722310215 -0.9519529558957502
0.4329784 -0.013206871919356683 -0.9507020389782643
0.4349783 -0.019982765684379816 -0.9505861439251352
0.4369782 -0.02561100590663873 -0.9502672999976276
0.4389781 -0.03240875926253152 -0.9499591059277831
0.440978 -0.03863409011672181 -0.9495461393762243
0.4429779 -0.04547442428227719 -0.9487483446836528
0.4449778 -0.052003066599464604 -0.9482351023172833
0.4469777 -0.05871351898729023 -0.947625430297767
0.4489776 -0.06472229861616424 -0.9472771540444395
0.4509775 -0.07116414019425571 -0.9462714175663023
0.4529774 -0.07770081117281025 -0.9453894979439916
0.4549773 -0.08404722580522303 -0.9450704408370932
0.4569772 -0.09047043207901674 -0.9440397948766541
0.4589771 -0.0965881868134094 -0.9432543328377787
0.460977 -0.10281393974534463 -0.9423334819379776
0.4629769 -0.10916002826215473 -0.9413320817880431
0.4649768 -0.11567855054017628 -0.9404082320596102
0.4669767 -0.12169079564078424 -0.9392775481301007
0.4689766 -0.12794384462792846 -0.9386488080966907
0.4709765 -0.13388248973394443 -0.9372364876823212
0.4729764 -0.1402104906594382 -0.9363066153166821
0.4749763 -0.14654392507394748 -0.9349783264404824
0.4769762 -0.15215875686804653 -0.9335607838192884
0.4789761 -0.15880952706323856 -0.9323107220508737
0.480976 -0.16413825529277296 -0.9309056141563611
0.4829759 -0.170500035545038 -0.9297154965046529
0.4849758 -0.17678701724530613 -0.9285420407225795
0.4869757 -0.18321353344719185 -0.9270919864193947
0.4889756 -0.18911307167619146 -0.9252306110359201
0.4909755 -0.19496800663961167 -0.9233960183536029
0.4929754 -0.20143882386466497 -0.9220921848897288
0.4949753 -0.20752780767314502 -0.919994078241214
0.4969752 -0.21397645357982054 -0.9185262919058121
0.4989751 -0.21931877488856125 -0.9159198860964998
0.500975 -0.22564932899976892 -0.9144989688125035
0.5029749 -0.2317825549205674 -0.9123601031911901
0.5049748 -0.23805356668136646 -0.9108159027875403
0.5069747 -0.24406470026446755 -0.9089827834402882
0.5089746 -0.25025016120895505 -0.9070415022853413
0.5109745 -0.2562263933183034 -0.9051921167097109
0.5129744 -0.26211993074809825 -0.9034752218950627
0.5149743 -0.2681664036399118 -0.9017101678307058
0.5169742 -0.27404049704040945 -0.9001377744515741
0.5189741 -0.27986381917493447 -0.8982553847309236
0.520974 -0.28587009164518107 -0.8958346143102272
0.5229739 -0.29175151891313666 -0.8943009755789673
0.5249738 -0.2975107288024349 -0.8917370708209482
0.5269737 -0.30349188137805244 -0.8899931681124023
0.5289736 -0.30948066785385064 -0.8879005848234471
0.5309735 -0.31519731677066704 -0.8854761414898399
0.5329734 -0.320555383008097 -0.8833617928498299
0.5349733 -0.3265246642460304 -0.8812836818071685
0.5369732 -0.3321405327062627 -0.8791723055437901
0.5389731 -0.3373563237590429 -0.8769073419148946
0.540973 -0.3432625151562229 -0.8744011127379077
0.5429729 -0.34884519964471433 -0.8717684873469244
0.5449728 -0.3540386463854915 -0.8695818305274422
0.5469727 -0.3594623518898859 -0.8673748229400419
0.5489726 -0.36487867185682105 -0.8646130030277948
0.5509725 -0.3701433528303167 -0.8617870718904274
0.5529724 -0.37559332013080504 -0.8598910754937866
0.5549723 -0.38110858251145935 -0.8573021436682833
0.5569722 -0.38646593710450733 -0.8542209678780599
0.5589721 -0.39148312417476083 -0.8514767671165582
0.560972 -0.39625922472688 -0.8482065001450483
0.5629719 -0.40181156716341676 -0.8456130733673135
0.5649718 -0.40702391372063096 -0.8419881451241055
0.5669717 -0.41256245003223596 -0.8391290468553398
0.5689716 -0.41732739103484356 -0.8360075616897308
0.5709715 -0.42265070792241627 -0.8328080590973286
0.5729714 -0.427658303582926 -0.8303407965071197
0.5749713 -0.4330006385437031 -0.8266216101076085
0.5769712 -0.4386189286548133 -0.82335956512307
0.5789711 -0.44378299828438095 -0.820216261930903
0.580971 -0.4491193453792431 -0.8172414128062033
0.5829709 -0.45495460000063526 -0.8138755230677476
0.5849708 -0.45970391798723004 -0.8110035869471819
0.5869707 -0.4653698653171599 -0.8079988108953073
0.5889706 -0.4705227757866534 -0.8046520665315774
0.5909705 -0.4754856743408953 -0.8012551039124687
0.5929704 -0.48033094012788746 -0.7980368468648538
0.5949703 -0.48574034412562034 -0.7948769494348484
0.5969702 -0.4903445903962096 -0.7919958161856216
0.5989701 -0.4955421644823776 -0.7883531265398435
0.60097 -0.5007190412545881 -0.7852979469217454
0.6029699 -0.5056083621780894 -0.7818839958439148
0.6049698 -0.5104630263057307 -0.7786727575836098
0.6069697 -0.5153992342926162 -0.7753008326171826
0.6089696 -0.5204462332694738 -0.7716899353099365
0.6109695 -0.5248311611862574 -0.7685505922489546
0.6129694 -0.5295735189881337 -0.7653587305385241
0.6149693 -0.5342784877246545 -0.7617263063383172
0.6169692 -0.539380808659943 -0.758145840585638
0.6189691 -0.5435533043103877 -0.7549681621767371
0.620969 -0.5479920569530724 -0.7515939732373474
0.6229689 -0.5525544261259905 -0.7478735888330359
0.6249688 -0.5569339072271486 -0.7442233389940434
0.6269687 -0.5615006321165299 -0.7404702266937158
0.6289686 -0.5660681380329382 -0.7368871067777123
0.6309685 -0.5701270291369122 -0.7328978910439019
0.6329684 -0.5742181977460521 -0.7290260874250021
0.6349683 -0.5788136487618072 -0.7246308444558366
0.6369682 -0.5828069731634817 -0.7210754135759314
0.6389681 -0.5870717699682729 -0.716762992582576
0.640968 -0.5914963572366825 -0.7123499911104068
0.6429679 -0.595699960979205 -0.7082044069066566
0.6449678 -0.6001572279282398 -0.7040112604600859
0.6469677 -0.6048992066414949 -0.6999316937811677
0.6489676 -0.609439482584947 -0.6959924782691531
0.6509675 -0.6133032506797942 -0.6912690851799524
0.6529674 -0.6178315343662901 -0.6875650555001632
0.6549673 -0.6218888451804677 -0.6836576284015449
0.6569672 -0.6261665665592525 -0.6796956326810666
0.6589671 -0.6309204129328084 -0.6755769377336506
0.660967 -0.6351697292533438 -0.6712353510796937
0.6629669 -0.6392145857761035 -0.6670353669164177
0.6649668 -0.6435995409764308 -0.663073692564511
0.6669667 -0.6475598550569246 -0.6592332420892668
0.6689666 -0.651983689959993 -0.6548941499817622
0.6709665 -0.655918762840644 -0.6508417755421267
0.6729664 -0.6601225664950169 -0.6459577104901725
0.6749663 -0.6634457719436376 -0.6416254908698197
0.6769662 -0.6674857415976627 -0.6379437484980239
0.6789661 -0.6715519840480731 -0.633575251231071
0.680966 -0.6751314228899263 -0.6296201852077487
0.6829659 -0.6791484818590428 -0.6253209766824128
0.6849658 -0.6829683810269767 -0.6212010922696775
0.6869657 -0.6863454769158658 -0.6165086482583381
0.6889656 -0.6902216452654579 -0.612534216884389
0.6909655 -0.694109847953475 -0.6083504187674585
0.6929654 -0.6975764058762995 -0.6041028899347946
0.6949653 -0.7008919564227712 -0.5997553241605493
0.6969652 -0.7044825983586551 -0.5958385946723372
0.6989651 -0.7078909455326091 -0.5913462595369705
0.700965 -0.7115225284730061 -0.5868592024567837
0.7029649 -0.714256560703465 -0.5822001901470476
0.7049648 -0.7178410939837325 -0.5777931231610112
0.7069647 -0.7209576503581956 -0.5731788340228673
0.7089646 -0.7238700915874254 -0.5685189898298166
0.7109645 -0.7272925909115902 -0.563833970047041
0.7129644 -0.7300354098392907 -0.5590506000627695
0.7149643 -0.7333271581447491 -0.5543090800478745
0.7169642 -0.7364982648008351 -0.5493110559228955
0.7189641 -0.7394970189569822 -0.5446614010305758
0.720964 -0.7427717549484644 -0.5397325300385866
0.7229639 -0.7460536162495242 -0.5351811908433443
0.7249638 -0.7492680490756133 -0.5302813207100816
0.7269637 -0.7519736211271303 -0.525032936004923
0.7289636 -0.7550153854746156 -0.5203798487185194
0.7309635 -0.7585427759709126 -0.5150086053482739
0.7329634 -0.761583846541145 -0.51042213044404
0.7349633 -0.7646470384707147 -0.5056454865666686
0.7369632 -0.7678385289131223 -0.5003366997652157
0.7389631 -0.7707261816836932 -0.4955573242272674
0.740963 -0.7739156145957394 -0.49059983151534203
0.7429629 -0.7770015795954198 -0.48579994271784704
0.7449628 -0.779715761848616 -0.48099240177015146
0.7469627 -0.7828792380455186 -0.47628360280447934
0.7489626 -0.7856854302083203 -0.4708389837815935
0.7509625 -0.7882737480540715 -0.4661800898393353
0.7529624 -0.7916309092758025 -0.4611252188669924
0.7549623 -0.7942585585172113 -0.4566293040382243
0.7569622 -0.7970873650650497 -0.4514603346071323
0.7589621 -0.799191283972456 -0.4468101420887048
0.760962 -0.8020842794169711 -0.44149323741634433
0.7629619 -0.8044618184881445 -0.4367661812042157
0.7649618 -0.80719606256506 -0.43172846065842374
0.7669617 -0.8095743931806701 -0.4271100150795154
0.7689616 -0.8116414679609396 -0.42184257000266734
0.7709615 -0.8141858444275616 -0.4171737030321007
0.7729614 -0.8167926474941125 -0.4118435639123529
0.7749613 -0.8187965643977382 -0.407060035612077
0.7769612 -0.820572858080156 -0.40196613437254564
0.7789611 -0.8234218388503499 -0.3969825005687882
0.780961 -0.8254892352716294 -0.39205748578425664
0.7829609 -0.8280762627767029 -0.38669978944620725
0.7849608 -0.8295824724065781 -0.3818120977064605
0.7869607 -0.8319124207743822 -0.376346295070962
0.7889606 -0.8344000776031508 -0.3711765764514894
0.7909605 -0.8358186439551023 -0.3663755249948079
0.7929604 -0.8379806847083328 -0.36063864546416335
0.7949603 -0.839857953328971 -0.3554776118803536
0.7969602 -0.8421848252750589 -0.35037168341562597
0.7989601 -0.8438976958758326 -0.3449951264365484
0.80096 -0.8454695526819157 -0.3398549044623643
