! Created with skrf 1.8.0 (http://scikit-rf.org).
# GHz S RI R 50.0 
!freq ReS11 ImS11
0.001 -0.9434753769627439 0.0056206220439292826
0.0029999 -0.9432093392977 0.013166256288598535
0.0049998 -0.9422896717706881 0.02079121015695673
0.0069997 -0.9412282219281526 0.028072377775218933
0.0089996 -0.9406580796294337 0.03585195704215885
0.0109995 -0.9401472525249487 0.043109890338433196
0.0129994 -0.9395222027852329 0.05073920552240874
0.0149993 -0.9385491496935375 0.05819672645787606
0.0169992 -0.9378620429537707 0.06536639484740933
0.0189991 -0.9369018672359914 0.07281757089534087
0.020999 -0.9360329311771451 0.08002401276526916
0.0229989 -0.9349934391835578 0.08736593797054307
0.0249988 -0.9336166522183507 0.09467237847302014
0.0269987 -0.9329030746318955 0.10220135572551395
0.0289986 -0.9318391733291679 0.10922628622673117
0.0309985 -0.9307357244998823 0.1165472583015407
0.0329984 -0.92934302005765 0.12349475433009859
0.0349983 -0.9281467693299265 0.1311890761334221
0.0369982 -0.9268968832987798 0.13856839412472258
0.0389981 -0.9254221849577424 0.14559150812182656
0.040998 -0.9243903250359069 0.15241478113022325
0.0429979 -0.9223895128718773 0.15989525798453408
0.0449978 -0.9212838053041766 0.16659757204483588
0.0469977 -0.919689130051704 0.173948114156892
0.0489976 -0.9180183951789036 0.18093585261082923
0.0509975 -0.916258602144115 0.18810995651293333
0.0529974 -0.9147960116809591 0.19524020677210013
0.0549973 -0.9128481810934777 0.20228959448691197
0.0569972 -0.9111220298483936 0.2091159002265148
0.0589971 -0.9091935548774966 0.21603205807456854
0.060997 -0.9073496919950608 0.22291710557978317
0.0629969 -0.9056414586777586 0.2298639342344006
0.0649968 -0.9034737171679283 0.23660632829260325
0.0669967 -0.901652241260058 0.24343359252392377
0.0689966 -0.8993527925531898 0.2503617588521623
0.0709965 -0.8970928101019615 0.2572857607355263
0.0729964 -0.895229775330652 0.2640450431831237
0.0749963 -0.892959071392641 0.2706096686587203
0.0769962 -0.8902150577652378 0.2775923267340592
0.0789961 -0.8879052047333101 0.28423811949405126
0.080996 -0.8856377838977548 0.29105400545478666
0.0829959 -0.8831886040510578 0.29784657055018815
0.0849958 -0.88049885579935 0.3042286641772514
0.0869957 -0.8779278567663606 0.31095879867591314
0.0889956 -0.8751191454707469 0.3177645499408163
0.0909955 -0.8726325859620367 0.32444554502608614
0.0929954 -0.8698414924153053 0.3307377852159741
0.0949953 -0.8671978090483641 0.33719318120400876
0.0969952 -0.8643618717549357 0.3439094596938585
0.0989951 -0.8613458462320783 0.3507266256642445
0.100995 -0.8584015807865725 0.3570615134139832
0.1029949 -0.8553739883821603 0.3632597796922308
0.1049948 -0.8524991507372734 0.3699030998971058
0.1069947 -0.8494132687865642 0.3765942831986581
0.1089946 -0.8464179540369077 0.3832413679499331
0.1109945 -0.8432751507163625 0.3896039695161869
0.1129944 -0.8400141768329764 0.39592501191576857
0.1149943 -0.8370695639692453 0.40238911284555595
0.1169942 -0.8336775085073622 0.4088837556828224
0.1189941 -0.8305279368249602 0.4152399133230589
0.120994 -0.8271766708607646 0.42142857866360817
0.1229939 -0.8239266160606842 0.42757257374745006
0.1249938 -0.820779044822875 0.4339041171301176
0.1269937 -0.8173488902206055 0.4403094859891379
0.1289936 -0.8140539481986624 0.4464266908639925
0.1309935 -0.810259583173187 0.4523945852663134
0.1329934 -0.8067821323333563 0.45848030057973177
0.1349933 -0.8033342463856452 0.4646102699737345
0.1369932 -0.7994961456465701 0.47071999672719517
0.1389931 -0.796150683400249 0.47675821553743936
0.140993 -0.7922629237153783 0.4826146917919423
0.1429929 -0.788880501866335 0.4886911468519576
0.1449928 -0.7846150078235669 0.49447300902794894
0.1469927 -0.7809644516352034 0.5001655261306285
0.1489926 -0.7768584950143309 0.5059699913312276
0.1509925 -0.7729428025680127 0.5115684983648521
0.1529924 -0.7688808746228664 0.5171026844312114
0.1549923 -0.7643840986832345 0.5228596873247767
0.1569922 -0.7600420547828574 0.5283374230092213
0.1589921 -0.7561819252330301 0.5344319822523073
0.160992 -0.7514926456256864 0.540059338791946
0.1629919 -0.7475552855582321 0.5458995469202376
0.1649918 -0.7429760992390765 0.5513945044124401
0.1669917 -0.738408345334651 0.556750946132657
0.1689916 -0.7342084965086149 0.5625587413630618
0.1709915 -0.7297540128867648 0.5680190554827459
0.1729914 -0.7247070710884586 0.573362196405618
0.1749913 -0.7202138164605119 0.5789048927313855
0.1769912 -0.7154301631080922 0.5843385738537443
0.1789911 -0.7107942515180631 0.5902558966018673
0.180991 -0.7060251920043141 0.5956470396947522
0.1829909 -0.7014476549053967 0.6008879871720705
0.1849908 -0.6967043531481746 0.6064459612490077
0.1869907 -0.6919592936363206 0.6122731175716661
0.1889906 -0.6865646736670518 0.6176456124529998
0.1909905 -0.6815919534023345 0.6230978624337178
0.1929904 -0.6769837279272989 0.6284727418794058
0.1949903 -0.6722759502546088 0.6336847950215688
0.1969902 -0.6677115217858255 0.638983413603924
0.1989901 -0.6628052506922669 0.6440886076862026
0.20099 -0.6581055072859255 0.6493516524062938
0.2029899 -0.6529151355459734 0.6543709762773928
0.2049898 -0.6473450639367958 0.6592607561931034
0.2069897 -0.6423646061483078 0.6643293909502871
0.2089896 -0.6372126915594415 0.6690935861591808
0.2109895 -0.6323198711724741 0.6740562480478136
0.2129894 -0.6269537017873161 0.6789074891044642
0.2149893 -0.6220166484406223 0.6838703431995274
0.2169892 -0.6167158610361358 0.6883676864473889
0.2189891 -0.6113312560027923 0.6931905058920128
0.220989 -0.6058669208125874 0.6976523413610146
0.2229889 -0.600465092989079 0.7022956697577534
0.2249888 -0.5950681434681545 0.7068181606479962
0.2269887 -0.5895713115212494 0.711228275089419
0.2289886 -0.5839376063277881 0.7156660765900075
0.2309885 -0.5783809975102164 0.7198309619891389
0.2329884 -0.5725875116117843 0.7242042273734071
0.2349883 -0.5668957526855037 0.7286771778913281
0.2369882 -0.5613335439594954 0.7328444371167182
0.2389881 -0.5553299593770454 0.7370972167310813
0.240988 -0.5494301054116093 0.7409808076569689
0.2429879 -0.5434552074005546 0.7452428940535276
0.2449878 -0.5374274010929987 0.7492555123986463
0.2469877 -0.5317619373834913 0.7532174176122164
0.2489876 -0.5255266184472294 0.7574768476065509
0.2509875 -0.5193502546739132 0.7613994812144764
0.2529874 -0.513164627666947 0.7656305295846227
0.2549873 -0.5069167608413426 0.7695065788073993
0.2569872 -0.5007910944566227 0.7736822493340864
0.2589871 -0.4944590202919774 0.777944991431807
0.260987 -0.48826201218370685 0.7817073609273281
0.2629869 -0.4819944760311597 0.7855908826909606
0.2649868 -0.47598151572543285 0.7894174319758778
0.2669867 -0.46950084745715076 0.793261941958077
0.2689866 -0.46342704760896597 0.7970050513519892
0.2709865 -0.4569476094011002 0.8004123454218015
0.2729864 -0.45044575089693134 0.8044319376108737
0.2749863 -0.4442398579181219 0.8079898875265507
0.2769862 -0.4379088550911868 0.8118256430634165
0.2789861 -0.4315111228653859 0.8150610790653616
0.280986 -0.42495837105858575 0.8185727522718353
0.2829859 -0.41867634786038427 0.8219585725167298
0.2849858 -0.41228123550705603 0.8253231718359576
0.2869857 -0.40576103339376646 0.8284057306734085
0.2889856 -0.3993309306218042 0.8317715493425532
0.2909855 -0.39281082398378203 0.8351839218595646
0.2929854 -0.3862903145750318 0.838159080491561
0.2949853 -0.3798730125434947 0.8411004563865585
0.2969852 -0.37306055236592495 0.8439897514348212
0.2989851 -0.3661943089681146 0.8466373607097814
0.300985 -0.3592781730787755 0.8493312005809094
0.3029849 -0.35278661437623393 0.8521983178351613
0.3049848 -0.34600670716365384 0.8549605674863228
0.3069847 -0.338929155056193 0.8571331290751878
0.3089846 -0.3322744976334415 0.8598045196492023
0.3109845 -0.32528492065949993 0.8624675121914933
0.3129844 -0.31846672283554645 0.8644931499039712
0.3149843 -0.3112757609927396 0.8668606626464975
0.3169842 -0.3041900989047235 0.8694261810813456
0.3189841 -0.2972835714709049 0.8717719228177484
0.320984 -0.2895750419206141 0.8747174380816116
0.3229839 -0.282732086383957 0.8765057819604478
0.3249838 -0.2755804512892352 0.879090491847257
0.3269837 -0.2681633569617798 0.8813052291157402
0.3289836 -0.2611291348512276 0.8828830250448921
0.3309835 -0.2534287143738928 0.8852519520264852
0.3329834 -0.24628805515580135 0.8877104918149541
0.3349833 -0.2393409841335937 0.8890840158826885
0.3369832 -0.23199056358823889 0.8911513986666803
0.3389831 -0.22499555384926828 0.8932153135869781
0.340983 -0.2174952860700365 0.8950736501111711
0.3429829 -0.2101251833947058 0.8969795463091188
0.3449828 -0.20252585652843438 0.8990800756639458
0.3469827 -0.1953114344719112 0.9008305078992808
0.3489826 -0.1879562509785228 0.9026394640408945
0.3509825 -0.18059571462004873 0.9041137858950896
0.3529824 -0.17314500223996587 0.9060697073525196
0.3549823 -0.16593642740186612 0.9070275453396681
0.3569822 -0.15861562919221683 0.9085670525861587
0.3589821 -0.15088972477186552 0.909799339164565
0.360982 -0.1435486487490245 0.9112539476012005
0.3629819 -0.13602137248850102 0.9124414600023125
0.3649818 -0.12884809112619966 0.9135187498309953
0.3669817 -0.12115865238250556 0.9148488262825301
0.3689816 -0.11380971391818265 0.9158650190485921
0.3709815 -0.10668020695215738 0.9164311205247216
0.3729814 -0.09904974772661217 0.9176838412141035
0.3749813 -0.09179135719005536 0.9182783607046852
0.3769812 -0.0840951196752939 0.9193065015833931
0.3789811 -0.0768085305165912 0.9202215438693306
0.380981 -0.06916937930018421 0.9203175387922442
0.3829809 -0.061982109713569225 0.9207976278448636
0.3849808 -0.05405013786145824 0.9215650774311702
0.3869807 -0.046532992811618185 0.9220913918053474
0.3889806 -0.03920492217158803 0.9220757178402583
0.3909805 -0.03137330295520535 0.92231379585196
0.3929804 -0.02407877841574966 0.922388217763623
0.3949803 -0.016253735493186785 0.9226496091272938
0.3969802 -0.008044646745551689 0.9223294687415364
0.3989801 -0.00043234552074026406 0.9223473361688487
0.40098 0.007374392548573978 0.9224845751179087
0.4029799 0.014929395528117631 0.9221034182469602
0.4049798 0.023010568523090726 0.9222202034696455
0.4069797 0.030893569920243148 0.9219639332798591
0.4089796 0.038577916996596594 0.9217747501602642
0.4109795 0.04667260674366476 0.9214886788015092
0.4129794 0.054060756551777195 0.9213867081912265
0.4149793 0.06206441293089439 0.9204950894958371
0.4169792 0.07021126887878516 0.92044166594485
0.4189791 0.07740925314931081 0.9195409111287323
0.420979 0.0852664297322272 0.9192021090847305
0.4229789 0.09322499143334621 0.9181641293839178
0.4249788 0.10093332364311332 0.9176646566190482
0.4269787 0.10847303034426437 0.9167342861512561
0.4289786 0.11655073252303175 0.9159962554924909
0.4309785 0.124189284990854 0.9151384022869761
0.4329784 0.1317685061378808 0.91438493617349
0.4349783 0.13945981407517374 0.9132392958624866
0.4369782 0.14754754455509234 0.9118938927323724
0.4389781 0.15534339062054692 0.9107669454171546
0.440978 0.16297178722453273 0.9096620142028908
0.4429779 0.17048830275810545 0.9081160379438775
0.4449778 0.17851740117509857 0.9068948438100374
0.4469777 0.18588479370477945 0.905311231684771
0.4489776 0.1933414969077644 0.9037783392895716
0.4509775 0.20087268723919346 0.9021201954823608
0.4529774 0.20888898411672177 0.9003771229131717
0.4549773 0.21622688578653185 0.8988707207168816
0.4569772 0.2241858697916515 0.89729624215421
0.4589771 0.2319149665113675 0.8950521461891172
0.460977 0.23971618303098843 0.8929636501958946
0.4629769 0.24744714567284526 0.8907035974034593
0.4649768 0.2549812714571438 0.8886458280433904
0.4669767 0.26262855456796874 0.8862576220748662
0.4689766 0.2703864912036471 0.8842645079508092
0.4709765 0.27800889501149456 0.8816718776496432
0.4729764 0.2857535511461172 0.8799363416112028
0.4749763 0.29328257410239883 0.8772217755551023
0.4769762 0.30080616735328686 0.8748063610464636
0.4789761 0.30871509548166776 0.8724072187231803
0.480976 0.316400088177343 0.8697017890728058
0.4829759 0.32376698392364633 0.8670277637710708
0.4849758 0.3311342833551092 0.8647013194715321
0.4869757 0.3387845747548587 0.8612886389674916
0.4889756 0.34627845527724244 0.8588299968254607
0.4909755 0.3542316921326452 0.8560340711652288
0.4929754 0.36140640009185027 0.8531667657754972
0.4949753 0.36854148021832733 0.8502154396388677
0.4969752 0.37617788714905603 0.8467860131319307
0.4989751 0.3835430308223122 0.8440699868894872
0.500975 0.39065428933621754 0.8410828676033124
0.5029749 0.39785379608258453 0.837414029152187
0.5049748 0.4051266818613828 0.8341199269724171
0.5069747 0.4120412282227973 0.8308848543252809
0.5089746 0.4190856573028806 0.8272748802128963
0.5109745 0.4263976668950814 0.823420693440016
0.5129744 0.43372031711923886 0.8198789942609868
0.5149743 0.4409132576250691 0.8162130347596385
0.5169742 0.4477709553482999 0.8123237413452572
0.5189741 0.4548301988688668 0.8084896009455228
0.520974 0.46180915197543587 0.8043331220293086
0.5229739 0.4685630724344106 0.79997564472252
0.5249738 0.47600215705827265 0.7961746730988623
0.5269737 0.48249549170897166 0.7919065530836468
0.5289736 0.4893016265104656 0.7874314066705699
0.5309735 0.4966587182807354 0.7829057622390722
0.5329734 0.5034460941668529 0.7786307953051647
0.5349733 0.5099043750560823 0.773802663888194
0.5369732 0.5169292795452817 0.769110161670545
0.5389731 0.5235578038107134 0.7647254267065083
0.540973 0.5307457827671246 0.7599932274744328
0.5429729 0.5374672395673021 0.755257944928839
0.5449728 0.5443727323843813 0.7505745192122821
0.5469727 0.5511999103507211 0.7456855257168419
0.5489726 0.5579830056366362 0.740716479455653
0.5509725 0.5642092453431213 0.7357547751420968
0.5529724 0.5710558162592442 0.7308361467327175
0.5549723 0.5774479699904913 0.7255478289846312
0.5569722 0.5842774294102384 0.7203798891449781
0.5589721 0.590800892732241 0.7153323577962192
0.560972 0.5975226875964674 0.7101140781839892
0.5629719 0.6042656584484292 0.7051265256274599
0.5649718 0.6105620269918794 0.7002055513446851
0.5669717 0.6169159041150465 0.6950272476479405
0.5689716 0.6232575909870471 0.6896251729212269
0.5709715 0.6294633455517497 0.6841157376107047
0.5729714 0.6354205408368527 0.6782980026531684
0.5749713 0.6416377840094774 0.6729657889822699
0.5769712 0.6476428690120415 0.6674639369050891
0.5789711 0.6533848534288488 0.662008608161762
0.580971 0.6591705774346182 0.6566165547133792
0.5829709 0.6652090425234929 0.6506692522180892
0.5849708 0.670804520160116 0.6447543243450835
0.5869707 0.6764405221151223 0.6389996509006544
0.5889706 0.6820129880961472 0.6328887580017564
0.5909705 0.6876948523795133 0.6269384098937923
0.5929704 0.6934705149769325 0.6204117835659757
0.5949703 0.6983610597612735 0.6146372355942719
0.5969702 0.7038907457683041 0.6082781828299376
0.5989701 0.7096132088879243 0.6016083054970508
0.60097 0.7145208868869019 0.595208352679818
0.6029699 0.7203558888263154 0.5883972665758826
0.6049698 0.7252309814333795 0.5822626629608927
0.6069697 0.7301341926077045 0.575659430497456
0.6089696 0.7357609031961598 0.5693089304845266
0.6109695 0.7404678513770542 0.562221481139791
0.6129694 0.7456299272781252 0.5555289554220741
0.6149693 0.7508503500558354 0.5494218078575985
0.6169692 0.7561482978440426 0.5422569152321562
0.6189691 0.7612013655114569 0.5352625134360209
0.620969 0.765792099366473 0.5283611747203867
0.6229689 0.7705023366063687 0.5212138510872804
0.6249688 0.7754335498493297 0.5143613584278797
0.6269687 0.7803379786145885 0.5071700172835887
0.6289686 0.7850654193914645 0.500457456903348
0.6309685 0.7896007040745914 0.4929806813761451
0.6329684 0.7939456911257485 0.4861000401367165
0.6349683 0.7986572430130284 0.4789085740066321
0.6369682 0.8027489294167308 0.4716700307644886
0.6389681 0.8070705732937903 0.4647185053639204
0.640968 0.8118166399393479 0.4576733096311457
0.6429679 0.815855331941161 0.45014619674520784
0.6449678 0.8199385551073218 0.44303025720726485
0.6469677 0.8241098837609651 0.4355072333193296
0.6489676 0.827888578046553 0.4288179383608887
0.6509675 0.8317144799182784 0.42144610201854366
0.6529674 0.8358089345952205 0.41356408123120736
0.6549673 0.839445590781215 0.4064390466439235
0.6569672 0.8429190809660085 0.3986410185749575
0.6589671 0.8465815089787203 0.391064433665777
0.660967 0.849447418828478 0.3837283697004236
0.6629669 0.8533726366639796 0.375920872892259
0.6649668 0.8563375090510669 0.3684384821525353
0.6669667 0.8596847795684753 0.3602722645443282
0.6689666 0.8626727875298358 0.35310435934768253
0.6709665 0.8652224164045829 0.3448804216993046
0.6729664 0.8687944917323593 0.3369494395048197
0.6749663 0.8721613678235794 0.3294908986185575
0.6769662 0.8749655527827067 0.3213036452242797
0.6789661 0.8780796355768187 0.3131562030823301
0.680966 0.8806877104665479 0.3053254789110023
0.6829659 0.8833515625364438 0.2972314795056841
0.6849658 0.885902425227265 0.2891843285600728
0.6869657 0.8885618063470871 0.2810927638585603
0.6889656 0.8912446759608658 0.27274036348589226
0.6909655 0.8936896628435888 0.26490635570796306
0.6929654 0.8959088872609084 0.256447986739251
0.6949653 0.8981896211579561 0.24848950198938646
0.6969652 0.9004877487641455 0.23999840588355448
0.6989651 0.9026206880788771 0.2318740152481934
0.700965 0.9048202366491378 0.223539699082199
0.7029649 0.9067663581435781 0.21539712464538888
0.7049648 0.9088936451226909 0.20696910310898384
0.7069647 0.910850536145386 0.19882143615527273
0.7089646 0.9128745129948068 0.19058955826258406
0.7109645 0.914631079626877 0.18232847727242169
0.7129644 0.9162799249439756 0.17403936090624844
0.7149643 0.9178987841403421 0.1659748894240174
0.7169642 0.9194966624810538 0.15752817612110653
0.7189641 0.9211229200551706 0.14907096330518127
0.720964 0.9222710585456925 0.14084916759459892
0.7229639 0.9234449282962628 0.1328054954853606
0.7249638 0.9249000194738755 0.12445494547265595
0.7269637 0.9261978345655316 0.1161182141225163
0.7289636 0.9265313276515499 0.10790100239541181
0.7309635 0.9281512673608677 0.09899528636621155
0.7329634 0.9289320021968148 0.09081281350378739
0.7349633 0.9294655642175694 0.08294047633897744
0.7369632 0.9303876832346615 0.07416846866928091
0.7389631 0.9309750463675865 0.06590379304946897
0.740963 0.931197716143631 0.05757338430072158
0.7429629 0.9320825249758872 0.04891773741016784
0.7449628 0.9325115292212283 0.040700154209033876
0.7469627 0.9327161616152846 0.032103086964884335
0.7489626 0.9329283569106058 0.02361452843181005
0.7509625 0.9332585252815038 0.015196924786172746
0.7529624 0.9333845608611324 0.00678825197486789
0.7549623 0.9332894245331863 -0.001680910457056331
0.7569622 0.93301626192321 -0.01008949532208231
0.7589621 0.9329479190184736 -0.018424153745941564
0.760962 0.9330497626377823 -0.02683777242454688
0.7629619 0.9324641978840431 -0.035522136643929045
0.7649618 0.9322631212943344 -0.04376557879731094
0.7669617 0.931992648609702 -0.05234535708331258
0.7689616 0.9312293758910193 -0.06036604122026659
0.7709615 0.9306449401718022 -0.06915857135294609
0.7729614 0.9303031162516061 -0.07725296767115852
0.7749613 0.9293637732502509 -0.08593031854439209
0.7769612 0.9285110232499745 -0.09421333819174472
0.7789611 0.9280309840321299 -0.10254360806559251
0.780961 0.9267524358951469 -0.1108266215152016
0.7829609 0.9260823435355788 -0.1190314570950555
0.7849608 0.9246649528303348 -0.1272282144254245
0.7869607 0.923637332724915 -0.1355062599143043
0.7889606 0.9223045761863997 -0.14362956737585658
0.7909605 0.9208914339513427 -0.15208508286354203
0.7929604 0.9192642039550478 -0.1600798973595038
0.7949603 0.9177092181183317 -0.1684113735281834
0.7969602 0.9163519715958952 -0.17654874094327727
0.7989601 0.9146046480441579 -0.1850205180983586
0.80096 0.9129895685786412 -0.19259932601959645
0.8029599 0.9108179781929053 -0.20098123898157488
0.8049598 0.909156795126548 -0.2091899112733881
0.8069597 0.907185818180576 -0.21720008407271021
0.8089596 0.9048827524301702 -0.22592684720149453
0.8109595 0.90283090905368 -0.2332548760830682
0.8129594 0.9010018243875044 -0.24166082219655172
0.8149593 0.8982249725905046 -0.2498721935057464
