! Created with skrf 1.8.0 (http://scikit-rf.org).
# GHz S RI R 50.0 
!freq ReS11 ImS11
0.001 -0.9375324837387239 0.005595670429461944
0.0029999 -0.9371803177538125 0.013299252328694042
0.0049998 -0.9360257357106854 0.02074314981840332
0.0069997 -0.9354435649619472 0.028166901731640027
0.0089996 -0.9345306841906534 0.03603721963440044
0.0109995 -0.9341030409274883 0.043291250990095204
0.0129994 -0.9332787409200156 0.050973227400715956
0.0149993 -0.9324577755405674 0.0582943868956759
0.0169992 -0.9317257997077301 0.06560498713268928
0.0189991 -0.9305943962376195 0.07297301585734237
0.020999 -0.9298938138220801 0.08029107554440046
0.0229989 -0.9288139600496501 0.08760363746683306
0.0249988 -0.9273773649202809 0.09489873170230075
0.0269987 -0.926666657271804 0.10239175756933531
0.0289986 -0.9255986349035311 0.10946103726568232
0.0309985 -0.9243130560921431 0.11684306008445702
0.0329984 -0.922973502547854 0.12417513949839507
0.0349983 -0.9218269667106889 0.13139565157612984
0.0369982 -0.9205169321590341 0.13865614264480436
0.0389981 -0.9190688714324663 0.145788027691096
0.040998 -0.9178150820801549 0.15287518071825987
0.0429979 -0.9160538355258444 0.16008407246444165
0.0449978 -0.9147743800087603 0.16688149362363844
0.0469977 -0.9130491880257321 0.17408107438473563
0.0489976 -0.9114842475168139 0.1811338341100394
0.0509975 -0.9097495371139562 0.18830611361511804
0.0529974 -0.9083729345191811 0.19536756792182777
0.0549973 -0.9064795851439503 0.20229083431169576
0.0569972 -0.904568471933993 0.20924214096943905
0.0589971 -0.9026824104804657 0.21621186678728938
0.060997 -0.900649733491889 0.22303160025915633
0.0629969 -0.898807928942492 0.2299652857329486
0.0649968 -0.8967963283099223 0.2367301317325742
0.0669967 -0.8949485732752473 0.2435150712155937
0.0689966 -0.8926565171946458 0.2504919302831082
0.0709965 -0.8902749963720754 0.25730385411128603
0.0729964 -0.888374325523645 0.26409249597672513
0.0749963 -0.8860708995957021 0.270627945343331
0.0769962 -0.8833081512438159 0.2776020377650888
0.0789961 -0.8809757586119454 0.2842542531597131
0.080996 -0.8786938049241204 0.2910428731485766
0.0829959 -0.8762462295432968 0.297778764180334
0.0849958 -0.8735113982200263 0.30410616148869135
0.0869957 -0.8709244345323598 0.3108846965732171
0.0889956 -0.8680617273347121 0.31753324308358166
0.0909955 -0.8656078759579153 0.3242132107726441
0.0929954 -0.862661994517786 0.3307742518745265
0.0949953 -0.8598522749912241 0.33713451875983347
0.0969952 -0.8573282503813364 0.3437085824268249
0.0989951 -0.8540206536355659 0.35054139912001264
0.100995 -0.8512684949867387 0.3564606236471072
0.1029949 -0.8483131978687475 0.3632245478722058
0.1049948 -0.8453078874183682 0.36960796935544477
0.1069947 -0.842158939226473 0.3762378542830917
0.1089946 -0.8391059085306507 0.3827506687569347
0.1109945 -0.8359868913647532 0.38922477300771285
0.1129944 -0.8326742953141242 0.39549063716793664
0.1149943 -0.829689491041016 0.4019606869324206
0.1169942 -0.8262837510965584 0.4083302154916555
0.1189941 -0.823126306948807 0.4147132864290033
0.120994 -0.8197681839175819 0.4208251244128701
0.1229939 -0.8164537589818696 0.42713603024617736
0.1249938 -0.8133869992283945 0.4332283249007324
0.1269937 -0.8098064387742682 0.43967662778128136
0.1289936 -0.8065627277591957 0.4458078045491099
0.1309935 -0.8027646760687817 0.45159949715715875
0.1329934 -0.799258872987222 0.4577264337883076
0.1349933 -0.7957943608786666 0.4637253733994644
0.1369932 -0.792098211552264 0.469787089292818
0.1389931 -0.7885786385991344 0.47579501621672415
0.140993 -0.784642995291153 0.48173511461475477
0.1429929 -0.7811519396687978 0.4877168173330222
0.1449928 -0.7770967918034648 0.493391330949805
0.1469927 -0.7732719853428496 0.4993277231774268
0.1489926 -0.7689172539704523 0.5049470667401044
0.1509925 -0.7653875470916246 0.5106179955508517
0.1529924 -0.7610015324865999 0.5161795562042113
0.1549923 -0.7567922629152235 0.5217699883155704
0.1569922 -0.7524402311798836 0.5270647191249417
0.1589921 -0.7484256355558828 0.5332453614588307
0.160992 -0.7438936279927191 0.5387274553378065
0.1629919 -0.7396537927623092 0.5444973735864863
0.1649918 -0.7351711574753386 0.5500338270142577
0.1669917 -0.7307325293672936 0.5553200292077423
0.1689916 -0.7265672195532276 0.5610758257884183
0.1709915 -0.7217048702895663 0.5665489874330321
0.1729914 -0.7169607252827439 0.5718521982446024
0.1749913 -0.7127029657403778 0.5773742632428047
0.1769912 -0.7077101756265867 0.5827291701257744
0.1789911 -0.7031823771479643 0.5885304135087333
0.180991 -0.6982237726224301 0.5940085349202943
0.1829909 -0.6938149731473592 0.5991251411017333
0.1849908 -0.6890904505108334 0.6045446040619964
0.1869907 -0.6845508490319093 0.6103957526906869
0.1889906 -0.6789206943622952 0.6157381530887132
0.1909905 -0.6739937337209858 0.6211237949623005
0.1929904 -0.6696210291519228 0.6262870984342952
0.1949903 -0.664680565648335 0.6314972318957495
0.1969902 -0.6600818094808538 0.6367653681145163
0.1989901 -0.6551782800313453 0.6418260113655568
0.20099 -0.6503556734316646 0.6471539335527912
0.2029899 -0.6452697703739911 0.6519191069072456
0.2049898 -0.6398428621107554 0.6568365151828839
0.2069897 -0.6348796093273833 0.6618984110204732
0.2089896 -0.6296906012366963 0.6667239188766113
0.2109895 -0.6248252570340779 0.6714529483943485
0.2129894 -0.6196178380621976 0.6764102125554416
0.2149893 -0.6145547618335461 0.6810829316638717
0.2169892 -0.6091050938202897 0.685709704336254
0.2189891 -0.6039538206828248 0.6903950897366239
0.220989 -0.5984801846585612 0.6947618028731101
0.2229889 -0.5929881614258392 0.6992431088742982
0.2249888 -0.5877121535069468 0.7039034110348117
0.2269887 -0.582086882143528 0.7082935138497417
0.2289886 -0.5766592173106354 0.7124873991911582
0.2309885 -0.5709477646566381 0.7166303117132078
0.2329884 -0.5652985099548932 0.7209538065469263
0.2349883 -0.5597671391534933 0.7253655992215493
0.2369882 -0.5539575226720199 0.7295382614436006
0.2389881 -0.5480884191616275 0.7336689942462874
0.240988 -0.5421886634763532 0.7375454917868712
0.2429879 -0.5361995358178108 0.7417161916206289
0.2449878 -0.5302310177042842 0.7457142336446659
0.2469877 -0.5245886468597918 0.7496922973031961
0.2489876 -0.5183920316288808 0.7538634827925118
0.2509875 -0.5123053795283277 0.7578027382173823
0.2529874 -0.5060743107892955 0.761826242773671
0.2549873 -0.49985917135334046 0.7657796763557372
0.2569872 -0.49388428322534267 0.7699028500354317
0.2589871 -0.48758555388674124 0.7738336623707992
0.260987 -0.48129416797293745 0.7778316895988742
0.2629869 -0.47503326194795914 0.7816670422889523
0.2649868 -0.46905787877275057 0.7852412070338401
0.2669867 -0.4625054620248258 0.7891224696566338
0.2689866 -0.4565734941443008 0.7927848370342597
0.2709865 -0.45037075389049297 0.7963119188732621
0.2729864 -0.4435835325592255 0.7999882781612677
0.2749863 -0.43773950693121105 0.8036364882662137
0.2769862 -0.43113165279650234 0.8072996233731828
0.2789861 -0.42480786489547867 0.8106490457900826
0.280986 -0.4181340992265721 0.8140365741867659
0.2829859 -0.4120617670120261 0.8173891752677881
0.2849858 -0.4058673537469449 0.8208879299099056
0.2869857 -0.39918909879618764 0.8238730232446211
0.2889856 -0.39296882166000635 0.8270778721761777
0.2909855 -0.3863830176940854 0.830514212109952
0.2929854 -0.3797900915757173 0.8335125453796367
0.2949853 -0.3734344881280875 0.8363437430332679
0.2969852 -0.36667422255049736 0.8391296353402107
0.2989851 -0.35989415432319627 0.8418209069998853
0.300985 -0.35306530959020266 0.8444426489933216
0.3029849 -0.34648843434964866 0.847217445160575
0.3049848 -0.33981109404464754 0.849999632833675
0.3069847 -0.33284740250740674 0.8522259802002731
0.3089846 -0.32633150097112135 0.8546713086725102
0.3109845 -0.31951516713362227 0.8572996882750649
0.3129844 -0.3125507510211717 0.8594514175419526
0.3149843 -0.3055499887789882 0.8617605968650219
0.3169842 -0.29858283162593713 0.8642544489917827
0.3189841 -0.29143082009215154 0.8666528224870367
0.320984 -0.28399309517963295 0.8693648526679174
0.3229839 -0.27702807604271124 0.8714104812443939
0.3249838 -0.2699555820235354 0.8738225897568549
0.3269837 -0.26300728198022516 0.875923110026552
0.3289836 -0.255470847530084 0.877543899050685
0.3309835 -0.248265247682348 0.8797602687517159
0.3329834 -0.2410811453727236 0.8822489105668184
0.3349833 -0.23421320784265545 0.8835528659304012
0.3369832 -0.22692789661888368 0.8856671266491392
0.3389831 -0.22004177534727865 0.8876321370052385
0.340983 -0.21280354421213124 0.8895735730132712
0.3429829 -0.2052223232437556 0.8913738665259051
0.3449828 -0.19771427723075136 0.893380918105836
0.3469827 -0.1906697546524582 0.8951774323549815
0.3489826 -0.18345293582938807 0.8969206097634943
0.3509825 -0.1759677167446225 0.8983371620671751
0.3529824 -0.16860068700101008 0.9003082723757408
0.3549823 -0.16156067193163304 0.9012992895541586
0.3569822 -0.15443806132433685 0.9027698289857672
0.3589821 -0.14662555695726587 0.9040668552521531
0.360982 -0.1394150746905459 0.9052894266912567
0.3629819 -0.13187592438460136 0.9064312791099733
0.3649818 -0.12493937024003951 0.9074983208254568
0.3669817 -0.11739130585657209 0.9088392181367857
0.3689816 -0.11002864461709042 0.9096900210337739
0.3709815 -0.10302388433227277 0.9102996263370605
0.3729814 -0.0956551449339754 0.9115702139507227
0.3749813 -0.08806259170989518 0.9120694865185165
0.3769812 -0.08051631450641927 0.9131158727146522
0.3789811 -0.0733420132570397 0.9139544424418643
0.380981 -0.0658233705517372 0.9142699928714682
0.3829809 -0.05857654570459678 0.9148095471523534
0.3849808 -0.05085092246078453 0.9153307801346914
0.3869807 -0.04370786242187771 0.9158514784282089
0.3889806 -0.0361732072164973 0.9157227120624792
0.3909805 -0.028580059344742767 0.9161001076512888
0.3929804 -0.020992142364354545 0.9162584978244851
0.3949803 -0.01352106707038906 0.9164885060773624
0.3969802 -0.005185112534888726 0.9162629249767321
0.3989801 0.0020791337724285555 0.9160849586200475
0.40098 0.010042433365349147 0.9162878261407799
0.4029799 0.01736091610896064 0.9158654971567729
0.4049798 0.02549648897262477 0.9159604344767618
0.4069797 0.03311918015134965 0.9157866649760356
0.4089796 0.040567818137187295 0.9155841626965677
0.4109795 0.04884235200581231 0.9153002151834824
0.4129794 0.05619818494179133 0.9149239437426715
0.4149793 0.06400304864693004 0.9143656058215784
0.4169792 0.07210401536394738 0.9142008301546247
0.4189791 0.07935042907727262 0.9133364875757743
0.420979 0.08700658279154777 0.9127538404156232
0.4229789 0.0949199680919668 0.9117916885595123
0.4249788 0.10259377890656424 0.9111661202313168
0.4269787 0.11003544749789546 0.9103810241302046
0.4289786 0.11798969882713752 0.909748381355228
0.4309785 0.12524243317549452 0.9088887049534035
0.4329784 0.13304127018152792 0.9079951498553508
0.4349783 0.14062141082033688 0.9069479075438427
0.4369782 0.14872363120017307 0.9056471044611051
0.4389781 0.15633101882864395 0.9044589765293214
0.440978 0.16403639300652853 0.9035982372951733
0.4429779 0.17142687599778517 0.9019312988527649
0.4449778 0.17923052747682117 0.9005941455761279
0.4469777 0.1867643969274574 0.8991848114327254
0.4489776 0.193999379213588 0.897585826528013
0.4509775 0.20161708689974164 0.8959147985116798
0.4529774 0.20964457547604315 0.8944123663627861
0.4549773 0.21663652738558078 0.8928457608195376
0.4569772 0.22456989874672598 0.8911607829740604
0.4589771 0.2320261032209661 0.8889042070815828
0.460977 0.23997718565639906 0.8870591704039421
0.4629769 0.2475794625201568 0.8846120733858822
0.4649768 0.25508439533839705 0.882638952010918
0.4669767 0.26279879724558075 0.8801732853084877
0.4689766 0.27064032014372325 0.8783784302064332
0.4709765 0.27810284772938143 0.8756917051790499
0.4729764 0.28546046832445965 0.8739816296527737
0.4749763 0.29307509749445704 0.8714614529247864
0.4769762 0.30036482249247115 0.8691329648518287
0.4789761 0.30802872497431666 0.8667011466076968
0.480976 0.3158073723894075 0.8639385459988995
0.4829759 0.323089885391998 0.861368720692185
0.4849758 0.3307091900098709 0.8590994021612852
0.4869757 0.33804594618075046 0.8558572009717328
0.4889756 0.34568184454159834 0.8532473113308325
0.4909755 0.3533156143074906 0.8506978081824416
0.4929754 0.3604958252729987 0.8474718338300259
0.4949753 0.3676827563196366 0.8446104752937237
0.4969752 0.37513004714000353 0.8415187584433326
0.4989751 0.38244280796839153 0.8386421100284507
0.500975 0.3894198032859622 0.8357871340021377
0.5029749 0.3965127634088079 0.8322216027156739
0.5049748 0.4037605047658367 0.8290616389767818
0.5069747 0.41054788048049584 0.8256896448240514
0.5089746 0.4176439100710567 0.8221543726409727
0.5109745 0.4248226309620453 0.8184628813440971
0.5129744 0.4320392544181855 0.8150328724089222
0.5149743 0.4392145644548619 0.8113106147904907
0.5169742 0.4461140923617086 0.8073863283043283
0.5189741 0.45301908984550027 0.8036343309673044
0.520974 0.45984195997841093 0.7995744670660547
0.5229739 0.46665783701867514 0.7953506854651801
0.5249738 0.4739965513584466 0.791567317313309
0.5269737 0.4804522616326257 0.7873203891856473
0.5289736 0.48716974313601186 0.783001870147376
0.5309735 0.4944967554043683 0.7785314991850225
0.5329734 0.501018470277755 0.7741905685835503
0.5349733 0.5076767761884926 0.7696776750187578
0.5369732 0.5144097136502983 0.7650146958399059
0.5389731 0.5211888110678929 0.7607739863257406
0.540973 0.5283307791949261 0.7559392870018313
0.5429729 0.5348236498241653 0.7513341747089068
0.5449728 0.5418040789200809 0.7466686157808041
0.5469727 0.548572025088042 0.7418261189243642
0.5489726 0.5551008212927335 0.7370338399603645
0.5509725 0.5612612433710271 0.7321590569200733
0.5529724 0.5681039792156091 0.7271783041935067
0.5549723 0.5745867567629055 0.7219107965710699
0.5569722 0.5813482782001504 0.7169217968067272
0.5589721 0.5877980625497062 0.7120792053922976
0.560972 0.5944331046058265 0.706956544824127
0.5629719 0.6009137962142321 0.7019257394726643
0.5649718 0.6074628412343606 0.6968753260151739
0.5669717 0.6135976344171394 0.6919398450038674
0.5689716 0.6200451054000553 0.6861985510505753
0.5709715 0.6261549869005192 0.6810190075197223
0.5729714 0.6321166851429004 0.6753175092214186
0.5749713 0.6382508111593249 0.6701521392500305
0.5769712 0.6441684216471528 0.6646530586362671
0.5789711 0.6499797683181155 0.6592032191424853
0.580971 0.6559635846473677 0.6538192125688006
0.5829709 0.6619417844827945 0.6480597713357621
0.5849708 0.667274979281459 0.6422721013892911
0.5869707 0.6728963165399983 0.6365321455860303
0.5889706 0.6784683062412511 0.6302652126494526
0.5909705 0.683978745650378 0.6247346315016286
0.5929704 0.6899456437781963 0.6180215166438624
0.5949703 0.6947559066396694 0.6124043209860013
0.5969702 0.7004291362662534 0.6061182827665591
0.5989701 0.7058105167346039 0.5996485617783314
0.60097 0.7109119019128894 0.5932057683203542
0.6029699 0.7163106167566347 0.5866582766902233
0.6049698 0.7216089626467138 0.5802972754837555
0.6069697 0.7263806923567386 0.5739848641549091
0.6089696 0.7320270944394704 0.567571327658993
0.6109695 0.7366010540849566 0.5606190720726325
0.6129694 0.7420771257691744 0.5540493649253226
0.6149693 0.7471105307948709 0.5478349175889573
0.6169692 0.7523774461671571 0.5407917085268661
0.6189691 0.7571712285454105 0.5336290152277199
0.620969 0.7619793326014324 0.5269628903020951
0.6229689 0.7667173241083554 0.5198084052154377
0.6249688 0.7717177270582004 0.5130491386935871
0.6269687 0.7765161567047993 0.5061099835451395
0.6289686 0.7812824486257833 0.49937868057735696
0.6309685 0.7857530010344144 0.49211821723216365
0.6329684 0.7899688490234988 0.4852188753595419
0.6349683 0.794787603417438 0.4781045985660508
0.6369682 0.7990038421760209 0.4708812741820612
0.6389681 0.8033547049250209 0.46381215271752124
0.640968 0.8082786451527209 0.4567296412374922
0.6429679 0.8121020578616112 0.4494420428076043
0.6449678 0.816090346123772 0.442437469569251
0.6469677 0.820248837939388 0.43511237470050734
0.6489676 0.8242477031627651 0.4282690303585378
0.6509675 0.8279097334827262 0.4210550224369839
0.6529674 0.8320767473895087 0.4132796566253339
0.6549673 0.8355265513503939 0.40648494495654935
0.6569672 0.8391423506848495 0.3985273444483489
0.6589671 0.8426742024938088 0.39133829796452535
0.660967 0.8456478516448621 0.3832587956775754
0.6629669 0.8493252315109903 0.37611903783804423
0.6649668 0.8525165524093382 0.368404029859791
0.6669667 0.8557501145483581 0.3607093787361192
0.6689666 0.8589786400520514 0.3534941382996267
0.6709665 0.8615394708883494 0.3448710322582232
0.6729664 0.8651488103209657 0.3374484904511456
0.6749663 0.8683475448185463 0.32958108510838147
0.6769662 0.8711803498856977 0.3219551091186923
0.6789661 0.8743661938936609 0.3138792296774013
0.680966 0.8770588589751287 0.3061533388067148
0.6829659 0.87980865176897 0.2980061017656566
0.6849658 0.8824654695017703 0.29021134642910085
0.6869657 0.8849309472579814 0.2821374680532127
0.6889656 0.8875007476937267 0.27383398292902483
0.6909655 0.8901270413336025 0.26601253707019895
0.6929654 0.8925262521263392 0.2575492759045325
0.6949653 0.894782747178818 0.2496452649864826
0.6969652 0.8971562217560064 0.24133014543759587
0.6989651 0.8992918146402641 0.23314585701440774
0.700965 0.9014915448523771 0.22488848305424405
0.7029649 0.9034896989982502 0.21692637302487716
0.7049648 0.9057108830141627 0.2084709254040663
0.7069647 0.9076115624239162 0.20044722726109587
0.7089646 0.9096089019788401 0.19207135916658535
0.7109645 0.9113861695782378 0.18398800822673123
0.7129644 0.9131872924893002 0.17583007009248636
0.7149643 0.9147121486682964 0.16776200436426608
0.7169642 0.9163575528748804 0.1592138611130122
0.7189641 0.9179977035826646 0.15098004129810688
0.720964 0.9191949510287882 0.14278441913571654
0.7229639 0.9205490650608533 0.13449907876254402
0.7249638 0.9220121480939152 0.12643702318898678
0.7269637 0.9233088167343169 0.11780509168646291
0.7289636 0.9236448231416754 0.1100218874904956
0.7309635 0.9252992950912468 0.10104007843155574
0.7329634 0.9262730913981696 0.0929466810824999
0.7349633 0.9267627726187626 0.08488431155407908
0.7369632 0.9277976745858155 0.07642184363289876
0.7389631 0.9284543582394592 0.06806865806712825
0.740963 0.9290095521837918 0.0594310566735545
0.7429629 0.9293602439336739 0.05077677849974657
0.7449628 0.9300424594976272 0.04267773537139553
0.7469627 0.9301322124778358 0.03401748608352325
0.7489626 0.9305085845959288 0.025697749345209034
0.7509625 0.9310483574926172 0.017108463101666256
0.7529624 0.9311130389525294 0.008895521890906921
0.7549623 0.9309424579340464 0.000495915914314464
0.7569622 0.9306646953769283 -0.008095708109517402
0.7589621 0.9307226812262324 -0.0163951108046983
0.760962 0.9307688429032868 -0.02459423216976163
0.7629619 0.930316414815858 -0.033354944068816554
0.7649618 0.9301896754651268 -0.041773527503501315
0.7669617 0.9299720808337503 -0.05002529045497402
0.7689616 0.9291956515966222 -0.05834977632585868
0.7709615 0.9287070141575586 -0.06706998814699265
0.7729614 0.928472741115721 -0.07519904500630391
0.7749613 0.927491594249489 -0.08390078505382044
0.7769612 0.926688744029769 -0.09236658945452089
0.7789611 0.9263426625604355 -0.10060352570779525
0.780961 0.9249493558605 -0.10889259057569124
0.7829609 0.9242603731373169 -0.11710269950517274
0.7849608 0.9228992732141086 -0.1252223136699031
0.7869607 0.9219237857234018 -0.13355693605915644
0.7889606 0.9205705377973407 -0.1417985009893215
0.7909605 0.9192955554909461 -0.15009381630515164
0.7929604 0.9178176172085514 -0.1579608388230357
0.7949603 0.9161688947023474 -0.1665280022680378
0.7969602 0.9148314594419372 -0.17470180906388239
0.7989601 0.912937667394857 -0.18309792736664238
0.80096 0.9112775010464225 -0.19105831158144704
0.8029599 0.9095088689659495 -0.19915712046704337
0.8049598 0.9078976978334223 -0.2071702610929006
0.8069597 0.9057648442019504 -0.21533067834939196
0.8089596 0.9037350875263288 -0.22399331568561878
0.8109595 0.9016074971723568 -0.2314184854700418
0.8129594 0.8996161953047599 -0.24003459388894918
