! Created with skrf 1.8.0 (http://scikit-rf.org).
# GHz S RI R 50.0 
!freq ReS11 ImS11
0.001 -0.9384187926997818 0.005306280827330702
0.0029999 -0.9381894856241697 0.012505403524386345
0.0049998 -0.9372157874556917 0.01913397325863192
0.0069997 -0.9362574621442568 0.02609904698055581
0.0089996 -0.9357207530931004 0.033123102323158966
0.0109995 -0.9352351834594188 0.040033369884517465
0.0129994 -0.9346823467366627 0.04697084365113002
0.0149993 -0.93372543114919 0.05395039843190095
0.0169992 -0.9331766010108314 0.06038354955869903
0.0189991 -0.9321776770943151 0.06739274403533022
0.020999 -0.931466214315734 0.07418792572530614
0.0229989 -0.9304592847567569 0.08096762362441198
0.0249988 -0.929236261826681 0.0877615188079397
0.0269987 -0.9286704585060604 0.09462491780629209
0.0289986 -0.9276757018598568 0.10121354744102096
0.0309985 -0.9265816006504063 0.10804140990432556
0.0329984 -0.9254922909594241 0.11429523121746979
0.0349983 -0.9243553007545215 0.12141109446454106
0.0369982 -0.9232837075018073 0.1283562274563553
0.0389981 -0.921939204995779 0.13487653676129222
0.040998 -0.9211262958731801 0.14111091863346775
0.0429979 -0.919289667492822 0.14788586941846069
0.0449978 -0.9184054221279564 0.15398896422061908
0.0469977 -0.9165772074220625 0.16083371837870514
0.0489976 -0.9153768199900317 0.16732257126420572
0.0509975 -0.9136817408185396 0.17404113037807062
0.0529974 -0.9124139619222515 0.18071239104606576
0.0549973 -0.9107375681378481 0.18702803403121443
0.0569972 -0.9093245879561391 0.19336819748799
0.0589971 -0.9075850900735615 0.19965737838742
0.060997 -0.9058564394220335 0.2061680005699631
0.0629969 -0.9042953357357592 0.21247957082223629
0.0649968 -0.9024789072152933 0.21873936153793253
0.0669967 -0.9009246314641716 0.22508196629218605
0.0689966 -0.8989842893210227 0.23154262475391085
0.0709965 -0.8969108961194439 0.2377692050381898
0.0729964 -0.8952914603311642 0.2441936290032323
0.0749963 -0.8932380061211833 0.25023368235960464
0.0769962 -0.8908541240074556 0.2567709687114177
0.0789961 -0.8888766619418392 0.26286651724238597
0.080996 -0.8868209315093075 0.26910183557064327
0.0829959 -0.8847244996798611 0.27543216823314687
0.0849958 -0.8823507501500207 0.2812915439411582
0.0869957 -0.8801659157787414 0.28755093158878586
0.0889956 -0.8775728208867837 0.2938177588331084
0.0909955 -0.8755200543865775 0.2998512975497672
0.0929954 -0.8730097636414017 0.3059539004582588
0.0949953 -0.870818323876336 0.31194329124156117
0.0969952 -0.8681549924245835 0.3179742532654076
0.0989951 -0.8656594079969938 0.3243282019866942
0.100995 -0.8631037811854736 0.32996158485232324
0.1029949 -0.8605787674394837 0.33610919739156647
0.1049948 -0.8579827522741134 0.34217920477788233
0.1069947 -0.855171791206059 0.34831897117804006
0.1089946 -0.8527573996239122 0.3543305502457635
0.1109945 -0.8500625398966335 0.36040421869771194
0.1129944 -0.8472231176512398 0.3664044742402047
0.1149943 -0.8446507836999895 0.37228626853728003
0.1169942 -0.8415512348369332 0.37822810220265557
0.1189941 -0.8389689533793788 0.38433412215886825
0.120994 -0.8360541893999177 0.3899253216777001
0.1229939 -0.8332538687173057 0.39564977141558977
0.1249938 -0.8305898767000954 0.40151348086841576
0.1269937 -0.8276330091162143 0.40753560106161124
0.1289936 -0.8248595169706143 0.41329053789544257
0.1309935 -0.8215109889187381 0.41865696786476214
0.1329934 -0.8184791616398049 0.42429740099922764
0.1349933 -0.8155089671040269 0.4299971361759989
0.1369932 -0.812477732606352 0.4357971869117145
0.1389931 -0.8094184216907988 0.4415209108188008
0.140993 -0.8059421228687392 0.4470911659002707
0.1429929 -0.8030455702932748 0.4525720835409992
0.1449928 -0.7994788483398417 0.45809545772727756
0.1469927 -0.7961378075410275 0.4636814083215617
0.1489926 -0.7924976819124987 0.46897751729273085
0.1509925 -0.7893377530488719 0.47437913582771246
0.1529924 -0.7858401581862886 0.47942427322211256
0.1549923 -0.782027116429819 0.4848952847426058
0.1569922 -0.7781771252055568 0.4899440363055179
0.1589921 -0.7748299106377295 0.4958074725223899
0.160992 -0.7707756602755599 0.5009224245106868
0.1629919 -0.7671429425207529 0.5064907839163253
0.1649918 -0.7636560599383454 0.5113994271248737
0.1669917 -0.7596666334901632 0.516724327647694
0.1689916 -0.7558894888381608 0.5218332790184319
0.1709915 -0.7522681215269877 0.5273217426879948
0.1729914 -0.747790652282427 0.5324857525644482
0.1749913 -0.7441147128397726 0.537581090168775
0.1769912 -0.7398763979562603 0.5428353895082181
0.1789911 -0.7359348780570537 0.5483610848824344
0.180991 -0.7319217194331626 0.5533502712620908
0.1829909 -0.7278162629588499 0.558556866469462
0.1849908 -0.7236908534530134 0.5637285051032691
0.1869907 -0.7197319046163166 0.5692059908925525
0.1889906 -0.7149495106438344 0.5744960635648503
0.1909905 -0.7108542249562171 0.5795705930436866
0.1929904 -0.7067649416951048 0.5847829524740071
0.1949903 -0.7027760086266136 0.5895123627895856
0.1969902 -0.6988625036338361 0.5945780464536882
0.1989901 -0.6945891962504406 0.599417573105013
0.20099 -0.6907290186809041 0.6043893765732575
0.2029899 -0.6861809188542558 0.6094127733439445
0.2049898 -0.6812223401138925 0.6141421915905858
0.2069897 -0.6772631935642571 0.6188066086953947
0.2089896 -0.6729733534225195 0.6236872268320945
0.2109895 -0.6685776250452163 0.628379392823544
0.2129894 -0.6639874848031134 0.6330586493792661
0.2149893 -0.6598135992636509 0.637842088036209
0.2169892 -0.6553632724971054 0.6422355365860576
0.2189891 -0.6505641543925212 0.6466926212340289
0.220989 -0.6459151078503098 0.6512813619529298
0.2229889 -0.6410983693672596 0.6557588740550438
0.2249888 -0.636715358984853 0.6602601720478277
0.2269887 -0.6318154991263703 0.6643282216971745
0.2289886 -0.6271354614549035 0.6686695574884144
0.2309885 -0.6224458372563079 0.6731156232852553
0.2329884 -0.6172468306916112 0.6772111392618259
0.2349883 -0.6125344365730022 0.681701604095105
0.2369882 -0.607457543966627 0.6857978209876217
0.2389881 -0.6024319325828503 0.6901012803723342
0.240988 -0.5975445304311933 0.6938775727493289
0.2429879 -0.5922991813982533 0.6978425937851424
0.2449878 -0.5871697157385253 0.7018772387575039
0.2469877 -0.5820453686222663 0.7058924431920396
0.2489876 -0.5767287181515448 0.7102957738503429
0.2509875 -0.5714545222243677 0.7142063679175357
0.2529874 -0.5660038781999 0.7183251156328974
0.2549873 -0.560766430721743 0.7224584058095544
0.2569872 -0.5554655563299132 0.726301261313349
0.2589871 -0.5502909347792413 0.7306565759592021
0.260987 -0.5447504148630408 0.7345175667671495
0.2629869 -0.5392364568078728 0.7384216560333793
0.2649868 -0.5342293318507735 0.7423462922947103
0.2669867 -0.5284099427453006 0.746249531686316
0.2689866 -0.52320613599734 0.7497423697682559
0.2709865 -0.5178168184533967 0.7538101201577426
0.2729864 -0.5123471453880187 0.7577627779617272
0.2749863 -0.5067407122505799 0.7614196373778305
0.2769862 -0.5013488807369694 0.765095204772779
0.2789861 -0.4957305139215339 0.7687227211516142
0.280986 -0.490348702331429 0.7724683013794414
0.2829859 -0.4847891920688255 0.7760092386297632
0.2849858 -0.47935538914252357 0.7792894082195695
0.2869857 -0.4738960391796137 0.7829965508136771
0.2889856 -0.46813115925715215 0.7862611587394129
0.2909855 -0.46255321163041535 0.7897795384928479
0.2929854 -0.4568579850468112 0.7929170900780493
0.2949853 -0.4513278278770794 0.7961868421965194
0.2969852 -0.4455332092313678 0.7993487194888577
0.2989851 -0.43970283655236625 0.8021901691594262
0.300985 -0.4335522787817132 0.8052728954567261
0.3029849 -0.4282344774930267 0.8081508783457686
0.3049848 -0.4223568587506556 0.8113150784948331
0.3069847 -0.4160836922246733 0.8139817653834746
0.3089846 -0.41031049702189815 0.8167271145810091
0.3109845 -0.40411771674627 0.8193597169289224
0.3129844 -0.39821159870464756 0.8224532209382126
0.3149843 -0.3921755223078672 0.8246838201168684
0.3169842 -0.3859686265614375 0.8276808686888031
0.3189841 -0.3800092546210436 0.8305195030868882
0.320984 -0.3737025000979028 0.8337181250008114
0.3229839 -0.36723630741146673 0.8363198412598565
0.3249838 -0.36108607428598727 0.8389178297877811
0.3269837 -0.3549216846392979 0.8416701542534576
0.3289836 -0.3484613508541271 0.8438959045786485
0.3309835 -0.34187756011956977 0.8463018594966227
0.3329834 -0.3359941652491091 0.8492337880015446
0.3349833 -0.3296234899857736 0.8510542500650987
0.3369832 -0.3234580377501088 0.8538097651104384
0.3389831 -0.3171164236945631 0.8562272795714256
0.340983 -0.310530006691273 0.8589818426636833
0.3429829 -0.3041548398932892 0.8610297831226282
0.3449828 -0.2978880408001895 0.8633616529749847
0.3469827 -0.2912442677582982 0.8659671226426153
0.3489826 -0.2848977166701879 0.8681190910741139
0.3509825 -0.2782188915154136 0.8703061896752851
0.3529824 -0.27194791114390887 0.8725576801758577
0.3549823 -0.26558806469796803 0.8748705041704807
0.3569822 -0.259179415978723 0.8764401127013284
0.3589821 -0.25267784623265216 0.878534482752778
0.360982 -0.24635857335124334 0.8804582873363039
0.3629819 -0.23975926843083237 0.8822600043779709
0.3649818 -0.2332595891174862 0.8840474730611038
0.3669817 -0.22691632333582684 0.885631515447318
0.3689816 -0.22023692071393533 0.8875017567795747
0.3709815 -0.2138677689444189 0.8887784350496699
0.3729814 -0.20740822747324428 0.8907878356003994
0.3749813 -0.2009639667158457 0.8922981022463817
0.3769812 -0.19399883293749765 0.8938661407978112
0.3789811 -0.18748685385270764 0.8954501124295227
0.380981 -0.1811913489943271 0.8961727796979934
0.3829809 -0.17482661468463648 0.8975176262568838
0.3849808 -0.16762883349237812 0.8989343313563932
0.3869807 -0.16131518499038267 0.9002710350653058
0.3889806 -0.15427761438784862 0.9011745670644696
0.3909805 -0.14748451522788006 0.9024607263812334
0.3929804 -0.14105674920149053 0.9031173176500553
0.3949803 -0.1340277285264147 0.9042833712715483
0.3969802 -0.1267576400532575 0.905108993041669
0.3989801 -0.12021806885829453 0.9058723789726074
0.40098 -0.11319315186305082 0.9068836332760316
0.4029799 -0.10648539831147891 0.9071072982759341
0.4049798 -0.09959847350223047 0.9082518330203082
0.4069797 -0.09203600491764961 0.9090126250842058
0.4089796 -0.08592455325277076 0.9096425222958118
0.4109795 -0.07857554538406572 0.910484691824144
0.4129794 -0.07152214526465052 0.9108669271828709
0.4149793 -0.06454976300964847 0.9115999836496566
0.4169792 -0.05705916163605803 0.9121496368216659
0.4189791 -0.05034704060927531 0.9127686224564557
0.420979 -0.04347845060864067 0.9128088993658394
0.4229789 -0.03660852603345386 0.9132551054548683
0.4249788 -0.029623107411934763 0.9137573813666879
0.4269787 -0.022413372168903364 0.9139601108588453
0.4289786 -0.0157038234787197 0.9141912498199517
0.4309785 -0.008733883567503258 0.914479262365964
0.4329784 -0.0016350536918348368 0.9146043716586113
0.4349783 0.00494856482593177 0.9146679105188669
0.4369782 0.01209423625498246 0.9148771511982006
0.4389781 0.01977924956490236 0.91447370272366
0.440978 0.026327233977420934 0.914701688305861
0.4429779 0.03296572368501299 0.9144817431936253
0.4449778 0.04016081731705217 0.9141667128748874
0.4469777 0.04742776765153613 0.9138889939214233
0.4489776 0.05405021556339451 0.91338197981204
0.4509775 0.06084330561016913 0.9132939813309986
0.4529774 0.06790787712707674 0.9125924155859573
0.4549773 0.07498082884341986 0.9123359820339229
0.4569772 0.08163998881760953 0.9117072155240911
0.4589771 0.08923904261661629 0.9111538553458804
0.460977 0.09636265477582034 0.910334253896107
0.4629769 0.10347717028775656 0.9094437408868256
0.4649768 0.11055700177191718 0.9085351393506212
0.4669767 0.11770310549396186 0.9073744089219158
0.4689766 0.1247204933739196 0.9066327969967061
0.4709765 0.13170177705128755 0.9053382301922819
0.4729764 0.138893684333594 0.9050106510934831
0.4749763 0.1459450066477327 0.9038487804680814
0.4769762 0.15294599649548452 0.9025922785498773
0.4789761 0.15990434899661105 0.901624902330673
0.480976 0.16728151884696985 0.9006015962372879
0.4829759 0.17429197785395456 0.8992360913733171
0.4849758 0.18129182053472445 0.8982612642385215
0.4869757 0.18851224958305568 0.8968145135876262
0.4889756 0.19542489956172726 0.8956007547181295
0.4909755 0.2025713059314888 0.8941754868144617
0.4929754 0.20954146093652476 0.8926566621055763
0.4949753 0.21649860635782986 0.8912651626863273
0.4969752 0.2234639920457363 0.8893496947300309
0.4989751 0.2303960398739129 0.8880981531579009
0.500975 0.23723533179798467 0.8866173731612306
0.5029749 0.24398170763788474 0.8845893014790481
0.5049748 0.25080461753711614 0.8828700672448537
0.5069747 0.25750047538909177 0.8808692374393237
0.5089746 0.2642924203425285 0.8791977982550209
0.5109745 0.27112568076106053 0.876804558520984
0.5129744 0.2779554689232109 0.8746619808666776
0.5149743 0.2848208589595207 0.8724441852970243
0.5169742 0.29173874028048513 0.8705774146831151
0.5189741 0.29852091298925987 0.8680742143731649
0.520974 0.3053309268012911 0.8658297060086472
0.5229739 0.31182896210266603 0.8630799089021965
0.5249738 0.3186567211637371 0.860819076669114
0.5269737 0.32571211906469716 0.8580626086387946
0.5289736 0.33196931478865854 0.8554744871449153
0.5309735 0.3391204221488858 0.852638645055575
0.5329734 0.3460472703026964 0.8494276690052495
0.5349733 0.3520488565114819 0.846831594813429
0.5369732 0.35957383043848623 0.8436250822564533
0.5389731 0.36590715827510706 0.8408237435088414
0.540973 0.3730499431625956 0.8379146353670809
0.5429729 0.3797808647566242 0.8349262313093359
0.5449728 0.386480838604342 0.8316743492553973
0.5469727 0.3934520122661724 0.8288019075263553
0.5489726 0.4001068300113665 0.8254426919494623
0.5509725 0.40655985658134747 0.8224462650118629
0.5529724 0.4133956007872019 0.819171879073158
0.5549723 0.4200495425339405 0.8157390736631203
0.5569722 0.4266109519671529 0.8125895421206348
0.5589721 0.4334687408711025 0.8092034572384934
0.560972 0.44029740048102733 0.8057731645189687
0.5629719 0.44751247541495454 0.8025217212359324
0.5649718 0.4535873668149561 0.7994683072120052
0.5669717 0.4601282108032699 0.7959914143173763
0.5689716 0.4668324692153823 0.7921845942608605
0.5709715 0.4730855323387658 0.7889492361526382
0.5729714 0.47972610521214787 0.7849537187463211
0.5749713 0.4858422617033345 0.7814377440385468
0.5769712 0.49229752718510555 0.7775668833351825
0.5789711 0.4984027831653091 0.7740047703704148
0.580971 0.5041119715185768 0.7702179976409012
0.5829709 0.5104127651158239 0.7662323437258871
0.5849708 0.5167356670284535 0.7622757566303323
0.5869707 0.5225741665168999 0.7581391902654434
0.5889706 0.5285878225318201 0.7539954274684078
0.5909705 0.5345463180076351 0.7498651786724297
0.5929704 0.5408476414929306 0.7452937328029485
0.5949703 0.5464946862237714 0.7407563756702736
0.5969702 0.5525873569067739 0.7364697011579481
0.5989701 0.5585830175786667 0.7319650683341533
0.60097 0.5641742575344376 0.7272056551435757
0.6029699 0.570208405539444 0.7220437416359151
0.6049698 0.5758709805914274 0.7175028002238865
0.6069697 0.5814757026730317 0.7128624724303818
0.6089696 0.5874624791159796 0.7082524751370347
0.6109695 0.5933539516323902 0.7032959805306827
0.6129694 0.5988541402011832 0.6977643211839398
0.6149693 0.6046485581062524 0.69367153265002
0.6169692 0.610694313598774 0.6886752403180084
0.6189691 0.6166362388568073 0.6832399320234533
0.620969 0.6219019978184626 0.6782789796799992
0.6229689 0.6276898386344066 0.6727169814713716
0.6249688 0.633169919729405 0.6680968270764902
0.6269687 0.6389612474636888 0.6626457075114249
0.6289686 0.64459601141204 0.6576170349728625
0.6309685 0.650416577716899 0.6520865891309174
0.6329684 0.6553300479363613 0.6468232701338879
0.6349683 0.6614718700800182 0.6416904154599791
0.6369682 0.6663453332192693 0.6362801496060374
0.6389681 0.6713836980645702 0.6310715706410874
0.640968 0.6774043388215405 0.6257075968679181
0.6429679 0.6827374810949928 0.6199691037133757
0.6449678 0.6874853897238317 0.6149310618369754
0.6469677 0.6924795206905155 0.60917961006076
0.6489676 0.6973256387794492 0.6040765095589903
0.6509675 0.7025187914662984 0.5986602947356906
0.6529674 0.7076770830220241 0.5928812253396811
0.6549673 0.7120919230066003 0.5871528827714254
0.6569672 0.7171942369393395 0.581253633038289
0.6589671 0.7218784612438239 0.575739226600593
0.660967 0.7260434751629044 0.5698596886169481
0.6629669 0.7308108370259412 0.5634288118224926
0.6649668 0.7348752814776115 0.5579897374862325
0.6669667 0.7396487098460217 0.5518078532964363
0.6689666 0.7442562895955045 0.5457308105063133
0.6709665 0.7483718413457686 0.5398839076315775
0.6729664 0.7526721348512757 0.5335050161019298
0.6749663 0.7571079034226221 0.5271389972819402
0.6769662 0.7613646907545338 0.520703952508503
0.6789661 0.7656553586794224 0.5143540132088719
0.680966 0.769579930597025 0.5078161841400768
0.6829659 0.774196708809362 0.5016005846890768
0.6849658 0.7782412524184631 0.4947291268142023
0.6869657 0.7821340238396245 0.4882487649489237
0.6889656 0.7863026036965255 0.4815092216486113
0.6909655 0.7899388380493455 0.47528638577150756
0.6929654 0.7944364010628536 0.46839717304151784
0.6949653 0.7982543268120178 0.4615301434504593
0.6969652 0.8020001844351693 0.45469920705488986
0.6989651 0.806117000926893 0.44802736090245227
0.700965 0.8099015439356316 0.44114096351326826
0.7029649 0.8136586911686019 0.43432829265118755
0.7049648 0.8173369704952558 0.427546748495005
0.7069647 0.8211004701456718 0.42053841560477273
0.7089646 0.8250924040009913 0.41380184069236947
0.7109645 0.8288057028156448 0.4071905141223494
0.7129644 0.8322068190494117 0.4002557252777235
0.7149643 0.8354717578593922 0.39332011980731396
0.7169642 0.8389657461105927 0.3866703672135756
0.7189641 0.8422741334195462 0.37955947983065264
0.720964 0.8454123817405869 0.37293993551947474
0.7229639 0.848580912527551 0.36600721345430326
0.7249638 0.8520424415736149 0.35860252445893853
0.7269637 0.8550230479189953 0.3516748156908881
0.7289636 0.8577378441533511 0.3448571140105857
0.7309635 0.8609702418967841 0.33795235760771974
0.7329634 0.86401332952763 0.3308382252994885
0.7349633 0.8661607425622591 0.32393405258695007
0.7369632 0.8688784656134155 0.31668761284043107
0.7389631 0.8712551231547335 0.30960326542768407
0.740963 0.8738336056578376 0.30225839814573185
0.7429629 0.8765704251531128 0.2951297534079579
0.7449628 0.8787750575395944 0.2883089754753514
0.7469627 0.8812515003872015 0.2807265241046397
0.7489626 0.8835709082825747 0.2733351938820269
0.7509625 0.8859547888932157 0.26530075122473057
0.7529624 0.88815754847662 0.2586066566911546
0.7549623 0.8901198944496307 0.250898247763983
0.7569622 0.8915874023737697 0.2434153060854995
0.7589621 0.8936152188160942 0.23557625131023774
0.760962 0.8957379637795586 0.22862798134436477
0.7629619 0.8979714052972982 0.22066229651086447
0.7649618 0.8993367064631783 0.21308452502521735
0.7669617 0.9013620573483878 0.2056875747265186
0.7689616 0.9029350801889541 0.1977418358572055
0.7709615 0.9045291986839658 0.1903140591220792
0.7729614 0.906578929218464 0.18251094933131942
0.7749613 0.9079613879256456 0.17518058601507885
0.7769612 0.9090790053937743 0.16723140885666252
0.7789611 0.910904689036327 0.15978232776081863
0.780961 0.9119934773707072 0.15214587670123325
0.7829609 0.9133043702626963 0.1442862084371016
0.7849608 0.9144942453321033 0.13695440933029998
0.7869607 0.9158428389067542 0.12910804133375361
0.7889606 0.9170119368871401 0.12140293599749673
0.7909605 0.9177446416575848 0.11377687910195461
0.7929604 0.9188508766799072 0.10644324923803852
0.7949603 0.9199960884348031 0.09853042843840268
0.7969602 0.9205948252459217 0.09079096813406212
0.7989601 0.921455494754412 0.0833078279352712
0.80096 0.9222895854344266 0.0757683479747963
0.8029599 0.9229033580444314 0.06811336823977368
0.8049598 0.9232878985874416 0.06051656179189527
0.8069597 0.9236618353264032 0.05256763705741328
0.8089596 0.9241403962214776 0.045025181385469536
0.8109595 0.9239553983780404 0.03726296124417367
0.8129594 0.9251153169235541 0.029455406635626177
0.8149593 0.9248762902611037 0.021885052272904337
