! Created with skrf 1.8.0 (http://scikit-rf.org).
# GHz S RI R 50.0 
!freq ReS11 ImS11
0.001 -0.9447236702987998 0.005916621769756641
0.0029999 -0.9441489296193774 0.014792035542537836
0.0049998 -0.9427869851725462 0.023306653377327097
0.0069997 -0.9424161499839043 0.03191446905497557
0.0089996 -0.94137774463675 0.04066212154683673
0.0109995 -0.9407060771698232 0.04909812943320926
0.0129994 -0.9399717659063662 0.05743512256550283
0.0149993 -0.9391133827184742 0.06580481277609003
0.0169992 -0.9380609461227055 0.07412949721322142
0.0189991 -0.9369704901239911 0.08252383845705617
0.020999 -0.9357956660470979 0.09091417124390949
0.0229989 -0.9346046002100642 0.09922873089976933
0.0249988 -0.9329259213140966 0.10762148091860523
0.0269987 -0.9320080214036327 0.11591967149035316
0.0289986 -0.9306972982888522 0.12407217611838817
0.0309985 -0.9291332800149157 0.13236816850706473
0.0329984 -0.9275990707732464 0.14039271439508
0.0349983 -0.9260868067728787 0.1486131203262864
0.0369982 -0.9244911834059656 0.1572095670821006
0.0389981 -0.9228880373595316 0.165244072749577
0.040998 -0.9212448777709168 0.17309969813443735
0.0429979 -0.9190296730228108 0.1814772735100018
0.0449978 -0.9176200822683012 0.1888863288823322
0.0469977 -0.9152651085575861 0.19783311244697926
0.0489976 -0.9133935864593822 0.20540629306596336
0.0509975 -0.911544388615613 0.21359052180304694
0.0529974 -0.9092479882565558 0.22147370362283905
0.0549973 -0.9070064589242465 0.2295608633049921
0.0569972 -0.9048619945757346 0.23728951680069016
0.0589971 -0.9026081938871428 0.24503681940182448
0.060997 -0.9000491312175366 0.25285396668678795
0.0629969 -0.8977497848402517 0.2607855229319405
0.0649968 -0.895219978168195 0.2682915964303602
0.0669967 -0.8927682308411526 0.276087384841592
0.0689966 -0.8900282551796695 0.28379329197403735
0.0709965 -0.8871662181822767 0.29165412353904896
0.0729964 -0.8846440620347673 0.2992962953109437
0.0749963 -0.8818215025833414 0.3066782209808829
0.0769962 -0.8785304533186908 0.31441241848316587
0.0789961 -0.875423769827962 0.3222177134298984
0.080996 -0.8725436969353905 0.32961472222635857
0.0829959 -0.869684414586181 0.337149732531081
0.0849958 -0.8662755138759574 0.3447544881795677
0.0869957 -0.8629210971631636 0.3518961750953321
0.0889956 -0.8596180702952625 0.3597057425828544
0.0909955 -0.8561717429665414 0.3669744161834378
0.0929954 -0.8526490869684267 0.3742505639051574
0.0949953 -0.8494911221970625 0.38163292506650726
0.0969952 -0.8456406959087522 0.3894242387791424
0.0989951 -0.8418020664391969 0.39632567433557647
0.100995 -0.8383907681895627 0.403426923758956
0.1029949 -0.8343830264674773 0.4106557929043564
0.1049948 -0.8306194173360106 0.41826597725923603
0.1069947 -0.8266253248304063 0.42540948232053366
0.1089946 -0.8229463044034893 0.43253007020388884
0.1109945 -0.8188923865227083 0.43991668889083735
0.1129944 -0.8148113085867641 0.44714138583888124
0.1149943 -0.8108270854066549 0.4542750693989063
0.1169942 -0.8066618081816794 0.4614144982543842
0.1189941 -0.8027057469078656 0.4681681969708029
0.120994 -0.7983499356141502 0.47503938743704427
0.1229939 -0.7941798288342541 0.4820967129483501
0.1249938 -0.7901374354658959 0.4888614694528197
0.1269937 -0.7857049353116092 0.4959239586180757
0.1289936 -0.78133057931938 0.5025490366898406
0.1309935 -0.7767908460232458 0.5091756479407007
0.1329934 -0.7725340242142026 0.5161319205922579
0.1349933 -0.7678292391686968 0.522607109915677
0.1369932 -0.7631126558150945 0.5295266633783244
0.1389931 -0.7588620852862122 0.5357383272519647
0.140993 -0.7539215705134508 0.5424699071548087
0.1429929 -0.7492565418368128 0.5489722146624412
0.1449928 -0.7442502872094815 0.5550754730586208
0.1469927 -0.7394536685604264 0.5614907677625065
0.1489926 -0.7342049881522463 0.5678627620661879
0.1509925 -0.7289280322097376 0.5742158255041563
0.1529924 -0.7239892812408306 0.5798627694188687
0.1549923 -0.718647750915093 0.5861025384507507
0.1569922 -0.7133114755061604 0.592168574611409
0.1589921 -0.7077358655660594 0.5986911673025331
0.160992 -0.70214608180702 0.6046367652698803
0.1629919 -0.6968204906060758 0.6109163193278879
0.1649918 -0.691307800964203 0.6165660455333263
0.1669917 -0.6856187272691927 0.6223181336938052
0.1689916 -0.6802837943713034 0.628493437592984
0.1709915 -0.6742974714218928 0.6344832604016735
0.1729914 -0.6683381652335103 0.6403019348727812
0.1749913 -0.6623013941219208 0.6460214629921675
0.1769912 -0.6566064050629556 0.651766439432918
0.1789911 -0.6507135579923157 0.6577496975555666
0.180991 -0.6444783208562527 0.6633928203907985
0.1829909 -0.6387707765988081 0.6691990588627039
0.1849908 -0.6328108491888579 0.6752843556182085
0.1869907 -0.6263343785059949 0.6807872636067253
0.1889906 -0.6198373505331218 0.6866798778343182
0.1909905 -0.6136243448903043 0.6920771730773143
0.1929904 -0.6077366575661036 0.6977647416404813
0.1949903 -0.6015434407409791 0.7030057756667073
0.1969902 -0.595565681691294 0.7084072720334708
0.1989901 -0.5894854409448305 0.713973594551582
0.20099 -0.5833137386009245 0.7190468060009941
0.2029899 -0.5766167455419021 0.7244437508605763
0.2049898 -0.5700188306636257 0.7293887673618598
0.2069897 -0.563712334490414 0.7344120333827261
0.2089896 -0.5572293935827198 0.7392675996307304
0.2109895 -0.5507888158030079 0.744664704078853
0.2129894 -0.5439762693708797 0.749421887334337
0.2149893 -0.5378537645664961 0.7541839428499649
0.2169892 -0.5310106085696733 0.7588223118971568
0.2189891 -0.5242906295343328 0.7634843432645428
0.220989 -0.5172732183865306 0.7680181411049294
0.2229889 -0.5106736659984932 0.7727389871830526
0.2249888 -0.50368497015752 0.7769482052947088
0.2269887 -0.4967828071808153 0.7813188654167313
0.2289886 -0.4899895360138587 0.7856776394495563
0.2309885 -0.48276635237185217 0.7898479443653037
0.2329884 -0.4757630413369467 0.7940297832319999
0.2349883 -0.4683343514325656 0.7982571957340777
0.2369882 -0.46126565117862633 0.8022575839163932
0.2389881 -0.45388378591796474 0.8062552993288319
0.240988 -0.44650913324265223 0.8097425266388882
0.2429879 -0.4389072165125216 0.8138174627173476
0.2449878 -0.4317627071113124 0.8175964366084283
0.2469877 -0.4243191810618125 0.8214093909940734
0.2489876 -0.4166643988569056 0.8252017866374143
0.2509875 -0.4089125333818302 0.8289557318518178
0.2529874 -0.4010453370467716 0.8325253399559079
0.2549873 -0.3933897569291838 0.8361118916982928
0.2569872 -0.3857437327324737 0.8397004671432329
0.2589871 -0.37813995053684996 0.8435139384831388
0.260987 -0.37010384297486243 0.8467607574929905
0.2629869 -0.36252644118270416 0.8503777727379095
0.2649868 -0.35462758880604184 0.8535488548677298
0.2669867 -0.3470590362333283 0.857197012053946
0.2689866 -0.3390030549981304 0.8602398021895532
0.2709865 -0.33097624388568825 0.8631644900477341
0.2729864 -0.3231910259198839 0.8664700923629647
0.2749863 -0.31542057666018053 0.8697394251362276
0.2769862 -0.30723741415641553 0.872628624993957
0.2789861 -0.29947949598274215 0.8755636763251619
0.280986 -0.29152945732798113 0.8782632110835371
0.2829859 -0.2835807655905353 0.8812279305538018
0.2849858 -0.2754739519367994 0.8835771098613258
0.2869857 -0.26754554022660637 0.8861848287413293
0.2889856 -0.2595138696457304 0.8889670818608085
0.2909855 -0.2513634652155705 0.8913250435748465
0.2929854 -0.24342291082548806 0.8937406042916787
0.2949853 -0.2353075535416893 0.8957602288936984
0.2969852 -0.2268080674257956 0.8977718682425577
0.2989851 -0.21898024353542692 0.9000253719746912
0.300985 -0.21008225621223825 0.9016510797658638
0.3029849 -0.20227400272697674 0.9036811810100177
0.3049848 -0.19400489644981303 0.9051472673257375
0.3069847 -0.18544416432638713 0.9067829502635856
0.3089846 -0.17751856328722054 0.908585834079074
0.3109845 -0.16913297962941587 0.9099047735981933
0.3129844 -0.16052884649359145 0.9111021356274324
0.3149843 -0.1519446217522601 0.9125771920932185
0.3169842 -0.14336368347753242 0.9135938674046477
0.3189841 -0.13432812812470374 0.9155095475615134
0.320984 -0.12585688260252606 0.916555018341317
0.3229839 -0.11717708480139982 0.9178721696166546
0.3249838 -0.10850027519376995 0.918999073450971
0.3269837 -0.09986706521084313 0.9196197792825285
0.3289836 -0.09098676225552466 0.9203484610635064
0.3309835 -0.08218404410877846 0.9211768835589343
0.3329834 -0.07376009280117682 0.9225558745990994
0.3349833 -0.06497857229729771 0.9227555009416913
0.3369832 -0.0560710467959256 0.9234274586586239
0.3389831 -0.04784307065060918 0.9243535292549616
0.340983 -0.03824735956804956 0.9247717647331753
0.3429829 -0.029505354262988746 0.9254210502936019
0.3449828 -0.021046231122442742 0.9257913789007406
0.3469827 -0.01203033847639928 0.9262651605585727
0.3489826 -0.003277923094817184 0.9265258093269986
0.3509825 0.0055871796198239876 0.926789801738156
0.3529824 0.014236771754824872 0.9266995154340386
0.3549823 0.022922061682255006 0.9268862587356133
0.3569822 0.03192961735090972 0.9268188053138741
0.3589821 0.040947480621023574 0.9264769255969665
0.360982 0.049460025478398034 0.9261158556808595
0.3629819 0.05818940719487696 0.9254975511900329
0.3649818 0.06676959690313898 0.9253962848656531
0.3669817 0.0757748326951071 0.9247982696978511
0.3689816 0.08461043627419519 0.924125068670094
0.3709815 0.09270471149462994 0.9233900776087741
0.3729814 0.10171791982201783 0.9227918227005655
0.3749813 0.11043567244679497 0.9220596245562818
0.3769812 0.11897725329609514 0.9206365889997923
0.3789811 0.1280213850886466 0.9197882866049204
0.380981 0.13670556039011625 0.91848794623908
0.3829809 0.14517004189333294 0.9176248756143737
0.3849808 0.15400038503347263 0.9158380581162716
0.3869807 0.1629408226981392 0.9142641251338052
0.3889806 0.17128320068100422 0.9125940850322134
0.3909805 0.1801955138327953 0.9107955095279671
0.3929804 0.18912872397264568 0.9094011896883682
0.3949803 0.1979436461537848 0.9072670699332708
0.3969802 0.2069072763307852 0.904960121146294
0.3989801 0.21582192354236693 0.902958654441714
0.40098 0.22451594427524935 0.900934523191946
0.4029799 0.23310514140050403 0.8985449628503611
0.4049798 0.24194138408202212 0.8963446924528946
0.4069797 0.2509706566542015 0.8940124881781414
0.4089796 0.25968825292263414 0.891650141119082
0.4109795 0.2687010056705184 0.8895462925204677
0.4129794 0.27734957218589 0.886492639433872
0.4149793 0.2859946364084167 0.883999772581281
0.4169792 0.29477189387155606 0.8809333621462586
0.4189791 0.3032622040663259 0.8784045801099578
0.420979 0.31199855430651535 0.8755356152689301
0.4229789 0.32053271257530885 0.8723230483801941
0.4249788 0.3292793497575971 0.8696320724110571
0.4269787 0.33775569642510905 0.8665074942837013
0.4289786 0.3462125459762062 0.8634999563127277
0.4309785 0.35470245617439694 0.8602592889750926
0.4329784 0.36334701620046556 0.8570089421429679
0.4349783 0.37166475430056733 0.8532007387617533
0.4369782 0.3799339676486159 0.8495422565541038
0.4389781 0.38867688373639064 0.8458172498912792
0.440978 0.3972008367869451 0.8422299198805963
0.4429779 0.40525154924827106 0.8383782937098376
0.4449778 0.41336779212070673 0.8345802924915096
0.4469777 0.421649249890071 0.830415339888301
0.4489776 0.42950112886510716 0.8263309784812624
0.4509775 0.43795039993440993 0.8225867503943574
0.4529774 0.4462194106408025 0.8182145739075123
0.4549773 0.453905747506245 0.8140373238758116
0.4569772 0.46197600544107803 0.8095325326592975
0.4589771 0.4703452318050453 0.8047656872885497
0.460977 0.4783405293446706 0.7997161893451619
0.4629769 0.4862434812008477 0.7951146281248868
0.4649768 0.494104543537619 0.7904496807805779
0.4669767 0.5022554271554707 0.785299872605137
0.4689766 0.5100791667972769 0.7803295917477832
0.4709765 0.5178919850317082 0.7751422516093799
0.4729764 0.5260398588100214 0.7704388690938291
0.4749763 0.5337621783964126 0.7650689940910465
0.4769762 0.5413174879704056 0.7599506108394962
0.4789761 0.5490455157699885 0.7545488554680543
0.480976 0.5568446309717701 0.7492886688646312
0.4829759 0.5642003727249287 0.7437202985730651
0.4849758 0.5716249334796981 0.7382135295401182
0.4869757 0.5793392549391647 0.7324600252942508
0.4889756 0.5865867912424834 0.7267213070215173
0.4909755 0.5940344998535392 0.7209751972831215
0.4929754 0.6015788652998941 0.7151026932664315
0.4949753 0.6085300161085403 0.7093296754487511
0.4969752 0.6154708515568171 0.7033123107454954
0.4989751 0.6229498286994495 0.6972579930222268
0.500975 0.6298693209417775 0.691207529372096
0.5029749 0.6369254558160143 0.6849823493875976
0.5049748 0.6435962230089436 0.6787993716461457
0.5069747 0.6501689940427905 0.6725475860364244
0.5089746 0.6570105160739139 0.6662372587817681
0.5109745 0.6637431369187655 0.6596124594882995
0.5129744 0.6705001911994597 0.6529684486498537
0.5149743 0.677420940327838 0.6461673976934416
0.5169742 0.6835472127763494 0.6394090121750661
0.5189741 0.6898493537686898 0.6326051062771272
0.520974 0.6965091462795158 0.6255062813272014
0.5229739 0.7022527973825774 0.6182004598606963
0.5249738 0.7088995720370814 0.6113870266131308
0.5269737 0.7148120479196189 0.6040431906390034
0.5289736 0.7205349808081767 0.5969055975002818
0.5309735 0.7272837363828805 0.5893053642915245
0.5329734 0.7327145316016997 0.5817777826348135
0.5349733 0.7383990244986425 0.5745628358851429
0.5369732 0.7445775578580014 0.5667328448324387
0.5389731 0.7503215557196533 0.5593745629556737
0.540973 0.7565071292040093 0.5514835078501176
0.5429729 0.7622703202896539 0.5438603540721552
0.5449728 0.7677587982224626 0.536049650784185
0.5469727 0.7731408674958712 0.5282365262449382
0.5489726 0.7785134677280476 0.5202606863468772
0.5509725 0.7840224531267962 0.5124120263472541
0.5529724 0.7891804298748926 0.5045423113582029
0.5549723 0.7943602986909243 0.4962480674822227
0.5569722 0.7998219408831246 0.48829786385053164
0.5589721 0.8050253405811266 0.4800959781190385
0.560972 0.8098477396696497 0.47226989728196717
0.5629719 0.814988601156579 0.46383729293793424
0.5649718 0.819992825966398 0.4558125310358917
0.5669717 0.8247490895636831 0.4475164464808621
0.5689716 0.8294384112393287 0.4387857369257196
0.5709715 0.833894502441086 0.43079218925310814
0.5729714 0.838095625754463 0.42240530642843094
0.5749713 0.8424405537541424 0.4138232463702936
0.5769712 0.8471342056684562 0.40507644742727716
0.5789711 0.8513194519187168 0.397113032080121
0.580971 0.8551158887440155 0.3885075512755988
0.5829709 0.8592912957698693 0.37936227669522404
0.5849708 0.8628538245948412 0.3707701325885012
0.5869707 0.8663060105687276 0.362542196656992
0.5889706 0.870427916987383 0.3531762838280298
0.5909705 0.8739144591390269 0.3447788203605414
0.5929704 0.8773998077678361 0.33539436528503885
0.5949703 0.8808348728095676 0.3268112235700829
0.5969702 0.8839768141690162 0.3179060959089906
0.5989701 0.887300885409624 0.30846803195039507
0.60097 0.8901475778998214 0.29970016868673505
0.6029699 0.8933347164329826 0.28997810547554276
0.6049698 0.8963784144174866 0.28139935772638813
0.6069697 0.8988626239750479 0.27189187254156416
0.6089696 0.9020234169466999 0.26296451156874906
0.6109695 0.9048223900598329 0.25367585795631653
0.6129694 0.9069668395296588 0.2441824237928912
0.6149693 0.909559080615859 0.23509570649771458
0.6169692 0.9127714561118448 0.22567326623182365
0.6189691 0.9150311953638899 0.21622802106020667
0.620969 0.9168037081431326 0.2069930131462987
0.6229689 0.918911210072931 0.19727892046904688
0.6249688 0.9211980038586957 0.18771083865944205
0.6269687 0.9230348114316416 0.1785570539573127
0.6289686 0.924995787125349 0.16940839560400894
0.6309685 0.9266806603296758 0.15967026545396018
0.6329684 0.9281989783795219 0.15034097628246687
0.6349683 0.9299451281900142 0.14059434206434168
0.6369682 0.9313457860483685 0.13127777175571095
0.6389681 0.9325708036001208 0.1222482941367692
0.640968 0.9340843338709162 0.11215948114857105
0.6429679 0.9350083966924218 0.1028876931419866
0.6449678 0.9360346187145917 0.09343291941034454
0.6469677 0.9369387157047291 0.08367142414955907
0.6489676 0.9376758918701796 0.07451684172332518
0.6509675 0.9386519189721115 0.06484120660020114
0.6529674 0.9391656550982116 0.05541429407903461
0.6549673 0.9398928592477626 0.04578904825353482
0.6569672 0.939960097711825 0.03633629409070147
0.6589671 0.9405387362402681 0.02653848472439442
0.660967 0.9408834697690209 0.017255330991701658
0.6629669 0.9405790169715631 0.007019584864384868
0.6649668 0.9408279701525479 -0.002095866466955247
0.6669667 0.9402315694740697 -0.011843336318999427
0.6689666 0.9406773487629899 -0.02129730643806358
0.6709665 0.9401765911565942 -0.030711887209271985
0.6729664 0.939956676501675 -0.040619663741421855
0.6749663 0.9395501308392874 -0.04993709681757129
0.6769662 0.9392587316849006 -0.059589844819857796
0.6789661 0.938207398174662 -0.06907641147846187
0.680966 0.9382055676293887 -0.07881392170990466
0.6829659 0.9370523053249691 -0.08788430967754998
0.6849658 0.9360204636286351 -0.09752921049261329
0.6869657 0.9354111729246833 -0.10724865129633734
0.6889656 0.9339704879354511 -0.1164528373350899
0.6909655 0.932990433506138 -0.12565385633292442
0.6929654 0.9318472510687206 -0.13553752462071395
0.6949653 0.9303117444656787 -0.1450159762182191
0.6969652 0.928857026708918 -0.15399153345000668
0.6989651 0.9275796472767108 -0.16364905577550362
0.700965 0.9254544358727222 -0.1728653797268569
0.7029649 0.9239858124139065 -0.18198275997926044
0.7049648 0.9221788270827616 -0.19137582141276943
0.7069647 0.9200955033512579 -0.20030185203946813
0.7089646 0.9177633191731444 -0.20970659671636294
0.7109645 0.9158006691662847 -0.21888364960344528
0.7129644 0.913211977570803 -0.2275287512032741
0.7149643 0.9110169191571733 -0.2370445812138957
0.7169642 0.9085341018233761 -0.24588059769538176
0.7189641 0.905751502438138 -0.25483793507347885
0.720964 0.9027750968188613 -0.2640843938884536
0.7229639 0.899976924319838 -0.2733474817788914
0.7249638 0.8976953507842027 -0.281809609207551
0.7269637 0.8944194723996318 -0.2911612681055776
0.7289636 0.8911355115727353 -0.299992415804494
0.7309635 0.8883220295737905 -0.3090527550132871
0.7329634 0.8851135377321734 -0.3180097097034593
0.7349633 0.8819550111390441 -0.3266375452528229
0.7369632 0.8783911711461291 -0.33568077033907073
0.7389631 0.8744605977577217 -0.34435634265683596
0.740963 0.8711154340790459 -0.35313130727635855
0.7429629 0.8674089419722795 -0.36268183170845825
0.7449628 0.8638859068426185 -0.37076472645601644
0.7469627 0.8608028249352658 -0.3797802919735475
0.7489626 0.8571340950870019 -0.38851268153536395
0.7509625 0.8524668912235642 -0.39707606001655993
0.7529624 0.8492275226276931 -0.4055569241425354
0.7549623 0.8450993412137224 -0.4140571818929829
0.7569622 0.8411169891506761 -0.422586003507093
0.7589621 0.8368088691684262 -0.4307459966122885
0.760962 0.8326404056218351 -0.43885744296136975
0.7629619 0.8281661523084042 -0.4474497548962526
0.7649618 0.8238697286591206 -0.4556019904654415
0.7669617 0.8197114804293087 -0.4631489154575226
0.7689616 0.8151997012426946 -0.47119460779515254
0.7709615 0.8100438835193475 -0.4792674669085935
0.7729614 0.8055472321506252 -0.48689329830917155
0.7749613 0.8009643774821272 -0.4946065656786769
0.7769612 0.7957179369387375 -0.5026304208111194
0.7789611 0.791120320211161 -0.510271758335634
0.780961 0.7858523344556689 -0.5175059962601728
0.7829609 0.7806093567984587 -0.525180929412147
0.7849608 0.7756394498865291 -0.5324989561853744
0.7869607 0.7702358259635399 -0.5400156068570461
0.7889606 0.7649725772017957 -0.5472331985938147
0.7909605 0.759248992126638 -0.5542624574597429
0.7929604 0.7538204299914475 -0.5615567850717927
0.7949603 0.7478885644508082 -0.5689431367858202
0.7969602 0.7423909950032768 -0.5755862618619197
0.7989601 0.7365324670804823 -0.58289583674152
0.80096 0.730706345834098 -0.5896795486042398
0.8029599 0.7248953092324318 -0.5966652395939239
0.8049598 0.7187360793787124 -0.6036532116518855
0.8069597 0.7125791053397099 -0.6105829329310867
0.8089596 0.7064491578331433 -0.6173909444227574
0.8109595 0.7000719885818101 -0.6244737103087135
0.8129594 0.6941592951759851 -0.6317211536506682
0.8149593 0.6875745303550881 -0.6383182901649878
