! Created with skrf 1.8.0 (http://scikit-rf.org).
# GHz S RI R 50.0 
!freq ReS11 ImS11
0.001 -0.944438596855357 0.005416205728493523
0.0029999 -0.9440336393820767 0.013360536759449225
0.0049998 -0.9426768835312902 0.020539761360524628
0.0069997 -0.9424280579710361 0.02852072482715441
0.0089996 -0.9414711300625684 0.03614700208015647
0.0109995 -0.940825933268618 0.04344926793816222
0.0129994 -0.9403478285311098 0.05100893235056658
0.0149993 -0.9395242588145243 0.05844749085085413
0.0169992 -0.9386325545523164 0.06580580488019022
0.0189991 -0.9377281121128673 0.07329700329468496
0.020999 -0.936752975237042 0.08064703547690547
0.0229989 -0.9357665319506896 0.0881583862867105
0.0249988 -0.9342011378818335 0.09556327268225337
0.0269987 -0.9335710945351643 0.102936095563313
0.0289986 -0.9324448065148844 0.11012821611360116
0.0309985 -0.9312477154932306 0.11755792573006867
0.0329984 -0.9298820113320484 0.12488124450710836
0.0349983 -0.9286847497122059 0.13218185901844556
0.0369982 -0.9273983555197532 0.13952522054932515
0.0389981 -0.9259865561556194 0.14673583354758998
0.040998 -0.9248574588570493 0.15361703464705587
0.0429979 -0.9229039716480699 0.16123258444471786
0.0449978 -0.9216799076694899 0.1678570716809643
0.0469977 -0.9197389939698921 0.17533463858883033
0.0489976 -0.9183414386557156 0.18231907465237376
0.0509975 -0.9168335935763702 0.18961740599684382
0.0529974 -0.9149467613873671 0.19657652978220336
0.0549973 -0.913157701047822 0.20379099991283106
0.0569972 -0.9114322317400559 0.21069104823087365
0.0589971 -0.9095600731564256 0.21763394069575975
0.060997 -0.9075013202169855 0.22458255464336738
0.0629969 -0.9057227335691848 0.23160714696616785
0.0649968 -0.9036194545369176 0.23835354421007027
0.0669967 -0.9018324967005876 0.24526421902161488
0.0689966 -0.8994623592207224 0.25213550600776413
0.0709965 -0.8971747173234876 0.2591006834706338
0.0729964 -0.8951893786029373 0.26594385623609856
0.0749963 -0.8929002933708299 0.27256140772797127
0.0769962 -0.8901881806273395 0.27963355195188466
0.0789961 -0.8877746655174036 0.2863279271416764
0.080996 -0.8854693335953218 0.2931679730856476
0.0829959 -0.8831683120450975 0.2999493191950421
0.0849958 -0.8803344118389133 0.3063522680714373
0.0869957 -0.8777098892379294 0.3131567628633279
0.0889956 -0.8749216982624098 0.3200054915200289
0.0909955 -0.8722330076703184 0.3267369000423186
0.0929954 -0.8694674613409059 0.33317040417323696
0.0949953 -0.8667857521130025 0.33964463753449425
0.0969952 -0.8638441266451097 0.3465308043638802
0.0989951 -0.8609032352107 0.3530941309184987
0.100995 -0.8579983388552883 0.3592179175747565
0.1029949 -0.8548945333554576 0.3660213563293089
0.1049948 -0.8521472136513204 0.3725864327438941
0.1069947 -0.8487023065501886 0.37916381560357176
0.1089946 -0.8457009166197251 0.38578192504248543
0.1109945 -0.8426027857052245 0.3922515763552813
0.1129944 -0.8392534558063853 0.3986287956114056
0.1149943 -0.8361944970852319 0.4051046590941675
0.1169942 -0.8327843601967899 0.4114903095509593
0.1189941 -0.8296467506299053 0.4180552909623093
0.120994 -0.8261743714616341 0.42422603220617966
0.1229939 -0.8229274891548072 0.43066246597736285
0.1249938 -0.8197493776127573 0.4368629708023004
0.1269937 -0.8161962583888498 0.44300981183758953
0.1289936 -0.8127902861675415 0.44902150670350094
0.1309935 -0.8090580157069764 0.4554223690981291
0.1329934 -0.8055813701814629 0.46155334886715677
0.1349933 -0.8020478585393315 0.4675294354053434
0.1369932 -0.7982158067686832 0.4736807090824722
0.1389931 -0.7948058027823732 0.47962553123664875
0.140993 -0.790876336298579 0.48559399566903166
0.1429929 -0.787387628867211 0.4917644439767105
0.1449928 -0.7832387490898157 0.4973880959011927
0.1469927 -0.779435290557902 0.5032756382309728
0.1489926 -0.7751490231569664 0.5090174508395883
0.1509925 -0.7712755009439202 0.5149301444445615
0.1529924 -0.7671049195898637 0.5202703064739723
0.1549923 -0.7628165445141801 0.5260961750017366
0.1569922 -0.7583019936758895 0.5314882078272118
0.1589921 -0.7543802257888528 0.5377414654489459
0.160992 -0.7495438658399541 0.5433181379940367
0.1629919 -0.745541794352778 0.549218788552461
0.1649918 -0.7409343285183435 0.5547638899704275
0.1669917 -0.7364208337381849 0.5600703782879648
0.1689916 -0.7322208901137964 0.565942298878093
0.1709915 -0.7273658708245899 0.571321403807614
0.1729914 -0.7226844905334067 0.5767588644877619
0.1749913 -0.7180704495422683 0.5822316579062983
0.1769912 -0.7131847940344362 0.5877430909078456
0.1789911 -0.7086450739631711 0.5934419186647105
0.180991 -0.7036239374455082 0.5989688454000124
0.1829909 -0.6990343437687548 0.6044985064458057
0.1849908 -0.6943014353042102 0.6098154217510269
0.1869907 -0.6894088970381881 0.6157247231705946
0.1889906 -0.6840100793743163 0.6210711410617606
0.1909905 -0.6789679035306816 0.6265123815585552
0.1929904 -0.6743728364447961 0.6317639396679509
0.1949903 -0.6695749568150211 0.6368962313200348
0.1969902 -0.6649321166712406 0.6422146524056598
0.1989901 -0.6599352677627052 0.647439749534862
0.20099 -0.6549851538953717 0.6526250615693628
0.2029899 -0.649836082174654 0.6575605612981955
0.2049898 -0.6443601979224733 0.662552046772049
0.2069897 -0.6393088395698228 0.667504809599497
0.2089896 -0.6341045732719416 0.6724021735085691
0.2109895 -0.6291237909592103 0.6774346647925421
0.2129894 -0.6238015345354095 0.682276025563961
0.2149893 -0.6188060550148244 0.6870493423133044
0.2169892 -0.6132874329810056 0.6917881818697856
0.2189891 -0.6080211745479104 0.6964966844874306
0.220989 -0.6023535532455215 0.7008921460576533
0.2229889 -0.59690518227898 0.7055185637566412
0.2249888 -0.5917019117369575 0.7100909528628758
0.2269887 -0.5859637715617014 0.7144766483555748
0.2289886 -0.5802975396253763 0.7188785656208718
0.2309885 -0.5746869795220096 0.7231366056209402
0.2329884 -0.569162408677983 0.7274448358377505
0.2349883 -0.5631396556273303 0.7319709788060443
0.2369882 -0.5574875614329213 0.736037158885383
0.2389881 -0.551439690209897 0.74030881966939
0.240988 -0.5455072214257097 0.7441951337117751
0.2429879 -0.5394655922284772 0.7485085216504835
0.2449878 -0.5334643634900845 0.7524173005227093
0.2469877 -0.5276295140023668 0.7564743617891432
0.2489876 -0.5216098414302218 0.760658670993144
0.2509875 -0.5151819313852685 0.7646456495727998
0.2529874 -0.508929538083799 0.7687389014659545
0.2549873 -0.5026415031527524 0.7725819844480813
0.2569872 -0.49657585343434546 0.776771021005378
0.2589871 -0.4901973407176342 0.781005967013605
0.260987 -0.4837368405718014 0.7845318593254492
0.2629869 -0.47755152831648673 0.7885679929275833
0.2649868 -0.4711945513124358 0.7923036482020798
0.2669867 -0.46502779193775823 0.7960756560773248
0.2689866 -0.458980734177026 0.7998711106152676
0.2709865 -0.45249496729105254 0.8032129622916173
0.2729864 -0.4458877429027247 0.8070417068093874
0.2749863 -0.43964181543930103 0.8106730403537761
0.2769862 -0.43302692196795917 0.8143105624834376
0.2789861 -0.4266992514966832 0.8176754947803893
0.280986 -0.42001861056550016 0.821182025159863
0.2829859 -0.41375785536774995 0.824511882650848
0.2849858 -0.407354489815695 0.8278483305011838
0.2869857 -0.4007741134356776 0.8310597691462399
0.2889856 -0.3942885808667864 0.8342558453652548
0.2909855 -0.38778707022362385 0.8376031510595902
0.2929854 -0.381151547949564 0.8406246571934807
0.2949853 -0.3748267746572093 0.8434052465200204
0.2969852 -0.3678204146073567 0.846372853135664
0.2989851 -0.3611076135026823 0.8490600398729404
0.300985 -0.3539409033225353 0.8517354739824032
0.3029849 -0.34751320851018086 0.8544898412405545
0.3049848 -0.34075768611777923 0.8573317812721397
0.3069847 -0.3337102603439498 0.8594904835058936
0.3089846 -0.3268678113705474 0.8620393797082835
0.3109845 -0.3200336975856532 0.8645754369911232
0.3129844 -0.31296970690901615 0.8666678553379112
0.3149843 -0.3058800271403335 0.868962494327959
0.3169842 -0.2987631369839227 0.871434141380644
0.3189841 -0.2916961975364782 0.8738303694338545
0.320984 -0.28405142663013155 0.8765280945647133
0.3229839 -0.2770952527376774 0.8785674025698257
0.3249838 -0.2700005929384995 0.8810248422211702
0.3269837 -0.2627181313713367 0.8830924239608183
0.3289836 -0.25517621387553235 0.8846328488994001
0.3309835 -0.2478482911260397 0.8868112087123914
0.3329834 -0.24075150325708322 0.8890817977499893
0.3349833 -0.23358773978809308 0.8906858648385125
0.3369832 -0.22611532274697319 0.8926051758668927
0.3389831 -0.21919290473700054 0.8947364119125076
0.340983 -0.21137914846575886 0.8966936104418243
0.3429829 -0.20416293459911394 0.898465422492158
0.3449828 -0.19666206252665572 0.9004303592889615
0.3469827 -0.18932340938979478 0.9020740476322578
0.3489826 -0.18216420127453226 0.9038237268233014
0.3509825 -0.174615601121752 0.9052391730338276
0.3529824 -0.16711615362792884 0.9072196268585844
0.3549823 -0.16000300657798341 0.9082310955342188
0.3569822 -0.152518920139041 0.9096893541796645
0.3589821 -0.14485167134799246 0.9110258481599356
0.360982 -0.1377128645054927 0.9122392637792632
0.3629819 -0.1300466067539293 0.9132591282004837
0.3649818 -0.12293134712392248 0.9144456516203865
0.3669817 -0.11518056990115447 0.915608057928678
0.3689816 -0.1078073384483998 0.9166221610360729
0.3709815 -0.10074225638317921 0.9171730684520931
0.3729814 -0.09336731163209085 0.9183397035135719
0.3749813 -0.08571497086087407 0.9189688193636018
0.3769812 -0.07823760162033282 0.919886868587134
0.3789811 -0.07077948089982475 0.9205548064347181
0.380981 -0.06322801556751931 0.920973689416537
0.3829809 -0.055898912625016485 0.9214137503409785
0.3849808 -0.04815311930141576 0.9220084818195302
0.3869807 -0.04090959908657473 0.922316560774887
0.3889806 -0.033124323064334174 0.92227663325216
0.3909805 -0.02556442218936438 0.9225436108833738
0.3929804 -0.017973519125415685 0.9226678609831179
0.3949803 -0.009941438438568557 0.9230254829280049
0.3969802 -0.001855986602639484 0.922509869554305
0.3989801 0.0056137736414274796 0.9224271280098927
0.40098 0.013479064101936215 0.9224204934217193
0.4029799 0.020909060337733827 0.9220047512426782
0.4049798 0.029192221590112966 0.9220257264234778
0.4069797 0.03706175615420147 0.9217769245331918
0.4089796 0.044532259550843264 0.9215147713475793
0.4109795 0.0528700259558289 0.9212748018032153
0.4129794 0.060151400303131534 0.9208684088054665
0.4149793 0.06811430646595726 0.9201568878989833
0.4169792 0.07626359575595616 0.9199783956541339
0.4189791 0.08356764035611096 0.9189884224378702
0.420979 0.0915079445391434 0.9185918197899864
0.4229789 0.0992960383761862 0.9176176058580264
0.4249788 0.10702976294777211 0.9170283733256025
0.4269787 0.11450029464134984 0.9160788952200453
0.4289786 0.12252525632912425 0.915550895073571
0.4309785 0.13009539941930148 0.9145172319763314
0.4329784 0.13775019405864955 0.9136829059510667
0.4349783 0.14534285019559381 0.912371256648483
0.4369782 0.15345876184898502 0.9110733890438765
0.4389781 0.16119850961269744 0.9098178105559792
0.440978 0.16890112252656225 0.9087869381412819
0.4429779 0.17660401480778126 0.9072230498622705
0.4449778 0.18422949882870648 0.9057917173157521
0.4469777 0.19180827349985902 0.90431316977521
0.4489776 0.19892635373991716 0.9026354848950582
0.4509775 0.2067342889390754 0.9009824975477649
0.4529774 0.21475316780619821 0.8994633592258392
0.4549773 0.22207214221131127 0.8976914447930014
0.4569772 0.2298277025832939 0.8958520419533726
0.4589771 0.23772717109737404 0.893697150903621
0.460977 0.24546336277447858 0.8915864355651599
0.4629769 0.252981290072875 0.8892430784449143
0.4649768 0.26070446273873576 0.8870861688544661
0.4669767 0.2683673048294942 0.8846351152845042
0.4689766 0.2761553016764945 0.8826743561335173
0.4709765 0.2835140077622196 0.87987236451018
0.4729764 0.2911749698785219 0.8780424028943006
0.4749763 0.29898643147817555 0.8754607626887965
0.4769762 0.30633581072636584 0.8730787418402528
0.4789761 0.31399340352073946 0.8705775825171422
0.480976 0.32181532685823355 0.8676985178698525
0.4829759 0.3292761802231366 0.865079127567882
0.4849758 0.3364319138038037 0.8625994643815852
0.4869757 0.34399290825087336 0.8593397697653701
0.4889756 0.35160365532910304 0.8568870382078266
0.4909755 0.35941624713483955 0.8539635794909136
0.4929754 0.3666207509478088 0.8509821356839781
0.4949753 0.3739505292879571 0.8477523153324217
0.4969752 0.38144566866642127 0.8446502919329212
0.4989751 0.3887000111631146 0.8418422858207418
0.500975 0.39580446977277817 0.8385778418948773
0.5029749 0.4030960355017863 0.8351566230988646
0.5049748 0.41036838006690535 0.8318560218074375
0.5069747 0.41728652752090334 0.8284054209409399
0.5089746 0.4240069412530358 0.8247989287244857
0.5109745 0.431269615436108 0.8211122743840228
0.5129744 0.4385636711967723 0.817488166875098
0.5149743 0.4458260974979758 0.8139077677017315
0.5169742 0.4527607025404027 0.8098451813806691
0.5189741 0.4596094142323081 0.8059355185539698
0.520974 0.4667941398936323 0.8015584190997593
0.5229739 0.4733422811659027 0.7973456582769647
0.5249738 0.4805542447978015 0.7935551500740997
0.5269737 0.48705076850514906 0.7892703408056823
0.5289736 0.4937847218400507 0.7847513025529009
0.5309735 0.5011878387340394 0.7802648249237526
0.5329734 0.5078077523721188 0.775809760068823
0.5349733 0.5143790470499852 0.7709816762169184
0.5369732 0.5213410314924324 0.7662965922325767
0.5389731 0.5279074271652676 0.7617547712384648
0.540973 0.5349935526251577 0.7571839349097648
0.5429729 0.5417729105479032 0.7523907653985072
0.5449728 0.5486162140058388 0.7477516718963261
0.5469727 0.5555190699770609 0.7427809417973381
0.5489726 0.5622770229826086 0.7377524580568416
0.5509725 0.568268699730642 0.7327640915973601
0.5529724 0.5751064245773906 0.7278352496382106
0.5549723 0.5814956915735845 0.7223101468783567
0.5569722 0.5882983368496844 0.7173452414577255
0.5589721 0.5948088271294805 0.7123541697723577
0.560972 0.6013544766631498 0.7072825656210021
0.5629719 0.6081111112773607 0.7020815440162099
0.5649718 0.6143528035861313 0.6971424283448906
0.5669717 0.6206779206574178 0.6920355518447827
0.5689716 0.6270608055636192 0.6864233724287658
0.5709715 0.6329928601820733 0.6810464441264346
0.5729714 0.6390895463452226 0.6750575071775686
0.5749713 0.6450656038482505 0.6699393303892562
0.5769712 0.6510895259176561 0.6643023997475253
0.5789711 0.6567694033715599 0.6589847860439718
0.580971 0.662744123623774 0.6533776088242237
0.5829709 0.6685627892238695 0.6477001895001098
0.5849708 0.6741218076731467 0.6416445917424467
0.5869707 0.6794954269968063 0.6358459905071342
0.5889706 0.6851803784611173 0.6296484447337204
0.5909705 0.6908522952268832 0.6237803687507657
0.5929704 0.6964634962419428 0.6172257978495507
0.5949703 0.701613646358707 0.6114828318564314
0.5969702 0.7069505083981336 0.6052825774901948
0.5989701 0.7125775292597247 0.5984240513052439
0.60097 0.7172492338067218 0.5920937595254929
0.6029699 0.7231724430899162 0.5851215781239428
0.6049698 0.7279396049775599 0.57925029447712
0.6069697 0.7328148196063674 0.5725353665253502
0.6089696 0.7382219817209305 0.566027109834511
0.6109695 0.742935440871122 0.5592984205759127
0.6129694 0.7479886521221251 0.5524052507605719
0.6149693 0.7529646711119553 0.5461652700125661
0.6169692 0.7586640419439782 0.5391199570127788
0.6189691 0.763518761072158 0.5320888030839072
0.620969 0.7682163982807513 0.5252211402382219
0.6229689 0.7729084454927538 0.5180567991085422
0.6249688 0.777834692112372 0.5111810739601591
0.6269687 0.7825316331383413 0.5041487270303715
0.6289686 0.7872947842516057 0.4973678163092123
0.6309685 0.7918708872758613 0.4899402216422344
0.6329684 0.796008917504238 0.4830848137191964
0.6349683 0.8008545636359441 0.47596365479218433
0.6369682 0.8048316661021416 0.46865733293528067
0.6389681 0.8095402254297182 0.46164064429633256
0.640968 0.8140496318737065 0.4544859104788253
0.6429679 0.8178898062926362 0.44716558066511364
0.6449678 0.8217508884943182 0.4401476959690334
0.6469677 0.8260175959783719 0.4327082203041115
0.6489676 0.8295032698882816 0.42609102567759377
0.6509675 0.8334196754876152 0.4182972841780075
0.6529674 0.8373514188907827 0.41091714056108464
0.6549673 0.8411375216440422 0.4036200441195007
0.6569672 0.8447023241400224 0.3958240847815104
0.6589671 0.8480578378490621 0.38822590647333766
0.660967 0.850848519892579 0.3808284086971558
0.6629669 0.8548156655716338 0.372981743505146
0.6649668 0.8580540244092569 0.36608339957891617
0.6669667 0.8611691085250963 0.3576616419343161
0.6689666 0.8641145521048949 0.35031908825186137
0.6709665 0.866409788384432 0.3421690194170625
0.6729664 0.8701009647681428 0.3343359456809847
0.6749663 0.8731935884311841 0.326760758516416
0.6769662 0.8759854259769105 0.318703692234087
0.6789661 0.8789135761332556 0.310737433754463
0.680966 0.8821080702365369 0.30279557281068575
0.6829659 0.8844189648633751 0.29462433130725446
0.6849658 0.8872089043547374 0.28660029514937924
0.6869657 0.8894953416112155 0.27866696091928905
0.6889656 0.8920431492024046 0.2704216447645348
0.6909655 0.8945712845896432 0.2626328626483948
0.6929654 0.8969332372359861 0.25411611352781965
0.6949653 0.8991337979795497 0.24621541289758916
0.6969652 0.9014652055130928 0.23777590897841247
0.6989651 0.9035821152308935 0.22967585054190567
0.700965 0.9057316591915281 0.22146200152120527
0.7029649 0.9075826358334528 0.21332751028268862
0.7049648 0.9097718966061764 0.20503177882526885
0.7069647 0.9115704936084565 0.1968935234601268
0.7089646 0.913448207510623 0.1885032799657649
0.7109645 0.9152895790183739 0.1803733884949224
0.7129644 0.9169926246388908 0.17214651216538707
0.7149643 0.9185397190234653 0.16401728816175878
0.7169642 0.9201315788943836 0.15546095425528839
0.7189641 0.9216743215395844 0.14736374416621503
0.720964 0.9228212369257996 0.13906633446051228
0.7229639 0.9239364953891047 0.13107125467538266
0.7249638 0.9254500207178564 0.1228643186496553
0.7269637 0.9266679653348248 0.1144361895967578
0.7289636 0.9269649987200601 0.10603289558108615
0.7309635 0.9284342092883404 0.0978899084505023
0.7329634 0.9292500044741671 0.08939553733377809
0.7349633 0.9296880675864831 0.08134975754727393
0.7369632 0.9306521211978013 0.07272633373690114
0.7389631 0.9311333751960124 0.06472896184014741
0.740963 0.9316172853428426 0.05630670291123852
0.7429629 0.9322999790457822 0.04753095635315062
0.7449628 0.9325532033023716 0.03954594210728462
0.7469627 0.932752897112058 0.030750254864453853
0.7489626 0.9333402934797494 0.022383265326641193
0.7509625 0.9335868464446984 0.013949872272955952
0.7529624 0.9333482198485523 0.00590083941805758
0.7549623 0.9333607000130886 -0.002731215006915713
0.7569622 0.9331430951141286 -0.011327933665851248
0.7589621 0.9331759269398024 -0.019423818937418888
0.760962 0.9331035256066397 -0.027795943980552476
0.7629619 0.9326608953011806 -0.036500678386846154
0.7649618 0.9325426161214146 -0.04473045901247304
0.7669617 0.9322120966011774 -0.053069130979029544
0.7689616 0.93142340569427 -0.06117524227352636
0.7709615 0.9310491181946452 -0.06988196534077325
0.7729614 0.9306024544882056 -0.07800002008388111
0.7749613 0.9296422766615345 -0.08662164209394775
0.7769612 0.9287555281308518 -0.09503890790932051
0.7789611 0.9282966930904734 -0.10318902779249697
0.780961 0.9270177274168394 -0.11149486113104268
0.7829609 0.9262380756202108 -0.11952147268456072
0.7849608 0.9249046891153794 -0.12770961245071116
0.7869607 0.923843802420724 -0.13598535040246437
0.7889606 0.9223790298196654 -0.1442516773341929
0.7909605 0.9208270265679056 -0.15245734590344046
0.7929604 0.9194905080529615 -0.16014058792497765
0.7949603 0.9177913626814312 -0.16890200018432747
0.7969602 0.9163923843864019 -0.1766457582470108
0.7989601 0.9147024646973666 -0.18516715531611494
0.80096 0.912915263382071 -0.19286440827007256
0.8029599 0.9109886096499105 -0.20108338188299074
0.8049598 0.9092718457107813 -0.2091859128772103
0.8069597 0.9071443188111981 -0.21716778337906306
0.8089596 0.9050368814815813 -0.22557397127593576
0.8109595 0.9028635811391661 -0.23339657831289784
0.8129594 0.9010715829122294 -0.24173263777251286
0.8149593 0.8983444083925738 -0.24994104749918544
