! Created with skrf 1.8.0 (http://scikit-rf.org).
# GHz S RI R 50.0 
!freq ReS11 ImS11
0.001 -0.9431832787873032 0.005233539211834013
0.0029999 -0.9427346991497835 0.012065157026217355
0.0049998 -0.9419771793510863 0.019268629445302415
0.0069997 -0.9413482300272661 0.026202770205235204
0.0089996 -0.9404750027066485 0.033190282947691524
0.0109995 -0.9400222320594466 0.04011067579558787
0.0129994 -0.9393950562385166 0.046812592718170815
0.0149993 -0.9384967130432779 0.05379370153294075
0.0169992 -0.9378812822966952 0.06039131155577547
0.0189991 -0.9369737637997952 0.0672782369329111
0.020999 -0.936319952408742 0.07393885412502488
0.0229989 -0.9352666649789608 0.08071513282879926
0.0249988 -0.9340075968100349 0.08788075705982472
0.0269987 -0.9336895818489811 0.09420061808051568
0.0289986 -0.932489588387315 0.10086844388300628
0.0309985 -0.9314445722826861 0.10761434511456433
0.0329984 -0.9304335097140677 0.11386350730932822
0.0349983 -0.929297274938635 0.12109646538097667
0.0369982 -0.9280754379698006 0.12780261002322585
0.0389981 -0.9268663797609371 0.1343801962992856
0.040998 -0.9260060584761244 0.14072191810316165
0.0429979 -0.9242336561960778 0.14759727582202992
0.0449978 -0.9232743838844589 0.15373424741919034
0.0469977 -0.9216418779802985 0.16058781059160193
0.0489976 -0.9204593334495214 0.167031562674978
0.0509975 -0.9187883456503315 0.17368772373967895
0.0529974 -0.9175025794512902 0.18037982752058973
0.0549973 -0.9159297099505141 0.18642036317145472
0.0569972 -0.9144320923928035 0.19296939839650204
0.0589971 -0.91273330682466 0.1993894260465355
0.060997 -0.9110839281759184 0.20573895867162278
0.0629969 -0.9094757185523046 0.2120881312116373
0.0649968 -0.9077581023284326 0.2183896611441446
0.0669967 -0.9061852200063196 0.2247592064742976
0.0689966 -0.9041640937478734 0.23118677245699604
0.0709965 -0.9023133865109396 0.23739213474786958
0.0729964 -0.900629918887085 0.2437595963756617
0.0749963 -0.898592971248934 0.24987026934754586
0.0769962 -0.8962465187836238 0.2563801627625287
0.0789961 -0.89421774948616 0.2625253165786384
0.080996 -0.892288341020994 0.2687775756232643
0.0829959 -0.8901312066801874 0.2751196852108405
0.0849958 -0.8878191649201472 0.28096585854716166
0.0869957 -0.8856082923628902 0.2871863687915465
0.0889956 -0.8830650466302091 0.29352762751359424
0.0909955 -0.8809584082671027 0.2995501328910949
0.0929954 -0.8785485930640727 0.3056298914998372
0.0949953 -0.8763863650187383 0.31170559763416966
0.0969952 -0.8738788192082094 0.3177207577619795
0.0989951 -0.8713323669153678 0.3241347700758764
0.100995 -0.8687117057802084 0.3301010476347551
0.1029949 -0.866293560866033 0.3359497049616036
0.1049948 -0.8637316728744292 0.34202071587979976
0.1069947 -0.8608226569302717 0.34825588396041596
0.1089946 -0.8584722682330076 0.35399538159482496
0.1109945 -0.8557323421178751 0.3602922460877764
0.1129944 -0.8529236953542287 0.3662425214780687
0.1149943 -0.8503359267215947 0.37225286874133057
0.1169942 -0.8473255394401016 0.3780960211306537
0.1189941 -0.8448120940312469 0.3841369534699537
0.120994 -0.8418318193235063 0.38996374084037844
0.1229939 -0.8390262379117935 0.3956105363886386
0.1249938 -0.8363821129215293 0.4018039098884098
0.1269937 -0.8335033475226694 0.4075752033503399
0.1289936 -0.8307296267061015 0.41323068480515623
0.1309935 -0.8273052063591655 0.41889988071977463
0.1329934 -0.824463219892843 0.4244816701994832
0.1349933 -0.821459045336103 0.4300887923483772
0.1369932 -0.8185573604613112 0.4359929683391335
0.1389931 -0.8153908115052668 0.44167972907079167
0.140993 -0.8120000694549709 0.4471143585209086
0.1429929 -0.8090722133719446 0.4526763242342348
0.1449928 -0.8054223416561732 0.4584019966397876
0.1469927 -0.8022441664192086 0.46376920908739916
0.1489926 -0.7987507167028689 0.46932096179741384
0.1509925 -0.7954862637860445 0.4745708407947997
0.1529924 -0.7918573568480266 0.47970439882490773
0.1549923 -0.7879475531104889 0.4852741399911813
0.1569922 -0.7843505643327277 0.4902321971316119
0.1589921 -0.7808208214031113 0.4961855854651266
0.160992 -0.7769243751599999 0.5013143421314906
0.1629919 -0.7736898015503434 0.5070409858105536
0.1649918 -0.7697609720252832 0.511845594875837
0.1669917 -0.7657588387177745 0.5171222020290117
0.1689916 -0.7621647077117287 0.5222616840907542
0.1709915 -0.7584638700503956 0.5278773045941659
0.1729914 -0.753956840304316 0.5331162181409836
0.1749913 -0.7501977319966103 0.5383083840769252
0.1769912 -0.746022650946998 0.5434285441207167
0.1789911 -0.7421120705062425 0.5490832627400386
0.180991 -0.7380732755759697 0.5540244518578927
0.1829909 -0.734048043515341 0.559199650266691
0.1849908 -0.7299601011225547 0.5643251928808388
0.1869907 -0.7263202277212082 0.5700835241900242
0.1889906 -0.721227708784947 0.575213475800485
0.1909905 -0.7170386382491771 0.5806132625450676
0.1929904 -0.7131295702704542 0.5856627936917707
0.1949903 -0.7089886036693384 0.5905272038227142
0.1969902 -0.7051433559713293 0.5955847281721975
0.1989901 -0.7009356954591822 0.6004556249969352
0.20099 -0.697089171411075 0.6053995088007701
0.2029899 -0.6924663134132847 0.6103033619412822
0.2049898 -0.6875394512843404 0.6152888855192707
0.2069897 -0.683594827086106 0.6199736729451139
0.2089896 -0.6793320083378687 0.6248542723528184
0.2109895 -0.6749396084648644 0.6294981038241075
0.2129894 -0.6703072627740598 0.6344271717176213
0.2149893 -0.6661009452907898 0.6388741475384806
0.2169892 -0.6616908739843247 0.6435365616586635
0.2189891 -0.6567673878902326 0.6479408954105276
0.220989 -0.6521400754127319 0.6526880491379566
0.2229889 -0.6476799204480591 0.6570490031075502
0.2249888 -0.6430813179277965 0.6616393606965456
0.2269887 -0.6381255685126231 0.6657621066970083
0.2289886 -0.6334777785088854 0.6702011609811601
0.2309885 -0.6288042155320688 0.6745072717720816
0.2329884 -0.6236430981152284 0.6787605092924639
0.2349883 -0.6190643123120958 0.6833836575232848
0.2369882 -0.6138596884043145 0.6874083260330707
0.2389881 -0.6087171067227086 0.6917051988606001
0.240988 -0.6038268081664903 0.6956574510758102
0.2429879 -0.5985381205506427 0.6995612132106341
0.2449878 -0.5935975597932792 0.7037264332707953
0.2469877 -0.5882712246992323 0.7077175410732335
0.2489876 -0.582911008750225 0.7121763762569978
0.2509875 -0.5777191683120394 0.7162060340601534
0.2529874 -0.5722751030386813 0.7203779678142272
0.2549873 -0.5669517525678623 0.724553161033401
0.2569872 -0.5617827108911471 0.7283480980202746
0.2589871 -0.5563097204141996 0.7327572343549864
0.260987 -0.5509707939180765 0.7367725675478122
0.2629869 -0.5454093385812826 0.7405878868217944
0.2649868 -0.5402271969565106 0.7445945615743651
0.2669867 -0.5345454297595927 0.7486141988136442
0.2689866 -0.5293740120054354 0.7523780582776204
0.2709865 -0.5240373679195584 0.7562081034017912
0.2729864 -0.5184660767797443 0.7602149136713133
0.2749863 -0.5129909441144422 0.7640143284199293
0.2769862 -0.507366279419683 0.767556302851035
0.2789861 -0.5018152014270433 0.7712915915492619
0.280986 -0.4965398778770419 0.7751955815805343
0.2829859 -0.4908433677762062 0.7783955112109422
0.2849858 -0.48558296895027436 0.7822258993861577
0.2869857 -0.47999146311520025 0.7855013083571306
0.2889856 -0.47411527428616795 0.7889740062690477
0.2909855 -0.4685092076905386 0.7925447919172691
0.2929854 -0.462837475173818 0.795856972528741
0.2949853 -0.4573395996986814 0.7988800491704748
0.2969852 -0.45132097173682284 0.8022465269804672
0.2989851 -0.44564077571803606 0.8052540088020894
0.300985 -0.43933410831838365 0.808350909165829
0.3029849 -0.43414162916697746 0.811371417388508
0.3049848 -0.42805956224804265 0.8143298522482184
0.3069847 -0.42211706148203276 0.8171327404879518
0.3089846 -0.4160360637154967 0.8197971216937536
0.3109845 -0.4097945693410694 0.8226290571955451
0.3129844 -0.4039519261442838 0.825587847311846
0.3149843 -0.39784155074653393 0.8281089387770235
0.3169842 -0.39154892495686494 0.8310097385048579
0.3189841 -0.3856198311518267 0.8340485790149657
0.320984 -0.3792029550718261 0.8369827347441743
0.3229839 -0.3725930252123018 0.8397452141564281
0.3249838 -0.3665262461899453 0.8423844163593236
0.3269837 -0.3602111433010783 0.8451130429514069
0.3289836 -0.35392311841270174 0.8475303936021832
0.3309835 -0.3471935006696654 0.8499075190230887
0.3329834 -0.3412647446211998 0.8530992324884454
0.3349833 -0.3346342664268257 0.8548705272063016
0.3369832 -0.3289220397315699 0.8576177048694297
0.3389831 -0.32225336227280327 0.8601846058382259
0.340983 -0.3156230551484945 0.8627606243859548
0.3429829 -0.30924080996517445 0.8649528059606478
0.3449828 -0.30296964848606345 0.867250268403187
0.3469827 -0.29615500353437557 0.8699864821111514
0.3489826 -0.29008028690893845 0.8721617562412972
0.3509825 -0.28324161442245205 0.8744068245523795
0.3529824 -0.2770133558622003 0.8766540529295648
0.3549823 -0.27061097460561534 0.8786702535692669
0.3569822 -0.26404125376073906 0.8807305879102659
0.3589821 -0.25750837450410136 0.8826473234712544
0.360982 -0.2511195441463801 0.8846805931232189
0.3629819 -0.2445724059394248 0.8866648000831717
0.3649818 -0.23787376921622816 0.888377037698389
0.3669817 -0.23157352327976527 0.8901942341983387
0.3689816 -0.22479644083054565 0.8918458738283663
0.3709815 -0.21841235640866205 0.893376187299169
0.3729814 -0.2118453136211208 0.8951631813616014
0.3749813 -0.20539820718380175 0.89664181005326
0.3769812 -0.1984310837315005 0.8984329759829494
0.3789811 -0.19189288605150598 0.8999170953702575
0.380981 -0.18555184341711967 0.900666030001249
0.3829809 -0.178912291040077 0.9020939263410405
0.3849808 -0.17173036208354425 0.9036450003835189
0.3869807 -0.16524369584830928 0.9048801541626622
0.3889806 -0.1584118191167442 0.9058835950394567
0.3909805 -0.15143954998551856 0.907061233360672
0.3929804 -0.14507627877778867 0.907775831682715
0.3949803 -0.13797979032382404 0.9088147563169199
0.3969802 -0.13065024103356748 0.9098118647088104
0.3989801 -0.12405510625438379 0.910731612966669
0.40098 -0.11674285450184071 0.9117227461550876
0.4029799 -0.11006890902075611 0.9121372759813068
0.4049798 -0.10308328934211976 0.9131281150346631
0.4069797 -0.09553004533723924 0.9140519082561809
0.4089796 -0.08907136398464902 0.9146977438183037
0.4109795 -0.08170260375833141 0.9154872344700942
0.4129794 -0.07480443908876833 0.916074386537522
0.4149793 -0.06772125367416021 0.9168103924332429
0.4169792 -0.06033516505302261 0.9173763930811967
0.4189791 -0.0533149970648387 0.9179821757844332
0.420979 -0.04661960526001113 0.9179537091577543
0.4229789 -0.03962323127472572 0.9185818959649155
0.4249788 -0.03231180633949156 0.9187678092552162
0.4269787 -0.025278476411661144 0.9190869695747482
0.4289786 -0.01855155389879031 0.9194242687391094
0.4309785 -0.011483409841509952 0.9197669891531306
0.4329784 -0.004207371959679844 0.9197436824943619
0.4349783 0.002520079658202397 0.9200651217666767
0.4369782 0.009682866103469478 0.9200342246359328
0.4389781 0.017282726053448605 0.9195754035437284
0.440978 0.024025433336894227 0.9201528985751876
0.4429779 0.031031315218002613 0.9197253261184252
0.4449778 0.037941362636591494 0.9193474959100526
0.4469777 0.04519886731125684 0.9190014761548606
0.4489776 0.05224649278904332 0.9186651070250607
0.4509775 0.05903236419696411 0.9183528776139837
0.4529774 0.06609390934716694 0.9177508097784453
0.4549773 0.07344686685350002 0.9175516518173175
0.4569772 0.08022238072818805 0.9170176415510194
0.4589771 0.08768787811041448 0.91621187666317
0.460977 0.09510371800366774 0.9155447627273546
0.4629769 0.10205201622356991 0.9145732016019774
0.4649768 0.10911479734927498 0.9139560661286364
0.4669767 0.11651043485404931 0.9125756545126893
0.4689766 0.12361462298860072 0.911915670855592
0.4709765 0.13064794928053183 0.9108335544358596
0.4729764 0.13806131944840008 0.9102207535335385
0.4749763 0.1452062234481085 0.9089887220553217
0.4769762 0.15223260018969187 0.9077485992390879
0.4789761 0.15944905192476963 0.906883310068539
0.480976 0.1667278785153425 0.9059102929355041
0.4829759 0.17380012744363504 0.9044707767975297
0.4849758 0.18081474914082707 0.9034647295533295
0.4869757 0.18829455876077206 0.902045247075495
0.4889756 0.19526805901151256 0.9007213475178241
0.4909755 0.20234034817181104 0.8992491825480963
0.4929754 0.20929482256177961 0.8977844434369561
0.4949753 0.21657865985739547 0.8962727108382665
0.4969752 0.22348312994135738 0.8943732766925164
0.4989751 0.230703009274203 0.8931805891803647
0.500975 0.23757843173280024 0.8917373227153665
0.5029749 0.2443818226044506 0.8894388476185194
0.5049748 0.25128111003545645 0.8878502015235499
0.5069747 0.2580770845964792 0.8857837394101147
0.5089746 0.2649051230446711 0.8842122477317894
0.5109745 0.2718807610618262 0.8816758800485155
0.5129744 0.27860741132108313 0.8795860761799688
0.5149743 0.28580493025808307 0.877201214906265
0.5169742 0.29263919447085446 0.8752869651276503
0.5189741 0.29950993550218447 0.8728390351611446
0.520974 0.3065555658186725 0.8706016707087374
0.5229739 0.3131165618644635 0.8678975841082732
0.5249738 0.31997751049979184 0.8653934238753682
0.5269737 0.3270041203703724 0.8627836579239414
0.5289736 0.33351250018587464 0.8598597824460806
0.5309735 0.34062486459273955 0.8570756638737437
0.5329734 0.34761979542916027 0.8540101595213729
0.5349733 0.354003959229856 0.8512145630013732
0.5369732 0.36131623648588274 0.8478936080198426
0.5389731 0.36788112852211086 0.8450891956056547
0.540973 0.37504838323703393 0.8421862170263708
0.5429729 0.3820418467886215 0.8391484010655973
0.5449728 0.3888279108027409 0.8358686673216057
0.5469727 0.39578605874848594 0.832851408224856
0.5489726 0.4023805173531373 0.8296625213214218
0.5509725 0.4089305743192263 0.8263534471462173
0.5529724 0.41593320928491945 0.8230342902335258
0.5549723 0.4227839321492277 0.8195774734774546
0.5569722 0.4296923053674848 0.8162798385271225
0.5589721 0.4363045902561837 0.8128515592138985
0.560972 0.4430473506988629 0.8095184451163387
0.5629719 0.45057523858014403 0.8062388427691792
0.5649718 0.4566132688629793 0.8030737992895882
0.5669717 0.4631975000882021 0.7994442776568133
0.5689716 0.4700546970733027 0.7955505682843104
0.5709715 0.47644283800927995 0.7922082174452608
0.5729714 0.48307397783129435 0.7879724827797318
0.5749713 0.48944806858268797 0.784507773621948
0.5769712 0.49574898722136285 0.7806063250878301
0.5789711 0.5021789681789328 0.7770205768910059
0.580971 0.5080325244729882 0.7732223459137804
0.5829709 0.5144915847430751 0.7692666857578848
0.5849708 0.5204621163543847 0.7650331653001504
0.5869707 0.5264460774389663 0.7609818960955006
0.5889706 0.5325697642497911 0.7566682723504294
0.5909705 0.5386354258267648 0.7524176104840157
0.5929704 0.5449151273882062 0.7477308426050553
0.5949703 0.5509881528706577 0.7432868788756796
0.5969702 0.5566297227380447 0.7389292324672856
0.5989701 0.5630952714908031 0.7340369781277366
0.60097 0.568630521392069 0.7292637404617763
0.6029699 0.5747245746185741 0.7239530208075542
0.6049698 0.5803880594177822 0.71943138612632
0.6069697 0.5863663762184493 0.7145255380445216
0.6089696 0.592462993683455 0.7098420391895195
0.6109695 0.5980368714785534 0.7048616272339692
0.6129694 0.603853396823613 0.6993288508566574
0.6149693 0.6094899176029396 0.694803825754873
0.6169692 0.6158981850272577 0.6899154507680845
0.6189691 0.6217555074922088 0.6845582348048103
0.620969 0.6271271829315511 0.6793336181342615
0.6229689 0.6328151069588198 0.6736736220457389
0.6249688 0.6385490849420861 0.6689182732325458
0.6269687 0.6443027212036513 0.6634376505936246
0.6289686 0.6498765060421081 0.658187411903637
0.6309685 0.6557413896257959 0.652678290135703
0.6329684 0.6609411278134704 0.6472126001389097
0.6349683 0.6671907564388299 0.6420041842275783
0.6369682 0.6719690626253352 0.6363367423979668
0.6389681 0.6772491989651184 0.6309828736750144
0.640968 0.6830082919928386 0.6257423925494119
0.6429679 0.6882528332343758 0.6200609671556887
0.6449678 0.6931545573676623 0.6146637063900399
0.6469677 0.6982835334315387 0.6088747333856201
0.6489676 0.7031191834373376 0.6038536647773554
0.6509675 0.7085005699727974 0.5978714776217358
0.6529674 0.7136082752095052 0.5920525836179348
0.6549673 0.718377752548361 0.5861940342040864
0.6569672 0.7231391559663646 0.580217333671192
0.6589671 0.7279755664805171 0.5744838445595495
0.660967 0.7324020258310854 0.5685148173084249
0.6629669 0.7368683101265169 0.5623339346626797
0.6649668 0.7416624269483074 0.5567878595353443
0.6669667 0.7460095762005583 0.5500605005390576
0.6689666 0.7502597612615289 0.5441265752780089
0.6709665 0.7547119972988784 0.5377443654854118
0.6729664 0.7589982853717301 0.5314844022859867
0.6749663 0.7633116290453298 0.5250474327052361
0.6769662 0.7677793476390679 0.5183251842068978
0.6789661 0.7719446609373921 0.5118843715848129
0.680966 0.77615347677365 0.5052519671771386
0.6829659 0.7804832809466999 0.4988540499280352
0.6849658 0.7848214516720484 0.491855525012596
0.6869657 0.7886143552205584 0.48516754068472917
0.6889656 0.7926727795729516 0.4782649053139158
0.6909655 0.7965656522815218 0.47184059624116287
0.6929654 0.8008478049858923 0.46490957307167136
0.6949653 0.8046496885862294 0.4578676239854028
0.6969652 0.808606709640617 0.4508912594956239
0.6989651 0.8126360159811573 0.44410247252162594
0.700965 0.8163974827522237 0.4371526050930625
0.7029649 0.820155833818129 0.4301588488305621
0.7049648 0.8238425512442635 0.42342290326716986
0.7069647 0.8275770629638693 0.4161106448556362
0.7089646 0.8316304320555828 0.40927143322717896
0.7109645 0.8352031554377319 0.4023914193731279
0.7129644 0.8387547030291053 0.39535618994882693
0.7149643 0.8419046517774461 0.38832129893834955
0.7169642 0.8454731605625938 0.38136219419881323
0.7189641 0.8487878203452348 0.3740801840350948
0.720964 0.8518427385308047 0.3673398720298029
0.7229639 0.8550173994016157 0.36032146293543393
0.7249638 0.8583625632231914 0.3527820279869285
0.7269637 0.8614028979689868 0.3457498549972935
0.7289636 0.8641545590425628 0.33864147109304293
0.7309635 0.8672120503408638 0.3313915089596076
0.7329634 0.870232363580475 0.324274563737908
0.7349633 0.8723525607454201 0.31746976154673057
0.7369632 0.8752886871082248 0.3095337585149467
0.7389631 0.8777603641982293 0.3025448063944827
0.740963 0.8800784678417279 0.29505078153319725
0.7429629 0.8824948287323111 0.28757112388443185
0.7449628 0.8848132798219148 0.28082384664192706
0.7469627 0.8873084046715713 0.27327501114081987
0.7489626 0.8894394521858864 0.2655076106213107
0.7509625 0.8913130385709976 0.25795503397604913
0.7529624 0.8940606984013687 0.25063955575061564
0.7549623 0.895742970532874 0.2430181320435671
0.7569622 0.8971997801181981 0.23495519028860123
0.7589621 0.8992010565331297 0.22713213675683008
0.760962 0.9014245276770649 0.21971565895801815
0.7629619 0.9034398438517772 0.21189572130290518
0.7649618 0.9047283672846551 0.2042431018665297
0.7669617 0.9067984295523073 0.19669143407789696
0.7689616 0.908218576312738 0.1885851189283409
0.7709615 0.9096912259814602 0.1809904741653096
0.7729614 0.9117182978126763 0.17317380275751912
0.7749613 0.9129895908206973 0.16554388649336055
0.7769612 0.9140543125781848 0.1575723890683438
0.7789611 0.9157425610189653 0.15000769891048704
0.780961 0.9169263485400496 0.14209089968611244
0.7829609 0.9181315784716848 0.13411774644216504
0.7849608 0.9191714696844724 0.12672903656341417
0.7869607 0.9204410378308987 0.1185050549583972
0.7889606 0.921569519179322 0.1109997162116523
0.7909605 0.9223452407028694 0.10301394413038495
0.7929604 0.9231523901544121 0.09535515851947868
0.7949603 0.9240895134563728 0.08753461025639642
0.7969602 0.92466666641259 0.07940296997519285
0.7989601 0.9254198605740573 0.07189938825491919
0.80096 0.9261596540130806 0.06425090216852306
0.8029599 0.926554513537632 0.05642586728362789
0.8049598 0.9268414903282107 0.04859160239276908
0.8069597 0.9274019591877978 0.0403359807512744
0.8089596 0.9275831973470978 0.03273644278318358
0.8109595 0.9272604208763529 0.025140854838729524
0.8129594 0.928088209950265 0.017033353371503027
0.8149593 0.9279669243442341 0.009094524279786131
