! Created with skrf 1.8.0 (http://scikit-rf.org).
# GHz S RI R 50.0 
!freq ReS11 ImS11
0.001 -0.9434900314233094 0.005008702908667071
0.0029999 -0.9432572074037652 0.01164449582528835
0.0049998 -0.9418183684095269 0.01787097100723868
0.0069997 -0.9416046001749172 0.024319614251180843
0.0089996 -0.9409286553522047 0.030790962802675716
0.0109995 -0.9404349411229677 0.03714290148827109
0.0129994 -0.940037417823181 0.043674529138456986
0.0149993 -0.9393030619626872 0.049828135278673635
0.0169992 -0.9386393901607859 0.0562397572951254
0.0189991 -0.9378924795392282 0.06262282611210743
0.020999 -0.9370535582904616 0.06888972826250042
0.0229989 -0.9363084873297637 0.07521932150199843
0.0249988 -0.9349677587283745 0.08162505243713235
0.0269987 -0.9345588037070331 0.08797414030896714
0.0289986 -0.9336464795656456 0.09405814032688797
0.0309985 -0.9327029283919018 0.10029309629419873
0.0329984 -0.9316572787939877 0.10642398822629398
0.0349983 -0.9307487728647764 0.11272223474612628
0.0369982 -0.9295441005726792 0.1189730450337295
0.0389981 -0.9286926256917439 0.12531759190615024
0.040998 -0.9279146757414579 0.13092362034370333
0.0429979 -0.9264441551620959 0.13739262612486922
0.0449978 -0.9253571011545675 0.14313372505072722
0.0469977 -0.9238095508606361 0.14960999515842535
0.0489976 -0.9229132751151604 0.15566074688446624
0.0509975 -0.9216894786161409 0.16181896207115237
0.0529974 -0.9201504369154824 0.16771352353666344
0.0549973 -0.9187635438192566 0.17362971901340146
0.0569972 -0.9175925114792631 0.17986064778186334
0.0589971 -0.9161128543565018 0.1857547644547396
0.060997 -0.9145180752785348 0.19169797143860084
0.0629969 -0.9132354555990115 0.19756188377660702
0.0649968 -0.9116572027080249 0.20347889845461276
0.0669967 -0.9104351128874649 0.20943940192599825
0.0689966 -0.9085685550496412 0.21539148387799972
0.0709965 -0.9069033598501306 0.22117952744861466
0.0729964 -0.9054706412095119 0.2271930672512517
0.0749963 -0.9036359221597134 0.2327958018923801
0.0769962 -0.9015247522752392 0.23875291585330471
0.0789961 -0.8998341715026902 0.24469654678943129
0.080996 -0.8979909880145649 0.25041762767418674
0.0829959 -0.8964177322752355 0.2563609907379705
0.0849958 -0.8940881023387043 0.2619778857247584
0.0869957 -0.8923124577390037 0.2676217008836394
0.0889956 -0.8901781568823833 0.2735164123369984
0.0909955 -0.8880608844129921 0.2792551552209876
0.0929954 -0.8861648042559648 0.2850088726278503
0.0949953 -0.884173652008041 0.29044377201752575
0.0969952 -0.8819298341900776 0.2962512567612707
0.0989951 -0.8798407216389973 0.3018260662458972
0.100995 -0.8774030049837277 0.3077946254856451
0.1029949 -0.8751783672740926 0.3133318631812848
0.1049948 -0.872953459734529 0.3191117941710448
0.1069947 -0.8704899696876052 0.3247041131102565
0.1089946 -0.8684989218781384 0.33032690609378995
0.1109945 -0.8659481352349361 0.33617100342999273
0.1129944 -0.8634838768263153 0.3418191078963477
0.1149943 -0.861336442267558 0.3473890688448389
0.1169942 -0.858767249978082 0.35288442686662963
0.1189941 -0.8564830698866999 0.358632287646776
0.120994 -0.8538131535626627 0.3640538988895569
0.1229939 -0.8514916864184229 0.369497379549891
0.1249938 -0.8491376143201109 0.37501432429316806
0.1269937 -0.8467580065535801 0.3803025722204202
0.1289936 -0.8440562011313983 0.3856734171269521
0.1309935 -0.8412022663370051 0.39140420704982654
0.1329934 -0.8387554419099715 0.3964215478330401
0.1349933 -0.8359731866833612 0.40183393241367815
0.1369932 -0.8333563237127269 0.4072842107450553
0.1389931 -0.830994207370919 0.41241137268822026
0.140993 -0.8279742897317293 0.4176241381372487
0.1429929 -0.8252314552063438 0.42320590097895466
0.1449928 -0.8222265975234697 0.42830696954930986
0.1469927 -0.8194664052246518 0.433505626245133
0.1489926 -0.8163765301278575 0.4382966938592598
0.1509925 -0.8133202194607766 0.44394984535862964
0.1529924 -0.8101306772899602 0.44858680070028867
0.1549923 -0.8070230938800804 0.45373115997202784
0.1569922 -0.8036575366225716 0.45870482489914033
0.1589921 -0.8006456006980147 0.46434528027733357
0.160992 -0.7970282479660705 0.4693830585709991
0.1629919 -0.7942982229149536 0.47443660921231223
0.1649918 -0.7908948430405304 0.47937956572760576
0.1669917 -0.787441649546233 0.4841643530585267
0.1689916 -0.7843335267921285 0.4892301208623792
0.1709915 -0.7809587453573419 0.49450930354204076
0.1729914 -0.777387093046186 0.4994410645600344
0.1749913 -0.77380316129698 0.5045171848499799
0.1769912 -0.770087380061887 0.5093331718400606
0.1789911 -0.7668941553912617 0.5145215630587818
0.180991 -0.7631538865746896 0.5194358265617322
0.1829909 -0.7596816472142097 0.5245290179804121
0.1849908 -0.7562704681674921 0.5292036901214456
0.1869907 -0.7526251306483182 0.5348783870628323
0.1889906 -0.7485158216862092 0.5397065759534078
0.1909905 -0.7449223173917563 0.5446009467389876
0.1929904 -0.7414059882329751 0.5496303913702179
0.1949903 -0.7378356923573391 0.5543367778175895
0.1969902 -0.7345442502126488 0.5590526019116375
0.1989901 -0.730655411610491 0.5638416634016677
0.20099 -0.7273403779057941 0.5688767486535086
0.2029899 -0.7234007420387517 0.5733238967151777
0.2049898 -0.7193296379139733 0.578309401349812
0.2069897 -0.7155826177921868 0.5827899052687359
0.2089896 -0.7118073170061721 0.5870978891085447
0.2109895 -0.7081142740127069 0.5919776144402383
0.2129894 -0.7042186155287169 0.5966136882286243
0.2149893 -0.700397673182919 0.6010514932442643
0.2169892 -0.6965174440817624 0.6053395813221234
0.2189891 -0.6923792246935045 0.6098677719616261
0.220989 -0.6881830321798831 0.6142918811035477
0.2229889 -0.6841313162472328 0.6187953749215609
0.2249888 -0.6802850045526412 0.6230762896584274
0.2269887 -0.6760022580353252 0.627238967305677
0.2289886 -0.6718031159195857 0.6314806389471844
0.2309885 -0.6675989951276714 0.6357498793135469
0.2329884 -0.6632870239566088 0.6399571421966418
0.2349883 -0.6589982285544607 0.6444190065543187
0.2369882 -0.654773192497489 0.6482952607144052
0.2389881 -0.65029383684446 0.6525020051677464
0.240988 -0.6458206306902305 0.6564685924206851
0.2429879 -0.6411635218892008 0.6607589719226278
0.2449878 -0.636800020291833 0.6646288900752416
0.2469877 -0.6321755849625239 0.6685431062809848
0.2489876 -0.6274657626938004 0.6729483137331459
0.2509875 -0.623156554504337 0.6767818177661918
0.2529874 -0.6182183897659469 0.6809587142392538
0.2549873 -0.6134804402257305 0.6850682117859899
0.2569872 -0.6088450168797408 0.6890207766472769
0.2589871 -0.6044201369016882 0.6934492030961866
0.260987 -0.5993833105651737 0.6972878183075554
0.2629869 -0.5947683740584724 0.7013280559113458
0.2649868 -0.590168993332375 0.7052519370571443
0.2669867 -0.5852979285771033 0.7091071482057761
0.2689866 -0.5805607177025054 0.7130031833996414
0.2709865 -0.5761471957658403 0.7166447983209848
0.2729864 -0.571226751342499 0.7206318818173937
0.2749863 -0.5661258839660928 0.7245237477101739
0.2769862 -0.5612779470342615 0.7282939614548719
0.2789861 -0.5565488524194897 0.7319402049587416
0.280986 -0.5518134912382419 0.7357126197103655
0.2829859 -0.5466419856210729 0.7394768722089552
0.2849858 -0.5419536864137731 0.7428581112079313
0.2869857 -0.5373242591599227 0.7466226320090245
0.2889856 -0.532114060590666 0.75003637180958
0.2909855 -0.5272870616539469 0.7536438454727978
0.2929854 -0.5224615266887207 0.7572601921644446
0.2949853 -0.5175085700092407 0.7604340459426238
0.2969852 -0.5121017275187848 0.7638252254411055
0.2989851 -0.5073361796407748 0.7670497049244548
0.300985 -0.5015901747044982 0.7703537996673049
0.3029849 -0.4968082091037537 0.7732028382332282
0.3049848 -0.4916517842026482 0.7766414319206913
0.3069847 -0.48622150554787713 0.7797484851865061
0.3089846 -0.48100938370820967 0.7825763780611865
0.3109845 -0.47548647087451484 0.7856319028701306
0.3129844 -0.4703274224005132 0.7885291517832647
0.3149843 -0.46494019210546433 0.791521123053206
0.3169842 -0.4592328501698991 0.7945493996632971
0.3189841 -0.4540390550221877 0.7975117929738906
0.320984 -0.4482727727074877 0.8006079478096825
0.3229839 -0.4427760880262967 0.8039091425704031
0.3249838 -0.43749516142336653 0.8066917861589739
0.3269837 -0.43159084678081144 0.8097791141414536
0.3289836 -0.4261102406312006 0.8123148604153778
0.3309835 -0.42012315342369994 0.8150688497520558
0.3329834 -0.41490525442235465 0.8181884272347609
0.3349833 -0.40940351301493166 0.8203666768471126
0.3369832 -0.40344955286080264 0.8233101113128438
0.3389831 -0.39825248122597257 0.8264785318971497
0.340983 -0.3921009249348702 0.8291391376847346
0.3429829 -0.38658829064785427 0.8319235038817785
0.3449828 -0.380760956645694 0.8346289650407704
0.3469827 -0.3751845120706122 0.8372620746911356
0.3489826 -0.3694240157152269 0.8400740106077988
0.3509825 -0.3636541421025253 0.8424987947292895
0.3529824 -0.3578199831629883 0.8452547870288863
0.3549823 -0.3526765665619068 0.8478074918407194
0.3569822 -0.34639153122626304 0.8502860482313245
0.3589821 -0.340494310514774 0.8524453900265968
0.360982 -0.3348957727693324 0.8544853082653866
0.3629819 -0.32912358516973417 0.8570506283344809
0.3649818 -0.323267069060046 0.8590218196734565
0.3669817 -0.3174434548606831 0.86139280715446
0.3689816 -0.31163384168634367 0.8635290315530944
0.3709815 -0.3060078935787357 0.8654790765432527
0.3729814 -0.300184746313201 0.867598279063159
0.3749813 -0.29427851195812155 0.8697770861254499
0.3769812 -0.2883151296195176 0.8717550173687403
0.3789811 -0.2825175818140395 0.8737669923100201
0.380981 -0.2765622741461554 0.8753772314031809
0.3829809 -0.27064164846913286 0.8772211551138501
0.3849808 -0.2645973009495349 0.8790014495940983
0.3869807 -0.25852240938829335 0.8806593153633433
0.3889806 -0.25247327730754376 0.8824998123080001
0.3909805 -0.24623065577831849 0.8839504227178948
0.3929804 -0.24046198131216992 0.8854947328616347
0.3949803 -0.2336808004915884 0.8870774747531096
0.3969802 -0.22750563433373533 0.8883361122561613
0.3989801 -0.22104408388400915 0.89006817902495
0.40098 -0.21510045819873277 0.8913815970045633
0.4029799 -0.2088805711996503 0.8925930020010838
0.4049798 -0.20240930993758757 0.8941558982518742
0.4069797 -0.1960218522397494 0.8955196678919088
0.4089796 -0.18953066266945015 0.8970433419786281
0.4109795 -0.1833826191896805 0.8982779164629274
0.4129794 -0.17710779421791537 0.899534186748599
0.4149793 -0.17073774646972129 0.9006226298849935
0.4169792 -0.16395013097713104 0.9024233381429342
0.4189791 -0.15776326507447438 0.9033053745735113
0.420979 -0.1515020918094937 0.904674254123615
0.4229789 -0.14501513800160648 0.9050488315176725
0.4249788 -0.13898779741898132 0.9065091261178155
0.4269787 -0.13253637336830879 0.9074646467456766
0.4289786 -0.12607027379545155 0.9086212864834834
0.4309785 -0.11977981001751198 0.9093189940264593
0.4329784 -0.113429650023194 0.9103610160487232
0.4349783 -0.1070261572537571 0.9109909176561823
0.4369782 -0.10035446344541582 0.9119372359049442
0.4389781 -0.09378749781417438 0.9127342230860519
0.440978 -0.087533181459697 0.9135669519978747
0.4429779 -0.0810379094305201 0.914140469017727
0.4449778 -0.07468083704017725 0.9144452658749731
0.4469777 -0.06838638401457332 0.91484979494694
0.4489776 -0.06192152542567591 0.9153539355301771
0.4509775 -0.05566859373663648 0.9158875457494029
0.4529774 -0.049352405560925516 0.916086740842462
0.4549773 -0.04293211518717558 0.9168604629653213
0.4569772 -0.03621734212950922 0.917004435223013
0.4589771 -0.029624655439090722 0.9170249964142695
0.460977 -0.02279526433739234 0.9174206695134413
0.4629769 -0.016480356218233665 0.9173417070860452
0.4649768 -0.009648245969684506 0.9174350674329217
0.4669767 -0.0029632876700603147 0.9171139217236611
0.4689766 0.00370454334663191 0.9173336776895837
0.4709765 0.010175423824816458 0.9169368649773355
0.4729764 0.01681645868214389 0.9172266042638901
0.4749763 0.02362983827423798 0.9170642290086385
0.4769762 0.030034131297563636 0.9169105173695377
0.4789761 0.03652866315253095 0.9166816507862348
0.480976 0.043390007873393394 0.9165943084803791
0.4829759 0.050054309542647314 0.9162894809533744
0.4849758 0.056518767330233935 0.916216666618809
0.4869757 0.06334703551467141 0.9158163973082342
0.4889756 0.06981255146023199 0.9158862151794647
0.4909755 0.07643108883563345 0.9153677205826942
0.4929754 0.08280667329431782 0.9147212564116352
0.4949753 0.08956044232338575 0.9142581328062521
0.4969752 0.09626597155262757 0.9134254773469787
0.4989751 0.10255010003230425 0.9133582427568248
0.500975 0.10928855227586792 0.9127420834411171
0.5029749 0.11581531606868817 0.9120467981875772
0.5049748 0.1220612561928867 0.9110579760262656
0.5069747 0.12821142591318585 0.9101207417188455
0.5089746 0.13491839049779147 0.9093645140029745
0.5109745 0.14147958606129202 0.9084050320606157
0.5129744 0.14796467205191727 0.9070221579134025
0.5149743 0.1545009165381241 0.906029817571549
0.5169742 0.16126359663009832 0.9049567516349478
0.5189741 0.16760083710179474 0.9038638226769158
0.520974 0.17445386582255168 0.9023167635729146
0.5229739 0.18074565301614695 0.9006949169573065
0.5249738 0.18718096261154527 0.8996741305589003
0.5269737 0.19350983095214985 0.8980489642900166
0.5289736 0.2000701663009592 0.89623072090617
0.5309735 0.20670622661557747 0.8948080040429698
0.5329734 0.21340446331749047 0.8929722786994223
0.5349733 0.2198080274560058 0.8909840936653706
0.5369732 0.2264433144809058 0.8892347341152232
0.5389731 0.23334303892269612 0.8874627548692887
0.540973 0.2399767649087635 0.8856741769343481
0.5429729 0.2465509686003854 0.884005348031781
0.5449728 0.25325100980970616 0.8822232491079381
0.5469727 0.25992701070820307 0.8799122300176415
0.5489726 0.2665920507285011 0.8782192763560541
0.5509725 0.27316029074698417 0.8764135114692719
0.5529724 0.27985078415387543 0.874432493957174
0.5549723 0.28640379517374986 0.8719961226782417
0.5569722 0.29324016140814085 0.8701124798651656
0.5589721 0.2997108499603582 0.867991923952446
0.560972 0.3062116832371249 0.8660871263065683
0.5629719 0.31316944882773523 0.8639648100973158
0.5649718 0.3198536727942534 0.8620936150667524
0.5669717 0.32592557795429056 0.8599888276491722
0.5689716 0.33259240304397253 0.8577949121171108
0.5709715 0.3386823453259121 0.8552950036589575
0.5729714 0.3455520268868981 0.8526116167903538
0.5749713 0.3517479404184246 0.8502576500298071
0.5769712 0.35799509230574145 0.8478413301318561
0.5789711 0.36405558890268813 0.8455998881347374
0.580971 0.36995228716924167 0.8430782754182083
0.5829709 0.37645961819122803 0.8402275443210324
0.5849708 0.3825337490182918 0.8376557092916741
0.5869707 0.3883041355865577 0.8348724717226756
0.5889706 0.39475464891578066 0.83188816170911
0.5909705 0.4008981506304665 0.8288796603259222
0.5929704 0.4070239809796923 0.8256883391454821
0.5949703 0.4130759068382649 0.8228125813957144
0.5969702 0.41889956064475303 0.819114659798187
0.5989701 0.4252741915664273 0.8160800822928868
0.60097 0.43118960321503846 0.8128861661152929
0.6029699 0.437658141525028 0.8089882725137241
0.6049698 0.4431250088688188 0.8056490029367394
0.6069697 0.44913059384149306 0.8019120085813503
0.6089696 0.4554042193010968 0.7988258557460143
0.6109695 0.46136949782890946 0.7952863372112633
0.6129694 0.46750958358270167 0.7909547175926225
0.6149693 0.4732356482665422 0.787710097506815
0.6169692 0.4798996936610471 0.7842610403809976
0.6189691 0.48607581062895944 0.7804110950544606
0.620969 0.4919828557214592 0.7769250263151795
0.6229689 0.4980485821765843 0.7727407634973673
0.6249688 0.5040029186949868 0.7689941383055927
0.6269687 0.510015449947591 0.7650757187382864
0.6289686 0.5159844550856549 0.7615777265648709
0.6309685 0.5218141884609437 0.7574510835326029
0.6329684 0.5277286418154539 0.7534510818747121
0.6349683 0.5338984632623027 0.7499720963936914
0.6369682 0.5395112599233375 0.745404158993586
0.6389681 0.5453851104167873 0.7416797191518252
0.640968 0.5514887032957705 0.7379534821134807
0.6429679 0.5571514847258442 0.7340675108032673
0.6449678 0.562196138976446 0.7298010622140209
0.6469677 0.5680582706778263 0.7257725817441902
0.6489676 0.5730331062241522 0.7219188854010085
0.6509675 0.5786540323565222 0.7178872276603795
0.6529674 0.5844464959698908 0.713347043666377
0.6549673 0.5898237770678197 0.7091244240229074
0.6569672 0.5951330762057243 0.7041167679855276
0.6589671 0.6003826621262305 0.6997784074292079
0.660967 0.6051151283730354 0.695519697798867
0.6629669 0.6108141980593458 0.6906667491011477
0.6649668 0.6153315172184897 0.6861150380432239
0.6669667 0.6207201261259886 0.6809871993131371
0.6689666 0.6257639365947809 0.6764657138638539
0.6709665 0.6303810159897673 0.6717605599755481
0.6729664 0.6356411898886724 0.6662791271418144
0.6749663 0.6402780807737498 0.6618089275853412
0.6769662 0.6461213035140818 0.656154514633478
0.6789661 0.6507994022672664 0.6512470906509981
0.680966 0.6555583951785611 0.6461915180253834
0.6829659 0.6606925414431628 0.6405508044093873
0.6849658 0.6657047617163994 0.6357871024243948
0.6869657 0.6707516943768339 0.6304408910861221
0.6889656 0.6754041685713894 0.6248944004524317
0.6909655 0.6800927200462353 0.6195463981998645
0.6929654 0.6853645730900099 0.6136035592645948
0.6949653 0.6900805921984882 0.6086795815725345
0.6969652 0.694980223892132 0.6026828517734579
0.6989651 0.6998120600183247 0.5974161147944356
0.700965 0.7046118078833936 0.5916675726313212
0.7029649 0.7092353071040042 0.586175070096783
0.7049648 0.714077431041152 0.580822573740196
0.7069647 0.7188064185913318 0.5749837805242354
0.7089646 0.7236578013079108 0.5695964857721031
0.7109645 0.7284560545162923 0.5638944404305141
0.7129644 0.7331938782332096 0.5585884774822764
0.7149643 0.7374719187457769 0.5526775292320016
0.7169642 0.7420193275959093 0.5471110120469451
0.7189641 0.7462239132309635 0.5417926753881481
0.720964 0.7504295728912665 0.5359920878426125
0.7229639 0.7544301903504739 0.530261549490077
0.7249638 0.7590062532608789 0.5242618128800799
0.7269637 0.7632321099062538 0.518567986231467
0.7289636 0.7671398252563381 0.5123328481056217
0.7309635 0.7713249264295714 0.5071561678662487
0.7329634 0.7749226542052547 0.5012250794149437
0.7349633 0.7789425320412615 0.49509932014270386
0.7369632 0.7823973668359024 0.48921489562207504
0.7389631 0.7860087283762897 0.48324727430374703
0.740963 0.7895837597650653 0.47667683216953477
0.7429629 0.7935092357463764 0.47065315482522746
0.7449628 0.7968697146095616 0.46480809733570383
0.7469627 0.8003369489499274 0.45876384799179
0.7489626 0.8038982939072369 0.45225269749884645
0.7509625 0.8073726455668403 0.4452251912219933
0.7529624 0.8106782212743595 0.4396098356279755
0.7549623 0.8142095044547474 0.43302072113763973
0.7569622 0.817034676153995 0.42638900234099575
0.7589621 0.8202077896200926 0.41962325744962004
0.760962 0.8233913701896114 0.41359077827858093
0.7629619 0.8271193707486483 0.40634016940911116
0.7649618 0.8303305586283891 0.4000253337023216
0.7669617 0.8334005368918148 0.3934634908832971
0.7689616 0.8364596173388512 0.38651002251445177
0.7709615 0.8392360087196403 0.37993564537801955
0.7729614 0.8425815098700123 0.3730817732115743
0.7749613 0.8455116686299263 0.36637489140052837
0.7769612 0.8482880024473506 0.3595991188210759
0.7789611 0.8509425889295685 0.352596027986172
0.780961 0.8540585455176518 0.345999340078665
0.7829609 0.8565324258051195 0.3393755701853168
0.7849608 0.8598937309198138 0.33246184198007545
0.7869607 0.8623544939567717 0.32565745396987267
0.7889606 0.8650572205601358 0.31855267034890966
0.7909605 0.8674213337289317 0.3118924639603401
0.7929604 0.8700030646107283 0.30545774780033974
0.7949603 0.8723457990227191 0.29852577472127595
0.7969602 0.875038185094407 0.2917013760278591
0.7989601 0.8771875339049823 0.28466803953557734
0.80096 0.8795262991522372 0.27781230698508097
0.8029599 0.881901009733202 0.2709912302681092
0.8049598 0.8837369413414871 0.26403730126196023
0.8069597 0.8856223158987675 0.2573067018711874
0.8089596 0.8873842486060303 0.2500612445096681
0.8109595 0.8892120205674868 0.2430336137925552
0.8129594 0.891385762220291 0.23624643636034465
0.8149593 0.893295539722663 0.22900912503324167
