# GHZ S RI R 50.0
0.3 0.4563012 0.2927034
0.3011484375 0.5214443 0.1261142
0.302296875 0.5275065 -0.04874646
0.3034453125 0.4795417 -0.2110284
0.30459375 0.3864834 -0.3470812
0.3057421875 0.259746 -0.4475099
0.306890625 0.1113696 -0.5057338
0.3080390625 -0.04655783 -0.5201808
0.3091875 -0.2036616 -0.489797
0.3103359375 -0.3486937 -0.4150195
0.311484375 -0.4723511 -0.2995013
0.3126328125 -0.5622363 -0.1472909
0.31378125 -0.6085221 0.03535118
0.3149296875 -0.5978155 0.2379062
0.316078125 -0.5203468 0.4443912
0.3172265625 -0.367301 0.6322799
0.318375 -0.1382228 0.7735845
0.3195234375 0.1559149 0.8319151
0.320671875 0.4848765 0.7710163
0.3218203125 0.7962916 0.5671268
0.32296875 1.018571 0.2207793
0.3241171875 1.075924 -0.2246793
0.325265625 0.9200171 -0.6783203
0.3264140625 0.5575529 -1.027782
0.3275625 0.06575418 -1.171136
0.3287109375 -0.4330247 -1.071866
0.329859375 -0.8154352 -0.7649908
0.3310078125 -1.008269 -0.3448633
0.33215625 -1.000125 0.08181053
0.3333046875 -0.8336647 0.4305506
0.334453125 -0.5714621 0.662021
0.3356015625 -0.2751201 0.7671447
0.33675 0.009461243 0.7610652
0.3378984375 0.2509586 0.6683781
0.339046875 0.433174 0.5157771
0.3401953125 0.5485627 0.3285786
0.34134375 0.5969624 0.1277928
0.3424921875 0.5831494 -0.0674808
0.343640625 0.5135095 -0.2427376
0.3447890625 0.3972384 -0.3830256
0.3459375 0.2463564 -0.4786444
0.3470859375 0.07610739 -0.5213934
0.348234375 -0.09652354 -0.5070321
0.3493828125 -0.2530189 -0.4377664
0.35053125 -0.3752103 -0.3218681
0.3516796875 -0.449695 -0.1749414
0.352828125 -0.4686302 -0.01575741
0.3539765625 -0.4345035 0.1351186
0.355125 -0.3546594 0.260442
0.3562734375 -0.2437642 0.3482107
0.357421875 -0.1165356 0.3943358
0.3585703125 0.01277523 0.3978618
0.35971875 0.1302965 0.3638745
0.3608671875 0.2284152 0.2993284
0.362015625 0.3012905 0.2129384
0.3631640625 0.3455582 0.1124138
0.3643125 0.3596572 0.005541259
0.3654609375 0.3441784 -0.09986574
0.366609375 0.3012156 -0.1967972
0.3677578125 0.2318844 -0.2796392
0.36890625 0.1409533 -0.3412905
0.3700546875 0.03326742 -0.3758351
0.371203125 -0.08370809 -0.3785063
0.3723515625 -0.202004 -0.3456722
0.3735 -0.3108681 -0.2752643
0.3746484375 -0.3972253 -0.1686566
0.375796875 -0.4482006 -0.03230736
0.3769453125 -0.4517539 0.1205352
0.37809375 -0.4013685 0.2752123
0.3792421875 -0.2968428 0.4099547
0.380390625 -0.1449813 0.5052397
0.3815390625 0.03813069 0.5439206
0.3826875 0.2296698 0.5153279
0.3838359375 0.4075609 0.4190657
0.384984375 0.5462855 0.2622171
0.3861328125 0.6270579 0.05900306
0.38728125 0.6345796 -0.1708171
0.3884296875 0.5578062 -0.4016496
0.389578125 0.3950316 -0.6039711
0.3907265625 0.1537569 -0.7443287
0.391875 -0.1449495 -0.7873542
0.3930234375 -0.4616008 -0.7047333
0.394171875 -0.7376198 -0.4834189
0.3953203125 -0.901656 -0.1437822
0.39646875 -0.8982404 0.2523777
0.3976171875 -0.711602 0.6114219
0.398765625 -0.3835241 0.8453233
0.3999140625 0.004463809 0.9049686
0.4010625 0.3614256 0.7929378
0.4022109375 0.6205081 0.5549453
0.403359375 0.7484685 0.252867
0.4045078125 0.745655 -0.0526185
0.40565625 0.6323785 -0.3135202
0.4068046875 0.4430006 -0.4947844
0.407953125 0.2178674 -0.5850368
0.4091015625 -0.006822411 -0.5853986
0.41025 -0.1991331 -0.5118803
0.4113984375 -0.3406574 -0.3862175
0.412546875 -0.4239606 -0.2327057
0.4136953125 -0.4495275 -0.07443832
0.41484375 -0.4239995 0.07100362
0.4159921875 -0.3592373 0.1922761
0.417140625 -0.2674712 0.2810865
0.4182890625 -0.1600685 0.3350261
0.4194375 -0.04785976 0.3544541
0.4205859375 0.06013693 0.3412535
0.421734375 0.1563012 0.2994772
0.4228828125 0.234416 0.2336625
0.42403125 0.2903648 0.1503554
0.4251796875 0.3191042 0.05481859
0.426328125 0.3197694 -0.04428569
0.4274765625 0.2913824 -0.1399885
0.428625 0.2349268 -0.2243578
0.4297734375 0.1544925 -0.2883873
0.430921875 0.0565504 -0.3257056
0.4320703125 -0.05024049 -0.3297715
0.43321875 -0.1548259 -0.2995678
0.4343671875 -0.2455109 -0.2357218
0.435515625 -0.3113946 -0.1442627
0.4366640625 -0.3434778 -0.03637945
0.4378125 -0.3385773 0.07670291
0.4389609375 -0.2975867 0.1823665
0.440109375 -0.2245787 0.2699853
0.4412578125 -0.1283452 0.3288883
0.44240625 -0.01826301 0.3559301
0.4435546875 0.09545694 0.3471921
0.444703125 0.201138 0.3046966
0.4458515625 0.2909122 0.2319345
0.447 0.3573837 0.133327
0.4481484375 0.3915971 0.0167304
0.449296875 0.3909896 -0.1093224
0.4504453125 0.3505447 -0.2359192
0.45159375 0.2701762 -0.3506572
0.4527421875 0.1505925 -0.4407878
0.453890625 -0.001045092 -0.4926917
0.4550390625 -0.1752594 -0.492726
0.4561875 -0.3534491 -0.4310972
0.4573359375 -0.5142356 -0.3008141
0.458484375 -0.6288078 -0.1041348
0.4596328125 -0.6666486 0.1420491
0.46078125 -0.6016638 0.4079796
0.4619296875 -0.4224921 0.6465657
0.463078125 -0.1402258 0.8021443
0.4642265625 0.2049411 0.8260577
0.465375 0.5440459 0.6913661
0.4665234375 0.7972695 0.4091575
0.467671875 0.8989879 0.03839895
0.4688203125 0.8239686 -0.3354585
0.46996875 0.5966619 -0.6280603
0.4711171875 0.2815438 -0.7856191
0.472265625 -0.04859808 -0.7943809
0.4734140625 -0.3315081 -0.6780377
0.4745625 -0.5295262 -0.478341
0.4757109375 -0.630719 -0.2395377
0.476859375 -0.6385378 -0.0004272936
0.4780078125 -0.5688083 0.209749
0.47915625 -0.4414355 0.3724672
0.4803046875 -0.2786609 0.4777876
0.481453125 -0.09945852 0.521973
0.4826015625 0.07540718 0.5072135
0.48375 0.2302221 0.4402376
0.4848984375 0.3517185 0.3310827
0.486046875 0.4295385 0.1927132
0.4871953125 0.4573407 0.04010605
0.48834375 0.4354071 -0.1088988
0.4894921875 0.3679799 -0.2399656
0.490640625 0.2633564 -0.3398156
0.4917890625 0.1357967 -0.398339
0.4929375 -0.000667444 -0.412228
0.4940859375 -0.1307162 -0.3817949
0.495234375 -0.2412967 -0.3131287
0.4963828125 -0.3223421 -0.2161196
0.49753125 -0.3677296 -0.1015831
0.4986796875 -0.3754156 0.01861319
0.499828125 -0.3464633 0.1334602
0.5009765625 -0.2857594 0.232456
0.502125 -0.1994606 0.3077915
0.5032734375 -0.09465782 0.3541865
0.504421875 0.018775 0.3670689
0.5055703125 0.1321412 0.3465149
0.50671875 0.2360186 0.2916196
0.5078671875 0.3202295 0.2065379
0.509015625 0.3765927 0.09763995
0.5101640625 0.3975445 -0.02762501
0.5113125 0.3775013 -0.1575785
0.5124609375 0.3151361 -0.2792299
0.513609375 0.2127017 -0.3787058
0.5147578125 0.07710329 -0.4416096
0.51590625 -0.07854869 -0.4566829
0.5170546875 -0.2372186 -0.4158831
0.518203125 -0.3776242 -0.3188435
0.5193515625 -0.4795632 -0.1729446
0.5205 -0.5257685 0.006915812
0.5216484375 -0.5042922 0.1984709
0.522796875 -0.4112903 0.3761851
0.5239453125 -0.2542534 0.5126462
0.52509375 -0.05113718 0.5841496
0.5262421875 0.1712942 0.5747353
0.527390625 0.3798877 0.4796862
0.5285390625 0.5410011 0.306429
0.5296875 0.6234486 0.08022246
0.5308359375 0.6104688 -0.1646875
0.531984375 0.5012988 -0.3845826
0.5331328125 0.3134569 -0.5438017
0.53428125 0.08171535 -0.613565
0.5354296875 -0.1540953 -0.5879523
0.536578125 -0.3553986 -0.4747059
0.5377265625 -0.4926101 -0.2996521
0.538875 -0.5507033 -0.09351391
0.5400234375 -0.5283425 0.1104215
0.541171875 -0.437103 0.2837773
0.5423203125 -0.2953369 0.405786
0.54346875 -0.127565 0.466314
0.5446171875 0.04258344 0.4629744
0.545765625 0.1932631 0.4032912
0.5469140625 0.3080291 0.3000429
0.5480625 0.3766404 0.1703941
0.5492109375 0.3964537 0.03240405
0.550359375 0.3705361 -0.09814719
0.5515078125 0.3061658 -0.2071371
0.55265625 0.2140034 -0.286047
0.5538046875 0.1064842 -0.3293983
0.554953125 -0.004376668 -0.3360608
0.5561015625 -0.1086796 -0.3094618
0.55725 -0.1965905 -0.2536397
0.5583984375 -0.2616259 -0.1757196
0.559546875 -0.2992566 -0.08352628
0.5606953125 -0.3070265 0.0142113
0.56184375 -0.2849631 0.1089154
0.5629921875 -0.2360005 0.192794
0.564140625 -0.1633158 0.2569969
0.5652890625 -0.07377098 0.2963209
0.5664375 0.02422916 0.3063394
0.5675859375 0.1218904 0.2846926
0.568734375 0.2088717 0.2329338
0.5698828125 0.2760491 0.1547199
0.57103125 0.3152395 0.05746842
0.5721796875 0.3209523 -0.04876444
0.573328125 0.2909951 -0.1531387
0.5744765625 0.2280581 -0.2435227
0.575625 0.1378019 -0.3089805
0.5767734375 0.02948074 -0.3425951
0.577921875 -0.08622856 -0.3392356
0.5790703125 -0.1962084 -0.2975772
0.58021875 -0.2889788 -0.2213186
0.5813671875 -0.3542684 -0.1163986
0.582515625 -0.3829077 0.006636633
0.5836640625 -0.370143 0.1374585
0.5848125 -0.3134389 0.2618139
0.5859609375 -0.2150096 0.3655532
0.587109375 -0.08106507 0.4346704
0.5882578125 0.07791455 0.4558342
0.58940625 0.2446226 0.418081
0.5905546875 0.3966096 0.3171552
0.591703125 0.50908 0.1564319
0.5928515625 0.5555733 -0.04810328
0.594 0.5157945 -0.268258
0.5951484375 0.3831311 -0.4650785
0.596296875 0.1701551 -0.5948415
0.5974453125 -0.08618028 -0.6235111
0.59859375 -0.3333312 -0.5373985
0.5997421875 -0.5192932 -0.3529643
0.600890625 -0.6052349 -0.1103552
0.6020390625 -0.5811006 0.1365044
0.6031875 -0.4628931 0.3397379
0.6043359375 -0.2830903 0.4696215
0.605484375 -0.08025392 0.5148197
0.6066328125 0.1087924 0.4817315
0.60778125 0.2608049 0.3879123
0.6089296875 0.3602357 0.2570463
0.610078125 0.4047686 0.110809
0.6112265625 0.3974952 -0.03209941
0.612375 0.3469249 -0.1558263
0.6135234375 0.2636163 -0.2497722
0.614671875 0.161407 -0.3092505
0.6158203125 0.05049846 -0.3319734
0.61696875 -0.05657327 -0.3196678
0.6181171875 -0.1513451 -0.2766573
0.619265625 -0.2254305 -0.208428
0.6204140625 -0.273492 -0.1230669
0.6215625 -0.2925924 -0.02895458
0.6227109375 -0.2812943 0.06427518
0.623859375 -0.2426509 0.1481953
0.6250078125 -0.1802439 0.2145073
0.62615625 -0.1006241 0.2573386
0.6273046875 -0.0132828 0.2720736
0.628453125 0.07351326 0.2591532
0.6296015625 0.1504693 0.2195532
0.63075 0.2099482 0.1584524
0.6318984375 0.2468598 0.0829449
0.633046875 0.2576321 0.000711982
0.6341953125 0.2427958 -0.07965676
0.63534375 0.2041955 -0.150623
0.6364921875 0.1463063 -0.205122
0.637640625 0.07506432 -0.2397522
0.6387890625 -0.002724083 -0.2511003
0.6399375 -0.0800551 -0.2383139
0.6410859375 -0.1504216 -0.203397
0.642234375 -0.2073957 -0.148405
0.6433828125 -0.2458265 -0.07833716
0.64453125 -0.2619306 0.001564537
0.6456796875 -0.2530193 0.08426694
0.646828125 -0.2188656 0.1621071
0.6479765625 -0.1607774 0.2283084
0.649125 -0.08272448 0.2748922
0.6502734375 0.009220461 0.2956516
0.651421875 0.1070247 0.2854942
0.6525703125 0.2006247 0.244183
0.65371875 0.2792593 0.1705253
0.6548671875 0.3318855 0.07153997
0.656015625 0.3495922 -0.04487813
0.6571640625 0.3264041 -0.1666098
0.6583125 0.2600562 -0.2784939
0.6594609375 0.1545796 -0.3652924
0.660609375 0.01871437 -0.4121427
0.6617578125 -0.1323235 -0.4082557
0.66290625 -0.2800274 -0.3483251
0.6640546875 -0.4023679 -0.2325312
0.665203125 -0.4767538 -0.07241789
0.6663515625 -0.4867405 0.1135074
0.6675 -0.4218515 0.2976822
0.6686484375 -0.2841745 0.4478518
0.669796875 -0.09154076 0.5341203
0.6709453125 0.125527 0.5353463
0.67209375 0.3265029 0.446784
0.6732421875 0.4748878 0.2825968
0.674390625 0.5424992 0.07418489
0.6755390625 0.5194052 -0.1396965
0.6766875 0.4160346 -0.3209992
0.6778359375 0.2548631 -0.441842
0.678984375 0.06803644 -0.4889819
0.6801328125 -0.113664 -0.4622279
0.68128125 -0.2647193 -0.3738265
0.6824296875 -0.3666337 -0.243403
0.683578125 -0.4121296 -0.09266276
0.6847265625 -0.4018157 0.0557553
0.685875 -0.3427228 0.1844216
0.6870234375 -0.2481482 0.279625
0.688171875 -0.1331065 0.3341381
0.6893203125 -0.01235823 0.3457263
0.69046875 0.09989511 0.3186671
0.6916171875 0.1925898 0.2588069
0.692765625 0.2586134 0.1762368
0.6939140625 0.2934143 0.08008021
0.6950625 0.2959442 -0.0182095
0.6962109375 0.2681889 -0.1096458
0.697359375 0.2147415 -0.1863395
0.6985078125 0.142121 -0.2410543
0.69965625 0.05664885 -0.2704822
0.7008046875 -0.03212084 -0.2720708
0.701953125 -0.116212 -0.2460883
0.7031015625 -0.1878968 -0.1953437
0.70425 -0.2403488 -0.1246433
0.7053984375 -0.2682573 -0.04084732
0.706546875 -0.2679927 0.04817037
0.7076953125 -0.2391623 0.1329698
0.70884375 -0.1842548 0.2052852
0.7099921875 -0.1075598 0.2563163
0.711140625 -0.01816574 0.2801075
0.7122890625 0.07603528 0.2732077
0.7134375 0.163773 0.2362899
0.7145859375 0.2352312 0.1705026
0.715734375 0.28229 0.08376026
0.7168828125 0.2992771 -0.0153783
0.71803125 0.2821173 -0.1162521
0.7191796875 0.2311949 -0.2074664
0.720328125 0.151206 -0.278519
0.7214765625 0.04895357 -0.3207669
0.722625 -0.0640645 -0.3260484
0.7237734375 -0.176763 -0.291773
0.724921875 -0.2743975 -0.2190245
0.7260703125 -0.3438632 -0.1124504
0.72721875 -0.3722448 0.01721046
0.7283671875 -0.351448 0.1531083
0.729515625 -0.2799266 0.2780789
0.7306640625 -0.1627793 0.3713051
0.7318125 -0.0139109 0.4144067
0.7329609375 0.1458535 0.3965033
0.734109375 0.2894786 0.317048
0.7352578125 0.3915609 0.1845005
0.73640625 0.4337614 0.02055524
0.7375546875 0.4070501 -0.1465432
0.738703125 0.3171798 -0.2877551
0.7398515625 0.1812298 -0.3806466
0.741 0.02358823 -0.4120054
0.7421484375 -0.1278997 -0.3811081
0.743296875 -0.2518807 -0.2983679
0.7444453125 -0.332155 -0.18025
0.74559375 -0.3622124 -0.04756966
0.7467421875 -0.3435307 0.08102358
0.747890625 -0.2834078 0.189103
0.7490390625 -0.1866516 0.2560515
0.7501875 -0.08501013 0.2948361
0.7513359375 0.01895609 0.2970914
0.752484375 0.11392 0.2660282
0.7536328125 0.1913676 0.2075192
0.75478125 0.2434583 0.1301772
0.7559296875 0.2670171 0.04205367
0.757078125 0.261355 -0.04704684
0.7582265625 0.2281898 -0.1278547
0.759375 0.1713528 -0.1929023
0.7605234375 0.09837131 -0.2354398
0.761671875 0.01603274 -0.2526774
0.7628203125 -0.06638842 -0.2424911
0.76396875 -0.141104 -0.2059121
0.7651171875 -0.1996531 -0.1480115
0.766265625 -0.2363268 -0.0748117
0.7674140625 -0.2471649 0.006089701
0.7685625 -0.2313841 0.08615217
0.7697109375 -0.1908681 0.1567354
0.770859375 -0.1298242 0.2101033
0.7720078125 -0.05503401 0.2416879
0.77315625 0.02680498 0.2470658
0.7743046875 0.1061199 0.2274311
0.775453125 0.1751652 0.1825843
0.7766015625 0.227423 0.1171269
0.77775 0.2567881 0.03778856
0.7788984375 0.2597403 -0.04856039
0.780046875 0.2342673 -0.133068
0.7811953125 0.1814777 -0.2071197
0.78234375 0.1056074 -0.2621821
0.7834921875 0.01249815 -0.2903127
0.784640625 -0.08858385 -0.2863415
0.7857890625 -0.1864496 -0.2471057
0.7869375 -0.2687208 -0.1733369
0.7880859375 -0.3234575 -0.07065914
0.789234375 -0.3392346 0.04948697
0.7903828125 -0.3085903 0.1739078
0.79153125 -0.2314479 0.2831298
0.7926796875 -0.1132534 0.3586487
0.793828125 0.02956321 0.3840465
0.7949765625 0.1766896 0.3509645
0.796125 0.3015786 0.2610673
0.7972734375 0.3811128 0.1257027
0.798421875 0.4000003 -0.031001
0.7995703125 0.3547695 -0.182109
0.80071875 0.2531693 -0.2993162
0.8018671875 0.1170686 -0.3654369
0.803015625 -0.02897739 -0.3723695
0.8041640625 -0.1606853 -0.3234273
0.8053125 -0.2592404 -0.2328266
0.8064609375 -0.313452 -0.1181491
0.807609375 -0.3220481 0.002154474
0.8087578125 -0.2886204 0.1112491
0.80990625 -0.2220336 0.1967622
0.8110546875 -0.1349901 0.2512316
0.812203125 -0.03956666 0.2720424
0.8133515625 0.05309558 0.2598704
0.8145 0.1327563 0.218407
0.8156484375 0.1917537 0.1561991
0.816796875 0.2254744 0.08033873
0.8179453125 0.2322285 0.001090344
0.81909375 0.2131042 -0.07353767
0.8202421875 0.1720711 -0.1354502
0.821390625 0.1149891 -0.1796548
0.8225390625 0.04855692 -0.2019424
0.8236875 -0.01913253 -0.2013735
0.8248359375 -0.08106923 -0.1797536
0.825984375 -0.1315075 -0.1407371
0.8271328125 -0.1663146 -0.08910085
0.82828125 -0.1820371 -0.03075049
0.8294296875 -0.1787015 0.02811001
0.830578125 -0.1581877 0.08159846
0.8317265625 -0.1227388 0.1252067
0.832875 -0.07628167 0.1556345
0.8340234375 -0.0235719 0.1699469
0.835171875 0.0305163 0.1677522
0.8363203125 0.08088197 0.1493721
0.83746875 0.1233038 0.1164685
0.8386171875 0.1540007 0.07228516
0.839765625 0.1695654 0.02041849
0.8409140625 0.1686148 -0.03395394
0.8420625 0.15066 -0.08617292
0.8432109375 0.117245 -0.1313518
0.844359375 0.07012638 -0.1641252
0.8455078125 0.01443964 -0.1807997
0.84665625 -0.04572669 -0.178615
0.8478046875 -0.1029546 -0.1574315
0.848953125 -0.1515064 -0.117876
0.8501015625 -0.1855505 -0.06323022
0.85125 -0.2003024 0.001388962
0.8523984375 -0.19314 0.06885664
0.853546875 -0.1632278 0.1322052
0.8546953125 -0.1129494 0.1834593
0.85584375 -0.04641197 0.2165629
0.8569921875 0.02951796 0.2253598
0.858140625 0.1073783 0.2082773
0.8592890625 0.1775281 0.1646564
0.8604375 0.230793 0.09715791
0.8615859375 0.2593783 0.01184741
0.862734375 0.2562429 -0.08282957
0.8638828125 0.217915 -0.174895
0.86503125 0.1461034 -0.2507506
0.8661796875 0.04619088 -0.2973318
0.867328125 -0.06980913 -0.3035584
0.8684765625 -0.1848518 -0.2631444
0.869625 -0.2788825 -0.1771114
0.8707734375 -0.332188 -0.05691727
0.871921875 -0.3322353 0.07878947
0.8730703125 -0.2767831 0.2037384
0.87421875 -0.1733326 0.2952501
0.8753671875 -0.04360425 0.3359495
0.876515625 0.08872599 0.3202221
0.8776640625 0.2000255 0.2545419
0.8788125 0.2730385 0.1542256
0.8799609375 0.2999761 0.03914908
0.881109375 0.2820694 -0.07196996
0.8822578125 0.227003 -0.1626669
0.88340625 0.1472502 -0.223411
0.8845546875 0.05637968 -0.2502763
0.885703125 -0.03247788 -0.2440804
0.8868515625 -0.1098974 -0.2092735
0.888 -0.1675238 -0.1535286
0.8891484375 -0.2017113 -0.08524685
0.890296875 -0.2115228 -0.01325082
0.8914453125 -0.1976946 0.05555973
0.89259375 -0.1642048 0.1136964
0.8937421875 -0.1151024 0.1568488
0.894890625 -0.05723523 0.1815664
0.8960390625 0.004473105 0.1868041
0.8971875 0.06320728 0.1724108
0.8983359375 0.1137855 0.1410573
0.899484375 0.1510359 0.09556404
0.9006328125 0.1724505 0.04145657
0.90178125 0.1751339 -0.01626104
0.9029296875 0.1595443 -0.07140817
0.904078125 0.1271701 -0.1186603
0.9052265625 0.08181885 -0.1527601
0.906375 0.02798023 -0.1704326
0.9075234375 -0.02886619 -0.1700528
0.908671875 -0.08206853 -0.1514982
0.9098203125 -0.1268961 -0.1168589
0.91096875 -0.1579468 -0.06923784
0.9121171875 -0.1722413 -0.01494398
0.913265625 -0.1686673 0.04180232
0.9144140625 -0.1467028 0.09450179
0.9155625 -0.1094745 0.1379114
0.9167109375 -0.05949038 0.1673043
0.917859375 -0.002398733 0.1797414
0.9190078125 0.05660913 0.1731873
0.92015625 0.111805 0.1477353
0.9213046875 0.1565698 0.104877
0.922453125 0.1864533 0.04889005
0.9236015625 0.1964284 -0.0158311
0.92475 0.1843369 -0.08254929
0.9258984375 0.1499823 -0.1435695
0.927046875 0.09465235 -0.1908512
0.9281953125 0.02458453 -0.2177515
0.92934375 -0.05372903 -0.218815
0.9304921875 -0.1305253 -0.1912746
0.931640625 -0.1944812 -0.1362822
0.9327890625 -0.2361533 -0.05956421
0.9339375 -0.2467913 0.03024744
0.9350859375 -0.2234326 0.1204627
0.936234375 -0.1663871 0.196998
0.9373828125 -0.08316081 0.2476472
0.93853125 0.0138251 0.2629045
0.9396796875 0.1106953 0.2394826
0.940828125 0.1916034 0.1812069
0.9419765625 0.2436857 0.09704653
0.943125 0.259755 0.0003763857
0.9442734375 0.2381913 -0.09371621
0.945421875 0.1847208 -0.1714878
0.9465703125 0.108308 -0.2223373
0.94771875 0.02042038 -0.240984
0.9488671875 -0.06539741 -0.2274946
0.950015625 -0.1382743 -0.1849709
0.9511640625 -0.1897981 -0.1217964
0.9523125 -0.2150043 -0.04698123
0.9534609375 -0.2127888 0.02991739
0.954609375 -0.1851149 0.09891044
0.9557578125 -0.137111 0.1526546
0.95690625 -0.07494926 0.1859268
0.9580546875 -0.007188848 0.1958972
0.959203125 0.0582448 0.1830354
0.9603515625 0.1141144 0.1497159
0.9615 0.154511 0.1008407
0.9626484375 0.1756884 0.04243777
0.963796875 0.176575 -0.01802437
0.9649453125 0.1576909 -0.07405627
0.96609375 0.1224647 -0.1200266
0.9672421875 0.07502463 -0.1510661
0.968390625 0.02103078 -0.1650233
0.9695390625 -0.03351555 -0.1609813
0.9706875 -0.0829236 -0.1397596
0.9718359375 -0.1225812 -0.1044589
0.972984375 -0.1486791 -0.05877938
0.9741328125 -0.1591721 -0.007998683
0.97528125 -0.1528053 0.04385129
0.9764296875 -0.131055 0.09071475
0.977578125 -0.09492677 0.128636
0.9787265625 -0.04857258 0.1532402
0.979875 0.003654614 0.1622116
0.9810234375 0.05691777 0.154182
0.982171875 0.1056028 0.1288482
0.9833203125 0.1444181 0.08835997
0.98446875 0.1681569 0.03647006
0.9856171875 0.1741661 -0.02205528
0.986765625 0.1600589 -0.08099336
0.9879140625 0.1261987 -0.1332736
0.9890625 0.07505975 -0.1718679
