# GHZ S RI R 50.0
0.3 -0.4270453 0.523472
0.3011484375 -0.1939857 0.6009543
0.302296875 0.02955611 0.5893375
0.3034453125 0.2146529 0.5082387
0.30459375 0.3494504 0.383269
0.3057421875 0.4298688 0.2339268
0.306890625 0.4578483 0.08093544
0.3080390625 0.4398259 -0.06403079
0.3091875 0.3842304 -0.1894709
0.3103359375 0.2993121 -0.28943
0.311484375 0.1931168 -0.3592377
0.3126328125 0.07443192 -0.3957322
0.31378125 -0.04865252 -0.397871
0.3149296875 -0.1683277 -0.3653664
0.316078125 -0.275523 -0.298793
0.3172265625 -0.3603888 -0.2009273
0.318375 -0.4145 -0.07807307
0.3195234375 -0.4281166 0.06139418
0.320671875 -0.3948606 0.2041748
0.3218203125 -0.3129297 0.3328183
0.32296875 -0.1867744 0.4300937
0.3241171875 -0.02886068 0.4793463
0.325265625 0.1409143 0.4692234
0.3264140625 0.2993331 0.3986732
0.3275625 0.4251704 0.2743414
0.3287109375 0.4996112 0.1142417
0.329859375 0.5150555 -0.06383244
0.3310078125 0.4698722 -0.2366204
0.33215625 0.3694661 -0.3868248
0.3333046875 0.2228916 -0.4984384
0.334453125 0.04494566 -0.5586348
0.3356015625 -0.1488443 -0.5587696
0.33675 -0.3425045 -0.4932825
0.3378984375 -0.5117636 -0.3620819
0.339046875 -0.6347787 -0.1677146
0.3401953125 -0.6870766 0.07367297
0.34134375 -0.6446102 0.3375628
0.3424921875 -0.494866 0.5855948
0.343640625 -0.240444 0.7673785
0.3447890625 0.08932993 0.8326403
0.3459375 0.4332387 0.7466785
0.3470859375 0.7157716 0.5098253
0.348234375 0.8653244 0.1647606
0.3493828125 0.8454599 -0.2085569
0.35053125 0.6649314 -0.5263953
0.3516796875 0.3767079 -0.722704
0.352828125 0.05225225 -0.7731192
0.3539765625 -0.2402208 -0.6898099
0.355125 -0.4538403 -0.5114701
0.3562734375 -0.5700247 -0.2863669
0.357421875 -0.5915129 -0.05774801
0.3585703125 -0.5356488 0.1423697
0.35971875 -0.4254421 0.295743
0.3608671875 -0.2842972 0.3942481
0.362015625 -0.1327341 0.4386254
0.3631640625 0.01261755 0.4344644
0.3643125 0.1405987 0.3898065
0.3654609375 0.2449971 0.3140685
0.366609375 0.318197 0.2165889
0.3677578125 0.3595458 0.1061969
0.36890625 0.3667644 -0.008144117
0.3700546875 0.3420293 -0.1183497
0.371203125 0.2865137 -0.2161328
0.3723515625 0.2043089 -0.2926334
0.3735 0.1021408 -0.3417229
0.3746484375 -0.0116549 -0.3568108
0.375796875 -0.1252336 -0.3350906
0.3769453125 -0.2274012 -0.2769503
0.37809375 -0.3055754 -0.1876695
0.3792421875 -0.3497556 -0.07680153
0.380390625 -0.3542185 0.04193138
0.3815390625 -0.3186475 0.1549021
0.3826875 -0.2484905 0.2482474
0.3838359375 -0.1535605 0.3121378
0.384984375 -0.04562873 0.3413416
0.3861328125 0.06416529 0.3353586
0.38728125 0.1641251 0.296481
0.3884296875 0.247577 0.2313468
0.389578125 0.3066973 0.1441723
0.3907265625 0.339028 0.04413842
0.391875 0.3409751 -0.06150867
0.3930234375 0.3116688 -0.1655111
0.394171875 0.2529691 -0.259131
0.3953203125 0.1659806 -0.3345687
0.39646875 0.05651715 -0.3844784
0.3976171875 -0.07001815 -0.400546
0.398765625 -0.2050707 -0.3753647
0.3999140625 -0.3343436 -0.3047289
0.4010625 -0.4422315 -0.1864528
0.4022109375 -0.5105563 -0.02522251
0.403359375 -0.5192019 0.1655241
0.4045078125 -0.4534275 0.365218
0.40565625 -0.3045675 0.5401227
0.4068046875 -0.08221608 0.6533812
0.407953125 0.1890266 0.6699526
0.4091015625 0.4619499 0.5665761
0.41025 0.6797068 0.3433333
0.4113984375 0.7840334 0.03259122
0.412546875 0.7387676 -0.3043762
0.4136953125 0.54284 -0.5894005
0.41484375 0.2407849 -0.7537931
0.4159921875 -0.09480289 -0.764899
0.417140625 -0.3843804 -0.6324803
0.4182890625 -0.5764549 -0.4045289
0.4194375 -0.6505466 -0.13873
0.4205859375 -0.6170666 0.1114565
0.421734375 -0.5011039 0.3120856
0.4228828125 -0.3346413 0.4448033
0.42403125 -0.1472041 0.506233
0.4251796875 0.03561936 0.4996364
0.426328125 0.1953452 0.4365855
0.4274765625 0.319228 0.3301549
0.428625 0.396836 0.1951112
0.4297734375 0.4247771 0.04806974
0.430921875 0.4033861 -0.09573524
0.4320703125 0.33702 -0.2199822
0.43321875 0.2358956 -0.3118612
0.4343671875 0.1130905 -0.3625751
0.435515625 -0.01572311 -0.3687482
0.4366640625 -0.1347454 -0.3320116
0.4378125 -0.2310202 -0.2599747
0.4389609375 -0.2949753 -0.1640365
0.440109375 -0.3225881 -0.05607028
0.4412578125 -0.314604 0.04986115
0.44240625 -0.2746174 0.1446406
0.4435546875 -0.2094088 0.218851
0.444703125 -0.1270818 0.2684114
0.4458515625 -0.03685831 0.2901212
0.447 0.05439647 0.2844885
0.4481484375 0.1389205 0.2523325
0.449296875 0.2100265 0.1972643
0.4504453125 0.2618281 0.1236834
0.45159375 0.2903734 0.03726221
0.4527421875 0.2918368 -0.05608809
0.453890625 0.2649615 -0.1478183
0.4550390625 0.2098855 -0.2293703
0.4561875 0.1289329 -0.2926158
0.4573359375 0.02820619 -0.3284643
0.458484375 -0.08394972 -0.3305603
0.4596328125 -0.1953338 -0.2937483
0.46078125 -0.2924696 -0.2186489
0.4619296875 -0.3611928 -0.1102819
0.463078125 -0.390302 0.02053952
0.4642265625 -0.3718835 0.1585106
0.465375 -0.3039022 0.2868715
0.4665234375 -0.19157 0.386941
0.467671875 -0.04642165 0.4434506
0.4688203125 0.1152672 0.4466232
0.46996875 0.2740729 0.3911752
0.4711171875 0.4094523 0.2789199
0.472265625 0.5007514 0.1189516
0.4734140625 0.5310093 -0.0720797
0.4745625 0.4870702 -0.2716875
0.4757109375 0.365278 -0.4518702
0.476859375 0.1744677 -0.5783747
0.4780078125 -0.06336968 -0.6225219
0.47915625 -0.3099917 -0.565159
0.4803046875 -0.5201679 -0.4054856
0.481453125 -0.647176 -0.1665674
0.4826015625 -0.6629633 0.1065165
0.48375 -0.5619808 0.3606938
0.4848984375 -0.3674979 0.5460855
0.486046875 -0.1198777 0.6331957
0.4871953125 0.1311391 0.6121925
0.48834375 0.3440066 0.4982744
0.4894921875 0.4879477 0.3190961
0.490640625 0.5488935 0.1104549
0.4917890625 0.5283396 -0.09457775
0.4929375 0.4392754 -0.2657234
0.4940859375 0.3028263 -0.3866813
0.495234375 0.142549 -0.4474881
0.4963828125 -0.01830749 -0.4492185
0.49753125 -0.1624216 -0.399716
0.4986796875 -0.2749042 -0.3107889
0.499828125 -0.3487864 -0.1961687
0.5009765625 -0.3813402 -0.0698612
0.502125 -0.3726899 0.05453308
0.5032734375 -0.3279026 0.1665923
0.504421875 -0.2534018 0.2571189
0.5055703125 -0.1570159 0.3191115
0.50671875 -0.04763895 0.3487338
0.5078671875 0.06455213 0.3440914
0.509015625 0.1699691 0.3049321
0.5101640625 0.2584948 0.2358287
0.5113125 0.3217925 0.1412133
0.5124609375 0.3525797 0.03009236
0.513609375 0.3465921 -0.08673827
0.5147578125 0.3024679 -0.1973332
0.51590625 0.223419 -0.2891764
0.5170546875 0.1165602 -0.3507566
0.518203125 -0.006263779 -0.374213
0.5193515625 -0.1320703 -0.3549355
0.5205 -0.2461302 -0.2937218
0.5216484375 -0.3343126 -0.196584
0.522796875 -0.3858633 -0.07381874
0.5239453125 -0.3937881 0.05968994
0.52509375 -0.3565869 0.1910601
0.5262421875 -0.2760331 0.3051769
0.527390625 -0.1606981 0.3875832
0.5285390625 -0.02050008 0.4287663
0.5296875 0.1296556 0.4198631
0.5308359375 0.2734713 0.3594689
0.531984375 0.3930752 0.2490741
0.5331328125 0.4699333 0.09742936
0.53428125 0.4883451 -0.07922493
0.5354296875 0.4396554 -0.2587878
0.536578125 0.3218973 -0.4146644
0.5377265625 0.1464259 -0.517686
0.538875 -0.06267293 -0.5458553
0.5400234375 -0.2721654 -0.4864689
0.541171875 -0.4432422 -0.3444865
0.5423203125 -0.5421378 -0.1443589
0.54346875 -0.5499908 0.07830717
0.5446171875 -0.4679764 0.2817094
0.545765625 -0.3147517 0.4296227
0.5469140625 -0.1223679 0.5011836
0.5480625 0.07332496 0.4913928
0.5492109375 0.2409857 0.411735
0.550359375 0.3588938 0.2820471
0.5515078125 0.4165215 0.1277892
0.55265625 0.4150533 -0.0267321
0.5538046875 0.3627667 -0.1620084
0.554953125 0.2725693 -0.2652697
0.5561015625 0.1599594 -0.3279598
0.55725 0.03929006 -0.348709
0.5583984375 -0.07606521 -0.3298118
0.559546875 -0.1744535 -0.277404
0.5606953125 -0.2483545 -0.1995291
0.56184375 -0.2922057 -0.105061
0.5629921875 -0.3040332 -0.004070835
0.564140625 -0.2838235 0.09315034
0.5652890625 -0.234469 0.1778354
0.5664375 -0.1620609 0.2413671
0.5675859375 -0.07379547 0.2781878
0.568734375 0.02116692 0.2845386
0.5698828125 0.1124852 0.2600825
0.57103125 0.1904628 0.2073251
0.5721796875 0.2470794 0.1323856
0.573328125 0.2754259 0.04349309
0.5744765625 0.2730896 -0.04926768
0.575625 0.2407918 -0.1358102
0.5767734375 0.1826203 -0.2065942
0.577921875 0.1048036 -0.25457
0.5790703125 0.01614085 -0.2746564
0.58021875 -0.07396619 -0.2655366
0.5813671875 -0.1565906 -0.2286412
0.582515625 -0.2238237 -0.1671612
0.5836640625 -0.2688342 -0.08721284
0.5848125 -0.2871128 0.004101408
0.5859609375 -0.2757533 0.09872108
0.587109375 -0.2341068 0.1868933
0.5882578125 -0.1647026 0.2603198
0.58940625 -0.07219697 0.3102328
0.5905546875 0.03655291 0.3279231
0.591703125 0.1507187 0.3086915
0.5928515625 0.2580842 0.2491198
0.594 0.3441253 0.1512655
0.5951484375 0.3937293 0.02078531
0.596296875 0.3931049 -0.1278237
0.5974453125 0.3343764 -0.2762606
0.59859375 0.2167911 -0.3993378
0.5997421875 0.05049726 -0.4723469
0.600890625 -0.1425792 -0.4728975
0.6020390625 -0.3277824 -0.3909127
0.6031875 -0.4682615 -0.2326074
0.6043359375 -0.5306326 -0.02376241
0.605484375 -0.4965023 0.1946548
0.6066328125 -0.3724851 0.3776234
0.60778125 -0.1851924 0.4869425
0.6089296875 0.02413768 0.5070534
0.610078125 0.2141309 0.4416426
0.6112265625 0.3526663 0.3122665
0.612375 0.425909 0.1489543
0.6135234375 0.4304649 -0.01879494
0.614671875 0.3768014 -0.1662022
0.6158203125 0.2792585 -0.2760974
0.61696875 0.1573831 -0.3419751
0.6181171875 0.02752548 -0.3602864
0.619265625 -0.0938534 -0.3345971
0.6204140625 -0.1948884 -0.2728768
0.6215625 -0.266675 -0.1849532
0.6227109375 -0.3035989 -0.08192768
0.623859375 -0.3047667 0.02373818
0.6250078125 -0.2715514 0.1208422
0.62615625 -0.2107905 0.1989584
0.6273046875 -0.129834 0.2514333
0.628453125 -0.03858357 0.2731709
0.6296015625 0.05253362 0.2645948
0.63075 0.1332037 0.2280761
0.6318984375 0.1961933 0.1684553
0.633046875 0.2350781 0.09396237
0.6341953125 0.2480455 0.01274992
0.63534375 0.2348972 -0.0659146
0.6364921875 0.1989017 -0.1350712
0.637640625 0.1440488 -0.1886407
0.6387890625 0.07635686 -0.2218161
0.6399375 0.003191689 -0.2332163
0.6410859375 -0.06927524 -0.2214443
0.642234375 -0.1349126 -0.1888817
0.6433828125 -0.1876612 -0.137762
0.64453125 -0.2225722 -0.07268232
0.6456796875 -0.2363906 0.0002986317
0.646828125 -0.2273084 0.07535931
0.6479765625 -0.1951361 0.1455262
0.649125 -0.1416266 0.2035481
0.6502734375 -0.07098633 0.2431494
0.651421875 0.01139305 0.2591976
0.6525703125 0.09669334 0.2476321
0.65371875 0.1769719 0.2083376
0.6548671875 0.2420255 0.142536
0.656015625 0.2835954 0.05643871
0.6571640625 0.2947173 -0.04249499
0.6583125 0.2720599 -0.1429374
0.6594609375 0.2145598 -0.2333801
0.660609375 0.1266879 -0.3022407
0.6617578125 0.01674698 -0.3385227
0.66290625 -0.1044087 -0.335141
0.6640546875 -0.2218392 -0.2882107
0.665203125 -0.3204228 -0.1995035
0.6663515625 -0.384361 -0.07553964
0.6675 -0.4007645 0.07003061
0.6686484375 -0.3613129 0.2187152
0.669796875 -0.2643735 0.3494344
0.6709453125 -0.1181173 0.4373308
0.67209375 0.05850288 0.462775
0.6732421875 0.2381542 0.414524
0.674390625 0.3876009 0.294597
0.6755390625 0.4772724 0.1201998
0.6766875 0.4871947 -0.07735102
0.6778359375 0.4152367 -0.2617597
0.678984375 0.275766 -0.3979596
0.6801328125 0.09713719 -0.4644031
0.68128125 -0.08663927 -0.4537139
0.6824296875 -0.245002 -0.3741793
0.683578125 -0.3549394 -0.2455441
0.6847265625 -0.4044292 -0.09316788
0.685875 -0.3943761 0.05897137
0.6870234375 -0.3322998 0.1889918
0.688171875 -0.2339868 0.2824364
0.6893203125 -0.1152066 0.3325123
0.69046875 0.00636088 0.3378805
0.6916171875 0.1169021 0.303519
0.692765625 0.2054943 0.2370791
0.6939140625 0.2637599 0.1498576
0.6950625 0.2894048 0.05221014
0.6962109375 0.2825546 -0.04463432
0.697359375 0.2460627 -0.1317874
0.6985078125 0.1856214 -0.2006051
0.69965625 0.1082913 -0.2457975
0.7008046875 0.02242803 -0.2638901
0.701953125 -0.06404532 -0.2537304
0.7031015625 -0.1418874 -0.2172967
0.70425 -0.2037906 -0.1582801
0.7053984375 -0.2433613 -0.08283735
0.706546875 -0.2569635 0.001468171
0.7076953125 -0.2425338 0.08618099
0.70884375 -0.2007397 0.1617882
0.7099921875 -0.136702 0.2201674
0.711140625 -0.05655028 0.2543034
0.7122890625 0.03197919 0.26016
0.7134375 0.1178563 0.2366226
0.7145859375 0.1921248 0.1852386
0.715734375 0.2455482 0.1119026
0.7168828125 0.2719925 0.02298939
0.71803125 0.2673051 -0.07101586
0.7191796875 0.2317632 -0.1594883
0.720328125 0.1669111 -0.232664
0.7214765625 0.07938462 -0.2813481
0.722625 -0.02196881 -0.2977683
0.7237734375 -0.1261796 -0.2789762
0.724921875 -0.2206474 -0.2233071
0.7260703125 -0.2931056 -0.1351875
0.72721875 -0.3312568 -0.02320519
0.7283671875 -0.3268121 0.1005374
0.729515625 -0.2757684 0.2181676
0.7306640625 -0.1812932 0.3129742
0.7318125 -0.05313131 0.3664459
0.7329609375 0.09090661 0.3673199
0.734109375 0.2276485 0.310841
0.7352578125 0.3336734 0.2026449
0.73640625 0.3879425 0.05857522
0.7375546875 0.3808009 -0.09545344
0.738703125 0.312314 -0.2333711
0.7398515625 0.1965588 -0.331564
0.741 0.05380161 -0.374417
0.7421484375 -0.08958519 -0.3591814
0.743296875 -0.2118271 -0.2916366
0.7444453125 -0.2956156 -0.1867965
0.74559375 -0.3327292 -0.06394324
0.7467421875 -0.322463 0.05810631
0.747890625 -0.271925 0.163502
0.7490390625 -0.1835512 0.2312167
0.7501875 -0.08935507 0.2718842
0.7513359375 0.009988233 0.277633
0.752484375 0.1010746 0.250663
0.7536328125 0.1752474 0.1971185
0.75478125 0.2261528 0.1240606
0.7559296875 0.249497 0.04093363
0.757078125 0.2446657 -0.04398025
0.7582265625 0.213171 -0.1207302
0.759375 0.1592593 -0.1825157
0.7605234375 0.08897125 -0.2226834
0.761671875 0.01015289 -0.2377803
0.7628203125 -0.06849293 -0.2260545
0.76396875 -0.1384082 -0.1896436
0.7651171875 -0.193128 -0.1328462
0.766265625 -0.2255584 -0.06164791
0.7674140625 -0.2333232 0.01632673
0.7685625 -0.2146849 0.09254136
0.7697109375 -0.1725783 0.1580787
0.770859375 -0.1109608 0.2065863
0.7720078125 -0.03685068 0.2328317
0.77315625 0.04180622 0.2334173
0.7743046875 0.1171669 0.2086784
0.775453125 0.1814756 0.159769
0.7766015625 0.2269861 0.09275521
0.77775 0.2485397 0.0128467
0.7788984375 0.242935 -0.07211322
0.780046875 0.2102658 -0.1514994
0.7811953125 0.1508585 -0.2185083
0.78234375 0.0698728 -0.263626
0.7834921875 -0.02474874 -0.2795378
0.784640625 -0.1231323 -0.2617761
0.7857890625 -0.2139718 -0.2087929
0.7869375 -0.2826594 -0.1239968
0.7880859375 -0.318781 -0.01474079
0.789234375 -0.3122497 0.1054535
0.7903828125 -0.2587407 0.2192921
0.79153125 -0.1621578 0.3085957
0.7926796875 -0.03401266 0.3547342
0.793828125 0.1061225 0.3467451
0.7949765625 0.2339728 0.2818343
0.796125 0.3264537 0.1696305
0.7972734375 0.3650035 0.02946915
0.798421875 0.3437145 -0.1135698
0.7995703125 0.2683015 -0.2329721
0.80071875 0.1545504 -0.3099917
0.8018671875 0.02513087 -0.3353445
0.803015625 -0.09916449 -0.3093637
0.8041640625 -0.1984191 -0.242102
0.8053125 -0.2620146 -0.1471481
0.8064609375 -0.2854451 -0.04157066
0.807609375 -0.2704486 0.05959522
0.8087578125 -0.2235702 0.1445033
0.80990625 -0.1539527 0.2048644
0.8110546875 -0.07165048 0.2361816
0.812203125 0.01233506 0.2376717
0.8133515625 0.08885639 0.2124353
0.8145 0.1503278 0.1651803
0.8156484375 0.1912158 0.1022803
0.816796875 0.2082854 0.03191547
0.8179453125 0.2017931 -0.03797243
0.81909375 0.1735729 -0.1001769
0.8202421875 0.1275388 -0.1482415
0.821390625 0.07035556 -0.1777497
0.8225390625 0.007735872 -0.1870734
0.8236875 -0.05285496 -0.1752367
0.8248359375 -0.1050163 -0.1455606
0.825984375 -0.143634 -0.102055
0.8271328125 -0.1659011 -0.04892126
0.82828125 -0.170357 0.006893676
0.8294296875 -0.1570272 0.06023603
0.830578125 -0.1279969 0.1058838
0.8317265625 -0.08667246 0.1398749
0.832875 -0.03748896 0.1593021
0.8340234375 0.01486332 0.1621729
0.835171875 0.06552754 0.1492846
0.8363203125 0.109547 0.1209512
0.83746875 0.1429311 0.08038559
0.8386171875 0.1624925 0.03083153
0.839765625 0.1658239 -0.02282788
0.8409140625 0.152123 -0.07569302
0.8420625 0.1217153 -0.1229143
0.8432109375 0.07649035 -0.1585253
0.844359375 0.02103155 -0.1786066
0.8455078125 -0.03980042 -0.1798611
0.84665625 -0.09927908 -0.1605226
0.8478046875 -0.1514745 -0.1216192
0.848953125 -0.1883433 -0.06533521
0.8501015625 -0.2056314 0.002332591
0.85125 -0.1982392 0.07413986
0.8523984375 -0.1656428 0.1422744
0.853546875 -0.1091192 0.1968566
0.8546953125 -0.03489369 0.2299214
0.85584375 0.04993602 0.2349466
0.8569921875 0.1345889 0.2090921
0.858140625 0.2076576 0.1518448
0.8592890625 0.2568806 0.06830163
0.8604375 0.2728069 -0.03175298
0.8615859375 0.2488946 -0.1348904
0.862734375 0.184692 -0.2249874
0.8638828125 0.08676653 -0.2854252
0.86503125 -0.03062135 -0.3025664
0.8661796875 -0.147653 -0.2703056
0.867328125 -0.2435693 -0.1924172
0.8684765625 -0.2989798 -0.08159323
0.869625 -0.3049994 0.04181939
0.8707734375 -0.2608044 0.1549402
0.871921875 -0.1768815 0.238369
0.8730703125 -0.07021032 0.2804751
0.87421875 0.0400393 0.2778658
0.8753671875 0.1361368 0.2345929
0.876515625 0.2055565 0.1618267
0.8776640625 0.2413385 0.07300612
0.8788125 0.2419471 -0.01823162
0.8799609375 0.2113079 -0.09904501
0.881109375 0.1569697 -0.1606662
0.8822578125 0.08762229 -0.1975676
0.88340625 0.01401351 -0.2075289
0.8845546875 -0.05535791 -0.1931702
0.885703125 -0.1131761 -0.1578001
0.8868515625 -0.1546246 -0.1075257
0.888 -0.1759575 -0.0490557
0.8891484375 -0.1777136 0.01112892
0.890296875 -0.160385 0.06726483
0.8914453125 -0.127472 0.1130794
0.89259375 -0.08242471 0.14557
0.8937421875 -0.03073499 0.1621814
0.894890625 0.02273939 0.1612741
0.8960390625 0.07277396 0.1441828
0.8971875 0.1150526 0.1123957
0.8983359375 0.1442728 0.06906165
0.899484375 0.1589207 0.01877096
0.9006328125 0.1562986 -0.03381548
0.90178125 0.1373145 -0.08270675
0.9029296875 0.103353 -0.1236992
0.904078125 0.05726678 -0.1515845
0.9052265625 0.004634412 -0.163031
0.906375 -0.04968222 -0.1565291
0.9075234375 -0.09912819 -0.1323593
0.908671875 -0.1387324 -0.09316214
0.9098203125 -0.1632465 -0.04235759
0.91096875 -0.1698533 0.0139269
0.9121171875 -0.1575187 0.07079966
0.913265625 -0.1267036 0.1202511
0.9144140625 -0.08082126 0.1583446
0.9155625 -0.02369406 0.179064
0.9167109375 0.03834065 0.1799215
0.917859375 0.09865712 0.1595
0.9190078125 0.1500069 0.1196115
0.92015625 0.1860638 0.06260529
0.9213046875 0.2006065 -0.005365107
0.922453125 0.1913112 -0.07665353
0.9236015625 0.1565876 -0.142225
0.92475 0.09923585 -0.1934293
0.9258984375 0.02448399 -0.2216166
0.927046875 -0.05877952 -0.220557
0.9281953125 -0.1383928 -0.1877373
0.92934375 -0.2014108 -0.1265744
0.9304921875 -0.2374521 -0.04311014
0.931640625 -0.2391499 0.04929356
0.9327890625 -0.2045193 0.136484
0.9339375 -0.1384548 0.2038027
0.9350859375 -0.05162008 0.2399291
0.936234375 0.04226092 0.2395065
0.9373828125 0.1270312 0.2036775
0.93853125 0.1904061 0.1392808
0.9396796875 0.2236178 0.05817692
0.940828125 0.2239735 -0.02704823
0.9419765625 0.1936182 -0.1035826
0.943125 0.1399568 -0.1618284
0.9442734375 0.07114889 -0.1953626
0.945421875 -0.001879739 -0.2018866
0.9465703125 -0.07022099 -0.1837052
0.94771875 -0.1258225 -0.1445392
0.9488671875 -0.1633044 -0.09000808
0.950015625 -0.1801414 -0.02832674
0.9511640625 -0.1752925 0.03350922
0.9523125 -0.1509314 0.08865293
0.9534609375 -0.1100995 0.1319269
0.954609375 -0.05859131 0.1586626
0.9557578125 -0.002151824 0.1667962
0.95690625 0.05324406 0.1559071
0.9580546875 0.1009898 0.1276448
0.959203125 0.136411 0.08590218
0.9603515625 0.1560122 0.03518338
0.9615 0.1576624 -0.01848819
0.9626484375 0.1414678 -0.06998595
0.963796875 0.1094599 -0.112263
0.9649453125 0.06564588 -0.1416851
0.96609375 0.01482145 -0.1548188
0.9672421875 -0.03714862 -0.1508164
0.968390625 -0.08512481 -0.1299625
0.9695390625 -0.1237901 -0.0945899
0.9706875 -0.1484334 -0.0488988
0.9718359375 -0.1569986 0.003009392
0.972984375 -0.1482209 0.05560948
0.9741328125 -0.1229417 0.1024393
0.97528125 -0.08327886 0.1394615
0.9764296875 -0.03234924 0.1617143
0.977578125 0.02382817 0.1660543
0.9787265625 0.08015279 0.1516996
0.979875 0.1294734 0.1183601
0.9810234375 0.166305 0.06826766
0.982171875 0.1844204 0.00713557
0.9833203125 0.1803208 -0.05934874
0.98446875 0.1524982 -0.1221755
0.9856171875 0.1018059 -0.1732366
0.986765625 0.03397358 -0.2041488
0.9879140625 -0.04343381 -0.20754
0.9890625 -0.1195673 -0.1814119
