# GHZ S RI R 50.0
0.3 -0.6085588 0.416791
0.3011484375 -0.3802604 0.5715961
0.302296875 -0.1362456 0.6231231
0.3034453125 0.08506291 0.586724
0.30459375 0.2617025 0.4874758
0.3057421875 0.3832595 0.3496434
0.306890625 0.4487284 0.1944868
0.3080390625 0.4624296 0.04024944
0.3091875 0.43246 -0.1017013
0.3103359375 0.3662486 -0.2221125
0.311484375 0.2733037 -0.3147435
0.3126328125 0.1605377 -0.3757516
0.31378125 0.03805888 -0.4023645
0.3149296875 -0.08675391 -0.3931848
0.316078125 -0.2041893 -0.3480873
0.3172265625 -0.3053817 -0.2691797
0.318375 -0.3804113 -0.1610334
0.3195234375 -0.4190828 -0.03056373
0.320671875 -0.4143435 0.1108289
0.3218203125 -0.3611684 0.2472586
0.32296875 -0.2611227 0.3618518
0.3241171875 -0.124122 0.4360041
0.325265625 0.03234235 0.4580177
0.3264140625 0.1896034 0.4226804
0.3275625 0.3249066 0.3348007
0.3287109375 0.4208823 0.2061739
0.329859375 0.4679926 0.05326328
0.3310078125 0.4617405 -0.1058035
0.33215625 0.4043827 -0.2535864
0.3333046875 0.3039181 -0.3762712
0.334453125 0.1677689 -0.4625933
0.3356015625 0.008749863 -0.503872
0.33675 -0.1608654 -0.4944724
0.3378984375 -0.3261724 -0.4297271
0.339046875 -0.4710067 -0.3098271
0.3401953125 -0.5763569 -0.1387182
0.34134375 -0.6215652 0.07367148
0.3424921875 -0.5878583 0.3078082
0.343640625 -0.4607277 0.5321045
0.3447890625 -0.2387981 0.7071676
0.3459375 0.05937519 0.7848379
0.3470859375 0.3877238 0.7277238
0.348234375 0.6752939 0.5211492
0.3493828125 0.8487001 0.1935906
0.35053125 0.8540757 -0.1834705
0.3516796875 0.6864186 -0.5206656
0.352828125 0.394095 -0.7367469
0.3539765625 0.05396872 -0.7980207
0.355125 -0.2560902 -0.7111993
0.3562734375 -0.4813432 -0.5204353
0.357421875 -0.5999395 -0.2807657
0.3585703125 -0.6161751 -0.03813906
0.35971875 -0.5493076 0.1701569
0.3608671875 -0.4268259 0.3259297
0.362015625 -0.2738608 0.4228565
0.3631640625 -0.1140733 0.4610952
0.3643125 0.03893314 0.4489735
0.3654609375 0.1712504 0.3949398
0.366609375 0.2742854 0.3092388
0.3677578125 0.3451818 0.2011992
0.36890625 0.3801024 0.08198337
0.3700546875 0.378886 -0.03908945
0.371203125 0.3426794 -0.1522871
0.3723515625 0.2742074 -0.2493862
0.3735 0.1800647 -0.3208217
0.3746484375 0.06800655 -0.3593011
0.375796875 -0.05124742 -0.3608893
0.3769453125 -0.1648233 -0.3233525
0.37809375 -0.2602059 -0.2498986
0.3792421875 -0.325305 -0.1493634
0.380390625 -0.3526175 -0.03374276
0.3815390625 -0.3392918 0.08261923
0.3826875 -0.2901701 0.1855005
0.3838359375 -0.2111056 0.2648824
0.384984375 -0.1135195 0.3130475
0.3861328125 -0.00956367 0.3280212
0.38728125 0.09147463 0.3108456
0.3884296875 0.1806547 0.2649459
0.389578125 0.2509197 0.1962274
0.3907265625 0.298431 0.1114837
0.391875 0.3199605 0.01643589
0.3930234375 0.3136534 -0.08074071
0.394171875 0.2794995 -0.1746283
0.3953203125 0.2188637 -0.2566671
0.39646875 0.1342535 -0.3204612
0.3976171875 0.03021506 -0.3585049
0.398765625 -0.08627093 -0.3647372
0.3999140625 -0.2068006 -0.3332496
0.4010625 -0.3186638 -0.2614647
0.4022109375 -0.4071899 -0.1492765
0.403359375 -0.4582067 -0.003493164
0.4045078125 -0.4558353 0.1621773
0.40565625 -0.3903678 0.3290539
0.4068046875 -0.2608724 0.4704387
0.407953125 -0.07602969 0.560656
0.4091015625 0.1423252 0.5763239
0.41025 0.3635908 0.5034714
0.4113984375 0.5492811 0.3419823
0.412546875 0.6629259 0.1085382
0.4136953125 0.6742428 -0.1634185
0.41484375 0.5697044 -0.4275466
0.4159921875 0.3577981 -0.6322658
0.417140625 0.07294776 -0.7300445
0.4182890625 -0.2297361 -0.6959002
0.4194375 -0.4861689 -0.5365164
0.4205859375 -0.6460802 -0.2882992
0.421734375 -0.6847488 -0.007877842
0.4228828125 -0.6094436 0.24849
0.42403125 -0.448448 0.4429798
0.4251796875 -0.2386722 0.5522583
0.426328125 -0.01820207 0.5745919
0.4274765625 0.1828028 0.5180013
0.428625 0.3408568 0.4003075
0.4297734375 0.4416351 0.2435047
0.430921875 0.4796566 0.06950325
0.4320703125 0.4557645 -0.09888645
0.43321875 0.3772674 -0.241839
0.4343671875 0.2597317 -0.3441966
0.435515625 0.1199742 -0.3969738
0.4366640625 -0.02190775 -0.3978015
0.4378125 -0.1498033 -0.3522165
0.4389609375 -0.2489105 -0.2704532
0.440109375 -0.3120812 -0.1656979
0.4412578125 -0.3359269 -0.05250669
0.44240625 -0.322731 0.0572565
0.4435546875 -0.2784948 0.1520895
0.444703125 -0.2098297 0.2255885
0.4458515625 -0.1255923 0.2729837
0.447 -0.03369698 0.2926481
0.4481484375 0.05720744 0.2842416
0.449296875 0.1407417 0.2505063
0.4504453125 0.2098738 0.1938216
0.45159375 0.2600833 0.1195797
0.4527421875 0.2858098 0.03326973
0.453890625 0.2851777 -0.05804678
0.4550390625 0.2555526 -0.1470216
0.4561875 0.1993631 -0.2246111
0.4573359375 0.1187388 -0.282416
0.458484375 0.02091324 -0.3128385
0.4596328125 -0.08437694 -0.3097293
0.46078125 -0.186589 -0.2706654
0.4619296875 -0.2728382 -0.1971152
0.463078125 -0.3302189 -0.09644539
0.4642265625 -0.3513045 0.02135776
0.465375 -0.3302505 0.1416262
0.4665234375 -0.2688567 0.2500253
0.467671875 -0.1718737 0.3328335
0.4688203125 -0.05037403 0.3804942
0.46996875 0.08278054 0.3844568
0.4711171875 0.2131251 0.3428124
0.472265625 0.3266901 0.2580648
0.4734140625 0.4081188 0.1357479
0.4745625 0.446162 -0.01260028
0.4757109375 0.4309437 -0.1731806
0.476859375 0.357955 -0.3277499
0.4780078125 0.2272635 -0.4537349
0.47915625 0.04857835 -0.529484
0.4803046875 -0.1585842 -0.5336113
0.481453125 -0.3641709 -0.4532796
0.4826015625 -0.5314602 -0.2883768
0.48375 -0.6215391 -0.05781703
0.4848984375 -0.6075158 0.1992218
0.486046875 -0.4827726 0.4329669
0.4871953125 -0.2677827 0.5926753
0.48834375 -0.006215604 0.6456269
0.4894921875 0.247945 0.5836841
0.490640625 0.446264 0.4265831
0.4917890625 0.5582452 0.2118487
0.4929375 0.5733775 -0.01671487
0.4940859375 0.5029271 -0.2208875
0.495234375 0.3691949 -0.3726681
0.4963828125 0.2005084 -0.4585083
0.49753125 0.0247784 -0.4766623
0.4986796875 -0.1354006 -0.4353192
0.499828125 -0.2641192 -0.3478903
0.5009765625 -0.3506471 -0.2296492
0.502125 -0.3922775 -0.09741706
0.5032734375 -0.389836 0.03553057
0.504421875 -0.3476232 0.1549332
0.5055703125 -0.2726764 0.2526523
0.50671875 -0.1740552 0.3204067
0.5078671875 -0.06096039 0.3540607
0.509015625 0.05449588 0.3510147
0.5101640625 0.1629114 0.3126939
0.5113125 0.25395 0.2424821
0.5124609375 0.3181371 0.1473091
0.513609375 0.3487379 0.03571231
0.5147578125 0.3419676 -0.08020607
0.51590625 0.2972439 -0.1882897
0.5170546875 0.2195958 -0.2763698
0.518203125 0.1163336 -0.3343534
0.5193515625 -0.0007616369 -0.3548522
0.5205 -0.1182036 -0.3357915
0.5216484375 -0.2229791 -0.279027
0.522796875 -0.3037812 -0.1905105
0.5239453125 -0.3509129 -0.0805809
0.52509375 -0.3603827 0.03923181
0.5262421875 -0.3307895 0.1559946
0.527390625 -0.2646371 0.2581857
0.5285390625 -0.1678568 0.3351708
0.5296875 -0.04956384 0.3785253
0.5308359375 0.07976443 0.3812894
0.531984375 0.2066661 0.3414884
0.5331328125 0.3179654 0.2596546
0.53428125 0.3989204 0.1412495
0.5354296875 0.4370184 -0.004459695
0.536578125 0.4217831 -0.1619834
0.5377265625 0.349325 -0.3117293
0.538875 0.220661 -0.43091
0.5400234375 0.04911625 -0.49765
0.541171875 -0.1440667 -0.4943095
0.5423203125 -0.3283486 -0.4128269
0.54346875 -0.4694936 -0.2602108
0.5446171875 -0.5390722 -0.05867195
0.545765625 -0.5204309 0.1557095
0.5469140625 -0.4159594 0.3446281
0.5480625 -0.2456241 0.4718048
0.5492109375 -0.04364578 0.5186064
0.550359375 0.1536402 0.4813265
0.5515078125 0.3121547 0.3744182
0.55265625 0.4126597 0.2231943
0.5538046875 0.4461627 0.05462211
0.554953125 0.4178319 -0.1049248
0.5561015625 0.3386799 -0.2351435
0.55725 0.2255979 -0.3247989
0.5583984375 0.09617648 -0.3671398
0.559546875 -0.0327117 -0.3637642
0.5606953125 -0.1479978 -0.3200572
0.56184375 -0.2383854 -0.2438796
0.5629921875 -0.2966216 -0.1464772
0.564140625 -0.3199232 -0.03859196
0.5652890625 -0.3070065 0.0677421
0.5664375 -0.2616423 0.1617047
0.5675859375 -0.1899021 0.2340613
0.568734375 -0.1002984 0.2783913
0.5698828125 -0.00252663 0.2910104
0.57103125 0.09250306 0.2708199
0.5721796875 0.1738783 0.2214137
0.573328125 0.2334569 0.1490794
0.5744765625 0.2653111 0.06288379
0.575625 0.2671636 -0.02708895
0.5767734375 0.2403295 -0.111593
0.577921875 0.1881561 -0.1810727
0.5790703125 0.1183614 -0.2294929
0.58021875 0.03761158 -0.2527661
0.5813671875 -0.04484459 -0.2496984
0.582515625 -0.1215568 -0.2213444
0.5836640625 -0.1854784 -0.1709694
0.5848125 -0.230272 -0.1035029
0.5859609375 -0.2531413 -0.02524005
0.587109375 -0.2504466 0.05699534
0.5882578125 -0.2227004 0.135491
0.58940625 -0.1704192 0.2031973
0.5905546875 -0.09821671 0.2527849
0.591703125 -0.01139595 0.2780258
0.5928515625 0.08273001 0.2743666
0.594 0.1744371 0.2394031
0.5951484375 0.2530913 0.1732326
0.596296875 0.307824 0.07985491
0.5974453125 0.3290713 -0.03153887
0.59859375 0.3099391 -0.1492963
0.5997421875 0.2473703 -0.2590013
0.600890625 0.144701 -0.3438391
0.6020390625 0.01128124 -0.3882567
0.6031875 -0.1366666 -0.3798457
0.6043359375 -0.2782543 -0.3135324
0.605484375 -0.3889997 -0.1926104
0.6066328125 -0.4475721 -0.03147374
0.60778125 -0.4365717 0.1477311
0.6089296875 -0.3523623 0.3130733
0.610078125 -0.2045059 0.4333831
0.6112265625 -0.01611905 0.4827192
0.612375 0.176761 0.4495199
0.6135234375 0.3371673 0.3402026
0.614671875 0.4369096 0.1771486
0.6158203125 0.4607111 -0.00683034
0.61696875 0.410624 -0.1791348
0.6181171875 0.3021986 -0.3105021
0.619265625 0.1583643 -0.3873076
0.6204140625 0.003985468 -0.4034158
0.6215625 -0.1378811 -0.3634337
0.6227109375 -0.2497222 -0.2789655
0.623859375 -0.3205541 -0.1651768
0.6250078125 -0.3453378 -0.04003328
0.62615625 -0.3258185 0.07992722
0.6273046875 -0.2675011 0.1810324
0.628453125 -0.1825892 0.2527987
0.6296015625 -0.08250669 0.2899861
0.63075 0.0192906 0.2906068
0.6318984375 0.1119974 0.258497
0.633046875 0.1851275 0.2002916
0.6341953125 0.2337842 0.1240005
0.63534375 0.2542194 0.03985036
0.6364921875 0.2466035 -0.04310307
0.637640625 0.2146422 -0.1172447
0.6387890625 0.162491 -0.1755235
0.6399375 0.09689315 -0.214264
0.6410859375 0.02403841 -0.2302824
0.642234375 -0.04862203 -0.2236242
0.6433828125 -0.1153604 -0.1956521
0.64453125 -0.169913 -0.149257
0.6456796875 -0.2078755 -0.08811227
0.646828125 -0.22571 -0.01860095
0.6479765625 -0.2211373 0.0536265
0.649125 -0.1947042 0.1216424
0.6502734375 -0.1474611 0.17858
0.651421875 -0.08389983 0.2188823
0.6525703125 -0.009637965 0.2375033
0.65371875 0.06848671 0.231663
0.6548671875 0.1417658 0.2005086
0.656015625 0.2026896 0.1460805
0.6571640625 0.2437727 0.07351334
0.6583125 0.2592644 -0.01021018
0.6594609375 0.2464247 -0.09629197
0.660609375 0.2055226 -0.1758479
0.6617578125 0.139551 -0.238857
0.66290625 0.05396904 -0.2781082
0.6640546875 -0.0417123 -0.2877003
0.665203125 -0.1388004 -0.2648929
0.6663515625 -0.2257349 -0.2089179
0.6675 -0.2921195 -0.1254528
0.6686484375 -0.3285863 -0.01923737
0.669796875 -0.3271868 0.09741551
0.6709453125 -0.2835932 0.2123652
0.67209375 -0.1990433 0.3103672
0.6732421875 -0.07867987 0.3754016
0.674390625 0.06480531 0.393818
0.6755390625 0.2125713 0.3559141
0.6766875 0.3419639 0.2602006
0.6778359375 0.4283405 0.1146761
0.678984375 0.4508593 -0.05967043
0.6801328125 0.4002493 -0.2342119
0.68128125 0.2800777 -0.3767002
0.6824296875 0.1100511 -0.4579037
0.683578125 -0.07824318 -0.4619096
0.6847265625 -0.2490487 -0.3896018
0.685875 -0.3727787 -0.2573007
0.6870234375 -0.4311434 -0.09230757
0.688171875 -0.4203791 0.07506185
0.6893203125 -0.3490521 0.2185142
0.69046875 -0.2352086 0.3189256
0.6916171875 -0.10003 0.3671249
0.692765625 0.03587615 0.364115
0.6939140625 0.1547848 0.3156907
0.6950625 0.2451503 0.2336537
0.6962109375 0.2991591 0.1306691
0.697359375 0.3150499 0.02105878
0.6985078125 0.2942857 -0.08355866
0.69965625 0.2425618 -0.1718155
0.7008046875 0.1673916 -0.2366959
0.701953125 0.07802043 -0.2723773
0.7031015625 -0.01612302 -0.2774045
0.70425 -0.1050328 -0.2521783
0.7053984375 -0.1793296 -0.2005605
0.706546875 -0.2324037 -0.12816
0.7076953125 -0.2587587 -0.04439371
0.70884375 -0.2565592 0.04367142
0.7099921875 -0.2259302 0.1246192
0.711140625 -0.1710176 0.1910111
0.7122890625 -0.09752987 0.2354553
0.7134375 -0.01413141 0.2534279
0.7145859375 0.07000954 0.2427496
0.715734375 0.146021 0.2058078
0.7168828125 0.2058902 0.1458745
0.71803125 0.2427886 0.07002769
0.7191796875 0.2533732 -0.01427772
0.720328125 0.2359086 -0.09751192
0.7214765625 0.1922319 -0.1715069
0.722625 0.1258185 -0.2280163
0.7237734375 0.04345674 -0.260587
0.724921875 -0.04677358 -0.2645928
0.7260703125 -0.1353284 -0.2377114
0.72721875 -0.2127751 -0.1819998
0.7283671875 -0.2684252 -0.1005595
0.729515625 -0.2938612 -0.002127772
0.7306640625 -0.2838088 0.1031771
0.7318125 -0.2354952 0.2027454
0.7329609375 -0.1520312 0.2812376
0.734109375 -0.04161147 0.3255835
0.7352578125 0.08265722 0.3263695
0.73640625 0.20161 0.2792457
0.7375546875 0.2974134 0.1873365
0.738703125 0.3517829 0.06207862
0.7398515625 0.3530999 -0.0771642
0.741 0.2986576 -0.2071838
0.7421484375 0.19671 -0.3058188
0.743296875 0.0644381 -0.3559406
0.7444453125 -0.07498642 -0.3503007
0.74559375 -0.1991887 -0.2911798
0.7467421875 -0.2882555 -0.1907465
0.747890625 -0.3306829 -0.06861401
0.7490390625 -0.311529 0.05498268
0.7501875 -0.2626663 0.1605049
0.7513359375 -0.1820674 0.2378401
0.752484375 -0.08230364 0.2791558
0.7536328125 0.02034846 0.2822522
0.75478125 0.1149257 0.2497264
0.7559296875 0.1898416 0.1894404
0.757078125 0.2376591 0.1093386
0.7582265625 0.2548517 0.02080004
0.759375 0.2414631 -0.06596341
0.7605234375 0.2004895 -0.1411116
0.761671875 0.1383691 -0.1972329
0.7628203125 0.06234475 -0.2283469
0.76396875 -0.01770287 -0.2324003
0.7651171875 -0.09347193 -0.2099238
0.766265625 -0.1559886 -0.164382
0.7674140625 -0.1996636 -0.1014912
0.7685625 -0.2193056 -0.02931384
0.7697109375 -0.2143165 0.0449312
0.770859375 -0.1855838 0.1122644
0.7720078125 -0.1374528 0.1658748
0.77315625 -0.07533506 0.2008882
0.7743046875 -0.005275423 0.2132092
0.775453125 0.06439502 0.203347
0.7766015625 0.1272839 0.1713739
0.77775 0.1767768 0.1210743
0.7788984375 0.2081492 0.05753015
0.780046875 0.2177731 -0.01345879
0.7811953125 0.2040738 -0.08500635
0.78234375 0.1678222 -0.1493466
0.7834921875 0.1114841 -0.1998607
0.784640625 0.03992215 -0.2306849
0.7857890625 -0.04020751 -0.2361491
0.7869375 -0.1200994 -0.2144186
0.7880859375 -0.1910744 -0.1656529
0.789234375 -0.2432361 -0.09258256
0.7903828125 -0.2681435 -0.002687621
0.79153125 -0.2605275 0.09407063
0.7926796875 -0.2168537 0.1859303
0.793828125 -0.1399879 0.2585109
0.7949765625 -0.03810077 0.3001925
0.796125 0.07652057 0.301447
0.7972734375 0.1868074 0.2578397
0.798421875 0.2752307 0.1729801
0.7995703125 0.3257065 0.05801609
0.80071875 0.327032 -0.07053611
0.8018671875 0.2775661 -0.191557
0.803015625 0.1840056 -0.2837984
0.8041640625 0.06084181 -0.3310941
0.8053125 -0.06934375 -0.3259107
0.8064609375 -0.1855249 -0.2707326
0.807609375 -0.2687213 -0.1767938
0.8087578125 -0.3072502 -0.06203959
0.80990625 -0.2997756 0.05512993
0.8110546875 -0.2506249 0.1562528
0.812203125 -0.1706727 0.2292278
0.8133515625 -0.07424361 0.2658769
0.8145 0.02447644 0.2657166
0.8156484375 0.1129507 0.2315897
0.816796875 0.1803861 0.1713979
0.8179453125 0.2206262 0.09454521
0.81909375 0.2319981 0.01242778
0.8202421875 0.2146964 -0.06560318
0.821390625 0.1737226 -0.1304199
0.8225390625 0.1156616 -0.1754753
0.8236875 0.04852355 -0.1977302
0.8248359375 -0.01955251 -0.1962129
0.825984375 -0.08129084 -0.1733727
0.8271328125 -0.1295773 -0.1330374
0.82828125 -0.1614194 -0.08103697
0.8294296875 -0.1747533 -0.02367563
0.830578125 -0.1688209 0.03309101
0.8317265625 -0.1462991 0.08344113
0.832875 -0.1100007 0.1236466
0.8340234375 -0.06387999 0.1497386
0.835171875 -0.01285206 0.159954
0.8363203125 0.03806302 0.1542979
0.83746875 0.08437623 0.1332885
0.8386171875 0.1218393 0.09942868
0.839765625 0.1466956 0.05539713
0.8409140625 0.1570687 0.006080036
0.8420625 0.1513183 -0.04446087
0.8432109375 0.1300643 -0.09095352
0.844359375 0.09444407 -0.1289286
0.8455078125 0.04847985 -0.1540886
0.84665625 -0.004293029 -0.1634611
0.8478046875 -0.05793501 -0.1549935
0.848953125 -0.1068433 -0.1292302
0.8501015625 -0.145334 -0.0883237
0.85125 -0.1690817 -0.03601781
0.8523984375 -0.1743536 0.02203939
0.853546875 -0.1597558 0.08012476
0.8546953125 -0.1266339 0.1310166
0.85584375 -0.07759655 0.169061
0.8569921875 -0.01676889 0.1892205
0.858140625 0.04883794 0.1885083
0.8592890625 0.1123642 0.1654647
0.8604375 0.1663178 0.1204092
0.8615859375 0.2032069 0.05863118
0.862734375 0.218248 -0.01540716
0.8638828125 0.2062496 -0.09341568
0.86503125 0.1660374 -0.1655586
0.8661796875 0.09948235 -0.2214208
0.867328125 0.01328833 -0.2516928
0.8684765625 -0.08259613 -0.2474709
0.869625 -0.1746465 -0.2055868
0.8707734375 -0.2465455 -0.1281861
0.871921875 -0.2843137 -0.02449073
0.8730703125 -0.276946 0.08904108
0.87421875 -0.2228745 0.1926836
0.8753671875 -0.1301219 0.2658436
0.876515625 -0.0152933 0.2950549
0.8776640625 0.1005378 0.2745056
0.8788125 0.1963007 0.2102595
0.8799609375 0.2557061 0.1154756
0.881109375 0.2723904 0.008997339
0.8822578125 0.2472918 -0.09116556
0.88340625 0.1887501 -0.1701852
0.8845546875 0.1095343 -0.2186227
0.885703125 0.02245964 -0.2338025
0.8868515625 -0.05925196 -0.2180249
0.888 -0.1270267 -0.176817
0.8891484375 -0.1736464 -0.1177359
0.890296875 -0.1966149 -0.04950693
0.8914453125 -0.1952928 0.01934363
0.89259375 -0.1722466 0.08099657
0.8937421875 -0.1318841 0.1303051
0.894890625 -0.07941992 0.1623684
0.8960390625 -0.02080676 0.1756089
0.8971875 0.03732657 0.1698044
0.8983359375 0.08958083 0.1453969
0.899484375 0.1305219 0.1069687
0.9006328125 0.1563538 0.05739157
0.90178125 0.1648696 0.00303281
0.9029296875 0.1555897 -0.05102549
0.904078125 0.1295328 -0.09845474
0.9052265625 0.08924521 -0.1349002
0.906375 0.03995546 -0.1557994
0.9075234375 -0.01346804 -0.1598098
0.908671875 -0.06483876 -0.1461038
0.9098203125 -0.1091384 -0.1164953
0.91096875 -0.1409719 -0.07446126
0.9121171875 -0.1579523 -0.02435755
0.913265625 -0.1575788 0.02897664
0.9144140625 -0.1398733 0.07871208
0.9155625 -0.1072514 0.1210527
0.9167109375 -0.06238197 0.1507964
0.917859375 -0.009863771 0.1642205
0.9190078125 0.04519469 0.1605929
0.92015625 0.09675223 0.1388741
0.9213046875 0.1393289 0.1008577
0.922453125 0.1682641 0.04999812
0.9236015625 0.1789355 -0.009423273
0.92475 0.1695116 -0.07102418
0.9258984375 0.1386503 -0.1272483
0.927046875 0.08875398 -0.1714719
0.9281953125 0.02493045 -0.1966295
0.92934375 -0.04655771 -0.1981255
0.9304921875 -0.1162973 -0.1735572
0.931640625 -0.1746439 -0.1236341
0.9327890625 -0.2124177 -0.05360224
0.9339375 -0.222072 0.02729167
0.9350859375 -0.2000833 0.1085774
0.936234375 -0.1479691 0.1770303
0.9373828125 -0.07276268 0.2217427
0.93853125 0.01490442 0.2346618
0.9396796875 0.1011362 0.2127274
0.940828125 0.1728783 0.1595218
0.9419765625 0.218315 0.08316528
0.943125 0.2317113 -0.003372092
0.9442734375 0.2111673 -0.08718818
0.945421875 0.1618989 -0.156315
0.9465703125 0.09226121 -0.2002406
0.94771875 0.01348031 -0.2155881
0.9488671875 -0.06331965 -0.2018664
0.950015625 -0.1282609 -0.1620518
0.9511640625 -0.1732249 -0.1039335
0.9523125 -0.1942424 -0.03590827
0.9534609375 -0.1900034 0.03327656
0.954609375 -0.1630296 0.09498737
0.9557578125 -0.1177119 0.1424431
0.95690625 -0.06050615 0.1705526
0.9580546875 0.001508109 0.1770932
0.959203125 0.06083018 0.1625945
0.9603515625 0.1106376 0.129781
0.9615 0.1451859 0.08306117
0.9626484375 0.1621163 0.02886406
0.963796875 0.1593677 -0.02702072
0.9649453125 0.1388565 -0.07771503
0.96609375 0.1034346 -0.117606
0.9672421875 0.05788496 -0.1433052
0.968390625 0.00684343 -0.1524283
0.9695390625 -0.04346978 -0.1442269
0.9706875 -0.0877381 -0.1211129
0.9718359375 -0.1214766 -0.08498219
0.972984375 -0.1420264 -0.04033373
0.9741328125 -0.1471924 0.008348807
0.97528125 -0.1364363 0.05590758
0.9764296875 -0.111051 0.09792296
0.977578125 -0.07329795 0.1294958
0.9787265625 -0.02669701 0.1477779
0.979875 0.02361657 0.1498854
0.9810234375 0.0727106 0.1352879
0.982171875 0.1156273 0.1052199
0.9833203125 0.1467299 0.06134826
0.98446875 0.1623521 0.008775476
0.9856171875 0.158806 -0.04808457
0.986765625 0.1355151 -0.1016664
