# GHZ S RI R 50.0
0.3 -0.558419 0.4479407
0.3011484375 -0.3284179 0.5804889
0.302296875 -0.09060343 0.6141651
0.3034453125 0.1205174 0.5654514
0.30459375 0.2860914 0.458645
0.3057421875 0.3961747 0.3175794
0.306890625 0.4509463 0.1637083
0.3080390625 0.4561062 0.01128017
0.3091875 0.4189447 -0.1257256
0.3103359375 0.3481045 -0.2401051
0.311484375 0.251436 -0.3261953
0.3126328125 0.1377846 -0.3807345
0.31378125 0.01514158 -0.4007702
0.3149296875 -0.1083717 -0.3850113
0.316078125 -0.2224144 -0.3345076
0.3172265625 -0.3193097 -0.2511947
0.318375 -0.3888993 -0.1389189
0.3195234375 -0.4209046 -0.006110597
0.320671875 -0.4087247 0.1348535
0.3218203125 -0.3479872 0.2692354
0.32296875 -0.2416081 0.3782609
0.3241171875 -0.1004965 0.4462382
0.325265625 0.06029955 0.4603771
0.3264140625 0.2176012 0.4163883
0.3275625 0.3490199 0.3195382
0.3287109375 0.4396397 0.1828681
0.329859375 0.4789292 0.0237914
0.3310078125 0.4634615 -0.1372512
0.33215625 0.3957917 -0.2857926
0.3333046875 0.2840653 -0.4063958
0.334453125 0.1388037 -0.486094
0.3356015625 -0.02877722 -0.5179284
0.33675 -0.2035482 -0.4954669
0.3378984375 -0.370566 -0.4156441
0.339046875 -0.5117669 -0.2779689
0.3401953125 -0.6060991 -0.0908827
0.34134375 -0.6329826 0.1352083
0.3424921875 -0.5720029 0.3759618
0.343640625 -0.4148252 0.5944062
0.3447890625 -0.1629622 0.7481649
0.3459375 0.1524849 0.7898855
0.3470859375 0.4785617 0.6861737
0.348234375 0.739086 0.4376054
0.3493828125 0.8653004 0.08698557
0.35053125 0.8170454 -0.284197
0.3516796875 0.6093427 -0.5885006
0.352828125 0.3003269 -0.7591701
0.3539765625 -0.03232228 -0.7770806
0.355125 -0.3174469 -0.6605188
0.3562734375 -0.5115859 -0.4564064
0.357421875 -0.6018806 -0.2169185
0.3585703125 -0.5958333 0.01432166
0.35971875 -0.5157846 0.2074397
0.3608671875 -0.3874205 0.3467141
0.362015625 -0.2350189 0.4285968
0.3631640625 -0.07831401 0.454477
0.3643125 0.06716016 0.4330552
0.3654609375 0.1915265 0.3725956
0.366609375 0.2867655 0.283295
0.3677578125 0.3493786 0.175244
0.36890625 0.3768314 0.05722755
0.3700546875 0.3686873 -0.06046018
0.371203125 0.3270899 -0.1696013
0.3723515625 0.2552943 -0.2606888
0.3735 0.1592166 -0.3261921
0.3746484375 0.0470923 -0.3584273
0.375796875 -0.07081789 -0.3535269
0.3769453125 -0.1811369 -0.310825
0.37809375 -0.2720153 -0.2333833
0.3792421875 -0.3312476 -0.1301997
0.380390625 -0.3527705 -0.01405236
0.3815390625 -0.3335663 0.1008382
0.3826875 -0.2793475 0.2013226
0.3838359375 -0.196288 0.276662
0.384984375 -0.09628583 0.3199593
0.3861328125 0.009270458 0.3295543
0.38728125 0.1099771 0.3069984
0.3884296875 0.1969646 0.2560728
0.389578125 0.2650029 0.1829819
0.3907265625 0.3083585 0.09470233
0.391875 0.324773 -0.00265758
0.3930234375 0.3128892 -0.1016016
0.394171875 0.2728733 -0.19537
0.3953203125 0.2058346 -0.2754557
0.39646875 0.1157054 -0.3356605
0.3976171875 0.006556137 -0.3688451
0.398765625 -0.1141543 -0.3674707
0.3999140625 -0.2365865 -0.3271564
0.4010625 -0.3476325 -0.244434
0.4022109375 -0.4324684 -0.1210043
0.403359375 -0.4742033 0.03423833
0.4045078125 -0.4580263 0.2079954
0.40565625 -0.3750526 0.3775324
0.4068046875 -0.2255891 0.5148147
0.407953125 -0.02056725 0.5917514
0.4091015625 0.2127253 0.5842063
0.41025 0.4387529 0.4801546
0.4113984375 0.6143186 0.2839797
0.412546875 0.7001854 0.02032766
0.4136953125 0.6687033 -0.267459
0.41484375 0.5139752 -0.5247045
0.4159921875 0.2579905 -0.6946859
0.417140625 -0.04846981 -0.7383657
0.4182890625 -0.3405886 -0.6450078
0.4194375 -0.5581199 -0.4413976
0.4205859375 -0.6641468 -0.1759712
0.421734375 -0.6518742 0.09336702
0.4228828125 -0.5408825 0.3199927
0.42403125 -0.3633639 0.4758906
0.4251796875 -0.1563947 0.5482379
0.426328125 0.04926905 0.5418203
0.4274765625 0.2281466 0.4671408
0.428625 0.3626095 0.3421457
0.4297734375 0.4416403 0.1861151
0.430921875 0.4607081 0.02041528
0.4320703125 0.4233027 -0.1354521
0.43321875 0.338061 -0.2641222
0.4343671875 0.218543 -0.3513081
0.435515625 0.08176927 -0.3901931
0.4366640625 -0.05434511 -0.3804289
0.4378125 -0.1729642 -0.3269455
0.4389609375 -0.2624333 -0.2409668
0.440109375 -0.3155192 -0.1355944
0.4412578125 -0.3304648 -0.02451167
0.44240625 -0.3102469 0.08079214
0.4435546875 -0.2601406 0.1703215
0.444703125 -0.188063 0.2371068
0.4458515625 -0.1022669 0.2779235
0.447 -0.01066861 0.2904401
0.4481484375 0.07868545 0.276027
0.449296875 0.1590482 0.2366389
0.4504453125 0.2234828 0.1760461
0.45159375 0.2678942 0.09866002
0.4527421875 0.2875918 0.01034007
0.453890625 0.2802046 -0.08103538
0.4550390625 0.2443962 -0.1679396
0.4561875 0.1818087 -0.24199
0.4573359375 0.0963501 -0.2943177
0.458484375 -0.004499893 -0.3179002
0.4596328125 -0.1117244 -0.3062538
0.46078125 -0.2125744 -0.2582217
0.4619296875 -0.2943979 -0.1768314
0.463078125 -0.345802 -0.06868067
0.4642265625 -0.3570068 0.05369264
0.465375 -0.3253812 0.1759333
0.4665234375 -0.2522032 0.2832645
0.467671875 -0.1442856 0.3604178
0.4688203125 -0.01347506 0.3981423
0.46996875 0.1264123 0.3892681
0.4711171875 0.2591092 0.3324355
0.472265625 0.3690386 0.2306427
0.4734140625 0.4411381 0.0926125
0.4745625 0.4633969 -0.06935258
0.4757109375 0.4267957 -0.2372741
0.476859375 0.3274097 -0.3911874
0.4780078125 0.1697091 -0.5058175
0.47915625 -0.03065263 -0.5569029
0.4803046875 -0.2487358 -0.5253371
0.481453125 -0.4489085 -0.4039186
0.4826015625 -0.5894255 -0.2024533
0.48375 -0.636556 0.04954935
0.4848984375 -0.5713925 0.3043579
0.486046875 -0.4021096 0.5108789
0.4871953125 -0.1622203 0.6254906
0.48834375 0.09895936 0.6280239
0.4894921875 0.3309243 0.5248312
0.490640625 0.4931618 0.3432364
0.4917890625 0.5652357 0.1227585
0.4929375 0.5470412 -0.09415495
0.4940859375 0.452741 -0.2765432
0.495234375 0.3070895 -0.4025674
0.4963828125 0.1379288 -0.4632442
0.49753125 -0.03075822 -0.4605243
0.4986796875 -0.178388 -0.4039125
0.499828125 -0.2919848 -0.307379
0.5009765625 -0.3632762 -0.1857808
0.502125 -0.3903282 -0.05479349
0.5032734375 -0.3752099 0.07264128
0.504421875 -0.3236332 0.1846829
0.5055703125 -0.242353 0.2726908
0.50671875 -0.1395364 0.3306285
0.5078671875 -0.02721785 0.3530584
0.509015625 0.0862015 0.3403285
0.5101640625 0.1896429 0.293477
0.5113125 0.2731505 0.2165681
0.5124609375 0.3287771 0.1167776
0.513609375 0.3497817 0.003917623
0.5147578125 0.3332347 -0.1108719
0.51590625 0.279802 -0.2151098
0.5170546875 0.1940243 -0.2969491
0.518203125 0.08568259 -0.3460853
0.5193515625 -0.03368151 -0.3570449
0.5205 -0.1509156 -0.3271335
0.5216484375 -0.2517329 -0.2602814
0.522796875 -0.3258883 -0.1635242
0.5239453125 -0.3638293 -0.04723388
0.52509375 -0.3623622 0.07575385
0.5262421875 -0.3207764 0.1927734
0.527390625 -0.24194 0.2915885
0.5285390625 -0.1351271 0.3613668
0.5296875 -0.008205395 0.3931929
0.5308359375 0.1265577 0.3816364
0.531984375 0.2532474 0.3261511
0.5331328125 0.3587371 0.2270508
0.53428125 0.4280672 0.09309188
0.5354296875 0.4481181 -0.06331575
0.536578125 0.4103626 -0.2249994
0.5377265625 0.3121219 -0.3699469
0.538875 0.1605656 -0.472978
0.5400234375 -0.02764654 -0.5134563
0.541171875 -0.2250759 -0.4764416
0.5423203125 -0.3974205 -0.3606464
0.54346875 -0.5125436 -0.1806443
0.5446171875 -0.5440724 0.03285708
0.545765625 -0.4857495 0.2410324
0.5469140625 -0.3483321 0.4054708
0.5480625 -0.1605688 0.4977102
0.5492109375 0.04113668 0.5066531
0.550359375 0.2220585 0.4379221
0.5515078125 0.3550192 0.3111159
0.55265625 0.4259019 0.1521836
0.5538046875 0.4327223 -0.01086366
0.554953125 0.3835716 -0.1565587
0.5561015625 0.2916119 -0.268761
0.55725 0.1735621 -0.3381932
0.5583984375 0.04645188 -0.3626455
0.559546875 -0.07563127 -0.3440446
0.5606953125 -0.1801388 -0.2888427
0.56184375 -0.2574472 -0.2066504
0.5629921875 -0.3025717 -0.1069784
0.564140625 -0.3129511 -0.001174068
0.5652890625 -0.2896717 0.09965758
0.5664375 -0.2360771 0.1856298
0.5675859375 -0.1590964 0.2485338
0.568734375 -0.06735571 0.2826421
0.5698828125 0.02929787 0.2845401
0.57103125 0.1196219 0.2553546
0.5721796875 0.1947041 0.1990824
0.573328125 0.2461097 0.1222109
0.5744765625 0.2691464 0.03398563
0.575625 0.2620403 -0.05575982
0.5767734375 0.2268168 -0.1368658
0.577921875 0.1682205 -0.2010564
0.5790703125 0.0931832 -0.2425286
0.58021875 0.009981073 -0.257842
0.5813671875 -0.07294414 -0.2462922
0.582515625 -0.1477667 -0.2097503
0.5836640625 -0.2075536 -0.1520323
0.5848125 -0.2462217 -0.07842307
0.5859609375 -0.2607496 0.004248971
0.587109375 -0.2493563 0.08815438
0.5882578125 -0.2115813 0.1664064
0.58940625 -0.1500203 0.2306332
0.5905546875 -0.06890665 0.273527
0.591703125 0.0249854 0.2895429
0.5928515625 0.1228699 0.2739337
0.594 0.2150971 0.224941
0.5951484375 0.2894529 0.1444758
0.596296875 0.3346917 0.03815072
0.5974453125 0.3407835 -0.08405251
0.59859375 0.3017485 -0.2076949
0.5997421875 0.2166606 -0.3147429
0.600890625 0.09112965 -0.3882244
0.6020390625 -0.06061628 -0.4110682
0.6031875 -0.2185028 -0.3726411
0.6043359375 -0.3562454 -0.2710374
0.605484375 -0.4469237 -0.1166391
0.6066328125 -0.469082 0.06818411
0.60778125 -0.4126552 0.2524604
0.6089296875 -0.2817208 0.4001083
0.610078125 -0.09968651 0.4811684
0.6112265625 0.09983043 0.4783593
0.612375 0.2774351 0.3941767
0.6135234375 0.4010309 0.2482032
0.614671875 0.4528325 0.07115877
0.6158203125 0.4315062 -0.1038555
0.61696875 0.3483943 -0.2494874
0.6181171875 0.2225578 -0.34747
0.619265625 0.07727765 -0.3892142
0.6204140625 -0.06546085 -0.3760727
0.6215625 -0.1882214 -0.315955
0.6227109375 -0.2764128 -0.2216689
0.623859375 -0.3244632 -0.1076635
0.6250078125 -0.3298837 0.01165959
0.62615625 -0.2952785 0.1210035
0.6273046875 -0.2289595 0.2074487
0.628453125 -0.1405563 0.263938
0.6296015625 -0.04199006 0.286684
0.63075 0.05430555 0.2754843
0.6318984375 0.1390155 0.2347071
0.633046875 0.2026581 0.1707998
0.6341953125 0.2405949 0.09263179
0.63534375 0.2513217 0.009383347
0.6364921875 0.2352742 -0.07010788
0.637640625 0.1962388 -0.138371
0.6387890625 0.1397401 -0.1901074
0.6399375 0.07138804 -0.2212463
0.6410859375 -0.001548791 -0.2297876
0.642234375 -0.07257386 -0.2158863
0.6433828125 -0.1360047 -0.1812639
0.64453125 -0.1855617 -0.129727
0.6456796875 -0.2170739 -0.06529856
0.646828125 -0.2276367 0.006321037
0.6479765625 -0.2160251 0.07788803
0.649125 -0.1825487 0.1434813
0.6502734375 -0.1290778 0.1967218
0.651421875 -0.06043806 0.2309953
0.6525703125 0.01696738 0.2422902
0.65371875 0.09589571 0.2279868
0.6548671875 0.1676551 0.188339
0.656015625 0.2243975 0.1259886
0.6571640625 0.2589322 0.04676274
0.6583125 0.265624 -0.04160233
0.6594609375 0.2426427 -0.1295246
0.660609375 0.1909997 -0.2074675
0.6617578125 0.113983 -0.2659576
0.66290625 0.01970611 -0.2965516
0.6640546875 -0.08263527 -0.2942576
0.665203125 -0.1824832 -0.2571462
0.6663515625 -0.2668062 -0.1860527
0.6675 -0.325532 -0.08681735
0.6686484375 -0.3478478 0.03151176
0.669796875 -0.3269408 0.1561741
0.6709453125 -0.260906 0.2717644
0.67209375 -0.1524845 0.3610295
0.6732421875 -0.01145426 0.4072489
0.674390625 0.1448598 0.3971077
0.6755390625 0.2926772 0.3245282
0.6766875 0.4062221 0.1948465
0.6778359375 0.4607183 0.02417053
0.678984375 0.4414105 -0.1599952
0.6801328125 0.3463354 -0.3234214
0.68128125 0.1922162 -0.4338993
0.6824296875 0.006300732 -0.4708633
0.683578125 -0.175258 -0.4292557
0.6847265625 -0.3205232 -0.3207339
0.685875 -0.4070539 -0.1685307
0.6870234375 -0.4258783 -0.002326256
0.688171875 -0.3818491 0.1508066
0.6893203125 -0.28828 0.2694571
0.69046875 -0.1649755 0.3410954
0.6916171875 -0.03166282 0.3620488
0.692765625 0.09342533 0.33654
0.6939140625 0.1960143 0.272586
0.6950625 0.2674857 0.1823299
0.6962109375 0.3027552 0.07843891
0.697359375 0.3017411 -0.0268597
0.6985078125 0.2679694 -0.1222002
0.69965625 0.2067445 -0.1985978
0.7008046875 0.1270643 -0.2499842
0.701953125 0.03701832 -0.272362
0.7031015625 -0.05374442 -0.2648728
0.70425 -0.1357128 -0.2293569
0.7053984375 -0.2008566 -0.1701641
0.706546875 -0.2431555 -0.09347556
0.7076953125 -0.2586766 -0.007899452
0.70884375 -0.2449083 0.07696455
0.7099921875 -0.2047454 0.1529242
0.711140625 -0.1423386 0.2116483
0.7122890625 -0.06404828 0.2460216
0.7134375 0.02094178 0.2529769
0.7145859375 0.1038752 0.2318615
0.715734375 0.1744535 0.1850172
0.7168828125 0.2264827 0.1164765
0.71803125 0.2541698 0.03525701
0.7191796875 0.2529004 -0.05113313
0.720328125 0.2241276 -0.1338642
0.7214765625 0.1683075 -0.2029975
0.722625 0.09231962 -0.2510102
0.7237734375 0.003089229 -0.2720271
0.724921875 -0.09058841 -0.2620677
0.7260703125 -0.1778358 -0.2206548
0.72721875 -0.2489534 -0.1501202
0.7283671875 -0.2928708 -0.0561504
0.729515625 -0.3018978 0.05098814
0.7306640625 -0.2720358 0.1589105
0.7318125 -0.2027631 0.2530076
0.7329609375 -0.09999279 0.3175977
0.734109375 0.02369662 0.3411575
0.7352578125 0.1522762 0.3154968
0.73640625 0.2650077 0.2398423
0.7375546875 0.3414702 0.1237784
0.738703125 0.3670696 -0.01557999
0.7398515625 0.3351003 -0.156269
0.741 0.2494881 -0.2729809
0.7421484375 0.1251515 -0.3453871
0.743296875 -0.01601849 -0.3630232
0.7444453125 -0.1502204 -0.3241591
0.74559375 -0.2557513 -0.2387314
0.7467421875 -0.3185815 -0.1230967
0.747890625 -0.332218 0.002503804
0.7490390625 -0.2876374 0.1156613
0.7501875 -0.2198071 0.2052804
0.7513359375 -0.1284877 0.262469
0.752484375 -0.02729254 0.2820901
0.7536328125 0.07126373 0.2664893
0.75478125 0.1548934 0.2197028
0.7559296875 0.2152744 0.1495338
0.757078125 0.2473562 0.06563617
0.7582265625 0.2492762 -0.02289222
0.759375 0.2232127 -0.1028903
0.7605234375 0.1724737 -0.1693006
0.761671875 0.1037715 -0.2140695
0.7628203125 0.02560894 -0.2330867
0.76396875 -0.05321702 -0.2254404
0.7651171875 -0.1241948 -0.1923758
0.766265625 -0.1791441 -0.1386811
0.7674140625 -0.2131251 -0.07058453
0.7685625 -0.2224464 0.004286125
0.7697109375 -0.2071478 0.07691851
0.770859375 -0.1692422 0.1404031
0.7720078125 -0.1130933 0.1874004
0.77315625 -0.04549986 0.2135023
0.7743046875 0.02675194 0.2164976
0.775453125 0.09640734 0.1965156
0.7766015625 0.1557686 0.1549869
0.77775 0.1992654 0.09646858
0.7788984375 0.2224989 0.02683575
0.780046875 0.2215871 -0.04831192
0.7811953125 0.1967756 -0.120202
0.78234375 0.1491317 -0.1817871
0.7834921875 0.08203066 -0.225695
0.784640625 0.002608301 -0.246065
0.7857890625 -0.08321031 -0.2390068
0.7869375 -0.163906 -0.2023166
0.7880859375 -0.2300086 -0.1380264
0.789234375 -0.2719334 -0.05110029
0.7903828125 -0.2814472 0.04941275
0.79153125 -0.253223 0.1509102
0.7926796875 -0.1876312 0.2393219
0.793828125 -0.09032316 0.2998671
0.7949765625 0.02713788 0.3204774
0.796125 0.1483693 0.2939744
0.7972734375 0.2529349 0.2208138
0.798421875 0.3228873 0.1098078
0.7995703125 0.343279 -0.02211224
0.80071875 0.3097167 -0.1525881
0.8018671875 0.2261988 -0.2589442
0.803015625 0.1083506 -0.3234375
0.8041640625 -0.02323095 -0.3346601
0.8053125 -0.1456667 -0.2950106
0.8064609375 -0.2396998 -0.2131518
0.807609375 -0.2931476 -0.1053236
0.8087578125 -0.3015027 0.009784125
0.80990625 -0.2678265 0.1148878
0.8110546875 -0.2011571 0.1966089
0.812203125 -0.113917 0.2463346
0.8133515625 -0.01890667 0.260964
0.8145 0.0710688 0.2425671
0.8156484375 0.1453633 0.1960154
0.816796875 0.1973006 0.1296733
0.8179453125 0.2225766 0.05242853
0.81909375 0.2194254 -0.02512922
0.8202421875 0.1921355 -0.09512544
0.821390625 0.1442977 -0.1495466
0.8225390625 0.08341561 -0.1835214
0.8236875 0.01709246 -0.1954767
0.8248359375 -0.04713505 -0.1844012
0.825984375 -0.1024313 -0.1543921
0.8271328125 -0.1434974 -0.1098596
0.82828125 -0.1671713 -0.0561261
0.8294296875 -0.1724596 0.001092195
0.830578125 -0.1594605 0.05540227
0.8317265625 -0.1311566 0.1015844
0.832875 -0.0906119 0.1360382
0.8340234375 -0.04227545 0.1557642
0.835171875 0.009108815 0.1597115
0.8363203125 0.05879825 0.1473436
0.83746875 0.1020569 0.1209204
0.8386171875 0.1349869 0.08218241
0.839765625 0.154335 0.03546534
0.8409140625 0.1579365 -0.01569714
0.8420625 0.1461943 -0.06612401
0.8432109375 0.1182447 -0.1101469
0.844359375 0.07728635 -0.1441405
0.8455078125 0.02674381 -0.1637966
0.84665625 -0.02851814 -0.1659569
0.8478046875 -0.08241659 -0.1499257
0.848953125 -0.1293778 -0.1162874
0.8501015625 -0.1633931 -0.06842075
0.85125 -0.1805891 -0.01047623
0.8523984375 -0.1770581 0.05119847
0.853546875 -0.1532043 0.1097584
0.8546953125 -0.1100335 0.1583788
0.85584375 -0.0515583 0.1905891
0.8569921875 0.01666483 0.20195
0.858140625 0.08665211 0.1893218
0.8592890625 0.1505679 0.152943
0.8604375 0.2002145 0.09404844
0.8615859375 0.227693 0.01924104
0.862734375 0.2275744 -0.06376807
0.8638828125 0.1967608 -0.1460534
0.86503125 0.1353482 -0.2142861
0.8661796875 0.04926601 -0.2575801
0.867328125 -0.05132393 -0.2662677
0.8684765625 -0.1524301 -0.2341606
0.869625 -0.2364095 -0.1627588
0.8707734375 -0.2865089 -0.06021478
0.871921875 -0.2916793 0.05698021
0.8730703125 -0.2476159 0.1678652
0.87421875 -0.1619584 0.2518118
0.8753671875 -0.04929737 0.2923616
0.876515625 0.06735682 0.2845289
0.8776640625 0.1684177 0.2308215
0.8788125 0.2372742 0.1449773
0.8799609375 0.2656795 0.04282697
0.881109375 0.2535183 -0.0569526
0.8822578125 0.2064907 -0.140703
0.88340625 0.1365516 -0.1978373
0.8845546875 0.05426462 -0.2244463
0.885703125 -0.02731033 -0.2203381
0.8868515625 -0.09809298 -0.1896626
0.888 -0.1516144 -0.1393147
0.8891484375 -0.1833628 -0.07700456
0.890296875 -0.1922861 -0.01067007
0.8914453125 -0.1793063 0.05267776
0.89259375 -0.1478289 0.106143
0.8937421875 -0.1022643 0.1454722
0.894890625 -0.04795753 0.1672708
0.8960390625 0.009169515 0.1707697
0.8971875 0.06324393 0.156081
0.8983359375 0.109498 0.1254428
0.899484375 0.1426201 0.08210957
0.9006328125 0.1604922 0.03072233
0.90178125 0.1604519 -0.02324112
0.9029296875 0.143536 -0.07427082
0.904078125 0.1109007 -0.1166099
0.9052265625 0.06654341 -0.1462738
0.906375 0.01501821 -0.1599884
0.9075234375 -0.03827218 -0.1559085
0.908671875 -0.08751176 -0.1345838
0.9098203125 -0.1269435 -0.09874922
0.91096875 -0.152777 -0.05158595
0.9121171875 -0.1618097 0.001245928
0.913265625 -0.1534698 0.05467211
0.9144140625 -0.1279654 0.1023971
0.9155625 -0.08778771 0.1401698
0.9167109375 -0.03737767 0.1630081
0.917859375 0.0184712 0.1685147
0.9190078125 0.07421476 0.1552624
0.92015625 0.1237068 0.124325
0.9213046875 0.1610301 0.07755979
0.922453125 0.181801 0.01952435
0.9236015625 0.1816133 -0.04426135
0.92475 0.1600309 -0.1060761
0.9258984375 0.116819 -0.1586257
0.927046875 0.05606117 -0.1941429
0.9281953125 -0.01632137 -0.2069523
0.92934375 -0.09061641 -0.1929577
0.9304921875 -0.1575915 -0.1510081
0.931640625 -0.20612 -0.08613522
0.9327890625 -0.2282509 -0.004670864
0.9339375 -0.2174642 0.08061552
0.9350859375 -0.1745675 0.1575983
0.936234375 -0.1044797 0.2130765
0.9373828125 -0.01721744 0.2377006
0.93853125 0.07280231 0.227007
0.9396796875 0.1517498 0.1827774
0.940828125 0.207177 0.1116118
0.9419765625 0.2306111 0.02691918
0.943125 0.2205678 -0.05923837
0.9442734375 0.1802873 -0.1331093
0.945421875 0.1169137 -0.1855889
0.9465703125 0.04148285 -0.2102606
0.94771875 -0.03541176 -0.2062548
0.9488671875 -0.1036253 -0.1759554
0.950015625 -0.1550605 -0.1250602
0.9511640625 -0.1844406 -0.06182394
0.9523125 -0.1900508 0.005795248
0.9534609375 -0.172421 0.06914825
0.954609375 -0.1352589 0.1216809
0.9557578125 -0.08373282 0.157303
0.95690625 -0.02486219 0.1733617
0.9580546875 0.03478313 0.1683246
0.959203125 0.08819054 0.1436893
0.9603515625 0.1292863 0.1042704
0.9615 0.1545098 0.05365747
0.9626484375 0.1610913 -0.00154823
0.963796875 0.1491315 -0.05440091
0.9649453125 0.1208004 -0.09995922
0.96609375 0.07965112 -0.1328769
0.9672421875 0.03081749 -0.1503462
0.968390625 -0.02040803 -0.1504673
0.9695390625 -0.06807219 -0.1345062
0.9706875 -0.1081757 -0.1037617
0.9718359375 -0.1360675 -0.06243151
0.972984375 -0.1485204 -0.01426605
0.9741328125 -0.1454176 0.03532859
0.97528125 -0.1265068 0.08114804
0.9764296875 -0.09319472 0.1189217
0.977578125 -0.04926915 0.1441207
0.9787265625 0.001319102 0.1546203
0.979875 0.05323432 0.1477276
0.9810234375 0.1009411 0.1235322
0.982171875 0.1392799 0.08406966
0.9833203125 0.1626337 0.03281147
0.98446875 0.1684175 -0.02525146
0.9856171875 0.1530821 -0.08322446
0.986765625 0.1175772 -0.1346753
