!Freq, S11, S21, S12, S22
0.1	-54.2105857389258	-0.0104933552434528	-0.0121329841254351	-54.8472864512924
0.2	-52.5397636673542	-0.0195625681073003	-0.0204334090833293	-51.9463869059543
0.3	-51.1516185154753	-0.02508878595855	-0.0272657639612892	-49.3789559304735
0.4	-49.6055263484871	-0.0300815373746295	-0.0307765646757231	-49.8465642746585
0.5	-49.4546523640734	-0.0331883829023121	-0.0322548016410993	-49.7153597663675
0.6	-48.5939378995582	-0.0336054369033449	-0.0350090772474462	-50.2778247059241
0.7	-48.6206221263946	-0.0365332905261648	-0.0354740867890481	-49.3382304507339
0.8	-48.3128707608419	-0.0357069316968248	-0.0365388166678776	-48.6914368271471
0.9	-48.349813276989	-0.0382309218213163	-0.0382051529149037	-47.7204366998412
1	-47.7930706232397	-0.0380157934649124	-0.0387553677231828	-48.0306417951485
1.1	-47.6197924943147	-0.0395513967277049	-0.0399144000565794	-47.3518967038887
1.2	-47.3657229936952	-0.0405935597006029	-0.0405672536687696	-47.5101530065486
1.3	-46.2511903328342	-0.0401756180560721	-0.0409357378942794	-47.6734151013034
1.4	-45.8990896057489	-0.0417637304929458	-0.0419285494572651	-46.590082751801
1.5	-45.6564980420636	-0.042634412909604	-0.0425723651817104	-46.4440585828223
1.6	-44.848782173675	-0.0426810061957054	-0.0430270598551534	-46.1745014050144
1.7	-44.9160164177857	-0.0439305069405087	-0.0438832197482587	-45.8060302269887
1.8	-44.2343990511996	-0.0449268969419574	-0.0445974873823375	-44.8044537663194
1.9	-43.9767458098062	-0.04475607146182	-0.0450652328193294	-44.5967808849938
2	-44.0236957203492	-0.0459828303332506	-0.0460253407107193	-44.6472410212492
2.1	-43.3223350785174	-0.0460008457032504	-0.0473644267273127	-44.0814345944287
2.2	-43.1412141136148	-0.0461145896866829	-0.0469551446716261	-44.5425256820569
2.3	-43.4741639301797	-0.0470580976713337	-0.0476160319762812	-44.7764719972298
2.4	-42.6892240001726	-0.0477397459556803	-0.0486707715593369	-43.4606963961145
2.5	-42.8289029095376	-0.0481732699207903	-0.0475932538960335	-43.6367136218313
2.6	-42.5128339911087	-0.049613591921062	-0.0497012682805576	-43.4451159436326
2.7	-42.4716488422116	-0.0490133919782642	-0.0491187404552454	-43.1840628505381
2.8	-42.1736583261006	-0.0505191019420929	-0.0493576413485592	-43.1784547898955
2.9	-42.0789734171798	-0.051650497819865	-0.0512557777602421	-42.8263423210709
3	-41.835882684999	-0.0520402953104803	-0.0518653181029983	-42.5559440383657
3.1	-41.2531114653576	-0.0528714796382513	-0.0521639175508691	-41.850894907732
3.2	-40.9715547949336	-0.0516879302050137	-0.0530448801425809	-41.6857571556404
3.3	-40.3120207739671	-0.0522638912639323	-0.0535096517206419	-41.0089800792311
3.4	-40.1032197645158	-0.0538718605580047	-0.0543503116667556	-40.6016357154322
3.5	-39.409190905204	-0.0543457412522727	-0.053425483607235	-39.9237271961735
3.6	-39.1584483050508	-0.0547730818222732	-0.0544101769585347	-39.3947968482557
3.7	-38.5064744417362	-0.0559423832060379	-0.0552373559493082	-38.8020278701411
3.8	-38.242169479136	-0.0562609890118803	-0.0557250553758192	-38.5347460678714
3.9	-37.5734868086787	-0.0561955968871938	-0.0564212757790458	-37.8941891482997
4	-37.4510342105266	-0.0571430147256783	-0.056762486823639	-37.60521841422
4.1	-36.9755643056404	-0.0580357577758276	-0.0572426522823663	-37.3529815993767
4.2	-36.2880530770791	-0.0584416679992868	-0.0584437996895782	-36.4705798610432
4.3	-35.8347600696008	-0.0582310878681728	-0.0590752878386756	-36.0043295821658
4.4	-35.4491723418695	-0.0586464896269888	-0.0593096429728551	-35.5865739018206
4.5	-35.0226894132071	-0.0595728283537693	-0.0600820423771546	-35.2034629653853
4.6	-34.8740184585618	-0.0600830175356891	-0.0611941330006863	-35.0062001071662
4.7	-34.4574065041236	-0.0609168520047927	-0.0620226458333244	-34.5009361876491
4.8	-33.9947656621635	-0.0616459762763771	-0.0629068983449782	-34.044521673601
4.9	-33.6479821590586	-0.0609737420365115	-0.0638725748789817	-33.6523150742313
5	-33.5687990203148	-0.06133062737262	-0.0644997148527281	-33.4732568897404
5.1	-33.2838074797142	-0.0617814570664176	-0.0658613973566175	-33.3016274633108
5.2	-32.8403437962553	-0.063725489156775	-0.0619073004408578	-32.946034269377
5.3	-32.7876496864171	-0.0657715814205057	-0.0605200950075743	-32.6584516055723
5.4	-32.4386424694387	-0.0659956049436253	-0.0621650204344021	-32.4255177359982
5.5	-32.3086992143447	-0.0655548568819674	-0.0643978367627402	-32.2857031586218
5.6	-32.0184561145761	-0.0657898019043074	-0.0647017673698996	-32.0166126461938
5.7	-31.9236763484471	-0.0667871291094596	-0.0657551359142756	-31.959870131821
5.8	-31.7431724392535	-0.066530237648334	-0.0663789793606741	-31.7191464045848
5.9	-31.5728334892078	-0.0673219118855043	-0.0664384351193731	-31.5145689697388
6	-31.454304705339	-0.0675925630702801	-0.0665872704840091	-31.4395646244663
6.1	-31.3467675544171	-0.0673656435848336	-0.0676387299496475	-31.3153152348197
6.2	-31.2083671780577	-0.0674131254503913	-0.0685766789050423	-31.1822859279593
6.3	-31.1910485464234	-0.0680582100321641	-0.0683320845868546	-31.1819907386705
6.4	-31.0992717970513	-0.0688803197320467	-0.0687668598555454	-31.0488412760042
6.5	-30.9974891052633	-0.0691495064420608	-0.069197360266111	-30.9611544178564
6.6	-30.894896587508	-0.0699803396213448	-0.0693784544561728	-30.8465946199847
6.7	-30.851856873933	-0.0697104546452502	-0.0704920030237506	-30.7906993962351
6.8	-31.0034953063893	-0.0702070631417523	-0.0698944335122078	-30.9310403371901
6.9	-30.8634219374493	-0.0694538727321768	-0.0708021614852272	-30.9451839037509
7	-31.0406901906306	-0.0703385368184277	-0.0712153561486797	-30.9997591328153
7.1	-31.1480756833874	-0.0703840741409699	-0.0707801665103401	-31.0687072903389
7.2	-31.2173085582349	-0.07129482518543	-0.0709855166034984	-31.2134545075451
7.3	-31.2388595489365	-0.0708309787058217	-0.0707227723368019	-31.2358607358194
7.4	-31.502135503409	-0.0706570985828908	-0.0716074764718902	-31.4318341044333
7.5	-31.7924485127983	-0.0709136171172597	-0.0713671935463452	-31.7317781539986
7.6	-31.7572911252621	-0.0719141051041929	-0.0716234807566469	-31.676157586609
7.7	-32.3525084698586	-0.0721350834461811	-0.0715219217587998	-32.2618879311585
7.8	-32.5063005103015	-0.0717202143045234	-0.0724864484009189	-32.331187461519
7.9	-32.5861031078475	-0.0714734102533912	-0.0720323691392923	-32.520081262075
8	-33.091964341133	-0.0713881662507725	-0.0728142995936898	-33.1011901484512
8.1	-33.7582401247756	-0.0718913777102646	-0.0724826118565243	-33.5758307553355
8.2	-33.8303205478212	-0.0724665599069886	-0.0724409186528316	-33.7915848234087
8.3	-34.4833916414287	-0.0729147664828227	-0.0718220162919781	-34.512871615667
8.4	-35.0485889881703	-0.0734690636940022	-0.0722710239150429	-34.9468020264105
8.5	-35.6589236739694	-0.0715629397791274	-0.0721610220079501	-35.813680508022
8.6	-36.2917299769231	-0.0726005361176037	-0.0719342777979678	-36.5195158546891
8.7	-37.1655256915675	-0.0720648020979741	-0.0728418325260656	-37.23308684918
8.8	-38.1913315695983	-0.0725849920364336	-0.0727873153980723	-38.2781186063674
8.9	-38.7607263425555	-0.0718024339620437	-0.0721585401519286	-39.0181959110574
9	-40.5562034411489	-0.0723951953751891	-0.0729053957903741	-40.734083632757
9.1	-42.0754959261688	-0.0725623670816211	-0.073665358396317	-42.0929526318494
9.2	-43.5366207717415	-0.0733106890342599	-0.0730919331591554	-43.6824794716085
9.3	-45.3683212554406	-0.072980026668225	-0.0734132076179441	-45.7726225945109
9.4	-47.7691270628965	-0.0738319188779295	-0.0743487828667625	-48.058523219582
9.5	-49.6262045444787	-0.0740491445839516	-0.0745367631380283	-51.9049286582372
9.6	-50.3043010366298	-0.0742144417587697	-0.0746168325258767	-53.8812698694649
9.7	-48.3787674720847	-0.0741656569599461	-0.0746092668279589	-49.6430688690117
9.8	-46.5215497263549	-0.0742613696972196	-0.074371429115486	-46.660785385244
9.9	-44.3088758090862	-0.0753597134737579	-0.0744723513844705	-44.6728134506
10	-42.365658697515	-0.0758809658377078	-0.0755923934166261	-43.0102051728971
10.1	-40.2579031765309	-0.0753178512208324	-0.0751304471042497	-40.6908998380391
10.2	-39.2522409846431	-0.0756096435998744	-0.0763034308797873	-39.4163730538293
10.3	-37.6954944398034	-0.0750226577076629	-0.0759651547996991	-37.8694827534907
10.4	-36.5835484273749	-0.0752874734602214	-0.0761910054870818	-36.5693105304777
10.5	-35.7742674278928	-0.0763870750503703	-0.0769438044383573	-35.8772318186929
10.6	-34.9106055630912	-0.0774465524289891	-0.0765195101196274	-35.0054543277713
10.7	-33.7333344233553	-0.0775526376508238	-0.0777475459568385	-33.735562353847
10.8	-33.2189369161774	-0.0778191683137335	-0.0768371526666278	-32.8797830333046
10.9	-32.6118062066606	-0.0784530858375896	-0.0778113510883836	-32.664193772743
11	-31.6118415981887	-0.0793018284510783	-0.0787831120815045	-31.3480226824368
11.1	-31.3570445655249	-0.0797293604625823	-0.0802522795604229	-31.062035811021
11.2	-30.843019128945	-0.0822437172793242	-0.0808558530758294	-30.6205502521944
11.3	-30.1500589793614	-0.082914425715902	-0.0814850510690247	-29.956279733618
11.4	-29.8311376657222	-0.0825942504854156	-0.081567801123454	-29.4758931640991
11.5	-29.336579390736	-0.0843970961615027	-0.0834238309544419	-29.094825896129
11.6	-28.8720666079171	-0.0848543902785669	-0.0840051199860195	-28.834078630813
11.7	-28.6499823247757	-0.0845662221695631	-0.0850809594710744	-28.3126060413692
11.8	-28.2659171058709	-0.0868690862084603	-0.0861590068756858	-28.1656616583608
11.9	-27.9947209841314	-0.0871824034295975	-0.0864680783498548	-27.9684409597265
12	-27.8151122978614	-0.0862888251661432	-0.085770438076014	-27.7747974509649
12.1	-27.5167117020958	-0.0854544582601691	-0.0869733071281329	-27.5234036018913
12.2	-27.4302928120633	-0.0866365874625263	-0.0861813210316638	-27.3860024850118
12.3	-27.32735851437	-0.0862682732910607	-0.0860133811886714	-27.3765258412436
12.4	-26.9870496829357	-0.0857307202366746	-0.0862641065413927	-27.0134130094306
12.5	-27.0434239687245	-0.0867028320662987	-0.0870073583912411	-26.9484959983972
12.6	-27.0359667445891	-0.085988614688913	-0.0862348892780593	-26.8566575748926
12.7	-26.9784412769786	-0.0863650446818492	-0.0869794703049851	-26.7883363925255
12.8	-26.9742923939411	-0.0878227084857194	-0.0872540986591279	-26.7338632134119
12.9	-26.986193779532	-0.087129094051086	-0.0864174688894179	-26.8080966085227
13	-26.96020411747	-0.0873426104201147	-0.0873548850896907	-26.6745294424019
13.1	-27.0138892745806	-0.0882187557265422	-0.0863807959498318	-26.778754563228
13.2	-27.0744841679347	-0.0870276965787889	-0.0871288834945582	-26.8008185373892
13.3	-27.2482418129789	-0.0865730808671119	-0.0867655893186978	-27.0015704879919
13.4	-27.3421055693351	-0.0880378346587112	-0.0873540094521446	-27.0385428892139
13.5	-27.4854425392851	-0.0867447775438503	-0.0875810496472938	-27.2868880045118
13.6	-27.6800737839859	-0.0875156805774627	-0.0875507793426265	-27.3917243096631
13.7	-27.8195397252654	-0.0883579463838498	-0.0868811632748625	-27.4677425645315
13.8	-28.2219123732937	-0.0877472780710641	-0.08782367542962	-27.9252518724378
13.9	-28.5528204469165	-0.0877091429445637	-0.0873902432730159	-28.2900784519159
14	-28.9627049990451	-0.0872907621881326	-0.0876204182078815	-28.5667078107143
14.1	-29.2355488321849	-0.0878511104624964	-0.0883671847338764	-28.9178446343246
14.2	-29.7613968551257	-0.0891487338555165	-0.0876527048932997	-29.425595774603
14.3	-30.1353236127893	-0.0877427835738499	-0.0867748403142817	-29.573385438232
14.4	-30.5938344751631	-0.0879754265280563	-0.0876189373579581	-30.095970574925
14.5	-31.1028465140827	-0.0875734814918385	-0.0865752380310259	-30.7168587920556
14.6	-31.7143376508214	-0.0874489909056288	-0.0869973998664147	-31.3606128797318
14.7	-32.1147533657717	-0.0875152756145966	-0.0880322797277311	-31.4213661535268
14.8	-33.0368822469773	-0.0887604608909696	-0.0866009292120405	-32.614911501555
14.9	-33.8267821823923	-0.0871141658222023	-0.0854094810164481	-33.0492080591027
15	-34.4025190878387	-0.0878197216805486	-0.0876467713059492	-33.5694980360325
