! Created with skrf 1.8.0 (http://scikit-rf.org).
# GHz S RI R 50.0 
!freq ReS11 ImS11
0.001 0.744267793625405 0.0894169171346973
0.0029999 0.7960598416065356 0.05697483492566327
0.0049998 0.8118896141737377 0.05127539901611425
0.0069997 0.8243328520900757 0.05164135512205004
0.0089996 0.828810112750747 0.05466645802052844
0.0109995 0.8304901197711889 0.05777462389412391
0.0129994 0.8334016761353696 0.05977911683343695
0.0149993 0.8343533283615856 0.06458649464870014
0.0169992 0.8352247874056691 0.06854470829559278
0.0189991 0.8347604298894267 0.07392740866106728
0.020999 0.8360690786725156 0.07917569832763177
0.0229989 0.8349984352496447 0.08346140344738817
0.0249988 0.8345148922954876 0.08972441752830185
0.0269987 0.835904227347294 0.09497745791010426
0.0289986 0.8352980375719217 0.09983979679584315
0.0309985 0.8351581200281193 0.1050660588874398
0.0329984 0.8346499774429452 0.11156813158583223
0.0349983 0.8355637758870937 0.11632921935800883
0.0369982 0.8338808862973914 0.12159050349148248
0.0389981 0.8335681627170064 0.12808206916149256
0.040998 0.833610219202148 0.13250095147636837
0.0429979 0.8325719458406711 0.13949057910772744
0.0449978 0.8326728494116815 0.14443834367857844
0.0469977 0.8312587047018901 0.14960673663486262
0.0489976 0.8313623714274836 0.15546641096075586
0.0509975 0.8295857320694502 0.16108829737018893
0.0529974 0.8286319207505448 0.16678432552384215
0.0549973 0.8288911420458243 0.17269969453502393
0.0569972 0.8266045919938498 0.1778965545232017
0.0589971 0.825541789488598 0.18421734526354533
0.060997 0.8250904830481243 0.18962267444960806
0.0629969 0.8236945912350898 0.19553867733292113
0.0649968 0.8234550691705707 0.20160702737192
0.0669967 0.8223469058949333 0.2071537144968365
0.0689966 0.8208336448006956 0.21271167476500186
0.0709965 0.8195615335367149 0.21920128358625623
0.0729964 0.8181307158055487 0.22425142918732355
0.0749963 0.8173654284650975 0.23002402888746087
0.0769962 0.8154564671308334 0.23667785214722314
0.0789961 0.8147056254153104 0.24180084603392787
0.080996 0.8123125476484807 0.24733901356027244
0.0829959 0.8116195518106409 0.25367439677581805
0.0849958 0.8096490039878476 0.2592659484139448
0.0869957 0.8089635953253631 0.2648395543914517
0.0889956 0.8065825727939941 0.2713724935556914
0.0909955 0.8049553865764318 0.2762686426501525
0.0929954 0.8033143874568929 0.28168631558855606
0.0949953 0.8013572299460873 0.2880887419001589
0.0969952 0.7994027614998223 0.29312978034711823
0.0989951 0.7993250301802813 0.29919590633212606
0.100995 0.7959749330526379 0.3039136306875945
0.1029949 0.7946385379734433 0.3105213270586013
0.1049948 0.7930185979807449 0.31625860463753785
0.1069947 0.7911705168757719 0.3224872496696117
0.1089946 0.7884905355259575 0.3279956080876021
0.1109945 0.7869586897029546 0.3330765378285247
0.1129944 0.7846865377526537 0.3384262727648444
0.1149943 0.7833065441095671 0.34470052518613814
0.1169942 0.7803370075392191 0.3501988732575473
0.1189941 0.77920753713994 0.35604618773952046
0.120994 0.777426298506769 0.3611786054336328
0.1229939 0.7745945352271879 0.3673176227572308
0.1249938 0.7723346042345769 0.3728453934433089
0.1269937 0.7697168614213817 0.3787174097578062
0.1289936 0.7680056524221381 0.38369295300322415
0.1309935 0.765122674735457 0.3890514000732044
0.1329934 0.7621324419399758 0.39553297859271114
0.1349933 0.760267947296097 0.40070335054421363
0.1369932 0.7584646556334794 0.4060352336698919
0.1389931 0.7560004440033498 0.41201741755624116
0.140993 0.7524098200271282 0.41799376793918286
0.1429929 0.7504125304225584 0.4228518135087532
0.1449928 0.7476287404205559 0.428942431456102
0.1469927 0.7452115842117537 0.4336406575266546
0.1489926 0.7419173694403306 0.4389558835258657
0.1509925 0.7402674377245351 0.4443777701595325
0.1529924 0.7367697478866443 0.4498741604757791
0.1549923 0.7338906348426613 0.45507817025050634
0.1569922 0.7308678720759779 0.46030978432112546
0.1589921 0.7285241362832323 0.46612671187187077
0.160992 0.7252401369765535 0.47071335547001847
0.1629919 0.7228975684940967 0.4759438106799705
0.1649918 0.7199377609209756 0.4815405703395481
0.1669917 0.7167459453504422 0.4869782948739487
0.1689916 0.7137336586571776 0.49257461862096186
0.1709915 0.7112423683864054 0.49808400419756294
0.1729914 0.7079184799073747 0.502845994621525
0.1749913 0.7048707460886579 0.5075949725308653
0.1769912 0.7008094634780844 0.513289831990575
0.1789911 0.6983555629700412 0.5180791521269233
0.180991 0.6953756404937692 0.5236185450201591
0.1829909 0.6919490687442724 0.5279370077135224
0.1849908 0.6882837110710642 0.5348278308685714
0.1869907 0.6857866457076804 0.5399309838160055
0.1889906 0.6818237030709516 0.5444462109653068
0.1909905 0.6787660546956715 0.549897524792027
0.1929904 0.675667824641287 0.5541153878606351
0.1949903 0.6725418677527607 0.5596110192483242
0.1969902 0.6687242025098188 0.5641075202474469
0.1989901 0.6649400065620583 0.5698943926097009
0.20099 0.6613025508456281 0.5747301029663321
0.2029899 0.6583127696259298 0.5797406147833346
0.2049898 0.6545459478227832 0.584928345132415
0.2069897 0.6501087846519669 0.5895227329867618
0.2089896 0.6460892293482287 0.5943084743712513
0.2109895 0.6429024102534424 0.5995402345357475
0.2129894 0.640008584723237 0.6042899856023211
0.2149893 0.6356463135426079 0.6086782645266308
0.2169892 0.6314123871079607 0.6136056112491384
0.2189891 0.6280471404676953 0.6182887533950988
0.220989 0.6239665255977181 0.623140572813641
0.2229889 0.6195489224018439 0.6290402091096903
0.2249888 0.6167111931645858 0.6340797982367283
0.2269887 0.6120407482089948 0.6373890714812545
0.2289886 0.6080581520487867 0.6419541264512745
0.2309885 0.6045768091856915 0.6460366822701389
0.2329884 0.6001235834228181 0.6512234875956617
0.2349883 0.5965201650124994 0.6555767447138285
0.2369882 0.5920915525973125 0.6609431337929671
0.2389881 0.5879344143053963 0.6648040060549939
0.240988 0.584033309403207 0.6699030221724862
0.2429879 0.5803791643885501 0.6736628113361111
0.2449878 0.57549478837275 0.6781986363524741
0.2469877 0.5717040964975726 0.6830343025209795
0.2489876 0.5668039359029953 0.6867939766458707
0.2509875 0.5626777221323395 0.6914010846476597
0.2529874 0.5585514182102591 0.696607326128579
0.2549873 0.5540620119272601 0.7008222588503081
0.2569872 0.5492010471826678 0.7043160565578769
0.2589871 0.5450585230301492 0.7087101487612621
0.260987 0.5411289800852823 0.7131003551673804
0.2629869 0.5363603583102413 0.7171501618056029
0.2649868 0.5320882080334008 0.7209475053578809
0.2669867 0.5271886574197522 0.7258538131072927
0.2689866 0.5222593945261893 0.7302658564362459
0.2709865 0.5178940535661033 0.7345648807275766
0.2729864 0.5133118081908574 0.7379407017132746
0.2749863 0.5085793970466758 0.742726115738725
0.2769862 0.504130795170255 0.7463698509552343
0.2789861 0.49903670117609356 0.7507291709230457
0.280986 0.493982773317204 0.7538157135437858
0.2829859 0.48972365786404526 0.7587313717049116
0.2849858 0.4846763067544917 0.761468433397037
0.2869857 0.48039164453988764 0.7664529132032274
0.2889856 0.4753100817829742 0.7698864023302527
0.2909855 0.4702552777716204 0.7735333163353973
0.2929854 0.4652431932891485 0.7775007131023142
0.2949853 0.46069064529207876 0.7811648779247268
0.2969852 0.4555983682541644 0.7842733828447533
0.2989851 0.45010590916422494 0.787914368467179
0.300985 0.44531785913780964 0.7918028448401221
0.3029849 0.4400631527692479 0.7952552823579919
0.3049848 0.4360305205404048 0.8000772322940457
0.3069847 0.4309447012080002 0.8029002123675026
0.3089846 0.42534073008506645 0.806411366042944
0.3109845 0.41968979319670413 0.8098071032037886
0.3129844 0.4153593111568258 0.8133136298386893
0.3149843 0.4101851376957344 0.8168116986944058
0.3169842 0.4052382805522002 0.8202666584601898
0.3189841 0.3991916257064898 0.822480274452462
0.320984 0.3937638412639827 0.8259560982678935
0.3229839 0.3888786822344087 0.8302718927129198
0.3249838 0.38319809557234186 0.8333868347231342
0.3269837 0.3786397609469975 0.8368242142998744
0.3289836 0.3732883752033179 0.8402390671701009
0.3309835 0.3678965817035872 0.8432918928768875
0.3329834 0.3622889795453934 0.8462617557652738
0.3349833 0.356479567784766 0.8489981843016899
0.3369832 0.351176774598276 0.8520309306661132
0.3389831 0.34579968089266455 0.855651525795795
0.340983 0.3403617577065728 0.8581387245556197
0.3429829 0.3345356150997959 0.8613370770583427
0.3449828 0.3289933840938959 0.8637827239826824
0.3469827 0.32381392405286025 0.8671003506072112
0.3489826 0.31819295742854736 0.8695124158639101
0.3509825 0.3121640244166439 0.8723044246513088
0.3529824 0.3072314769200649 0.8752117368667289
0.3549823 0.30218052723198174 0.8786209610568829
0.3569822 0.29602627091137124 0.8816222459791179
0.3589821 0.2896749333472232 0.8838293785116417
0.360982 0.28367598825455365 0.8856483859394817
0.3629819 0.2787703136038706 0.8886311567217162
0.3649818 0.27347150910510654 0.8911726085547151
0.3669817 0.26729664883681675 0.8940935541965587
0.3689816 0.26152398015906764 0.8957730381132396
0.3709815 0.25648232201368665 0.8985838182487442
0.3729814 0.2501053228267121 0.9013471908264937
0.3749813 0.24432303648153203 0.9033244331214271
0.3769812 0.23859355730123805 0.9049489735097972
0.3789811 0.23270927195179913 0.9071901153828597
0.380981 0.22659624173403403 0.9091448484572466
0.3829809 0.22074133492086873 0.9112302021741548
0.3849808 0.21512590177317534 0.9137926796622678
0.3869807 0.20875917908378186 0.91672903123851
0.3889806 0.2035435826594533 0.9189942824078089
0.3909805 0.19797733169746834 0.9201201518081035
0.3929804 0.19169023037748395 0.9226320336361828
0.3949803 0.1860973038006082 0.9243112035111827
0.3969802 0.17952870276315988 0.9262327290356334
0.3989801 0.1735379684595268 0.9290570896595252
0.40098 0.16760347727299957 0.930364917690226
0.4029799 0.16146757863829678 0.9317235460979317
0.4049798 0.155243277690615 0.9333583737914072
0.4069797 0.1494321032130099 0.9352618829427537
0.4089796 0.14354721987002753 0.9372288932062945
0.4109795 0.13724752969951068 0.9381972958112388
0.4129794 0.13166613585119508 0.9399242239596354
0.4149793 0.12533973462344228 0.9413999627612012
0.4169792 0.11909152291836268 0.9439849489232414
0.4189791 0.11353197225844681 0.9451952351113281
0.420979 0.10689055468961733 0.9464580021141477
0.4229789 0.10085086722715557 0.9476601355210047
0.4249788 0.09449468596292299 0.9487011322560425
0.4269787 0.08870422618077053 0.9498985189058933
0.4289786 0.08253264150379026 0.9515277072716349
0.4309785 0.07663415028533914 0.9522931965523804
0.4329784 0.07011573213050419 0.9533353505647225
0.4349783 0.06371361705731793 0.9546426140525586
0.4369782 0.05813805712953719 0.9567928242686676
0.4389781 0.0516084448091315 0.9570581663703518
0.440978 0.04535366352914014 0.9582636105556276
0.4429779 0.03973934673756692 0.95909960306622
0.4449778 0.03258196256730912 0.9601280565795813
0.4469777 0.026973149458420817 0.9609747453719328
0.4489776 0.021141651564804048 0.9614333388293066
0.4509775 0.013781117379367963 0.9618742572479766
0.4529774 0.00794280869726359 0.9628775947210806
0.4549773 0.002150267536366282 0.9635963182087601
0.4569772 -0.004645833733418425 0.9645509294062196
0.4589771 -0.011349284850469724 0.9653125848804429
0.460977 -0.017200753166416477 0.9656386627828155
0.4629769 -0.02363622711267882 0.966441969646885
0.4649768 -0.0296153883457071 0.9669627284205814
0.4669767 -0.035974643873740025 0.9676650981104942
0.4689766 -0.0418118158661566 0.9676985562749841
0.4709765 -0.049007831029713345 0.967800743998689
0.4729764 -0.0542758055068019 0.9685133492385722
0.4749763 -0.06095098988811749 0.9682744757002916
0.4769762 -0.0676768856854787 0.9686378059062472
0.4789761 -0.07395191346497762 0.9685346360998714
0.480976 -0.07996954445390911 0.9690848836475751
0.4829759 -0.08658728182479859 0.9693994324522254
0.4849758 -0.09272758923049347 0.9695129668647092
0.4869757 -0.09887614191619601 0.9690136663644802
0.4889756 -0.10528312211780355 0.9698164388176747
0.4909755 -0.11163440205141663 0.9693811316073403
0.4929754 -0.1178775750279232 0.9688945363665552
0.4949753 -0.12435873261781791 0.969352546484119
0.4969752 -0.13095515583082804 0.9686159889799716
0.4989751 -0.13683872536542757 0.9685746251427236
0.500975 -0.14337849819381504 0.9682123753374219
0.5029749 -0.14946485137766097 0.967933869537872
0.5049748 -0.1555950334202768 0.9679180862474368
0.5069747 -0.16148378369328914 0.967046184882475
0.5089746 -0.16793406531498506 0.9664422040145018
0.5109745 -0.17435266152320422 0.9663596810188082
0.5129744 -0.18095639456565055 0.9651273711450026
0.5149743 -0.18689586141030584 0.9646445540340874
0.5169742 -0.19325871463636907 0.9641691247012292
0.5189741 -0.1995482769662666 0.9635243138169295
0.520974 -0.20546290447162863 0.9630537110970536
0.5229739 -0.21189926058646294 0.9619364498295168
0.5249738 -0.21855928411370618 0.9616054133404232
0.5269737 -0.2245833311269147 0.9605502812980904
0.5289736 -0.2308951391212154 0.9594954474258898
0.5309735 -0.23756611484273488 0.9587284332816034
0.5329734 -0.24347272047316312 0.9578884554230636
0.5349733 -0.24980765648571168 0.9565930839978332
0.5369732 -0.2561519489507553 0.9556294584216358
0.5389731 -0.2620561301962637 0.9545758914800581
0.540973 -0.26820815086031513 0.9530629795470122
0.5429729 -0.274723542046731 0.9516355339441082
0.5449728 -0.28091819116125344 0.9508599534622906
0.5469727 -0.28716993105878696 0.9495731169314302
0.5489726 -0.2929949565201256 0.9485384175741562
0.5509725 -0.29945089343592624 0.9473189959350868
0.5529724 -0.30569857971029735 0.9459635046687399
0.5549723 -0.312063080569731 0.94415531020299
0.5569722 -0.3181111282012152 0.9427122435187629
0.5589721 -0.324072712625676 0.940864798908648
0.560972 -0.330131577427402 0.9394025693211229
0.5629719 -0.3363108738817444 0.9380645408383619
0.5649718 -0.3424950657615272 0.9361861973013856
0.5669717 -0.3482193285589189 0.9343609133674033
0.5689716 -0.35467236405130453 0.9328244836065418
0.5709715 -0.3609420816054023 0.9312534994479343
0.5729714 -0.36641759497004794 0.9295073935807838
0.5749713 -0.3727374369187282 0.927578516948459
0.5769712 -0.37842259030259023 0.926104157761412
0.5789711 -0.3844782800289116 0.9234597661011222
0.580971 -0.3903301903293972 0.9213319937866967
0.5829709 -0.3967542258396426 0.9191779743050362
0.5849708 -0.40280913484172787 0.9171876189025355
0.5869707 -0.4085309049807954 0.9151981744655554
0.5889706 -0.414508699979889 0.912901839226322
0.5909705 -0.42023288288722105 0.9114106602689439
0.5929704 -0.4264866261359826 0.9088068697871711
0.5949703 -0.43256506200186695 0.9068101151318924
0.5969702 -0.43824162892942586 0.9040867842901696
0.5989701 -0.4440159977573917 0.9019253151283431
0.60097 -0.45010046624588856 0.8997427704047
0.6029699 -0.45572528826108333 0.8974144918535044
0.6049698 -0.4616992279043591 0.8946745023330054
0.6069697 -0.4674664137574696 0.8919492120381115
0.6089696 -0.47339630021637036 0.8894466669805632
0.6109695 -0.4790706309118076 0.8870776914984284
0.6129694 -0.4848552481940412 0.8846350730653407
0.6149693 -0.49041249147030735 0.8810606864261566
0.6169692 -0.49616838510182715 0.878337236367271
0.6189691 -0.5019447364168635 0.8761308370580899
0.620969 -0.507174685035121 0.8734235115471547
0.6229689 -0.5132178289296869 0.8705100538435976
0.6249688 -0.5190056446766503 0.8676508613769855
0.6269687 -0.5243936007188493 0.8647111208241959
0.6289686 -0.5301036192067157 0.8618936907203725
0.6309685 -0.5358615644482292 0.8592964709268539
0.6329684 -0.5410379357850444 0.8558688084957959
0.6349683 -0.5466961762627534 0.8529192295195974
0.6369682 -0.5522854289565879 0.8501055262046061
0.6389681 -0.5577536758910762 0.8470782696229168
0.640968 -0.5633339006124063 0.8430522445356324
0.6429679 -0.5685056947080519 0.8404808940104896
0.6449678 -0.5742287119132886 0.836928004516085
0.6469677 -0.5796056550470737 0.8342582846049686
0.6489676 -0.5847169467715067 0.8302578683774378
0.6509675 -0.5902328973633314 0.8278056640667031
0.6529674 -0.5958083511959913 0.8236650488180658
0.6549673 -0.6011358861759694 0.8206804543086224
0.6569672 -0.6062710041763169 0.8171782189260808
0.6589671 -0.6115431078593252 0.8133710439838786
0.660967 -0.617040692136523 0.8101904350526545
0.6629669 -0.6220352549467649 0.8066514292408549
0.6649668 -0.6270825246874636 0.8030793922912814
0.6669667 -0.6320389768848367 0.7996426643967377
0.6689666 -0.6372554255655486 0.7958595994124289
0.6709665 -0.6426449867745063 0.7917504811051679
0.6729664 -0.6476992338018543 0.7883072556188333
0.6749663 -0.6530337686726417 0.7845238805374148
0.6769662 -0.6580140712543187 0.7809296880797038
0.6789661 -0.6630538907689085 0.7769626796999513
0.680966 -0.6680711850286416 0.7732746380261609
0.6829659 -0.6729343655340259 0.7692924675425682
0.6849658 -0.6779232293879848 0.7653400386245407
0.6869657 -0.6829587591020272 0.7616958687186786
0.6889656 -0.6877105032445439 0.7573881456109427
0.6909655 -0.6926284647206165 0.753675930305728
0.6929654 -0.6975913506288551 0.7494267363827919
0.6949653 -0.7023720608340345 0.7455512957397201
0.6969652 -0.7073689787645567 0.7415246812280302
0.6989651 -0.7119354583815214 0.737355518495772
0.700965 -0.7168302865955181 0.7331667673692537
0.7029649 -0.7214645460852385 0.7288029150003332
0.7049648 -0.7260298433030616 0.7248673120937607
0.7069647 -0.7308002510410266 0.7204644441584375
0.7089646 -0.7352234755893415 0.7163837789060148
0.7109645 -0.739975356508388 0.7119134892683123
0.7129644 -0.7444496784925293 0.7076564554103477
0.7149643 -0.7492195562475754 0.7034126605305787
0.7169642 -0.7537363075993881 0.6990222322625401
0.7189641 -0.757813043725944 0.694254318151415
0.720964 -0.7625499490831227 0.6901299400028751
0.7229639 -0.7670241899495748 0.685605573784207
0.7249638 -0.7713034431306534 0.6809549261954048
0.7269637 -0.7755691512113686 0.6766483814975021
0.7289636 -0.7799814815676966 0.6720692082162458
0.7309635 -0.7844946424467012 0.6674270229888716
0.7329634 -0.7885383734563023 0.6626379148506624
0.7349633 -0.7930976024975134 0.6581417684154975
0.7369632 -0.7969745654764487 0.653436325607519
0.7389631 -0.8013554545741182 0.648820579775938
0.740963 -0.8055558522265627 0.6441664229135051
0.7429629 -0.809520780544446 0.6393688169874205
0.7449628 -0.813499931473924 0.6344906427518219
0.7469627 -0.8174502499220184 0.6298310568109055
0.7489626 -0.8217422017711016 0.6248304456995584
0.7509625 -0.8259038290907668 0.6202395871917095
0.7529624 -0.8295703463276873 0.6150681841146732
0.7549623 -0.8335089220303381 0.6101724425244683
0.7569622 -0.8375393751119977 0.6053981165288465
0.7589621 -0.8412852571828465 0.6003350148881584
0.760962 -0.8450213107410285 0.5954223210928488
0.7629619 -0.8491450230180052 0.5904006976879186
0.7649618 -0.8525799844832455 0.5853614872536314
0.7669617 -0.8562358220376675 0.5806647061171369
0.7689616 -0.8601023042787792 0.5754927408763775
0.7709615 -0.8638962595039693 0.570201380639818
0.7729614 -0.8673911398044214 0.5653080588178508
0.7749613 -0.8707689601062563 0.5601583333402498
0.7769612 -0.8744545089819962 0.5547398542876822
0.7789611 -0.878242303324763 0.54999707364695
0.780961 -0.8816564257608359 0.5447399918988035
0.7829609 -0.8852783805419433 0.5395559436106042
0.7849608 -0.8885191826239381 0.5341580830266308
0.7869607 -0.8919649237219727 0.5289613072113957
0.7889606 -0.8956848247898576 0.523530758321463
0.7909605 -0.898718383934861 0.5184240241094141
0.7929604 -0.9018819026956182 0.5130856921852738
0.7949603 -0.9052269948185393 0.5076413948943429
0.7969602 -0.908943432961685 0.5022263649387333
0.7989601 -0.9121765377578701 0.49705108413555893
0.80096 -0.9147819847046588 0.4913410498190109
0.8029599 -0.9181815412057148 0.4861895527201483
0.8049598 -0.9210852391635247 0.480856370306373
0.8069597 -0.9242318364775157 0.47516084859619206
0.8089596 -0.9274096635903879 0.4697242429769331
0.8109595 -0.9302822187617187 0.46416727074262537
0.8129594 -0.9333240039604269 0.4586158076300138
0.8149593 -0.9361353463220045 0.4530476745594648
0.8169592 -0.9389418056547293 0.4478049426598501
0.8189591 -0.9420848024735743 0.44203736411169214
