! Created with skrf 1.8.0 (http://scikit-rf.org).
# GHz S RI R 50.0 
!freq ReS11 ImS11
0.001 1.7039511089877122 -0.3839508751598132
0.0029999 1.5461616055159095 -0.07201180986906833
0.0049998 1.4722053768925347 0.02376589548304306
0.0069997 1.4179465763162602 0.0716075799834991
0.0089996 1.3774518942421707 0.10629634336139133
0.0109995 1.3470694692696896 0.13792649075986685
0.0129994 1.3144473000749 0.15916812853715695
0.0149993 1.291004844200159 0.17440956973898702
0.0169992 1.2713040383257033 0.18649063105890348
0.0189991 1.254052109345902 0.19663911939942544
0.020999 1.2366906559666664 0.20203886297352835
0.0229989 1.224283634473368 0.2073564306340725
0.0249988 1.2155882470763484 0.2144711456254191
0.0269987 1.2018652585055762 0.21811385005383827
0.0289986 1.1936798211853419 0.22243661702949413
0.0309985 1.1857107766034785 0.22800821419667663
0.0329984 1.1796654125482535 0.23155361227232682
0.0349983 1.1719329015789892 0.23366545916170386
0.0369982 1.166855130894394 0.2404389215520984
0.0389981 1.1622255116976892 0.24489336560813751
0.040998 1.1543122506117562 0.24875589122192465
0.0429979 1.1521180054681963 0.253411766003768
0.0449978 1.1489762622627344 0.25735614832006476
0.0469977 1.143107777216445 0.2634942792911494
0.0489976 1.1412736670620696 0.2679653476561314
0.0509975 1.137560992237455 0.27400223601095475
0.0529974 1.13366848862495 0.2806008752953282
0.0549973 1.130511261504997 0.2842109909887258
0.0569972 1.1280542300154066 0.29130153895720984
0.0589971 1.124495869197952 0.2971356436492085
0.060997 1.1217424156347107 0.30325491648498565
0.0629969 1.1182552831589039 0.3095603933252574
0.0649968 1.1152737008688927 0.31387194383246
0.0669967 1.1130133420535977 0.31915247548258
0.0689966 1.109284037566598 0.32573156626979916
0.0709965 1.1077869121133808 0.33266113003628267
0.0729964 1.1042444103927305 0.33854226306966867
0.0749963 1.101126837951928 0.3444140146358577
0.0769962 1.0975616776862203 0.3509958847654553
0.0789961 1.0954498119947218 0.3573852599157642
0.080996 1.0922897154479723 0.36343495340076437
0.0829959 1.0903000722488685 0.370037289892638
0.0849958 1.0861477621502156 0.37659788656851767
0.0869957 1.0844249430340396 0.38241552577949056
0.0889956 1.0803351993144565 0.38978549073645663
0.0909955 1.076594513734112 0.3955872557947717
0.0929954 1.074962164485527 0.40130553126442015
0.0949953 1.071574573101989 0.4108291209582164
0.0969952 1.0683932105580212 0.41453092895298693
0.0989951 1.0663507547348545 0.42173561544608107
0.100995 1.0625282089732206 0.42863662153396465
0.1029949 1.0582688839012653 0.4345676613317292
0.1049948 1.0552000971492406 0.4414844801544011
0.1069947 1.051964463128572 0.44819483188841036
0.1089946 1.048062594123549 0.4542033116277833
0.1109945 1.0454715245839394 0.46036002269755116
0.1129944 1.0412055048811302 0.4677721261975889
0.1149943 1.0386361297580557 0.4735544315990159
0.1169942 1.0342599735440916 0.4803336482223456
0.1189941 1.0321455757748244 0.48619054046341814
0.120994 1.028619834000805 0.4926592964092578
0.1229939 1.023890169652635 0.49936126680601245
0.1249938 1.0207811177104864 0.5057765288195546
0.1269937 1.016677052888768 0.5122037593108503
0.1289936 1.013243206293487 0.5178976071159289
0.1309935 1.0094702130034185 0.5238674729938284
0.1329934 1.0044729980716904 0.5305650333642906
0.1349933 1.000366622690079 0.5367247607349622
0.1369932 0.9978669977178194 0.544469739025865
0.1389931 0.9937455819686789 0.5495513769205016
0.140993 0.9883984573228191 0.5569067478852271
0.1429929 0.9850755928979367 0.5620350533543934
0.1449928 0.9817130534257372 0.5690745328625605
0.1469927 0.9764696950327046 0.5745214999089459
0.1489926 0.9712621879195165 0.581478080259247
0.1509925 0.9690636356043474 0.5878854367883033
0.1529924 0.9640150942978196 0.5922212219770361
0.1549923 0.9595704730687744 0.6007473702053405
0.1569922 0.9535944799429368 0.6041656753527198
0.1589921 0.9516694422484059 0.612755773568688
0.160992 0.9458419351896775 0.6168797889515611
0.1629919 0.9417383364616864 0.6222596839641058
0.1649918 0.9365736218321403 0.6290459241266978
0.1669917 0.9329715472154144 0.6346587928969797
0.1689916 0.9278892976010207 0.6403186470066842
0.1709915 0.9230026929361091 0.6463862986768671
0.1729914 0.9183835202394245 0.65302511128598
0.1749913 0.9135728929626235 0.658912783783606
0.1769912 0.9087095360380683 0.6642457428077231
0.1789911 0.9037378184810538 0.6693298317607288
0.180991 0.8995473166009069 0.6756910014812662
0.1829909 0.8947655263195876 0.6793421522767307
0.1849908 0.8887631285320866 0.6866636213440542
0.1869907 0.8842610687433478 0.6910034893718453
0.1889906 0.8789627213156627 0.6971241166679315
0.1909905 0.8741639562172319 0.7031697973458317
0.1929904 0.8692333880264455 0.7078062099995301
0.1949903 0.8645671419279928 0.713379427789369
0.1969902 0.8589715231586877 0.7187602098337882
0.1989901 0.8539082926099427 0.7243295824721027
0.20099 0.8482763979198963 0.7290768539020072
0.2029899 0.8430657006622954 0.7358927018415533
0.2049898 0.8382475070541653 0.7403486488143377
0.2069897 0.8326169358185822 0.7447267207818817
0.2089896 0.8278343305344815 0.7509759060137786
0.2109895 0.8218435941230876 0.755889261226458
0.2129894 0.8155803972636821 0.7615904461304412
0.2149893 0.8100736277145762 0.7654170540049885
0.2169892 0.8054366749928491 0.7707810373321986
0.2189891 0.7999438501285893 0.776359160665379
0.220989 0.794665721649794 0.7807906815871449
0.2229889 0.7880165068668846 0.7846928373166703
0.2249888 0.7830364518091146 0.7915304674700263
0.2269887 0.7767721936423302 0.7957538456500319
0.2289886 0.7712424931841413 0.7999816356331404
0.2309885 0.7653895435632461 0.8046375055055471
0.2329884 0.759476616944675 0.8101138616936626
0.2349883 0.754353565045921 0.8153841257574396
0.2369882 0.7474621817760286 0.819403411870577
0.2389881 0.7418503292922067 0.8235747381338725
0.240988 0.737241223934664 0.8281333756722836
0.2429879 0.7297205534221995 0.8338113551371857
0.2449878 0.7247155611508675 0.8370375244390005
0.2469877 0.7184602904735059 0.8418790766028266
0.2489876 0.7126513582144549 0.8457487781873458
0.2509875 0.7064119301331093 0.8500361243374266
0.2529874 0.6995812503063515 0.8540892579599519
0.2549873 0.6941115021489078 0.858168991186002
0.2569872 0.6885679989348354 0.8630214474023044
0.2589871 0.682590388859142 0.8672067620655546
0.260987 0.675796025125547 0.8702595038536746
0.2629869 0.6696603696081838 0.8747789568146845
0.2649868 0.6640398485055405 0.8780209400516211
0.2669867 0.6570006263575617 0.8820168363748768
0.2689866 0.6514915804337831 0.8863172128610518
0.2709865 0.6450872603233321 0.8904296755795509
0.2729864 0.6388048771644185 0.8945286036917369
0.2749863 0.6316641283355199 0.8982503214491973
0.2769862 0.6261790886726702 0.9014476356761392
0.2789861 0.6193963079314246 0.9051471283177277
0.280986 0.6135699393891006 0.9090285257454516
0.2829859 0.6064324845469901 0.9122566980894465
0.2849858 0.6002975495323681 0.9165425665693452
0.2869857 0.5937201058341276 0.9202593635565514
0.2889856 0.587077066104162 0.922766203886014
0.2909855 0.5808107575487824 0.9263218544817158
0.2929854 0.5744707407731154 0.9301545719558476
0.2949853 0.5684450521880601 0.9343363674290378
0.2969852 0.5612713187805454 0.9360770592551897
0.2989851 0.5549004028753349 0.9397028949008606
0.300985 0.5482221541368089 0.9423883808274233
0.3029849 0.5420014730793433 0.9462783426762245
0.3049848 0.5347424086169957 0.9494261688682121
0.3069847 0.5293309860304889 0.9525248744620417
0.3089846 0.5223760466248366 0.955388731164632
0.3109845 0.5156015112519021 0.9581363673506249
0.3129844 0.5089603370641255 0.9610956633823436
0.3149843 0.5024273954310131 0.9644968998257135
0.3169842 0.4964176879837976 0.9675599057324361
0.3189841 0.4876875636661101 0.968565698068321
0.320984 0.4822484989159925 0.9721056430872984
0.3229839 0.4745647155880659 0.9758793224421644
0.3249838 0.4688035950741565 0.9777726691846411
0.3269837 0.46175830607291496 0.9804082488829976
0.3289836 0.4558414382252519 0.9833662920630014
0.3309835 0.4495440635554987 0.985514427963273
0.3329834 0.44112583576713277 0.9875500949686529
0.3349833 0.43532325791853715 0.9892561944017726
0.3369832 0.42754558191811276 0.9925816790410651
0.3389831 0.42195563029460736 0.9949364637841355
0.340983 0.41448632324963536 0.9971478403169718
0.3429829 0.40788867052394107 0.9991411065183774
0.3449828 0.4004103890882293 1.0018493516794937
0.3469827 0.39420779880653306 1.003273977545415
0.3489826 0.3868225102455729 1.0054657883559723
0.3509825 0.3807842788189779 1.0078902027835401
0.3529824 0.373758536026188 1.0094473525415986
0.3549823 0.36660800661755594 1.0117917895231607
0.3569822 0.35977707017171456 1.0140202574276935
0.3589821 0.352051951999779 1.0156837574507926
0.360982 0.34535693847319565 1.0177201056556842
0.3629819 0.3389075229481026 1.0197725893827898
0.3649818 0.33206837545898266 1.0214125186584553
0.3669817 0.32495511699409924 1.0227823839186796
0.3689816 0.31770727544030064 1.0245860772959197
0.3709815 0.31125031100167055 1.0256260942825466
0.3729814 0.3044942496216858 1.0270640722616609
0.3749813 0.29687158189450796 1.0293773779860709
0.3769812 0.2904671782696925 1.0309713952004758
0.3789811 0.28340557822888457 1.0316823336425955
0.380981 0.2762613470224164 1.0323225473262363
0.3829809 0.26939925650967034 1.0340976427256903
0.3849808 0.26228219490117627 1.0347039967355993
0.3869807 0.25518571882630453 1.0367482746443892
0.3889806 0.2488430742119377 1.0388483760203036
0.3909805 0.2412712834127905 1.0398752586921756
0.3929804 0.23480088765671303 1.040369433299087
0.3949803 0.22757606738002764 1.0420723556212321
0.3969802 0.22025966790664867 1.0425475422615915
0.3989801 0.21359453749433938 1.04396005535184
0.40098 0.20692426761328492 1.0442974117656727
0.4029799 0.1993301986428683 1.044955372756881
0.4049798 0.1929280736506755 1.0461969840975993
0.4069797 0.18534702415151147 1.046883688670117
0.4089796 0.17882409283901213 1.0482479020763333
0.4109795 0.17160367600098214 1.0476484899361589
0.4129794 0.16492128528065098 1.048670291754705
0.4149793 0.15802318151251915 1.0490615968320869
0.4169792 0.15099179118175088 1.050599064691175
0.4189791 0.14413441402645827 1.0513346731957423
0.420979 0.13727103372111052 1.051534888222984
0.4229789 0.12903527661870365 1.0514585769110445
0.4249788 0.12307460558255998 1.0515316223569715
0.4269787 0.11593546022767102 1.0522824622421847
0.4289786 0.1093585334723742 1.0517450918713283
0.4309785 0.10232055966219093 1.0530357135782775
0.4329784 0.09491305064821515 1.053057986882661
0.4349783 0.08813020670426563 1.053147621220237
0.4369782 0.08140162536055012 1.053805015392482
0.4389781 0.0744278090689647 1.0537294590822641
0.440978 0.0676235232091995 1.0537338932239046
0.4429779 0.06073054508422275 1.0541443282475498
0.4449778 0.0534761670087045 1.054127950486856
0.4469777 0.047268255461352535 1.0540222566341846
0.4489776 0.04017651442723376 1.054328804240846
0.4509775 0.03234965880119551 1.052872876025204
0.4529774 0.026440335141155034 1.0530181285273252
0.4549773 0.020463366385862908 1.0533115558896258
0.4569772 0.011963901320513323 1.0529895751689
0.4589771 0.005143390152458245 1.0528018213626724
0.460977 -0.0011742138784127804 1.052562017599535
0.4629769 -0.008615866382234605 1.0520834017497347
0.4649768 -0.015523051428709314 1.0516172251383489
0.4669767 -0.021820894937918812 1.051273599847764
0.4689766 -0.029217099638102383 1.0502021336310405
0.4709765 -0.03551823588781537 1.0497908695250355
0.4729764 -0.04212956626339529 1.049260555591511
0.4749763 -0.049264474234621464 1.0484793391410956
0.4769762 -0.05579756816006783 1.047643517024641
0.4789761 -0.06334788342998654 1.046504320266975
0.480976 -0.0696140581756449 1.0460720892807016
0.4829759 -0.07682616586580285 1.0459084610655134
0.4849758 -0.08358023550283397 1.0452937860925005
0.4869757 -0.0899438317297728 1.0435253159628306
0.4889756 -0.09686750331071059 1.0435192272520395
0.4909755 -0.10401390972457208 1.041921478572361
0.4929754 -0.11087222229763816 1.041111394088577
0.4949753 -0.11721656730968594 1.040062090884622
0.4969752 -0.12416165611335163 1.0386078820596079
0.4989751 -0.13041404765225292 1.037275521186631
0.500975 -0.13705160258781718 1.0364535733462352
0.5029749 -0.14384787736408228 1.0353128072441187
0.5049748 -0.15040371785218598 1.0348531578028448
0.5069747 -0.15678249493923332 1.0327076457909599
0.5089746 -0.1634983105683423 1.0313814729539728
0.5109745 -0.17015418276328326 1.0303080754215619
0.5129744 -0.1769667007155924 1.0280204734294411
0.5149743 -0.1836257294617666 1.0267072946661815
0.5169742 -0.19022024922617117 1.0257811229697056
0.5189741 -0.19675373635485582 1.0240945146942604
0.520974 -0.2034301671786674 1.0225298150367463
0.5229739 -0.20995624824824632 1.0212551505709566
0.5249738 -0.21637379989210484 1.0195427819326006
0.5269737 -0.22294797116263115 1.018235930157702
0.5289736 -0.22961534722870997 1.0160183791831232
0.5309735 -0.23633347635134427 1.0141722155854733
0.5329734 -0.24251828156436794 1.0130501791727944
0.5349733 -0.24891609827875555 1.0109334802368592
0.5369732 -0.25571427140741854 1.009180987980124
0.5389731 -0.2617871822137338 1.0071962812154258
0.540973 -0.2683036391329241 1.0050520158919272
0.5429729 -0.2747660859578086 1.0027666370662214
0.5449728 -0.28078362315986155 1.0014424981622492
0.5469727 -0.2876356167620534 0.9991525140473949
0.5489726 -0.29362182117631974 0.9976393013995339
0.5509725 -0.30016268967129767 0.9954774939296978
0.5529724 -0.30676299146960206 0.9934578068062584
0.5549723 -0.3128823939971143 0.9911366146544781
0.5569722 -0.3195141421618144 0.9888705020534546
0.5589721 -0.32584045970256725 0.9866282066969938
0.560972 -0.33180635045922136 0.9843275439030514
0.5629719 -0.33800281647989205 0.9820641880616586
0.5649718 -0.3441332870376796 0.9796803293937226
0.5669717 -0.3505365333957222 0.9772778885016657
0.5689716 -0.35670058001621074 0.974992467668173
0.5709715 -0.36309783995150846 0.9723728430270137
0.5729714 -0.36903089866936417 0.9701725158044331
0.5749713 -0.3753693032448092 0.9676883283560348
0.5769712 -0.3808296676044408 0.9652687458761793
0.5789711 -0.3875155836843145 0.96172007539417
0.580971 -0.3932377346348312 0.9593556203541578
0.5829709 -0.3994999013144708 0.956777763715946
0.5849708 -0.40514945372066224 0.9544049687666106
0.5869707 -0.41141860628737975 0.951088463087086
0.5889706 -0.4173444323599352 0.9486821029889985
0.5909705 -0.4235825487376322 0.9461518171982117
0.5929704 -0.4296543017858933 0.9431198767488557
0.5949703 -0.4358835769003982 0.9403293993692798
0.5969702 -0.44129865845347693 0.9374562886061402
0.5989701 -0.44750611274171576 0.9344082556365383
0.60097 -0.4534043646503253 0.9317111487054118
0.6029699 -0.4590333456585944 0.9288196481431653
0.6049698 -0.4650128837447909 0.9257706695376088
0.6069697 -0.4706299251970555 0.9222164868055527
0.6089696 -0.47676955028411006 0.9193372170538295
0.6109695 -0.48236365792943525 0.9164584013653739
0.6129694 -0.488165255766459 0.9134502458504807
0.6149693 -0.49384843988188887 0.9095710736427658
0.6169692 -0.4995015497889602 0.9059762517194838
0.6189691 -0.5049780559847608 0.9033832482922002
0.620969 -0.5109190301403308 0.9003693903745299
0.6229689 -0.5167365549273744 0.8968031057614609
0.6249688 -0.5222341493708921 0.8935612245157774
0.6269687 -0.5278347624302022 0.889943746051169
0.6289686 -0.5334875981688146 0.8866736978580941
0.6309685 -0.5393300404037212 0.8832366653630529
0.6329684 -0.5443711710200231 0.879868822486337
0.6349683 -0.5500027450168179 0.8762443799104797
0.6369682 -0.5556483117755897 0.873049560827217
0.6389681 -0.5610302425768388 0.8696259762519979
0.640968 -0.5667195222121939 0.8651499639125786
0.6429679 -0.5718941030203499 0.8620241124643084
0.6449678 -0.577377967833411 0.8582998194623391
0.6469677 -0.582881924187884 0.8549975644019239
0.6489676 -0.5878394619318322 0.8507292044697303
0.6509675 -0.5934494489002433 0.8476639772347971
0.6529674 -0.5988381428205068 0.8432795845945025
0.6549673 -0.6042007049189335 0.8399354517766117
0.6569672 -0.6091735810720791 0.8360368822140866
0.6589671 -0.6144836012932317 0.8318237791942109
0.660967 -0.6197974248587885 0.8279635360341836
0.6629669 -0.6246468333953805 0.8244375920706989
0.6649668 -0.6299870443632103 0.8202993058906795
0.6669667 -0.6347392939460703 0.816616172697146
0.6689666 -0.6403560148420738 0.8122284433741652
0.6709665 -0.645298768755445 0.8084095447128856
0.6729664 -0.6503552043212466 0.8043840104574489
0.6749663 -0.655359285888685 0.8002147703734735
0.6769662 -0.6604352498245349 0.796341301925996
0.6789661 -0.6654522044093668 0.7919504887330223
0.680966 -0.6702728802561072 0.7877152145835131
0.6829659 -0.6751680430116487 0.7834746211763036
0.6849658 -0.6801117866879807 0.7793806750780354
0.6869657 -0.6850772443150812 0.7753952087824841
0.6889656 -0.6898970072761711 0.7707227657807391
0.6909655 -0.6947489939511868 0.7665176009519861
0.6929654 -0.6996110641002611 0.7621808288159502
0.6949653 -0.7043763279452235 0.7578889947510313
0.6969652 -0.7093098673681382 0.7537346851070369
0.6989651 -0.7136795284141075 0.7494559457290465
0.700965 -0.7186222199530639 0.7447584412562863
0.7029649 -0.723238707527988 0.7403208404932152
0.7049648 -0.7275539750730269 0.7359479160314335
0.7069647 -0.7324053954150352 0.7313382100937462
0.7089646 -0.7368658298598174 0.7269765897259864
0.7109645 -0.7414822197258745 0.7222832527180161
0.7129644 -0.746060166212074 0.7177593791603132
0.7149643 -0.7506500300962801 0.7132462758192389
0.7169642 -0.7550577037037391 0.7088187921035346
0.7189641 -0.7592555857104007 0.7036078767731513
0.720964 -0.763799449294616 0.6993706564521464
0.7229639 -0.7681528110789656 0.694551318086812
0.7249638 -0.7723377456023319 0.689670744066717
0.7269637 -0.7766614541254026 0.6851566186129365
0.7289636 -0.7811770970961416 0.6801222594532043
0.7309635 -0.7855070463325685 0.6755317176301514
0.7329634 -0.7894825726423031 0.6705518632982151
0.7349633 -0.7940025247868595 0.665810893485464
0.7369632 -0.7978065330639164 0.6608761572205958
0.7389631 -0.8022310690671703 0.655950047647346
0.740963 -0.8062395951425871 0.6511833973440583
0.7429629 -0.8102139232194259 0.6462834074557696
0.7449628 -0.8140048043700996 0.6411920531541163
0.7469627 -0.8180760851363419 0.636494653110771
0.7489626 -0.822254185741041 0.631162635513896
0.7509625 -0.8263304565694802 0.6263420715211745
0.7529624 -0.8299550909724147 0.6211162188862178
0.7549623 -0.8337152106687089 0.6160356587827693
0.7569622 -0.8376283737283701 0.6110578418389141
0.7589621 -0.8415474396340199 0.6057057397249649
0.760962 -0.8452647311551147 0.6007095443129599
0.7629619 -0.84929378287762 0.5955385260799186
0.7649618 -0.8526974430558473 0.5903093912951788
0.7669617 -0.8562597310963985 0.58549363896167
0.7689616 -0.8602367469839358 0.5802038217019188
0.7709615 -0.8639132685660706 0.5747176098575182
0.7729614 -0.8675265247613824 0.5696683508072357
0.7749613 -0.8706938708959001 0.5643649891487459
0.7769612 -0.8743550191080183 0.5588885669076787
0.7789611 -0.87810771601733 0.553964382873846
0.780961 -0.8815258334788083 0.5486301098064815
0.7829609 -0.8850464060235848 0.5432200597330746
0.7849608 -0.8882380291930457 0.537667571276834
0.7869607 -0.8916110229674075 0.5323914130936633
0.7889606 -0.8952474208776237 0.5269182537038845
0.7909605 -0.8982264951725261 0.5216524198777549
0.7929604 -0.9013731378022473 0.5161401612302725
0.7949603 -0.9047292532625667 0.5106430721637818
0.7969602 -0.9083129479739791 0.5050431012571076
0.7989601 -0.911615161112678 0.49968172621820217
0.80096 -0.9140778770681525 0.4939358876651036
0.8029599 -0.9173808149310063 0.4886560522559418
0.8049598 -0.9203586055430717 0.4831663838259603
0.8069597 -0.923264289409611 0.47745025427065907
0.8089596 -0.9264359257522644 0.4718123499459675
0.8109595 -0.929292449527381 0.4661935346108503
0.8129594 -0.9322970015370056 0.4605191846003361
0.8149593 -0.9350206022583369 0.4549346373099997
0.8169592 -0.9378521412597823 0.4494883233669145
0.8189591 -0.9410000061690764 0.44351693990613883
0.820959 -0.9438165099398945 0.4380472383310471
