! Created with skrf 1.8.0 (http://scikit-rf.org).
# GHz S RI R 50.0 
!freq ReS11 ImS11
0.001 0.8153922118281192 0.08523717823901181
0.0029999 0.8528882394754476 0.05349376271261505
0.0049998 0.8656149548771199 0.04791477375633563
0.0069997 0.8755016392078483 0.05032228552754103
0.0089996 0.8797521655062819 0.05448843709220341
0.0109995 0.8812980606017424 0.057349927480014884
0.0129994 0.883714818358921 0.06181842851875463
0.0149993 0.8849844660754227 0.06721519147535049
0.0169992 0.8859572364361441 0.07183178605207546
0.0189991 0.8853259075053617 0.07706625153214786
0.020999 0.8858044251053565 0.08215633906133679
0.0229989 0.8862338810259689 0.08753343107138095
0.0249988 0.8850413393783922 0.09322815700060755
0.0269987 0.8858791548689149 0.0998434578275253
0.0289986 0.8850161026137275 0.10489902562759784
0.0309985 0.8852999271144755 0.11052888983491777
0.0329984 0.8841347266784667 0.11652851575760609
0.0349983 0.8852156739370606 0.1222153510142387
0.0369982 0.8835730793433777 0.1283167249789025
0.0389981 0.8837291014822654 0.13487139882728827
0.040998 0.8826109848258243 0.14051782589612283
0.0429979 0.8824217936255653 0.14682780726627498
0.0449978 0.8816498817171505 0.15273491104310427
0.0469977 0.8807398260466937 0.15887237654468472
0.0489976 0.8800973724418233 0.16443154884775263
0.0509975 0.8786019953530024 0.17080723902850847
0.0529974 0.8779190863049287 0.1779638929373843
0.0549973 0.8776848796914302 0.1840128603506294
0.0569972 0.8755434780753522 0.18900597452687534
0.0589971 0.8741105183224314 0.19559474522810405
0.060997 0.8733156454817104 0.2013138378291808
0.0629969 0.8719396097362642 0.20781298994426034
0.0649968 0.8710924604453893 0.21400704252671104
0.0669967 0.8699882294371934 0.21988741182483648
0.0689966 0.8685921778860085 0.22609580142688493
0.0709965 0.8668104386408124 0.2330170440912743
0.0729964 0.8654197840018131 0.23841557541948546
0.0749963 0.8642120888148017 0.2441492990928122
0.0769962 0.8620610431014963 0.2513391595975828
0.0789961 0.8610225434126468 0.2567296938522752
0.080996 0.8590481706553935 0.26284697446079364
0.0829959 0.8577381489898908 0.2695777799242982
0.0849958 0.8553167065934982 0.2752751955184872
0.0869957 0.8547799461696661 0.2814595510815406
0.0889956 0.852065606957575 0.2874777321814387
0.0909955 0.8505991259597185 0.293227891598688
0.0929954 0.8486638913496924 0.299043432121076
0.0949953 0.8465977080220806 0.3061844138408144
0.0969952 0.844170143804084 0.3121951334949742
0.0989951 0.8435508046359951 0.3177560408391436
0.100995 0.8406075146618626 0.3230543328096531
0.1029949 0.8390443422452303 0.32955731272071576
0.1049948 0.8365825796989916 0.3357062087812097
0.1069947 0.8350707034614762 0.34193562970230373
0.1089946 0.8320645459074058 0.34815945189998715
0.1109945 0.8301338400910148 0.3530565072404884
0.1129944 0.8271972514501825 0.358963934746951
0.1149943 0.8258419557941965 0.3659101628176461
0.1169942 0.8229348423557393 0.37141898759375414
0.1189941 0.8212127395182008 0.3773902541640658
0.120994 0.8190155729426961 0.38242956342950707
0.1229939 0.8164238645471474 0.3893232783915507
0.1249938 0.8137496010533937 0.3953959013225311
0.1269937 0.8109947606730761 0.40121274575114974
0.1289936 0.8089013328114127 0.4065533617503895
0.1309935 0.8065485675963265 0.4122462894580339
0.1329934 0.802465276259556 0.4191516006011943
0.1349933 0.8002872048156974 0.42365047997098193
0.1369932 0.7975194252153466 0.43029600046744965
0.1389931 0.7958440885650979 0.4357699056466554
0.140993 0.7917849968669789 0.441628298308277
0.1429929 0.7884699008719439 0.4472563120253999
0.1449928 0.7862430003061909 0.45354438397384556
0.1469927 0.7835850577660688 0.45842623980149444
0.1489926 0.7797573809691516 0.46493668689672557
0.1509925 0.7775189393093835 0.4700871472320141
0.1529924 0.7741959217615753 0.4760963242473476
0.1549923 0.7706732208257796 0.4807666109202073
0.1569922 0.7671380473423582 0.48657753623752314
0.1589921 0.7643147127404464 0.49261186656032135
0.160992 0.7617867583159177 0.49775477702773635
0.1629919 0.7587561880142801 0.5031314378766947
0.1649918 0.7552335827206822 0.5091289842017845
0.1669917 0.7514872452556792 0.5143907372007663
0.1689916 0.7481977649215179 0.5199839559008496
0.1709915 0.7457410963731242 0.5251050747137008
0.1729914 0.7417592485141073 0.5307198154489434
0.1749913 0.7383477981713669 0.535581033792008
0.1769912 0.7352041476253571 0.5417099745474117
0.1789911 0.731508335038392 0.5463883593687667
0.180991 0.7276500157283846 0.5520367631481119
0.1829909 0.7245511648006625 0.5570586392093805
0.1849908 0.7201076293010615 0.5634331868269892
0.1869907 0.717125666546963 0.5688520143965377
0.1889906 0.713067370621239 0.5735514318777053
0.1909905 0.7100178913656794 0.5790451222902214
0.1929904 0.7063397577361609 0.5833674096334793
0.1949903 0.7031496802172637 0.5884305323773162
0.1969902 0.6984585609470702 0.5940538881832839
0.1989901 0.6948029687488873 0.5992698725486304
0.20099 0.6903621489204728 0.6048522650255217
0.2029899 0.6863345330285046 0.6093548230726654
0.2049898 0.6834945421549677 0.6153376500401828
0.2069897 0.6782463155824899 0.6194474519596904
0.2089896 0.674179618219832 0.624565713353662
0.2109895 0.6702512924847928 0.6296394667576378
0.2129894 0.6668115441026828 0.6350430066271828
0.2149893 0.6622703411961043 0.6392215270187502
0.2169892 0.6570538153282731 0.6446556868771054
0.2189891 0.6538454195282056 0.6491841345694505
0.220989 0.649764992201209 0.6547300663685178
0.2229889 0.6449183444181029 0.6592935389456905
0.2249888 0.6412048756102857 0.6645095130684353
0.2269887 0.6370277020028764 0.6691021840073355
0.2289886 0.6324272466398585 0.6727639515806167
0.2309885 0.6280147220333008 0.677439386551279
0.2329884 0.623609768158785 0.6824331463385198
0.2349883 0.6194948625271051 0.6872320009929451
0.2369882 0.6142550556860013 0.692132881656768
0.2389881 0.6097198273098206 0.6961120787982089
0.240988 0.6059572268889298 0.7012144633127095
0.2429879 0.6017217541827385 0.7049914441721052
0.2449878 0.5970919829337847 0.7101857447235542
0.2469877 0.5920823194551583 0.7139783773688095
0.2489876 0.5877426009706848 0.7187433247316072
0.2509875 0.5828585711079114 0.7232494821608288
0.2529874 0.5780869405111303 0.7276497306704577
0.2549873 0.5731129075214835 0.7320070095098319
0.2569872 0.567950306843338 0.7360680233741134
0.2589871 0.5639199194910105 0.740286735408066
0.260987 0.5589817795624651 0.7440254999524252
0.2629869 0.5542169201034466 0.7489402327888776
0.2649868 0.5490858263662092 0.7530842229639454
0.2669867 0.5440057110493021 0.7567486792162768
0.2689866 0.5389742843051611 0.7615407487681248
0.2709865 0.5345964079238472 0.7657516025111639
0.2729864 0.5292333514538208 0.7700112165478272
0.2749863 0.5246334167528602 0.77325894665195
0.2769862 0.5186935522519666 0.777312443280359
0.2789861 0.514588853339101 0.781979862712295
0.280986 0.5085977033102785 0.7849484127842802
0.2829859 0.5038780290965367 0.7893425266694045
0.2849858 0.49870647518072425 0.7924635137314476
0.2869857 0.4941293438257432 0.7975860212839296
0.2889856 0.4885251788492396 0.8008239429625483
0.2909855 0.4832167827793875 0.8041799525137658
0.2929854 0.47795978045422666 0.8085293045939344
0.2949853 0.47268694219083063 0.8118759856312804
0.2969852 0.4672780132160237 0.8148732593622662
0.2989851 0.4613285112316247 0.8187432577591476
0.300985 0.4567507786883309 0.8227584549883395
0.3029849 0.45103581968337975 0.8259304030910839
0.3049848 0.4459907663119814 0.8302402798964658
0.3069847 0.4410107237702893 0.8337233031843891
0.3089846 0.43538839729463213 0.8366814085891426
0.3109845 0.42967118456397935 0.8395429737714283
0.3129844 0.4245283375413222 0.8434660866241175
0.3149843 0.4190526440639196 0.8464437144854874
0.3169842 0.413901083232873 0.8496889881454046
0.3189841 0.40739163050333116 0.85184789207969
0.320984 0.4017382985436881 0.8554204809514191
0.3229839 0.3962853282977169 0.8602846471406598
0.3249838 0.39090305660267444 0.8621730746887977
0.3269837 0.3860235835986029 0.865159940161678
0.3289836 0.3798186494481221 0.8691830060080257
0.3309835 0.37431570973980755 0.872013601553125
0.3329834 0.368416124786175 0.8744722841282886
0.3349833 0.3622228252024023 0.8773428134327472
0.3369832 0.3567584754838178 0.8807918815553462
0.3389831 0.3510031841056849 0.8838768437935985
0.340983 0.3452693089402134 0.8856969093169258
0.3429829 0.33908755671950547 0.8889294824641154
0.3449828 0.33368010596149744 0.892311959761486
0.3469827 0.32743300019448673 0.8948197469849395
0.3489826 0.3213968788888187 0.8970396964403309
0.3509825 0.31634234192283445 0.8996899315286118
0.3529824 0.30979881784049823 0.9031501273935069
0.3549823 0.30494993730337233 0.9057793984135141
0.3569822 0.2984405621082453 0.908368434420261
0.3589821 0.29205176974713787 0.9105646207087214
0.360982 0.2855039353057824 0.9127875605075709
0.3629819 0.2801402917524895 0.9153675327260957
0.3649818 0.27478182533485684 0.9178732564006175
0.3669817 0.268571956338359 0.9202855728624728
0.3689816 0.2624594041838282 0.9214154625514521
0.3709815 0.25713037496521934 0.9245905464807211
0.3729814 0.25026994048977624 0.9269968770359391
0.3749813 0.24445322855951537 0.9287275769001413
0.3769812 0.23866847868434982 0.9303107083975031
0.3789811 0.2327182841368653 0.9324489134690498
0.380981 0.22616255367782334 0.9342000015423015
0.3829809 0.21961050398603355 0.9361832636837847
0.3849808 0.21375437477617387 0.9381245301735479
0.3869807 0.20737042399182612 0.9407029390772295
0.3889806 0.2024083127804397 0.943146810986344
0.3909805 0.19562694402282327 0.9443239760877734
0.3929804 0.18959044432806055 0.9461808044385311
0.3949803 0.18367711671818315 0.947938981636533
0.3969802 0.17679299672773013 0.9498274909738924
0.3989801 0.170723817442167 0.9520526486510223
0.40098 0.16428679709723643 0.9529667531471622
0.4029799 0.15857789669309752 0.9548341618855865
0.4049798 0.1517764297166933 0.9557753991972998
0.4069797 0.1455949803499553 0.9575847702554782
0.4089796 0.13994830406217054 0.9594055251424073
0.4109795 0.1334226099962908 0.9602396385652961
0.4129794 0.12710331246211715 0.9617857656497998
0.4149793 0.12101211686966745 0.9628186344737317
0.4169792 0.11420923183364905 0.965121313993825
0.4189791 0.10822413357605322 0.9660842557208573
0.420979 0.10223528487666776 0.9675863329401143
0.4229789 0.09534667160105295 0.9679644554610232
0.4249788 0.08915874456814693 0.9694013274585447
0.4269787 0.08302417054849826 0.9701522108213719
0.4289786 0.0764957138375008 0.971654406659836
0.4309785 0.07055649993920114 0.9720221200430975
0.4329784 0.0641916394506003 0.9733224772573547
0.4349783 0.05740619581995446 0.9740550309462332
0.4369782 0.05176350745250467 0.9759289838160704
0.4389781 0.04526006649149751 0.976188413731275
0.440978 0.03799974777338065 0.9769990375185233
0.4429779 0.03263247100430146 0.9776067356968697
0.4449778 0.02561398276962129 0.978329769559753
0.4469777 0.019980924570578193 0.978921516200012
0.4489776 0.013611204947609562 0.9797212158939039
0.4509775 0.006275361149639766 0.9797999313265425
0.4529774 -8.555963687689738e-05 0.9803808609144303
0.4549773 -0.005713687687013372 0.9811916364945151
0.4569772 -0.012628918522626403 0.9816509213851092
0.4589771 -0.019377754548053787 0.9821845587717506
0.460977 -0.025054365735012456 0.9825786965790182
0.4629769 -0.03225265085455331 0.9830069397848081
0.4649768 -0.038090941425589345 0.9832585846458266
0.4669767 -0.04464147480760213 0.9836123307404339
0.4689766 -0.050929777900500545 0.9836449275162786
0.4709765 -0.057782126563380144 0.9837284373673761
0.4729764 -0.063608119967796 0.9836355561260384
0.4749763 -0.07030398834225086 0.9835132460037582
0.4769762 -0.07724289297340556 0.9836796962913515
0.4789761 -0.08323459800318117 0.983457298924393
0.480976 -0.08961004054120382 0.9835347921320879
0.4829759 -0.09613557347796793 0.9836884682908467
0.4849758 -0.10288199535818864 0.9835550396963871
0.4869757 -0.10874150068134358 0.9833903188620547
0.4889756 -0.11525030516630444 0.9834455916138237
0.4909755 -0.12196198638711575 0.9830418230501332
0.4929754 -0.12857163043640368 0.9825667784919833
0.4949753 -0.13445899718815263 0.9822992236462691
0.4969752 -0.14098577027422388 0.9813647764713619
0.4989751 -0.14747991350205347 0.9814563071353174
0.500975 -0.1536683654641635 0.9805964153509799
0.5029749 -0.160338574135778 0.9804525417009443
0.5049748 -0.1663983524829435 0.9800533547590342
0.5069747 -0.17266934988965224 0.9791853083153302
0.5089746 -0.1788057247545743 0.9779882612647265
0.5109745 -0.1852663364185475 0.9776338876154106
0.5129744 -0.19179464482469633 0.9766574540698034
0.5149743 -0.19838890401579984 0.975679052310657
0.5169742 -0.20445338968645677 0.9750314195052882
0.5189741 -0.21093468010249303 0.974041807742736
0.520974 -0.2168242598115488 0.9735479036488808
0.5229739 -0.2234764333968632 0.9724335159696553
0.5249738 -0.2300027408479251 0.9713693793790776
0.5269737 -0.23606277433904602 0.9705368126792875
0.5289736 -0.24257307135369904 0.9693905473832977
0.5309735 -0.24919147503267378 0.9681394947615246
0.5329734 -0.255317377796234 0.9673562674052445
0.5349733 -0.26136026125750017 0.9659220438934663
0.5369732 -0.26792834995275816 0.9646522300025236
0.5389731 -0.27406398726705455 0.963271047804744
0.540973 -0.28020870241443263 0.9616256129412651
0.5429729 -0.2866218892644307 0.9598519861665462
0.5449728 -0.29289238414835944 0.9590674521915302
0.5469727 -0.29922791770501994 0.9574091809774853
0.5489726 -0.3050531420269693 0.9563686405111693
0.5509725 -0.31155707896302065 0.9549855138460686
0.5529724 -0.3179210287736778 0.9534433746641897
0.5549723 -0.32406513692292205 0.9515651232684122
0.5569722 -0.3303925905671189 0.9499494926957912
0.5589721 -0.3364551699704378 0.9479261579961351
0.560972 -0.34249405107200387 0.9464691761982574
0.5629719 -0.3487027149366321 0.9444758737517996
0.5649718 -0.35496565959427295 0.9426960677638473
0.5669717 -0.3607327631953909 0.9406328834153519
0.5689716 -0.3671008340831552 0.9388385173916448
0.5709715 -0.37331989421048795 0.9371173913169699
0.5729714 -0.37904196127743506 0.9354284420732487
0.5749713 -0.385285127967414 0.9332978212246518
0.5769712 -0.39131744574143545 0.9312151829539215
0.5789711 -0.3969775174594433 0.9287284013964613
0.580971 -0.4030757940549014 0.9264064217748659
0.5829709 -0.40945383787293016 0.9241512176016142
0.5849708 -0.4152156690631033 0.9220568388882038
0.5869707 -0.4211649420094553 0.9196678980934363
0.5889706 -0.4273106003453033 0.9172457475068126
0.5909705 -0.4328252626788007 0.915487275147239
0.5929704 -0.43891795620970925 0.9129800125848975
0.5949703 -0.44507356343769455 0.9106868554426345
0.5969702 -0.45063594771094956 0.9080253238849416
0.5989701 -0.4568198742521038 0.9056043188385349
0.60097 -0.4626378855161655 0.9031189447943356
0.6029699 -0.4684212268619418 0.9007627386255938
0.6049698 -0.4743808434469359 0.8978090020980579
0.6069697 -0.48018512817439135 0.894827819542336
0.6089696 -0.4860458208539353 0.8923531926463489
0.6109695 -0.49177562258231766 0.8896018087501084
0.6129694 -0.49752930708600407 0.8871089979051051
0.6149693 -0.5030722220396333 0.8830405283838655
0.6169692 -0.5086861693461645 0.8806449794613973
0.6189691 -0.5144810042570089 0.8783416882616448
0.620969 -0.5198360925712763 0.8754557671442083
0.6229689 -0.5258574648199098 0.8723138327757373
0.6249688 -0.5317090667594294 0.8693917853372799
0.6269687 -0.537146792738404 0.8661162720234449
0.6289686 -0.5426344242865494 0.863227174544508
0.6309685 -0.5486000793817964 0.8605421836298163
0.6329684 -0.5537670380159679 0.8569753767460018
0.6349683 -0.5592873060057757 0.8539137940890289
0.6369682 -0.5648981824718868 0.8508228598506263
0.6389681 -0.5703213242465764 0.8479104989870333
0.640968 -0.5760452529638567 0.8435817339202175
0.6429679 -0.5811971339613041 0.840872618665762
0.6449678 -0.5865848541170884 0.8373224967754294
0.6469677 -0.592171326867456 0.8343644059052958
0.6489676 -0.5971380022050728 0.8303057372672605
0.6509675 -0.6030391633610351 0.8274582734447296
0.6529674 -0.6083122814010256 0.8235155763502622
0.6549673 -0.6135004409137278 0.8203466043085257
0.6569672 -0.6188130081164669 0.8165975592418755
0.6589671 -0.6241353988221449 0.8127494626302516
0.660967 -0.6294114634812009 0.8091878510139774
0.6629669 -0.6346707135313981 0.8058059890891993
0.6649668 -0.639486272152355 0.8017942619110224
0.6669667 -0.6445104002921838 0.7981612863036065
0.6689666 -0.6498385964413955 0.7944318706118867
0.6709665 -0.6550493432001692 0.7905474972632626
0.6729664 -0.6599492339108327 0.7868052487373295
0.6749663 -0.6651221008394831 0.7829449744840927
0.6769662 -0.6701560342481953 0.7791745323413417
0.6789661 -0.6751807598875159 0.7749987421571131
0.680966 -0.6801560898640445 0.7713249035247516
0.6829659 -0.68495650787051 0.7671665299736716
0.6849658 -0.6900412293192866 0.7630097600245738
0.6869657 -0.6949886696277203 0.7591805896149444
0.6889656 -0.6997568278618366 0.7549010003915846
0.6909655 -0.7047092441959281 0.7509126188596682
0.6929654 -0.7094871742370105 0.7467286922879018
0.6949653 -0.7143198021848634 0.7425734940924057
0.6969652 -0.7192479533006735 0.7384763144276761
0.6989651 -0.7237896749042285 0.7341591917482662
0.700965 -0.7286638404969052 0.7298506907031966
0.7029649 -0.7332986712460442 0.7254824185914033
0.7049648 -0.7378247676592218 0.7213012324132207
0.7069647 -0.7425855529957481 0.7168852659307547
0.7089646 -0.7469883203061084 0.7127532343711722
0.7109645 -0.7516287627283359 0.7080797164915107
0.7129644 -0.7562149334584055 0.7036702894348126
0.7149643 -0.760903544119601 0.6991553859960387
0.7169642 -0.7653064095657429 0.6948247220492018
0.7189641 -0.7693151331083476 0.6898559843793451
0.720964 -0.7739330293034579 0.6857211331887425
0.7229639 -0.7783813853203724 0.6810342862666824
0.7249638 -0.7826064143309578 0.6761957968323061
0.7269637 -0.7869997989367575 0.6715676270120275
0.7289636 -0.7912141748983941 0.6670509165880718
0.7309635 -0.7957039293293499 0.6623342474201482
0.7329634 -0.7997034831473531 0.6574542301730657
0.7349633 -0.8041621692073271 0.6527908168560776
0.7369632 -0.8081733717319736 0.6481263000774243
0.7389631 -0.8124785569111177 0.6432701199747066
0.740963 -0.8165304562650892 0.6384500239017519
0.7429629 -0.8205639212379682 0.6335333590716956
0.7449628 -0.8244309606333247 0.628516347070731
0.7469627 -0.8284169888843497 0.6237675730323379
0.7489626 -0.8326150372831359 0.6186539474162802
0.7509625 -0.8366791363871624 0.6142445370855597
0.7529624 -0.8403836202122149 0.6086629334408428
0.7549623 -0.8442710356248103 0.6036674628846389
0.7569622 -0.8481010949996015 0.5989209734309825
0.7589621 -0.8518317790426451 0.5937337565708151
0.760962 -0.8555138232362061 0.5886550160725108
0.7629619 -0.8595805228405222 0.5835358273003322
0.7649618 -0.8630208104033898 0.5783048524575612
0.7669617 -0.8665219650017835 0.5735511901522758
0.7689616 -0.8703717972511618 0.568281565505595
0.7709615 -0.874130321283821 0.5628838072059655
0.7729614 -0.8776231659357092 0.5578096074525637
0.7749613 -0.8808468052873973 0.552609554701147
0.7769612 -0.8845597717305784 0.5469998750287498
0.7789611 -0.8881940875429073 0.5422095654909493
0.780961 -0.8915324270817191 0.5368484780017506
0.7829609 -0.895147543333745 0.5314826490992954
0.7849608 -0.8982594653770944 0.526108464548736
0.7869607 -0.9016514660026815 0.520624856891306
0.7889606 -0.9052218848069981 0.5151813703663545
0.7909605 -0.9083278115785183 0.5098997893878238
0.7929604 -0.9114046113299081 0.5043465862201983
0.7949603 -0.9146429571935497 0.49896727777855016
0.7969602 -0.918208408034912 0.49340526465370727
0.7989601 -0.9214026210733847 0.4881153849755824
0.80096 -0.9238537134458592 0.48232427254243754
0.8029599 -0.9272400072063797 0.4769848965918754
0.8049598 -0.9301626128284223 0.4715165275410479
0.8069597 -0.9330198004722389 0.46575520494018985
0.8089596 -0.9361302197537867 0.4602005429238249
0.8109595 -0.9390018580501673 0.4544729159088885
0.8129594 -0.9419904389210367 0.4489178197514706
0.8149593 -0.944651403466795 0.44324605950663876
0.8169592 -0.9473802166067353 0.4376904416501762
0.8189591 -0.9504246607462076 0.431902789635443
