! Created with skrf 1.8.0 (http://scikit-rf.org).
# GHz S RI R 50.0 
!freq ReS11 ImS11
0.001 -1.000029562700902 0.002928001158155065
0.0029999 -1.0013614581399546 0.008539722929454985
0.0049998 -1.0040890283705486 0.013653367421160523
0.0069997 -1.0082975817582498 0.018365181926197405
0.0089996 -1.013449602610281 0.022202145943145513
0.0109995 -1.0195069731392405 0.025403579344012384
0.0129994 -1.026639159780541 0.02728486533582558
0.0149993 -1.0343286770599454 0.02827530553701274
0.0169992 -1.0421242578966945 0.02832801331452328
0.0189991 -1.049981351944598 0.027308367291295543
0.020999 -1.0582417342851955 0.025308092867482146
0.0229989 -1.0662237949460112 0.022475128281209844
0.0249988 -1.0737802803919232 0.01902284729428877
0.0269987 -1.0812546742029387 0.013587593917859964
0.0289986 -1.0886881354742641 0.008811791091986598
0.0309985 -1.096068692676917 0.0030341312322699765
0.0329984 -1.1021669755747454 -0.002813009879102768
0.0349983 -1.1088947606647914 -0.010735163381947133
0.0369982 -1.114165759952575 -0.01774809493975843
0.0389981 -1.119721526636479 -0.025642001096694234
0.040998 -1.1240140481986751 -0.03318524608601264
0.0429979 -1.1290440891797282 -0.04121349579680783
0.0449978 -1.1333230033167678 -0.04967074508372957
0.0469977 -1.1369095825755056 -0.058209126108410586
0.0489976 -1.1404394681247807 -0.06654423052507943
0.0509975 -1.1436679440966078 -0.07464474111732619
0.0529974 -1.145083158649547 -0.08345357595971897
0.0549973 -1.147724229853792 -0.09286468741991732
0.0569972 -1.1511115725981629 -0.10062185286821315
0.0589971 -1.1526881496085417 -0.10882130797113071
0.060997 -1.1548753729435346 -0.1178848054315149
0.0629969 -1.155911608655671 -0.12651590043414473
0.0649968 -1.1570594324572638 -0.1353246643640968
0.0669967 -1.1578206876896857 -0.1444556457318631
0.0689966 -1.1587398999734355 -0.15318243140509802
0.0709965 -1.1593804703090034 -0.16086735087379334
0.0729964 -1.1597682114538743 -0.17025601479120547
0.0749963 -1.1602440264720524 -0.17863681403506398
0.0769962 -1.1600990147172356 -0.1861627694279925
0.0789961 -1.1603927408817873 -0.19543113332345577
0.080996 -1.160313129660324 -0.20340276482796432
0.0829959 -1.159368703725579 -0.2117917418433594
0.0849958 -1.1596653539142936 -0.21979759374483124
0.0869957 -1.1586212568874517 -0.22889969353073947
0.0889956 -1.1585596815266734 -0.23655667992882107
0.0909955 -1.1578828990329235 -0.24506241420024832
0.0929954 -1.1570969760388712 -0.2533874525783287
0.0949953 -1.1550006839449638 -0.2604139470521603
0.0969952 -1.154510648343565 -0.2684418469747056
0.0989951 -1.152890504231668 -0.2772647593815259
0.100995 -1.1531642597729626 -0.28540450510817617
0.1029949 -1.1509892272221427 -0.29354871932124643
0.1049948 -1.149617536648601 -0.30070762799872636
0.1069947 -1.147494900695284 -0.3088433523574438
0.1089946 -1.146116262193397 -0.31602952478878
0.1109945 -1.144557112373698 -0.3244675818255684
0.1129944 -1.143840946554655 -0.33187772434255447
0.1149943 -1.1406075668165503 -0.33966488416816293
0.1169942 -1.1392271701180765 -0.3471143970160801
0.1189941 -1.1369116522454252 -0.35487529046793054
0.120994 -1.1352539117505676 -0.36343511623710295
0.1229939 -1.132492028825527 -0.37001200771989445
0.1249938 -1.1301166443893074 -0.37721103769553754
0.1269937 -1.128050530297399 -0.3840967204844382
0.1289936 -1.1257240159563027 -0.39250145752623317
0.1309935 -1.1232358059610468 -0.40007519485568016
0.1329934 -1.1212987205925309 -0.40513027246788746
0.1349933 -1.1190557936605712 -0.4138897595973564
0.1369932 -1.1161327002082384 -0.42034041762225904
0.1389931 -1.11297899863611 -0.4286272983312114
0.140993 -1.1111724813888804 -0.43517479715302676
0.1429929 -1.1086592047044 -0.4420336487558967
0.1449928 -1.1050423473479167 -0.4490947967269404
0.1469927 -1.1027171380505254 -0.4567323969332856
0.1489926 -1.100121789967292 -0.46267514293958334
0.1509925 -1.096391898932406 -0.47080383292739325
0.1529924 -1.093768772069371 -0.47679454917724506
0.1549923 -1.0917652840616197 -0.4843171417899564
0.1569922 -1.0890201735819787 -0.4911832695700102
0.1589921 -1.0846759232925187 -0.4976882395051511
0.160992 -1.0816602095235732 -0.5056863967321839
0.1629919 -1.0781742236395582 -0.5119800368528321
0.1649918 -1.074925405995784 -0.5183273074927294
0.1669917 -1.0721755551467582 -0.5254224533640824
0.1689916 -1.0688373740111405 -0.5311125157663942
0.1709915 -1.0646084297251874 -0.5388441703776816
0.1729914 -1.061522393253741 -0.5453154382040406
0.1749913 -1.0584605277975065 -0.5525615610459035
0.1769912 -1.0539889259662567 -0.5581656244415223
0.1789911 -1.0514382061520484 -0.5655413164324896
0.180991 -1.0473740982072604 -0.571678605616125
0.1829909 -1.0433506139358466 -0.5785788748415758
0.1849908 -1.0398632493672086 -0.5831528905036579
0.1869907 -1.0351648324278475 -0.5898881669731523
0.1889906 -1.0321301554827966 -0.5967551027044671
0.1909905 -1.0276245125052328 -0.6030522927312685
0.1929904 -1.0243124499567493 -0.610319076957815
0.1949903 -1.0197338599652983 -0.6164244453135437
0.1969902 -1.0162343195877968 -0.621298294316362
0.1989901 -1.0122727228431714 -0.6274664757243094
0.20099 -1.0082944450454734 -0.6330842127006935
0.2029899 -1.0042379840578537 -0.639785656067427
0.2049898 -0.9986776163873605 -0.6456362594850401
0.2069897 -0.9965054760955775 -0.6516249582203447
0.2089896 -0.9925992585786144 -0.657647223750635
0.2109895 -0.9882225183723609 -0.6638691500060213
0.2129894 -0.9826076040745849 -0.6694513736061035
0.2149893 -0.9794692216997035 -0.6762075432925553
0.2169892 -0.9754366736422594 -0.6810322832105785
0.2189891 -0.9700006878898355 -0.6879238574830473
0.220989 -0.9652238656468828 -0.6926866874974855
0.2229889 -0.9620474226967007 -0.6983622785373331
0.2249888 -0.956213315927404 -0.7036794721039183
0.2269887 -0.9515302450363164 -0.7098985212519784
0.2289886 -0.9480129618525218 -0.7164965438392261
0.2309885 -0.9434746549625143 -0.72188688775855
0.2329884 -0.9385094176566456 -0.7273507716150203
0.2349883 -0.9335120145920651 -0.7328820738478496
0.2369882 -0.9290434732104077 -0.7381932130099843
0.2389881 -0.9246170524401158 -0.7439949972048787
0.240988 -0.9191283641742909 -0.7492036526940564
0.2429879 -0.9140785383480351 -0.7553812950662675
0.2449878 -0.9095387705334218 -0.7601577623691389
0.2469877 -0.9053542451317812 -0.7661328042289117
0.2489876 -0.8991174787631404 -0.7713210631562379
0.2509875 -0.895120350140108 -0.7760915947981892
0.2529874 -0.8899184829513402 -0.781437306470746
0.2549873 -0.8847955309155593 -0.7859587393023959
0.2569872 -0.8807593619589236 -0.791369046278192
0.2589871 -0.8743557558467429 -0.7973484101100501
0.260987 -0.8695871636923014 -0.8028442545695103
0.2629869 -0.8640611733842801 -0.807195772611725
0.2649868 -0.8592016086025699 -0.8116217904148847
0.2669867 -0.8542876603479996 -0.8173436663657988
0.2689866 -0.8494634657212562 -0.8215186995535683
0.2709865 -0.8433392857989552 -0.8263290474105345
0.2729864 -0.8384472909618577 -0.8306275219834242
0.2749863 -0.8327476704263694 -0.8367300790558118
0.2769862 -0.8279541489720782 -0.8411862451870511
0.2789861 -0.8213551505493171 -0.845571875240988
0.280986 -0.8175324971605362 -0.8510104849756922
0.2829859 -0.8113769681358881 -0.855268217325234
0.2849858 -0.8059941115076299 -0.8604793025730917
0.2869857 -0.7993498771830654 -0.8637269344669704
0.2889856 -0.7948963993943076 -0.8690083917369353
0.2909855 -0.7895933069886009 -0.8742792733386378
0.2929854 -0.7833525753450854 -0.8778027043677658
0.2949853 -0.7777177744010808 -0.8830698731918012
0.2969852 -0.7723053590277915 -0.8879298212755555
0.2989851 -0.7671505950087091 -0.8913550009540632
0.300985 -0.761248822554022 -0.8961747976100417
0.3029849 -0.7560328701490009 -0.900639403450039
0.3049848 -0.7492226846207869 -0.9039640944051571
0.3069847 -0.7432826487859883 -0.9083989717315579
0.3089846 -0.7378766797644516 -0.9128916148257697
0.3109845 -0.732486829800112 -0.9178316605274734
0.3129844 -0.7258353269023274 -0.921445480305481
0.3149843 -0.7204841802602275 -0.9257764082877162
0.3169842 -0.7140609061502782 -0.9295335245292163
0.3189841 -0.7098972060908504 -0.9348843723711959
0.320984 -0.7038056894945165 -0.9380638448568138
0.3229839 -0.6963355995173628 -0.9404806857224404
0.3249838 -0.6910654547735482 -0.9459511905713242
0.3269837 -0.6841574592586946 -0.9502866484647391
0.3289836 -0.6781885827219096 -0.9524959429414342
0.3309835 -0.6721833676356709 -0.9565695611818916
0.3329834 -0.6667155246490704 -0.9610450432250436
0.3349833 -0.6613995187706848 -0.9644580836206117
0.3369832 -0.6543606029718225 -0.9676113281910521
0.3389831 -0.6484888553875456 -0.9708627217683556
0.340983 -0.6423157079539069 -0.9756913462508968
0.3429829 -0.6362053787598638 -0.9785112501044424
0.3449828 -0.6292191603301178 -0.9818870440643391
0.3469827 -0.6241610519286439 -0.9846678170707572
0.3489826 -0.6179199783715346 -0.9888519046729694
0.3509825 -0.6108220800463553 -0.9919388497374859
0.3529824 -0.604770808230634 -0.9944009853845582
0.3549823 -0.5967886082668248 -0.9975415686489556
0.3569822 -0.5913532853417548 -1.0011744831007403
0.3589821 -0.5855848248297473 -1.0046655227784567
0.360982 -0.5801262574172678 -1.008157635746882
0.3629819 -0.5731877882113252 -1.0112793635891497
0.3649818 -0.5663829346852374 -1.0147686929361504
0.3669817 -0.5599352444282806 -1.0176149144941546
0.3689816 -0.5539425068300597 -1.022004434813967
0.3709815 -0.5464053560132885 -1.0235725220878724
0.3729814 -0.5407457654500225 -1.026132239869247
0.3749813 -0.5336146687229314 -1.0293541096486565
0.3769812 -0.5274638301913565 -1.0332391541528747
0.3789811 -0.5204655569474782 -1.0357277779179235
0.380981 -0.5148190311895342 -1.0383316456338285
0.3829809 -0.5088511852060703 -1.0411572397417916
0.3849808 -0.5018103660219888 -1.0440537155808889
0.3869807 -0.49475393367550713 -1.045507163974032
0.3889806 -0.48714941489097263 -1.0480873409575617
0.3909805 -0.48118769384915355 -1.0508529381205636
0.3929804 -0.4747085899503162 -1.0538299780714113
0.3949803 -0.46757751607931985 -1.0560919849957218
0.3969802 -0.46154108733987664 -1.0580635754200804
0.3989801 -0.45483739995283345 -1.060083850197678
0.40098 -0.44832069316593964 -1.0637367446578994
0.4029799 -0.44109249180919075 -1.0652999534450822
0.4049798 -0.43500370644316877 -1.068030685260939
0.4069797 -0.428135167169836 -1.0699992369234106
0.4089796 -0.42102873973142085 -1.0716751312135941
0.4109795 -0.4145907279712176 -1.0743590585061777
0.4129794 -0.407333169637211 -1.0768598249133334
0.4149793 -0.400734922442895 -1.0788744117777314
0.4169792 -0.39394669668849647 -1.0794212632661897
0.4189791 -0.3863333325321536 -1.0814088127580062
0.420979 -0.380160144201162 -1.0835887338046073
0.4229789 -0.3734820412029083 -1.0866686940327124
0.4249788 -0.3667832399324398 -1.087683165210583
0.4269787 -0.3598277050675061 -1.0900013942435367
0.4289786 -0.3525631222523104 -1.0906732646603268
0.4309785 -0.3457999087905297 -1.0934162909072496
0.4329784 -0.33883160066136264 -1.0949642778566826
0.4349783 -0.332603147055503 -1.0964950331483385
0.4369782 -0.32491849402254636 -1.0973134654436645
0.4389781 -0.3181341921282855 -1.0992713603555746
0.440978 -0.3117400396224216 -1.1002036774034254
0.4429779 -0.3043758537650681 -1.1024022982756216
0.4449778 -0.29769584977365626 -1.1034326571113289
0.4469777 -0.2898851057717921 -1.1051702050041594
0.4489776 -0.2826747324135883 -1.1062735583953018
0.4509775 -0.2773021544356279 -1.1086240048014413
0.4529774 -0.27017103578288637 -1.109624801713881
0.4549773 -0.26232535479295666 -1.1100466132429831
0.4569772 -0.2557541953675379 -1.1113847192563553
0.4589771 -0.24934735424492735 -1.1125641664854984
0.460977 -0.24101791270417722 -1.112989823991924
0.4629769 -0.23493604375101632 -1.1138881616640877
0.4649768 -0.22765174426868456 -1.115285318941089
0.4669767 -0.22049052764960314 -1.1160489261015387
0.4689766 -0.2133391818723239 -1.1171370538862513
0.4709765 -0.20767502117562817 -1.1185562097259092
0.4729764 -0.19967356770416916 -1.1193397162021514
0.4749763 -0.1927514154758439 -1.119925244730985
0.4769762 -0.1859638286366848 -1.1205102613578408
0.4789761 -0.17892871072402977 -1.121626489507138
0.480976 -0.17200155162633202 -1.121587539738097
0.4829759 -0.1647597832236834 -1.1218085371042514
0.4849758 -0.15780399289778407 -1.1221844255231714
0.4869757 -0.14992854639381792 -1.1225800364930156
0.4889756 -0.14293962425540163 -1.123023211464863
0.4909755 -0.1362595467861777 -1.1233470494373448
0.4929754 -0.12942131719546945 -1.1237707507121129
0.4949753 -0.12206214746616827 -1.1241790887622782
0.4969752 -0.11480940181782179 -1.1256211625668424
0.4989751 -0.10827311753418678 -1.1248896213534816
0.500975 -0.1011048133572267 -1.1254591161267176
0.5029749 -0.09417810926311036 -1.125323089093039
0.5049748 -0.08657336721204525 -1.1260106103969965
0.5069747 -0.07892704608823294 -1.1263102851159887
0.5089746 -0.0720799956406205 -1.1268659817379696
0.5109745 -0.06541579755617408 -1.1252171203268992
0.5129744 -0.05875405344354201 -1.1255128218981554
0.5149743 -0.05170922125254356 -1.125822196970987
0.5169742 -0.04410251875919315 -1.1251440940781663
0.5189741 -0.03773466926672709 -1.1250595954869218
0.520974 -0.029051133357168107 -1.123731615487148
0.5229739 -0.0230223003246795 -1.12422556211833
0.5249738 -0.016588233718201867 -1.124405002328937
0.5269737 -0.008303756897527617 -1.1236969735759745
0.5289736 -0.0021226244628560764 -1.1229220376648057
0.5309735 0.005047546984702805 -1.122794594060159
0.5329734 0.012276449113556007 -1.1222551673108112
0.5349733 0.01938212879453728 -1.121529607326634
0.5369732 0.026400218885058252 -1.1209903188980708
0.5389731 0.033305478956570364 -1.1202436150435544
0.540973 0.040738770608547 -1.1201499942500717
0.5429729 0.04709282960169012 -1.120171706091957
0.5449728 0.054560984289600684 -1.1189290224133834
0.5469727 0.06088603692789038 -1.1180546312445678
0.5489726 0.06910398366872053 -1.1161379714813493
0.5509725 0.07496379363175845 -1.1154852363364596
0.5529724 0.08228320956499419 -1.1142338485099448
0.5549723 0.08942244797965435 -1.1133852721557695
0.5569722 0.09620100280414283 -1.1128285262909476
0.5589721 0.10358791832993097 -1.1120866027552707
0.560972 0.11034067658411094 -1.1107877149460275
0.5629719 0.11710030558885227 -1.1093105447097884
0.5649718 0.12361901115990465 -1.1082829945207107
0.5669717 0.1312349475106471 -1.107029609127888
0.5689716 0.13809883250259194 -1.106334437951195
0.5709715 0.14521321048383096 -1.1040394287225908
0.5729714 0.15206192264354765 -1.1028812549445692
0.5749713 0.1594222786259433 -1.1016451541762484
0.5769712 0.16627419700278326 -1.1000568626254221
0.5789711 0.17336692162789358 -1.0985832503447406
0.580971 0.18026121179427984 -1.097403690885135
0.5829709 0.18633776822532294 -1.0954264159845928
0.5849708 0.19377858497601824 -1.0937615427117735
0.5869707 0.19970937980107106 -1.0920007858649763
0.5889706 0.2075636704831771 -1.0904105701651678
0.5909705 0.21427480907509666 -1.0886929179226483
0.5929704 0.22135412807955862 -1.0869992228211662
0.5949703 0.22795882129266248 -1.0845341633338872
0.5969702 0.23460836245278827 -1.0837251902185172
0.5989701 0.24191089931686224 -1.0808619697694624
0.60097 0.24849811837335722 -1.0792549857824383
0.6029699 0.25556215389247366 -1.0772434775748772
0.6049698 0.2623156632781857 -1.075586258762009
0.6069697 0.2689653777270561 -1.0737817389750572
0.6089696 0.2756261394998596 -1.0713157446439747
0.6109695 0.28221817590193643 -1.0693555449806698
0.6129694 0.28863575183770745 -1.0671226278149641
0.6149693 0.29539789026857244 -1.0654454639515007
0.6169692 0.3022491317740488 -1.062344246709036
0.6189691 0.3088249518573416 -1.0595317246368796
0.620969 0.31554814604825243 -1.0577800751291533
0.6229689 0.3222058263646823 -1.0547468670553994
0.6249688 0.32824434590109186 -1.0522113303809584
0.6269687 0.3350088182355502 -1.0501280418426107
0.6289686 0.3424514310671255 -1.0474157995389544
0.6309685 0.34814997518846647 -1.0439704802548666
0.6329684 0.35512132003642205 -1.042169900688926
0.6349683 0.36185267098452534 -1.039452120188933
0.6369682 0.3680217225013527 -1.037669480325236
0.6389681 0.3749451716049557 -1.0339889317555355
0.640968 0.3814263283654553 -1.032254263387395
0.6429679 0.3879888530777089 -1.0290833403251083
0.6449678 0.3949914943499463 -1.0257605482203973
0.6469677 0.40124492944229934 -1.022974204797762
0.6489676 0.40761693452044523 -1.020403348135831
0.6509675 0.413581797460325 -1.0172346705533908
0.6529674 0.4194948226310474 -1.0137495740033566
0.6549673 0.42650808057701173 -1.010309306325634
0.6569672 0.43262354685060395 -1.0075425735055576
0.6589671 0.43909874708502805 -1.004589109500417
0.660967 0.4457397566638772 -1.0011176876138612
0.6629669 0.4515635581490396 -0.9971531789972756
0.6649668 0.4581750531054001 -0.9947024481654163
0.6669667 0.46397147627808266 -0.9914599162716389
0.6689666 0.4702039140447979 -0.9874097774964609
0.6709665 0.4766532369158801 -0.985603877549198
0.6729664 0.48352674343881474 -0.9816504666346751
0.6749663 0.4891166730107881 -0.9786151526472191
0.6769662 0.49595989240655686 -0.9746233257935903
0.6789661 0.5016526707847186 -0.9703633450322836
0.680966 0.5077171454486039 -0.9672385669855583
0.6829659 0.5139143130867728 -0.9634455249611494
0.6849658 0.5200053009779305 -0.9603154040694835
0.6869657 0.5263092487638497 -0.9561908514750244
0.6889656 0.532010772962224 -0.9527183866677141
0.6909655 0.5377548862606417 -0.9488894653167248
0.6929654 0.5440844650563599 -0.9452276171489734
0.6949653 0.5497556118782481 -0.9411785147072086
0.6969652 0.5557415722263779 -0.9373538111114419
0.6989651 0.5614329322970324 -0.9335270463815523
0.700965 0.5676699329482642 -0.9298043470420388
0.7029649 0.5731111095615117 -0.9257302363517057
0.7049648 0.5793893747929224 -0.9218413847399722
0.7069647 0.5851885750322976 -0.9176286076370864
0.7089646 0.5906718266315564 -0.9133416837781828
0.7109645 0.5968582727856901 -0.909323489732722
0.7129644 0.6023102914218715 -0.9049216802416189
0.7149643 0.6086251032586043 -0.9011005738309565
0.7169642 0.6140979678422283 -0.8965151972992735
0.7189641 0.6195220755367054 -0.8924583989881834
0.720964 0.6255326097014853 -0.8879037348103301
0.7229639 0.6307078169144937 -0.8842075839823461
0.7249638 0.6369189601485796 -0.8804419066717319
0.7269637 0.64208021259935 -0.8752414389764331
0.7289636 0.6479730181449856 -0.8705986659690075
0.7309635 0.6534111748222009 -0.8658630663504492
0.7329634 0.6587881177547029 -0.8616137830319405
0.7349633 0.6640706240714916 -0.8568851970807035
0.7369632 0.6695645750146413 -0.8518812724712025
0.7389631 0.6747982427483726 -0.8470718978204375
0.740963 0.6807815972414197 -0.8428343250785055
0.7429629 0.685482674990735 -0.8382316739768232
0.7449628 0.6909384317939236 -0.833663326224836
0.7469627 0.6959644620508805 -0.828872803715975
0.7489626 0.7011685263985218 -0.8241456406554157
0.7509625 0.7071890956133539 -0.8188168338472124
0.7529624 0.7118208990069926 -0.814190396671715
0.7549623 0.717034791643573 -0.8094125562330984
0.7569622 0.7219375799168335 -0.8043449612990758
0.7589621 0.7271557743693141 -0.7997510001312346
0.760962 0.7325725193253215 -0.7949910442022668
0.7629619 0.7378068088491692 -0.7901836690603772
0.7649618 0.7427488376961224 -0.7845933488314552
0.7669617 0.7474112627626728 -0.7800111981189757
0.7689616 0.7522871777833471 -0.7746790001119036
0.7709615 0.7572619984026782 -0.7692434722077072
0.7729614 0.762206874089316 -0.7640558321405704
0.7749613 0.7671855369901107 -0.7586005377636695
0.7769612 0.7718882489154483 -0.7536121745276153
0.7789611 0.7767779929559876 -0.7481062304493865
0.780961 0.781170542644996 -0.7428895065815027
0.7829609 0.7858796020365406 -0.7375925414545876
0.7849608 0.7912248254485018 -0.732236474078606
0.7869607 0.7954216948546148 -0.726591812220398
0.7889606 0.8000018349388979 -0.7210262400562663
0.7909605 0.8042533545286855 -0.7155785364875525
0.7929604 0.8091910770865527 -0.7101944910796899
0.7949603 0.8134554026894327 -0.7049188738710997
0.7969602 0.8182678184198453 -0.6990637134356247
0.7989601 0.8230721366167212 -0.6939306155790667
