! Created with skrf 1.8.0 (http://scikit-rf.org).
# GHz S RI R 50.0 
!freq ReS11 ImS11
0.001 -1.000044695618814 0.00027975437761660824
0.0029999 -1.0005990731937495 0.0006674454089685214
0.0049998 -1.0016187405267685 0.0007123683153484398
0.0069997 -1.0029813303928645 0.00021841440582810734
0.0089996 -1.0047435267976441 -0.0008772180971070992
0.0109995 -1.006741974757217 -0.0026556595556643803
0.0129994 -1.0089101597070609 -0.005249034654869006
0.0149993 -1.0111146595128448 -0.00840621183656988
0.0169992 -1.0132162240823013 -0.012240669708241503
0.0189991 -1.015245313535888 -0.016523416445197642
0.020999 -1.0173436560603075 -0.02177915526849586
0.0229989 -1.0191290964047544 -0.026984734950391207
0.0249988 -1.0202086869252907 -0.03283923440751227
0.0269987 -1.0222018607610597 -0.0387908759006803
0.0289986 -1.0235498883632794 -0.04521974029231955
0.0309985 -1.0248941585471685 -0.05171734189856225
0.0329984 -1.0250871745323495 -0.058557029605383684
0.0349983 -1.0266386051738163 -0.06568843172113537
0.0369982 -1.026770546366425 -0.07281806615765875
0.0389981 -1.0274854068583252 -0.07976301029387607
0.040998 -1.02856550449731 -0.08675263953492833
0.0429979 -1.0288734954335392 -0.09337532507025248
0.0449978 -1.028755547321395 -0.1019094050514145
0.0469977 -1.0289101002592929 -0.10831718444136931
0.0489976 -1.0284597272072769 -0.1155967212983277
0.0509975 -1.0288992878526657 -0.12239660076940162
0.0529974 -1.0275560789248739 -0.12950938115116611
0.0549973 -1.028346035035374 -0.1366149457974151
0.0569972 -1.0279480085910238 -0.1433937543316588
0.0589971 -1.0278200178172379 -0.14985870732245182
0.060997 -1.0260162725126634 -0.15724580417039688
0.0629969 -1.026352815006607 -0.1637192435359
0.0649968 -1.0259169482827641 -0.17130908941508022
0.0669967 -1.0242441394341075 -0.178554947196629
0.0689966 -1.0236856364224933 -0.18541507713096586
0.0709965 -1.023353260786461 -0.1918602570517184
0.0729964 -1.022056208418853 -0.19922834284306512
0.0749963 -1.0207831838677353 -0.2056545012763944
0.0769962 -1.0202416532777663 -0.21248494926371767
0.0789961 -1.01908519570751 -0.21932975851882447
0.080996 -1.0185061034189413 -0.2258640033815647
0.0829959 -1.0162108703356805 -0.2323804609912402
0.0849958 -1.0159502065412978 -0.23918288941547156
0.0869957 -1.014464664183424 -0.24607394553768952
0.0889956 -1.0132668240072022 -0.2520250393184906
0.0909955 -1.0119444440258498 -0.2589149518989227
0.0929954 -1.0106561192738468 -0.26627042190950034
0.0949953 -1.0088261186351637 -0.2707807689276993
0.0969952 -1.0075562302974301 -0.2788110279597461
0.0989951 -1.0047799289682908 -0.2844490270308831
0.100995 -1.0050129779414716 -0.29085241201909573
0.1029949 -1.0032001761601308 -0.2982230664369191
0.1049948 -1.0006783226304978 -0.30435514845165523
0.1069947 -0.9996621654504795 -0.3113264082290171
0.1089946 -0.9979901953644659 -0.3172844061624327
0.1109945 -0.9956427615907496 -0.32328783704229425
0.1129944 -0.9940205312585438 -0.32931557355487995
0.1149943 -0.9922713123391327 -0.33621022448249743
0.1169942 -0.9912666484995319 -0.3422204574712224
0.1189941 -0.9875747136829091 -0.3490335412870482
0.120994 -0.9853116537942032 -0.3548084504095631
0.1229939 -0.9847633188919015 -0.3611519193154072
0.1249938 -0.9818879430578498 -0.3671426149932238
0.1269937 -0.9801623322924838 -0.3725572679721279
0.1289936 -0.9779235165640601 -0.3792369791586306
0.1309935 -0.9762037563431015 -0.3864041987441552
0.1329934 -0.974673706587672 -0.3920683400507858
0.1349933 -0.9715848046061794 -0.39749836511771847
0.1369932 -0.9690746266185837 -0.40401433300819134
0.1389931 -0.9672986154035165 -0.41071410993634594
0.140993 -0.9651741188629523 -0.41550401714437885
0.1429929 -0.9619349124525455 -0.4215223461906318
0.1449928 -0.9595822677931631 -0.4281987655447502
0.1469927 -0.9575977914187668 -0.43458849767352176
0.1489926 -0.9557636866396354 -0.44016189438486
0.1509925 -0.9513979157345309 -0.4459365401298894
0.1529924 -0.9506375925607782 -0.4526464130712826
0.1549923 -0.9483865184154319 -0.45709852360887343
0.1569922 -0.9452376777734997 -0.4643003687315723
0.1589921 -0.9410026931074267 -0.4689823210028833
0.160992 -0.9398427184186032 -0.4763300841951382
0.1629919 -0.9367922854104036 -0.4816465198192496
0.1649918 -0.933692011155041 -0.4873992492761973
0.1669917 -0.9313860858716723 -0.4938224280163807
0.1689916 -0.9290845813708675 -0.49893922107008293
0.1709915 -0.925216954588763 -0.5048814480165117
0.1729914 -0.9227591236734337 -0.5106189094699949
0.1749913 -0.9199833680272574 -0.5160472052280923
0.1769912 -0.9178110408544792 -0.5213266152334226
0.1789911 -0.9139498320631025 -0.5277567761187566
0.180991 -0.9112629461240996 -0.5338769894555874
0.1829909 -0.907673761932861 -0.5403272426841751
0.1849908 -0.9044599704899173 -0.5439492531771655
0.1869907 -0.9005798491830003 -0.5500332560274329
0.1889906 -0.8987274380662266 -0.5568535973293653
0.1909905 -0.8952350569516718 -0.5619407025405682
0.1929904 -0.8917428325395168 -0.56720198627244
0.1949903 -0.8885454955172611 -0.5724820552839947
0.1969902 -0.8861168281286094 -0.5777944995174333
0.1989901 -0.8823472674557145 -0.5828558462861335
0.20099 -0.8791510250334142 -0.5888992070675941
0.2029899 -0.8756879768231699 -0.5930706198135678
0.2049898 -0.8718758388002983 -0.5999357815861449
0.2069897 -0.8687899847384375 -0.6056066156136756
0.2089896 -0.8652184216257465 -0.6098981222226688
0.2109895 -0.862007254924809 -0.6156842308156867
0.2129894 -0.8581569289493338 -0.620981765145677
0.2149893 -0.8549110020915907 -0.6268327323252407
0.2169892 -0.8510678163158673 -0.6326142140523161
0.2189891 -0.8473603970870519 -0.6370538194641405
0.220989 -0.8436259287536284 -0.6427075092404811
0.2229889 -0.8405903213060265 -0.6481826344118634
0.2249888 -0.836123847036075 -0.6521199018959054
0.2269887 -0.8331287461595454 -0.6582022774117312
0.2289886 -0.8296233644288422 -0.6634873336210384
0.2309885 -0.825481822732309 -0.6684385652996501
0.2329884 -0.8217064202548235 -0.673354039266585
0.2349883 -0.8178609803003091 -0.6785723689074632
0.2369882 -0.81357194202627 -0.6837771950091864
0.2389881 -0.8096607430320191 -0.6887258417380638
0.240988 -0.8051327625768949 -0.6935540607341445
0.2429879 -0.8017672071685606 -0.6984727153036598
0.2449878 -0.7974731557005884 -0.7035151684620748
0.2469877 -0.7944817454394519 -0.7088552570683717
0.2489876 -0.7896714869342473 -0.7143617109938609
0.2509875 -0.7858976545547314 -0.7186827602181777
0.2529874 -0.7818804429628738 -0.7234435089161628
0.2549873 -0.7775471137061929 -0.7284174960153205
0.2569872 -0.773287124064243 -0.7337282398626533
0.2589871 -0.7679045602860632 -0.7377107622327189
0.260987 -0.7640546019495558 -0.7436195807348431
0.2629869 -0.7608298730865823 -0.7481852603564261
0.2649868 -0.7563859499217709 -0.7529257117038959
0.2669867 -0.7520095328211629 -0.757232716821777
0.2689866 -0.7473209640010179 -0.7619275073757344
0.2709865 -0.7433492200408746 -0.7667647286100828
0.2729864 -0.7387509048285804 -0.7703189132277246
0.2749863 -0.7345578395848871 -0.7746606956305003
0.2769862 -0.7298880137989979 -0.7807489393513976
0.2789861 -0.7252324361282769 -0.7851448877135496
0.280986 -0.720687556786617 -0.7897265637002685
0.2829859 -0.7162835434992273 -0.7943673867972301
0.2849858 -0.7119975680651978 -0.7987373897643623
0.2869857 -0.7067436824083841 -0.8025041643591092
0.2889856 -0.7024531811310021 -0.8072334502336938
0.2909855 -0.6983303518912709 -0.8121795397737173
0.2929854 -0.6927722441631646 -0.8161961229990079
0.2949853 -0.687617049354679 -0.8202874328580939
0.2969852 -0.6834595438346238 -0.8248214828544813
0.2989851 -0.6786818112634895 -0.82938496093744
0.300985 -0.674679211206161 -0.8349696224993206
0.3029849 -0.6689620317246578 -0.8376684103336689
0.3049848 -0.664043629149353 -0.8416427355797835
0.3069847 -0.6595082995814314 -0.8463999398432469
0.3089846 -0.654509989304886 -0.8504300395151337
0.3109845 -0.6487306747358693 -0.8552991303129387
0.3129844 -0.6445446961205624 -0.8589477466570109
0.3149843 -0.6397457844244551 -0.8630606102985379
0.3169842 -0.6339105372524142 -0.8659729600114826
0.3189841 -0.630413977552422 -0.8714078834694634
0.320984 -0.6249264803906448 -0.8755379140632259
0.3229839 -0.6192182677225114 -0.8788481915531642
0.3249838 -0.6135904976263649 -0.8832087052829936
0.3269837 -0.6081665620617102 -0.8864503959963701
0.3289836 -0.60380782314491 -0.8906692032100751
0.3309835 -0.5982341202699725 -0.8945060490723986
0.3329834 -0.5935871206590565 -0.8984051633447534
0.3349833 -0.5885392121170633 -0.9028200843927261
0.3369832 -0.5841644091705982 -0.9059885557026702
0.3389831 -0.5783528575223637 -0.9099326321110779
0.340983 -0.5724896318434944 -0.9131530130600221
0.3429829 -0.5670964452582978 -0.9171672853027789
0.3449828 -0.5619162994053003 -0.9209246139318895
0.3469827 -0.5563718956448662 -0.9244882711398235
0.3489826 -0.551136920789831 -0.9278723594283592
0.3509825 -0.5453248076359012 -0.931360866045639
0.3529824 -0.5401214383738946 -0.9349217034502121
0.3549823 -0.5340289955399863 -0.9373291110487916
0.3569822 -0.5284342906012061 -0.9418652450091197
0.3589821 -0.5242036925715206 -0.9454303805376448
0.360982 -0.5192100440390767 -0.9486373379590319
0.3629819 -0.5124460086723739 -0.9516528744578832
0.3649818 -0.5075606601369967 -0.9558173190139957
0.3669817 -0.5023170019002626 -0.9592289859617839
0.3689816 -0.49587869715101474 -0.9623541780538626
0.3709815 -0.49013259378874496 -0.965510512263837
0.3729814 -0.4848721030142007 -0.9691045110964833
0.3749813 -0.47889093572592034 -0.9715397837193961
0.3769812 -0.47279503610813045 -0.9749252921939305
0.3789811 -0.4670140947763495 -0.9781556693203686
0.380981 -0.46184892009115996 -0.981429298741371
0.3829809 -0.45659349074930466 -0.9846133093496192
0.3849808 -0.45001120645858883 -0.9874428950161201
0.3869807 -0.4447475384572878 -0.9896476248877469
0.3889806 -0.43781546650285724 -0.9925803573075723
0.3909805 -0.43214092933127124 -0.9952648571303158
0.3929804 -0.426472959557066 -0.9978773858871008
0.3949803 -0.42059093842419143 -1.0011998563820674
0.3969802 -0.4152063333014528 -1.0045137147230287
0.3989801 -0.40922339629241183 -1.0061621283126128
0.40098 -0.4021389404588952 -1.0105959610557544
0.4029799 -0.39738348317810884 -1.0126528174647826
0.4049798 -0.39057526843480783 -1.0156647360636541
0.4069797 -0.38484586197689086 -1.0173648598479874
0.4089796 -0.37817850065246766 -1.0202628487820364
0.4109795 -0.37308348391845286 -1.0235070009611937
0.4129794 -0.3665103861620488 -1.0260975805435428
0.4149793 -0.3610797167615602 -1.0282974660910835
0.4169792 -0.354315182024247 -1.0297936756519657
0.4189791 -0.3478763319492295 -1.0325176163463488
0.420979 -0.3424094023572725 -1.0346399012160932
0.4229789 -0.33666456239958714 -1.0375456224170916
0.4249788 -0.32996405766632436 -1.0404234591785142
0.4269787 -0.3240023424421409 -1.042465209161438
0.4289786 -0.3168379568879563 -1.0449428757890027
0.4309785 -0.31089231385360544 -1.0468415955768682
0.4329784 -0.30539927783658183 -1.0489248362309826
0.4349783 -0.2986781913617599 -1.0511027782943414
0.4369782 -0.2924989504943591 -1.0523390130395558
0.4389781 -0.2865025478984163 -1.0550215709591722
0.440978 -0.27931578598848106 -1.0566069596863097
0.4429779 -0.2734784002584513 -1.0579067346848026
0.4449778 -0.26665920237902 -1.0603585725530689
0.4469777 -0.26060743344706055 -1.0624071423635542
0.4489776 -0.2533056308959224 -1.0641941420039125
0.4509775 -0.24830593595094821 -1.0668235304078586
0.4529774 -0.2414086751343074 -1.0688831250433835
0.4549773 -0.2344428718278447 -1.0695198143279976
0.4569772 -0.22856339906119616 -1.0715367235486173
0.4589771 -0.22283511557878283 -1.0727519506456817
0.460977 -0.21499973217697615 -1.074476032202596
0.4629769 -0.20922010628491847 -1.0761748292565259
0.4649768 -0.20282628322339258 -1.0776108653333083
0.4669767 -0.19585004230072162 -1.079636995989702
0.4689766 -0.18959740181995552 -1.080647409478836
0.4709765 -0.1838386308253108 -1.0831625287219446
0.4729764 -0.1761099558473297 -1.0838742735096891
0.4749763 -0.1702370951893888 -1.0853697631750707
0.4769762 -0.16323357253708484 -1.0868206169656731
0.4789761 -0.15705595422276963 -1.0884576695499497
0.480976 -0.1506363943031538 -1.088649662941992
0.4829759 -0.1442033039841558 -1.0894589057304969
0.4849758 -0.13690702518899717 -1.0902423675854767
0.4869757 -0.1302684739127396 -1.0921531632669363
0.4889756 -0.12346311799073664 -1.092700151183636
0.4909755 -0.11750380429934038 -1.0942902771658571
0.4929754 -0.11084810842127521 -1.0948216125233716
0.4949753 -0.10376894726201545 -1.095615917252536
0.4969752 -0.09723758841816098 -1.0973938034509496
0.4989751 -0.09080782076452346 -1.0985378949235525
0.500975 -0.08396350132690318 -1.0995965947648991
0.5029749 -0.0772097676508059 -1.0996719907476733
0.5049748 -0.06990291708177565 -1.1005000385020371
0.5069747 -0.06308918057466799 -1.102034407471513
0.5089746 -0.056501819270447645 -1.1027785663016172
0.5109745 -0.04983178254465808 -1.1024416992505144
0.5129744 -0.04343871815167941 -1.103610876170545
0.5149743 -0.03693319636706133 -1.1043471962280833
0.5169742 -0.02986391200256386 -1.103442622894069
0.5189741 -0.023200174686105426 -1.104167535617458
0.520974 -0.015731001272580737 -1.104078063580275
0.5229739 -0.009569849637948102 -1.1047766790512248
0.5249738 -0.002913826571571826 -1.1054070852666316
0.5269737 0.004221898490841099 -1.1051856528468003
0.5289736 0.010892871364968401 -1.1060312183937255
0.5309735 0.017611326005788422 -1.1062813134791813
0.5329734 0.02495064419340208 -1.1060048387247154
0.5349733 0.031224508019026515 -1.1068022565094917
0.5369732 0.0383398253272622 -1.1063146416922962
0.5389731 0.04480269625312798 -1.1061725541222849
0.540973 0.0523766784599481 -1.106435108820817
0.5429729 0.05853485144084562 -1.1071337861063364
0.5449728 0.06551137671411951 -1.1064788174501516
0.5469727 0.07204855926900205 -1.1063870065125934
0.5489726 0.07996712305803078 -1.1052209926610457
0.5509725 0.08583936953280182 -1.1056671740119155
0.5529724 0.09309682387466996 -1.1046256281073454
0.5549723 0.1000750161747272 -1.104416146566948
0.5569722 0.10634339584273005 -1.1043226906157757
0.5589721 0.11327711497285138 -1.103866162825349
0.560972 0.12037139426697503 -1.1032829118189045
0.5629719 0.12729483107276343 -1.102680627366884
0.5649718 0.13442493152393498 -1.1021962607555713
0.5669717 0.14079261925042735 -1.1013699056456516
0.5689716 0.14820244639789226 -1.1012870168040947
0.5709715 0.15514593027958712 -1.1003550113779432
0.5729714 0.16176028290604527 -1.0994109505200833
0.5749713 0.16854022654052386 -1.099127215998529
0.5769712 0.17657748720370048 -1.0978155706966517
0.5789711 0.1830887626731409 -1.097539834543144
0.580971 0.18932800653185705 -1.0965141735598152
0.5829709 0.19584270479384688 -1.0951086069724465
0.5849708 0.20342682163156184 -1.0938507172621499
0.5869707 0.2093970140134323 -1.0931563378186229
0.5889706 0.2179096417857861 -1.0914074344677722
0.5909705 0.22325735653991668 -1.0909525740543535
0.5929704 0.23027795471147458 -1.089839430942235
0.5949703 0.23703899973072876 -1.0879279505005122
0.5969702 0.24440928571874204 -1.0874047522711738
0.5989701 0.2513770209723857 -1.0852708766429129
0.60097 0.2577751869327861 -1.0846365088570822
0.6029699 0.2650122304130471 -1.0834919292088303
0.6049698 0.2721319169039266 -1.081706658801623
0.6069697 0.279230306299041 -1.080577784739314
0.6089696 0.28557379267108274 -1.0788835484549315
0.6109695 0.29258559506849147 -1.077324620646257
0.6129694 0.2988287893893269 -1.0752786708718896
0.6149693 0.30574068456143944 -1.0738135519443912
0.6169692 0.312812913036267 -1.0722472154882652
0.6189691 0.3197049842132683 -1.069812070875109
0.620969 0.3256065536613919 -1.0681744342364707
0.6229689 0.33312931290203235 -1.0666553186707526
0.6249688 0.3395787837663343 -1.0644186912617333
0.6269687 0.346355833076372 -1.0623855541967466
0.6289686 0.3536093425959416 -1.0603546893050395
0.6309685 0.35994270149609653 -1.0579255357044246
0.6329684 0.3670581545343477 -1.0560720534143504
0.6349683 0.3737411128063516 -1.054197745678569
0.6369682 0.38029753497190305 -1.0524701178872105
0.6389681 0.38672890787087083 -1.0496145187238137
0.640968 0.39434589783569873 -1.0480349658802706
0.6429679 0.4005706911045598 -1.046186099053071
0.6449678 0.40796966493632586 -1.0422914903858922
0.6469677 0.4141592776529365 -1.0401843831601514
0.6489676 0.42056835982937746 -1.038068426564362
0.6509675 0.4273943944634684 -1.0350388059359101
0.6529674 0.4333400909221051 -1.0324826049367308
0.6549673 0.440002642703636 -1.0296431070898324
0.6569672 0.44679176416967803 -1.0270382648821144
0.6589671 0.4538909573330125 -1.0243975853637062
0.660967 0.4603714131151747 -1.0214589852490423
0.6629669 0.4676794930711376 -1.0187133710645273
0.6649668 0.4733340277943608 -1.01608929294683
0.6669667 0.4798276909531345 -1.0130557500685298
0.6689666 0.48584672240153 -1.0099203039983042
0.6709665 0.49309694626614753 -1.0075465136930164
0.6729664 0.49961028439011457 -1.004605641356802
0.6749663 0.5060051195506077 -1.0023291762686712
0.6769662 0.513205145092924 -0.99860892953015
0.6789661 0.5196028952375416 -0.9949566325197002
0.680966 0.5252195556546074 -0.992187654229047
0.6829659 0.5321653778849512 -0.9883856034643876
0.6849658 0.539127250809194 -0.9858674041866642
0.6869657 0.5452832184199888 -0.9817669918841258
0.6889656 0.551058635638187 -0.9786766313455614
0.6909655 0.557600987526018 -0.9753078848999099
0.6929654 0.5641807856835411 -0.9717366456945329
0.6949653 0.5702880776967034 -0.9680814592214938
0.6969652 0.5765308816722965 -0.9643603103931278
0.6989651 0.5827565798575381 -0.9605385428602993
0.700965 0.5892873701674355 -0.956739068785307
0.7029649 0.5947640653576999 -0.9535272789605471
0.7049648 0.6017210615989926 -0.9494119793656297
0.7069647 0.6078163939258865 -0.9459475491194358
0.7089646 0.6138026376978178 -0.9417079179112822
0.7109645 0.6200287363474501 -0.9381107525612267
0.7129644 0.6258934713184714 -0.9341963102993855
0.7149643 0.6326297637078548 -0.9303056497975356
0.7169642 0.6379811105877892 -0.9260645511671963
0.7189641 0.6441454853968507 -0.9221632791291908
0.720964 0.6504186210858777 -0.9176640710046235
0.7229639 0.655649049746802 -0.913881149141071
0.7249638 0.6623078352425634 -0.910080809991541
0.7269637 0.668593113671553 -0.9055311755620207
0.7289636 0.6742558053123973 -0.9018702549861831
0.7309635 0.6805386452978238 -0.8965258959312037
0.7329634 0.6864564480589465 -0.8924103196850397
0.7349633 0.6917654124074404 -0.8882658623328902
0.7369632 0.6975120523890819 -0.8836773308575904
0.7389631 0.7034449887134417 -0.8789052167922817
0.740963 0.7092951370333292 -0.8744010355569319
0.7429629 0.714678488006502 -0.8695400276884387
0.7449628 0.7210044467202953 -0.8656742860096317
0.7469627 0.7257962616706749 -0.8605950690208549
0.7489626 0.7316925468233142 -0.8559636328781696
0.7509625 0.73792467646673 -0.8516702135031257
0.7529624 0.742899279260171 -0.8462432822407036
0.7549623 0.7491223134514051 -0.8417095964465713
0.7569622 0.7541617216592776 -0.8369088033199086
0.7589621 0.7598919896957415 -0.8323551364308314
0.760962 0.7660731042771538 -0.8272282148175917
0.7629619 0.7715773464580882 -0.82248879974801
0.7649618 0.7768118214427396 -0.8173360481809692
0.7669617 0.7818861582803224 -0.8124795326043301
0.7689616 0.7877548447713634 -0.8073158540017047
0.7709615 0.7931170786780942 -0.8019870639852708
0.7729614 0.7979786322214711 -0.7966468229538223
0.7749613 0.8033940855850854 -0.7911657209271686
0.7769612 0.808856498884097 -0.7859576676536737
0.7789611 0.8138457719842083 -0.780619651821129
0.780961 0.8188922619750345 -0.7756982412643957
0.7829609 0.8239572041476637 -0.7698770996202994
0.7849608 0.8292273824069596 -0.7647382489221107
0.7869607 0.8339097836627981 -0.7588864907302997
0.7889606 0.8393150024254821 -0.7533763715623919
0.7909605 0.8435080107500741 -0.747729849085908
0.7929604 0.848883910437554 -0.7422304656445753
0.7949603 0.8540708947251827 -0.7368833487739394
0.7969602 0.8584309323348323 -0.7308881982132429
0.7989601 0.863528802769716 -0.7256655317139149
