! Created with skrf 1.8.0 (http://scikit-rf.org).
# GHz S RI R 50.0 
!freq ReS11 ImS11
0.001 4.144131696429141 -0.88143174750053
0.0029999 1.8736928329005142 0.7406334478733833
0.0049998 1.3687295079353732 0.5407984648844414
0.0069997 1.228706308752721 0.40790351919744594
0.0089996 1.15658035121271 0.33364690922339
0.0109995 1.114272968392548 0.2923544464880624
0.0129994 1.0886858886272122 0.25969456293150384
0.0149993 1.0714220435633055 0.2416246855766413
0.0169992 1.062271377790438 0.2281530136514654
0.0189991 1.054085909363831 0.2208640924150927
0.020999 1.0475355668479094 0.21139388709759688
0.0229989 1.043713904222789 0.20729105919131285
0.0249988 1.0418492863664557 0.2060374672946493
0.0269987 1.035800147350892 0.20437616177150275
0.0289986 1.0332725597321175 0.2040448996520059
0.0309985 1.0306574594343374 0.20495503325958048
0.0329984 1.0307434519339864 0.20643058722837604
0.0349983 1.0268932342333539 0.207636972561192
0.0369982 1.0253825767763234 0.2104677301733907
0.0389981 1.0240921065812933 0.21330248517485345
0.040998 1.0206199789666197 0.21632512570369944
0.0429979 1.0194952272229667 0.22123672107186806
0.0449978 1.0187111065800152 0.22314339404157774
0.0469977 1.016118080050363 0.2287601150753711
0.0489976 1.0155019947639103 0.23270695048002
0.0509975 1.0132329851929487 0.23805330374436356
0.0529974 1.0132814261680385 0.2429211157775118
0.0549973 1.0100849782119508 0.24780545048541533
0.0569972 1.0081133983763073 0.2529943785929192
0.0589971 1.0060111601208652 0.25900371780534487
0.060997 1.0061968380798625 0.2640259041807409
0.0629969 1.0028262757869641 0.2700896759848114
0.0649968 1.001268264416929 0.2745025849558465
0.0669967 1.000410870356322 0.27966872336164883
0.0689966 0.9983002244179785 0.2855037162665346
0.0709965 0.9963076049331864 0.29197111735922315
0.0729964 0.9941954219951675 0.2969657406178569
0.0749963 0.9926222827863134 0.3027998310897443
0.0769962 0.9904150618841469 0.3088594638327803
0.0789961 0.988556649987779 0.31446483016543686
0.080996 0.9854248245714937 0.32049028308670374
0.0829959 0.9849808372436964 0.3269762685813069
0.0849958 0.981419050153769 0.3326587486396393
0.0869957 0.9799387508457592 0.33838746828882166
0.0889956 0.9772502994413297 0.34516419288388867
0.0909955 0.9751163565268577 0.3508233931206839
0.0929954 0.9727660649864337 0.35607563233448364
0.0949953 0.9702546728081962 0.3640490421436686
0.0969952 0.9679370100114569 0.368283233142798
0.0989951 0.9673193002666658 0.3755779874712322
0.100995 0.9625575000303382 0.38150423454228133
0.1029949 0.9605814523744927 0.38684903053057573
0.1049948 0.958697683094477 0.3931777093761822
0.1069947 0.9555127004998983 0.39891304268007133
0.1089946 0.9525792697599142 0.4052433814620017
0.1109945 0.9501518580653621 0.411225958414591
0.1129944 0.9473340750358236 0.4179268418997589
0.1149943 0.9446454826794777 0.4235960545948369
0.1169942 0.9406659440177646 0.4298611090122255
0.1189941 0.9399260967069045 0.43552323723243286
0.120994 0.9372506617804843 0.441949166231826
0.1229939 0.9327754390721403 0.44786137678682064
0.1249938 0.9304416499916536 0.45447551073452297
0.1269937 0.9269543703080138 0.4605872309606177
0.1289936 0.9240555585351797 0.46635584110465583
0.1309935 0.9206848986972807 0.4710910291119009
0.1329934 0.9167005787731516 0.47745951587223445
0.1349933 0.9141996212498015 0.4840791899777322
0.1369932 0.9113608931705601 0.48984362634295864
0.1389931 0.907921238411249 0.4952857957461568
0.140993 0.903749229070802 0.5025383489957345
0.1429929 0.901060629653842 0.5085958241306383
0.1449928 0.8976168032946905 0.5139085827144492
0.1469927 0.8940414637475317 0.5192211174142596
0.1489926 0.8896711676605027 0.5255635604725281
0.1509925 0.8877863930825635 0.5321370831875191
0.1529924 0.88282703639148 0.5365918305682204
0.1549923 0.8790436810740989 0.5434017927803485
0.1569922 0.87555448812742 0.5485315664630238
0.1589921 0.8730073641053387 0.5556599824034464
0.160992 0.867749224276692 0.559920054772495
0.1629919 0.864572026309936 0.565681254871669
0.1649918 0.8610078357087211 0.5717441525216178
0.1669917 0.8567804685491576 0.5768208982428259
0.1689916 0.852551967493887 0.582901950163513
0.1709915 0.8491794640453353 0.5885136132081304
0.1729914 0.8446300162225051 0.5941174188369323
0.1749913 0.8406522288679 0.6001781937979177
0.1769912 0.8356429647652531 0.6056177450269418
0.1789911 0.8325453114303389 0.6109931701019511
0.180991 0.8278988025429268 0.616104573336553
0.1829909 0.8243701346141746 0.6205668988736602
0.1849908 0.8199653771545252 0.6281534340549505
0.1869907 0.8162483783241357 0.6332824567468449
0.1889906 0.8110575528418236 0.637388451135666
0.1909905 0.8069218290518465 0.6434116721638279
0.1929904 0.8028499285853612 0.6490551378443173
0.1949903 0.7985400897006378 0.6541590746065806
0.1969902 0.7933282237765469 0.6591453057882455
0.1989901 0.7891814604229215 0.6649785583264527
0.20099 0.7845288170956105 0.6697841135197415
0.2029899 0.7793836721559048 0.6763472203884092
0.2049898 0.7755762941011797 0.68019745345708
0.2069897 0.7706591203258688 0.6849644814319936
0.2089896 0.7661618759051415 0.691235791336246
0.2109895 0.7613067776655902 0.6961136393034951
0.2129894 0.7564828883017004 0.7010328961125453
0.2149893 0.7516805422573732 0.7057952583029715
0.2169892 0.7467155030138529 0.7102870753203114
0.2189891 0.7415772130783024 0.7162842984850755
0.220989 0.7368769097479648 0.7207516629433962
0.2229889 0.731628189833918 0.7255147467006419
0.2249888 0.727304074591189 0.731417352852673
0.2269887 0.7216544176769086 0.7353071801853011
0.2289886 0.7165889243258836 0.7398304121034556
0.2309885 0.7118046502435436 0.7445797597119027
0.2329884 0.706187765450255 0.7496815443475597
0.2349883 0.7017360076205286 0.7541930091055725
0.2369882 0.6961739544254038 0.7593274968579207
0.2389881 0.691212932224888 0.7636334330081955
0.240988 0.6865020683263453 0.7687115358157007
0.2429879 0.6806264681003723 0.7730570436499868
0.2449878 0.6758166842160331 0.777642061641094
0.2469877 0.669902949126916 0.7816909308258381
0.2489876 0.6646875163175432 0.7858429862366846
0.2509875 0.6594249145488924 0.7904458466822581
0.2529874 0.653661816693541 0.7950974461700471
0.2549873 0.6482833674543609 0.7989275027500548
0.2569872 0.6433998801419958 0.8028725603614737
0.2589871 0.6381810311871321 0.8083339564358586
0.260987 0.6326303986782724 0.8114120187976879
0.2629869 0.626024175313354 0.8156654163009764
0.2649868 0.6208556229872383 0.8197016468465478
0.2669867 0.615177613036694 0.8241511676110749
0.2689866 0.6099390997142383 0.8285693480551723
0.2709865 0.6040848593992622 0.8321695856149762
0.2729864 0.59829165861426 0.8370347567575063
0.2749863 0.5923845301551354 0.8410444969728389
0.2769862 0.5867582924207098 0.8440512195310399
0.2789861 0.5811126609945327 0.8481337858689262
0.280986 0.5751892548760216 0.8518348670416891
0.2829859 0.5693642026200209 0.8556647929313439
0.2849858 0.5630891096520535 0.859156831362244
0.2869857 0.5577701910129897 0.8637730242186459
0.2889856 0.5518050124221068 0.8670321155839951
0.2909855 0.5455404196137663 0.8702306009501543
0.2929854 0.5399806941470494 0.8741926542837551
0.2949853 0.5343845729521544 0.8785033795348627
0.2969852 0.5277810674281701 0.8813580721587988
0.2989851 0.5216639349957464 0.8840497585262592
0.300985 0.5157542459589398 0.8871042887385204
0.3029849 0.5100526963796623 0.8915103332344191
0.3049848 0.5040944167162671 0.8951662258078388
0.3069847 0.49794083222936075 0.8982865943315003
0.3089846 0.49186871720422587 0.9012665480438316
0.3109845 0.48611190478537974 0.9042607170544522
0.3129844 0.4792042717508127 0.907665792043779
0.3149843 0.4734246949463755 0.9106382984082729
0.3169842 0.46799613754932257 0.9147226521859133
0.3189841 0.46004729403924083 0.9164595537961133
0.320984 0.45481413680120986 0.9190528923092188
0.3229839 0.4481392015505251 0.9229522802975917
0.3249838 0.44304767503178527 0.9257029421212883
0.3269837 0.43666748890895557 0.9294236696845177
0.3289836 0.4299474560900684 0.9314320097565636
0.3309835 0.4238334561560788 0.9347441752341771
0.3329834 0.4170924082110001 0.9372187648384291
0.3349833 0.4107631868449746 0.9392227327642502
0.3369832 0.4033525439627543 0.9419961419040074
0.3389831 0.3976174851718689 0.9449036573668581
0.340983 0.39160729815974704 0.9478895803951657
0.3429829 0.3848611831042032 0.9497728795245123
0.3449828 0.3784567296810013 0.9526925819213247
0.3469827 0.37248150152657633 0.9550220024859606
0.3489826 0.36551858534336 0.9573943865958501
0.3509825 0.3594351376866452 0.9595104456178092
0.3529824 0.3527578024832636 0.9620378817892834
0.3549823 0.3465036014405023 0.9651742074584231
0.3569822 0.3400995726688285 0.9670649773973787
0.3589821 0.33261677462841377 0.969115923852802
0.360982 0.32565858982175017 0.9711954450230394
0.3629819 0.3201310233772857 0.9739535932805811
0.3649818 0.3134775870449943 0.9753872348711733
0.3669817 0.3065480549374947 0.9771935584807009
0.3689816 0.30032412579563816 0.9797027691557549
0.3709815 0.29392977910153306 0.9812085961047969
0.3729814 0.28688867105364346 0.9827643822978087
0.3749813 0.28034084654288915 0.9850718330432463
0.3769812 0.2741386537030892 0.9867798074818315
0.3789811 0.2672356969363149 0.9883826600842888
0.380981 0.2603029845198669 0.989339813787474
0.3829809 0.2535393741395006 0.9909816514152333
0.3849808 0.24730633948454944 0.9928364437912526
0.3869807 0.2398429193968705 0.9946076282588833
0.3889806 0.23442608348091107 0.9967461560847369
0.3909805 0.22741968808690036 0.9981620223328334
0.3929804 0.2207040724063141 0.9999900864378689
0.3949803 0.21415078544673127 1.0009228566825825
0.3969802 0.20680214678198683 1.0019208522077656
0.3989801 0.20006375905002277 1.004517777829887
0.40098 0.1941724070796393 1.0045470364978504
0.4029799 0.18691546796594305 1.0057439636422703
0.4049798 0.1806700382439305 1.0066530613657356
0.4069797 0.17351771610940078 1.008470288525545
0.4089796 0.16759509966723926 1.00947499627597
0.4109795 0.16032859189248422 1.009807370214022
0.4129794 0.15326759423663094 1.0110515378763663
0.4149793 0.146242879516551 1.0118549557792487
0.4169792 0.13989114165920918 1.0135925333667897
0.4189791 0.1331786525801441 1.0142721550191378
0.420979 0.12635503595920056 1.0153795986328296
0.4229789 0.11891303686374889 1.0156585900136885
0.4249788 0.1128568889670771 1.0157979384898324
0.4269787 0.10594655240253593 1.0165475502594892
0.4289786 0.09993946916319311 1.0170379961204397
0.4309785 0.09291729440545414 1.0176931802831104
0.4329784 0.08548284903057504 1.0185708859755762
0.4349783 0.07898203820426272 1.019015253754374
0.4369782 0.07227714620197284 1.020274720198978
0.4389781 0.06543377580925025 1.0200051791931959
0.440978 0.05892184486240094 1.020632530041363
0.4429779 0.05219119129415565 1.021346875177985
0.4449778 0.045297656798190374 1.0212096020881902
0.4469777 0.03863927657543544 1.0216862575172247
0.4489776 0.03232309321544123 1.0219622965925554
0.4509775 0.02466068173749149 1.0214606209556225
0.4529774 0.018114141093517014 1.0213875500045846
0.4549773 0.011963627361868942 1.021740497816664
0.4569772 0.004707600333443737 1.0220263943341876
0.4589771 -0.0024515933505533175 1.0220606444941538
0.460977 -0.008480960456697807 1.021988145977148
0.4629769 -0.015786099806309906 1.022026765985412
0.4649768 -0.022353938170637445 1.0219779400677573
0.4669767 -0.028848713087087134 1.0216538391567664
0.4689766 -0.03577050086696985 1.0213083736624642
0.4709765 -0.04242868519187266 1.0208702578000979
0.4729764 -0.04845902146118579 1.0207925297913
0.4749763 -0.05573229330501767 1.0198764265203804
0.4769762 -0.062398002678052 1.019570784267412
0.4789761 -0.06910053231873642 1.0189268126406386
0.480976 -0.07590940415408362 1.0187647218490186
0.4829759 -0.0830189819973638 1.0184698179377916
0.4849758 -0.089545527427004 1.0182778858037034
0.4869757 -0.09592025871331693 1.017000808678654
0.4889756 -0.10279395077978015 1.0169633476199917
0.4909755 -0.10982488942236276 1.0158367324872613
0.4929754 -0.11666739176946636 1.015199530010562
0.4949753 -0.12280402953529984 1.0146195644478686
0.4969752 -0.1298846294721549 1.0134289903586802
0.4989751 -0.13605932817619956 1.0123130420883018
0.500975 -0.1423595507033983 1.0114862831932376
0.5029749 -0.14932010991549352 1.0107360107442338
0.5049748 -0.15553420124377715 1.0103776998046161
0.5069747 -0.16223130754596143 1.0085817606442886
0.5089746 -0.16852390985870896 1.0074223295421874
0.5109745 -0.17515347467021647 1.0063332380998804
0.5129744 -0.18205100891629 1.0046200285675293
0.5149743 -0.18866453386590712 1.0033926888610505
0.5169742 -0.19502384255418082 1.0026876176917958
0.5189741 -0.2014441608649062 1.0012411620935104
0.520974 -0.20809763758503144 1.0000008833304255
0.5229739 -0.21469168822091717 0.998809159543415
0.5249738 -0.22099531434755715 0.9976138981352612
0.5269737 -0.2276232897072719 0.9962151841649048
0.5289736 -0.23405531663456777 0.9941297386534242
0.5309735 -0.2408500909625716 0.9927368426007821
0.5329734 -0.24683165585587602 0.9916998878084415
0.5349733 -0.25353883294898205 0.9895672409750654
0.5369732 -0.2601757157676782 0.9880248445756322
0.5389731 -0.2663587258006694 0.9863384462128592
0.540973 -0.2725367387400531 0.9843873518571651
0.5429729 -0.27908458424008753 0.9822206274229415
0.5449728 -0.2857912265863493 0.9810286166533521
0.5469727 -0.2918368550313885 0.9791516828958812
0.5489726 -0.29792365332372295 0.977607713089087
0.5509725 -0.3044386342132507 0.9756932563757857
0.5529724 -0.31093658618687336 0.973919176033332
0.5549723 -0.3171302559923078 0.9717278687999866
0.5569722 -0.3237899774799424 0.9697382727221507
0.5589721 -0.3300909330989359 0.9675363185910051
0.560972 -0.33602509152352433 0.9654986539849264
0.5629719 -0.342220786375362 0.9633586212082813
0.5649718 -0.34827210120835816 0.9612696869583797
0.5669717 -0.3547126904274728 0.958983776412291
0.5689716 -0.36080279775310675 0.9568241000031892
0.5709715 -0.36698577740295435 0.954386950141342
0.5729714 -0.3729139723198395 0.9523069880348467
0.5749713 -0.37937588957481566 0.94972122423208
0.5769712 -0.3847415926524002 0.9477222237483902
0.5789711 -0.39124016432718334 0.9444336458681329
0.580971 -0.39724849429205983 0.9420673719647829
0.5829709 -0.4034172011863759 0.9394953968118359
0.5849708 -0.409143401493412 0.9371487847805162
0.5869707 -0.41537625005486517 0.9343234043867639
0.5889706 -0.4209816665392563 0.932065946612455
0.5909705 -0.42736022286011527 0.9294018296182827
0.5929704 -0.433344184379602 0.9266245696771003
0.5949703 -0.4396249363153275 0.9241117371843052
0.5969702 -0.44485374994034255 0.9214157601346556
0.5989701 -0.45140517124070656 0.9184080535164899
0.60097 -0.4571193453288536 0.9155714181827586
0.6029699 -0.46270525609604224 0.9129951917853201
0.6049698 -0.46864399574270815 0.9099807420831608
0.6069697 -0.4743086778600454 0.906585490739147
0.6089696 -0.48033957513773556 0.9038811365322985
0.6109695 -0.4858960272403273 0.9011326480394228
0.6129694 -0.49179905078945463 0.8982612965402311
0.6149693 -0.4974695859253836 0.8945056968518275
0.6169692 -0.503243323272183 0.8909156026599457
0.6189691 -0.5087367547444968 0.8884416477748401
0.620969 -0.5144639083023872 0.885383825931664
0.6229689 -0.5201441264533888 0.8818952825278847
0.6249688 -0.5256525498317994 0.8787647370830685
0.6269687 -0.5313278359965725 0.8753641943409939
0.6289686 -0.5369891889615143 0.8722076647630308
0.6309685 -0.542752689782062 0.8691496154406623
0.6329684 -0.5477794153584371 0.8655025392483634
0.6349683 -0.5535177696709539 0.8620150145692645
0.6369682 -0.5588853429001227 0.8588611438430617
0.6389681 -0.5644986369842313 0.8555171842177962
0.640968 -0.5699072979378683 0.8513074566405112
0.6429679 -0.575220308293791 0.8481599684968308
0.6449678 -0.5804176329447315 0.8446722746485626
0.6469677 -0.5861737771620816 0.84136114836228
0.6489676 -0.5911150738510069 0.8372106641100574
0.6509675 -0.5968309062537112 0.8342435015095871
0.6529674 -0.602129500963698 0.8298127166174771
0.6549673 -0.6074203281472094 0.8266518681481771
0.6569672 -0.6124036228185498 0.8227520288561613
0.6589671 -0.6176792752161043 0.8187833610405407
0.660967 -0.6232516679465285 0.815098184358284
0.6629669 -0.6277028799110909 0.8115074288583854
0.6649668 -0.6328899070271463 0.8076071934035264
0.6669667 -0.6377877770141489 0.8037971662228914
0.6689666 -0.6435078075465355 0.7996205652007247
0.6709665 -0.6482070932156747 0.795729206534598
0.6729664 -0.6533381033978272 0.7916045702116613
0.6749663 -0.6584187407681725 0.7876805031902219
0.6769662 -0.6633196796281337 0.7837815861887627
0.6789661 -0.6683724871745212 0.7796909027247795
0.680966 -0.6731214599622803 0.7754405515717092
0.6829659 -0.6779927247163514 0.7715587015420348
0.6849658 -0.6828639902516276 0.7673643788376091
0.6869657 -0.6877681040001541 0.7634828484225321
0.6889656 -0.6925633288558044 0.7589122597357666
0.6909655 -0.6973768479753222 0.7548487526963601
0.6929654 -0.7022217628909893 0.7505216755934194
0.6949653 -0.7069475905731628 0.7462503091627988
0.6969652 -0.7117827850487312 0.7421551198244662
0.6989651 -0.716177252660702 0.7379018541653036
0.700965 -0.7211097785056423 0.733384302292398
0.7029649 -0.7256481666331791 0.7288710703126728
0.7049648 -0.7302186706565216 0.7245549532338342
0.7069647 -0.7347696448527276 0.7201715400945927
0.7089646 -0.7392959859385821 0.7158790689867018
0.7109645 -0.7438291558098186 0.7111808521929615
0.7129644 -0.7484062110362182 0.7068088692307317
0.7149643 -0.7529464972217013 0.7022582138056408
0.7169642 -0.7573063212540322 0.6978920478686252
0.7189641 -0.7612377167492048 0.6928293894250731
0.720964 -0.7659339481897454 0.6886290035583307
0.7229639 -0.7702746052263403 0.6838623582041784
0.7249638 -0.7745522264382084 0.6790667451470288
0.7269637 -0.7787695391825692 0.6745908282142816
0.7289636 -0.783093925748149 0.6697067133954502
0.7309635 -0.7873055995474454 0.6652290610125549
0.7329634 -0.7913982506340402 0.6602375399071868
0.7349633 -0.795780188852248 0.6555658447640724
0.7369632 -0.7996640295757185 0.6506654966674378
0.7389631 -0.8040230341306522 0.6460269430071542
0.740963 -0.8080237818694622 0.6412377920006472
0.7429629 -0.8120862619514702 0.6363010091850535
0.7449628 -0.8157874903990359 0.6313599962855881
0.7469627 -0.8197938458219669 0.6266691532442694
0.7489626 -0.8239244731830923 0.6214791762572615
0.7509625 -0.8280115026924281 0.6168719203074597
0.7529624 -0.8315042624149567 0.6115285613551655
0.7549623 -0.8353126581700617 0.6065333990750214
0.7569622 -0.8392432000242566 0.6016469204876325
0.7589621 -0.8430413102323641 0.5964588893291001
0.760962 -0.846659266737752 0.5914703272013255
0.7629619 -0.8507498995311721 0.5864132422875626
0.7649618 -0.8541318271097105 0.5812130145062502
0.7669617 -0.8577026856638535 0.5764918992381449
0.7689616 -0.8614807518846206 0.5712787592992962
0.7709615 -0.8651768053689153 0.5659154951956731
0.7729614 -0.8688012649216115 0.5609195982415858
0.7749613 -0.8719638737332734 0.555729142334394
0.7769612 -0.875590570039479 0.5502571993189446
0.7789611 -0.879255721994953 0.5454068681173967
0.780961 -0.8826066938785617 0.5401446044797229
0.7829609 -0.8861587327994227 0.5349045453261153
0.7849608 -0.8894182385654507 0.5294530325357928
0.7869607 -0.8927277539644332 0.5242264489009468
0.7889606 -0.8962793938529988 0.5188090870754178
0.7909605 -0.8992439677725488 0.5135977961166185
0.7929604 -0.9024209381849765 0.5081231822079164
0.7949603 -0.9056665038160142 0.5027676554814328
0.7969602 -0.909322881941363 0.4973210338397732
0.7989601 -0.9124997805859779 0.4920415929891114
0.80096 -0.914970094149792 0.48632798510995706
0.8029599 -0.9183730169222056 0.4811193833923206
0.8049598 -0.9212933249384603 0.47574340551170635
0.8069597 -0.9242243286377732 0.4700280496905292
0.8089596 -0.9273052796902821 0.46458113883760493
0.8109595 -0.9301763015373647 0.45896171230239424
0.8129594 -0.933191250939682 0.45347808793112054
0.8149593 -0.9359889938683295 0.44779160360129916
0.8169592 -0.9386829104920023 0.4424870145453577
0.8189591 -0.9417944800601106 0.4367277938192404
0.820959 -0.9445917260368633 0.4313504891319106
