! Created with skrf 1.8.0 (http://scikit-rf.org).
# GHz S RI R 50.0 
!freq ReS11 ImS11
0.001 -0.9977539955592702 0.009697151097454837
0.0029999 -0.9892670121062863 0.02794349639350291
0.0049998 -0.973991443886702 0.04525896001720481
0.0069997 -0.9527202381905523 0.06047875769213218
0.0089996 -0.926832974919753 0.07514233252899316
0.0109995 -0.8967838666334328 0.08867245732093176
0.0129994 -0.8634158873294415 0.10026477554619484
0.0149993 -0.8280407446571314 0.11101523994309115
0.0169992 -0.7921930686468643 0.12082666869217579
0.0189991 -0.75528639868588 0.12865898301082573
0.020999 -0.716823049965447 0.13457002406701904
0.0229989 -0.6801540834808462 0.13987011128813676
0.0249988 -0.6470051473544319 0.14333014053325027
0.0269987 -0.6103792622987155 0.1452636851164869
0.0289986 -0.5766204782416989 0.1478398586869386
0.0309985 -0.5460242653508482 0.15033341755259494
0.0329984 -0.5183629339360177 0.14929006388896893
0.0349983 -0.48711752286269766 0.14954007600136687
0.0369982 -0.46203576690274717 0.14995366207940158
0.0389981 -0.4369961854130565 0.1497288232945288
0.040998 -0.41304136023004234 0.1474907910506528
0.0429979 -0.38917361325658933 0.1474677230888087
0.0449978 -0.3700200701392764 0.14319707480398772
0.0469977 -0.3534174523352536 0.14449857153916204
0.0489976 -0.33301469332137484 0.14212425448617266
0.0509975 -0.31716665417997053 0.1406473899751161
0.0529974 -0.3044065663507025 0.13836427687881347
0.0549973 -0.2878481652918244 0.13573265584157576
0.0569972 -0.27498464230795283 0.13561334222724758
0.0589971 -0.26255707442946236 0.1327520390950221
0.060997 -0.25176186461081596 0.13105245188226813
0.0629969 -0.2406846612203585 0.12856540258446614
0.0649968 -0.2283512276317975 0.12603452034566745
0.0669967 -0.21884679851450772 0.12418343572951218
0.0689966 -0.2108742744964798 0.12265284357339619
0.0709965 -0.2018193402560344 0.12055376140804337
0.0729964 -0.19338045346244204 0.11867209950134174
0.0749963 -0.18703298095417387 0.11734162081132844
0.0769962 -0.18147581404723848 0.11474673681671183
0.0789961 -0.17352791989169358 0.11388721033586545
0.080996 -0.1681442487911686 0.11184929992343733
0.0829959 -0.16197725278249675 0.11082946308070271
0.0849958 -0.15761345722648523 0.10915153727251192
0.0869957 -0.15101625215447637 0.10787565163771018
0.0889956 -0.14667727942516062 0.10487960089377141
0.0909955 -0.14246066460150153 0.10439150614001431
0.0929954 -0.1369457828723117 0.10377241188297898
0.0949953 -0.13448297933696984 0.10250338964048605
0.0969952 -0.13099214829693356 0.1003784778185412
0.0989951 -0.12769097130224336 0.09950534203580468
0.100995 -0.12305881378288008 0.09918601904508716
0.1029949 -0.11903845995761268 0.09736532555947897
0.1049948 -0.11779758919677258 0.09514449789532098
0.1069947 -0.11437950918119828 0.09454042916353826
0.1089946 -0.11202614960017586 0.09250903515353184
0.1109945 -0.1095891329517172 0.09181639414601134
0.1129944 -0.10687380080621887 0.09107930604385815
0.1149943 -0.10381582054945385 0.08982786191458461
0.1169942 -0.10208440811684946 0.08814662341630608
0.1189941 -0.09883172753588723 0.08755116311706757
0.120994 -0.09701339479664026 0.08664419365088519
0.1229939 -0.0950054639032068 0.08567670337194724
0.1249938 -0.0924359620252443 0.08413767526448732
0.1269937 -0.09178668315724822 0.08378249662913083
0.1289936 -0.08902882757680333 0.08257441583254199
0.1309935 -0.08757897919246915 0.08259864022612771
0.1329934 -0.08644873677021747 0.07999895444581015
0.1349933 -0.08427163547950936 0.07981277407397594
0.1369932 -0.08325666086235989 0.07901132536373302
0.1389931 -0.08054545502904084 0.07841103722325062
0.140993 -0.07990227770277611 0.07717459376690772
0.1429929 -0.07807629913323572 0.07629482109004401
0.1449928 -0.07654572545970542 0.0771197768478255
0.1469927 -0.07633456950406688 0.07602320896761448
0.1489926 -0.07574739134367361 0.07485688327595197
0.1509925 -0.07361466603610452 0.07552287562129172
0.1529924 -0.07225565699018897 0.07441744163560093
0.1549923 -0.07197167308490994 0.07404556046998861
0.1569922 -0.0713520324280088 0.07296812789705973
0.1589921 -0.07070448793791698 0.07342306283608681
0.160992 -0.06924693460382984 0.072296990851383
0.1629919 -0.0686623549418043 0.07199043665107707
0.1649918 -0.06829197677025947 0.071630324146608
0.1669917 -0.06727136067432513 0.07161268820799696
0.1689916 -0.06683721325861419 0.06953334779587828
0.1709915 -0.06616179349524469 0.07027535780431078
0.1729914 -0.06617452066268215 0.07074037247215405
0.1749913 -0.06552375866635338 0.07005835002266092
0.1769912 -0.06487981717886095 0.06875407668385765
0.1789911 -0.06463513394112319 0.06839650471846301
0.180991 -0.06335455065929654 0.06796376696654312
0.1829909 -0.06255456460521955 0.06709018418850457
0.1849908 -0.06373560852460239 0.06591777846171824
0.1869907 -0.06210611036615664 0.0661808944463988
0.1889906 -0.061583163763161475 0.06570717650360246
0.1909905 -0.06161381866299587 0.06488647143228558
0.1929904 -0.0612901108349503 0.06387341701153769
0.1949903 -0.06029589017616971 0.06359916373257536
0.1969902 -0.060478934491816946 0.06312476222746768
0.1989901 -0.0596690595040108 0.06240772605693724
0.20099 -0.05930026009071536 0.06267755647691864
0.2029899 -0.05896856797123996 0.061943390582088274
0.2049898 -0.0580415698529498 0.06153559343967449
0.2069897 -0.05805132448005851 0.06110385301921579
0.2089896 -0.057959894635755335 0.061169711326841104
0.2109895 -0.05729990116880436 0.06091759544844449
0.2129894 -0.057533561839956615 0.06064083981934182
0.2149893 -0.056487562314027545 0.05985281928349788
0.2169892 -0.05640371248487908 0.06012267132344258
0.2189891 -0.05623755529673807 0.05948840104428822
0.220989 -0.05538646601216756 0.05951206542242306
0.2229889 -0.05484936133171228 0.058582482445225674
0.2249888 -0.05510490647068518 0.05900764449119052
0.2269887 -0.05487787839475325 0.05853433058470722
0.2289886 -0.05482739396504151 0.058122828709059014
0.2309885 -0.054813424112960085 0.05824898490025365
0.2329884 -0.05477337220698772 0.05838479801653898
0.2349883 -0.05459906074231264 0.057743927589709795
0.2369882 -0.054821479368669095 0.057690685513755356
0.2389881 -0.05450151646328875 0.05779096571979138
0.240988 -0.05429411914552883 0.05785919154885865
0.2429879 -0.05415001657384166 0.05769305118690383
0.2449878 -0.05420158009492709 0.05718381958267827
0.2469877 -0.05446683106812725 0.057277462088091036
0.2489876 -0.054225343949711784 0.056404684163355236
0.2509875 -0.05466988339480881 0.05616689764218798
0.2529874 -0.054527411887972 0.05621254036861073
0.2549873 -0.05467479269022922 0.05591068478381808
0.2569872 -0.05472725137876018 0.05539286459548787
0.2589871 -0.05448311943585561 0.055128524144213355
0.260987 -0.05460918847252531 0.05486982224429349
0.2629869 -0.05440084848576809 0.054651905543203615
0.2649868 -0.053935124342095034 0.05428889827356322
0.2669867 -0.05429587087293979 0.05343061061442947
0.2689866 -0.05451318702926429 0.05415448376441967
0.2709865 -0.05428218168903394 0.053558368924747475
0.2729864 -0.054871218174180864 0.0533228633873713
0.2749863 -0.05429123920213294 0.05289940707970603
0.2769862 -0.05430899647092774 0.05273744904308172
0.2789861 -0.05393093791715749 0.05252797657096238
0.280986 -0.05429485932775123 0.05258291702348544
0.2829859 -0.054059498079937415 0.0520506139068843
0.2849858 -0.05438276120479567 0.05224794937434885
0.2869857 -0.05409073894270791 0.05212969488201129
0.2889856 -0.054200142327770706 0.05175017404642973
0.2909855 -0.05409162217785625 0.05160291718924627
0.2929854 -0.054002827076012554 0.0515722987873423
0.2949853 -0.0542139074183207 0.05173591432788777
0.2969852 -0.05407221596473709 0.05122400114741053
0.2989851 -0.05448011750204699 0.05150665879535372
0.300985 -0.0544834056049886 0.05113703942338524
0.3029849 -0.05485723336058148 0.05099862009724656
0.3049848 -0.05451269552085172 0.05109531974522076
0.3069847 -0.054477019859502734 0.051219570787441625
0.3089846 -0.05501672438180369 0.050309817561727546
0.3109845 -0.054942869743887714 0.05077657740516597
0.3129844 -0.0550972054474431 0.05082078341764794
0.3149843 -0.05531340998212905 0.050417182210465275
0.3169842 -0.055445277891805395 0.050597134374820184
0.3189841 -0.055905101096062795 0.05012625066276442
0.320984 -0.05622276651604746 0.04976638202569265
0.3229839 -0.05632373688946925 0.04992191523674865
0.3249838 -0.05642688203121275 0.04961593222603215
0.3269837 -0.056236355778680115 0.049332857569390355
0.3289836 -0.05663215915494517 0.04930126292557656
0.3309835 -0.05692648776888884 0.048748079685071236
0.3329834 -0.05686347167364439 0.048475934995319374
0.3349833 -0.057183642927354755 0.04846786913067882
0.3369832 -0.05727902131915197 0.0482397005612081
0.3389831 -0.057166117850747405 0.048047721266514895
0.340983 -0.057359031702035546 0.04787392275932266
0.3429829 -0.05766489053367214 0.04768039385520728
0.3449828 -0.05789377281949318 0.0473421023294719
0.3469827 -0.05804917772334353 0.04733075016065466
0.3489826 -0.0582559381088579 0.04687477502970849
0.3509825 -0.058102752526102745 0.046770643455554775
0.3529824 -0.05816552605996579 0.04682707594765288
0.3549823 -0.05810894727234127 0.04687117754856793
0.3569822 -0.05850249112739082 0.04673649009545388
0.3589821 -0.05845098938571979 0.046172645287564845
0.360982 -0.05904419600475298 0.04594746831363667
0.3629819 -0.05888182883362081 0.04617561421817481
0.3649818 -0.05882111654215567 0.04594444498942065
0.3669817 -0.05903981760171336 0.04574159231241784
0.3689816 -0.059248758635286725 0.04566820933940868
0.3709815 -0.058863841621456164 0.045626795629138774
0.3729814 -0.05939690781059264 0.04541450000012372
0.3749813 -0.05978400666750741 0.045419960100941015
0.3769812 -0.05967935543079325 0.04502499657148636
0.3789811 -0.059761267309723316 0.04547292449657652
0.380981 -0.060239495443238006 0.04502922802813917
0.3829809 -0.06041556047739414 0.04495001392982417
0.3849808 -0.06077407828028518 0.044559004319185296
0.3869807 -0.06068516649013207 0.04525239187350896
0.3889806 -0.060585883744875814 0.04475894406975588
0.3909805 -0.06127151095009714 0.04482327449240532
0.3929804 -0.06152002717417145 0.04426131277737519
0.3949803 -0.061609827572098236 0.04426847552253746
0.3969802 -0.06212103810495994 0.044010570707436025
0.3989801 -0.0626038020890564 0.04404058674689067
0.40098 -0.06296877812751651 0.04366135361752785
0.4029799 -0.0628441136543689 0.04342155713584247
0.4049798 -0.0632703094436755 0.04346914045786543
0.4069797 -0.0635811669406069 0.04290969471030891
0.4089796 -0.0638336908120066 0.043180476585286724
0.4109795 -0.06389762730948956 0.042413959868870546
0.4129794 -0.06415985548238194 0.04237134561348142
0.4149793 -0.06454319690601532 0.042202440159558215
0.4169792 -0.06424440282782506 0.042588512789693014
0.4189791 -0.06455059956720131 0.04220097450757635
0.420979 -0.06490316132293206 0.04211094384443098
0.4229789 -0.06505742479162245 0.04135016821559159
0.4249788 -0.06535188613740783 0.04124527291883491
0.4269787 -0.0653794957365972 0.04112664477407687
0.4289786 -0.06563756447924768 0.04112904811160096
0.4309785 -0.06566735373830127 0.04077789785450488
0.4329784 -0.0659758733525251 0.04059538798035725
0.4349783 -0.06616410795770462 0.040591416232662644
0.4369782 -0.06628569933491422 0.04053592456996983
0.4389781 -0.0667020432822297 0.040531110446133126
0.440978 -0.06697302792101031 0.03998510961347792
0.4429779 -0.0670006691437321 0.04017227361254655
0.4449778 -0.06730797276873661 0.04002774448550357
0.4469777 -0.06726645565042999 0.0398142233786549
0.4489776 -0.06766138150699377 0.03961563728663103
0.4509775 -0.06797179255146779 0.039264932575649454
0.4529774 -0.06813473183645255 0.03916468386964762
0.4549773 -0.06831483583252627 0.039149908746114626
0.4569772 -0.06852448718006468 0.0389603862309844
0.4589771 -0.06891008127220444 0.039016503705204375
0.460977 -0.06899681266393458 0.038756196839945786
0.4629769 -0.06939226182780162 0.03839174103801017
0.4649768 -0.06957757476534443 0.03834789540494883
0.4669767 -0.06991580536497875 0.0379672092724876
0.4689766 -0.07023367286954932 0.03759290747571923
0.4709765 -0.07058509967387108 0.03744729241114858
0.4729764 -0.07061316492583115 0.037145370648169515
0.4749763 -0.0708237946457925 0.036906059098269564
0.4769762 -0.0711900270634291 0.03672714066547345
0.4789761 -0.07122799528088863 0.03634319698637547
0.480976 -0.07161125160221266 0.036409822177232855
0.4829759 -0.07172318764308779 0.03642851943774725
0.4849758 -0.0719735865456222 0.03612806860966423
0.4869757 -0.07218449870015668 0.036026248087980516
0.4889756 -0.07211220201449074 0.03590134079338108
0.4909755 -0.07235433938660395 0.0357208054070247
0.4929754 -0.07280789804116461 0.03532896293466146
0.4949753 -0.07270802713278707 0.0353174798446242
0.4969752 -0.07257774167165157 0.03510169484433067
0.4989751 -0.07298141041441866 0.03491829136046663
0.500975 -0.07319075525614221 0.034478116152619295
0.5029749 -0.07349408822215833 0.03496540028886834
0.5049748 -0.07352381666099539 0.034713544810609426
0.5069747 -0.07392619536565424 0.03448054964010083
0.5089746 -0.07405028722359429 0.034536146650614344
0.5109745 -0.07429946699601096 0.03416933057578123
0.5129744 -0.07495491770889176 0.033985538148870995
0.5149743 -0.07534687398268221 0.03380179120747039
0.5169742 -0.07545004039970704 0.03374816616434619
0.5189741 -0.07554166054279154 0.03354670421996005
0.520974 -0.07604774888559329 0.03347433390548013
0.5229739 -0.07631459713445664 0.03342200262665665
0.5249738 -0.0766541451945928 0.03305556123520638
0.5269737 -0.07689916526443524 0.03314889513150719
0.5289736 -0.07724721106783243 0.03285604003414741
0.5309735 -0.07785928249623292 0.03237504113444191
0.5329734 -0.0777960357196264 0.032407076712446484
0.5349733 -0.07807830600590422 0.031891003256849806
0.5369732 -0.07857158167195699 0.03170712476432109
0.5389731 -0.07889720098857977 0.03129710181730976
0.540973 -0.07922859573850823 0.031193072909758174
0.5429729 -0.0794160556058564 0.03045846847618988
0.5449728 -0.07948997588150149 0.030378683919518312
0.5469727 -0.07994886621445482 0.02993141279331964
0.5489726 -0.07985386758779241 0.02984172200175466
0.5509725 -0.0801846773296114 0.029459085070599175
0.5529724 -0.0805225682676486 0.029392971017104568
0.5549723 -0.08072746221785894 0.02904362907374735
0.5569722 -0.08096128427798577 0.028740397092938404
0.5589721 -0.0812244526179704 0.028346687045312336
0.560972 -0.08097589888869042 0.0282450289642241
0.5629719 -0.08106716652708429 0.027668955250360828
0.5649718 -0.08113235653588532 0.027657923054020487
0.5669717 -0.08126281840239305 0.027457063318541787
0.5689716 -0.08120974018588747 0.02745755011616538
0.5709715 -0.08161512248701934 0.027076770777062338
0.5729714 -0.08150966790843489 0.027054482900155725
0.5749713 -0.081550774604215 0.02677963738707804
0.5769712 -0.08187525521558872 0.026866319476231946
0.5789711 -0.08210318692457003 0.026471700832111485
0.580971 -0.08233338044014121 0.02648984134483207
0.5829709 -0.0828764835464511 0.02649695010037451
0.5849708 -0.08305064989884195 0.026392341448746966
0.5869707 -0.0832212511885674 0.026174201828564093
0.5889706 -0.08361502464692157 0.025924467721208835
0.5909705 -0.08351226858219797 0.025778128860850964
0.5929704 -0.08426813536862007 0.025535490214520173
0.5949703 -0.08447060303462782 0.02550232542093952
0.5969702 -0.08477883955869601 0.02473496516891213
0.5989701 -0.08511955530633591 0.024928385533068868
0.60097 -0.08519080635976596 0.024361468508113757
0.6029699 -0.08552932522399631 0.024159921671037053
0.6049698 -0.08598916541844376 0.02375600398796686
0.6069697 -0.08640113117760104 0.023474141427933356
0.6089696 -0.08652028526957353 0.023334067436690416
0.6109695 -0.08706952611652129 0.02280095876292375
0.6129694 -0.08734396219408386 0.022656781073806847
0.6149693 -0.08741278044532945 0.022216399266149354
0.6169692 -0.08764337802828823 0.02184920443090652
0.6189691 -0.08742636026867397 0.02153130524782765
0.620969 -0.08773387530897003 0.021257012236519365
0.6229689 -0.08807089260856471 0.02104575155630597
0.6249688 -0.08833901148274788 0.020676164682164853
0.6269687 -0.08849742384623713 0.02007732539126658
0.6289686 -0.08863198110014173 0.01989667294371493
0.6309685 -0.08863698777943144 0.019670154178827764
0.6329684 -0.08891432195372528 0.019201048557988036
0.6349683 -0.0884403086305216 0.0194859473211423
0.6369682 -0.08860146234087492 0.01896798705786258
0.6389681 -0.08879036347731734 0.018818895560270558
0.640968 -0.08884633403600076 0.018457826526263803
0.6429679 -0.08888774882579867 0.018544613340648615
0.6449678 -0.08908333255504391 0.01846840675322284
0.6469677 -0.08933376728645219 0.018421071025248613
0.6489676 -0.08974079722472807 0.018017236702496293
0.6509675 -0.08989715551693626 0.018059711645081893
0.6529674 -0.08987688805305137 0.017891869262106518
0.6549673 -0.09011507261014244 0.017829514139675037
0.6569672 -0.09043653118413406 0.01747931254039088
0.6589671 -0.09093125341034781 0.01751078355779253
0.660967 -0.09120821468879325 0.016993173000356677
0.6629669 -0.09170722621795252 0.017140384801050804
0.6649668 -0.09201130187544716 0.016700605807658454
0.6669667 -0.09236552173928377 0.016518262438168542
0.6689666 -0.09275958407066022 0.016379555198399735
0.6709665 -0.09322311548453593 0.01602720157216592
0.6729664 -0.09324546091469355 0.0154130150236797
0.6749663 -0.09348083430199877 0.015087363345837955
0.6769662 -0.09365607779193671 0.01472707619910684
0.6789661 -0.09407798077994738 0.014374013797535931
0.680966 -0.09448283555953044 0.014087922508388334
0.6829659 -0.09461654760299842 0.013595939418222649
0.6849658 -0.09463189477875836 0.013328413600127213
0.6869657 -0.09498193874832261 0.013046076330770696
0.6889656 -0.09521450237729778 0.012181926929667283
0.6909655 -0.09546900257701266 0.011841234277011847
0.6929654 -0.09553819515603457 0.01126727424265895
0.6949653 -0.09569141100332268 0.010950151248758071
0.6969652 -0.09580685284471609 0.010415970724074703
0.6989651 -0.09588926581521601 0.010072956252766198
0.700965 -0.0958852104062852 0.009541541297547893
0.7029649 -0.09614881240885494 0.009373904024168843
0.7049648 -0.09567882263126587 0.008800990068380716
0.7069647 -0.09553000827576108 0.008778336708309648
0.7089646 -0.09549044700141647 0.008202466308441993
0.7109645 -0.09551229169228972 0.008145133463886227
0.7129644 -0.09540452906511575 0.008049333044920805
0.7149643 -0.09538975952545295 0.007704768913659201
0.7169642 -0.09553081554043424 0.0075954000343252115
0.7189641 -0.09561415584057589 0.007244298320477717
0.720964 -0.09584091805289838 0.007059012985232215
0.7229639 -0.09614328043791572 0.006978072144213265
0.7249638 -0.09578588886770188 0.006583288071697651
0.7269637 -0.09584089834720613 0.006647313732944454
0.7289636 -0.09610588566253812 0.006436687180088656
0.7309635 -0.09646674062057159 0.006552713953658265
0.7329634 -0.09669959976302428 0.006182272087951093
0.7349633 -0.09696238530504679 0.006223606072622373
0.7369632 -0.09715655928003426 0.0059731747252297004
0.7389631 -0.09746807914166616 0.0060012725900709905
0.740963 -0.09785056439585658 0.005423231338730582
0.7429629 -0.0978384938717782 0.005297030201226054
0.7449628 -0.09828430530581557 0.0048419610153567876
0.7469627 -0.09876415963342387 0.004721405125422361
0.7489626 -0.09898792386889606 0.004324515394385532
0.7509625 -0.09898343312191948 0.0037652492204253395
0.7529624 -0.09982350746016055 0.0033522895752920827
0.7549623 -0.09983834558455688 0.0029442196888031166
0.7569622 -0.1001783688657057 0.0024346762520978497
0.7589621 -0.10024813219950857 0.001758329056390756
0.760962 -0.10064785064410478 0.0013958152065801713
0.7629619 -0.10070478915579739 0.0006820158567779899
0.7649618 -0.10065151146059882 0.0002611505853937837
0.7669617 -0.10063044649780872 1.7640056875357912e-05
0.7689616 -0.10077823902944219 -0.0006256635148424727
0.7709615 -0.1009719403703645 -0.0010847506744350796
0.7729614 -0.10079650567362117 -0.0014133224272376496
0.7749613 -0.10071415760546304 -0.0018481720764366577
0.7769612 -0.10103960434573019 -0.002358527771354719
