! Created with skrf 1.8.0 (http://scikit-rf.org).
# GHz S RI R 50.0 
!freq ReS11 ImS11
0.001 -1.0017310942092312 -0.04070316715284633
0.0029999 -0.9905125002742432 -0.11808824395268375
0.0049998 -0.9662572685908821 -0.18824398529215092
0.0069997 -0.9334015743280879 -0.25477949918151643
0.0089996 -0.891373307674439 -0.31084296048117754
0.0109995 -0.8432802689641001 -0.35760979128643383
0.0129994 -0.7897662131284888 -0.39764282831134834
0.0149993 -0.7375887160709582 -0.42598142056302624
0.0169992 -0.687183146162073 -0.44706656285021124
0.0189991 -0.6380871872018605 -0.459913479789424
0.020999 -0.5889853991385154 -0.4692916981534288
0.0229989 -0.5472798594748376 -0.47334083572299634
0.0249988 -0.5093163381923494 -0.4718024176356768
0.0269987 -0.4674568770521875 -0.4682004767771054
0.0289986 -0.4351826296319802 -0.4642413367583451
0.0309985 -0.40311872443490426 -0.45860035225904494
0.0329984 -0.3765984852075065 -0.44866061731819845
0.0349983 -0.34630087831959117 -0.44034010334797824
0.0369982 -0.32666356293984694 -0.4312746736143646
0.0389981 -0.30404003698278703 -0.4205580970222435
0.040998 -0.2843101431962062 -0.4112501908553235
0.0429979 -0.2688499323645505 -0.39904235631443996
0.0449978 -0.25027778615553997 -0.39029135939124066
0.0469977 -0.23700614219369576 -0.3821212902074745
0.0489976 -0.22266954635020594 -0.3704160096765918
0.0509975 -0.2120779627862469 -0.3633012072895783
0.0529974 -0.2020204265299676 -0.35384741148197424
0.0549973 -0.18877591067509156 -0.34262558322154946
0.0569972 -0.18183393176013607 -0.33667133175416686
0.0589971 -0.17388648323435177 -0.3271783235221934
0.060997 -0.16454977551724603 -0.31941607361691815
0.0629969 -0.1577629718970175 -0.3108130019129139
0.0649968 -0.15027061096867358 -0.30206269011833925
0.0669967 -0.14379802425684338 -0.2941250421880217
0.0689966 -0.1380538342349228 -0.2879647839739729
0.0709965 -0.13364625610243003 -0.2805497570709982
0.0729964 -0.12792602433719072 -0.2739621773626638
0.0749963 -0.12299119769594488 -0.26716822738893176
0.0769962 -0.12049527562000394 -0.26039468442771657
0.0789961 -0.11507422013980301 -0.2545239409969682
0.080996 -0.112101778226583 -0.2500652614534099
0.0829959 -0.10831038234034661 -0.2430484434963812
0.0849958 -0.1054635692471527 -0.23772676445369834
0.0869957 -0.10116170900011527 -0.2320816467371151
0.0889956 -0.10062799335817404 -0.2266281562471728
0.0909955 -0.0969920491575026 -0.22295624522504093
0.0929954 -0.09413541604827168 -0.21823227645542367
0.0949953 -0.09275831599452387 -0.2131725655645942
0.0969952 -0.09020268406738671 -0.2095672014629668
0.0989951 -0.0865541286157161 -0.2034773491464515
0.100995 -0.08513830343688952 -0.2019083686675611
0.1029949 -0.08345981955644566 -0.19599562931546052
0.1049948 -0.08238293463010814 -0.19217939665049574
0.1069947 -0.08094418468246248 -0.18800559518506574
0.1089946 -0.08003900361963065 -0.18472907880720618
0.1109945 -0.07828238994601439 -0.18112872536441657
0.1129944 -0.0766219962414055 -0.1783669208580005
0.1149943 -0.07507230785322323 -0.17396112931599145
0.1169942 -0.07445026502041542 -0.1716077603128492
0.1189941 -0.07259802731290009 -0.1678010810785574
0.120994 -0.07097960045096438 -0.16474828910214434
0.1229939 -0.0706504406280542 -0.1616364379145751
0.1249938 -0.0693112574977407 -0.15870462466432753
0.1269937 -0.0689021028693152 -0.15593587564269107
0.1289936 -0.06670615803876392 -0.1534269321110604
0.1309935 -0.06651328027859191 -0.15112713138109066
0.1329934 -0.06675115210091687 -0.14815521135286622
0.1349933 -0.06527300922257114 -0.14522955555876604
0.1369932 -0.06351805360209897 -0.142655913677236
0.1389931 -0.06295540791883267 -0.1399547991400537
0.140993 -0.06329501363723147 -0.13787191444685692
0.1429929 -0.06159804685140438 -0.13498993847591723
0.1449928 -0.06140924196052479 -0.13254915863876077
0.1469927 -0.06037533202914228 -0.13072978323014528
0.1489926 -0.06003728139962267 -0.12886409446087396
0.1509925 -0.05858392575812996 -0.12573996166341522
0.1529924 -0.058817060308660796 -0.12399184192042347
0.1549923 -0.058487377634741614 -0.12189373138327389
0.1569922 -0.05801154577972855 -0.11999479393715151
0.1589921 -0.05754537223741898 -0.11705307172714537
0.160992 -0.057163069871886005 -0.11610807137230912
0.1629919 -0.05627767585863881 -0.1137758452325644
0.1649918 -0.056194992491452975 -0.11157380540345582
0.1669917 -0.05613034303700184 -0.10971598083179422
0.1689916 -0.05655786483702094 -0.10775305097789223
0.1709915 -0.055758766030535284 -0.10555270890269361
0.1729914 -0.05570541063465214 -0.10392715722024902
0.1749913 -0.05483662463097923 -0.10273496181204156
0.1769912 -0.05566780399455585 -0.10108430047507258
0.1789911 -0.055057577873877384 -0.09964000407297524
0.180991 -0.054817030685441 -0.09749330668280795
0.1829909 -0.05438021809306057 -0.09663596892759196
0.1849908 -0.0552999591432464 -0.09424828748079034
0.1869907 -0.054561430266455054 -0.0924072180272182
0.1889906 -0.05475929327521918 -0.09197021088921126
0.1909905 -0.054678959316761186 -0.090384303537421
0.1929904 -0.053920613512646355 -0.08965015725106436
0.1949903 -0.053803076627585905 -0.0878122039228846
0.1969902 -0.05367692314461092 -0.08704376774948214
0.1989901 -0.053996797086481696 -0.08531444483556978
0.20099 -0.05360004982233983 -0.08412901680331945
0.2029899 -0.053137287347068164 -0.08259188050479137
0.2049898 -0.05296232981783189 -0.08124497248831718
0.2069897 -0.05339981921577312 -0.08056513728757855
0.2089896 -0.053438850825237236 -0.07955294760896499
0.2109895 -0.05293775809687806 -0.0780828282649
0.2129894 -0.05222043147924395 -0.07640527148477137
0.2149893 -0.05209112073906924 -0.07570886010066238
0.2169892 -0.05209114606618516 -0.07454054900568446
0.2189891 -0.05166786342013999 -0.07315833536797543
0.220989 -0.0515879144088177 -0.07182629044878512
0.2229889 -0.05238826414070144 -0.07030242516161811
0.2249888 -0.05186896540092311 -0.06855935666882601
0.2269887 -0.05177162117195615 -0.06844330741169828
0.2289886 -0.051794698573912945 -0.06732422373785096
0.2309885 -0.05139007109986225 -0.06605462769575163
0.2329884 -0.05172115685699816 -0.06451736604637193
0.2349883 -0.05140893726254146 -0.06385081857306882
0.2369882 -0.05175375422860731 -0.06211326683003461
0.2389881 -0.051811204471182565 -0.06150571143985978
0.240988 -0.05181909023224717 -0.0599945837630356
0.2429879 -0.051484016215055675 -0.059162008403866005
0.2449878 -0.05196118204814987 -0.05843147027795535
0.2469877 -0.052100440142534045 -0.0572104528116051
0.2489876 -0.05211351044156182 -0.05672193810108776
0.2509875 -0.052495953194422136 -0.05570301850729631
0.2529874 -0.052649739213913645 -0.0540766584172199
0.2549873 -0.053072852812238065 -0.05333916420182731
0.2569872 -0.05302871312067817 -0.053308406662324635
0.2589871 -0.05288462845629614 -0.052291210360015876
0.260987 -0.05287247590330277 -0.05113648628580561
0.2629869 -0.053057949852022696 -0.05053784711055963
0.2649868 -0.05285736868347017 -0.049984256195156146
0.2669867 -0.05326015655497343 -0.048958195695556095
0.2689866 -0.05350744369821048 -0.0482909228637503
0.2709865 -0.05360951363976855 -0.04728123049836441
0.2729864 -0.0534476932310446 -0.04686127842811241
0.2749863 -0.05372605434693632 -0.045823296659114374
0.2769862 -0.05348530861817816 -0.04505915739906246
0.2789861 -0.053817687524092654 -0.04436048383608492
0.280986 -0.053760700306917986 -0.04417053587287802
0.2829859 -0.05363770462443435 -0.04269144379129454
0.2849858 -0.05368112864781586 -0.042683017097211645
0.2869857 -0.05359826827581434 -0.04108126774251723
0.2889856 -0.0538172459042234 -0.04088304633912895
0.2909855 -0.053754736320443294 -0.04024260037994596
0.2929854 -0.053950031295824326 -0.03932117910873556
0.2949853 -0.05366987101865147 -0.03858908953336353
0.2969852 -0.05412300957894237 -0.03806869317733837
0.2989851 -0.05435216995406731 -0.03731412220645009
0.300985 -0.05459766291112495 -0.036774615366708854
0.3029849 -0.05484757813504473 -0.03607806469470654
0.3049848 -0.054516709409177 -0.03438884872659139
0.3069847 -0.054740459862630785 -0.03434086501670987
0.3089846 -0.05531844256554964 -0.033568613972948164
0.3109845 -0.05563312854358201 -0.03308718202129576
0.3129844 -0.05522905787131426 -0.03216546168249389
0.3149843 -0.05569162271959681 -0.0315586835660675
0.3169842 -0.055907525645747046 -0.030774739877496418
0.3189841 -0.05617803591841829 -0.03114346480562488
0.320984 -0.05672408025777993 -0.03047060089320886
0.3229839 -0.05677974586173436 -0.02935184264518418
0.3249838 -0.05716725096547645 -0.028978523142875114
0.3269837 -0.05690192117639818 -0.02817788570328292
0.3289836 -0.05721062950858075 -0.02756608944877524
0.3309835 -0.05754755475984117 -0.02724590499201697
0.3329834 -0.057643810111836044 -0.026861141554106106
0.3349833 -0.05819698350257123 -0.026463902424755565
0.3369832 -0.05815979518258963 -0.026160890513999197
0.3389831 -0.05833433867313935 -0.025288121317724056
0.340983 -0.058448478193274166 -0.025165089512705276
0.3429829 -0.05873491143305045 -0.02445578463682873
0.3449828 -0.05890628301923652 -0.024312327077926438
0.3469827 -0.058906364937581765 -0.02378898578662888
0.3489826 -0.05889225733329602 -0.023513918021574143
0.3509825 -0.059395457867777016 -0.02294386991634818
0.3529824 -0.05920962734828937 -0.022433887904097734
0.3549823 -0.059089279729224876 -0.02153496721338611
0.3569822 -0.05936341734517041 -0.021129974977357607
0.3589821 -0.05986778873164032 -0.020975019973000934
0.360982 -0.0601367284513833 -0.02094984422495906
0.3629819 -0.05981792949026369 -0.020233209727877517
0.3649818 -0.05981160028885171 -0.019798043780763296
0.3669817 -0.060128062258188855 -0.01921711904248783
0.3689816 -0.06022709825079272 -0.019001930404499497
0.3709815 -0.06013134502504831 -0.018295804851325002
0.3729814 -0.06053483006228566 -0.01762284209339168
0.3749813 -0.06070979586769866 -0.01731488044241413
0.3769812 -0.06079951398887391 -0.017376084708943834
0.3789811 -0.0609356665115469 -0.016712079857999076
0.380981 -0.061489568565049994 -0.01638743853706094
0.3829809 -0.06170239046269208 -0.016116457819780283
0.3849808 -0.06175028543634762 -0.015432420686120937
0.3869807 -0.06217937575622413 -0.01450629292211211
0.3889806 -0.06206478708900824 -0.014130037213248407
0.3909805 -0.062212714896769244 -0.014152113760188805
0.3929804 -0.06264059332195943 -0.013546467747768874
0.3949803 -0.06287604633306602 -0.013334011198101334
0.3969802 -0.06325380641894243 -0.013007561104591569
0.3989801 -0.06377148335571892 -0.012311223886054455
0.40098 -0.06380088631847854 -0.01230796682077644
0.4029799 -0.06432803287175531 -0.012210985678091375
0.4049798 -0.0645300325468804 -0.011897297665919744
0.4069797 -0.06465546531112082 -0.011520094745573032
0.4089796 -0.06484874956463324 -0.011173703333033747
0.4109795 -0.06521005108184713 -0.011185773525182977
0.4129794 -0.06494682630016235 -0.010986105779190604
0.4149793 -0.0654444177267447 -0.010774693762032383
0.4169792 -0.06559094548932964 -0.009873994797199543
0.4189791 -0.06546979474452254 -0.009792872062008268
0.420979 -0.06617133005272499 -0.009625231637277007
0.4229789 -0.06623535406154421 -0.009495480801290545
0.4249788 -0.06652400477595241 -0.009347993474187851
0.4269787 -0.06651811328955465 -0.009189842354338031
0.4289786 -0.06663056081118274 -0.008749315881561217
0.4309785 -0.06686068093306999 -0.008640782961612713
0.4329784 -0.06714582534413638 -0.008515534343010608
0.4349783 -0.0673936099296622 -0.008180265751437439
0.4369782 -0.06736102555986308 -0.007691567972139435
0.4389781 -0.06767129050323877 -0.007490768060866897
0.440978 -0.06778074662289378 -0.007110071496020852
0.4429779 -0.06781800115872189 -0.007139986046816465
0.4449778 -0.06841040994403885 -0.006656278301661985
0.4469777 -0.06827171171366087 -0.0064938285202606125
0.4489776 -0.0684371006008081 -0.006539529893667403
0.4509775 -0.06919596498009799 -0.006585936297640208
0.4529774 -0.06915700164559749 -0.006138131175960692
0.4549773 -0.06918996027215557 -0.00577027510987636
0.4569772 -0.0695230910055593 -0.005636404805277689
0.4589771 -0.07008341079884887 -0.005304619698658676
0.460977 -0.07006023764317501 -0.005217160172148919
0.4629769 -0.07043681539311827 -0.005092267300998633
0.4649768 -0.07054987438606106 -0.0049109289086821176
0.4669767 -0.07078205051815212 -0.004772738432940057
0.4689766 -0.07080230005570472 -0.004811125224023438
0.4709765 -0.07166319245839299 -0.004747614919847855
0.4729764 -0.07114442214313947 -0.004455973061403697
0.4749763 -0.07153302517001339 -0.004471148172756165
0.4769762 -0.07200854088906025 -0.004287066953777202
0.4789761 -0.07229215265479974 -0.004407480549097745
0.480976 -0.07228567108412928 -0.004058023482275401
0.4829759 -0.07240259348438134 -0.003719865580099936
0.4849758 -0.07259102593586211 -0.0036411364821447995
0.4869757 -0.07281746044520312 -0.0036886855337820296
0.4889756 -0.0727752088529931 -0.003152642396561385
0.4909755 -0.07299643734865971 -0.0032972904366846065
0.4929754 -0.0731706646839772 -0.0032971701703233547
0.4949753 -0.07330520809773225 -0.0027181620216196536
0.4969752 -0.07365288391950175 -0.0027495175706448854
0.4989751 -0.0735619473094768 -0.002743292926508878
0.500975 -0.07375716546766056 -0.0024625929636747923
0.5029749 -0.07399889330817969 -0.0023349672624116066
0.5049748 -0.07403674600353176 -0.0020596738108135462
0.5069747 -0.07419529823324492 -0.002217872232087602
0.5089746 -0.07452631309768162 -0.0020533270637349
0.5109745 -0.07479838616892034 -0.0016008498300907961
0.5129744 -0.07540751275338972 -0.0017248980347390544
0.5149743 -0.07543911984308346 -0.0018158148154303957
0.5169742 -0.07570670727221167 -0.0014869823996461473
0.5189741 -0.07607394471651568 -0.0013243831286968918
0.520974 -0.07597401505131646 -0.0010141436852768512
0.5229739 -0.07650647391440771 -0.0012565879636471516
0.5249738 -0.0769589560633852 -0.0008591693286039356
0.5269737 -0.0771724216192527 -0.0009281421313278304
0.5289736 -0.07756592888802502 -0.0009271856674541584
0.5309735 -0.07787633243281507 -0.001015616359310606
0.5329734 -0.07800169503632044 -0.0009481108024611204
0.5349733 -0.07847138650442137 -0.0009384815609520467
0.5369732 -0.07873829067894 -0.000987578638846874
0.5389731 -0.0789754737701156 -0.0009314068065663095
0.540973 -0.07903203880000242 -0.0012993624957658712
0.5429729 -0.07955473931200581 -0.0013871611915898252
0.5449728 -0.07961112018954059 -0.001298748302704593
0.5469727 -0.07983601429793336 -0.0014629720056002701
0.5489726 -0.07980769881314906 -0.001373937844319599
0.5509725 -0.08019878321276003 -0.0014862280445363946
0.5529724 -0.08035765967884895 -0.001374838814554663
0.5549723 -0.08071955905307668 -0.001541658574457816
0.5569722 -0.08071608049448722 -0.0016496839942539213
0.5589721 -0.08084592076340177 -0.001983394433926533
0.560972 -0.08080342479666244 -0.0020990387615632405
0.5629719 -0.08082991809341672 -0.0019321294631536798
0.5649718 -0.08093920935657739 -0.002057185103334677
0.5669717 -0.08088306009921165 -0.002097056584477494
0.5689716 -0.08113990411901072 -0.002040963516228421
0.5709715 -0.08123522775339376 -0.0017132304602982887
0.5729714 -0.08102094859115136 -0.0017983039136965154
0.5749713 -0.08113131218798353 -0.0018315566380458087
0.5769712 -0.08103979363081172 -0.0016579221085309057
0.5789711 -0.08140438836275407 -0.0016048147417850461
0.580971 -0.08180372508573099 -0.00171355124944432
0.5829709 -0.08233056841084069 -0.001560341540789295
0.5849708 -0.0824328080570102 -0.0013919408016893203
0.5869707 -0.0826537966193037 -0.0010980930927003557
0.5889706 -0.08286023135615653 -0.0015094907296547971
0.5909705 -0.08285883886219722 -0.0012887272386021623
0.5929704 -0.0834578005774987 -0.0014515702343883483
0.5949703 -0.08372651137180245 -0.0011113771564041641
0.5969702 -0.08405792380408664 -0.0016729886593295148
0.5989701 -0.08398542430051573 -0.0016846995558257721
0.60097 -0.08451295722115718 -0.0016804972646435046
0.6029699 -0.08465826275713663 -0.001864779007808355
0.6049698 -0.08504322621151285 -0.002171697258941001
0.6069697 -0.08552295879583399 -0.00223751915479576
0.6089696 -0.08555733277196444 -0.002199025331400997
0.6109695 -0.08583639848033657 -0.0025411058925965957
0.6129694 -0.08607269802429068 -0.0025180530024200634
0.6149693 -0.08634699354459402 -0.002805663275006788
0.6169692 -0.08651568063971593 -0.0032221150694252687
0.6189691 -0.08646475183895239 -0.003194510525070235
0.620969 -0.08660498052873204 -0.003567586801029657
0.6229689 -0.08685204651089849 -0.0036425710593344304
0.6249688 -0.087125109552399 -0.003701817266652835
0.6269687 -0.0871311479507295 -0.004175736570703394
0.6289686 -0.08705210008782459 -0.004162445222059975
0.6309685 -0.08719873704340839 -0.00423011075568417
0.6329684 -0.08736838524648383 -0.0046540315156047216
0.6349683 -0.08699438660762074 -0.004486967891014063
0.6369682 -0.08714465383632679 -0.004656441762141562
0.6389681 -0.08702525785132617 -0.004593427085424137
0.640968 -0.08740571744383621 -0.004902665038419789
0.6429679 -0.08715172628035162 -0.004834917118350164
0.6449678 -0.08748726908036368 -0.004540294227991487
0.6469677 -0.08746299560926055 -0.004476522119147466
0.6489676 -0.08802657678717477 -0.00484363399252611
0.6509675 -0.08761698695468192 -0.004641486839982133
0.6529674 -0.08822657566533781 -0.00466098020844604
0.6549673 -0.08834610030407823 -0.004636057936266355
0.6569672 -0.08856780709555619 -0.004963021904902172
0.6589671 -0.08892527323820637 -0.005098841766608603
0.660967 -0.08917149782370742 -0.004913166249375545
0.6629669 -0.08945460151359266 -0.00507903510920419
0.6649668 -0.08981059700938925 -0.005246049560571994
0.6669667 -0.09012970019687089 -0.005335803456357632
0.6689666 -0.09031722852938909 -0.0053819552300876025
0.6709665 -0.09107677759322305 -0.005689350110050416
0.6729664 -0.09119233557222599 -0.006014821449666266
0.6749663 -0.09131336708256857 -0.006273633436173695
0.6769662 -0.09152817456000628 -0.006578615150661944
0.6789661 -0.09154243790439448 -0.00671655675022325
0.680966 -0.09210981459692227 -0.006769915478722341
0.6829659 -0.09217122114832019 -0.007376308770271484
0.6849658 -0.09221921729498751 -0.007665957804023016
0.6869657 -0.09229360519179367 -0.007823213848393962
0.6889656 -0.09277872113254665 -0.008410055210033275
0.6909655 -0.09276901318972386 -0.00881175933768949
0.6929654 -0.09301249690232355 -0.009116641490255033
0.6949653 -0.09300489420742669 -0.009362166498859882
0.6969652 -0.09316607639679289 -0.009787356251705515
0.6989651 -0.09323824890265586 -0.010181111222521341
0.700965 -0.09313729302498051 -0.010568129379674752
0.7029649 -0.09346999394899747 -0.010905679959749628
0.7049648 -0.0929232856672581 -0.011142899901266025
0.7069647 -0.09292445349772592 -0.011419065355377893
0.7089646 -0.09263693396338388 -0.011717862518133247
0.7109645 -0.09257897159618106 -0.011703841775498602
0.7129644 -0.09243754517096 -0.011858874666868989
0.7149643 -0.09236425595962752 -0.012024390726552384
0.7169642 -0.09248463073843416 -0.012131541267407633
0.7189641 -0.09254283830078538 -0.012321432536925185
0.720964 -0.09278436783374627 -0.01237335135755737
0.7229639 -0.09287339994219021 -0.012420386259478312
0.7249638 -0.09270056654459366 -0.012913002460891873
0.7269637 -0.09245096974245129 -0.012724563483502399
0.7289636 -0.09277406424659422 -0.012672188539802197
0.7309635 -0.09293592626684806 -0.012659253174773885
0.7329634 -0.0932318333637204 -0.012804063779368692
0.7349633 -0.09337705510941119 -0.012873615878414069
0.7369632 -0.09377149508468438 -0.013151396594522025
0.7389631 -0.09393022816200033 -0.013033418559711539
0.740963 -0.09438821362250652 -0.013372459513369642
0.7429629 -0.09422110844630208 -0.013367482630098144
0.7449628 -0.09463026642015494 -0.013901255850209022
0.7469627 -0.09509156803146138 -0.014081802332452268
0.7489626 -0.09536368739717896 -0.014386978512059691
0.7509625 -0.09571643145059583 -0.014912419747724441
0.7529624 -0.09597538939417591 -0.015119768845443783
0.7549623 -0.09616189667204285 -0.015432274159052507
0.7569622 -0.09654123894920823 -0.01594942776495082
0.7589621 -0.09653874623460212 -0.01637451878218878
