! Created with skrf 1.8.0 (http://scikit-rf.org).
# GHz S RI R 50.0 
!freq ReS11 ImS11
0.001 3.0957227751353456 -2.7058550424017667
0.0029999 3.1933845148094866 0.11364676898746476
0.0049998 2.306099646470455 0.6135393233339321
0.0069997 1.8714874760234677 0.6803258901184188
0.0089996 1.6322817722528185 0.6461411969712562
0.0109995 1.4768205401639187 0.607732428648784
0.0129994 1.364903257242465 0.5637897575198626
0.0149993 1.3004726115982819 0.5231702543297394
0.0169992 1.2527754691851194 0.48632570749149573
0.0189991 1.217479187177203 0.46231972568504487
0.020999 1.1868455276184746 0.4401295712734997
0.0229989 1.1671412871873708 0.4194413653640816
0.0249988 1.1519995917353594 0.4082892250494667
0.0269987 1.134974680748806 0.3923917519700052
0.0289986 1.1229166747126516 0.38214711877593677
0.0309985 1.116181726393683 0.3734985795814433
0.0329984 1.1071045545546125 0.3693856630104809
0.0349983 1.0986741916088658 0.36111778350635504
0.0369982 1.0924794550154437 0.35830053921941735
0.0389981 1.0884883802341752 0.3554236600317551
0.040998 1.0812935518256857 0.3522485439007329
0.0429979 1.0784421071422656 0.34872749346717963
0.0449978 1.072033145353761 0.34985573267424674
0.0469977 1.0708152333810836 0.3516770333597836
0.0489976 1.0664298592818482 0.34957730713396384
0.0509975 1.0641089058719941 0.3515643163724922
0.0529974 1.060125142368019 0.3550219206192078
0.0549973 1.056409499538767 0.35565575793329524
0.0569972 1.0552671992788045 0.35795157014673296
0.0589971 1.0515727715372605 0.36094474362386797
0.060997 1.049492639786955 0.364838353516915
0.0629969 1.0457904865237233 0.3679758639894648
0.0649968 1.042875831237159 0.36948038093203517
0.0669967 1.039923076507565 0.37271709557988164
0.0689966 1.0376850499272539 0.37765669506232835
0.0709965 1.0353498975084363 0.38150315493445686
0.0729964 1.0317609765203228 0.3850629771939488
0.0749963 1.0297973960787825 0.3898997662196144
0.0769962 1.0264059182434124 0.3953967286932405
0.0789961 1.0246273141373434 0.3988201254779806
0.080996 1.0214795380126258 0.4040419183634374
0.0829959 1.0196194799899936 0.4085421998553205
0.0849958 1.016083452443236 0.41414066151337176
0.0869957 1.0142330815735372 0.41802834915925935
0.0889956 1.0097910642449284 0.42294297103131395
0.0909955 1.0080390761670681 0.4285505234332717
0.0929954 1.0060235400082047 0.4326543007459549
0.0949953 1.0028328838416454 0.4393040730268731
0.0969952 0.9988825346685473 0.44485653426313077
0.0989951 0.9967649657296243 0.45079953866731803
0.100995 0.9954459400571893 0.4546246980795432
0.1029949 0.9914845327665914 0.459662347912366
0.1049948 0.9874460426839133 0.46605669565288854
0.1069947 0.9849755597023082 0.471865402616359
0.1089946 0.9806910156688168 0.4772925120933871
0.1109945 0.977934196068613 0.48253160823431884
0.1129944 0.975297085480893 0.48816929967917294
0.1149943 0.9723326859382915 0.49327946543209306
0.1169942 0.9682530973732915 0.49916860140341857
0.1189941 0.9662937727045605 0.5039752038807072
0.120994 0.9625142848568253 0.5097633678085379
0.1229939 0.9592529613640943 0.515529087478166
0.1249938 0.9553400535393607 0.5206142817451861
0.1269937 0.9520404774211708 0.5273974669380687
0.1289936 0.948829495601909 0.5323027017303514
0.1309935 0.9461073210492065 0.5382445723342227
0.1329934 0.940256451430498 0.5437139265852224
0.1349933 0.9376371167831806 0.548796368153731
0.1369932 0.9338490212049525 0.5553634376320922
0.1389931 0.9310019069371681 0.5598572363176477
0.140993 0.9262920235802358 0.5661989744987908
0.1429929 0.9218195134740134 0.5709041638588778
0.1449928 0.9200487930718425 0.5773417586208693
0.1469927 0.9153550720319732 0.5836079313931837
0.1489926 0.9102917237250547 0.5894921349731207
0.1509925 0.908271391029772 0.5945736109252677
0.1529924 0.9035415166193882 0.5994501948431362
0.1549923 0.8995163496622742 0.6055906427297761
0.1569922 0.8944204945660319 0.6111580988114111
0.1589921 0.8910499235498989 0.6174729936511238
0.160992 0.8867506879630194 0.6218940204851436
0.1629919 0.8829900642050929 0.6274609634413382
0.1649918 0.8785528013077549 0.6334848538810751
0.1669917 0.8748171763297732 0.6390588474392039
0.1689916 0.8688520855219499 0.6434211432161459
0.1709915 0.8661485433663609 0.6497824614089656
0.1729914 0.8619214082893735 0.656153257063616
0.1749913 0.8572861331105984 0.661720298377293
0.1769912 0.8520895855408779 0.6658942523561493
0.1789911 0.847716136679007 0.6718298583860574
0.180991 0.843531071090859 0.676508794212551
0.1829909 0.8390121407610731 0.6806800629141804
0.1849908 0.8319878620752044 0.6876446904754242
0.1869907 0.8295033384104585 0.6923085461076077
0.1889906 0.825386136943148 0.6973308426652409
0.1909905 0.8200936058235484 0.7027142840550376
0.1929904 0.8147520649741377 0.7079563572679709
0.1949903 0.810716295568354 0.7123860562558936
0.1969902 0.8050778707421707 0.7180617222817458
0.1989901 0.8005013627836548 0.7225955808062836
0.20099 0.7957899459552947 0.7286149581509476
0.2029899 0.7905918841656894 0.7333218726863266
0.2049898 0.7861588165082402 0.7377969639016686
0.2069897 0.7808570156610444 0.742896881369813
0.2089896 0.7758442812862151 0.7488930203369412
0.2109895 0.7713277313919379 0.7538003137473659
0.2129894 0.7654118204116814 0.759357200181186
0.2149893 0.7603573163200301 0.7629335654496042
0.2169892 0.7550714122149662 0.7686831178679816
0.2189891 0.7492310119170416 0.7732221613951422
0.220989 0.7449675057631633 0.7775209857399182
0.2229889 0.7393591026828001 0.78106666336235
0.2249888 0.7342824298533311 0.7870532509739216
0.2269887 0.7286120858598655 0.7910795013175322
0.2289886 0.7230750750814182 0.7957150150571128
0.2309885 0.7175985688774967 0.8004758397326953
0.2329884 0.7119918749305872 0.8053530963005812
0.2349883 0.7065469455022929 0.8095405320571237
0.2369882 0.7001788687341925 0.8146008498109664
0.2389881 0.6953570172045996 0.8191384013272589
0.240988 0.6905284486188363 0.8237341814186553
0.2429879 0.685144613224585 0.8276411159497387
0.2449878 0.679226672151935 0.8318263338173238
0.2469877 0.6735608939593933 0.8367917903939588
0.2489876 0.6672856482212984 0.839982775076235
0.2509875 0.6613743924111706 0.8445840557672696
0.2529874 0.6559373317243608 0.848805808717
0.2549873 0.6501580194433999 0.8528530498778369
0.2569872 0.6440839500735267 0.8571038522579834
0.2589871 0.638507064001394 0.860851769630521
0.260987 0.63250950315925 0.8647095967063895
0.2629869 0.6267005641389501 0.8688800838363814
0.2649868 0.621612584082488 0.871903124820833
0.2669867 0.6146753547211696 0.8755913343876168
0.2689866 0.6091656369572784 0.8814475063779833
0.2709865 0.6032338180966066 0.8844051364548604
0.2729864 0.5963221989329359 0.8887489679401422
0.2749863 0.5911692901469328 0.8916645333265498
0.2769862 0.5847488253465902 0.8954544172046842
0.2789861 0.5793474571705595 0.8990468424890159
0.280986 0.5727492427736864 0.903312997858822
0.2829859 0.5665618120374621 0.9061925517425108
0.2849858 0.5603673703903292 0.9103353592139802
0.2869857 0.5545867503239933 0.9137529235045978
0.2889856 0.5482133489138086 0.917190559158251
0.2909855 0.5419548352365103 0.9206534990594504
0.2929854 0.535807558120036 0.9240658330374052
0.2949853 0.5294095780163833 0.9280233697430802
0.2969852 0.5234497712266499 0.9300829581687163
0.2989851 0.5166178655129944 0.9339648383228534
0.300985 0.5107981410936714 0.9370351813337277
0.3029849 0.50381235474877 0.9404013425703842
0.3049848 0.49831788883216505 0.9433684033599758
0.3069847 0.49245615373254636 0.9470117341892806
0.3089846 0.48521451496374446 0.9487104932189225
0.3109845 0.47948493661527636 0.9525970041889557
0.3129844 0.47266555875401584 0.9556004035038432
0.3149843 0.46644140455199556 0.9581433758713032
0.3169842 0.4604876776466546 0.9613067307980091
0.3189841 0.4529940529146189 0.9641182307993257
0.320984 0.44636585555629626 0.9664462255577629
0.3229839 0.4401224639986297 0.9700256490710518
0.3249838 0.4336123813756593 0.9725624876969285
0.3269837 0.4276798469748725 0.9748870834944794
0.3289836 0.4209532403543784 0.9777460387784374
0.3309835 0.4142174580112279 0.9798559720624687
0.3329834 0.40761472292546636 0.9820937731720021
0.3349833 0.4010194468792222 0.9846583619297727
0.3369832 0.39439613104821747 0.9870803224046945
0.3389831 0.3884340934935454 0.9895082634077805
0.340983 0.3817605529931235 0.9919960450384202
0.3429829 0.3743532211196375 0.9942034069991228
0.3449828 0.36763368088649456 0.9962641382109828
0.3469827 0.3612327835942195 0.9992382583036714
0.3489826 0.3540046926939308 1.0008429632194142
0.3509825 0.347887136339736 1.00263340309327
0.3529824 0.3415199034066544 1.0052129803482135
0.3549823 0.3352204877859295 1.0075730676157635
0.3569822 0.3277514112042636 1.0100295737356761
0.3589821 0.3211510912243157 1.0111307428987804
0.360982 0.3136960034143857 1.013112555934074
0.3629819 0.3075920822280282 1.0156725383423209
0.3649818 0.30113414374827885 1.0171520872454967
0.3669817 0.29401105461691124 1.018713698170569
0.3689816 0.28703451561075616 1.020601588519974
0.3709815 0.28161907432090677 1.0218160822949083
0.3729814 0.27385982535120657 1.0233216892385397
0.3749813 0.26674733943326345 1.0251077245253153
0.3769812 0.2605497863771917 1.0265048269034094
0.3789811 0.2536079247617768 1.0285085337021453
0.380981 0.24651478962811868 1.0291533289295909
0.3829809 0.23991240822189203 1.0306343596144645
0.3849808 0.23265663262455238 1.0315842763252776
0.3869807 0.22641386849008904 1.0340896072418664
0.3889806 0.22030835416072075 1.0349934219446137
0.3909805 0.21291475519114827 1.0364181649183077
0.3929804 0.20581902527892462 1.0369317405187124
0.3949803 0.19955495155186503 1.038219778188307
0.3969802 0.19212967796748082 1.039137948030223
0.3989801 0.18526484733562462 1.0409477290022409
0.40098 0.17778998825238002 1.0413017727619487
0.4029799 0.1719370916793817 1.0423218481247454
0.4049798 0.16465318620086486 1.0434523667890778
0.4069797 0.15763733962969978 1.0437277354056904
0.4089796 0.15100142690206128 1.0454958643154773
0.4109795 0.1442440028436326 1.045128087162698
0.4129794 0.1370413166985885 1.0461903511727482
0.4149793 0.13014011996192482 1.0469306662006137
0.4169792 0.12395475786260404 1.0487253243259829
0.4189791 0.11714709422001923 1.0486894792789172
0.420979 0.11007323413082881 1.0497658675588053
0.4229789 0.10323461722914866 1.0490570731561972
0.4249788 0.09616909091354059 1.0497317743433103
0.4269787 0.08971764902753399 1.0501769454257637
0.4289786 0.08288195361524071 1.050724335862606
0.4309785 0.076179706755511 1.05074009081344
0.4329784 0.06898902030364991 1.0511069466125993
0.4349783 0.062280505718023044 1.0516990151289312
0.4369782 0.055688533444223004 1.0525572562625558
0.4389781 0.04826707277104722 1.0525346804226858
0.440978 0.04128256391517279 1.051727992011438
0.4429779 0.035025316718657204 1.0528004648295497
0.4449778 0.027723689939708113 1.0524499589545648
0.4469777 0.021452074776918212 1.052631177614648
0.4489776 0.014537151875804857 1.0524953969587751
0.4509775 0.0073204016686669315 1.052134788992604
0.4529774 0.0005783318944663496 1.0519252345347936
0.4549773 -0.0059031222021107554 1.0518001305176967
0.4569772 -0.012829610745330552 1.0518439660876566
0.4589771 -0.02008514750630795 1.0520357365858293
0.460977 -0.026406901846660245 1.0514875410766154
0.4629769 -0.033382471762019514 1.050910267148987
0.4649768 -0.039814220939738715 1.0509721776578023
0.4669767 -0.04674057547425821 1.0503682395887666
0.4689766 -0.05380797748402625 1.0494819835845
0.4709765 -0.06055629915172525 1.0489933240055032
0.4729764 -0.06687903121030626 1.0482182213232527
0.4749763 -0.07372919983411542 1.0473441503361598
0.4769762 -0.08072444038908924 1.04692429211026
0.4789761 -0.08698717282989968 1.046120607628479
0.480976 -0.09415486587557957 1.0456330505878273
0.4829759 -0.10094372890682582 1.0451706541988801
0.4849758 -0.10780355071894829 1.0442363477716754
0.4869757 -0.1140373583135743 1.043453908549449
0.4889756 -0.12082665749742151 1.0428607399045635
0.4909755 -0.12759456454952509 1.0418097266942732
0.4929754 -0.1345618789518663 1.0403435247786768
0.4949753 -0.14081169585827197 1.0396412205198766
0.4969752 -0.14702555074759885 1.0385152892222833
0.4989751 -0.15403471382230177 1.0372733030378913
0.500975 -0.1604311505576323 1.0355947318100491
0.5029749 -0.167568556931261 1.0354342845858404
0.5049748 -0.17371288148673097 1.0344249335703035
0.5069747 -0.1804177530456661 1.0326599863036143
0.5089746 -0.1868385501118945 1.0317700393285507
0.5109745 -0.1929681672076923 1.0300584421254306
0.5129744 -0.20016792372837422 1.0281252325360022
0.5149743 -0.2069883903886092 1.0268912702516513
0.5169742 -0.21320046125710762 1.0255575275976907
0.5189741 -0.21942019055114642 1.0241155153070265
0.520974 -0.22610467544167764 1.0221782840555935
0.5229739 -0.23267152995752363 1.0212727146718845
0.5249738 -0.2390738019006345 1.0195136182639564
0.5269737 -0.24574108280654203 1.0180963735692568
0.5289736 -0.25193568099030766 1.0162533932049271
0.5309735 -0.2589942106499329 1.0142779887903526
0.5329734 -0.2648247537205625 1.0131964236224282
0.5349733 -0.27081598753323116 1.0110318671758836
0.5369732 -0.2777659469433555 1.0091552520239933
0.5389731 -0.28370573366027857 1.007018542610156
0.540973 -0.2907835741060544 1.0051676303436425
0.5429729 -0.29668251473224216 1.0026856822325305
0.5449728 -0.3029618007260997 1.0012005842909166
0.5469727 -0.3094809105935867 0.999008918881725
0.5489726 -0.3153946009702987 0.9973133215979901
0.5509725 -0.32181279867558843 0.9953597642845087
0.5529724 -0.32843563471616655 0.9932719399334992
0.5549723 -0.3346635422835028 0.9909356541776408
0.5569722 -0.341070732209274 0.9884811445418508
0.5589721 -0.3473165544615894 0.9861785248459689
0.560972 -0.3533209043463172 0.9843240951749831
0.5629719 -0.35917323253735134 0.9816119885574207
0.5649718 -0.3655998320142276 0.9794306516445833
0.5669717 -0.37161080629215104 0.9769800936860331
0.5689716 -0.3778461556329191 0.9751074890079332
0.5709715 -0.38400493343903364 0.9720576899960478
0.5729714 -0.3899161662776831 0.9699383548347269
0.5749713 -0.39600363718236264 0.9673436725806455
0.5769712 -0.40220502603805497 0.9648463752369543
0.5789711 -0.4078315251826059 0.9615751022257663
0.580971 -0.4137314077479179 0.9590992147340227
0.5829709 -0.4201343983946342 0.9562232691509039
0.5849708 -0.4261166803251591 0.9536581956861857
0.5869707 -0.43138566385439553 0.9508753674156935
0.5889706 -0.4379254603723187 0.9478819476435676
0.5909705 -0.44329993479604807 0.9460167629113857
0.5929704 -0.44982620550187746 0.9424922817100612
0.5949703 -0.45558975706992355 0.9398710116326393
0.5969702 -0.4611447319386316 0.9366649813442528
0.5989701 -0.4675224240718356 0.9338288051776754
0.60097 -0.4726375192197586 0.9310833957954289
0.6029699 -0.47852207846913686 0.928078010092207
0.6049698 -0.4845705609530152 0.9247826576636172
0.6069697 -0.490183189438673 0.9214589215910964
0.6089696 -0.49589847686490807 0.9185234916627667
0.6109695 -0.5018132002509943 0.9151545629939731
0.6129694 -0.5074253153948324 0.9122375422475714
0.6149693 -0.5127137770836523 0.9084253848318657
0.6169692 -0.5185384292145203 0.9051193692418689
0.6189691 -0.5239297966732687 0.9023987716684548
0.620969 -0.5294152776271772 0.899219876777733
0.6229689 -0.5353662405200439 0.8957789865847784
0.6249688 -0.5408695214689453 0.8922725894061909
0.6269687 -0.5463626029814149 0.8887346807548994
0.6289686 -0.5519052197669491 0.8852973891178862
0.6309685 -0.5575219566253143 0.8822142718671251
0.6329684 -0.5626964152132837 0.8783864276085233
0.6349683 -0.5682204749530955 0.87515698397639
0.6369682 -0.5737130801603793 0.8716969716805134
0.6389681 -0.5790914866054306 0.8680372498698368
0.640968 -0.5844706090243885 0.8637640225328005
0.6429679 -0.58955388574016 0.8606796072770909
0.6449678 -0.5950757366587449 0.8566661022422329
0.6469677 -0.6005467862124076 0.8533511497127549
0.6489676 -0.6052910337914821 0.8490502556866822
0.6509675 -0.6109921784759639 0.8457705524475624
0.6529674 -0.6160035839384016 0.8416439155114075
0.6549673 -0.6212432028568757 0.8382199126331771
0.6569672 -0.626192484362966 0.8341409775050028
0.6589671 -0.6317259884457427 0.8300024702065306
0.660967 -0.636445985868884 0.8261469796305867
0.6629669 -0.6418089512033044 0.8223549329508719
0.6649668 -0.6464077775381954 0.8184629249519976
0.6669667 -0.6512995652265784 0.814494085752072
0.6689666 -0.6565494697264632 0.8102457322728922
0.6709665 -0.6615995196021252 0.806084232100143
0.6729664 -0.6662538446662367 0.8022516260827341
0.6749663 -0.6713754181914423 0.7980011838857609
0.6769662 -0.67623525577138 0.7940238876494714
0.6789661 -0.6811638345762057 0.7893935566557484
0.680966 -0.6858370175248132 0.7855414889185712
0.6829659 -0.6905912302916637 0.7812712956662164
0.6849658 -0.6954679758023484 0.7771159986633662
0.6869657 -0.700340057553972 0.7730130578473877
0.6889656 -0.7048417460287759 0.7684529123625569
0.6909655 -0.7095334834178525 0.7643005390672574
0.6929654 -0.7142390344437851 0.7598150662515911
0.6949653 -0.718865868899415 0.7554988324584739
0.6969652 -0.7236206282804953 0.751229838413722
0.6989651 -0.7280337495251616 0.7468350815222765
0.700965 -0.73271617366862 0.7422459770402778
0.7029649 -0.7372752505106117 0.7376810760060959
0.7049648 -0.7415459851290985 0.7333730700259865
0.7069647 -0.7462339267138032 0.7289680838472264
0.7089646 -0.7504514648101789 0.7243987127465958
0.7109645 -0.755088118062158 0.7196024228237632
0.7129644 -0.759438524612517 0.7151067720677814
0.7149643 -0.7639123283874445 0.7105299125804672
0.7169642 -0.7682124681598338 0.7060286798906827
0.7189641 -0.7720332129198167 0.700930949491398
0.720964 -0.7765549741689536 0.6964843563950207
0.7229639 -0.7809572692649958 0.6917007247019168
0.7249638 -0.7849748407189882 0.6868910032717316
0.7269637 -0.7892053664372652 0.6822307638953263
0.7289636 -0.7933348757518149 0.6774784644141456
0.7309635 -0.7977082578256611 0.6725887621362082
0.7329634 -0.8014288889758536 0.667670986856367
0.7349633 -0.8057634667474307 0.6630140634791263
0.7369632 -0.8095316558152288 0.6582181831768564
0.7389631 -0.8136965100907172 0.6533058385539852
0.740963 -0.8175350885607091 0.6484802270553268
0.7429629 -0.8212587598653045 0.6434047645779979
0.7449628 -0.8250142004955939 0.6383300135200334
0.7469627 -0.8288350009947403 0.6335501764164874
0.7489626 -0.8328672772442695 0.6282784365356935
0.7509625 -0.8368048940845982 0.6238358688122927
0.7529624 -0.8403143640887192 0.6181604616000236
0.7549623 -0.8439257444447499 0.6132278578313237
0.7569622 -0.8476407195499365 0.6081974476525462
0.7589621 -0.8512665261063159 0.6029778718824287
0.760962 -0.8548522137878256 0.5978545729484941
0.7629619 -0.8587914969575107 0.5926522856736571
0.7649618 -0.8620537386434991 0.5874574230889945
0.7669617 -0.8655748340810618 0.582611800663253
0.7689616 -0.8692283019440141 0.5772882599804352
0.7709615 -0.8728064173013219 0.5718565145455703
0.7729614 -0.8762466475149719 0.5669228349311011
0.7749613 -0.8793984156133083 0.5616154401727186
0.7769612 -0.8828965445738161 0.5560220787071378
0.7789611 -0.8864345692796831 0.5511787201468701
0.780961 -0.8896348507183288 0.5458179765982594
0.7829609 -0.8931166604548426 0.5405297955719142
0.7849608 -0.8961227797466259 0.5350330942275043
0.7869607 -0.8993141061872446 0.5296924270322652
0.7889606 -0.9027818208433954 0.5242217122084897
0.7909605 -0.9056202602881209 0.5189569963069403
0.7929604 -0.9085969275229785 0.5134585123825367
0.7949603 -0.9118497986746033 0.5080255528717794
0.7969602 -0.9152207925712927 0.5024127186898809
0.7989601 -0.918268631578906 0.49712922134573634
0.80096 -0.9207232920777528 0.49142001392843965
0.8029599 -0.9239222105454102 0.48618352343428434
0.8049598 -0.9266883192258512 0.4807759546624984
0.8069597 -0.9295335726559962 0.47501107301891193
0.8089596 -0.9325117799851944 0.4694976003947358
0.8109595 -0.9353144506441157 0.4638550079491451
0.8129594 -0.938221933018267 0.45820902545908776
0.8149593 -0.9407974386405257 0.45263642815346433
0.8169592 -0.9433612977409747 0.44730581202483966
0.8189591 -0.9463543546779528 0.44133524154683373
0.820959 -0.9489937838728646 0.4358786446418032
