! Created with skrf 1.8.0 (http://scikit-rf.org).
# GHz S RI R 50.0 
!freq ReS11 ImS11
0.001 2.140981129632791 -0.5971855991820232
0.0029999 1.8896114352212572 -0.0860690917436962
0.0049998 1.7462592495188929 0.0844628389959704
0.0069997 1.6418594826492572 0.17157243730191554
0.0089996 1.556040421310968 0.22160159871405977
0.0109995 1.490769641934731 0.26483077495381574
0.0129994 1.4313406073643027 0.29324088412562344
0.0149993 1.3874894997549287 0.3081479901580749
0.0169992 1.350238273629858 0.31005651864983236
0.0189991 1.3174284766743054 0.3161952744811581
0.020999 1.2883202119007582 0.31833099486624794
0.0229989 1.2656150807711666 0.31746461513283364
0.0249988 1.249231151097346 0.31803982982887274
0.0269987 1.2293242324984683 0.31654213373127316
0.0289986 1.2170520898374853 0.3177044987024892
0.0309985 1.2052618363938916 0.31596140549307705
0.0329984 1.1955991638329957 0.31714200080469823
0.0349983 1.1836084346695779 0.3155117018719342
0.0369982 1.1752135379565254 0.3195928591656055
0.0389981 1.1686880567981928 0.3187138160544607
0.040998 1.1600748053541823 0.31938875373092057
0.0429979 1.1554774849322464 0.32223734963554695
0.0449978 1.149075272125245 0.32396334159336504
0.0469977 1.1446328977956826 0.3277692617057751
0.0489976 1.1389220759371779 0.3299961652135144
0.0509975 1.1353982522067716 0.3340566792307171
0.0529974 1.130053200241148 0.339712138952419
0.0549973 1.127781622971138 0.33920830303946936
0.0569972 1.1238769240060613 0.3465914390979955
0.0589971 1.119467487712823 0.35020347862149426
0.060997 1.1169722103470034 0.35474400117032123
0.0629969 1.1128520667029924 0.3596132382234966
0.0649968 1.108318953013323 0.36334936480347263
0.0669967 1.1049738890041387 0.3663093931973798
0.0689966 1.1024015654472148 0.37259508391493956
0.0709965 1.0982786247360117 0.3786284852652876
0.0729964 1.09542585452199 0.383366873473357
0.0749963 1.0920710601800527 0.38766031400906464
0.0769962 1.0891946246779194 0.3943035697579076
0.0789961 1.085753438502574 0.3987511131921824
0.080996 1.0833058758420535 0.40499060976099044
0.0829959 1.0803774185017379 0.41005158162407496
0.0849958 1.0760837850886669 0.4173318089350615
0.0869957 1.073466444657655 0.42200589873588945
0.0889956 1.0693505228353022 0.42763106196331346
0.0909955 1.0670275100552749 0.4328958621770107
0.0929954 1.0635458797923814 0.4382613829362091
0.0949953 1.060425656239452 0.44609999945022016
0.0969952 1.0559825389140145 0.45214500843155064
0.0989951 1.0540353560849822 0.45749157243983185
0.100995 1.0511242038666366 0.4634384398057694
0.1029949 1.0474834998501126 0.46837610081310677
0.1049948 1.0432165656644092 0.4747306023740657
0.1069947 1.0401432170915834 0.4815191229226417
0.1089946 1.0358774099261807 0.48770050174784874
0.1109945 1.0324662207593094 0.4926372785248104
0.1129944 1.0292125320681684 0.5000078631023581
0.1149943 1.0253133182599856 0.5055552669691061
0.1169942 1.021535444741357 0.5118448930406971
0.1189941 1.0192925426064874 0.5163611880193018
0.120994 1.0158999758051204 0.5233269127906973
0.1229939 1.0106062017621291 0.5300580248713889
0.1249938 1.0075274058829164 0.5350963622618643
0.1269937 1.0033326052085023 0.5416134534236506
0.1289936 0.999716224207231 0.5468320436686778
0.1309935 0.9970294416741641 0.5540726560090045
0.1329934 0.9912576577942178 0.5596887187319162
0.1349933 0.9879645151968471 0.5656801827187806
0.1369932 0.9837960430749443 0.5727325722664991
0.1389931 0.9803665854325947 0.5775634215912463
0.140993 0.9749789957983372 0.5847870595207363
0.1429929 0.9709073086420325 0.5892316144925567
0.1449928 0.967820247057157 0.5969610890271076
0.1469927 0.9629151233753063 0.6028337525165468
0.1489926 0.9577407592571439 0.6097221367781589
0.1509925 0.9549541706190351 0.6142436473151259
0.1529924 0.9495572262690781 0.6202043597976996
0.1549923 0.9448495638513373 0.6266925874522833
0.1569922 0.9406331421681278 0.6322959779161493
0.1589921 0.9359424999752348 0.6397568678230753
0.160992 0.9322097030635396 0.644386651066767
0.1629919 0.9276351624438502 0.6489695617469275
0.1649918 0.9226465369315858 0.6563112793768812
0.1669917 0.9184806614995157 0.6615342915431183
0.1689916 0.9129076976436018 0.6661671325104734
0.1709915 0.9094306772940566 0.6730854736459136
0.1729914 0.9030480550502402 0.6791646160581242
0.1749913 0.8991197133561607 0.6844953407883699
0.1769912 0.8942394670373351 0.6902352408910446
0.1789911 0.8892914034418224 0.6959465426010552
0.180991 0.8845921069822429 0.7016722251413097
0.1829909 0.8793129194161822 0.705741327772402
0.1849908 0.8733488659732316 0.7122613973563628
0.1869907 0.8693813154441832 0.7162360402210812
0.1889906 0.863771053853684 0.7230225254395246
0.1909905 0.8596534200922493 0.7286272874098622
0.1929904 0.8539382645732196 0.7333357585302859
0.1949903 0.8487539927785748 0.7389272598345062
0.1969902 0.842772983450123 0.7441617027470387
0.1989901 0.8384819097996216 0.749563354636977
0.20099 0.8336590005148259 0.7549427898744352
0.2029899 0.8267042141088977 0.7592605271141574
0.2049898 0.8226660399643919 0.7652983387352459
0.2069897 0.817034366364635 0.7697411692658024
0.2089896 0.811669746512988 0.7757587493735085
0.2109895 0.8060781494750856 0.7813685036151254
0.2129894 0.8005070576429503 0.7865548591761804
0.2149893 0.7939883058708456 0.7906245574757023
0.2169892 0.7893409250677563 0.7964805532640312
0.2189891 0.7823298941800735 0.8012008326671965
0.220989 0.7783149779895092 0.8055270738029244
0.2229889 0.7726426800270246 0.8100881878889431
0.2249888 0.7664014695929057 0.8158261067054249
0.2269887 0.7606272013372471 0.820246290572312
0.2289886 0.7549769853418062 0.8247551016788446
0.2309885 0.7489137949191504 0.8304283994219024
0.2329884 0.7425919730569466 0.8346475151714781
0.2349883 0.7369963339506477 0.8392678763418203
0.2369882 0.7309004254747222 0.8443821580202785
0.2389881 0.724731190517512 0.8485181903386498
0.240988 0.7192419783900216 0.8524841729970477
0.2429879 0.7132997318354888 0.8571550130603262
0.2449878 0.7079182332114106 0.8615966181533522
0.2469877 0.7009256650467653 0.8664611668729351
0.2489876 0.6955092640818621 0.870145627516754
0.2509875 0.6885627793395768 0.8746275568995951
0.2529874 0.682762959219273 0.8790662271683507
0.2549873 0.6758212083991761 0.8823978189561074
0.2569872 0.6707100035206706 0.8867549759051412
0.2589871 0.664638144250181 0.8914149266751361
0.260987 0.6575556691643262 0.895343629878051
0.2629869 0.6518177058905679 0.8984460658502603
0.2649868 0.6459015084867784 0.9022896683751651
0.2669867 0.6389799058026442 0.9069366641472619
0.2689866 0.6329937223018197 0.9121745919661691
0.2709865 0.6264741519972786 0.9146440774956204
0.2729864 0.6198585861004536 0.9194577899470571
0.2749863 0.6133241050104946 0.9229048933497533
0.2769862 0.6068867063313971 0.9257355787106574
0.2789861 0.6007854880523325 0.929522576401287
0.280986 0.5942490038501198 0.933348115646625
0.2829859 0.587396629240095 0.9365674619707679
0.2849858 0.580860058116415 0.940908975055558
0.2869857 0.5740682785768724 0.9443377273478777
0.2889856 0.5674174401998842 0.9477193431306566
0.2909855 0.5609683656862411 0.950700858886103
0.2929854 0.5541929249621188 0.9545450210050158
0.2949853 0.5474754960432365 0.9584454143467702
0.2969852 0.5411537987680128 0.9602521979278644
0.2989851 0.5343242195318453 0.9641173877298285
0.300985 0.5284266319126563 0.9675197266574086
0.3029849 0.5226171437565241 0.9709750747676621
0.3049848 0.5141649088970772 0.9739453383401694
0.3069847 0.5085683879276999 0.9763957797245267
0.3089846 0.5011650735509842 0.9793612009062925
0.3109845 0.4950545420324402 0.9828942326085128
0.3129844 0.48746799236518507 0.9858742546699621
0.3149843 0.48100877760432376 0.9880058362068542
0.3169842 0.4750937626530731 0.9913581079837053
0.3189841 0.4672111479300721 0.9932255399211122
0.320984 0.45994324991873875 0.9960713645618229
0.3229839 0.4533994377028085 0.9997606657377002
0.3249838 0.4461075851472792 1.0017407086312484
0.3269837 0.4406483339001472 1.0042075887051614
0.3289836 0.43280751299164605 1.0067821352223407
0.3309835 0.42626810942216 1.0088937508607032
0.3329834 0.4192025548837129 1.010993370819603
0.3349833 0.4120355488939103 1.0127757570523646
0.3369832 0.40516652745201087 1.0154662823451006
0.3389831 0.3984480373784207 1.0178676869776824
0.340983 0.3915285246020546 1.0202954966910696
0.3429829 0.3842379668412923 1.022114722322611
0.3449828 0.37738581117168424 1.024307133150885
0.3469827 0.3703653248354392 1.0268332471920982
0.3489826 0.3625844048452346 1.0288433295872332
0.3509825 0.35628468885945414 1.0305461669347198
0.3529824 0.3500643588126819 1.031956017611703
0.3549823 0.3426786437874414 1.035055881958991
0.3569822 0.33520893420865827 1.037329319994412
0.3589821 0.3280563343321794 1.037995257989651
0.360982 0.3205902948450528 1.0402019627704577
0.3629819 0.31444356403448903 1.042744683364978
0.3649818 0.30736645770874294 1.0436196891049268
0.3669817 0.30030403570026687 1.0448813029024477
0.3689816 0.29283226766374704 1.046709976024633
0.3709815 0.2871343833199147 1.0479342417028712
0.3729814 0.2788189619620074 1.048900790267437
0.3749813 0.27160515433141574 1.0509057719513506
0.3769812 0.2649349599585174 1.0525806259729573
0.3789811 0.2584611557814027 1.0533753476363783
0.380981 0.2502671974838767 1.0535879660741698
0.3829809 0.24325082523687522 1.05545122915449
0.3849808 0.23600007366057785 1.056140434016213
0.3869807 0.22976978400122994 1.0583399837246144
0.3889806 0.22270143851937912 1.059618480880216
0.3909805 0.21526762786541237 1.0602261860042355
0.3929804 0.20801978609695215 1.061027649356485
0.3949803 0.20071764019273167 1.0620598729382074
0.3969802 0.19322715882095412 1.062963489628667
0.3989801 0.18688218329685494 1.0643594449092728
0.40098 0.1794141497104184 1.0644783344466047
0.4029799 0.17219803534078582 1.0647541701707803
0.4049798 0.16561080912543696 1.0661396872965911
0.4069797 0.15833576169205477 1.0666989885657971
0.4089796 0.15121732291265153 1.0678541526723506
0.4109795 0.14422771883440993 1.0669976408016875
0.4129794 0.13702742615990854 1.068027264121003
0.4149793 0.1300372191173499 1.0687597765660808
0.4169792 0.12297091455861059 1.0695598821923975
0.4189791 0.11573894337437016 1.0703694300189557
0.420979 0.10870851078339941 1.0704190940916423
0.4229789 0.10129723465573866 1.0695861095170889
0.4249788 0.09426110477139094 1.070048034114841
0.4269787 0.08738266918593712 1.0703781571657454
0.4289786 0.08064091735978118 1.0704588018439427
0.4309785 0.07344141792866576 1.0705164998345442
0.4329784 0.0662248635696474 1.0705695171671277
0.4349783 0.05931892454461523 1.0709676969404018
0.4369782 0.05258730747868205 1.0713985459537716
0.4389781 0.04489859116654358 1.0709592375320565
0.440978 0.03810275304680616 1.0703410712097245
0.4429779 0.030938788602631127 1.070751644736085
0.4449778 0.02395320084102636 1.0705193092918446
0.4469777 0.017439811990612217 1.069947850144613
0.4489776 0.01050833902000773 1.0703821853147408
0.4509775 0.0026599096787450136 1.0688915513631034
0.4529774 -0.003673851898430801 1.068574716978828
0.4549773 -0.010497131497286656 1.0684308604741046
0.4569772 -0.017634412480649286 1.0682042613410125
0.4589771 -0.024799426252034053 1.0680257439574683
0.460977 -0.0314540542913523 1.0676397604094423
0.4629769 -0.03866854582446624 1.0664535732942146
0.4649768 -0.045628477886082444 1.0662952563188552
0.4669767 -0.052121251048684904 1.0655230963840898
0.4689766 -0.05979985729483679 1.064060554144307
0.4709765 -0.06619306421339811 1.0634493085389825
0.4729764 -0.07285686380923014 1.0627421752730202
0.4749763 -0.08044411892675277 1.061492557542834
0.4769762 -0.08684262416688375 1.060740088123522
0.4789761 -0.09402713400891714 1.059472159451885
0.480976 -0.10066288728966839 1.0589222174492356
0.4829759 -0.10758085451685939 1.0580580633785028
0.4849758 -0.11456842111570341 1.0569096561251883
0.4869757 -0.12123307312237525 1.055950364471771
0.4889756 -0.12799746955245908 1.0550487912636315
0.4909755 -0.1350127293956708 1.0534274834174018
0.4929754 -0.14186566258040478 1.0519140509220504
0.4949753 -0.148319536680935 1.051010862979846
0.4969752 -0.15482951479226845 1.0489478652280133
0.4989751 -0.16166580166520095 1.047914092535212
0.500975 -0.1680219814670551 1.0463173252530327
0.5029749 -0.1753828297414674 1.0455142872369627
0.5049748 -0.1817765902338534 1.0441275982141756
0.5069747 -0.18841055464792206 1.0422744420489858
0.5089746 -0.19534701944863408 1.040558110408423
0.5109745 -0.2011628150730359 1.0391948788333438
0.5129744 -0.20846845077871617 1.0367703561571215
0.5149743 -0.2152014408496307 1.0352282626042977
0.5169742 -0.22142442718117128 1.0340690914655808
0.5189741 -0.22808284539400303 1.031805874487589
0.520974 -0.2346022076337691 1.0298091515801109
0.5229739 -0.2413452921247421 1.0285404561479878
0.5249738 -0.24756804598942733 1.0267592039254685
0.5269737 -0.2542030911913464 1.024948117958169
0.5289736 -0.2608313077952629 1.0225541954949278
0.5309735 -0.2677673766365113 1.020596259292692
0.5329734 -0.27394881478498806 1.0191557940965104
0.5349733 -0.27977123890063915 1.0167895111443588
0.5369732 -0.28687998535526327 1.0146117438129516
0.5389731 -0.2924445439270441 1.0124290077918263
0.540973 -0.2993952635183355 1.0101566502052182
0.5429729 -0.30559051966955364 1.0073266853071268
0.5449728 -0.3120471968738646 1.0057174273435185
0.5469727 -0.3185458111137273 1.003348314110303
0.5489726 -0.32462490317679643 1.0014251146994055
0.5509725 -0.331091573539552 0.9989560960853121
0.5529724 -0.337568420213231 0.9968974911815118
0.5549723 -0.34384850785343685 0.9941204136916919
0.5569722 -0.3501433364999143 0.9914085856198294
0.5589721 -0.35628425538415587 0.9889931634460849
0.560972 -0.36237972842305743 0.9866782335062451
0.5629719 -0.36839470521204404 0.9838814353896301
0.5649718 -0.3748028744179881 0.9813377926916886
0.5669717 -0.38078413088001556 0.9786289092848321
0.5689716 -0.3871015185571158 0.9762261597449252
0.5709715 -0.393146887803399 0.9731409033852607
0.5729714 -0.39905642420169096 0.9706200279356033
0.5749713 -0.40521643426638876 0.9680526166169674
0.5769712 -0.4114106821483107 0.9647944825860563
0.5789711 -0.4171737944261653 0.9614246428959935
0.580971 -0.4229709057366082 0.9586833874475255
0.5829709 -0.42904872879756056 0.9559416752285164
0.5849708 -0.4348813035809487 0.9533079030557211
0.5869707 -0.4403060131027618 0.9499454557664667
0.5889706 -0.4470207450970267 0.9467247493976918
0.5909705 -0.45256816613950773 0.9442939137648895
0.5929704 -0.45894554194228454 0.9407548937659936
0.5949703 -0.46454908416027085 0.9378615300960352
0.5969702 -0.4699224049027525 0.9348683432000904
0.5989701 -0.4763871938324641 0.9313207208214356
0.60097 -0.48178420495498553 0.9281709200629046
0.6029699 -0.48753178594483004 0.9251167021047202
0.6049698 -0.4933850816310328 0.9218198230350484
0.6069697 -0.49878692611907727 0.9181673924908371
0.6089696 -0.5046845860625475 0.9149789432370833
0.6109695 -0.5104211473862094 0.91150612689025
0.6129694 -0.5158402646695427 0.9083560245274811
0.6149693 -0.5213441408439958 0.9043049234417557
0.6169692 -0.5269445119496909 0.9006323851812328
0.6189691 -0.5322899547256897 0.8978585740481174
0.620969 -0.5380797268310791 0.8945870321897309
0.6229689 -0.5436299183058594 0.8907125521493346
0.6249688 -0.5489820364043778 0.8871409701685866
0.6269687 -0.5544397075402503 0.8834239313629333
0.6289686 -0.5600770171124082 0.8797820772913186
0.6309685 -0.5654288875074286 0.8762830655496522
0.6329684 -0.5705540801946913 0.8723846781063348
0.6349683 -0.576050514181629 0.8686816566487299
0.6369682 -0.581370752251442 0.8651123458445977
0.6389681 -0.5867513166166619 0.8613536924499952
0.640968 -0.5920957525589388 0.8568681755779215
0.6429679 -0.5972174728922175 0.8534465516355988
0.6449678 -0.6025289061274428 0.8494055613745791
0.6469677 -0.6077731789462965 0.845935859283841
0.6489676 -0.6126472995414333 0.8413514391284937
0.6509675 -0.6180863113127626 0.8380601377122785
0.6529674 -0.6229131016323288 0.8337265187846596
0.6549673 -0.6281763846144097 0.8300116869222727
0.6569672 -0.6330815437112844 0.8257921144335315
0.6589671 -0.6384429537551959 0.8215413428560354
0.660967 -0.6432427939845877 0.8172847271470092
0.6629669 -0.6480558674687192 0.8135439585105424
0.6649668 -0.6526812093932891 0.8091995815526811
0.6669667 -0.6576877394434534 0.8053839603177693
0.6689666 -0.662870817788204 0.8008449656357642
0.6709665 -0.6681028493860522 0.7965140024308697
0.6729664 -0.6725218957633924 0.792735978146229
0.6749663 -0.6774298455600593 0.7880129293388936
0.6769662 -0.6821512283486258 0.784035871373137
0.6789661 -0.6868424605023987 0.7796363964391054
0.680966 -0.6914803635816611 0.7751459242477194
0.6829659 -0.6961011419505031 0.7708206833938755
0.6849658 -0.7008485723807806 0.766441821652928
0.6869657 -0.7056678523710429 0.7621693883847243
0.6889656 -0.7100506777117738 0.7575109275971367
0.6909655 -0.7145892539765131 0.7532177288282745
0.6929654 -0.7192006554087428 0.7484381968268811
0.6949653 -0.7238164788822664 0.7441302338688243
0.6969652 -0.7284829931689943 0.7397231867987939
0.6989651 -0.7327606672031993 0.7351290487916464
0.700965 -0.7373626006083245 0.7304525647842437
0.7029649 -0.7418344548527529 0.725816215125927
0.7049648 -0.7459532197444548 0.72126294615766
0.7069647 -0.7504026373612631 0.7166303906699556
0.7089646 -0.7546516922145924 0.7121039488631548
0.7109645 -0.7591148462679196 0.7072107012353531
0.7129644 -0.7634138453084869 0.7025491978886869
0.7149643 -0.7677498043034581 0.697759261419236
0.7169642 -0.7718810620159661 0.6933816583222723
0.7189641 -0.7756492502078637 0.6879907023626047
0.720964 -0.779978491018551 0.6835141937681589
0.7229639 -0.7842356961814928 0.6785750339510176
0.7249638 -0.7881538568592161 0.6737573493277403
0.7269637 -0.7922662838898827 0.6687911291260786
0.7289636 -0.7962092998492344 0.6638854517476748
0.7309635 -0.8004789508995412 0.6590594238720181
0.7329634 -0.8041575952871499 0.6540567456677303
0.7349633 -0.8083913660568246 0.6491801266513547
0.7369632 -0.8120700131152565 0.6442116938942165
0.7389631 -0.8161431670657698 0.6393187739600994
0.740963 -0.8198853469939036 0.6344101281841507
0.7429629 -0.8234844152416771 0.62930189328893
0.7449628 -0.8271697113271342 0.6240965654188891
0.7469627 -0.830939092152123 0.6193511471642257
0.7489626 -0.8347716508141422 0.6138693050186069
0.7509625 -0.838543005233953 0.6091485540334772
0.7529624 -0.8421287663774534 0.6036128203511958
0.7549623 -0.8455823281421441 0.5985276882800453
0.7569622 -0.8493128907270906 0.5935359081758336
0.7589621 -0.8527463042305119 0.5881859741895997
0.760962 -0.8562207594806704 0.5831126426639306
0.7629619 -0.8600656370682361 0.5778336474649851
0.7649618 -0.8632581592390508 0.5724919122506629
0.7669617 -0.8665968252283962 0.5676440846596481
0.7689616 -0.8701957851943549 0.562257157574912
0.7709615 -0.8736531777650164 0.5568341303027213
0.7729614 -0.8768688438574606 0.5516600762084689
0.7749613 -0.879921355035234 0.5463882427660369
0.7769612 -0.8834285902626338 0.5407998303255197
0.7789611 -0.8867772856536507 0.5358419781391865
0.780961 -0.889842303240554 0.5303844326359274
0.7829609 -0.8932531604848569 0.5250597521053608
0.7849608 -0.8961221484204843 0.5195521365069904
0.7869607 -0.8992837005596106 0.5141513814288451
0.7889606 -0.9026199604055587 0.5086272687764237
0.7909605 -0.9054575501227038 0.5032248803318993
0.7929604 -0.9082760997485386 0.49786141197740114
0.7949603 -0.9114408354813057 0.4922716855228994
0.7969602 -0.914721472042078 0.48675048321311637
0.7989601 -0.9178080895855071 0.4813466023415605
0.80096 -0.920010298196997 0.4756491885293451
0.8029599 -0.9231215338101043 0.47029090869244605
0.8049598 -0.9258871045849696 0.4649038589019912
0.8069597 -0.9285897801012957 0.45913761667549063
0.8089596 -0.9314683323848608 0.45363477749559333
0.8109595 -0.9341477743827821 0.4479732477401442
0.8129594 -0.9370131948927696 0.4422973361077408
0.8149593 -0.9394881061486802 0.436735594640723
0.8169592 -0.9420107375055319 0.43121791158095035
0.8189591 -0.9449027996549473 0.42546268335304593
0.820959 -0.9474537334872872 0.4198645280407618
