! Created with skrf 1.8.0 (http://scikit-rf.org).
# GHz S RI R 50.0 
!freq ReS11 ImS11
0.001 -1.0000149562061378 0.0001519998241267112
0.0029999 -1.0002062587233573 0.0003751892760619317
0.0049998 -1.000609180335494 0.00046004665808239975
0.0069997 -1.0012122185925592 0.00040183006720054953
0.0089996 -1.0019403635987376 5.868872944134185e-05
0.0109995 -1.0027995472409754 -0.0005829354247766372
0.0129994 -1.003800310233586 -0.0015496692423665193
0.0149993 -1.0048421537162957 -0.002913760844629354
0.0169992 -1.0058994139121267 -0.004638439286384605
0.0189991 -1.0070311818917543 -0.0067907559367121895
0.020999 -1.008267183771118 -0.009339308449817063
0.0229989 -1.0094069135387407 -0.012240556711572703
0.0249988 -1.0104532611149146 -0.015357811240003988
0.0269987 -1.0116844304201476 -0.01906759214726131
0.0289986 -1.0127334529255414 -0.023184529769535667
0.0309985 -1.0135408797227157 -0.027478890456418437
0.0329984 -1.014512709848053 -0.03164434429583002
0.0349983 -1.0154387624711736 -0.03700880500586548
0.0369982 -1.015906351776698 -0.0420068726298137
0.0389981 -1.0164872421962292 -0.04738470591301566
0.040998 -1.0173355786450384 -0.05291883794057045
0.0429979 -1.0177344978411658 -0.05921616964385895
0.0449978 -1.0185584760416477 -0.06473595762712617
0.0469977 -1.0179850859739377 -0.07050458053730005
0.0489976 -1.0183971538899597 -0.07715224450839733
0.0509975 -1.0183492480192726 -0.08334356793488257
0.0529974 -1.0182711472861978 -0.08890324265951705
0.0549973 -1.0184439332422828 -0.09589619650184136
0.0569972 -1.017732700823478 -0.10231456913148032
0.0589971 -1.0179002658078018 -0.10876200709008327
0.060997 -1.0174075076300768 -0.11500214122519617
0.0629969 -1.0171832571756378 -0.12166658277060843
0.0649968 -1.0169899676770717 -0.12895330608521688
0.0669967 -1.0163787379953169 -0.13561880766145756
0.0689966 -1.0156066605525422 -0.14203596849380845
0.0709965 -1.0152628417279637 -0.14907135178504516
0.0729964 -1.0143574070047896 -0.15596900607033415
0.0749963 -1.0134495262910865 -0.16210355331232063
0.0769962 -1.0131305363977081 -0.16844084944319895
0.0789961 -1.011856243222068 -0.17574646432525326
0.080996 -1.0110785942419993 -0.18206219289433628
0.0829959 -1.0097756195552288 -0.18890293207232886
0.0849958 -1.008951745011484 -0.195191207637035
0.0869957 -1.0076730114230843 -0.20256469514690467
0.0889956 -1.007367569132942 -0.2093280407240159
0.0909955 -1.0056552023082295 -0.21566157349287307
0.0929954 -1.0039576490904931 -0.223047416111482
0.0949953 -1.0026187867682512 -0.22852124981131222
0.0969952 -1.0020103982261932 -0.23522757940685138
0.0989951 -1.000380711369473 -0.24155155883612328
0.100995 -0.9981953776158871 -0.24847904240952262
0.1029949 -0.9972113137872611 -0.25575258182776983
0.1049948 -0.9964091953360134 -0.26119697500514905
0.1069947 -0.9943976754633581 -0.2680492763966138
0.1089946 -0.9934864371263252 -0.2742819744394721
0.1109945 -0.991411766989419 -0.2805911027890492
0.1129944 -0.9895589070191682 -0.2871698975409503
0.1149943 -0.9878257160819574 -0.2940508724835753
0.1169942 -0.9863931429599337 -0.30019229128541025
0.1189941 -0.9841515536373604 -0.30705253895991536
0.120994 -0.9823267076099925 -0.31337372408485603
0.1229939 -0.9805705246800898 -0.31953946413175627
0.1249938 -0.9789564648872797 -0.32630458015466557
0.1269937 -0.9769565553503557 -0.33152921908820276
0.1289936 -0.9746812637417603 -0.3383505451601774
0.1309935 -0.9721375514941271 -0.34431282729897567
0.1329934 -0.9718862403635457 -0.3505319579863674
0.1349933 -0.9690379875773525 -0.3570446112112646
0.1369932 -0.9670646115587299 -0.36275437868871263
0.1389931 -0.9645290035157272 -0.36993033119620267
0.140993 -0.9629229371952257 -0.37567418464177027
0.1429929 -0.9608646962273532 -0.38224276685216274
0.1449928 -0.9571712968743781 -0.38815811762273467
0.1469927 -0.955767959632835 -0.393420707112242
0.1489926 -0.9543190079270065 -0.399423753985133
0.1509925 -0.9502167821183249 -0.40586039247333955
0.1529924 -0.9486333151688336 -0.412290616056251
0.1549923 -0.946543387229667 -0.41784948797585053
0.1569922 -0.9446311225698194 -0.4239797701452871
0.1589921 -0.9410146833951579 -0.429315248964645
0.160992 -0.938749313699736 -0.43635017800738196
0.1629919 -0.9361857777221391 -0.4414504086722205
0.1649918 -0.9335951374585495 -0.44706391264767675
0.1669917 -0.9304995736777218 -0.45329607016614093
0.1689916 -0.9295817964576403 -0.45964644058744325
0.1709915 -0.9252746725550862 -0.46490501663117617
0.1729914 -0.9220031122761089 -0.47002120525608876
0.1749913 -0.9195081070211809 -0.47605965142267326
0.1769912 -0.9174415659950568 -0.48222159505570933
0.1789911 -0.9147039323083652 -0.48768815136413385
0.180991 -0.9111976295710965 -0.49418778352895987
0.1829909 -0.9083191994105032 -0.5004887652966894
0.1849908 -0.9072911062810309 -0.5048689059535588
0.1869907 -0.9024109735449538 -0.5109165373450395
0.1889906 -0.8991510698536278 -0.5170325550807124
0.1909905 -0.8965841305726365 -0.5224674205499235
0.1929904 -0.8941743638573026 -0.5280937796329764
0.1949903 -0.8905158603496702 -0.5338580038181371
0.1969902 -0.8877660983789117 -0.538412257917813
0.1989901 -0.8849635493995439 -0.5445896074616787
0.20099 -0.881145779019519 -0.5496089896600691
0.2029899 -0.8780150704180378 -0.5551356948722812
0.2049898 -0.8745432589091924 -0.5613786927562397
0.2069897 -0.8715758277247352 -0.566400710494474
0.2089896 -0.8682229411319092 -0.5711136839435037
0.2109895 -0.8645624098944035 -0.5768086770453386
0.2129894 -0.8614129038996912 -0.5814095715489911
0.2149893 -0.8583319306155791 -0.5881637112776419
0.2169892 -0.8543280150371202 -0.5926598765748448
0.2189891 -0.8513609132705198 -0.5982427847842687
0.220989 -0.8473255391105362 -0.6038692290827381
0.2229889 -0.8444375694800722 -0.6101534200312544
0.2249888 -0.84038384318426 -0.6141870107963078
0.2269887 -0.8369910049245388 -0.6199976859640213
0.2289886 -0.8339155944140207 -0.6251616329826756
0.2309885 -0.830174921023728 -0.6299146174855188
0.2329884 -0.8261372310833983 -0.6348759701041068
0.2349883 -0.8227561529880698 -0.640198803167912
0.2369882 -0.819063077317727 -0.6453516879573441
0.2389881 -0.8149335243429998 -0.6499977634388995
0.240988 -0.8106424868171065 -0.6551779213873458
0.2429879 -0.8065717423147415 -0.6605347046456859
0.2449878 -0.8033274998084435 -0.665635417693661
0.2469877 -0.799472565152091 -0.670075588098445
0.2489876 -0.7958052222357973 -0.6761688217149745
0.2509875 -0.7925414448395501 -0.6805663279823684
0.2529874 -0.7878819167647501 -0.6853856219689323
0.2549873 -0.7836164409233575 -0.690049923743799
0.2569872 -0.7802272594140871 -0.6951380502044847
0.2589871 -0.7755953417522115 -0.7003295120881629
0.260987 -0.7717256032406651 -0.704999836204023
0.2629869 -0.7674774563007851 -0.7100950268546603
0.2649868 -0.7626699455563577 -0.7153375153744197
0.2669867 -0.7597976668324137 -0.7202091766477042
0.2689866 -0.7548733981676472 -0.7234030812680314
0.2709865 -0.750745613939763 -0.7285697959886677
0.2729864 -0.7472468997403571 -0.7326134327577142
0.2749863 -0.7424144041653555 -0.7380216262032713
0.2769862 -0.7379210595450479 -0.7428268287045973
0.2789861 -0.7330921874486642 -0.7476943613487024
0.280986 -0.7291028268604897 -0.7515010959952866
0.2829859 -0.7248367831036813 -0.7568750680845303
0.2849858 -0.7201927989498536 -0.760161348924046
0.2869857 -0.7154627008481389 -0.7649523359923667
0.2889856 -0.7114008801566507 -0.7695819970559352
0.2909855 -0.707005107279619 -0.774194727265625
0.2929854 -0.701975248600905 -0.7785116023734784
0.2949853 -0.6974733410810112 -0.7825266496178545
0.2969852 -0.6927463394758004 -0.7878860574055501
0.2989851 -0.6882450340147392 -0.7910734190716235
0.300985 -0.6837803027699368 -0.7962072338410013
0.3029849 -0.6797309527173525 -0.8001895180112213
0.3049848 -0.67412756561191 -0.804449267714087
0.3069847 -0.6688452120821826 -0.8086573954432884
0.3089846 -0.665493832813377 -0.8135852058498719
0.3109845 -0.6596137626553652 -0.817285252652358
0.3129844 -0.6547119965095018 -0.8213786900482742
0.3149843 -0.650397460539677 -0.8256806837983981
0.3169842 -0.6449087093804527 -0.8294210000139133
0.3189841 -0.6409931524560502 -0.8335351588412874
0.320984 -0.6363797631316439 -0.8376072001493188
0.3229839 -0.630467085484156 -0.8411178329957008
0.3249838 -0.6258291080125864 -0.8453290584046996
0.3269837 -0.6203170272731798 -0.8497662982700395
0.3289836 -0.6152853967688009 -0.8531712448925958
0.3309835 -0.6107817203195771 -0.8575545799502825
0.3329834 -0.6057772709133865 -0.8619136657238446
0.3349833 -0.6006086929596732 -0.865200801111418
0.3369832 -0.5953593345090434 -0.8689200247360165
0.3389831 -0.5899347439559592 -0.8730964344916813
0.340983 -0.5847363314759609 -0.8764039601995317
0.3429829 -0.5797172291864576 -0.8800000654429959
0.3449828 -0.5748320887907226 -0.8839855775441814
0.3469827 -0.5695473515890159 -0.8867470751690723
0.3489826 -0.5647629418698583 -0.8907079191756315
0.3509825 -0.5586639310361982 -0.8944901268656992
0.3529824 -0.5530416675408449 -0.8975733613228154
0.3549823 -0.5472754823832632 -0.9007149500796539
0.3569822 -0.5421934124703207 -0.9040393052237707
0.3589821 -0.5372082350980083 -0.908735820469794
0.360982 -0.5327995410424761 -0.911701263531845
0.3629819 -0.5264555372783127 -0.9147601493993291
0.3649818 -0.5209859566377476 -0.9185498272797771
0.3669817 -0.5158521154807635 -0.9220657952713583
0.3689816 -0.5103716322775783 -0.9256260440465341
0.3709815 -0.5035125758600166 -0.9289124135918416
0.3729814 -0.49894496432017843 -0.9319796153400536
0.3749813 -0.4937226720901333 -0.9348752003261862
0.3769812 -0.4879579269306485 -0.9386323726643432
0.3789811 -0.4816501615885604 -0.9409084025855883
0.380981 -0.4766808705489502 -0.9445445780954017
0.3829809 -0.47103841124812057 -0.9475952382684051
0.3849808 -0.4657790680829407 -0.9510894743250943
0.3869807 -0.4587595713457883 -0.9524932086275258
0.3889806 -0.4527857767244512 -0.9564781174817422
0.3909805 -0.44757921646113974 -0.9588077755577638
0.3929804 -0.4423545822151145 -0.9627734164800633
0.3949803 -0.43587898122152563 -0.9653448827358891
0.3969802 -0.43054101209481815 -0.9685170238466119
0.3989801 -0.42495870131182834 -0.970479115367024
0.40098 -0.4195149872198988 -0.973999214389009
0.4029799 -0.4129128360792233 -0.9765656660137839
0.4049798 -0.407206456335126 -0.9787452940020679
0.4069797 -0.401678505149648 -0.982187166108438
0.4089796 -0.39594996227771245 -0.9834092935613934
0.4109795 -0.38991315210832644 -0.987439229788392
0.4129794 -0.3836552679995839 -0.989924518580385
0.4149793 -0.3782183842282381 -0.9918916709430452
0.4169792 -0.37078526607232853 -0.9933694433280076
0.4189791 -0.36470539112961203 -0.9961429672244158
0.420979 -0.3593278803794375 -0.9983519619182204
0.4229789 -0.3531632112917267 -1.0021598174324562
0.4249788 -0.34753637810947524 -1.0041435409721353
0.4269787 -0.34117985745278634 -1.0064450677220875
0.4289786 -0.33468299411146896 -1.0080346950262706
0.4309785 -0.32875704646789744 -1.0110143539175285
0.4329784 -0.32271536870326245 -1.0131294289107786
0.4349783 -0.3166302391100026 -1.0148935382796087
0.4369782 -0.31023118915417325 -1.0164129124344075
0.4389781 -0.30428882457225115 -1.018522813173372
0.440978 -0.29820858002420214 -1.0211241483037838
0.4429779 -0.29200805059525436 -1.0223833368056106
0.4449778 -0.28552819916876737 -1.0244312677831688
0.4469777 -0.2787777466923914 -1.0269003283308027
0.4489776 -0.2726757078411805 -1.0285777643314542
0.4509775 -0.26707255995232365 -1.030927221350699
0.4529774 -0.260467270994594 -1.0329234070173068
0.4549773 -0.2539077672601628 -1.0339095818657842
0.4569772 -0.24783545703598459 -1.035951224487113
0.4589771 -0.24182000220357722 -1.0368789951545692
0.460977 -0.23474804944988933 -1.0384593421873
0.4629769 -0.22867732468969268 -1.0406277370993129
0.4649768 -0.22195453742474525 -1.041837199727842
0.4669767 -0.21581536562428547 -1.0436854404101334
0.4689766 -0.20968521653913158 -1.0453268029184029
0.4709765 -0.2038631507282187 -1.0472476893693667
0.4729764 -0.19695201520340236 -1.0487100384098569
0.4749763 -0.19050290906571082 -1.0500717598992748
0.4769762 -0.1839670370753274 -1.0512120040264519
0.4789761 -0.17752328023264732 -1.0528154325871846
0.480976 -0.17146123401827984 -1.0531152553882968
0.4829759 -0.16463924729537538 -1.0538843603716248
0.4849758 -0.1580306065108852 -1.055205251556227
0.4869757 -0.15127163776018035 -1.0558412850291439
0.4889756 -0.14454023868940985 -1.0574665545883908
0.4909755 -0.13805425039272917 -1.0581056339949881
0.4929754 -0.1320407344353019 -1.0597066981852754
0.4949753 -0.12530061223953887 -1.0605406281017888
0.4969752 -0.11779063111262261 -1.0620136707511207
0.4989751 -0.1120179666590444 -1.0625933423226288
0.500975 -0.10560249160931792 -1.0644057839342773
0.5029749 -0.09913221394877611 -1.0637108911498485
0.5049748 -0.0919960975898966 -1.0652588111803174
0.5069747 -0.08535152771876692 -1.065996181117865
0.5089746 -0.0787852025865525 -1.0666090610194998
0.5109745 -0.07191558708626863 -1.0667492785346877
0.5129744 -0.06608852726808963 -1.0676688360118323
0.5149743 -0.05990581915186451 -1.0681907449169434
0.5169742 -0.0526017263443575 -1.0682215080919055
0.5189741 -0.04584421104318756 -1.0686983620955794
0.520974 -0.039129014615827615 -1.0689548754000207
0.5229739 -0.032554601898802195 -1.0690896282739035
0.5249738 -0.026312490772715864 -1.0704294806948418
0.5269737 -0.01904102884571522 -1.0700597431956045
0.5289736 -0.012217183290423664 -1.0701564834608939
0.5309735 -0.0061915463394941195 -1.0707782254763432
0.5329734 0.0012704103622176166 -1.070140115944405
0.5349733 0.008156526234074701 -1.0710185810517598
0.5369732 0.01471247034181436 -1.0708654686472572
0.5389731 0.021326327714102894 -1.0710530058882337
0.540973 0.027582545518502408 -1.0708206216658807
0.5429729 0.034448856870759825 -1.0718413625092977
0.5449728 0.041681376587919344 -1.0714041755349966
0.5469727 0.0475600003752657 -1.0711652913667413
0.5489726 0.05518375327295327 -1.0702825333589554
0.5509725 0.06134994416729758 -1.0703468232266193
0.5529724 0.06799095486475076 -1.0694826114092038
0.5549723 0.07458868063802451 -1.0692202864156757
0.5569722 0.08137181713760559 -1.0692791185095967
0.5589721 0.08780260475392374 -1.06908836139681
0.560972 0.09527212058219157 -1.0679795674483914
0.5629719 0.10167075202857205 -1.0679922270907833
0.5649718 0.10806756905562155 -1.0671263748849857
0.5669717 0.11522746096121324 -1.0665976251647917
0.5689716 0.12225558156323477 -1.0656683406415968
0.5709715 0.1289131619223337 -1.065380678069036
0.5729714 0.13554006136074825 -1.0642666020693428
0.5749713 0.14238588900591465 -1.0640907666133848
0.5769712 0.14853049267056315 -1.06270798774132
0.5789711 0.15609392480020645 -1.0622853139502642
0.580971 0.1629256484911506 -1.0612334332283024
0.5829709 0.16876659040190928 -1.0602808602586535
0.5849708 0.17553835623963027 -1.0591036443794577
0.5869707 0.18254449104847276 -1.0580818920381658
0.5889706 0.18944362278939686 -1.0569785292842293
0.5909705 0.19616075571298514 -1.0557666341779017
0.5929704 0.20206946775665818 -1.0548484891707153
0.5949703 0.20927464512871233 -1.0533930726169356
0.5969702 0.21597597910114635 -1.0530321146969452
0.5989701 0.2225913604341127 -1.050352645649803
0.60097 0.23001486166747956 -1.0496282901657983
0.6029699 0.23686533906779872 -1.0485256137689225
0.6049698 0.2433903800875344 -1.0473689828630286
0.6069697 0.25000487743205735 -1.0459203191565722
0.6089696 0.2565008409351114 -1.0443171863121379
0.6109695 0.2627758270672693 -1.043472611346845
0.6129694 0.2693797666378291 -1.0413812144200334
0.6149693 0.27648636243213864 -1.0396932762838937
0.6169692 0.2830218040653686 -1.0374262827324838
0.6189691 0.289955368887789 -1.0353101608657627
0.620969 0.29621312425260055 -1.0335987954179524
0.6229689 0.30279446402456733 -1.0316969341492586
0.6249688 0.3091103965260641 -1.0300045147085777
0.6269687 0.3158127169198307 -1.0282392135915912
0.6289686 0.32257784782791293 -1.0261645838141493
0.6309685 0.3289482586024605 -1.0236630112793623
0.6329684 0.33556285540979086 -1.0223149613398552
0.6349683 0.34226227159868355 -1.0193433305199746
0.6369682 0.34872279172187487 -1.0181165835973611
0.6389681 0.35494868069774554 -1.0156643743386833
0.640968 0.3622517890913843 -1.014141955423795
0.6429679 0.3683930835655982 -1.011323705981725
0.6449678 0.37520505059012 -1.0088714338903062
0.6469677 0.38169129525363377 -1.0066302256530817
0.6489676 0.38806933853619385 -1.0044546174907094
0.6509675 0.3940809577229092 -1.0021369614255413
0.6529674 0.4006581083161018 -0.9989545396664186
0.6549673 0.40713670572742877 -0.9958518429012532
0.6569672 0.41378293546128897 -0.9938903396802607
0.6589671 0.41983470399745654 -0.99097249036889
0.660967 0.42703037424060575 -0.9888560766327117
0.6629669 0.4328850305193759 -0.9853409075832603
0.6649668 0.4389993698433179 -0.983012780618987
0.6669667 0.44540763974131603 -0.9798491411596093
0.6689666 0.4514449515407609 -0.9768697507631537
0.6709665 0.45815813599968963 -0.9753071071332062
0.6729664 0.46496312172931187 -0.9715355011724919
0.6749663 0.47111449508002445 -0.9692405245205687
0.6769662 0.4781094964775826 -0.9657734410149117
0.6789661 0.48427858900574045 -0.9629606246475397
0.680966 0.4897184313113375 -0.9597591061770526
0.6829659 0.4961385102285031 -0.955968729338218
0.6849658 0.5025053545879988 -0.953059811013898
0.6869657 0.5087092734400136 -0.9495929274661892
0.6889656 0.5149530465546068 -0.9468583347545391
0.6909655 0.5209903775495778 -0.9436036032707906
0.6929654 0.5273538753387805 -0.940152681506652
0.6949653 0.5333949126887272 -0.9366264929897048
0.6969652 0.5395339672738477 -0.9331371674349952
0.6989651 0.5453880659371246 -0.9295832470611237
0.700965 0.5515551083806028 -0.9262365217891038
0.7029649 0.5572015428509781 -0.9221719825115853
0.7049648 0.5639127666995831 -0.9191109941509471
0.7069647 0.5696153546209006 -0.9147671390975551
0.7089646 0.5753886327764339 -0.911390497200153
0.7109645 0.5816781425326023 -0.9076206471502944
0.7129644 0.5875156612164523 -0.9036438952027944
0.7149643 0.5938258430242881 -0.900179672015653
0.7169642 0.5990806208988974 -0.8961780581766599
0.7189641 0.6053373761609828 -0.8921252409436087
0.720964 0.6112694551056533 -0.8883029851965549
0.7229639 0.6165394258035737 -0.8844989208044641
0.7249638 0.622670580319524 -0.8810700011560656
0.7269637 0.6287485151725319 -0.8765296529517655
0.7289636 0.6344616500154759 -0.8725535214142208
0.7309635 0.6398886242311461 -0.8679947156613594
0.7329634 0.6458068101175931 -0.8643855553001724
0.7349633 0.6506816558769436 -0.8594310975037533
0.7369632 0.6566901175132465 -0.854749210272166
0.7389631 0.6621458699937375 -0.8505230144740304
0.740963 0.6682227455884123 -0.8463162052442449
0.7429629 0.6737140313007433 -0.8420722595749539
0.7449628 0.6795323078770488 -0.8377499745384097
0.7469627 0.6843963484496929 -0.8331229912926658
0.7489626 0.6898299169328036 -0.8286387612111625
0.7509625 0.6960304291703738 -0.8237805343360318
0.7529624 0.7009159163497897 -0.819469896320784
0.7549623 0.7067878560201464 -0.8150302184999828
0.7569622 0.7117503539163998 -0.8101033804251122
0.7589621 0.7174329314245753 -0.8058000582422389
0.760962 0.722940380441666 -0.801057017793425
0.7629619 0.7284438152663435 -0.7965042761998402
0.7649618 0.7338403451098937 -0.7914386954770586
0.7669617 0.7384952922994634 -0.7868571150372695
0.7689616 0.7438738735230177 -0.7817758502375814
0.7709615 0.7489789894751121 -0.7768051368459642
0.7729614 0.7543750761693708 -0.7717349692072641
0.7749613 0.7594173031344902 -0.7662590282176366
0.7769612 0.7643011878792261 -0.7619131205592409
0.7789611 0.7694554919910658 -0.7563574858419555
0.780961 0.7739263405899908 -0.7513400072728664
0.7829609 0.7790354391634272 -0.7460299846598891
0.7849608 0.7843037906660929 -0.7411530760225982
0.7869607 0.7892428697238264 -0.7356210930776997
0.7889606 0.7940210422655121 -0.7302639538930858
0.7909605 0.7983693853277474 -0.724956033319092
0.7929604 0.803537466312399 -0.7198799404706296
0.7949603 0.8078642651095218 -0.714574957391802
0.7969602 0.8132230046512757 -0.7090226356375942
