! Created with skrf 1.8.0 (http://scikit-rf.org).
# GHz S RI R 50.0 
!freq ReS11 ImS11
0.001 -0.9969053696451327 0.016456794041490752
0.0029999 -0.9871381385981102 0.04709441573998974
0.0049998 -0.9721658406732837 0.07508238345435969
0.0069997 -0.9504865000931298 0.10128111033936221
0.0089996 -0.9237386197109638 0.12666481749277086
0.0109995 -0.8930519732787197 0.1494009610010813
0.0129994 -0.8595225999087146 0.1685423164366967
0.0149993 -0.8241871571723383 0.18558389746591403
0.0169992 -0.7865359150758588 0.20226295774452843
0.0189991 -0.7506275745614088 0.21348365335045708
0.020999 -0.7118331792463473 0.2230554514294253
0.0229989 -0.6747996686013963 0.23299681054594396
0.0249988 -0.6407163943209395 0.2382483394016682
0.0269987 -0.6040200348583578 0.242594050213179
0.0289986 -0.5727164644779754 0.24575241790564478
0.0309985 -0.5399133544434924 0.24891465952806274
0.0329984 -0.511559958883907 0.24931591576409118
0.0349983 -0.4804845195893372 0.24916830845415813
0.0369982 -0.45639230909017026 0.24762257206685376
0.0389981 -0.4288008893532043 0.24784683948646813
0.040998 -0.4046271345068885 0.24559480239275913
0.0429979 -0.3837179600446172 0.2432279864612713
0.0449978 -0.3622448757168005 0.2406373947541848
0.0469977 -0.3446866481746484 0.23824185535201584
0.0489976 -0.3260133799160954 0.2346254351333259
0.0509975 -0.3101839818629657 0.2315304711309587
0.0529974 -0.29681773059409555 0.2267064800974147
0.0549973 -0.2784525586617472 0.22662575188013107
0.0569972 -0.26882981506714865 0.22222796533700556
0.0589971 -0.2547565754716747 0.21828045959506562
0.060997 -0.2432705553237378 0.21580176262946904
0.0629969 -0.2325726594507258 0.21215110840599316
0.0649968 -0.22098505048909828 0.20705872125946562
0.0669967 -0.20960615490123483 0.20483957144034126
0.0689966 -0.2020080434057898 0.20181604282669974
0.0709965 -0.19429672968448847 0.19706524653415897
0.0729964 -0.18586708990513418 0.19535241797765068
0.0749963 -0.17776310499345724 0.19190617900078966
0.0769962 -0.17210511565524597 0.18892375155097868
0.0789961 -0.1647142065438471 0.18566712330803647
0.080996 -0.15921351225496294 0.18375740468195093
0.0829959 -0.15290447445293465 0.18093818231453965
0.0849958 -0.1493295754279806 0.17760131854199623
0.0869957 -0.14297485706724816 0.17506513884644462
0.0889956 -0.1382994622214625 0.1717681285579975
0.0909955 -0.1329308866743224 0.16980958267717064
0.0929954 -0.12824606010576334 0.16765317043179254
0.0949953 -0.12607091748513843 0.16504779506168135
0.0969952 -0.12252559895664623 0.16202860341542635
0.0989951 -0.11845675589426011 0.16051653752338038
0.100995 -0.11498010400731873 0.1586317839589686
0.1029949 -0.11019448971777719 0.15638172211114296
0.1049948 -0.10802236282958777 0.15338267068375386
0.1069947 -0.10534130965796884 0.15153888551283895
0.1089946 -0.1026871134487751 0.14917728999492127
0.1109945 -0.0997108666132331 0.14731578121615063
0.1129944 -0.09807071702421716 0.14569007927253047
0.1149943 -0.09520841063245537 0.1432296569640122
0.1169942 -0.09311983407349503 0.14126041405365283
0.1189941 -0.08924282128087446 0.1398881866344276
0.120994 -0.08797706589725002 0.13867378785307366
0.1229939 -0.08652096734587181 0.13608678005902736
0.1249938 -0.08320387750519734 0.1347116034138377
0.1269937 -0.08209685593268329 0.13293604201319742
0.1289936 -0.07933611645912614 0.13100111138646117
0.1309935 -0.07853175458051039 0.13093129202248002
0.1329934 -0.07688407104443318 0.12796041718562942
0.1349933 -0.07508061612708769 0.12719816410993742
0.1369932 -0.07400601002497102 0.1257478038378605
0.1389931 -0.07151728183949421 0.12421857456615226
0.140993 -0.07109659625897313 0.12244946025690853
0.1429929 -0.06874015032663569 0.12121444342426824
0.1449928 -0.06813099594341898 0.12118571820306119
0.1469927 -0.06726010843675048 0.11959802656039074
0.1489926 -0.06688186324292861 0.11814433796114421
0.1509925 -0.06426556991238719 0.11781922320982509
0.1529924 -0.06355446908969983 0.11623123069214705
0.1549923 -0.06327590297852911 0.11536591305727689
0.1569922 -0.06207287033855845 0.1144469403384755
0.1589921 -0.06237848164928353 0.11393269650617832
0.160992 -0.060415006073267316 0.11294504363500416
0.1629919 -0.05902189410526638 0.11148488230910329
0.1649918 -0.05933390358352926 0.11090202563072668
0.1669917 -0.058382266933798915 0.10995162752534507
0.1689916 -0.05746615376371435 0.10808743704851201
0.1709915 -0.057079101052111655 0.10830006158031194
0.1729914 -0.057274685489209026 0.10698736027665415
0.1749913 -0.05618603084511438 0.10631755086593424
0.1769912 -0.05570541354281247 0.10565893728342107
0.1789911 -0.055460969175017534 0.10450202710838857
0.180991 -0.054804027626927446 0.1038621244049398
0.1829909 -0.053704925277494084 0.10237183057227152
0.1849908 -0.05419583897052715 0.10128055029186687
0.1869907 -0.05233607672308754 0.10020876605723102
0.1889906 -0.05301439513152857 0.09939996428180793
0.1909905 -0.052391114144587414 0.09909642242854884
0.1929904 -0.051975823240246674 0.09745445700400046
0.1949903 -0.05163939982575519 0.09683063318621982
0.1969902 -0.051439631238491004 0.09567651230055615
0.1989901 -0.050624536800953454 0.09543543952860747
0.20099 -0.04978959704425669 0.09508802303736005
0.2029899 -0.04956190471068837 0.09319281205863908
0.2049898 -0.04903982372011311 0.09330847474852898
0.2069897 -0.048600462523230845 0.09235661302928264
0.2089896 -0.0486619437287985 0.09207069009818711
0.2109895 -0.04841692174163849 0.09140471147384732
0.2129894 -0.048109303525169345 0.09104287782776815
0.2149893 -0.04761924360926617 0.08957657027888366
0.2169892 -0.047170525513278744 0.08985558000007085
0.2189891 -0.047317480953134414 0.08872071552493212
0.220989 -0.04606855235910834 0.08874705861802092
0.2229889 -0.0457667599467341 0.0880292647568887
0.2249888 -0.04619353945099795 0.08767899800620284
0.2269887 -0.045949420817065545 0.08709253817392386
0.2289886 -0.04569388608012741 0.0866541461822002
0.2309885 -0.046187239912301836 0.08673642307897733
0.2329884 -0.04592467370377022 0.08597989331130551
0.2349883 -0.045820941948052106 0.08551814276618228
0.2369882 -0.04584903634038172 0.08533899606536574
0.2389881 -0.04568051714326067 0.08472680470746302
0.240988 -0.04533744459279707 0.08413550512078069
0.2429879 -0.04544650428982457 0.08396628662520035
0.2449878 -0.0451923787931832 0.08358900972287524
0.2469877 -0.04579612575170437 0.08308286911546779
0.2489876 -0.04514758647343064 0.08262223455917908
0.2509875 -0.04575397546960856 0.0819020892498847
0.2529874 -0.04576502769861389 0.08184310939979915
0.2549873 -0.046072676061088426 0.0807441632915136
0.2569872 -0.045528146301718524 0.0803876337767368
0.2589871 -0.045582433338128725 0.0802286641144581
0.260987 -0.04602934485523168 0.07960190720534067
0.2629869 -0.04549519972809105 0.07883391015284301
0.2649868 -0.04523265857951274 0.07837934671623116
0.2669867 -0.0456809319566694 0.07804945253067215
0.2689866 -0.04579331476701365 0.07813408174865809
0.2709865 -0.04557428042974489 0.07710723927056598
0.2729864 -0.04595174216074291 0.07705354631113917
0.2749863 -0.045843899116608085 0.07648145945273851
0.2769862 -0.04568748957016658 0.07576631577617828
0.2789861 -0.04536494753796136 0.07538958267088772
0.280986 -0.0454451628387326 0.07519005074286093
0.2829859 -0.045456382654884844 0.0745087572248191
0.2849858 -0.04564443229153302 0.07456678464779595
0.2869857 -0.045648378853085786 0.07423168341460037
0.2889856 -0.045815071322694315 0.07374623707804881
0.2909855 -0.045660307421742236 0.07324023607569509
0.2929854 -0.04571021552697556 0.07322070387063132
0.2949853 -0.045923261554631244 0.07321837994728428
0.2969852 -0.04578205444202749 0.07258883255264441
0.2989851 -0.046054884874609396 0.07256750770954197
0.300985 -0.046010666517335846 0.0723312332897228
0.3029849 -0.04569501240715069 0.07240398760912392
0.3049848 -0.04651225453865359 0.0718747444884326
0.3069847 -0.046137645111055815 0.07137212736633029
0.3089846 -0.046609399298448616 0.07114919429561409
0.3109845 -0.04669256576748587 0.07125053391417943
0.3129844 -0.04700270329317919 0.07100198944859491
0.3149843 -0.04718239523183162 0.0703650828105633
0.3169842 -0.0471907342833682 0.07059753420802413
0.3189841 -0.047476255141739365 0.06972513529651203
0.320984 -0.04804628167096052 0.06926518169463268
0.3229839 -0.04808861260900327 0.06946275675754586
0.3249838 -0.048540961570436233 0.068674309805169
0.3269837 -0.048048226260763015 0.06846795909121847
0.3289836 -0.04866858776805596 0.06809704127092409
0.3309835 -0.048778536368617315 0.06754178518063567
0.3329834 -0.04882086739940015 0.06704026268997203
0.3349833 -0.04912010816254642 0.06661416316831897
0.3369832 -0.04929048662584349 0.06638390983089693
0.3389831 -0.049266267620969494 0.0661341858189617
0.340983 -0.04955365810710542 0.06581163492009139
0.3429829 -0.04976408514541391 0.06533007345370577
0.3449828 -0.04979992017050552 0.06499794220289477
0.3469827 -0.050125255157832276 0.06489784489256377
0.3489826 -0.05033252530762388 0.06448307805107574
0.3509825 -0.05027302901665379 0.06402744318668252
0.3529824 -0.04995418762727105 0.0637457503045788
0.3549823 -0.05040786332633178 0.06401189969636384
0.3569822 -0.05060419669128743 0.0637600496938703
0.3589821 -0.050802789885059034 0.0628932186867093
0.360982 -0.05107042315486249 0.062910589252287
0.3629819 -0.05104456364284081 0.06307252850962147
0.3649818 -0.05120742318102145 0.062293345044284555
0.3669817 -0.05113484054736454 0.06192470699015154
0.3689816 -0.05143971766712506 0.061883864057908466
0.3709815 -0.051215332681524645 0.06172372924687707
0.3729814 -0.0516744146278174 0.061294092407337505
0.3749813 -0.0520719751752527 0.06137397388734274
0.3769812 -0.052056138201825294 0.06123859478836979
0.3789811 -0.05196138393917035 0.06088806445688611
0.380981 -0.05276489803375441 0.06021102697634194
0.3829809 -0.05299976272960241 0.06034733562154048
0.3849808 -0.05329386327230275 0.05989630634882248
0.3869807 -0.05310560869127772 0.060264858964655735
0.3889806 -0.053373427964633444 0.05996154569605778
0.3909805 -0.05387353727264438 0.05965291105243237
0.3929804 -0.054191241183339185 0.05918213861247881
0.3949803 -0.054738983504241195 0.05910880253260438
0.3969802 -0.05500573441739445 0.058823459064949284
0.3989801 -0.05515632587975466 0.0586567958403605
0.40098 -0.05555564448458429 0.05801495912764723
0.4029799 -0.05591329125486785 0.057540752242608253
0.4049798 -0.055873372470007523 0.05764286837946779
0.4069797 -0.056211829291984775 0.057262422149130666
0.4089796 -0.05649022305182502 0.05723911778316511
0.4109795 -0.056617636522817705 0.05627151781542221
0.4129794 -0.05685492357593995 0.05617315192799274
0.4149793 -0.05709427139129555 0.05601384092254118
0.4169792 -0.057202767092949046 0.055864954011980175
0.4189791 -0.057446735581736325 0.05594422647355807
0.420979 -0.05784007317141074 0.055465064660381626
0.4229789 -0.05822681732965061 0.05453924600688159
0.4249788 -0.05831394976886134 0.054514762572069504
0.4269787 -0.05852602162620049 0.0542364894555783
0.4289786 -0.05868752226031532 0.054060886906519695
0.4309785 -0.05896749687157826 0.0537033849911925
0.4329784 -0.05907846121368125 0.05334243243127896
0.4349783 -0.05929618191497458 0.05339371893981692
0.4369782 -0.05955032356880631 0.05305760784250215
0.4389781 -0.05999635369944457 0.05289349197971029
0.440978 -0.060069521985063504 0.0523607501615984
0.4429779 -0.06042997039450001 0.05248093348402897
0.4449778 -0.060520715083409414 0.052251074461404486
0.4469777 -0.0606345048664671 0.05178143579592326
0.4489776 -0.06085416575689571 0.05190280870188048
0.4509775 -0.06152149943432352 0.0511373324216885
0.4529774 -0.061450626392594576 0.050742383043675184
0.4549773 -0.0617293203149681 0.05090840120910168
0.4569772 -0.06195035155692032 0.05056736082034287
0.4589771 -0.06223952555687102 0.05041113015447466
0.460977 -0.06237608117711746 0.05025282967101899
0.4629769 -0.06285465360230605 0.04965218770648132
0.4649768 -0.0632249238163129 0.04959838425383342
0.4669767 -0.06325473440190608 0.048982495216663854
0.4689766 -0.06392335159326279 0.04861762664405937
0.4709765 -0.06405061797599668 0.04831252234538131
0.4729764 -0.06418862630292231 0.04807463408639882
0.4749763 -0.06468635983336316 0.047729244314522065
0.4769762 -0.06469706770910005 0.047429085429221134
0.4789761 -0.06520765514248457 0.04697842374489516
0.480976 -0.0652743798544377 0.04689007151752625
0.4829759 -0.0653161474846148 0.046642680285539445
0.4849758 -0.06566711586860033 0.046408096299108664
0.4869757 -0.06588759553641868 0.04630242673439626
0.4889756 -0.06600184175011817 0.046029545874663305
0.4909755 -0.06631471700376813 0.045557193832428566
0.4929754 -0.06665256363118881 0.04530426091887587
0.4949753 -0.06667307685530104 0.045284254045344814
0.4969752 -0.06682979145973839 0.0445022479712182
0.4989751 -0.06690273974094771 0.0445439985155186
0.500975 -0.06700990182613172 0.04407524020657022
0.5029749 -0.06754601563017461 0.04447940993445789
0.5049748 -0.06768433863392675 0.04407848364191656
0.5069747 -0.0679912444974635 0.043784869821630115
0.5089746 -0.06856592007651438 0.043723967677008445
0.5109745 -0.06844094139083451 0.043323733941727754
0.5129744 -0.06917218530399392 0.04295316052138297
0.5149743 -0.06952942153474426 0.0427141101824585
0.5169742 -0.06954411223318487 0.04270112943250229
0.5189741 -0.07010570768115966 0.04228498018043979
0.520974 -0.07038160742062194 0.04211304611460276
0.5229739 -0.07076195063919483 0.04193637705956292
0.5249738 -0.07097389758948172 0.04167526686454112
0.5269737 -0.07124323330666817 0.041384656485162014
0.5289736 -0.07180349987302817 0.04111843152835967
0.5309735 -0.07231236352281945 0.04066258319230539
0.5329734 -0.07241053782379965 0.04051379806006345
0.5349733 -0.07255089983551505 0.04000701808510882
0.5369732 -0.0731998875393916 0.03971151332783476
0.5389731 -0.07329555707922913 0.03918610546579106
0.540973 -0.07371239903065634 0.03880282441107525
0.5429729 -0.07405924071543217 0.03814879238192345
0.5449728 -0.07415499650741686 0.03799761873742255
0.5469727 -0.07453029335138844 0.03747744589829197
0.5489726 -0.07459300874303142 0.03737822566761423
0.5509725 -0.07494465129740924 0.03689186338740526
0.5529724 -0.07516752880281317 0.03675087772418227
0.5549723 -0.07547699119276792 0.03628953763432654
0.5569722 -0.07575938068515588 0.03582461551809757
0.5589721 -0.0758690784280018 0.03530203451388916
0.560972 -0.07578401226195508 0.03513264291012799
0.5629719 -0.07582036040871208 0.03460665793399251
0.5649718 -0.07595680080671365 0.03454285601837786
0.5669717 -0.07614471693475426 0.03410903788346614
0.5689716 -0.07633690021989505 0.03405203393738454
0.5709715 -0.0765878007425481 0.03352633255792338
0.5729714 -0.0765783667235286 0.03346871192517474
0.5749713 -0.07658869029715776 0.033244726949912436
0.5769712 -0.0770957297750491 0.03308972056556169
0.5789711 -0.07736574026895515 0.03262418136718483
0.580971 -0.07766882195100692 0.03240603555736281
0.5829709 -0.0779893581780357 0.03244252495534257
0.5849708 -0.07791806314850683 0.03230319719903495
0.5869707 -0.07825050832755204 0.03198028484708891
0.5889706 -0.07886264160677456 0.031736356381502254
0.5909705 -0.07910167224202352 0.03148175106687514
0.5929704 -0.07976104861559044 0.03115609145553851
0.5949703 -0.07988048813357732 0.030964725080596788
0.5969702 -0.07991469403196294 0.030335223512255816
0.5989701 -0.08060399444409247 0.030115253974286126
0.60097 -0.08096588054779849 0.029544770491759437
0.6029699 -0.08117466315154365 0.029306773312738153
0.6049698 -0.08149586141162378 0.028899212251974365
0.6069697 -0.0819450437979147 0.028407660355973523
0.6089696 -0.08219576400234896 0.02826728017229616
0.6109695 -0.08265164936429445 0.027600171087560757
0.6129694 -0.08291476024894415 0.027339245576574512
0.6149693 -0.08303099372146101 0.02688091100470221
0.6169692 -0.08330713134906809 0.02635154746109014
0.6189691 -0.08306177138219656 0.02604092963572136
0.620969 -0.08352711946576558 0.025907135502070744
0.6229689 -0.08382004095315423 0.025261061573483002
0.6249688 -0.08397711403834068 0.024906559374963524
0.6269687 -0.08422072491109552 0.024302282021017974
0.6289686 -0.08444340860142824 0.02402134873002749
0.6309685 -0.08451114007345192 0.023590658004726265
0.6329684 -0.0847086086313621 0.023182571708694685
0.6349683 -0.08443258323908549 0.0231386446236443
0.6369682 -0.08464281727551543 0.02259433273576214
0.6389681 -0.0847111532231062 0.022469808408015917
0.640968 -0.08487928981896915 0.022141001371074987
0.6429679 -0.08504370774977194 0.021966392857082673
0.6449678 -0.08518337907901627 0.021932954761408042
0.6469677 -0.08530744823266508 0.02183972643610213
0.6489676 -0.08597563993187518 0.021417736373623646
0.6509675 -0.08592788387942571 0.021291720047996128
0.6529674 -0.08601156369513879 0.020966421598918258
0.6549673 -0.08631294797617758 0.020953952941819298
0.6569672 -0.08666980803291612 0.020472070931814256
0.6589671 -0.08714363128686117 0.020332472721866227
0.660967 -0.08772091192814921 0.01983528955739745
0.6629669 -0.08772101504323582 0.019565201702862054
0.6649668 -0.08834694667759961 0.019198630353188095
0.6669667 -0.08860399932548338 0.019074933723274443
0.6689666 -0.08915335608754962 0.018764544459542173
0.6709665 -0.08980109802818417 0.018530591424397194
0.6729664 -0.08960199910566606 0.017859750886166405
0.6749663 -0.09004677428994258 0.017150570254306573
0.6769662 -0.09012625150899678 0.016854187827125142
0.6789661 -0.09025194104655618 0.01641588658666583
0.680966 -0.091029714327492 0.015848543348668663
0.6829659 -0.09115511068168196 0.015363088385365858
0.6849658 -0.09113053396712911 0.01497481007638091
0.6869657 -0.09155425438760852 0.014616468565123063
0.6889656 -0.09182874741064936 0.01377174407284596
0.6909655 -0.09202741165580904 0.013331374399723477
0.6929654 -0.09227253683226025 0.012551953713194345
0.6949653 -0.09235876024839028 0.01220730930742649
0.6969652 -0.09257130475468091 0.011569000605443094
0.6989651 -0.09260391220244006 0.011211949946738048
0.700965 -0.0926720965525436 0.010668931443699792
0.7029649 -0.09294006472147924 0.01034133699338034
0.7049648 -0.0926026983474397 0.009699112287218536
0.7069647 -0.09242219375612598 0.009377437564731698
0.7089646 -0.09242147726428655 0.008974628294611486
0.7109645 -0.09245340651046838 0.008732039576767998
0.7129644 -0.09241740840980833 0.008561111825902506
0.7149643 -0.09245225325517925 0.008137930190229941
0.7169642 -0.09246610347990669 0.008065038496549794
0.7189641 -0.09271205116585941 0.007571681821147723
0.720964 -0.09295671076317599 0.007258716723177228
0.7229639 -0.09325285302173149 0.0070516043917809995
0.7249638 -0.0928850514104214 0.006778515167222967
0.7269637 -0.09305762306287092 0.006563182918586208
0.7289636 -0.0934675718979001 0.006247305520194257
0.7309635 -0.0935811488164523 0.006443274561421613
0.7329634 -0.0938415738783295 0.005946992189184531
0.7349633 -0.09414834475353742 0.005727670919849836
0.7369632 -0.09466738489351702 0.005462570487102528
0.7389631 -0.09478278459561683 0.0053788494393843325
0.740963 -0.09520206135119695 0.0048067322015954775
0.7429629 -0.09517153534706395 0.004582803405125048
0.7449628 -0.09573091196527236 0.004098725421046636
0.7469627 -0.09609656803711326 0.003841216388758159
0.7489626 -0.09654383563642824 0.0032754622567666355
0.7509625 -0.09665839470248737 0.002525986376930269
0.7529624 -0.09737955193694357 0.0022996150058218826
0.7549623 -0.09763382215213579 0.0016288562611475668
0.7569622 -0.0977634922723392 0.0011683267709442294
0.7589621 -0.09793639422118712 0.00046401850991908966
0.760962 -0.09809207072116424 1.2069150760886382e-05
0.7629619 -0.09833668782461998 -0.000873439327032724
0.7649618 -0.09846203064765328 -0.0012077920096215111
0.7669617 -0.0984246533018211 -0.0015589535649516637
0.7689616 -0.09846215484743899 -0.0023328060238760953
0.7709615 -0.0986601934897068 -0.0028726166291354917
0.7729614 -0.09862597302908456 -0.0033317125536759043
0.7749613 -0.09862351147711673 -0.0038025979282529376
0.7769612 -0.09876667252030363 -0.004386749701546119
0.7789611 -0.09872464730743638 -0.004941572752538145
