! Created with skrf 1.8.0 (http://scikit-rf.org).
# GHz S RI R 50.0 
!freq ReS11 ImS11
0.001 -0.999918034007402 0.0030569688426185793
0.0029999 -1.0011953013452306 0.008786801175100889
0.0049998 -1.0039164765774238 0.013995132509741326
0.0069997 -1.0081453201268664 0.018798708345062254
0.0089996 -1.0133355683091412 0.022713829135036445
0.0109995 -1.0194424409588516 0.025987942364599226
0.0129994 -1.0266441116918823 0.027932690880010214
0.0149993 -1.034410151111825 0.02897831275619034
0.0169992 -1.042284752613876 0.029074281663426738
0.0189991 -1.0502249312153455 0.028085800515327553
0.020999 -1.0585749097595407 0.026110964122035563
0.0229989 -1.066646073532628 0.023291673043445482
0.0249988 -1.074286911863513 0.019844745096264882
0.0269987 -1.0818578411712696 0.014396899476268044
0.0289986 -1.0893763981685 0.009616243372260747
0.0309985 -1.0968466718072696 0.003824395046660767
0.0329984 -1.103019722279446 -0.0020457733268430256
0.0349983 -1.1098411679879019 -0.01000178964462789
0.0369982 -1.1151830494572 -0.017050880318855988
0.0389981 -1.1208161460220607 -0.024984384988886166
0.040998 -1.1251704143379873 -0.0325712319318785
0.0429979 -1.1302696428247976 -0.04064029704622846
0.0449978 -1.1346126726472945 -0.04914619278649335
0.0469977 -1.1382563983446248 -0.05773555866673957
0.0489976 -1.141840138137717 -0.06611984651880554
0.0509975 -1.1451171181834936 -0.0742679814640472
0.0529974 -1.1465702575750796 -0.08313951188494423
0.0549973 -1.1492612388712362 -0.09260894820247453
0.0569972 -1.1526925230902108 -0.10040583057283958
0.0589971 -1.154301401550635 -0.10865871898551308
0.060997 -1.156529522218636 -0.11777655779096173
0.0629969 -1.157595075462305 -0.12646388713750933
0.0649968 -1.1587731502467153 -0.13532852344968183
0.0669967 -1.1595627212201332 -0.14451895484452043
0.0689966 -1.160508498784218 -0.15330017373984478
0.0709965 -1.1611678572451654 -0.1610323895164429
0.0729964 -1.161580668860203 -0.17048050373193765
0.0749963 -1.162076476526799 -0.17891256824418403
0.0769962 -1.1619427964777658 -0.18648559441384785
0.0789961 -1.1622587287129977 -0.19581006094236256
0.080996 -1.162191929061745 -0.20383018263015207
0.0829959 -1.1612562485493687 -0.2122733961242143
0.0849958 -1.1615680028460935 -0.2203246108930622
0.0869957 -1.1605344550863173 -0.22948399683873089
0.0889956 -1.160483170468014 -0.23718418005926778
0.0909955 -1.1598161291462952 -0.2457403567865874
0.0929954 -1.1590381872835285 -0.25411436040660595
0.0949953 -1.1569359472947147 -0.261185937828368
0.0969952 -1.1564541053586364 -0.2692585662116235
0.0989951 -1.1548376824599815 -0.278134462722633
0.100995 -1.1551243471924602 -0.2863156043153609
0.1029949 -1.1529464314969635 -0.2945093823179018
0.1049948 -1.15157317902048 -0.30170828355577417
0.1069947 -1.1494478716824013 -0.3098920544889192
0.1089946 -1.1480676986657536 -0.31711697851990045
0.1109945 -1.146509577725048 -0.32560225362663264
0.1129944 -1.1457961249687583 -0.33304962938111293
0.1149943 -1.1425515576179697 -0.34088404108936987
0.1169942 -1.1411697303327695 -0.3483720873950794
0.1189941 -1.138847923331807 -0.35617601780215824
0.120994 -1.137190327556683 -0.364781002247923
0.1229939 -1.1344159248481196 -0.371393992205787
0.1249938 -1.1320319911901966 -0.37863117277585956
0.1269937 -1.129958078725819 -0.38555197076907854
0.1289936 -1.1276266879415155 -0.3940009625970828
0.1309935 -1.1251301342746542 -0.40161404745093987
0.1329934 -1.1231810937624234 -0.40669177924228983
0.1349933 -1.1209340702363204 -0.4154962325633431
0.1369932 -1.1179971278761633 -0.4219794711570986
0.1389931 -1.114832503966158 -0.43030982827838105
0.140993 -1.1130185109041062 -0.4368869978842329
0.1429929 -1.1104948011450868 -0.4437789601347921
0.1449928 -1.1068610960326748 -0.4508761440821745
0.1469927 -1.1045282187578431 -0.4585494838732704
0.1489926 -1.1019192079235502 -0.4645193180958921
0.1509925 -1.0981747209946413 -0.47268926136470346
0.1529924 -1.0955381601134344 -0.4787063651326481
0.1549923 -1.0935276052689966 -0.4862622863668917
0.1569922 -1.0907703423578452 -0.4931596653266532
0.1589921 -1.086404249418204 -0.499696373379731
0.160992 -1.0833768299390347 -0.5077317370000354
0.1629919 -1.0798731535254416 -0.514053588397901
0.1649918 -1.0766084403425193 -0.5204286200483498
0.1669917 -1.0738463782132552 -0.5275544018217659
0.1689916 -1.070490330927007 -0.5332683981472014
0.1709915 -1.0662420993687678 -0.5410360632886204
0.1729914 -1.0631410108624055 -0.5475343311941597
0.1749913 -1.0600658009490393 -0.554811005523959
0.1769912 -1.0555699060544868 -0.5604391265567518
0.1789911 -1.053008473355263 -0.5678450283464038
0.180991 -1.0489237262507147 -0.574007727724877
0.1829909 -1.0448804760467492 -0.5809374784776642
0.1849908 -1.0413731196852885 -0.5855274640902325
0.1869907 -1.036651947213408 -0.5922915720704136
0.1889906 -1.033602680758742 -0.5991849155243637
0.1909905 -1.0290742739611496 -0.6055076861495233
0.1929904 -1.0257467558474298 -0.6128030819873032
0.1949903 -1.0211449034546665 -0.6189325270219418
0.1969902 -1.017625967787907 -0.623822396573591
0.1989901 -1.013644329967539 -0.6300138401203251
0.20099 -1.0096452625219938 -0.6356515602319587
0.2029899 -1.005569055541132 -0.6423784020575731
0.2049898 -0.999980208623342 -0.6482511892784522
0.2069897 -0.9977969123664435 -0.6542592953560034
0.2089896 -0.9938709201101393 -0.6603026909166421
0.2109895 -0.98947251305661 -0.6665469456017143
0.2129894 -0.9838285602109986 -0.6721489133318225
0.2149893 -0.9806748837889011 -0.6789284464483623
0.2169892 -0.9766209875747471 -0.6837673464288593
0.2189891 -0.971158751590671 -0.690684603020849
0.220989 -0.9663563673743892 -0.6954614087340437
0.2229889 -0.9631639574073839 -0.7011545611238014
0.2249888 -0.9573003696487868 -0.7064887920290638
0.2269887 -0.9525937733104558 -0.7127280039379132
0.2289886 -0.9490592019437964 -0.7193475561971117
0.2309885 -0.9444980782167751 -0.7247540273723936
0.2329884 -0.9395076746496442 -0.730234049118262
0.2349883 -0.9344852499111309 -0.7357817208028327
0.2369882 -0.9299940548697756 -0.7411077819459645
0.2389881 -0.9255456811948479 -0.746926628923007
0.240988 -0.9200295407130296 -0.7521497666570733
0.2429879 -0.9149546677501912 -0.7583457930589116
0.2449878 -0.9103923475798817 -0.7631341281794894
0.2469877 -0.9061869978917204 -0.7691259231788723
0.2489876 -0.8999194290008792 -0.7743277994363369
0.2509875 -0.8959023917483571 -0.7791092299894132
0.2529874 -0.8906747731812303 -0.7844686846574342
0.2549873 -0.8855263648442022 -0.7889996568513087
0.2569872 -0.8814698157070614 -0.7944233369168039
0.2589871 -0.8750359939503902 -0.8004188657453165
0.260987 -0.8702440021270821 -0.8059280657114062
0.2629869 -0.8646912783909286 -0.8102876147130129
0.2649868 -0.8598078238591125 -0.8147218987349021
0.2669867 -0.8548699155771948 -0.820457803885734
0.2689866 -0.8500225737123104 -0.8246398795128199
0.2709865 -0.8438690171270964 -0.8294596255227605
0.2729864 -0.8389537392451571 -0.8337651534599749
0.2749863 -0.83322670340279 -0.83988230885178
0.2769862 -0.8284105235062177 -0.8443462487485489
0.2789861 -0.8217804755078199 -0.8487383198880548
0.280986 -0.8179389667116238 -0.8541882888814593
0.2829859 -0.8117550854767647 -0.8584520694900284
0.2849858 -0.8063466400650213 -0.8636730349955547
0.2869857 -0.7996722048643787 -0.8669215743957004
0.2889856 -0.7951972839281036 -0.8722130374838468
0.2909855 -0.7898696293822443 -0.8774937255844878
0.2929854 -0.7836003337983933 -0.8810190069404271
0.2949853 -0.7779395154536541 -0.886295188524528
0.2969852 -0.772501888419176 -0.8911627140559693
0.2989851 -0.7673240193963751 -0.8945891523087907
0.300985 -0.761395379871348 -0.8994154630917387
0.3029849 -0.7561553964804231 -0.9038857001961906
0.3049848 -0.7493158327926905 -0.9072097914120304
0.3069847 -0.7433488051179249 -0.9116493673598985
0.3089846 -0.7379187038309628 -0.916146661978824
0.3109845 -0.7325042837873984 -0.9210934214368492
0.3129844 -0.7258240629514732 -0.9247073865255183
0.3149843 -0.7204488398701282 -0.929042098647842
0.3169842 -0.7139978541666248 -0.9327997740520745
0.3189841 -0.7098141948351027 -0.9381589694913841
0.320984 -0.7036978566772829 -0.9413369068330174
0.3229839 -0.6961965286767455 -0.9437481421140879
0.3249838 -0.6909027658650464 -0.9492261284187216
0.3269837 -0.6839655191682869 -0.9535637727560095
0.3289836 -0.6779723335423269 -0.9557669518894367
0.3309835 -0.6719414008228299 -0.9598415989816287
0.3329834 -0.6664502042449049 -0.964320132650854
0.3349833 -0.6611120521548612 -0.96773197702486
0.3369832 -0.6540443830442386 -0.9708820515075219
0.3389831 -0.6481488878324232 -0.9741305983744588
0.340983 -0.6419493542907783 -0.9789627032210987
0.3429829 -0.6358145783196366 -0.9817779664693121
0.3449828 -0.6288006885266224 -0.98515076500713
0.3469827 -0.6237224796271015 -0.9879274385070399
0.3489826 -0.6174555155811924 -0.9921116569875482
0.3509825 -0.6103301167351146 -0.9951936966409862
0.3529824 -0.6042560241447226 -0.9976496660942519
0.3549823 -0.596242924782226 -1.0007843118526483
0.3569822 -0.5907858670694844 -1.004415164704753
0.3589821 -0.5849944617504863 -1.007904121333533
0.360982 -0.5795146859776595 -1.0113934730439518
0.3629819 -0.5725498471380859 -1.0145096418075152
0.3649818 -0.5657188825448196 -1.0179950779394367
0.3669817 -0.5592468852646001 -1.0208351463988148
0.3689816 -0.5532304604238107 -1.0252242845547013
0.3709815 -0.5456668834681758 -1.0267804716468485
0.3729814 -0.5399869097843213 -1.029333536249223
0.3749813 -0.5328293626391073 -1.03254940773738
0.3769812 -0.5266552561542353 -1.036431589984112
0.3789811 -0.5196317999117331 -1.0389116839388635
0.380981 -0.5139650045303493 -1.0415086148884667
0.3829809 -0.5079758450697308 -1.0443275159242718
0.3849808 -0.5009104094583018 -1.0472165806994644
0.3869807 -0.4938307206399236 -1.0486577365737424
0.3889806 -0.4862001791148598 -1.0512278556702004
0.3909805 -0.48021740402157553 -1.05398654422103
0.3929804 -0.47371550455538836 -1.056956560060554
0.3949803 -0.46656086165988564 -1.059208326073296
0.3969802 -0.4605050101391806 -1.06116952366599
0.3989801 -0.453779670544758 -1.06317889184368
0.40098 -0.44723959443739636 -1.0668264962427072
0.4029799 -0.43998853390623416 -1.0683764946630747
0.4049798 -0.4338797583744163 -1.0710992684545713
0.4069797 -0.42698967306495145 -1.0730563442564622
0.4089796 -0.41986105627328174 -1.0747190326205311
0.4109795 -0.4134022497365869 -1.077394149427839
0.4129794 -0.40612118371896877 -1.079884312137041
0.4149793 -0.3995025870417825 -1.0818877401622913
0.4169792 -0.3926960090362799 -1.0824183130332716
0.4189791 -0.3850595210214649 -1.0843923513242146
0.420979 -0.3788671764376903 -1.0865618014832568
0.4229789 -0.37216770706586033 -1.0896333984437725
0.4249788 -0.36545059982131767 -1.0906328275108148
0.4269787 -0.3584737938319233 -1.0929397349937704
0.4289786 -0.3511903639448188 -1.093594616650548
0.4309785 -0.3444063298742841 -1.0963274971271735
0.4329784 -0.33741827022556675 -1.097861482965783
0.4349783 -0.33117273445412404 -1.0993794698323538
0.4369782 -0.32346802026786786 -1.1001804879712411
0.4389781 -0.3166647170679445 -1.102125635563635
0.440978 -0.3102545324914091 -1.1030428892386384
0.4429779 -0.3028692928754724 -1.1052284009514668
0.4449778 -0.2961724043007987 -1.1062432925371088
0.4469777 -0.28834057746209407 -1.107965335873232
0.4489776 -0.2811120255613142 -1.1090525306756625
0.4509775 -0.2757240146624632 -1.1113934246566965
0.4529774 -0.26857547580408514 -1.1123777132660273
0.4549773 -0.2607118952380971 -1.1127802792730128
0.4569772 -0.2541244107643279 -1.114103918961592
0.4589771 -0.24770223913971273 -1.1152686177249078
0.460977 -0.2393535606466238 -1.1156738368566599
0.4629769 -0.23325811549163414 -1.1165571637578984
0.4649768 -0.2259560566888642 -1.117938463341429
0.4669767 -0.21877881751694048 -1.1186845379749832
0.4689766 -0.2116111963774615 -1.1197563891976845
0.4709765 -0.20593368508564788 -1.1211623780690465
0.4729764 -0.1979145733558229 -1.121926780626461
0.4749763 -0.1909779732212836 -1.1224947046826648
0.4769762 -0.18417625807144578 -1.1230624632212305
0.4789761 -0.17712540592632192 -1.1241619781095542
0.480976 -0.1701855700275331 -1.1241040367175483
0.4829759 -0.16292980931352583 -1.1243059017620212
0.4849758 -0.15596079919470698 -1.1246635223597492
0.4869757 -0.1480695509843552 -1.1250392409621022
0.4889756 -0.14106744352888095 -1.12546396521664
0.4909755 -0.134374997914455 -1.1257697810476832
0.4929754 -0.1275241983857536 -1.1261757022309677
0.4949753 -0.12015132509853724 -1.126564613931046
0.4969752 -0.11288292928126994 -1.127990312759655
0.4989751 -0.10633755347799437 -1.1272384589307212
0.500975 -0.09915629312295733 -1.127789672343543
0.5029749 -0.09221855516886013 -1.1276340150732043
0.5049748 -0.08459996428677674 -1.1283022884350835
0.5069747 -0.07694048985917927 -1.1285817522309247
0.5089746 -0.07008161515554939 -1.129119371310226
0.5109745 -0.06341059522954295 -1.1274484512489478
0.5129744 -0.05673812022053608 -1.127725959304891
0.5149743 -0.04968196232283244 -1.1280164864477527
0.5169742 -0.04206516152374964 -1.1273164984838644
0.5189741 -0.03568864540708569 -1.1272134277565555
0.520974 -0.026994474318975295 -1.1258595313277333
0.5229739 -0.020956501405539646 -1.1263372990899978
0.5249738 -0.014513270578823803 -1.1264988571743593
0.5269737 -0.0062182078290898835 -1.1257669795598821
0.5289736 -3.0914573541832024e-05 -1.1249722558836748
0.5309735 0.007148663049699008 -1.1248248682611242
0.5329734 0.014386158635874224 -1.1242646552075541
0.5349733 0.021499745553736377 -1.1235179647109772
0.5369732 0.028525583985789596 -1.1229582038827859
0.5389731 0.03543767132869949 -1.1221905037977549
0.540973 0.04288021169196647 -1.1220763649033563
0.5429729 0.04924184776164375 -1.1220800516566607
0.5449728 0.056716184223046195 -1.1208145693528118
0.5469727 0.06304629219156052 -1.1199206638454207
0.5489726 0.07127026323480806 -1.1179782376929555
0.5509725 0.07713487778006795 -1.1173072351247968
0.5529724 0.08445976087612184 -1.1160335817739828
0.5549723 0.09160517869044194 -1.1151635166426859
0.5569722 0.09838928628673471 -1.1145870498046109
0.5589721 0.10578243503157973 -1.1138234767715043
0.560972 0.11253926628362236 -1.1125037607756032
0.5629719 0.11930219223768589 -1.1110051883164183
0.5649718 0.12582478358398708 -1.1099573637440268
0.5669717 0.13344573687785755 -1.1086810193030072
0.5689716 0.1403143813625313 -1.1079656573453314
0.5709715 0.14743014682564348 -1.105647467701369
0.5729714 0.15428272375615615 -1.1044683097854116
0.5749713 0.16164714844803071 -1.1032099913715991
0.5769712 0.1685009147578514 -1.1016004419361034
0.5789711 0.17559649241495567 -1.100104717495881
0.580971 0.18249404111660764 -1.098904338404973
0.5829709 0.1885703970184778 -1.09690716975484
0.5849708 0.1960133757962198 -1.095219708272411
0.5869707 0.2019441830646175 -1.0934391688835083
0.5889706 0.20980123986068483 -1.091825515168172
0.5909705 0.2165133761878697 -1.0900867619888401
0.5929704 0.22359371763698904 -1.0883714643233977
0.5949703 0.23019716739688603 -1.0858847347861467
0.5969702 0.23684887982170172 -1.0850560950538364
0.5989701 0.24414957141476196 -1.0821691206571555
0.60097 0.25073748767479065 -1.0805419481627405
0.6029699 0.2578008535103258 -1.0785084777742981
0.6049698 0.26455464293134023 -1.0768305885514713
0.6069697 0.27120390269246736 -1.0750053693590824
0.6089696 0.2778626443307146 -1.0725181565216166
0.6109695 0.28445333620459357 -1.0705376881139814
0.6129694 0.29086870561735967 -1.0682842470460565
0.6149693 0.29762997719803685 -1.066586583782857
0.6169692 0.30447727418896164 -1.0634629646695182
0.6189691 0.31104936639145353 -1.0606293760177061
0.620969 0.31777143529628565 -1.0588572723056537
0.6229689 0.32442448374219546 -1.0558025558627375
0.6249688 0.33045899779084614 -1.0532475494110616
0.6269687 0.3372208261730877 -1.05114405916656
0.6289686 0.3446602331597133 -1.0484091616481255
0.6309685 0.3503520960921598 -1.0449446682356551
0.6329684 0.35732144267036964 -1.0431233104702318
0.6349683 0.36404852622861694 -1.0403848184575395
0.6369682 0.37021451447053866 -1.0385835482809314
0.6389681 0.37713128054664097 -1.0348806381098226
0.640968 0.3836098649230672 -1.0331269988520968
0.6429679 0.3901664386354783 -1.0299359445776335
0.6449678 0.397162225215558 -1.0265914854033131
0.6469677 0.4034102042307401 -1.0237855832374443
0.6489676 0.4097772210531906 -1.0211955427459287
0.6509675 0.4157347673292981 -1.0180085303122506
0.6529674 0.4216398395831572 -1.014504508653333
0.6549673 0.42864578581203483 -1.0110431208173614
0.6569672 0.43475494675340876 -1.0082576296196375
0.6589671 0.4412236358617823 -1.0052849087696782
0.660967 0.4478568580294246 -1.0017933254798046
0.6629669 0.45367055419036534 -0.997810592376145
0.6649668 0.46027693029961747 -0.9953410209117097
0.6669667 0.46606504686234984 -0.9920804330463573
0.6689666 0.47228778134096416 -0.9880114922524215
0.6709665 0.4787324956053944 -0.9861874708070746
0.6729664 0.48559619306837204 -0.9822135310946759
0.6749663 0.49117786759453974 -0.9791616291725249
0.6769662 0.49801110026591655 -0.9751493974444803
0.6789661 0.5036923209073667 -0.9708725818598777
0.680966 0.5097488170223664 -0.9677306881952396
0.6829659 0.5159357477839164 -0.9639192766681114
0.6849658 0.5220180704926717 -0.9607716943056251
0.6869657 0.528310567719654 -0.956628598171919
0.6889656 0.5340023667888225 -0.9531398115284786
0.6909655 0.5397359146633 -0.9492944056918415
0.6929654 0.5460555585802069 -0.9456147468367275
0.6949653 0.5517150058667961 -0.9415493543823259
0.6969652 0.5576899870670738 -0.9377081068354953
0.6989651 0.563370337075915 -0.9338652398049472
0.700965 0.5695965389710186 -0.930125219300733
0.7029649 0.5750258107248387 -0.9260359855129703
0.7049648 0.5812925506546698 -0.9221299759002219
0.7069647 0.5870794197679146 -0.9179009619484226
0.7089646 0.5925500915584687 -0.9135993541112519
0.7109645 0.5987243890518277 -0.909564377143071
0.7129644 0.6041635061526844 -0.9051479534928265
0.7149643 0.6104666785067131 -0.9013100846363459
0.7169642 0.6159256836730687 -0.8967102475448365
0.7189641 0.6213373047629438 -0.8926390387532865
0.720964 0.6273341025715692 -0.8880687224730105
0.7229639 0.6324975435782343 -0.8843591240263234
0.7249638 0.6386969400850167 -0.880577773161868
0.7269637 0.6438424327734131 -0.8753640057021965
0.7289636 0.64972121675022 -0.8707061466518873
0.7309635 0.6551445473599256 -0.8659572776330661
0.7329634 0.6605079285787488 -0.861694442271573
0.7349633 0.6657760170300615 -0.8569527736401787
0.7369632 0.6712543435965816 -0.8519352624544297
0.7389631 0.6764734437008895 -0.8471134595863135
0.740963 0.6824429365921999 -0.8428613017892661
0.7429629 0.6871296367686135 -0.8382475328112822
0.7449628 0.6925706101847292 -0.8336661691939006
0.7469627 0.6975816423631548 -0.8288639707925194
0.7489626 0.7027705877422455 -0.8241249033820264
0.7509625 0.7087745631827804 -0.8187822484921188
0.7529624 0.7133915814056806 -0.8141458310192337
0.7549623 0.7185900299647737 -0.809356175413847
0.7569622 0.7234767388926732 -0.8042776690381643
0.7589621 0.7286801749072291 -0.7996725537548128
0.760962 0.7340812594593306 -0.7949008659488466
0.7629619 0.7393000844641425 -0.7900822194367461
0.7649618 0.7442244200766445 -0.7844816948279464
0.7669617 0.7488717342124935 -0.7798902350460097
0.7689616 0.7537309269482375 -0.7745481651974058
0.7709615 0.7586886808608134 -0.769102653674482
0.7729614 0.7636169850454151 -0.7639054814837057
0.7749613 0.7685780715826713 -0.758440497938055
0.7769612 0.7732648842955681 -0.7534428611656148
0.7789611 0.7781371660627442 -0.7479282370584938
0.780961 0.7825129265178292 -0.7427034750376514
0.7829609 0.7872050593894013 -0.7373981459347995
0.7849608 0.7925329140960448 -0.7320322290375776
0.7869607 0.7967121191649833 -0.7263806786322943
0.7889606 0.8012746593626228 -0.7208076650421682
0.7909605 0.8055090831442989 -0.7153530836445094
0.7929604 0.8104293345538383 -0.7099606903427543
0.7949603 0.8146768653671685 -0.7046783622238438
0.7969602 0.8194708140785425 -0.6988157906108527
0.7989601 0.8242583091450091 -0.6936748533901702
0.80096 0.8282798145194303 -0.6883550721445781
