! Created with skrf 1.8.0 (http://scikit-rf.org).
# GHz S RI R 50.0 
!freq ReS11 ImS11
0.001 -1.0030947295391412 -0.06030655420608633
0.0029999 -0.9800165908995833 -0.17105855996071778
0.0049998 -0.932351298436404 -0.2639300071664297
0.0069997 -0.8639232300902289 -0.3415565089005036
0.0089996 -0.791658252704553 -0.3972810351934095
0.0109995 -0.7162839649101188 -0.43875193676654367
0.0129994 -0.6393396738714481 -0.45888316179081395
0.0149993 -0.569111270603055 -0.4692405245665805
0.0169992 -0.5088625592498426 -0.4712577031866131
0.0189991 -0.45854401517400173 -0.46633588258681824
0.020999 -0.40938608915031166 -0.4584670913799999
0.0229989 -0.3686826740731472 -0.4475037974214741
0.0249988 -0.33707473031438806 -0.43624346037534295
0.0269987 -0.3043889672344471 -0.4167822217537066
0.0289986 -0.2779498846880267 -0.40498181094337804
0.0309985 -0.2525155203769431 -0.3911779669603005
0.0329984 -0.23511678808946038 -0.378851737432095
0.0349983 -0.2128368133860605 -0.3619105424831674
0.0369982 -0.19980556739235747 -0.34950864408827187
0.0389981 -0.18451954241628693 -0.33542421590559063
0.040998 -0.17370424080308725 -0.3228690081383187
0.0429979 -0.1621237865699325 -0.31169914113330205
0.0449978 -0.15161426647426995 -0.3008954701281585
0.0469977 -0.14342629544506852 -0.2904155830792769
0.0489976 -0.13504775417626885 -0.28113786123981027
0.0509975 -0.12897957623888057 -0.2730853289909184
0.0529974 -0.12439635082005196 -0.2616456228790486
0.0549973 -0.11698406214175688 -0.25218448425714285
0.0569972 -0.11164359726589684 -0.2477477252368657
0.0589971 -0.10799089641267395 -0.23999168258814016
0.060997 -0.10229995508420112 -0.23325452020837587
0.0629969 -0.09900118051455033 -0.22565286772687518
0.0649968 -0.09502632171740275 -0.21876476039947282
0.0669967 -0.09116933443431852 -0.2119086156592191
0.0689966 -0.08820893350988343 -0.20611435790303842
0.0709965 -0.08690239525904553 -0.20069316836827872
0.0729964 -0.08301945822798842 -0.1950036949415043
0.0749963 -0.08028586859162687 -0.1901929649682724
0.0769962 -0.0803075184498235 -0.1850618276141739
0.0789961 -0.07668366912880933 -0.18015149098187616
0.080996 -0.0752192952616759 -0.17613886322505617
0.0829959 -0.07384896724840169 -0.17075966294713094
0.0849958 -0.07258237668405365 -0.16735144007191416
0.0869957 -0.06993468278483592 -0.16213332948912978
0.0889956 -0.06958137884842196 -0.1593097892896677
0.0909955 -0.06761129510554735 -0.15560244364110734
0.0929954 -0.06637927761924003 -0.15189645987624878
0.0949953 -0.06652506887501011 -0.14756683840749102
0.0969952 -0.06545462900839491 -0.14466267820860101
0.0989951 -0.06351896215849319 -0.1407786559097644
0.100995 -0.06212658667381314 -0.1392360155817451
0.1029949 -0.06123770941217839 -0.13488014217590946
0.1049948 -0.06127345992229792 -0.1325009542724403
0.1069947 -0.06058231579118696 -0.12907298708351939
0.1089946 -0.0602819233968664 -0.12655717849376336
0.1109945 -0.05901569866880438 -0.12427480688610848
0.1129944 -0.05871707606653065 -0.12269751811164739
0.1149943 -0.05823114774116836 -0.11861180419044372
0.1169942 -0.05786226192732695 -0.11716710977413289
0.1189941 -0.0568875653963338 -0.11471191943893373
0.120994 -0.05555061205739786 -0.11267491408488159
0.1229939 -0.055804249011936716 -0.10975793901754845
0.1249938 -0.0553820030951508 -0.10753620651549495
0.1269937 -0.055300260346198116 -0.1056733008741115
0.1289936 -0.05375314017519797 -0.10398718443824068
0.1309935 -0.05342272835195973 -0.10167683417415907
0.1329934 -0.054890995142602136 -0.10000748239710541
0.1349933 -0.053119932274419746 -0.09858646722129058
0.1369932 -0.05331888725260894 -0.09639804438538174
0.1389931 -0.05183676272517436 -0.0940224902560993
0.140993 -0.052223198944116395 -0.09308862154803013
0.1429929 -0.052191575353801964 -0.09134197804498001
0.1449928 -0.051828873132659214 -0.08888837787812154
0.1469927 -0.050879089720228976 -0.08760270437225426
0.1489926 -0.05176908567118886 -0.08590053038713666
0.1509925 -0.050583768952066545 -0.08389045848976176
0.1529924 -0.05098840449972842 -0.08208311099685975
0.1549923 -0.05051047038769074 -0.08110276379025647
0.1569922 -0.05075288553691866 -0.07983823951076653
0.1589921 -0.050774766698305926 -0.07771455880037953
0.160992 -0.05007617376867885 -0.07634460149583984
0.1629919 -0.0498612259851145 -0.07482557599071013
0.1649918 -0.05025923170324106 -0.07327695938586912
0.1669917 -0.05018626695268571 -0.07218402312988173
0.1689916 -0.050767131510233744 -0.07080126799693362
0.1709915 -0.04990147964467524 -0.0693884407990766
0.1729914 -0.05035620550743103 -0.06803608350086146
0.1749913 -0.04993026122644923 -0.06721236401663377
0.1769912 -0.05038179159224784 -0.06522680622542712
0.1789911 -0.050090450268536556 -0.06491982233034974
0.180991 -0.05033088064493412 -0.06359162832876819
0.1829909 -0.050023576133436796 -0.06244092243278104
0.1849908 -0.05119385778548769 -0.06124779693744897
0.1869907 -0.05074908988165593 -0.05998577543019134
0.1889906 -0.05099242660870121 -0.05953977166282891
0.1909905 -0.05092805360920084 -0.05829699084788527
0.1929904 -0.050320392678770434 -0.058084525537707855
0.1949903 -0.04995732809146272 -0.05681621872263931
0.1969902 -0.05071489468153996 -0.05602328016155783
0.1989901 -0.0505733622572767 -0.05496069725672566
0.20099 -0.0508605348555152 -0.053985432560393655
0.2029899 -0.05058395069063433 -0.05335943905863033
0.2049898 -0.05028603760707841 -0.051520885274166664
0.2069897 -0.050821968355827266 -0.051773366131407726
0.2089896 -0.05072491633389244 -0.050935676282797285
0.2109895 -0.050606415223694606 -0.0500193338069955
0.2129894 -0.0503343945254337 -0.04852691223110539
0.2149893 -0.050124671501121106 -0.048267021711611395
0.2169892 -0.05077266609488789 -0.047352627117654075
0.2189891 -0.049950385147400383 -0.04626822827816428
0.220989 -0.050236463154417224 -0.044855215960933004
0.2229889 -0.050703822154748994 -0.044464073430477716
0.2249888 -0.05062748624781594 -0.042961165503561355
0.2269887 -0.05044693915471733 -0.04210415170568775
0.2289886 -0.05036043086643497 -0.04206789635745617
0.2309885 -0.05055305312430533 -0.04105532329168077
0.2329884 -0.05068133714300449 -0.03998545301591565
0.2349883 -0.050579946170325574 -0.0391473920286812
0.2369882 -0.05121332462176416 -0.03832034658789703
0.2389881 -0.05112155235640434 -0.03778356206662551
0.240988 -0.051144052426277765 -0.03657217914745122
0.2429879 -0.051070869184597814 -0.035977715782312875
0.2449878 -0.05149405006233301 -0.03505364392889559
0.2469877 -0.051693432862109624 -0.034846872918981225
0.2489876 -0.051690624369520106 -0.03368987261461301
0.2509875 -0.05223514758972782 -0.033221381585493245
0.2529874 -0.05241361837158311 -0.03248595072909588
0.2549873 -0.052964261116622356 -0.03193310364235537
0.2569872 -0.05318249868399964 -0.031837638418191566
0.2589871 -0.05274523171998279 -0.03099934753327292
0.260987 -0.05292878269958261 -0.030634934941623625
0.2629869 -0.05318734793440743 -0.029639675334255013
0.2649868 -0.05349415558747967 -0.02914086627929035
0.2669867 -0.05347404848115937 -0.02898997733054446
0.2689866 -0.05388821228243133 -0.028375179227974858
0.2709865 -0.05378758668154183 -0.02756929153341989
0.2729864 -0.05413277681379398 -0.02704649784729131
0.2749863 -0.05378275803610178 -0.02676573550097743
0.2769862 -0.05440974662732038 -0.026327730179778627
0.2789861 -0.05410940662844274 -0.02531158620082937
0.280986 -0.0544392988347755 -0.025545039621256576
0.2829859 -0.054439563965128175 -0.024580214462350303
0.2849858 -0.054385111156629674 -0.024395936905423857
0.2869857 -0.054463751674705414 -0.022962645834885408
0.2889856 -0.05470073807342582 -0.0230204841888618
0.2909855 -0.054631186119543595 -0.022733696101211023
0.2929854 -0.05483566027740556 -0.021749924719521186
0.2949853 -0.05478688388471069 -0.021368165585285828
0.2969852 -0.05509538358535628 -0.021052224246723775
0.2989851 -0.055644405428859546 -0.020359083327014575
0.300985 -0.055667808986365766 -0.019730687515691698
0.3029849 -0.05589871482265946 -0.0195223924063839
0.3049848 -0.05595686246268146 -0.018242341902200275
0.3069847 -0.056088885394434566 -0.017835991696714286
0.3089846 -0.05636787578107734 -0.0175044825467124
0.3109845 -0.05666708307077816 -0.017495945270848252
0.3129844 -0.056731453896508674 -0.016452491660378345
0.3149843 -0.05698849980380595 -0.01622807085890917
0.3169842 -0.05717653150882254 -0.01563791994987039
0.3189841 -0.057668058619181464 -0.016172585975588856
0.320984 -0.058077364336232035 -0.015471246817234864
0.3229839 -0.058426602110317236 -0.014211043548335448
0.3249838 -0.05831965092442551 -0.014616726015504037
0.3269837 -0.0581437276324558 -0.014184594005638826
0.3289836 -0.058847358076189016 -0.013293139225644035
0.3309835 -0.0590769028661699 -0.013133433991538324
0.3329834 -0.059206797710591424 -0.01310702788983193
0.3349833 -0.05980793336002549 -0.01282677189417527
0.3369832 -0.05976972717871326 -0.012201056844376178
0.3389831 -0.06014383634227732 -0.011792206157302046
0.340983 -0.06010670555424857 -0.01209970789173086
0.3429829 -0.06049039069656803 -0.011523727333514523
0.3449828 -0.060454834838513646 -0.010948187254663552
0.3469827 -0.06102053362527669 -0.01084014528711123
0.3489826 -0.061022178713544394 -0.010822169176651346
0.3509825 -0.06094269410656149 -0.010299651671218532
0.3529824 -0.06137899439999689 -0.009673448720439421
0.3549823 -0.060999755853704686 -0.009012510556378549
0.3569822 -0.061443218361253125 -0.009019280799710226
0.3589821 -0.06177138211463755 -0.008758307383689198
0.360982 -0.06211042390000258 -0.00864105258880329
0.3629819 -0.06209851828852896 -0.008363996532643046
0.3649818 -0.06190493766374895 -0.007903405126532027
0.3669817 -0.06208250506108053 -0.007473676841724567
0.3689816 -0.062282931064193615 -0.0077448748557254025
0.3709815 -0.06232955628052035 -0.0067953895492691915
0.3729814 -0.06279596239768419 -0.0063661272561712015
0.3749813 -0.06286857807391284 -0.006106575999212924
0.3769812 -0.0628983300151919 -0.006333645508763638
0.3789811 -0.06300562751141478 -0.00579392865757879
0.380981 -0.06359546398379859 -0.00558037616437812
0.3829809 -0.06403384961805074 -0.0053128211891361014
0.3849808 -0.06410394739986242 -0.005081336907276062
0.3869807 -0.0644535059771715 -0.004257776858856872
0.3889806 -0.0640946438731402 -0.003816316759287796
0.3909805 -0.06478642081708 -0.003778743491661761
0.3929804 -0.06494556891919348 -0.003613588045700871
0.3949803 -0.06519711499299494 -0.0032620713836101246
0.3969802 -0.06582034023044857 -0.0028916225038616503
0.3989801 -0.06614191968829418 -0.0026185509564590204
0.40098 -0.06641692404974828 -0.0027752525412644245
0.4029799 -0.06647675446044524 -0.0024039948571822796
0.4049798 -0.06699239348462174 -0.0025050954985344036
0.4069797 -0.06718975062925751 -0.0022039512209391134
0.4089796 -0.06719014080995869 -0.0019361195035028575
0.4109795 -0.06750626516400313 -0.0019905211980871806
0.4129794 -0.0676453872604034 -0.0018568421019543799
0.4149793 -0.06790747656375701 -0.0017342197883552166
0.4169792 -0.06820249604636838 -0.001112023047883666
0.4189791 -0.06835384907424416 -0.0009042200054808214
0.420979 -0.06848299376113512 -0.0009215088779894118
0.4229789 -0.0689063119513309 -0.0010625380691951097
0.4249788 -0.06905607231677044 -0.0007524800771847237
0.4269787 -0.06914970595398512 -0.0006977239330693413
0.4289786 -0.06944373916645186 -0.00017364780997791707
0.4309785 -0.06944273655750245 -0.0003476722842548838
0.4329784 -0.06961940526114085 -0.0002145518059473786
0.4349783 -0.07010417010432941 -5.3614945305618944e-05
0.4369782 -0.06999630762674042 0.0002955354047256692
0.4389781 -0.0702931084544613 0.0003699561277135943
0.440978 -0.07077032333625388 0.0006991381260290364
0.4429779 -0.07060637495700418 0.0006116782496679574
0.4449778 -0.07108245924753506 0.0009290655466342723
0.4469777 -0.0709798633349995 0.000993073598242085
0.4489776 -0.07123233208892624 0.0012310284097382385
0.4509775 -0.07185716702749079 0.001004936604263762
0.4529774 -0.07207341037112218 0.001268173013983645
0.4549773 -0.07188934295863594 0.001583718702247612
0.4569772 -0.0723118538643844 0.0016828138694679681
0.4589771 -0.07274149959192991 0.001790691056691135
0.460977 -0.07260000236399003 0.002017678101198711
0.4629769 -0.07328554207076976 0.002193653150215323
0.4649768 -0.07335629654729726 0.0020522932139314387
0.4669767 -0.07370216572041172 0.0022110402652685615
0.4689766 -0.073731694980475 0.0020812209117521754
0.4709765 -0.07432856362377444 0.0022311706644300155
0.4729764 -0.07421040194189338 0.002219328531756909
0.4749763 -0.07451862239758403 0.0023121971486677814
0.4769762 -0.07499050082992614 0.0024207371694827534
0.4789761 -0.0750156689357157 0.0023008926892763362
0.480976 -0.07525534508846099 0.0024289004427849245
0.4829759 -0.07529281071724214 0.0026182850763527624
0.4849758 -0.07564767328676511 0.0027741057695878507
0.4869757 -0.07572042349054553 0.0028219084750881404
0.4889756 -0.07575087681258227 0.003044712636470513
0.4909755 -0.0760320440068433 0.003067127101114897
0.4929754 -0.07634624913936704 0.0031770514692409865
0.4949753 -0.07623540242431884 0.003265072358033909
0.4969752 -0.07645923366129184 0.0030910707442557625
0.4989751 -0.07656690810014483 0.003428686868294062
0.500975 -0.07673046076948022 0.0034694779409488175
0.5029749 -0.07703703653263688 0.003733906363773326
0.5049748 -0.0770447183989233 0.003807068176979053
0.5069747 -0.07726406477002132 0.003773002752357063
0.5089746 -0.07759497076178655 0.00373752192910691
0.5109745 -0.07798720226837128 0.004067718798112678
0.5129744 -0.07831402286372571 0.004031005459578227
0.5149743 -0.07866288870482394 0.003962523052218503
0.5169742 -0.0787177200727597 0.004126232149377886
0.5189741 -0.07915661635601695 0.004221630123692824
0.520974 -0.07896827792392082 0.004591052108861453
0.5229739 -0.07959615108966611 0.004385742506996665
0.5249738 -0.08010358281817637 0.0043807971707403096
0.5269737 -0.08001192612231367 0.004532458720272123
0.5289736 -0.08063686534230002 0.004609153202885123
0.5309735 -0.08096761170035646 0.004334844303484006
0.5329734 -0.08114666911448228 0.004455663087853515
0.5349733 -0.08150427907356271 0.0044429036791756235
0.5369732 -0.08183646269391477 0.0043085142694009315
0.5389731 -0.08215080860528007 0.004268812709058441
0.540973 -0.0822170387165936 0.003906278957612835
0.5429729 -0.08269182926384444 0.0036358020441508987
0.5449728 -0.08267985789832102 0.003808473833875392
0.5469727 -0.08307678656490503 0.0035618177340557555
0.5489726 -0.0828518633014749 0.0037371711261782875
0.5509725 -0.08338222749919438 0.0036276352448741805
0.5529724 -0.08350589050245044 0.0036186444409191734
0.5549723 -0.08371096588752977 0.0034067604883216834
0.5569722 -0.0838035721372404 0.003368660344529935
0.5589721 -0.08394633662430483 0.003113419901911982
0.560972 -0.08389329477294381 0.0029346794525677428
0.5629719 -0.08406205757212752 0.002927803874226996
0.5649718 -0.08405532884448065 0.0029182114847139187
0.5669717 -0.08410430765351876 0.00284244498728517
0.5689716 -0.08428456567376075 0.002741793532708245
0.5709715 -0.08437021991622048 0.0030799530699997593
0.5729714 -0.0841892344531612 0.0029677455667909414
0.5749713 -0.08425149457897657 0.0031042071979209343
0.5769712 -0.08443199718361867 0.00312611206343498
0.5789711 -0.08462640421826212 0.0030459723720625345
0.580971 -0.08500440527876277 0.0031100687997098406
0.5829709 -0.08545739306704989 0.003363329893514455
0.5849708 -0.0854538067418577 0.0033244540301975573
0.5869707 -0.08595082205326468 0.0034762384515495334
0.5889706 -0.08609878584563802 0.0033238141103632407
0.5909705 -0.08614502281249005 0.0031913390020672713
0.5929704 -0.0863787535359134 0.0031233146230552067
0.5949703 -0.08676491164890213 0.0033889352074033888
0.5969702 -0.08705138151165964 0.002820594317547394
0.5989701 -0.08723373924339528 0.0029528882135027718
0.60097 -0.08762807529389069 0.0028165034240188527
0.6029699 -0.08782557290549321 0.002774995367603429
0.6049698 -0.08821115380706265 0.0024136012647934177
0.6069697 -0.08872714616496752 0.002262408719978244
0.6089696 -0.08874518696619774 0.002339429260149302
0.6109695 -0.08916734341368598 0.002055585315321906
0.6129694 -0.08933213382696088 0.001965240822439762
0.6149693 -0.08981287316105155 0.0014997178821882368
0.6169692 -0.08964599612271162 0.0012402434382880675
0.6189691 -0.08953468645077893 0.0012611957010716587
0.620969 -0.08977963543199036 0.000891406300731333
0.6229689 -0.09012360071128796 0.0009095236458248265
0.6249688 -0.09027465199416247 0.0009149690561372978
0.6269687 -0.09048233774150502 0.00032004712539854263
0.6289686 -0.09033982971964374 0.00020217630878216486
0.6309685 -0.09046394594000648 0.0004177693865652851
0.6329684 -0.09063182735742224 -3.318994121916108e-05
0.6349683 -0.09022485858626601 -6.321150066914555e-05
0.6369682 -0.09041047800357346 -0.00031109748675143406
0.6389681 -0.09010479433170421 -1.9975915745290562e-05
0.640968 -0.09064497444779995 -0.0003633534428899646
0.6429679 -0.09052611832820658 -0.00031434363904666446
0.6449678 -0.09053527003716778 -0.00011089043391648845
0.6469677 -0.09069689392595426 -0.00011048184145358991
0.6489676 -0.09119571431701191 -0.0003098017709446399
0.6509675 -0.09122320472406327 -0.00018151402968882846
0.6529674 -0.09147100102457797 -0.00010953066048248472
0.6549673 -0.09147161916412913 -0.00015944817399565075
0.6569672 -0.09185794351227003 -0.0002805838634778665
0.6589671 -0.09223673978997911 -0.0005621816918998448
0.660967 -0.09251076474222236 -0.0004247963263596666
0.6629669 -0.09289794876551387 -0.0002866340227288683
0.6649668 -0.0932238225809672 -0.0008193453717549801
0.6669667 -0.09363390702957572 -0.0008273035858575306
0.6689666 -0.09378749279594845 -0.0006820519377381609
0.6709665 -0.09427528203139951 -0.0011018677593878368
0.6729664 -0.09438024351322721 -0.0015155344459911527
0.6749663 -0.09452627568385243 -0.001622048232347184
0.6769662 -0.0946325997550703 -0.0019265956586900918
0.6789661 -0.09501639210927074 -0.0020260154141037087
0.680966 -0.09516714585815492 -0.0022327397434581814
0.6829659 -0.09534245915970058 -0.002737051443225322
0.6849658 -0.09548711631056675 -0.0029968202275987704
0.6869657 -0.09568295827249554 -0.0031485878635885214
0.6889656 -0.09600125109579094 -0.00378696199915584
0.6909655 -0.09620062578818986 -0.004075005683618842
0.6929654 -0.09614964394295875 -0.004462355512483036
0.6949653 -0.0963598050085125 -0.004751697532384948
0.6969652 -0.09644683189161748 -0.005116488382476164
0.6989651 -0.0965016848545532 -0.005435459027866595
0.700965 -0.09635696621060176 -0.005776135505198773
0.7029649 -0.09673260185252223 -0.006131696061338329
0.7049648 -0.09626969937132422 -0.00635411498098562
0.7069647 -0.09611938372495293 -0.006559575938533763
0.7089646 -0.09591272180219457 -0.00676605510777336
0.7109645 -0.09591955770354826 -0.006911776008094228
0.7129644 -0.09574442746435294 -0.0068818772403533915
0.7149643 -0.09573396491433954 -0.007105251508052517
0.7169642 -0.09575781838636897 -0.007201726320513489
0.7189641 -0.09589180476981457 -0.007417889480590245
0.720964 -0.09596010136229625 -0.007391871431199348
0.7229639 -0.09617794321809149 -0.007469419823497116
0.7249638 -0.09600308579774106 -0.008018990660633163
0.7269637 -0.09601681999659425 -0.007726304582528737
0.7289636 -0.09597072917747262 -0.007752632729126477
0.7309635 -0.09627602601951922 -0.007635513947887279
0.7329634 -0.09652616575018877 -0.007831066856477414
0.7349633 -0.09667670160674761 -0.007827308989224818
0.7369632 -0.0969370752839001 -0.007909041080535577
0.7389631 -0.09729863660970278 -0.007880290290902037
0.740963 -0.09758880046763314 -0.008309483916334362
0.7429629 -0.09769452872533291 -0.00817953971228344
0.7449628 -0.09801455010117635 -0.008601190201853542
0.7469627 -0.09850141203069304 -0.00882755940237958
0.7489626 -0.09865818656234816 -0.009097260218775091
0.7509625 -0.09864441231808828 -0.009415598038103781
0.7529624 -0.09933212978441903 -0.009819087997368955
0.7549623 -0.09954346080948992 -0.010030142385919108
0.7569622 -0.09962553344483083 -0.010569065551590824
