! Created with skrf 1.8.0 (http://scikit-rf.org).
# GHz S RI R 50.0 
!freq ReS11 ImS11
0.001 -1.003344143445506 -0.04245850727426703
0.0029999 -0.9928446061193543 -0.12145204102679646
0.0049998 -0.9686120773263738 -0.19277243441047454
0.0069997 -0.9355183362929167 -0.2602668678088046
0.0089996 -0.8929948663098985 -0.3170194298885692
0.0109995 -0.8442939671868677 -0.36425217727138853
0.0129994 -0.7901219398079052 -0.40459554166002687
0.0149993 -0.7373325545429479 -0.4330204436695103
0.0169992 -0.686386275018062 -0.45406945039635516
0.0189991 -0.6368115058101207 -0.46677452415113063
0.020999 -0.5872817554359517 -0.4759758727212218
0.0229989 -0.5452650737847906 -0.4797991723622984
0.0249988 -0.5070537158049194 -0.4779975775329903
0.0269987 -0.4649514985229405 -0.4741406377502434
0.0289986 -0.43252898561774694 -0.4699380104875794
0.0309985 -0.4003390914446458 -0.46406200397653796
0.0329984 -0.37374543346314026 -0.4538797743471431
0.0349983 -0.3433624624550935 -0.4453426438623654
0.0369982 -0.32370761022461575 -0.4360778224730163
0.0389981 -0.3010576277671659 -0.4251664638567635
0.040998 -0.28131902269500325 -0.4156867397575034
0.0429979 -0.2658755130048121 -0.40331001606345906
0.0449978 -0.24730081128615417 -0.3944103758949191
0.0469977 -0.2340529312254255 -0.386110776985046
0.0489976 -0.2197368814585585 -0.3742683716326275
0.0509975 -0.20917564324323062 -0.3670450497725244
0.0529974 -0.19915000771356067 -0.3574804841343121
0.0549973 -0.18592991024185707 -0.3461475984955546
0.0569972 -0.17902533721005526 -0.34010915677870684
0.0589971 -0.17111348341366997 -0.3305251575133544
0.060997 -0.16180553060132985 -0.3226799996907103
0.0629969 -0.15505515667574457 -0.31399916216394913
0.0649968 -0.1475951115493786 -0.30517344030445964
0.0669967 -0.14115534100830604 -0.2971667736968012
0.0689966 -0.13544348076695983 -0.2909454214134636
0.0709965 -0.13107103514758978 -0.28347073178902493
0.0729964 -0.1253809405555685 -0.2768266877556187
0.0749963 -0.12047650335536314 -0.26997848846913974
0.0769962 -0.11801501772704968 -0.26315510905704587
0.0789961 -0.11262087914100274 -0.2572363055738642
0.080996 -0.10967779926187693 -0.25273540525695437
0.0829959 -0.10591515306724944 -0.24567319456736839
0.0849958 -0.10309648515901979 -0.24031149897455104
0.0869957 -0.09881964152153883 -0.23462618470937505
0.0889956 -0.09831583184127984 -0.22913655889962362
0.0909955 -0.09470307623339047 -0.2254305969302881
0.0929954 -0.09187094453146488 -0.22067282126464874
0.0949953 -0.09051934466169258 -0.21558068626889101
0.0969952 -0.08798596744954204 -0.21194527602493515
0.0989951 -0.08435955759018146 -0.2058227116269869
0.100995 -0.08296531220712924 -0.2042287278338682
0.1029949 -0.08130949853264544 -0.1982865813935511
0.1049948 -0.08025436396003444 -0.19444435042332195
0.1069947 -0.07883667126047812 -0.19024494580574797
0.1089946 -0.07795191705133458 -0.18694464052121826
0.1109945 -0.07621430809097729 -0.1833206150097449
0.1129944 -0.07457237021505628 -0.18053658208636866
0.1149943 -0.07304140433453388 -0.17610768953652187
0.1169942 -0.07243779593570673 -0.17373413439048835
0.1189941 -0.0706027067819063 -0.16990603614627678
0.120994 -0.06900101483596982 -0.16683319123771567
0.1229939 -0.06868936035893856 -0.16370212610665802
0.1249938 -0.06736627185415256 -0.16075153009610613
0.1269937 -0.0669735163355347 -0.1579647951193878
0.1289936 -0.06479230488366045 -0.15543792669470965
0.1309935 -0.064615041059248 -0.15312151388251016
0.1329934 -0.06486867784142847 -0.15013308532095798
0.1349933 -0.06340463856482047 -0.14719069015668912
0.1369932 -0.06166319767544713 -0.14460104617695765
0.1389931 -0.06111472163559428 -0.14188442365690673
0.140993 -0.061468707433713216 -0.1397869991323716
0.1429929 -0.059784516277712224 -0.13688982856819357
0.1449928 -0.05960909345477342 -0.134434698046528
0.1469927 -0.05858767920217888 -0.13260184454041882
0.1489926 -0.0582622455158326 -0.1307227960482024
0.1509925 -0.056820943515045574 -0.12758463503234185
0.1529924 -0.057066513802079416 -0.12582386634078424
0.1549923 -0.05674875364094966 -0.12371333089394976
0.1569922 -0.056284407361602264 -0.12180215140322782
0.1589921 -0.055829808558409424 -0.11884774772741785
0.160992 -0.0554584908417322 -0.11789156612845686
0.1629919 -0.054583988400919284 -0.11554752140198854
0.1649918 -0.05451227880549593 -0.11333400329887801
0.1669917 -0.05445827230683233 -0.11146514408437544
0.1689916 -0.05489646536296994 -0.10949152375792294
0.1709915 -0.05410734085749 -0.10728031513679939
0.1729914 -0.05406397617701744 -0.10564440825645693
0.1749913 -0.053204952955953226 -0.10444231218537264
0.1769912 -0.054046238154589164 -0.1027817308387488
0.1789911 -0.05344521729706891 -0.10132775589645582
0.180991 -0.05321399785480191 -0.09917118183931604
0.1829909 -0.05278607730562431 -0.09830469758029695
0.1849908 -0.05371542403091607 -0.09590763446013353
0.1869907 -0.052985696252899006 -0.0940570432310857
0.1889906 -0.053192217574296596 -0.0936117496653611
0.1909905 -0.05312051202891871 -0.09201715516519127
0.1929904 -0.05237037506273748 -0.09127457130230318
0.1949903 -0.052261087717990776 -0.08942794223078479
0.1969902 -0.05214318135487464 -0.08865140354475963
0.1989901 -0.052471280382341196 -0.08691386720217789
0.20099 -0.05208236245875808 -0.08572047971922664
0.2029899 -0.051627209824981465 -0.08417537008955257
0.2049898 -0.051459775380595776 -0.08282063609885974
0.2069897 -0.051905148540792964 -0.08213349910764062
0.2089896 -0.051951654679646436 -0.08111383604998701
0.2109895 -0.05145757834211941 -0.07963629535437639
0.2129894 -0.050747457837017326 -0.07795122944232688
0.2149893 -0.05062519130112416 -0.07724780223223023
0.2169892 -0.05063233414168834 -0.076072506271085
0.2189891 -0.050215817615880676 -0.07468338699773558
0.220989 -0.05014268550407981 -0.07334428616004354
0.2229889 -0.050950060039697834 -0.0718135865208216
0.2249888 -0.05043720964117218 -0.07006379165328383
0.2269887 -0.050346418182426037 -0.0699413776709204
0.2289886 -0.0503759981065348 -0.06881597399502629
0.2309885 -0.04997763503317042 -0.06754009895199037
0.2329884 -0.050315147985786096 -0.06599620721717964
0.2349883 -0.050008979013604855 -0.06532379776634127
0.2369882 -0.05036000185644672 -0.06357998140369461
0.2389881 -0.05042354169322191 -0.062966440104555
0.240988 -0.05043728984979594 -0.061449265022082714
0.2429879 -0.050108002552181764 -0.06061092513572354
0.2449878 -0.05059112954420256 -0.05987472495004201
0.2469877 -0.05073620860918196 -0.058647924238338825
0.2489876 -0.05075495314771269 -0.05815388896628305
0.2509875 -0.05114307161430495 -0.057129558579863834
0.2529874 -0.05130228143397584 -0.05549752440310106
0.2549873 -0.05173093646212615 -0.05475454476009293
0.2569872 -0.05169229597249753 -0.054718692733948276
0.2589871 -0.05155351461976323 -0.05369648350918398
0.260987 -0.051546592611679175 -0.05253629541726812
0.2629869 -0.051737343662779475 -0.05193262702494142
0.2649868 -0.0515417730230974 -0.0513740347971645
0.2669867 -0.051949775672650134 -0.05034305986019204
0.2689866 -0.05220206535779309 -0.049670847598635715
0.2709865 -0.05230915262382995 -0.04865611007648686
0.2729864 -0.052152269174183266 -0.04823150954562121
0.2749863 -0.0524354885391919 -0.04718863431968408
0.2769862 -0.05219947983423563 -0.04641993853829507
0.2789861 -0.0525366827294079 -0.045716524472551416
0.280986 -0.05248437430166549 -0.04552219041783455
0.2829859 -0.05236589423902603 -0.044038345936780604
0.2849858 -0.052413949254614206 -0.044025643688499996
0.2869857 -0.05233549176335167 -0.04241929853465383
0.2889856 -0.05255912017063734 -0.04221672869418434
0.2909855 -0.05250107187400726 -0.04157202402890352
0.2929854 -0.05270061048337953 -0.04064632060657321
0.2949853 -0.05242471772999672 -0.03991004893700048
0.2969852 -0.05288230222133997 -0.03938539563412416
0.2989851 -0.05311580202653739 -0.038626612232267404
0.300985 -0.05336567503105963 -0.0380830603871882
0.3029849 -0.0536197038097307 -0.03738256306048093
0.3049848 -0.053292786802319 -0.03568907036524787
0.3069847 -0.05352075195388667 -0.03563716893927179
0.3089846 -0.0541028226650371 -0.034861010052185865
0.3109845 -0.05442150446068426 -0.03437576628861013
0.3129844 -0.05402133570954115 -0.033450114185586216
0.3149843 -0.0544877743131601 -0.03283948348189451
0.3169842 -0.05470758706828737 -0.03205164899515071
0.3189841 -0.054982066496502224 -0.03241679196252726
0.320984 -0.055532038941815354 -0.03174029602417345
0.3229839 -0.055591420855206006 -0.03061774997303763
0.3249838 -0.05598271887473089 -0.03024079042085969
0.3269837 -0.05572111144086997 -0.02943670006623476
0.3289836 -0.0560333231759655 -0.028821308669132215
0.3309835 -0.05637406350185812 -0.028497528961793313
0.3329834 -0.056473746669363514 -0.028109443739366358
0.3349833 -0.05703077967697446 -0.027708566591767143
0.3369832 -0.056996944159855706 -0.027402373910622523
0.3389831 -0.0571750387776672 -0.026526022961594887
0.340983 -0.05729267168204998 -0.026399830670749393
0.3429829 -0.05758256747102264 -0.025687060893060203
0.3449828 -0.05775753412311135 -0.02554031835819656
0.3469827 -0.05776098121035925 -0.025013843169780697
0.3489826 -0.057750285671999996 -0.0247355190644549
0.3509825 -0.058256725774884485 -0.024162295445116
0.3529824 -0.05807434435708954 -0.023649198848579803
0.3549823 -0.057956941750034054 -0.022747179122765002
0.3569822 -0.0582344483659539 -0.02233881489017748
0.3589821 -0.05874200414511132 -0.022180938138830566
0.360982 -0.05901430526420661 -0.02215268789843721
0.3629819 -0.058698534966167906 -0.02143305298922135
0.3649818 -0.0586953465785999 -0.020994915437017713
0.3669817 -0.059014914105079266 -0.020410988560180848
0.3689816 -0.05911713569677168 -0.02019297487600462
0.3709815 -0.05902432173858032 -0.019483838991256896
0.3729814 -0.05943075309132449 -0.018808044627167474
0.3749813 -0.059608738342327765 -0.018497216393649
0.3769812 -0.05970163137988023 -0.01855563884171791
0.3789811 -0.05984054464258665 -0.017888745766575495
0.380981 -0.06039740812734479 -0.017561160321633653
0.3829809 -0.0606132068250021 -0.01728745710708994
0.3849808 -0.06066403478906771 -0.016600803761397106
0.3869807 -0.06109580524331023 -0.01567183911398891
0.3889806 -0.06098405896367839 -0.015292982554238482
0.3909805 -0.06113492010317523 -0.015312309960569596
0.3929804 -0.06156546220408299 -0.014703907534578259
0.3949803 -0.06180382474986627 -0.014488832816192197
0.3969802 -0.06218426797507088 -0.014159922333453739
0.3989801 -0.06270492642772516 -0.013460747574635407
0.40098 -0.06273680529803143 -0.013455018352646564
0.4029799 -0.0632666559946645 -0.013355333076898686
0.4049798 -0.06347158914263698 -0.013039207120040735
0.4069797 -0.06359958070916569 -0.012659568124548416
0.4089796 -0.06379535480760418 -0.012310545012186206
0.4109795 -0.06415944305153942 -0.012320142127345838
0.4129794 -0.0638989098861444 -0.01211817914546907
0.4149793 -0.064398903690544 -0.011904343344588248
0.4169792 -0.06454796216614063 -0.011001087911405413
0.4189791 -0.06442941022219424 -0.010917582793830188
0.420979 -0.06513344068106589 -0.010747412770721696
0.4229789 -0.06519997153545086 -0.010615513794791295
0.4249788 -0.0654912577011302 -0.010465635100413095
0.4269787 -0.06548777204725173 -0.010305319536817063
0.4289786 -0.06560264097500375 -0.009862344517509242
0.4309785 -0.06583518163162812 -0.009751662158537504
0.4329784 -0.06612280486150098 -0.009624046794458222
0.4349783 -0.06637297771450026 -0.009286593593826421
0.4369782 -0.06634270988237836 -0.008795620207559932
0.4389781 -0.06665536778712283 -0.008592653495154999
0.440978 -0.06676727429705301 -0.00820969841655974
0.4429779 -0.06680677422455349 -0.008237584214605097
0.4449778 -0.06740152794636936 -0.007751484904449622
0.4469777 -0.06726519723167186 -0.007586897293355082
0.4489776 -0.0674328570675004 -0.007630504302001059
0.4509775 -0.0681939627300894 -0.007674702535414444
0.4529774 -0.06815729378974866 -0.0072247895753149265
0.4549773 -0.06819259323038286 -0.006854947358232721
0.4569772 -0.0685278443290881 -0.006719033360767797
0.4589771 -0.06909040380029152 -0.0063850381952465785
0.460977 -0.06906942941054858 -0.006295546791225182
0.4629769 -0.06944819486180323 -0.0061686412974709705
0.4649768 -0.0695634629251777 -0.0059853308412972026
0.4669767 -0.06979787788598445 -0.0058450091062135015
0.4689766 -0.06982032126050866 -0.0058815945166345515
0.4709765 -0.07068332432240594 -0.005815863154219461
0.4729764 -0.07016665951000702 -0.005522504016737012
0.4749763 -0.07055736747848257 -0.0055356451947912305
0.4769762 -0.07103508186650044 -0.005349556641270098
0.4789761 -0.07132070763544272 -0.005468030484405778
0.480976 -0.0713163705569308 -0.005116632276436182
0.4829759 -0.0714353035631419 -0.004776728459223424
0.4849758 -0.07162575035184113 -0.004696021697293752
0.4869757 -0.07185430885154243 -0.00474176199926736
0.4889756 -0.07181390938210813 -0.00420388064199529
0.4909755 -0.07203726649671535 -0.004346613727904465
0.4929754 -0.07221351844171041 -0.004344769717654615
0.4949753 -0.07234994683456555 -0.003763885761164293
0.4969752 -0.07269961097738056 -0.003793369801681837
0.4989751 -0.07261061999974207 -0.0037854041205060765
0.500975 -0.07280780312474161 -0.0035031171879734355
0.5029749 -0.07305145880665306 -0.0033735284951552855
0.5049748 -0.0730911452322354 -0.003096591031377667
0.5069747 -0.07325168743413502 -0.0032530188816491667
0.5089746 -0.07358460914029044 -0.0030867273405525905
0.5109745 -0.07385848478058003 -0.0026325424381771767
0.5129744 -0.07446953636589326 -0.0027546653965397003
0.5149743 -0.0745030794243089 -0.002844002077249448
0.5169742 -0.07477250745264284 -0.0025135550579548083
0.5189741 -0.07514154966583811 -0.00234913978246816
0.520974 -0.075043464571005 -0.002037250570109214
0.5229739 -0.07557780943069378 -0.0022779736849941404
0.5249738 -0.07603208859862029 -0.001878910917054659
0.5269737 -0.07624737812057672 -0.0019461676644547607
0.5289736 -0.07664263493131723 -0.001943471890677534
0.5309735 -0.0769549471424339 -0.0020302532992901717
0.5329734 -0.07708200836974177 -0.0019612046562822796
0.5349733 -0.0775534776509088 -0.001949967845671835
0.5369732 -0.07782216306465528 -0.0019975417210587668
0.5389731 -0.07806117912897878 -0.0019396702197765209
0.540973 -0.07811954698807028 -0.0023060669269942616
0.5429729 -0.07864405380870512 -0.002392324939586868
0.5449728 -0.07870226403575771 -0.002302428292527574
0.5469727 -0.07892885175549152 -0.0024650807070359243
0.5489726 -0.07890224597560315 -0.002374618465336903
0.5509725 -0.07929494572614615 -0.0024852194412818412
0.5529724 -0.07945551485149413 -0.0023723925160834478
0.5549723 -0.07981920570246717 -0.0025376127546566374
0.5569722 -0.07981746073391073 -0.00264420256898789
0.5589721 -0.07994914331999776 -0.002976525566106447
0.560972 -0.07990828957912621 -0.0030908042932459995
0.5629719 -0.0799363468485527 -0.0029224137191076888
0.5649718 -0.08004726031963624 -0.003045983905762495
0.5669717 -0.07999275645148768 -0.0030844839321903933
0.5689716 -0.08025131806871902 -0.0030269020716603354
0.5709715 -0.0803480930394012 -0.002697826529163963
0.5729714 -0.08013538822716192 -0.0027814717242889975
0.5749713 -0.08024734852179266 -0.002813464106066095
0.5769712 -0.08015754312890948 -0.0026384596287068393
0.5789711 -0.08052350406688227 -0.002583822771023696
0.580971 -0.0809244550317672 -0.002691215817906052
0.5829709 -0.08145296574244959 -0.002536604021580492
0.5849708 -0.08155670409519503 -0.0023669061222991936
0.5869707 -0.0817791432422988 -0.002071506306178153
0.5889706 -0.08198704079812287 -0.002481659410895197
0.5909705 -0.0819872816381777 -0.0022595531720790776
0.5929704 -0.08258783103045582 -0.002420994176324985
0.5949703 -0.08285801903455736 -0.0020794210406315516
0.5969702 -0.08319097897089459 -0.0026396558886602126
0.5989701 -0.08312003634796995 -0.002649991534014927
0.60097 -0.08364897122110876 -0.002644579572030445
0.6029699 -0.0837959729946099 -0.0028274033104118274
0.6049698 -0.0841824496525867 -0.0031331893732798946
0.6069697 -0.08466366210187437 -0.0031975158753744445
0.6089696 -0.084699371265347 -0.0031578575382853954
0.6109695 -0.08498023756914787 -0.003498715539553207
0.6129694 -0.08521780701253973 -0.003474322210013224
0.6149693 -0.0854937188750899 -0.003760642179324404
0.6169692 -0.08566397594020256 -0.004175814028943382
0.6189691 -0.08561446910877267 -0.004147116182444059
0.620969 -0.08575614414648122 -0.004518949532295778
0.6229689 -0.08600459243523045 -0.004592679254200434
0.6249688 -0.08627909133861975 -0.004650574853572988
0.6269687 -0.08628686834317653 -0.005123500685021612
0.6289686 -0.08620911633709279 -0.005109067949059264
0.6309685 -0.08635703247276337 -0.005175488575470594
0.6329684 -0.08652821875048858 -0.005598251266122907
0.6349683 -0.08615556126294271 -0.005430182333850252
0.6369682 -0.08630724213388824 -0.005598361843123331
0.6389681 -0.0861890689511211 -0.005534281625525536
0.640968 -0.086570997615578 -0.005842316757993404
0.6429679 -0.08631850402585824 -0.005773652729832275
0.6449678 -0.08665526872797942 -0.00547776977985541
0.6469677 -0.08663221146663619 -0.005412780724118042
0.6489676 -0.08719713778302259 -0.00577880411990514
0.6509675 -0.08678900713750562 -0.005575672574601481
0.6529674 -0.0873998405541942 -0.005593897227702226
0.6549673 -0.08752062642294148 -0.0055678803152661716
0.6569672 -0.08774379136874402 -0.005893691240190735
0.6589671 -0.0881026624737293 -0.006028340258618849
0.660967 -0.08834992778056534 -0.005841514128553486
0.6629669 -0.0886345488376778 -0.006006168196544308
0.6649668 -0.08899194301959457 -0.006172385222911962
0.6669667 -0.08931222296823577 -0.006260899261430121
0.6689666 -0.08950092273233394 -0.006305926896226256
0.6709665 -0.09026196147754179 -0.006612216115292502
0.6729664 -0.09037887361630165 -0.0069364896025701644
0.6749663 -0.09050106819369315 -0.007194254011825309
0.6769662 -0.09071728517838905 -0.007498108153358184
0.6789661 -0.0907329687818752 -0.007635086955908914
0.680966 -0.09130154657978053 -0.007687391279823638
0.6829659 -0.09136426786276322 -0.008292816217775043
0.6849658 -0.09141364331799097 -0.008581384240494622
0.6869657 -0.09148922855534064 -0.00873747183538428
0.6889656 -0.09197573815678907 -0.009323316458140461
0.6909655 -0.09196736353843121 -0.00972416669409984
0.6929654 -0.09221200025935085 -0.010028023694769246
0.6949653 -0.09220569821036212 -0.010272472313194912
0.6969652 -0.09236828128382851 -0.01069681866953471
0.6989651 -0.09244170328655325 -0.011089614840080739
0.700965 -0.0923419899415216 -0.011475636813220488
0.7029649 -0.09267594497967158 -0.011812198954158033
0.7049648 -0.09213054950244048 -0.012048618495217787
0.7069647 -0.0921327626215577 -0.012323745557083307
0.7089646 -0.09184645229545042 -0.012621802662523052
0.7109645 -0.09178973154855044 -0.012606817054215909
0.7129644 -0.09164958152788491 -0.01276105995521079
0.7149643 -0.09157740387719442 -0.01292566878363665
0.7169642 -0.09169891986173473 -0.013031863468245676
0.7189641 -0.09175823426914971 -0.0132208304280228
0.720964 -0.09200095278577972 -0.013271761951841661
0.7229639 -0.0920909854764144 -0.013317941441195885
0.7249638 -0.09191968701811916 -0.013809743084812552
0.7269637 -0.09167104583392771 -0.013620449884529373
0.7289636 -0.09199511633827634 -0.013567189970078698
0.7309635 -0.09215816569809716 -0.013553341262748111
0.7329634 -0.09245525229086798 -0.013697118663621138
0.7349633 -0.0926014781963046 -0.013765826637523196
0.7369632 -0.09299716863743766 -0.014042473644782689
0.7389631 -0.09315690710135112 -0.013923760747324786
0.740963 -0.09361609583638474 -0.014261810810476918
0.7429629 -0.093450115547541 -0.01425606920595629
0.7449628 -0.09386043587646924 -0.014788824505732774
0.7469627 -0.09432286168324289 -0.01496853341873057
0.7489626 -0.09459615005389414 -0.015272710584678561
0.7509625 -0.09495008097021143 -0.01579721416452621
0.7529624 -0.09521021061071605 -0.016003749099083385
0.7549623 -0.09539786176880774 -0.016315354135670024
0.7569622 -0.0957783006740393 -0.016831511987995266
0.7589621 -0.09577703554087083 -0.017256023023919088
0.760962 -0.09587503337449092 -0.017619438691383695
