! Created with skrf 1.8.0 (http://scikit-rf.org).
# GHz S RI R 50.0 
!freq ReS11 ImS11
0.001 0.7368366902931347 0.10101035232081765
0.0029999 0.7924363668110903 0.06246653176488812
0.0049998 0.8092921965748678 0.055277002428124306
0.0069997 0.8223316094409239 0.05490501894572586
0.0089996 0.827140942711357 0.05755051739860512
0.0109995 0.8290336822560243 0.06041478284295937
0.0129994 0.8321142200770508 0.06221309541329412
0.0149993 0.8332067356555644 0.06690237739462312
0.0169992 0.834189249298823 0.07075961356595911
0.0189991 0.8338185491418639 0.07608322924231703
0.020999 0.835223470374282 0.08127085345024615
0.0229989 0.8342126734255646 0.08551384806452988
0.0249988 0.8337986228477253 0.09175309229106382
0.0269987 0.8352618798046466 0.09697033440698732
0.0289986 0.8347040533995952 0.10180892805525787
0.0309985 0.8346150210991797 0.10701627087659771
0.0329984 0.8341577517846083 0.1135138020448771
0.0349983 0.8351206076622659 0.11825312322778436
0.0369982 0.8334670367448691 0.12351115051852596
0.0389981 0.8331973229515443 0.13000329160440377
0.040998 0.8332727730854622 0.13440856890784175
0.0429979 0.8322705980984508 0.14140815130164008
0.0449978 0.832402385267054 0.1463481178192571
0.0469977 0.8310105695677268 0.15151803426366878
0.0489976 0.831146499487285 0.15737822502223447
0.0509975 0.8293884219308355 0.1630074318327614
0.0529974 0.8284566182661575 0.1687084704426703
0.0549973 0.8287458792089076 0.17462652503405152
0.0569972 0.8264699070435675 0.17983147552510548
0.0589971 0.8254278267985411 0.18616301417111508
0.060997 0.8249964836163306 0.19157202083021274
0.0629969 0.8236166609237011 0.19749825830513207
0.0649968 0.8233988270387028 0.20357429887492923
0.0669967 0.8223048460325171 0.2091288718469747
0.0689966 0.8208031224323952 0.21469621000698452
0.0709965 0.8195462163874221 0.2211998620784837
0.0729964 0.8181246152996057 0.2262568248429785
0.0749963 0.8173733889965178 0.23203845926328165
0.0769962 0.8154745378242853 0.23870933426078644
0.0789961 0.8147351429210072 0.24383829165613968
0.080996 0.812345422605865 0.24938908476580374
0.0829959 0.8116663707778757 0.25573688819626017
0.0849958 0.8097007939597337 0.26134045042514276
0.0869957 0.8090263443955328 0.26692284001921385
0.0889956 0.8066495532043129 0.2734735625824617
0.0909955 0.805026161307295 0.27837748259901535
0.0929954 0.8033899855566857 0.28380560049959225
0.0949953 0.801437624869172 0.29022424573939687
0.0969952 0.7994846305799314 0.29527477421610415
0.0989951 0.7994198227452726 0.301351340108242
0.100995 0.7960632727032777 0.30607985878884303
0.1029949 0.7947338253333189 0.31270357752157985
0.1049948 0.7931173203554678 0.3184530809533841
0.1069947 0.791272382366761 0.3246967663567031
0.1089946 0.7885897443492181 0.33021820799103146
0.1109945 0.7870597757667812 0.33530822185428066
0.1129944 0.7847862937428041 0.34066948181118933
0.1149943 0.7834105266809754 0.34695814045733614
0.1169942 0.7804362464956313 0.35246975123359714
0.1189941 0.7793108830015463 0.3583291033395667
0.120994 0.7775294144576896 0.3634712488306413
0.1229939 0.7746938600028153 0.3696261415425856
0.1249938 0.7724317067892094 0.3751661414420472
0.1269937 0.769810319792605 0.38105236063084
0.1289936 0.7680983357882809 0.3860365802580097
0.1309935 0.7652094947610014 0.3914072095938713
0.1329934 0.7622142475323359 0.3979061364157592
0.1349933 0.7603478890218104 0.40308636162397815
0.1369932 0.7585431220853637 0.40842883896112964
0.1389931 0.756075062252774 0.4144251540001024
0.140993 0.7524754257659293 0.42041670251017577
0.1429929 0.7504747867888831 0.42528327805516886
0.1449928 0.7476852448988273 0.4313885547745487
0.1469927 0.745262657838006 0.4360950832414022
0.1489926 0.7419594786259134 0.44142194796539014
0.1509925 0.7403078021557 0.4468543002152316
0.1529924 0.7368001966169091 0.4523630985073396
0.1549923 0.7339136339011282 0.4575778038511492
0.1569922 0.7308825942394835 0.4628202268289121
0.1589921 0.7285338431028678 0.4686496882654539
0.160992 0.7252398351802737 0.47324444124610393
0.1629919 0.7228917232662744 0.4784848645880139
0.1649918 0.7199237697225563 0.4840935089672277
0.1669917 0.7167225942274575 0.4895425999953854
0.1689916 0.7137017455060135 0.49515085838852557
0.1709915 0.7112038898943248 0.5006713218577589
0.1729914 0.7078693678611595 0.5054416868660618
0.1749913 0.7048124832686458 0.5101986472798367
0.1769912 0.7007379054377288 0.5159058456633732
0.1789911 0.6982768548154714 0.520703105862363
0.180991 0.6952878420555808 0.5262535643930156
0.1829909 0.6918497616891718 0.5305782866396804
0.1849908 0.6881729922762703 0.5374857793510404
0.1869907 0.6856683506094464 0.5425974914904224
0.1889906 0.6816917397872376 0.5471198469102816
0.1909905 0.6786243459167164 0.5525815649597431
0.1929904 0.6755157583315854 0.5568046592996733
0.1949903 0.6723794241925333 0.5623106620119799
0.1969902 0.6685485946802825 0.5668135038447326
0.1989901 0.6647514755186292 0.5726118650387451
0.20099 0.6611014782723218 0.5774551373562348
0.2029899 0.6581015668877479 0.5824738164239863
0.2049898 0.6543214169442044 0.5876703661481676
0.2069897 0.6498686514894069 0.5922711223083066
0.2089896 0.6458348287619502 0.597063823603716
0.2109895 0.6426367911822235 0.6023044249077665
0.2129894 0.6397330986818545 0.6070607280240237
0.2149893 0.6353551260278105 0.6114542095455098
0.2169892 0.6311061073043476 0.616388706005196
0.2189891 0.627728968683495 0.6210782148273771
0.220989 0.6236335497516391 0.6259365386586557
0.2229889 0.6191998016733681 0.6318465997989287
0.2249888 0.6163519282317702 0.6368937413398201
0.2269887 0.6116647920986001 0.6402033328650977
0.2289886 0.6076679488612539 0.6447737336484238
0.2309885 0.6041743021136012 0.6488599200753721
0.2329884 0.5997046294726635 0.6540536354777965
0.2349883 0.5960882869235666 0.6584114935006864
0.2369882 0.5916432891471247 0.663785530840709
0.2389881 0.5874712697109646 0.6676484244476897
0.240988 0.5835556255017023 0.6727541623432266
0.2429879 0.5798884868854809 0.6765158264062165
0.2449878 0.5749863846080727 0.6810556966000563
0.2469877 0.5711817436799939 0.6858967862738373
0.2489876 0.5662640914112322 0.6896574250938701
0.2509875 0.5621228589291818 0.6942690489584948
0.2529874 0.5579809195100087 0.6994816630597182
0.2549873 0.5534751863065438 0.7036990060271497
0.2569872 0.5485972276353335 0.7071924664552296
0.2589871 0.5444397829784624 0.7115900576523778
0.260987 0.5404957182215359 0.7159832444698655
0.2629869 0.5357100720411064 0.720034508203989
0.2649868 0.5314226028549917 0.7238326783288653
0.2669867 0.5265051000581976 0.7287432160216807
0.2689866 0.5215578389073032 0.7331575190889834
0.2709865 0.5171766312729456 0.737458515443959
0.2729864 0.5125786058178994 0.7408331723774039
0.2749863 0.5078286229829448 0.7456218674908197
0.2769862 0.5033644777788555 0.7492653772301129
0.2789861 0.49825198176886576 0.7536259790225933
0.280986 0.4931809348844382 0.7567097190079489
0.2829859 0.4889056720765886 0.7616290594969635
0.2849858 0.48384163161602994 0.7643619659605275
0.2869857 0.4795406877994652 0.7693502506513026
0.2889856 0.4744418120151039 0.7727814798613392
0.2909855 0.46936959645156556 0.7764269185279034
0.2929854 0.4643396945786682 0.7803939459422111
0.2949853 0.45977131512591046 0.7840570154913532
0.2969852 0.454662144848564 0.787161835933495
0.2989851 0.4491509871243974 0.790800362859534
0.300985 0.444346412355791 0.7946879444338607
0.3029849 0.43907393162626285 0.7981377053304282
0.3049848 0.4350258833863888 0.8029621575647784
0.3069847 0.42992366872330934 0.8057802038005083
0.3089846 0.4243009198322931 0.8092881201827598
0.3109845 0.418631152172041 0.8126800900170241
0.3129844 0.4142859494395788 0.8161843571317332
0.3149843 0.4090942836032541 0.8196792829369395
0.3169842 0.40413088457576507 0.8231309651296138
0.3189841 0.3980658404024293 0.8253362343001568
0.320984 0.39262026231832486 0.8288083847156922
0.3229839 0.38771774794780023 0.8331233920121959
0.3249838 0.3820189384868986 0.8362328623149403
0.3269837 0.37744562534916565 0.8396672693752105
0.3289836 0.37207642541927977 0.8430778976446347
0.3309835 0.3666676692539705 0.8461250311611258
0.3329834 0.36104222137780545 0.8490890364157533
0.3349833 0.3552152905272016 0.8518179436097651
0.3369832 0.349895591347698 0.8548453565537385
0.3389831 0.3445009077047398 0.8584615211405989
0.340983 0.33904679563435963 0.8609413066632396
0.3429829 0.33320238038598377 0.8641332648237307
0.3449828 0.3276440402737546 0.8665707471362981
0.3469827 0.32244812479516466 0.8698834569720311
0.3489826 0.3168108475019847 0.8722869582554873
0.3509825 0.3107637466711982 0.8750711098611625
0.3529824 0.30581648631671565 0.8779722681523462
0.3549823 0.30074906857151823 0.881376700438747
0.3569822 0.29457636311405744 0.8843696571881781
0.3589821 0.2882071459154023 0.8865665919977352
0.360982 0.2821922916632537 0.8883743901105279
0.3629819 0.27727170552591635 0.8913509455987859
0.3649818 0.2719577757198617 0.8938842935434136
0.3669817 0.26576479945617804 0.8967966718558104
0.3689816 0.2599773873199773 0.898464919621983
0.3709815 0.25492088669325 0.9012684068268537
0.3729814 0.24852560214952446 0.9040224086525143
0.3749813 0.24272811095734625 0.9059888826002159
0.3769812 0.23698446305349208 0.9076017540043153
0.3789811 0.23108415801769894 0.9098324932988773
0.380981 0.22495530021313503 0.911775522309556
0.3829809 0.21908521061077577 0.913850118461702
0.3849808 0.2134545691261853 0.9164035721493445
0.3869807 0.2070696917052649 0.919330208491029
0.3889806 0.20184039737538229 0.9215861296702712
0.3909805 0.19626171529614386 0.9226988219589083
0.3929804 0.18995763607209493 0.9251998062408495
0.3949803 0.1843514661077349 0.9268672632472564
0.3969802 0.17776649251028 0.9287761087247995
0.3989801 0.17175982011320448 0.9315904435060092
0.40098 0.16581150214261658 0.9328849088300045
0.4029799 0.15966166552979202 0.9342296076243776
0.4049798 0.15342332876447706 0.9358512753391314
0.4069797 0.1475981046046836 0.9377429944400568
0.4089796 0.14169882661839522 0.9396978269620375
0.4109795 0.1353862087768217 0.9406510332016925
0.4129794 0.12979220472690123 0.9423660300594087
0.4149793 0.12345145717985398 0.943827738955598
0.4169792 0.1171874848087176 0.9464010839169114
0.4189791 0.11161651158122739 0.9475979296412563
0.420979 0.10496094349621346 0.948845159410779
0.4229789 0.09890881432072304 0.950033185783392
0.4249788 0.09254013916141446 0.9510586659684773
0.4269787 0.08673790279958313 0.9522422639722332
0.4289786 0.08055303055069327 0.9538573692037082
0.4309785 0.07464363089112791 0.954607856926924
0.4329784 0.06811259351011789 0.9556339204009521
0.4349783 0.061697596684492734 0.9569261614745829
0.4369782 0.05610925116026062 0.9590646329684726
0.4389781 0.04956889832802712 0.9593123144436869
0.440978 0.04330228767613724 0.9605024654129939
0.4429779 0.03767789824303244 0.9613239775670316
0.4449778 0.03050722116902982 0.9623346276210548
0.4469777 0.024888883450351285 0.9631665681572122
0.4489776 0.019048063033408502 0.963609217648771
0.4509775 0.011675113833360215 0.9640307513897906
0.4529774 0.005826779968267054 0.9650191351582537
0.4549773 2.506295165517758e-05 0.9657226124315915
0.4569772 -0.00678314519067974 0.9666600864574428
0.4589771 -0.013497656319623338 0.9674042244806056
0.460977 -0.019357499288647696 0.9677138361781147
0.4629769 -0.02580352664990449 0.9685004320471445
0.4649768 -0.03179149895922343 0.969004909308716
0.4669767 -0.03816053534498834 0.9696902180167494
0.4689766 -0.04400503071680979 0.9697069211900982
0.4709765 -0.05121108680779195 0.9697889352671694
0.4729764 -0.05648660126132386 0.9704872954161462
0.4749763 -0.06316979587798302 0.9702288669884734
0.4769762 -0.0699048525595561 0.9705737524431484
0.4789761 -0.076187389606651 0.970452223879335
0.480976 -0.08221303355983885 0.970985903506055
0.4829759 -0.08883950461706011 0.9712823133853878
0.4849758 -0.09498710529718474 0.9713780568554822
0.4869757 -0.10114132108552362 0.9708601522761905
0.4889756 -0.10755756772263822 0.9716458129666925
0.4909755 -0.11391474571129243 0.9711913117426646
0.4929754 -0.12016355825876535 0.9706859551042092
0.4949753 -0.12665285085318578 0.9711260075026309
0.4969752 -0.1332546750099276 0.9703691971576061
0.4989751 -0.13914405180511388 0.9703104959034267
0.500975 -0.14568980158986147 0.9699291715626034
0.5029749 -0.15178141869608486 0.9696322089265902
0.5049748 -0.15791766438306665 0.9695986770820616
0.5069747 -0.16380974856433728 0.9687080879118593
0.5089746 -0.17026484323523308 0.9680845855942222
0.5109745 -0.17668942505287633 0.9679834681051595
0.5129744 -0.18329642371136606 0.9667300589553095
0.5149743 -0.18923990714997496 0.9662292794095357
0.5169742 -0.19560734006044533 0.965734905227906
0.5189741 -0.20190085354653417 0.9650707566091503
0.520974 -0.20781907419630496 0.9645821494220977
0.5229739 -0.21425827047385754 0.9634446611941693
0.5249738 -0.22092323400150982 0.9630941410581652
0.5269737 -0.22694939473586048 0.9620198231269333
0.5289736 -0.23326371142661367 0.9609450926888691
0.5309735 -0.23993812398031622 0.9601578587613645
0.5329734 -0.24584708229786517 0.9592995037132099
0.5349733 -0.2521836162188421 0.9579841225262109
0.5369732 -0.25853026037035287 0.9570009620617874
0.5389731 -0.26443563633066425 0.9559286815484138
0.540973 -0.2705881196849732 0.9543958652053128
0.5429729 -0.277104551809333 0.9529479659709108
0.5449728 -0.28330122624575904 0.9521535863404582
0.5469727 -0.2895538807429304 0.950846958662586
0.5489726 -0.2953797645723643 0.9497940874786369
0.5509725 -0.30183685169173957 0.9485543211465015
0.5529724 -0.30808489654529586 0.9471792537763276
0.5549723 -0.3144484909255177 0.945350522966528
0.5569722 -0.32049617306659806 0.9438882800480916
0.5589721 -0.3264561202338832 0.942021583956796
0.560972 -0.33251452180094254 0.9405402072272752
0.5629719 -0.338693653041095 0.9391827668560934
0.5649718 -0.3448761831562536 0.9372844234617349
0.5669717 -0.350598297620483 0.935440583782654
0.5689716 -0.3570504806857412 0.9338840462642256
0.5709715 -0.3633192633409996 0.9322934379921572
0.5729714 -0.36879228575505474 0.9305294455274704
0.5749713 -0.37511006305060307 0.9285806427334279
0.5769712 -0.3807932815966651 0.9270884678007916
0.5789711 -0.38684465237629273 0.9244238258448438
0.580971 -0.39269319605991887 0.9222772808770466
0.5829709 -0.39911407631253754 0.9201030696722853
0.5849708 -0.40516597356692113 0.9180935801747878
0.5869707 -0.4108841873447934 0.9160856620008836
0.5889706 -0.4168581455576784 0.9137701275496617
0.5909705 -0.42257981081130014 0.9122613030793383
0.5929704 -0.4288286897803206 0.9096374992037479
0.5949703 -0.43490354278570065 0.9076217470938247
0.5969702 -0.44057433157894943 0.9048797877974003
0.5989701 -0.4463441479962358 0.9026999947837397
0.60097 -0.452424602312841 0.9004985399222801
0.6029699 -0.4580439966953621 0.8981523472927699
0.6049698 -0.4640121229229559 0.8953934805935475
0.6069697 -0.4697729945250232 0.8926496237990227
0.6089696 -0.4756974512407244 0.8901284499146696
0.6109695 -0.48136606298446005 0.8877419554680206
0.6129694 -0.48714509822579644 0.885281064945035
0.6149693 -0.492693247256663 0.8816885914136625
0.6169692 -0.4984424282829487 0.8789470737076529
0.6189691 -0.5042135138714502 0.876723072010429
0.620969 -0.5094364187183424 0.8739991645755933
0.6229689 -0.5154723839405642 0.8710669218859884
0.6249688 -0.5212527898759425 0.8681897026430909
0.6269687 -0.5266328325711992 0.8652334458842563
0.6289686 -0.5323355271662592 0.8623983818220043
0.6309685 -0.5380866801574414 0.8597834992851379
0.6329684 -0.543253554020396 0.8563395794987629
0.6349683 -0.5489037886959569 0.8533727921013398
0.6369682 -0.554485184274972 0.8505420218503247
0.6389681 -0.5599450960058892 0.8474980395937638
0.640968 -0.5655141454604086 0.8434547059706758
0.6429679 -0.5706783967709237 0.8408681094880237
0.6449678 -0.5763914475551739 0.8372978021064138
0.6469677 -0.581760563050672 0.834611937009663
0.6489676 -0.5868604980010601 0.8305958513249293
0.6509675 -0.59236898087891 0.8281277046209574
0.6529674 -0.5979326052068026 0.8239701786434509
0.6549673 -0.6032512487520114 0.8209698981148181
0.6569672 -0.6083758418394704 0.8174524492287407
0.6589671 -0.6136366082254314 0.8136297009007174
0.660967 -0.6191247267248208 0.8104329640502759
0.6629669 -0.6241083296949343 0.8068794202114065
0.6649668 -0.6291449381714972 0.8032929785001014
0.6669667 -0.634090788797202 0.7998417388734305
0.6689666 -0.6392957584540431 0.7960435455324087
0.6709665 -0.6446729179471313 0.7919191391926712
0.6729664 -0.6497162757236946 0.7884614898465433
0.6749663 -0.6550392249462942 0.7846629278351218
0.6769662 -0.6600081413136284 0.7810547582045116
0.6789661 -0.6650355858019463 0.7770737745170975
0.680966 -0.6700413671585144 0.7733718008495947
0.6829659 -0.6748921234111493 0.7693761128032981
0.6849658 -0.6798684380480168 0.7654099929614642
0.6869657 -0.6848922127483211 0.7617519675132736
0.6889656 -0.6896305316758726 0.7574313818060403
0.6909655 -0.6945366109608795 0.7537060038025182
0.6929654 -0.6994861537004395 0.7494434251353398
0.6949653 -0.7042542809371395 0.7455552630800759
0.6969652 -0.7092383406583042 0.7415156091218464
0.6989651 -0.7137915123303864 0.7373344682624826
0.700965 -0.7186728637002786 0.7331329398124568
0.7029649 -0.7232932398412015 0.7287571587858931
0.7049648 -0.7278456602891827 0.7248099592732107
0.7069647 -0.7326019710887741 0.7203948244002991
0.7089646 -0.7370120159161956 0.7163030885603394
0.7109645 -0.7417494775832336 0.7118210152589772
0.7129644 -0.7462100370467573 0.707553048772048
0.7149643 -0.7509661050728972 0.7032974851514177
0.7169642 -0.7554686526475225 0.6988960960969425
0.7189641 -0.7595302741353561 0.6941185012405785
0.720964 -0.7642535411595044 0.689982775093498
0.7229639 -0.7687132407708355 0.6854478338298267
0.7249638 -0.7729774598120226 0.6807875105647944
0.7269637 -0.7772291203578218 0.6764710770132043
0.7289636 -0.7816267135926597 0.6718818043575655
0.7309635 -0.786124806538411 0.6672294876374114
0.7329634 -0.7901531557992726 0.6624315393528815
0.7349633 -0.794697719252929 0.6579251988774888
0.7369632 -0.7985594720185413 0.6532115188943073
0.7389631 -0.8029254451290143 0.6485863329793193
0.740963 -0.8071107288988564 0.6439232945790376
0.7429629 -0.811060279016364 0.6391176047311553
0.7449628 -0.8150237834804844 0.6342313321918057
0.7469627 -0.818959112156312 0.6295638150649554
0.7489626 -0.8232349369085495 0.6245546089246067
0.7509625 -0.8273815514730698 0.6199554112932265
0.7529624 -0.8310318339892157 0.6147773280282153
0.7549623 -0.8349546998842229 0.6098741544875396
0.7569622 -0.8389696812205973 0.6050921437266761
0.7589621 -0.8426996194523004 0.6000224510351775
0.760962 -0.8464199900525815 0.5951031649691684
0.7629619 -0.850527585853588 0.5900740639516774
0.7649618 -0.853946675955674 0.5850292300310329
0.7669617 -0.8575874607306821 0.5803262731480943
0.7689616 -0.8614375325977004 0.5751478839210991
0.7709615 -0.8652149035776878 0.5698504148459601
0.7729614 -0.8686942690739329 0.5649517187840611
0.7749613 -0.8720560078033369 0.5597970608410906
0.7769612 -0.8757246824093045 0.554373073657863
0.7789611 -0.8794972518966704 0.5496244152985021
0.780961 -0.8828949833275084 0.5443626793355896
0.7829609 -0.8865006967481759 0.5391735491640939
0.7849608 -0.8897249776462485 0.5337717388184918
0.7869607 -0.8931545569453601 0.5285704728168816
0.7889606 -0.8968575684109458 0.523135084622726
0.7909605 -0.8998754571761789 0.5180249763306181
0.7929604 -0.9030227132149815 0.5126832728357056
0.7949603 -0.9063511514881223 0.5072352708812344
0.7969602 -0.9100507771420212 0.5018157630000051
0.7989601 -0.9132679752134115 0.49663707760736703
0.80096 -0.9158567590104277 0.4909256439116419
0.8029599 -0.9192403860623486 0.4857705167725703
0.8049598 -0.9221281074894482 0.4804351281331898
0.8069597 -0.925257736455369 0.4747371926246987
0.8089596 -0.9284191882799187 0.46929799061261834
0.8109595 -0.9312753277683115 0.4637393203231205
0.8129594 -0.9343006247479738 0.45818588665515936
0.8149593 -0.9370956437961827 0.45261643029786747
0.8169592 -0.9398865731036476 0.4473721571554947
