! Created with skrf 1.8.0 (http://scikit-rf.org).
# GHz S RI R 50.0 
!freq ReS11 ImS11
0.001 -0.9954425669060745 0.0237256559291808
0.0029999 -0.9817888574866505 0.06766402306828662
0.0049998 -0.9607729488000374 0.10742995724821969
0.0069997 -0.9320422898994412 0.1445026693099411
0.0089996 -0.8961515202544879 0.17735253863541328
0.0109995 -0.8560764081073139 0.20651595265513856
0.0129994 -0.8123804632764895 0.2322135478390912
0.0149993 -0.7687094715318268 0.2521000404310917
0.0169992 -0.7242031884925291 0.2673750143748269
0.0189991 -0.6814856954835048 0.27872375146754935
0.020999 -0.6364732833314987 0.29035064503802754
0.0229989 -0.5969126816573682 0.2958091733206474
0.0249988 -0.560532282287667 0.29961847566780475
0.0269987 -0.5204238296766667 0.3017004913561009
0.0289986 -0.48703401987279166 0.30273711459006697
0.0309985 -0.4554968188807247 0.30041861273864723
0.0329984 -0.4263784413997005 0.2989037744819412
0.0349983 -0.39584439457992054 0.29710979330703524
0.0369982 -0.37289596151379084 0.2933099229319469
0.0389981 -0.34878211766643147 0.2890492871277358
0.040998 -0.3258213893299546 0.282679739042356
0.0429979 -0.3071417538390123 0.2792799377529533
0.0449978 -0.2877627929039746 0.27628628770051833
0.0469977 -0.2708278675594097 0.26865483796086326
0.0489976 -0.2562024012111347 0.26588761903466007
0.0509975 -0.24217599187146077 0.25925212322472996
0.0529974 -0.229923422790264 0.25350339231320407
0.0549973 -0.21521603765408792 0.24892070844384306
0.0569972 -0.20660008731301338 0.24433083265935135
0.0589971 -0.19593110582120557 0.2389530189301026
0.060997 -0.18635694993136528 0.2337574272592068
0.0629969 -0.17759413989154813 0.22881271624511335
0.0649968 -0.1673240653665066 0.2243255355241082
0.0669967 -0.15901947715280854 0.22148505015476178
0.0689966 -0.15199156003546627 0.21552681296903572
0.0709965 -0.14624815714106043 0.2124491787889998
0.0729964 -0.13938864754497668 0.2084979327504744
0.0749963 -0.13352440244903638 0.20396195168565998
0.0769962 -0.12823308406547523 0.19919217570138734
0.0789961 -0.12355100824629987 0.19636356813355285
0.080996 -0.11838097565765068 0.1926751683906659
0.0829959 -0.11396079138708548 0.18990144761963973
0.0849958 -0.10999634711222189 0.18566480069815394
0.0869957 -0.10531764330647472 0.18345594225127454
0.0889956 -0.10293841688827601 0.1792513185105015
0.0909955 -0.0986882208305976 0.1750941222800438
0.0929954 -0.09476547355313818 0.17397115927922974
0.0949953 -0.09496204243262141 0.17087629728178022
0.0969952 -0.08904027677692002 0.1680443919684444
0.0989951 -0.08691340616985983 0.16602441099740928
0.100995 -0.08520110826943705 0.16264350885688064
0.1029949 -0.08207740559983898 0.1592803446611044
0.1049948 -0.08014707589053427 0.15694863708197565
0.1069947 -0.07793940135806525 0.15446338284264383
0.1089946 -0.07558388738588565 0.1518671479774227
0.1109945 -0.07367233483194313 0.15044379401458818
0.1129944 -0.07265769227258714 0.14755526956552292
0.1149943 -0.07021077818406898 0.14573368637058465
0.1169942 -0.06900979397306925 0.14288139200475894
0.1189941 -0.06645340791895465 0.14157315944567944
0.120994 -0.06508867679194481 0.13980399204893235
0.1229939 -0.06380070739959698 0.13704394667006398
0.1249938 -0.061943695357510126 0.13564257347445782
0.1269937 -0.06108680465470524 0.13352636528244033
0.1289936 -0.05884124940594069 0.13150758074050284
0.1309935 -0.05762618065841356 0.12993301345080868
0.1329934 -0.056891396897503846 0.12740323035528422
0.1349933 -0.05576496619571957 0.1257291520735306
0.1369932 -0.05505944548586986 0.12543912048749925
0.1389931 -0.05309792558386409 0.12319480364675742
0.140993 -0.05327792613509027 0.12106604091668315
0.1429929 -0.051204204939096915 0.12026511479433274
0.1449928 -0.050637986389347515 0.11963377847197093
0.1469927 -0.04968324201877408 0.11720750693304378
0.1489926 -0.049675455840742455 0.11557061818376446
0.1509925 -0.04843340578775657 0.11591800682144053
0.1529924 -0.04676120878598661 0.11363615367392123
0.1549923 -0.04800082501792686 0.11330186723784567
0.1569922 -0.04590011339765073 0.11030412653701584
0.1589921 -0.04644050234818256 0.1118645796809373
0.160992 -0.045143679637048996 0.10898563175412192
0.1629919 -0.044091428812817725 0.10790341036586307
0.1649918 -0.04445624090428116 0.10676979240924643
0.1669917 -0.043211628739660786 0.10630497313974917
0.1689916 -0.04351972119970939 0.10464702918772686
0.1709915 -0.04309036226169777 0.10359947322762826
0.1729914 -0.04324036731619379 0.1031395265566889
0.1749913 -0.042836322978358 0.1020309269323334
0.1769912 -0.04242574622296395 0.10097907876765295
0.1789911 -0.042046969935426656 0.09931852208237163
0.180991 -0.04161996305416946 0.09912389145852353
0.1829909 -0.040340522957717694 0.09745223955913468
0.1849908 -0.04127098868882956 0.09646246932053859
0.1869907 -0.039928709021540186 0.09514961083603317
0.1889906 -0.04050254799838626 0.09407537196989639
0.1909905 -0.04053234017674104 0.09326904802269259
0.1929904 -0.039840417452591786 0.09181983759274635
0.1949903 -0.039437791014235876 0.09127751290152716
0.1969902 -0.0394264210072228 0.0900433356035301
0.1989901 -0.03909297289000549 0.08940996273623537
0.20099 -0.038473904070997836 0.08815757827619221
0.2029899 -0.03913689692685034 0.08795855439212856
0.2049898 -0.03809252665184176 0.08702716214772574
0.2069897 -0.03773883759231212 0.08576917209380559
0.2089896 -0.037708656000079784 0.08563972900095757
0.2109895 -0.0375527669993974 0.0844284764708468
0.2129894 -0.037943278976082136 0.0837762216181874
0.2149893 -0.03712727012589346 0.08245476034473267
0.2169892 -0.03650212243527936 0.08239782967486517
0.2189891 -0.0366101309692206 0.08195152885362808
0.220989 -0.036008875626637515 0.08143056108571771
0.2229889 -0.03590375507586882 0.0799733729072925
0.2249888 -0.03650670245661809 0.08047303427314105
0.2269887 -0.03643431390612946 0.07951073427154119
0.2289886 -0.03622181779034568 0.07872568315234547
0.2309885 -0.0362754327130491 0.07834344972587709
0.2329884 -0.03642318849390457 0.07821346126931764
0.2349883 -0.03631241878638888 0.07780391409868313
0.2369882 -0.036536043699265316 0.07691187142260311
0.2389881 -0.03626358685216497 0.07633980588190203
0.240988 -0.03614397273903956 0.0762236166947288
0.2429879 -0.037244331396930806 0.07569900219546927
0.2449878 -0.036366345457050774 0.07492430783311071
0.2469877 -0.03689599485475066 0.07438774402904771
0.2489876 -0.036594845340821004 0.07385463901799019
0.2509875 -0.03686648819888733 0.07302172360667476
0.2529874 -0.037218133325364916 0.07226194106095848
0.2549873 -0.03731124000999848 0.07180641016150767
0.2569872 -0.037260778584973356 0.07151505768102391
0.2589871 -0.03721858498816144 0.07115784301856742
0.260987 -0.03731354198144163 0.06995296998724332
0.2629869 -0.03744448650039836 0.0696408545766176
0.2649868 -0.03699974963148998 0.0688760646120857
0.2669867 -0.037435070526393555 0.06814528493601836
0.2689866 -0.03721498994052695 0.06776412280195665
0.2709865 -0.03748750176597739 0.06736136957669767
0.2729864 -0.03763783070991977 0.06694795323208529
0.2749863 -0.03812834485950549 0.06617690759142333
0.2769862 -0.03759806930737404 0.06576691849737341
0.2789861 -0.03771970748841126 0.06510594540066161
0.280986 -0.03750972757103389 0.06490687069284622
0.2829859 -0.03770440658561093 0.06409931900380937
0.2849858 -0.03800080405536615 0.06400844137996832
0.2869857 -0.038056456734929946 0.06377687826806108
0.2889856 -0.038127061911969184 0.06273710762572204
0.2909855 -0.03800546347010915 0.06243314509049475
0.2929854 -0.03805398722444686 0.062495679064615804
0.2949853 -0.03813425654792656 0.06246494750657015
0.2969852 -0.038355698731693685 0.061431982146107386
0.2989851 -0.03844536719082735 0.06150069196689818
0.300985 -0.03868439126591304 0.06064373878436725
0.3029849 -0.03887401363070161 0.060660983829251794
0.3049848 -0.039171739186485866 0.06030339869695492
0.3069847 -0.03901932598588204 0.05997319231120214
0.3089846 -0.039337847104095804 0.05970880196464671
0.3109845 -0.03962563521907018 0.05909617683116139
0.3129844 -0.03969197629088077 0.05898051269107672
0.3149843 -0.040046819680780874 0.05888763125508073
0.3169842 -0.04016928539712046 0.05882887837293495
0.3189841 -0.04089761654595058 0.05729660379429281
0.320984 -0.04083192363370197 0.05731154356080877
0.3229839 -0.0416064571856771 0.057227014106675675
0.3249838 -0.041103394597476715 0.056570125725975785
0.3269837 -0.04143297038517205 0.05610129857225523
0.3289836 -0.04143965979775119 0.05607694697533721
0.3309835 -0.041457100587009375 0.055506549019207964
0.3329834 -0.04231415285678322 0.054596685517089676
0.3349833 -0.04198037456958944 0.054123790619857295
0.3369832 -0.04274624714920307 0.05405215965362783
0.3389831 -0.04238096289095421 0.053820261460327874
0.340983 -0.04285718410490463 0.05318019254428985
0.3429829 -0.04274581898894398 0.052813093597783925
0.3449828 -0.04329910793083173 0.05247918284673219
0.3469827 -0.043227635681170315 0.0517539678182177
0.3489826 -0.04352335499522545 0.05130571530281121
0.3509825 -0.04330978503621224 0.05126224528580486
0.3529824 -0.04349172279492883 0.05078392080289681
0.3549823 -0.04381267536563861 0.050595928849559206
0.3569822 -0.044045372983161676 0.050242655320994235
0.3589821 -0.0444793680069145 0.04973947838976377
0.360982 -0.04457178588006812 0.04959426019881988
0.3629819 -0.044579817778358524 0.049326308411696954
0.3649818 -0.044741746301850155 0.04883656013545293
0.3669817 -0.044708197999104526 0.04851520723863874
0.3689816 -0.04507765055692542 0.04828811208984
0.3709815 -0.045122438928037696 0.047961775733343384
0.3729814 -0.04522939250753325 0.0476382259177895
0.3749813 -0.045810108513985606 0.047757915916406136
0.3769812 -0.045637274629006 0.047485446497988644
0.3789811 -0.04591703866097109 0.047008161793275195
0.380981 -0.04633999644736267 0.046418047803149426
0.3829809 -0.04662782864897398 0.04647272540933786
0.3849808 -0.04682202632209134 0.04579399559380703
0.3869807 -0.04720419488642636 0.04593085341225233
0.3889806 -0.047136063564670594 0.045934094942986316
0.3909805 -0.04781304369500322 0.045744670562088606
0.3929804 -0.04774686168393476 0.04505161597203512
0.3949803 -0.04839374771056655 0.04512489536694061
0.3969802 -0.04873420994671491 0.04457435328285003
0.3989801 -0.04897944776050667 0.04425567297509949
0.40098 -0.04903262722224051 0.04366639592021524
0.4029799 -0.04973550768657578 0.043225469275834844
0.4049798 -0.04967041018101891 0.043133051572376076
0.4069797 -0.05019914612466364 0.04270740625860458
0.4089796 -0.0503605507380748 0.04262716105199357
0.4109795 -0.05060987690312852 0.041647287128869906
0.4129794 -0.05074537804568069 0.0414054551403279
0.4149793 -0.0509850201165099 0.04100009119533031
0.4169792 -0.05118861836050244 0.041145912687698696
0.4189791 -0.05136082114649552 0.04092501634245395
0.420979 -0.051602425257584676 0.040379225567111106
0.4229789 -0.05239264650647992 0.03984335378407855
0.4249788 -0.052196656727131904 0.03938549399995413
0.4269787 -0.05249882239960918 0.03926432675729209
0.4289786 -0.052518539283293184 0.038583805076174024
0.4309785 -0.052792274706658024 0.03875270905124932
0.4329784 -0.053260521711434375 0.03828329273898298
0.4349783 -0.05332723478438725 0.03802281005048424
0.4369782 -0.05361239175306809 0.03767367344997526
0.4389781 -0.053830341723515765 0.037558709725224626
0.440978 -0.053859083832888885 0.03725751807179126
0.4429779 -0.05422869569381308 0.03699991535583369
0.4449778 -0.0545236228415672 0.03684580745717222
0.4469777 -0.054518209460158805 0.036452760557155635
0.4489776 -0.05482213529256684 0.03644886620734459
0.4509775 -0.05547794173407502 0.03552401681880588
0.4529774 -0.055379905400306545 0.035228572179979545
0.4549773 -0.055142258503520565 0.035365214990372
0.4569772 -0.05597913573730867 0.0350844957563926
0.4589771 -0.05640124040937661 0.034685223226818974
0.460977 -0.05629514583238612 0.03460833626094554
0.4629769 -0.056904211150606246 0.034085264994203626
0.4649768 -0.05733277732396444 0.0337271926272736
0.4669767 -0.057225012766294256 0.033285676276119905
0.4689766 -0.05783088085184647 0.0328619472461044
0.4709765 -0.05791671364868686 0.03249956404269635
0.4729764 -0.05799720106618751 0.03226392145011596
0.4749763 -0.05830186576685746 0.03203933219425771
0.4769762 -0.05844232168154337 0.03147619703431952
0.4789761 -0.059093964073850126 0.0310011082847393
0.480976 -0.05913842443797215 0.030802923840782002
0.4829759 -0.05929651456985808 0.030917858777615256
0.4849758 -0.05955089962964484 0.03067949179547679
0.4869757 -0.05976976225756326 0.030012163133328086
0.4889756 -0.059820198805907755 0.030085328595436736
0.4909755 -0.06028712204323999 0.02945545468547859
0.4929754 -0.06055304277350923 0.02939984231983576
0.4949753 -0.06057009648244452 0.029165338983897705
0.4969752 -0.06082212378354185 0.028706278659176347
0.4989751 -0.06083616579200546 0.028196083010925802
0.500975 -0.06094550886687954 0.028171956447714794
0.5029749 -0.06138709134375193 0.028009636897941594
0.5049748 -0.06139338718527372 0.0280822802235796
0.5069747 -0.06170240963296997 0.027460384350944073
0.5089746 -0.06223881534737523 0.02723966689657173
0.5109745 -0.06233207915517572 0.027155394252736918
0.5129744 -0.06299089625185536 0.026604693697382602
0.5149743 -0.06328999704056115 0.026243915294683517
0.5169742 -0.06340277889286422 0.026351880579007007
0.5189741 -0.06389560976168214 0.026038763671384888
0.520974 -0.06420210619323018 0.025906769916589144
0.5229739 -0.06446224686137819 0.025618371061580884
0.5249738 -0.06480164706964421 0.02520144141704755
0.5269737 -0.0649654939784759 0.02519027164823256
0.5289736 -0.06559429557873306 0.024773174335362535
0.5309735 -0.06603520595724592 0.02413561772108118
0.5329734 -0.06609381906936387 0.024120898476071198
0.5349733 -0.06660530507682798 0.02362381621213058
0.5369732 -0.0668988163239602 0.023366821113788145
0.5389731 -0.06718825773093214 0.022993834784369598
0.540973 -0.06736266715727907 0.02237163667028004
0.5429729 -0.06773792650968898 0.02190256579320178
0.5449728 -0.06764040132547096 0.02161335705676479
0.5469727 -0.06819967687175653 0.021139465198587275
0.5489726 -0.06804498236846779 0.021069369442094
0.5509725 -0.06856718283917623 0.02059647999202802
0.5529724 -0.0687788655080506 0.020308469189752515
0.5549723 -0.06891262600229692 0.0198821339517625
0.5569722 -0.0693523791254235 0.019467587180171872
0.5589721 -0.0694677620759879 0.01913447218379607
0.560972 -0.06936395626247085 0.018554009562755297
0.5629719 -0.0693936082625678 0.018343463653469696
0.5649718 -0.06945524229678343 0.018031396096006354
0.5669717 -0.06977591204129198 0.017884308038030164
0.5689716 -0.06988171448475931 0.01741799675394017
0.5709715 -0.07008112208080769 0.017311034621726038
0.5729714 -0.07007003248730016 0.017104009228587985
0.5749713 -0.07012735773150622 0.016911205467870647
0.5769712 -0.07002454508861784 0.016544725343811555
0.5789711 -0.07089114823839557 0.016255660934645783
0.580971 -0.07091515878648816 0.016148540331643146
0.5829709 -0.07124490774053752 0.01623466423744959
0.5849708 -0.0711497161932673 0.016006770312295675
0.5869707 -0.07192716304094902 0.0157181344972132
0.5889706 -0.07184771824357637 0.015378992409727996
0.5909705 -0.07239990134866084 0.015065764580991316
0.5929704 -0.07273164445866558 0.014818400892584124
0.5949703 -0.07318485610969376 0.014749572442052362
0.5969702 -0.07330728214404103 0.014073547196799076
0.5989701 -0.07356246263686453 0.013791341978294968
0.60097 -0.07407152201524775 0.013527105860323834
0.6029699 -0.07407482399802773 0.013077980424403536
0.6049698 -0.0744751493277216 0.012727127333843943
0.6069697 -0.07498036190638654 0.012166316106390091
0.6089696 -0.07524751406479334 0.01211158143643774
0.6109695 -0.07540496368152366 0.011605829854996561
0.6129694 -0.07568248334112601 0.011317329530540675
0.6149693 -0.07592582077449087 0.010938572656288358
0.6169692 -0.0763541055497158 0.010250759441206025
0.6189691 -0.07598958331605554 0.00995217166930398
0.620969 -0.07644610908064245 0.009740792615162981
0.6229689 -0.07672053173069027 0.009317004697881031
0.6249688 -0.07683102931195286 0.008970384671427922
0.6269687 -0.07703295131703651 0.008285658879976555
0.6289686 -0.07707644656003904 0.008176946626942783
0.6309685 -0.07743723794442806 0.007764437206626205
0.6329684 -0.07735397075121418 0.007338064244513505
0.6349683 -0.07722887391907014 0.007019212884263184
0.6369682 -0.07730683274828656 0.006754528587170242
0.6389681 -0.07708901339034215 0.006770844837009668
0.640968 -0.0775569509200357 0.006329130474349711
0.6429679 -0.07755224972219718 0.006027971926035585
0.6449678 -0.07762981295973868 0.006178883854059111
0.6469677 -0.07783321243603558 0.006006482442125375
0.6489676 -0.07833046273984492 0.005656457112839682
0.6509675 -0.07817945399086965 0.005605910414028546
0.6529674 -0.07865585129535962 0.005424551520188028
0.6549673 -0.07873057106050221 0.005275389565537757
0.6569672 -0.07891580545717486 0.004833528344349296
0.6589671 -0.07941255052990379 0.0044418301225774
0.660967 -0.0799154370395677 0.004283837997884669
0.6629669 -0.07990194280043272 0.003990204128657401
0.6649668 -0.0806368607388662 0.0039445780177975315
0.6669667 -0.08071296167066358 0.003620139644210048
0.6689666 -0.08139313788473643 0.003504066137969178
0.6709665 -0.08154140459019034 0.003047978039780949
0.6729664 -0.08173650707758803 0.002475905365229368
0.6749663 -0.08187122383562526 0.001952195620638364
0.6769662 -0.08209344902996261 0.0016258421291217365
0.6789661 -0.08238217468621925 0.0012205704960622163
0.680966 -0.08290190443909012 0.0008541462921127507
0.6829659 -0.08306074531281146 0.0002416247032691332
0.6849658 -0.08303392092469963 -0.00010628983579936968
0.6869657 -0.08331514470831414 -0.00045001954184340637
0.6889656 -0.0836766204590072 -0.0011459791284934434
0.6909655 -0.08407158246835975 -0.0015912967722891622
0.6929654 -0.0840434086359755 -0.0020842279365154634
0.6949653 -0.08418896224680522 -0.002490570435570369
0.6969652 -0.08421518650316741 -0.0029789275554086975
0.6989651 -0.08408379362776591 -0.0034532835096250866
0.700965 -0.08417678377999638 -0.003935822970115632
0.7029649 -0.08452861209125657 -0.004367330113885945
0.7049648 -0.08402981133323939 -0.004927690673383937
0.7069647 -0.0840816988413994 -0.005235735948065957
0.7089646 -0.08402778005189697 -0.005592538249151263
0.7109645 -0.08390457205519862 -0.0057962116571242325
0.7129644 -0.08382298609743567 -0.005795282699333479
0.7149643 -0.08371921615332589 -0.006174872256916895
0.7169642 -0.08370048351285417 -0.006391082500780257
0.7189641 -0.08411424947344572 -0.006575786682103079
0.720964 -0.08403252166619304 -0.006922139416206674
0.7229639 -0.08439871339645144 -0.007045588524901725
0.7249638 -0.0839571199019948 -0.007594176269161288
0.7269637 -0.08389037352341758 -0.0075451094484565995
0.7289636 -0.08454818487765836 -0.007510003895340442
0.7309635 -0.08443159817428414 -0.007618254695834048
0.7329634 -0.08461726268075678 -0.007975774250537249
0.7349633 -0.08501651125516198 -0.008009010237250723
0.7369632 -0.08550073600239518 -0.00844990265937448
0.7389631 -0.08567085499715717 -0.00836416230493962
0.740963 -0.08598589540884381 -0.008904272711512007
0.7429629 -0.08585480714215661 -0.008924871433898425
0.7449628 -0.08636448726541768 -0.009452360576605468
0.7469627 -0.08671246703172594 -0.009652801447963877
0.7489626 -0.08702496916911946 -0.010127003219748226
0.7509625 -0.08741931927439528 -0.010739448073709999
0.7529624 -0.08763022801208405 -0.010985845390238398
0.7549623 -0.08778836008416002 -0.011555290691463303
0.7569622 -0.08806890469527258 -0.01196870554536374
0.7589621 -0.08840409881509646 -0.012459872235125995
0.760962 -0.08852474364389842 -0.012982901706960995
0.7629619 -0.08855569746458042 -0.013688788329182463
0.7649618 -0.08854758484578265 -0.013973775071210594
0.7669617 -0.08843890671023458 -0.014371537294755297
0.7689616 -0.08856606369496581 -0.015010250245057588
0.7709615 -0.08869581766097481 -0.015532371452892633
0.7729614 -0.08861595358759225 -0.015793911543552433
0.7749613 -0.08850126575081393 -0.016376409437153402
