! Created with skrf 1.8.0 (http://scikit-rf.org).
# GHz S RI R 50.0 
!freq ReS11 ImS11
0.001 3.3370224880890387 -2.259566915790118
0.0029999 3.0460857507252577 0.20889434753743755
0.0049998 2.229617312331348 0.6146120668906256
0.0069997 1.8283795946682 0.667110480004643
0.0089996 1.6053171675304259 0.6323561656774087
0.0109995 1.4587024191560718 0.5950472490810943
0.0129994 1.3522507695886683 0.5527176535664144
0.0149993 1.290822134371935 0.5136703265968867
0.0169992 1.2451345120647743 0.47812416455338386
0.0189991 1.2112108153372123 0.4550332021573138
0.020999 1.1816437398026327 0.43362242721714606
0.0229989 1.1626375044334858 0.4136195958391771
0.0249988 1.147999679972707 0.4029214809323224
0.0269987 1.1314646391279792 0.3874991852700588
0.0289986 1.1197433377398989 0.37761351476730187
0.0309985 1.1132292588893093 0.36926979730196013
0.0329984 1.104378012004275 0.3653643356375566
0.0349983 1.0961461329721558 0.35734934645777794
0.0369982 1.0900896229283048 0.3546986006513611
0.0389981 1.0862006166708063 0.35197893665063523
0.040998 1.0791389675610095 0.3489422004693057
0.0429979 1.0763611486887805 0.34556263399385234
0.0449978 1.0700569974458067 0.3467539441852455
0.0469977 1.0688665943428082 0.3486506346628442
0.0489976 1.064553583356856 0.34664844035186027
0.0509975 1.062270799854843 0.3486899363139281
0.0529974 1.0583335208092686 0.35218105884933126
0.0549973 1.0546674784636156 0.35287058411626765
0.0569972 1.0535463465515598 0.3552062507732535
0.0589971 1.0498926864267812 0.35822545858921684
0.060997 1.047834813471415 0.36213822600100254
0.0629969 1.0441677004469905 0.3652973678671747
0.0649968 1.041284017410705 0.36683643608561084
0.0669967 1.0383598693156313 0.3700885514866278
0.0689966 1.0361374271336083 0.3750318078786946
0.0709965 1.0338190000407756 0.37889048799253505
0.0729964 1.0302617436335137 0.3824566078834254
0.0749963 1.0283103202483166 0.3872944621740605
0.0769962 1.0249416633698654 0.3927827136599368
0.0789961 1.0231747641014493 0.3962172950521513
0.080996 1.02004945696333 0.40143032800610073
0.0829959 1.0181996048720956 0.4059314492123086
0.0849958 1.0146841877317225 0.4115184092939502
0.0869957 1.012844871245208 0.41540996171921835
0.0889956 1.0084313774100195 0.420314783042113
0.0909955 1.0066879585987376 0.42591187980520506
0.0929954 1.0046828139260584 0.43001624279917844
0.0949953 1.0015094632212063 0.43664506750969695
0.0969952 0.9975819125551777 0.44218311058690973
0.0989951 0.995472832315256 0.4481124718399259
0.100995 0.9941609033127949 0.4519390955379512
0.1029949 0.990221757798754 0.4569655076297976
0.1049948 0.9862034181791457 0.4633395097275419
0.1069947 0.9837439643757011 0.46913427118639384
0.1089946 0.9794840314848682 0.4745462391010372
0.1109945 0.9767411878255111 0.47977380738329495
0.1129944 0.9741171680525316 0.48539768867075656
0.1149943 0.9711660420865705 0.49049748224395295
0.1169942 0.9671092613346619 0.4963687017923106
0.1189941 0.9651590545471782 0.5011673647491353
0.120994 0.9613993070516804 0.5069389139280224
0.1229939 0.9581524940694384 0.5126895140211883
0.1249938 0.954261600415293 0.5177620131004799
0.1269937 0.9509774051686719 0.5245235308595562
0.1289936 0.947781311471449 0.5294186020081653
0.1309935 0.9450731099160498 0.5353443530440222
0.1329934 0.9392538870409936 0.5407972437336188
0.1349933 0.936647156433028 0.5458686641957634
0.1369932 0.9328767566320475 0.5524155650494991
0.1389931 0.9300441239228462 0.5569016636977586
0.140993 0.9253580600337593 0.5632236658406943
0.1429929 0.9209093560437038 0.567918117949642
0.1449928 0.9191452816443983 0.5743385448241807
0.1469927 0.9144749991517379 0.5805856865668633
0.1489926 0.9094374230731544 0.586453109879996
0.1509925 0.9074256835657162 0.5915241228418364
0.1529924 0.9027206352795625 0.5963897350183283
0.1549923 0.8987154942368976 0.6025131344567198
0.1569922 0.8936461346320321 0.6080655506049801
0.1589921 0.8902900953808036 0.614363340258655
0.160992 0.8860135037955298 0.6187763313274962
0.1629919 0.8822709879619196 0.624329884529046
0.1649918 0.8778556536816355 0.6303373476178442
0.1669917 0.8741379498498881 0.6358981611689775
0.1689916 0.8682036239573852 0.6402525473801
0.1709915 0.865512706790772 0.6465969503310823
0.1729914 0.8613062427698899 0.6529506775898523
0.1749913 0.8566936685181524 0.6585044420685079
0.1769912 0.8515238323691311 0.6626724077479728
0.1789911 0.8471718572216002 0.668593234882009
0.180991 0.8430068628057632 0.6732637614662698
0.1829909 0.838511125248919 0.6774294969383347
0.1849908 0.8315206503717285 0.6843744631368386
0.1869907 0.8290480659641245 0.6890304397030163
0.1889906 0.8249505965256676 0.6940436239856973
0.1909905 0.819684532427806 0.6994158855337695
0.1929904 0.8143694337502033 0.7046475617921477
0.1949903 0.8103524460338567 0.7090709204002139
0.1969902 0.8047413891693068 0.7147344446946864
0.1989901 0.8001881787380287 0.7192618870756213
0.20099 0.795498752707304 0.7252675350550115
0.2029899 0.7903256600514907 0.7299672802413264
0.2049898 0.7859139450384051 0.7344367745350602
0.2069897 0.7806379144663604 0.7395280088988374
0.2089896 0.7756491923209401 0.74551134216875
0.2109895 0.7711546779159888 0.7504111249172698
0.2129894 0.7652661473014903 0.7559579357456272
0.2149893 0.7602354701261032 0.7595333484821909
0.2169892 0.7549747804522648 0.7652718876772572
0.2189891 0.7491622694794335 0.7698060631584046
0.220989 0.7449186635200801 0.7741006463191612
0.2229889 0.7393364402404278 0.7776458935111535
0.2249888 0.7342829687911954 0.7836209293937734
0.2269887 0.7286394560745603 0.7876453173485733
0.2289886 0.723127977434138 0.7922761332629537
0.2309885 0.7176771954825115 0.7970314957665914
0.2329884 0.7120960491676733 0.8019033289297947
0.2349883 0.7066757307186472 0.8060880618003498
0.2369882 0.700337679174597 0.8111432466257413
0.2389881 0.6955372978442601 0.8156764134154774
0.240988 0.6907310478017482 0.8202677598611169
0.2429879 0.6853716236262897 0.8241742040636559
0.2449878 0.6794803012903659 0.8283579712080634
0.2469877 0.6738398863321133 0.8333184150702252
0.2489876 0.6675920382719752 0.8365126528060152
0.2509875 0.661706902949242 0.8411110594658645
0.2529874 0.6562940863489324 0.8453312891362696
0.2549873 0.6505400177820206 0.8493780057796115
0.2569872 0.6444928723916898 0.8536280741847648
0.2589871 0.6389404089202715 0.8573773577557996
0.260987 0.6329679335854278 0.8612357414881708
0.2629869 0.6271845989670249 0.8654060535401935
0.2649868 0.6221178098597024 0.8684326705159896
0.2669867 0.615209900046996 0.8721238378065528
0.2689866 0.609725568090178 0.8779729803223679
0.2709865 0.6038177708426196 0.8809356531771976
0.2729864 0.5969354682281586 0.8852803486849457
0.2749863 0.5918038318458612 0.8882007203268341
0.2769862 0.5854096928136583 0.8919928581870691
0.2789861 0.5800309217492194 0.8955880952952934
0.280986 0.5734603676177218 0.8998553171648722
0.2829859 0.5672975022763811 0.9027411565984993
0.2849858 0.5611291881290607 0.9068856558483248
0.2869857 0.5553712885464595 0.910307072665489
0.2889856 0.5490239426272155 0.9137498101883574
0.2909855 0.5427900131035601 0.9172168175282466
0.2929854 0.5366671962360945 0.9206342055351443
0.2949853 0.5302951564797018 0.924594912857814
0.2969852 0.5243572600435545 0.9266641483110997
0.2989851 0.5175525017952279 0.9305501943559082
0.300985 0.5117551349728737 0.9336267276159593
0.3029849 0.5047966355607556 0.936999603087772
0.3049848 0.4993224998953715 0.9399725787039354
0.3069847 0.4934840083842049 0.9436199876624553
0.3089846 0.4862679050789156 0.9453324896269847
0.3109845 0.480561239948742 0.9492226492689353
0.3129844 0.4737665600359098 0.9522337774296917
0.3149843 0.4675651112550131 0.954786018770132
0.3169842 0.4616335606550591 0.9579561163731287
0.3189841 0.4541670511426997 0.9607778460774693
0.320984 0.44756144780666524 0.9631158451250289
0.3229839 0.4413417999658672 0.9667019272828363
0.3249838 0.4348549788859953 0.9692487504611111
0.3269837 0.4289421219547084 0.971582969479264
0.3289836 0.42223958368634407 0.9744510582483396
0.3309835 0.41552653801367356 0.9765734120060442
0.3329834 0.40894575998801874 0.9788226761871528
0.3349833 0.40237280599915237 0.9813975496557406
0.3369832 0.3957721785244471 0.9838305472878661
0.3389831 0.3898300413662893 0.9862687188009707
0.340983 0.383178791014032 0.9887675398634032
0.3429829 0.3757956707716283 0.9909881854511531
0.3449828 0.36909736579227637 0.9930616903601139
0.3469827 0.3627184472907198 0.9960453042415811
0.3489826 0.3555123383337603 0.9976649327676966
0.3509825 0.34941373723172586 0.999468263580745
0.3529824 0.3430669070727814 1.0020582126731885
0.3549823 0.3367876542617877 1.0044300450214136
0.3569822 0.3293425308429678 1.0068998942663383
0.3589821 0.32276082333577755 1.0080168581392348
0.360982 0.31532822523961923 1.0100135859198978
0.3629819 0.3092434580894797 1.0125844119008118
0.3649818 0.30280397729824815 1.0140785879911345
0.3669817 0.29570140018509067 1.0156560201787024
0.3689816 0.28874522688661713 1.017558515595009
0.3709815 0.28334392225200444 1.0187864537867657
0.3729814 0.27560670946111654 1.0203094965699504
0.3749813 0.2685143746675386 1.0221110551145265
0.3769812 0.2623334379525546 1.0235231680046744
0.3789811 0.2554118030280833 1.0255409806112363
0.380981 0.2483361319837277 1.0262046461370369
0.3829809 0.24175146334582995 1.027701584679794
0.3849808 0.2345136453756319 1.0286692008095313
0.3869807 0.22828979459025073 1.0311864395396122
0.3889806 0.22219866621784415 1.0321066822018004
0.3909805 0.21482400731480467 1.0335488562352086
0.3929804 0.207745341639174 1.0340819470740505
0.3949803 0.20149664715437823 1.0353853528851933
0.3969802 0.19408921245934102 1.0363224889038039
0.3989801 0.18724234697666198 1.0381477595662427
0.40098 0.1797840118551829 1.0385224659963452
0.4029799 0.1739447295833181 1.0395583684466643
0.4049798 0.1666778508270611 1.040706994504268
0.4069797 0.15967664298390355 1.041002325199356
0.4089796 0.15305750410053828 1.0427860060580227
0.4109795 0.14631266919972363 1.042439343058049
0.4129794 0.13912636004018303 1.0435202521661922
0.4149793 0.13223994017737414 1.0442789255053724
0.4169792 0.12606945043781229 1.0460878617901805
0.4189791 0.11927469245346477 1.0460730870276282
0.420979 0.11221655283751045 1.047167766092302
0.4229789 0.1053887250292601 1.0464807575167276
0.4249788 0.09833777119629186 1.0471751057239935
0.4269787 0.09189839639752588 1.0476389256443415
0.4289786 0.0850761625040827 1.0482054577657918
0.4309785 0.07838542361375087 1.048241427447994
0.4329784 0.07120825454346418 1.0486287010628201
0.4349783 0.06451248802334635 1.0492397732724381
0.4369782 0.05793348711027832 1.0501156937680753
0.4389781 0.050524578566968736 1.0501152652182832
0.440978 0.04354984598647414 1.0493313778807016
0.4429779 0.03730484818271998 1.0504206001497112
0.4449778 0.030014565686737132 1.0500922579696912
0.4469777 0.02375269563963156 1.0502925287439318
0.4489776 0.016848653768718885 1.0501779286026753
0.4509775 0.009642523532692224 1.049839760953
0.4529774 0.0029100940642899087 1.049650818756367
0.4549773 -0.003562069383573341 1.049545680582847
0.4569772 -0.010478028970398345 1.049610322690261
0.4589771 -0.017721948502434463 1.0498234682925236
0.460977 -0.0240364596606341 1.0492955932501926
0.4629769 -0.031003249923696498 1.048740377064817
0.4649768 -0.037426084187656916 1.048821919621719
0.4669767 -0.04434400527088821 1.0482398800778294
0.4689766 -0.051403982136489154 1.0473764842210667
0.4709765 -0.05814378680200766 1.046909550216781
0.4729764 -0.06446065841528636 1.046155031272699
0.4749763 -0.07130401700364926 1.0453033631612845
0.4769762 -0.078290850080167 1.0449053869231992
0.4789761 -0.08454777926003336 1.044122610746137
0.480976 -0.09170768952898783 1.0436570685202775
0.4829759 -0.09848923983980747 1.0432160083181075
0.4849758 -0.10534297409310459 1.042304006779138
0.4869757 -0.11157156090774531 1.041542388939087
0.4889756 -0.11835408412935089 1.040970529001361
0.4909755 -0.12511686280137319 1.0399418453964748
0.4929754 -0.13207957940617254 1.0384990718226659
0.4949753 -0.13832452553139557 1.037817139902045
0.4969752 -0.14453478018017524 1.0367119939872103
0.4989751 -0.1515389759470646 1.035493145301782
0.500975 -0.15793317771918514 1.0338369328215657
0.5029749 -0.16506303683337656 1.033697912891629
0.5049748 -0.17120392055398126 1.03270904734909
0.5069747 -0.17790665019758645 1.0309674334233112
0.5089746 -0.18432343583509575 1.030098405801637
0.5109745 -0.19045154007858067 1.0284079987440486
0.5129744 -0.19764911071810753 1.026499203504075
0.5149743 -0.20446625408584396 1.025287784286473
0.5169742 -0.21067617131309313 1.0239748258238346
0.5189741 -0.21689413569986793 1.0225538161134338
0.520974 -0.22357789960104696 1.0206395830889559
0.5229739 -0.23014124694935023 1.0197551044971027
0.5249738 -0.23654274937889805 1.0180177060190168
0.5269737 -0.24320803307107033 1.0166225796612178
0.5289736 -0.24940264884550895 1.0148011366038654
0.5309735 -0.25646050288409994 1.0128495701777107
0.5329734 -0.26228964067048705 1.0117869713100611
0.5349733 -0.2682820709143317 1.0096435475342223
0.5369732 -0.27523147287324534 1.0077902110626211
0.5389731 -0.28117293886554073 1.0056744446202042
0.540973 -0.28825028385255375 1.0038468243545078
0.5429729 -0.29415189881289544 1.0013859894022399
0.5449728 -0.3004310977514683 0.9999214985331413
0.5469727 -0.3069516063964386 0.9977518954306245
0.5489726 -0.3128662908076039 0.996076273711415
0.5509725 -0.31928556773601624 0.9941443476451258
0.5529724 -0.3259098206240075 0.9920787793177133
0.5549723 -0.33214028465225653 0.9897638312247562
0.5569722 -0.3385504543598821 0.9873312046673837
0.5589721 -0.3447990559090573 0.9850497420607461
0.560972 -0.35080528347774187 0.9832154191420066
0.5629719 -0.35666199376565405 0.9805235849143137
0.5649718 -0.36309100718008613 0.9783639252936105
0.5669717 -0.36910589321450904 0.9759337732758078
0.5689716 -0.37534334289257143 0.9740814067066205
0.5709715 -0.38150759263224626 0.9710530737962113
0.5729714 -0.3874220154553166 0.9689536808520847
0.5749713 -0.39351400772538514 0.9663795742035592
0.5769712 -0.3997197063212633 0.9639027211085205
0.5789711 -0.4053531905696358 0.9606514422710994
0.580971 -0.41125751500974367 0.9581954254688981
0.5829709 -0.4176659065044132 0.9553409308848384
0.5849708 -0.4236530649922231 0.9527956553578384
0.5869707 -0.42892843240700135 0.9500308835998114
0.5889706 -0.43547399615285515 0.9470594180805327
0.5909705 -0.44085231558400206 0.9452114809790069
0.5929704 -0.4473861022707075 0.941708850359304
0.5949703 -0.4531554262410273 0.9391065637879137
0.5969702 -0.4587178990862917 0.9359196920273504
0.5989701 -0.4651017693155264 0.9331041081258835
0.60097 -0.4702235880898454 0.9303757604595103
0.6029699 -0.47611529275113124 0.927389800811865
0.6049698 -0.48217149663859254 0.924114455197442
0.6069697 -0.4877922879420511 0.9208093903074637
0.6089696 -0.49351479886170935 0.9178925794616881
0.6109695 -0.499437886554641 0.9145429446236251
0.6129694 -0.5050573923181254 0.9116442056684497
0.6149693 -0.5103560651240107 0.907849661124747
0.6169692 -0.516189171169399 0.9045625499267846
0.6189691 -0.5215877204798997 0.9018591238127694
0.620969 -0.5270818086792941 0.898698102277185
0.6229689 -0.5330417032313537 0.8952760832397856
0.6249688 -0.5385545283529773 0.891787514285125
0.6269687 -0.544057387454735 0.8882670778428056
0.6289686 -0.5496093901661671 0.8848472920965496
0.6309685 -0.5552344810503714 0.8817816335772337
0.6329684 -0.5604198847913673 0.8779706369421104
0.6349683 -0.5659531978313627 0.874758242057741
0.6369682 -0.5714555475747631 0.8713153900658166
0.6389681 -0.5768444533596531 0.8676727012265302
0.640968 -0.5822357707045424 0.8634164276281437
0.6429679 -0.587328302241448 0.8603472644396842
0.6449678 -0.5928616956878405 0.856351070415357
0.6469677 -0.5983425247212778 0.8530528182321782
0.6489676 -0.6030992928066039 0.8487668884184332
0.6509675 -0.6088102113884416 0.8455038206124972
0.6529674 -0.6138339386603133 0.8413927855898866
0.6549673 -0.619083895226258 0.8379844497250548
0.6569672 -0.6240455913641545 0.8339204526436331
0.6589671 -0.6295914784626292 0.82979841744706
0.660967 -0.6343232510971498 0.8259568887570529
0.6629669 -0.6396977745354557 0.8221806484687033
0.6649668 -0.6443085284368519 0.8183020872227805
0.6669667 -0.6492127176263535 0.8143475402167183
0.6689666 -0.6544754257755796 0.8101144792905426
0.6709665 -0.6595384262151729 0.8059676541583914
0.6729664 -0.6642048790418462 0.8021483118998753
0.6749663 -0.6693395109118672 0.7979125555724487
0.6769662 -0.6742119978692919 0.7939490275576239
0.6789661 -0.6791548497178989 0.7893325642253523
0.680966 -0.6838402596294056 0.7854933225499102
0.6829659 -0.6886078991567426 0.7812362716300878
0.6849658 -0.693497890381396 0.7770945194906518
0.6869657 -0.6983831311727967 0.7730049043027771
0.6889656 -0.7028991181525654 0.7684569335182695
0.6909655 -0.7076040992149042 0.7643171257465541
0.6929654 -0.7123237743639798 0.7598443244307419
0.6949653 -0.7169644590007044 0.7555403355941454
0.6969652 -0.7217329272077938 0.7512837259591552
0.6989651 -0.7261600882211339 0.7469005956002999
0.700965 -0.7308572076401388 0.7423235788499035
0.7029649 -0.7354308335262358 0.7377703435701722
0.7049648 -0.7397154871605203 0.7334731044325705
0.7069647 -0.7444177780977789 0.7290800366388626
0.7089646 -0.748649830082434 0.7245210627876003
0.7109645 -0.753301858304675 0.7197362762472216
0.7129644 -0.7576667531712211 0.7152511577415263
0.7149643 -0.7621553672641582 0.7106851599949874
0.7169642 -0.7664700142833891 0.7061942552271782
0.7189641 -0.7703068795815693 0.7011053446005667
0.720964 -0.7748431691267393 0.6966694866220445
0.7229639 -0.7792608507406675 0.6918959998758425
0.7249638 -0.7832938664637088 0.6870953567311361
0.7269637 -0.7875393919261341 0.6824447012575419
0.7289636 -0.7916841920848724 0.6777015124903251
0.7309635 -0.7960732601691398 0.6728215653159011
0.7329634 -0.7998095465140351 0.6679116897158331
0.7349633 -0.8041592643822534 0.6632642287152786
0.7369632 -0.807942941915208 0.6584761069530022
0.7389631 -0.8121234614981849 0.6535724619040112
0.740963 -0.8159775174062094 0.6487547347229087
0.7429629 -0.8197173044488717 0.6436866708947389
0.7449628 -0.8234888145400858 0.6386192268735725
0.7469627 -0.827324951873035 0.633846930755085
0.7489626 -0.8313739505779847 0.6285828837013695
0.7509625 -0.8353261010577543 0.6241479633471131
0.7529624 -0.838853015404822 0.6184786295723166
0.7549623 -0.842480079659672 0.613552519204012
0.7569622 -0.8462111128278182 0.6085288081880965
0.7589621 -0.8498532479811035 0.603315371646303
0.760962 -0.8534550657182515 0.5981981066387437
0.7629619 -0.8574108371359265 0.593002707848907
0.7649618 -0.860689250471087 0.5878128754904083
0.7669617 -0.8642258092140667 0.5829729314518918
0.7689616 -0.8678959014347714 0.5776551465265103
0.7709615 -0.871490837035626 0.5722288343236427
0.7729614 -0.8749466187627921 0.5673002775503783
0.7749613 -0.8781147453919378 0.5619971429479517
0.7769612 -0.8816300651832619 0.5564086250601673
0.7789611 -0.8851834278362732 0.5515704042453738
0.780961 -0.8884001950922 0.5462136753253652
0.7829609 -0.8918984284912207 0.5409301030360878
0.7849608 -0.8949211209059708 0.5354366195700585
0.7869607 -0.8981288302577737 0.5300996896321013
0.7889606 -0.9016133369720832 0.5246331193734468
0.7909605 -0.9044676666332402 0.5193711235416799
0.7929604 -0.9074608478125191 0.513875396521338
0.7949603 -0.9107302442689621 0.5084458404610254
0.7969602 -0.9141182383489836 0.5028364842842029
0.7989601 -0.9171821010598138 0.4975558192005874
0.80096 -0.919653269316416 0.4918476124945353
0.8029599 -0.9228681489046128 0.4866141375534663
0.8049598 -0.925650242697482 0.4812083603372661
0.8069597 -0.9285123499930577 0.47544509861920803
0.8089596 -0.9315069098829258 0.4699335970782568
0.8109595 -0.9343261002637221 0.4642924512655701
0.8129594 -0.937250131165936 0.45864800939876166
0.8149593 -0.9398417162401494 0.4530761650780513
0.8169592 -0.9424210860832457 0.44774639168297115
0.8189591 -0.9454314076139697 0.44177701889839033
0.820959 -0.9480866355780813 0.43632116393773956
