! Created with skrf 1.8.0 (http://scikit-rf.org).
# GHz S RI R 50.0 
!freq ReS11 ImS11
0.001 -0.9999114617881952 0.002121124203082317
0.0029999 -1.0006365608531544 0.006106025020878536
0.0049998 -1.0022535595176545 0.009845536867052362
0.0069997 -1.004590665658837 0.013517888875589912
0.0089996 -1.0077454277230882 0.016791823272205297
0.0109995 -1.0115645551713823 0.019651322487197476
0.0129994 -1.0162071277562184 0.022190404631412364
0.0149993 -1.021303206023565 0.024097694434127015
0.0169992 -1.0267645527344322 0.025498080202023266
0.0189991 -1.0327447467617152 0.02624984969571814
0.020999 -1.0392091859559218 0.02640891590437039
0.0229989 -1.0455990548718455 0.026028047541934773
0.0249988 -1.0521303981251071 0.024835652489296978
0.0269987 -1.059354066894796 0.022836546273435288
0.0289986 -1.0662730555120667 0.02076755845596706
0.0309985 -1.073431093965851 0.01803732300792865
0.0329984 -1.080032222115009 0.014291688973216143
0.0349983 -1.087607275262529 0.01007085072415359
0.0369982 -1.0938523444483719 0.005681729981159289
0.0389981 -1.1006037481178792 0.0005482466752724791
0.040998 -1.107018961443362 -0.004736770161875625
0.0429979 -1.112809449633587 -0.010674370682498435
0.0449978 -1.1194776464098308 -0.017085887889420504
0.0469977 -1.1251339280534787 -0.02334647102810794
0.0489976 -1.1304294749392794 -0.030731539181690304
0.0509975 -1.1357244030815161 -0.03715414910508491
0.0529974 -1.1401541405129532 -0.04440696428182733
0.0549973 -1.1452791069202892 -0.05316580042047664
0.0569972 -1.1496946163625705 -0.059830814345087024
0.0589971 -1.1534230458393258 -0.06768959496750088
0.060997 -1.1576960628053456 -0.07613412699585467
0.0629969 -1.1609847820982162 -0.08445384136331446
0.0649968 -1.1642514163243567 -0.09331029442316999
0.0669967 -1.1671241171974693 -0.1021758317547043
0.0689966 -1.1703749373837493 -0.1105939269719119
0.0709965 -1.1726809012479373 -0.11890188099799162
0.0729964 -1.1751217630959938 -0.12807935278773178
0.0749963 -1.1770153227171738 -0.13691051398252035
0.0769962 -1.178598644061593 -0.1452042816662238
0.0789961 -1.1806620247120614 -0.15461705092803374
0.080996 -1.1825050768935998 -0.16267490667787693
0.0829959 -1.183137230439956 -0.1722337663356752
0.0849958 -1.184475873245446 -0.18095628579388603
0.0869957 -1.1854957702725353 -0.1904911421517909
0.0889956 -1.1854438966433278 -0.19844726241186914
0.0909955 -1.1869737840890553 -0.20746762191864832
0.0929954 -1.1876327870427208 -0.21672348560734334
0.0949953 -1.1869092751732537 -0.2247465119152914
0.0969952 -1.187980274191414 -0.23367814564143302
0.0989951 -1.1870329748000945 -0.24420823443275116
0.100995 -1.1885903263657047 -0.25180650458868903
0.1029949 -1.1872289406582113 -0.2610445865913522
0.1049948 -1.1863161613349409 -0.2692946782718073
0.1069947 -1.1853592533566315 -0.2781750800969937
0.1089946 -1.1848257411017666 -0.2860436064172098
0.1109945 -1.1837783095548997 -0.2951785866190823
0.1129944 -1.1836325056965271 -0.3039271637676883
0.1149943 -1.1816797789389772 -0.31289503930949136
0.1169942 -1.1810152381533072 -0.3208559386855294
0.1189941 -1.1788434069292912 -0.3298663816271124
0.120994 -1.1776089690700609 -0.338890939115731
0.1229939 -1.1759658816673788 -0.34637790185730444
0.1249938 -1.1742127003334788 -0.3549072558445342
0.1269937 -1.172360619739118 -0.362266267169736
0.1289936 -1.1705106419576883 -0.37184548829713304
0.1309935 -1.1692959558930134 -0.37958604641053767
0.1329934 -1.1670576730751374 -0.38635430820349914
0.1349933 -1.164336613020186 -0.395137416698068
0.1369932 -1.1621308179085603 -0.4040813984296042
0.1389931 -1.1598267415824393 -0.4118756799539679
0.140993 -1.1575985861607672 -0.41867081320094024
0.1429929 -1.1548486266596825 -0.42780752905933195
0.1449928 -1.1521885782147419 -0.4352320970189669
0.1469927 -1.1502173733434948 -0.4434189746586541
0.1489926 -1.1483248877827357 -0.45113361768926596
0.1509925 -1.1442050028782726 -0.45995667915794036
0.1529924 -1.1423878522067763 -0.4667271430921051
0.1549923 -1.1399839387526374 -0.47411564340163914
0.1569922 -1.1372048494056533 -0.48233311103397963
0.1589921 -1.1326578000987224 -0.48990652833312953
0.160992 -1.131197148925481 -0.49816505754117746
0.1629919 -1.1272769500320703 -0.5057490816624086
0.1649918 -1.1237793150983624 -0.5130329985503236
0.1669917 -1.1207833996691423 -0.520488706152031
0.1689916 -1.1173901889192035 -0.5267160696397726
0.1709915 -1.1129612098588273 -0.5348202685882726
0.1729914 -1.1098378900919346 -0.5423528471710972
0.1749913 -1.10713513810646 -0.5506641717958272
0.1769912 -1.1037403997539028 -0.5564398867810114
0.1789911 -1.1001886050717877 -0.56451109654595
0.180991 -1.095398747619032 -0.5715016187980517
0.1829909 -1.0924127155640173 -0.5794534977236727
0.1849908 -1.0877328128215848 -0.5843687166092163
0.1869907 -1.0824571790389093 -0.5919206697803638
0.1889906 -1.0802205645989718 -0.5993077974846339
0.1909905 -1.0757975527994228 -0.6061960939180189
0.1929904 -1.0721407185011451 -0.6138477421154674
0.1949903 -1.0673312788622018 -0.6199056415251639
0.1969902 -1.0638842597027154 -0.6265559196435875
0.1989901 -1.0597027640083576 -0.6323317156611449
0.20099 -1.055543446601918 -0.6393984598044746
0.2029899 -1.0503748695265662 -0.6463177456459496
0.2049898 -1.0461624947241919 -0.653147338018239
0.2069897 -1.042914138092703 -0.6591806876950228
0.2089896 -1.0391295479274385 -0.665277849105363
0.2109895 -1.034157569169163 -0.6722377403301552
0.2129894 -1.0284050461716094 -0.6792685574999254
0.2149893 -1.0250693853668371 -0.6860369255867814
0.2169892 -1.020436209965954 -0.6920426082970148
0.2189891 -1.015307985153489 -0.6988972501609423
0.220989 -1.0107088917097506 -0.7048913797298709
0.2229889 -1.0065033652517903 -0.7097064898689509
0.2249888 -1.0002547782173055 -0.7159809779307335
0.2269887 -0.9969922009451554 -0.7233457967061823
0.2289886 -0.9923150828066879 -0.7293807518186171
0.2309885 -0.9870493627602875 -0.7359354099239785
0.2329884 -0.9818230585268958 -0.7414155495751518
0.2349883 -0.9770961619076269 -0.7477772549281726
0.2369882 -0.9713127252057888 -0.7533914971545949
0.2389881 -0.9670154957749306 -0.7591400802747797
0.240988 -0.9613365309124035 -0.7649349425709274
0.2429879 -0.9560175129407242 -0.7718150494612019
0.2449878 -0.9519717108864756 -0.7771156820853247
0.2469877 -0.9463826352981034 -0.7826030049337233
0.2489876 -0.9415296925212129 -0.7891225487893098
0.2509875 -0.9365123895413564 -0.7940886168109084
0.2529874 -0.9300263335907286 -0.799066360249737
0.2549873 -0.9247163863156473 -0.8040386421133341
0.2569872 -0.920699776683097 -0.8106150721248571
0.2589871 -0.9144994421124967 -0.816325707626961
0.260987 -0.9083400587036426 -0.8216544312454083
0.2629869 -0.9035341419762704 -0.827066894852952
0.2649868 -0.8979985702156833 -0.8328287581072101
0.2669867 -0.8925775994783519 -0.8371031055961835
0.2689866 -0.8875112895212396 -0.8422493382388774
0.2709865 -0.8815309516893077 -0.8468478178662937
0.2729864 -0.8760313165761068 -0.8526148694178398
0.2749863 -0.8704321095225345 -0.8568729316174146
0.2769862 -0.8639436983424393 -0.8630387477718132
0.2789861 -0.8587519893441935 -0.8675205144760441
0.280986 -0.8538088353898803 -0.8733433322071781
0.2829859 -0.8468848144042395 -0.8775255512347606
0.2849858 -0.8418946605665877 -0.883378957191726
0.2869857 -0.8348391099615031 -0.8871756860716646
0.2889856 -0.8300156906064337 -0.892339430461112
0.2909855 -0.8243044947005711 -0.89768554581882
0.2929854 -0.8180873985111747 -0.9017771577591717
0.2949853 -0.8118669513523993 -0.9072267701780389
0.2969852 -0.8061388994807355 -0.9119171589391876
0.2989851 -0.8004802810942528 -0.9161560296239922
0.300985 -0.7951533491651922 -0.9214064050359604
0.3029849 -0.7891109737141925 -0.925477809243475
0.3049848 -0.7812965199249419 -0.9289411128098772
0.3069847 -0.7759727510604708 -0.9343904176644843
0.3089846 -0.7703782251270483 -0.938101688862511
0.3109845 -0.7643805134077416 -0.9429208947327953
0.3129844 -0.7573751534625054 -0.947710778889642
0.3149843 -0.7515266253344017 -0.951515293839433
0.3169842 -0.7449326922335926 -0.9552654259239719
0.3189841 -0.7402280010025721 -0.9610185255947722
0.320984 -0.7343179613764569 -0.9643356107287774
0.3229839 -0.7263930806092862 -0.9678220418881711
0.3249838 -0.7207894232069892 -0.971778845133708
0.3269837 -0.7135515197311104 -0.9759501757891956
0.3289836 -0.7068715707312547 -0.9795603133371057
0.3309835 -0.7009642342146666 -0.9836087809003224
0.3329834 -0.6951582636090889 -0.9878929626904476
0.3349833 -0.6893791900596444 -0.991367220662398
0.3369832 -0.6827442678981054 -0.9956666820553273
0.3389831 -0.6759640556123026 -0.9987877073125446
0.340983 -0.6695274017258952 -1.0027295666409752
0.3429829 -0.6629678409274178 -1.005807446184783
0.3449828 -0.656745414430336 -1.0101856718249504
0.3469827 -0.6501085651182925 -1.0132442551196377
0.3489826 -0.6434237148923991 -1.017200351605227
0.3509825 -0.6373067792626701 -1.020035910413228
0.3529824 -0.6299500415430684 -1.0236524339634618
0.3549823 -0.6223996459009709 -1.0262137243132243
0.3569822 -0.6159381592662978 -1.0297496898577452
0.3589821 -0.6108133539414602 -1.0335431161660111
0.360982 -0.6049694216592076 -1.0373470469775428
0.3629819 -0.59688320134521 -1.0405213302263325
0.3649818 -0.590396397470229 -1.0439781352099384
0.3669817 -0.5842016302202011 -1.0468126386421357
0.3689816 -0.5772036530579843 -1.05076746410776
0.3709815 -0.5696596395956638 -1.0532093959972881
0.3729814 -0.5633827369723081 -1.0556198602274263
0.3749813 -0.556479248408592 -1.058976237580986
0.3769812 -0.5500575062912643 -1.0627991977819113
0.3789811 -0.5428776353745739 -1.0653564153621629
0.380981 -0.5368958754807691 -1.0680068417619346
0.3829809 -0.5303493948593907 -1.0711248652958036
0.3849808 -0.5227869043693456 -1.073405337434432
0.3869807 -0.515773189929246 -1.0748334607185388
0.3889806 -0.5085799167901773 -1.0777438380140993
0.3909805 -0.501353064477096 -1.081310890870364
0.3929804 -0.49497694327726427 -1.0832261703057195
0.3949803 -0.4879592888434742 -1.0859973886610537
0.3969802 -0.48142500054565385 -1.0890162091088076
0.3989801 -0.47460173422342034 -1.089871635091768
0.40098 -0.46725561457837256 -1.0937528911001813
0.4029799 -0.461084628578205 -1.0958557946401242
0.4049798 -0.45398383964671796 -1.0982886620503696
0.4069797 -0.446686241756175 -1.1002041444905521
0.4089796 -0.4398295512326925 -1.1019472639207946
0.4109795 -0.4334463122339249 -1.1047961467932004
0.4129794 -0.4249660910054983 -1.1077271481089648
0.4149793 -0.418875460535219 -1.1093471785839137
0.4169792 -0.41139563083960656 -1.1097172619988225
0.4189791 -0.40347479688467935 -1.1124425920060985
0.420979 -0.3978002074483207 -1.1142035509652608
0.4229789 -0.3904245824309427 -1.1168239746738287
0.4249788 -0.38377380309291476 -1.118714378864916
0.4269787 -0.376504900008792 -1.1208696981305253
0.4289786 -0.36893361250150547 -1.1222540082808108
0.4309785 -0.36215958228855205 -1.1239631439450146
0.4329784 -0.3551308759981585 -1.1262537557755736
0.4349783 -0.3483215180107625 -1.1276387724022598
0.4369782 -0.3407185043677602 -1.1281414622266053
0.4389781 -0.3335593950418005 -1.1304739284357233
0.440978 -0.32610980945831214 -1.1313715972885394
0.4429779 -0.3192561776116452 -1.133480126656465
0.4449778 -0.31258126324583235 -1.1343185536552254
0.4469777 -0.30461082868772954 -1.1363959680419804
0.4489776 -0.2971082275852497 -1.1380231906061382
0.4509775 -0.2919771618389766 -1.1397954700157884
0.4529774 -0.2838186950643017 -1.1408961486741616
0.4549773 -0.27601935849120707 -1.1414368233187933
0.4569772 -0.26961317009202523 -1.142892140142246
0.4589771 -0.26331729279740723 -1.1435180600757293
0.460977 -0.2551477334403628 -1.1447592807685931
0.4629769 -0.24844933287997537 -1.1458614545850134
0.4649768 -0.24083158985727854 -1.1468900467671883
0.4669767 -0.23353702379288738 -1.1481386978687271
0.4689766 -0.22566907454103213 -1.1488673026379737
0.4709765 -0.22076961966807795 -1.150505031337555
0.4729764 -0.21173976043747217 -1.1509434261271014
0.4749763 -0.2048783516384592 -1.1519407388004592
0.4769762 -0.19773018687613986 -1.1525199758007716
0.4789761 -0.19126070081268992 -1.1536759582234797
0.480976 -0.1837311008125339 -1.1533559453654108
0.4829759 -0.17640007247494724 -1.1537062800745557
0.4849758 -0.16909124042310092 -1.1540682847087351
0.4869757 -0.16130147588940852 -1.1553564561386502
0.4889756 -0.15398052904422993 -1.1549599111275748
0.4909755 -0.1470012678631184 -1.1558848388916196
0.4929754 -0.13972942119450066 -1.1567489645117899
0.4949753 -0.1329364141602526 -1.1562458946342122
0.4969752 -0.12561967784584954 -1.1574971992570748
0.4989751 -0.11842232650350387 -1.1575501742723524
0.500975 -0.11142696597498553 -1.158125088532666
0.5029749 -0.10407560380342085 -1.1578841920716028
0.5049748 -0.09633369699493628 -1.15843094553572
0.5069747 -0.08840321083984953 -1.1591945912403514
0.5089746 -0.08178620281959928 -1.159525695920248
0.5109745 -0.0746365270679114 -1.1580881574319917
0.5129744 -0.0680708118836912 -1.1587258479118903
0.5149743 -0.060616958675199284 -1.158871600935636
0.5169742 -0.053400240734583895 -1.1579613765092507
0.5189741 -0.046670305338316266 -1.1577167518184883
0.520974 -0.0379793560110417 -1.1569835300075255
0.5229739 -0.031425153974147156 -1.1577184448262001
0.5249738 -0.025200317195789718 -1.1570937081952124
0.5269737 -0.017307721965913896 -1.1568872160118586
0.5289736 -0.010206973284299953 -1.156618728844053
0.5309735 -0.0031855367272291407 -1.1563311283025752
0.5329734 0.004532584546045382 -1.1560693810238623
0.5349733 0.011593448019813768 -1.1557851514902107
0.5369732 0.01894875239415153 -1.1549459597019727
0.5389731 0.02587500827452241 -1.1542317509431754
0.540973 0.033624590502275106 -1.1540508243239642
0.5429729 0.040112590549629276 -1.153855876402692
0.5449728 0.047416963767282896 -1.1530375524146461
0.5469727 0.05399341596984267 -1.1520688672131394
0.5489726 0.062014532662449565 -1.1505586403616415
0.5509725 0.06843860271029903 -1.1500971155823805
0.5529724 0.07592869884573786 -1.1485601637669185
0.5549723 0.08286428586461542 -1.1478023839447946
0.5569722 0.09005728820911744 -1.1473809662387
0.5589721 0.09748950939615388 -1.1469435564216837
0.560972 0.10459955323380832 -1.1457761497699377
0.5629719 0.11125996044547252 -1.1440806757987099
0.5649718 0.11806695487054611 -1.14326723545441
0.5669717 0.1259269225089125 -1.1422930894555543
0.5689716 0.13264584590749617 -1.1411860187363585
0.5709715 0.13991747754576572 -1.1394008300664513
0.5729714 0.14762080100499264 -1.1378738468929597
0.5749713 0.15441782496367792 -1.1375507838393222
0.5769712 0.16166672514949404 -1.1351608660935444
0.5789711 0.16922605728232087 -1.1342178678008161
0.580971 0.17578745049433697 -1.1331450956945035
0.5829709 0.18155371999958625 -1.1316759866943538
0.5849708 0.18902052453770543 -1.1298259134960729
0.5869707 0.1962882384106272 -1.1278871427668622
0.5889706 0.20344103764735727 -1.1265216645097917
0.5909705 0.21070926758872904 -1.1246597383444652
0.5929704 0.21694054485758646 -1.1232670714516428
0.5949703 0.22408879615909183 -1.1210934739515588
0.5969702 0.2310895209604902 -1.1201029801227258
0.5989701 0.2389678656927714 -1.1176084727900095
0.60097 0.24528475559881235 -1.1159376653114612
0.6029699 0.25267164157864636 -1.1145315428547118
0.6049698 0.2595125173953005 -1.1128665846188202
0.6069697 0.26629287253533374 -1.1107609863837489
0.6089696 0.27341131712852035 -1.108550768343509
0.6109695 0.2799530344990025 -1.1069913204565864
0.6129694 0.2867113096947026 -1.1045544717717843
0.6149693 0.29355742383680344 -1.1028067280263814
0.6169692 0.3007504829871632 -1.100407934417307
0.6189691 0.3072598926999632 -1.0977259138344
0.620969 0.3143000667521927 -1.0958470774582918
0.6229689 0.3211560098959424 -1.0932790614864347
0.6249688 0.3272456337805756 -1.0908723031822043
0.6269687 0.33457955373469106 -1.0885303909719555
0.6289686 0.34200847651479904 -1.0860573850378499
0.6309685 0.34792421328834955 -1.0830223026394268
0.6329684 0.35499285024793426 -1.0813375574036812
0.6349683 0.3621065418940504 -1.0785218445901104
0.6369682 0.36826315563256834 -1.0760397304985594
0.6389681 0.3751968952943601 -1.073495642863279
0.640968 0.38199716477818324 -1.071292085445478
0.6429679 0.38910226650606794 -1.0689246207853695
0.6449678 0.3954069443184922 -1.065180696135822
0.6469677 0.40256943364992054 -1.06223975577973
0.6489676 0.4085710177206353 -1.060257430999811
0.6509675 0.4157942222472981 -1.05667961694841
0.6529674 0.4215781433580544 -1.053832096790102
0.6549673 0.42808252901951016 -1.0503303101827302
0.6569672 0.4344559284771433 -1.0482578293186813
0.6589671 0.4416471459363206 -1.0450219600242343
0.660967 0.4480608662279952 -1.0415468636430634
0.6629669 0.4548486715375066 -1.0390418112736384
0.6649668 0.4610594476320683 -1.0354858854540285
0.6669667 0.46725007720596495 -1.0322067879331882
0.6689666 0.4737031307767316 -1.0287208387412579
0.6709665 0.4799202708543446 -1.0268602486443386
0.6729664 0.4869366768281927 -1.022785915444635
0.6749663 0.4932005816801453 -1.0206050789920516
0.6769662 0.4996217630379227 -1.0165054477332753
0.6789661 0.5065627778850839 -1.0132364155656408
0.680966 0.5118023532146215 -1.0091837012731308
0.6829659 0.5185845849053093 -1.005972875263286
0.6849658 0.525432952930018 -1.0025775575813964
0.6869657 0.5318048438160838 -0.998727376488994
0.6889656 0.5375333300825013 -0.9952219655747587
0.6909655 0.5442268023212435 -0.991736160628533
0.6929654 0.5502790819900643 -0.9879743531777666
0.6949653 0.5564167689140609 -0.9838343717712953
0.6969652 0.5624869094713587 -0.9800838457567773
0.6989651 0.568222803218014 -0.9763990887987642
0.700965 0.5746158260496701 -0.9727068331472976
0.7029649 0.5803286917017222 -0.9689841122392713
0.7049648 0.5873043260252283 -0.9648083697750649
0.7069647 0.5930057230349153 -0.9609249353261439
0.7089646 0.5989314650802158 -0.9570218203182834
0.7109645 0.6054484054410735 -0.9525318134370809
0.7129644 0.6111652957783111 -0.9486778761553278
0.7149643 0.6175721543513253 -0.9448500161077781
0.7169642 0.6228280747254312 -0.9405412268843159
0.7189641 0.6287665530752042 -0.9361867099485269
0.720964 0.6348813802439076 -0.9319237144208958
0.7229639 0.6408077197959158 -0.9281181393686319
0.7249638 0.6467989109141462 -0.9243473535265921
0.7269637 0.6530773805591589 -0.9195206797862724
0.7289636 0.6584798397797933 -0.9153739183523051
0.7309635 0.6642829628912652 -0.9105547496150669
0.7329634 0.6701676058002579 -0.9062656867458814
0.7349633 0.675453146855817 -0.901704944525237
0.7369632 0.6813895731532345 -0.8971091833484236
0.7389631 0.6869547554662168 -0.892546421061652
0.740963 0.6926158251524994 -0.8878884953024818
0.7429629 0.6982367086828662 -0.8831268679045483
0.7449628 0.7039614927732399 -0.879198240672739
0.7469627 0.7090397128575175 -0.8742156813497285
0.7489626 0.7146218237526845 -0.8694551048845327
0.7509625 0.7204745905777259 -0.8653724336968904
0.7529624 0.7255249906608892 -0.8598193347759187
0.7549623 0.7311071745462807 -0.8550099208279358
0.7569622 0.7362727166856999 -0.8503224718707265
0.7589621 0.7421316851036859 -0.8457253908987029
0.760962 0.7482272465532881 -0.8405531416711114
0.7629619 0.7533333647012785 -0.8359475312815853
0.7649618 0.7587882656399384 -0.8307611547945807
0.7669617 0.7636506644100641 -0.8260517749736769
0.7689616 0.7693692275025499 -0.820688221936264
0.7709615 0.7742804003447715 -0.8157430597667997
0.7729614 0.7794072597113173 -0.8106689095563978
0.7749613 0.7845972025756897 -0.8048965761140137
0.7769612 0.7898096497769761 -0.8000100156071819
0.7789611 0.7949890467383965 -0.7943754866790117
0.780961 0.799726865789312 -0.7894222235433296
0.7829609 0.8044656158936229 -0.783650106331159
0.7849608 0.8099716697991126 -0.7787291377299478
0.7869607 0.8147041727271132 -0.7729434819396362
0.7889606 0.8194841121595497 -0.7671114056098397
0.7909605 0.8238056825985903 -0.7615841118801809
0.7929604 0.829211125884207 -0.7559951370125981
0.7949603 0.8343490751276691 -0.7513238669532806
0.7969602 0.8388613946621948 -0.7455215716280853
0.7989601 0.8433846468445517 -0.7397998123536648
