! Created with skrf 1.8.0 (http://scikit-rf.org).
# GHz S RI R 50.0 
!freq ReS11 ImS11
0.001 -0.9964965100798198 0.02286782815414301
0.0029999 -0.983871153121903 0.06636686755287308
0.0049998 -0.9636552270684448 0.10603449347985755
0.0069997 -0.9356398896826255 0.14318000065631442
0.0089996 -0.9003620769684731 0.17623932382907082
0.0109995 -0.8607874323416539 0.20567166261689201
0.0129994 -0.8174817925168675 0.23168873455663502
0.0149993 -0.7740672206126724 0.25189828948739523
0.0169992 -0.7297154850688066 0.2675053389185334
0.0189991 -0.687061991656881 0.2791629526334566
0.020999 -0.6420989662561389 0.29108871598842034
0.0229989 -0.6024834885536996 0.29680786861599684
0.0249988 -0.5660196176313197 0.3008347464218444
0.0269987 -0.5258171942340806 0.303147438892478
0.0289986 -0.49230322632440365 0.30435848880654687
0.0309985 -0.4606259253740769 0.302188937401055
0.0329984 -0.4313736790437417 0.300795271642801
0.0349983 -0.40069759549092027 0.2991311042720763
0.0369982 -0.37760414520147845 0.2954074831563889
0.0389981 -0.35335014862968855 0.2912230619796711
0.040998 -0.33024113552582157 0.2849238258968598
0.0429979 -0.31143492312650345 0.2815663554836978
0.0449978 -0.29193690633534525 0.2786141890061926
0.0469977 -0.27488223356085106 0.27100202111452776
0.0489976 -0.2601423107695813 0.26826020571260717
0.0509975 -0.24600570050461634 0.26163601657811036
0.0529974 -0.23364948738177882 0.2558930345243162
0.0549973 -0.2188456047803054 0.2513232168474213
0.0569972 -0.21014262756260127 0.2467247290772019
0.0589971 -0.19938640363883658 0.24134538101600525
0.060997 -0.18973010671474358 0.23614433151484504
0.0629969 -0.18088830618946458 0.23119338323051394
0.0649968 -0.17054291494098123 0.22670373767977478
0.0669967 -0.16217221905809434 0.22385490510905176
0.0689966 -0.1550771281644949 0.21788271278332438
0.0709965 -0.14927181749153762 0.21479293412592473
0.0729964 -0.14235439972671182 0.21082876162862063
0.0749963 -0.13643468825120605 0.20627734899374847
0.0769962 -0.13108831617992 0.20149251171953986
0.0789961 -0.12635648975399943 0.1986492226224757
0.080996 -0.12114015117849937 0.194944620218182
0.0829959 -0.11667468175940332 0.1921558121473092
0.0849958 -0.1126655522482887 0.18790232197932197
0.0869957 -0.10794510290203475 0.1856802795842098
0.0889956 -0.10552572455763053 0.18145690186334082
0.0909955 -0.10123513961049846 0.17728485184557394
0.0929954 -0.09727823516401243 0.17614739631395812
0.0949953 -0.09744001892786061 0.1730330920157078
0.0969952 -0.09148425030915194 0.1701888675999482
0.0989951 -0.0893256797403896 0.16815302955395142
0.100995 -0.08758168184640057 0.16475544837962797
0.1029949 -0.08442623064319224 0.16137834685474403
0.1049948 -0.0824672911412953 0.15903133356504667
0.1069947 -0.080229995340898 0.15653251551927172
0.1089946 -0.07784834984807554 0.153921184529683
0.1109945 -0.07591199462259006 0.1524836622146202
0.1129944 -0.07487229537949688 0.1495794032512964
0.1149943 -0.07240039833106138 0.14774529376062423
0.1169942 -0.07117572926323683 0.14487845442988329
0.1189941 -0.06859693639144687 0.14355786841037413
0.120994 -0.06721008292323008 0.14177536665045354
0.1229939 -0.06590003086616476 0.1390020183601965
0.1249938 -0.0640226338340315 0.13758833124544034
0.1269937 -0.06314608993434519 0.13545850061979384
0.1289936 -0.06087988889625261 0.13342833724674716
0.1309935 -0.05964630111885012 0.1318414223228232
0.1329934 -0.0588918356881286 0.12929951266335285
0.1349933 -0.05774771275879832 0.12761323186672854
0.1369932 -0.05702582255655324 0.12731167446745814
0.1389931 -0.0550463009192004 0.12505668019006938
0.140993 -0.055209785117615894 0.1229153770562011
0.1429929 -0.05311943249810863 0.1221047321338195
0.1449928 -0.0525389014761901 0.12146208450989202
0.1469927 -0.05156806015445739 0.11902492297337412
0.1489926 -0.0515448972556158 0.11737694639280603
0.1509925 -0.05028951476078555 0.11771473793708276
0.1529924 -0.04860190144960795 0.11542306260687686
0.1549923 -0.04982911377239757 0.11507750822924344
0.1569922 -0.04771336281259227 0.11207011844705472
0.1589921 -0.048242053477777436 0.11362102012768759
0.160992 -0.04693148455738594 0.11073236842738444
0.1629919 -0.045865990998502096 0.10964118168265195
0.1649918 -0.046218449536957695 0.10849773086836537
0.1669917 -0.044961877853371336 0.10802423670579875
0.1689916 -0.04525762733992487 0.10635686471182121
0.1709915 -0.04481705440878283 0.10530009010749804
0.1729914 -0.044956168213766814 0.10483090280759465
0.1749913 -0.044540690560879455 0.10371398207613189
0.1769912 -0.04411912574844666 0.10265351162074828
0.1789911 -0.04372890754697413 0.10098460124726688
0.180991 -0.04329183406797067 0.10078174316912378
0.1829909 -0.042001203473369705 0.09910250948924462
0.1849908 -0.04292167183233237 0.09810399422050517
0.1869907 -0.0415691499559664 0.09678340625543631
0.1889906 -0.04213309780522374 0.09570110512379235
0.1909905 -0.042153336077438944 0.0948869762980227
0.1929904 -0.04145142612117182 0.09343018718662995
0.1949903 -0.041039508996842756 0.09288059260456208
0.1969902 -0.04101907219564777 0.0916388309781238
0.1989901 -0.04067658683261872 0.09099832530986504
0.20099 -0.04004852164732668 0.08973888217903457
0.2029899 -0.04070282662178775 0.08953261791064927
0.2049898 -0.039649916453254636 0.08859451563230329
0.2069897 -0.0392874425852945 0.08732966444840604
0.2089896 -0.03924946324130738 0.08719334417994754
0.2109895 -0.03908524984079818 0.08597527107379448
0.2129894 -0.039467990127954114 0.08531625667679561
0.2149893 -0.03864338568636375 0.08398846297396806
0.2169892 -0.038010807164285884 0.0839254156560399
0.2189891 -0.0381111921040986 0.08347285412809528
0.220989 -0.037502419788554155 0.08294578757168006
0.2229889 -0.037389413590674776 0.08148218997265308
0.2249888 -0.03798568237277929 0.08197568321000405
0.2269887 -0.03790596382129808 0.08100734448131489
0.2289886 -0.03768628781295673 0.0802162654463755
0.2309885 -0.03773315277111782 0.07982821269586614
0.2329884 -0.03787415570467022 0.0796923391440522
0.2349883 -0.037756740565063326 0.07927718520878535
0.2369882 -0.0379733591637807 0.07837923992895394
0.2389881 -0.037694359867538434 0.07780158614651703
0.240988 -0.037568389350390044 0.07768015589190609
0.2429879 -0.03866263130323889 0.07714956325092207
0.2449878 -0.03777795557491655 0.07636959301234966
0.2469877 -0.03830147826682092 0.0758275794979349
0.2489876 -0.03799405363621627 0.0752893883087915
0.2509875 -0.03825945467405288 0.07445103068837873
0.2529874 -0.038605105938297093 0.0736858837640586
0.2549873 -0.038692150819495744 0.07322516256368515
0.2569872 -0.03863599747790232 0.07292903977901999
0.2589871 -0.03858807596513281 0.0725666340863636
0.260987 -0.03867695843442184 0.07135672951221438
0.2629869 -0.0388023393479799 0.07103979766391769
0.2649868 -0.03835187412314458 0.07027030435521754
0.2669867 -0.03878154682619866 0.06953447405491286
0.2689866 -0.038556081025942025 0.06914884846374766
0.2709865 -0.038823213475873544 0.06874129495077513
0.2729864 -0.03896824122593107 0.06832324360304756
0.2749863 -0.03945356702932678 0.06754724769085187
0.2769862 -0.038917872819608214 0.06713313964632467
0.2789861 -0.03903427170206179 0.06646753003121829
0.280986 -0.038819393407471536 0.06626435278390302
0.2829859 -0.03900882663726117 0.065452041015775
0.2849858 -0.03930055755689472 0.06535710152509659
0.2869857 -0.03935124037051164 0.0651211074466711
0.2889856 -0.03941675427722251 0.06407694356451402
0.2909855 -0.03929040202471909 0.06376896439424727
0.2929854 -0.0393343568610688 0.06382745726540308
0.2949853 -0.03941022237118849 0.06379266862715359
0.2969852 -0.03962666825975534 0.06275537282061561
0.2989851 -0.039711932773386686 0.06282011340821253
0.300985 -0.03994619757558799 0.06195923433600647
0.3029849 -0.04013158680945329 0.06197247374138104
0.3049848 -0.04042465982454895 0.061610837415670486
0.3069847 -0.040267977590308604 0.0612768483741658
0.3089846 -0.04058208505491431 0.06100862863240942
0.3109845 -0.04086558672461521 0.06039216330612214
0.3129844 -0.040927596816718204 0.06027256549240001
0.3149843 -0.04127841487640976 0.06017610372518152
0.3169842 -0.04139683227993642 0.06011360706069023
0.3189841 -0.04212064746572728 0.05857726891321836
0.320984 -0.04205091372328889 0.05858887992340543
0.3229839 -0.042821671002545275 0.058500423137643705
0.3249838 -0.04231435125881179 0.05784019632513667
0.3269837 -0.042640090131241544 0.057367652762312295
0.3289836 -0.042642843715540515 0.05734000326184447
0.3309835 -0.04265619817068505 0.05676611735379786
0.3329834 -0.043509315718073774 0.055852429900428394
0.3349833 -0.04317157817369473 0.05537638056349625
0.3369832 -0.04393381339644032 0.05530130603993164
0.3389831 -0.04356484695557908 0.05506613044539698
0.340983 -0.04403706518775452 0.05442258458834235
0.3429829 -0.04392206728594866 0.054052228849478065
0.3449828 -0.044471537393490745 0.05371510866061901
0.3469827 -0.04439649777742845 0.05298659377996774
0.3489826 -0.04468857868569953 0.05253503961102498
0.3509825 -0.04447143098330397 0.05248852297042305
0.3529824 -0.044649775472171145 0.05200732151385655
0.3549823 -0.0449673314744199 0.051815894248152125
0.3569822 -0.04519655493995789 0.05145941508526618
0.3589821 -0.045627085750698376 0.05095322241723724
0.360982 -0.04571602927541757 0.050805096950344464
0.3629819 -0.045720631344297435 0.05053404001483137
0.3649818 -0.04587931549627949 0.05004135755765582
0.3669817 -0.04584236185675935 0.049717183449444924
0.3689816 -0.04620856698204133 0.04948703834782342
0.3709815 -0.04625004685822364 0.04915783392935633
0.3729814 -0.04635380339180988 0.04883138872724431
0.3749813 -0.04693138029335636 0.0489481322235736
0.3769812 -0.04675528234008485 0.048672998744639685
0.3789811 -0.047032041411577616 0.04819282037377453
0.380981 -0.04745163523876299 0.04759970244328881
0.3829809 -0.0477365614947596 0.0476516490038779
0.3849808 -0.04792753402555994 0.04697020847530342
0.3869807 -0.04830674205638179 0.047104383492390496
0.3889806 -0.04823555641889598 0.047104896792454096
0.3909805 -0.04890969974296491 0.04691266827667144
0.3929804 -0.04884051934713572 0.046216755830752104
0.3949803 -0.04948454238918612 0.04628751753294116
0.3969802 -0.049821902970147026 0.045734340765782415
0.3989801 -0.050064137625368876 0.04541291680380951
0.40098 -0.05011452539729465 0.04482105491945764
0.4029799 -0.05081448743840375 0.0443774138850887
0.4049798 -0.05074638176804401 0.0442827161559278
0.4069797 -0.05127236246063948 0.04385424898514283
0.4089796 -0.05143104331525451 0.043771511608187964
0.4109795 -0.05167730131238471 0.042789059135594866
0.4129794 -0.051809977858141634 0.0425448453497148
0.4149793 -0.052047115663367886 0.042137082253577096
0.4169792 -0.052247937823886696 0.042280546898250185
0.4189791 -0.052417488166110825 0.04205711599478543
0.420979 -0.052656345812217537 0.04150886256736797
0.4229789 -0.053443801996162804 0.040970478562094466
0.4249788 -0.053245083483402546 0.04051031859791869
0.4269787 -0.05354468661064578 0.040386913060601576
0.4289786 -0.05356163287562376 0.03970410534165679
0.4309785 -0.05383294177709479 0.039870615756057604
0.4329784 -0.054298509373667786 0.03939888420370811
0.4349783 -0.05436270749387953 0.039136205770699935
0.4369782 -0.05464531497001867 0.03878475221037317
0.4389781 -0.05486079534150783 0.038667501141421604
0.440978 -0.054886962238602316 0.03836415706585229
0.4429779 -0.055254166128459375 0.03810437548377976
0.4449778 -0.05554660188951056 0.037948045120772565
0.4469777 -0.05553855999343185 0.037552820266201846
0.4489776 -0.055840335845079914 0.037546773769941595
0.4509775 -0.05649359820602078 0.03661959041964841
0.4529774 -0.05639300000160528 0.03632210822522305
0.4549773 -0.05615315295042052 0.03645687967320612
0.4569772 -0.056987574074799166 0.036173799699769735
0.4589771 -0.057407481279387114 0.035772434192523045
0.460977 -0.05729898916498158 0.03569351029796882
0.4629769 -0.05790570443647225 0.035168283072686816
0.4649768 -0.05833183991819786 0.0348080418313687
0.4669767 -0.05822176016154177 0.034364703200527674
0.4689766 -0.05882532823500842 0.033938836812652
0.4709765 -0.0589088536353673 0.03357443674000979
0.4729764 -0.058987098728786866 0.033336773970256584
0.4749763 -0.05928946970685997 0.03311026488244472
0.4769762 -0.059427652618276844 0.03254515857450297
0.4789761 -0.06007711178646307 0.032067938661885356
0.480976 -0.06011933938073245 0.03186787375243322
0.4829759 -0.060275282937652476 0.03198095469797216
0.4849758 -0.06052762657636221 0.03174060986089636
0.4869757 -0.06074422196213159 0.031071509478811037
0.4889756 -0.06079259692065231 0.031142707384593057
0.4909755 -0.06125725524943838 0.030510933713640446
0.4929754 -0.06152114432840369 0.030453532473662843
0.4949753 -0.06153612400587833 0.030217124572712556
0.4969752 -0.06178592917987917 0.029756191194856924
0.4989751 -0.06179786361952709 0.029244322887769795
0.500975 -0.06190517079606139 0.02921833517353246
0.5029749 -0.062344822796773156 0.02905434031096727
0.5049748 -0.062349138625458836 0.029125163882019738
0.5069747 -0.06265607786819927 0.0285015230054899
0.5089746 -0.06319045792583654 0.028278833767989345
0.5109745 -0.06328168826709928 0.028192969087892032
0.5129744 -0.06393847739014266 0.027640408983757334
0.5149743 -0.06423570592209231 0.02727787208887951
0.5169742 -0.06434651319550858 0.027384197493778458
0.5189741 -0.06483737178838374 0.027069213878614606
0.520974 -0.06514207956642118 0.026935417195324274
0.5229739 -0.06540017431212874 0.02664542040923027
0.5249738 -0.06573758720410508 0.026226783945264388
0.5269737 -0.06589963194092385 0.026213965356065762
0.5289736 -0.06652644406765605 0.025795019959379713
0.5309735 -0.0669653881709733 0.02515572510363798
0.5329734 -0.06702221702541983 0.025139598470921416
0.5349733 -0.06753163624263801 0.02464078463082338
0.5369732 -0.06782343267348714 0.024382153189695412
0.5389731 -0.06811097183850742 0.024007394291524417
0.540973 -0.06828350903950516 0.023383723496167214
0.5429729 -0.06865684803954342 0.022912990677516436
0.5449728 -0.06855730256158284 0.022622293344618044
0.5469727 -0.06911480154590596 0.022146826998934884
0.5489726 -0.06895837597846546 0.022075225197009187
0.5509725 -0.06947882925450351 0.021600683848981617
0.5529724 -0.06968866695700712 0.021311174896145715
0.5549723 -0.06982067960835724 0.02088327440970913
0.5569722 -0.07025852723417607 0.020467117082936626
0.5589721 -0.0703720707808933 0.02013258836224131
0.560972 -0.0702664262251784 0.0195508121101308
0.5629719 -0.0702944052156735 0.01933874516435464
0.5649718 -0.07035436679943448 0.019025256319510343
0.5669717 -0.07067321444582365 0.018876635505823615
0.5689716 -0.07077718746017578 0.018409002547768664
0.5709715 -0.07097500258054154 0.018300511876399275
0.5729714 -0.07096237230463004 0.01809206998511699
0.5749713 -0.07101791233795923 0.01789793656982917
0.5769712 -0.07091345659879336 0.017530206787396124
0.5789711 -0.07177838155510974 0.017239382395456748
0.580971 -0.07180083494100858 0.017131023629569753
0.5829709 -0.07212891288393494 0.01721575973869467
0.5849708 -0.07203212231242398 0.016986609433956006
0.5869707 -0.07280788776432051 0.016696292851682986
0.5889706 -0.07272702909839035 0.016355834581071423
0.5909705 -0.07327745687343251 0.016041213494212166
0.5929704 -0.07360753672748388 0.01579250402049624
0.5949703 -0.07405929054126974 0.015722221756059702
0.5969702 -0.07417988383594148 0.015044737139259468
0.5989701 -0.07443360812421192 0.01476127881333195
0.60097 -0.07494101519664692 0.014495636856670446
0.6029699 -0.07494276678090565 0.014045231410932436
0.6049698 -0.0753415009804371 0.013693111125021109
0.6069697 -0.07584508303918994 0.013130833684187253
0.6089696 -0.07611066966066318 0.013074825473718344
0.6109695 -0.07626652977615153 0.012567825192906695
0.6129694 -0.07654253366142112 0.012277957130187221
0.6149693 -0.07678432011432682 0.011897895518487866
0.6169692 -0.07721097423500926 0.01120878329293512
0.6189691 -0.07684484710009434 0.010909148158375744
0.620969 -0.0773000029949163 0.010696412512370346
0.6229689 -0.07757290024907777 0.010271333201492608
0.6249688 -0.07768177596240614 0.009923441804597005
0.6269687 -0.07788203553336348 0.00923757416015714
0.6289686 -0.07792419649990229 0.009127725058825451
0.6309685 -0.07828349318770955 0.00871402107174193
0.6329684 -0.0781987414549295 0.008286455778177673
0.6349683 -0.07807204541830513 0.007966565357491968
0.6369682 -0.07814864910759828 0.007700717265822138
0.6389681 -0.07792947981376516 0.007715854434426898
0.640968 -0.0783960091359465 0.007272921305395485
0.6429679 -0.078389637019593 0.006970830410373309
0.6449678 -0.07846590171022666 0.007120362208369847
0.6469677 -0.07866808933181729 0.006946920932642875
0.6489676 -0.07916389485869943 0.00659560161810924
0.6509675 -0.07901162906563572 0.006544158677807062
0.6529674 -0.07948638138753873 0.006361494676701086
0.6549673 -0.07956007480723878 0.006211244422203548
0.6569672 -0.07974368546254287 0.0057681844536149746
0.6589671 -0.08023905335872851 0.005375396018543217
0.660967 -0.0807406312689404 0.005216091975924243
0.6629669 -0.08072574504835349 0.00492146215838004
0.6649668 -0.08145924213611197 0.004874781164403437
0.6669667 -0.0815340263580368 0.004549161874964305
0.6689666 -0.08221300134828306 0.004431861288327503
0.6709665 -0.08235998993548391 0.003974749518903607
0.6729664 -0.08255336751168191 0.0034015388018804674
0.6749663 -0.08268662984093321 0.0028766971247197806
0.6769662 -0.08290764267406356 0.0025492539705662606
0.6789661 -0.0831948728839158 0.0021429543304762877
0.680966 -0.08371340394206848 0.001775490849092863
0.6829659 -0.0838708040951155 0.001161960666492108
0.6849658 -0.0838427132167772 0.0008130053290197059
0.6869657 -0.08412258127951383 0.00046800781005667397
0.6889656 -0.08448260873645763 -0.00022895742323612855
0.6909655 -0.08487625137434504 -0.0006752354955422493
0.6929654 -0.08484686310164669 -0.001169089301721507
0.6949653 -0.08499104101991943 -0.0015765691343649774
0.6969652 -0.08501583104841846 -0.00206579280332813
0.6989651 -0.08488325649876952 -0.0025410007268344
0.700965 -0.08497491590922232 -0.0030245732458267227
0.7029649 -0.0853254240137088 -0.0034569769293636837
0.7049648 -0.08482518070216191 -0.004018318402264132
0.7069647 -0.08487598750235359 -0.004327263262444002
0.7089646 -0.08482076896895781 -0.004684957931586263
0.7109645 -0.084696303259573 -0.004889534424174384
0.7129644 -0.08461353107742273 -0.004889452927949428
0.7149643 -0.08450855915929921 -0.005269941750248565
0.7169642 -0.08448856514111273 -0.0054870416748842715
0.7189641 -0.08490127919213611 -0.0056727863211473994
0.720964 -0.08481828108280087 -0.006020030859320985
0.7229639 -0.08518328675868546 -0.006144430849797138
0.7249638 -0.08474031002286436 -0.006693742574619303
0.7269637 -0.08467246821260034 -0.006645645597434375
0.7289636 -0.08532938228148296 -0.006611476899036579
0.7309635 -0.0852116017952014 -0.006720564885944323
0.7329634 -0.08539612704926233 -0.007079058635303653
0.7349633 -0.08579413895121848 -0.007113215254730763
0.7369632 -0.08627708342417975 -0.007555202994573167
0.7389631 -0.08644610058541577 -0.007470160184253387
0.740963 -0.0867599298528488 -0.00801130291828403
0.7429629 -0.08662779464722395 -0.008032756275907639
0.7449628 -0.08713629390968046 -0.008561201810115993
0.7469627 -0.08748309216600184 -0.008762571291204696
0.7489626 -0.08779440920304776 -0.00923765874952695
0.7509625 -0.0881873246090567 -0.009850879221219563
0.7529624 -0.08839727347008555 -0.01009826477837205
0.7549623 -0.08855427793755348 -0.010668469677701516
0.7569622 -0.0888335900082961 -0.011082853669026695
0.7589621 -0.08916746556563135 -0.011574840524613692
0.760962 -0.08928695816897235 -0.012098719423809128
0.7629619 -0.08931680359660583 -0.012805335277161569
0.7649618 -0.08930748193333793 -0.01309128007415496
0.7669617 -0.08919758336015586 -0.013489709690919994
0.7689616 -0.08932363257231488 -0.014129163477427317
0.7709615 -0.08945236113252303 -0.014652089180015978
0.7729614 -0.08937114556886216 -0.014914379599034487
0.7749613 -0.08925538931296784 -0.015497740158861434
