! Created with skrf 1.8.0 (http://scikit-rf.org).
# GHz S RI R 50.0 
!freq ReS11 ImS11
0.001 -1.0009155263440703 -0.05775602158818338
0.0029999 -0.9771783348756324 -0.16611504397010385
0.0049998 -0.9299959097993611 -0.25741001944662406
0.0069997 -0.8625720827173042 -0.33394775733369136
0.0089996 -0.7913693931015489 -0.38919286854917107
0.0109995 -0.7170043971890081 -0.43051365594972013
0.0129994 -0.6409776224559631 -0.4508382901805581
0.0149993 -0.5714467625414639 -0.4615237036877421
0.0169992 -0.5116802668970628 -0.4639413494856613
0.0189991 -0.46167316733345415 -0.459447043811373
0.020999 -0.41276026995632176 -0.45198217973699095
0.0229989 -0.3722025520386501 -0.4414081964934194
0.0249988 -0.3406474545242509 -0.4304863042047666
0.0269987 -0.30800146236006154 -0.411380749096016
0.0289986 -0.2815618809066312 -0.3998495679366147
0.0309985 -0.256121004594076 -0.3863055562409921
0.0329984 -0.23867257998382474 -0.3741970692112598
0.0349983 -0.21636098994475972 -0.3574796265144634
0.0369982 -0.203266981084571 -0.3452559635462457
0.0389981 -0.1879286977359543 -0.3313444779021207
0.040998 -0.1770481067881004 -0.3189369740112961
0.0429979 -0.16541110095478728 -0.30790127054542804
0.0449978 -0.1548464826850719 -0.29722209027581237
0.0469977 -0.1465971858630883 -0.28685207353231656
0.0489976 -0.13816456028735444 -0.277676225172009
0.0509975 -0.13203998810517198 -0.2697137569685486
0.0529974 -0.127396544702074 -0.2583650294930128
0.0549973 -0.11993649390186514 -0.24898750604851824
0.0569972 -0.11454872825224388 -0.24461723534988805
0.0589971 -0.11084662936629436 -0.23693079431178105
0.060997 -0.10511233869160448 -0.2302582271228434
0.0629969 -0.10176705682298728 -0.22271719855996236
0.0649968 -0.09774980763696785 -0.21588640576239965
0.0669967 -0.09385267675639496 -0.20908537399160473
0.0689966 -0.09085293382158978 -0.20334125135971745
0.0709965 -0.08950625582386168 -0.197965992146627
0.0729964 -0.08558840055509749 -0.19232243778914934
0.0749963 -0.08282047623068114 -0.18755413301790408
0.0769962 -0.08280491256410974 -0.18246216569582652
0.0789961 -0.0791502728669299 -0.1775910387205078
0.080996 -0.07765426262634532 -0.17361468474226358
0.0829959 -0.07625275643502757 -0.1682716019927348
0.0849958 -0.07495701618685015 -0.16489573463606247
0.0869957 -0.07228134552192206 -0.1597111840599249
0.0889956 -0.07190009992735266 -0.15691711399207678
0.0909955 -0.0699041270002333 -0.15323933700008027
0.0929954 -0.0686463600623323 -0.14956161450481267
0.0949953 -0.0687657433830053 -0.14525954687482986
0.0969952 -0.06767162666847944 -0.14238121929887051
0.0989951 -0.06571283404576302 -0.1385231970161569
0.100995 -0.0642988990540904 -0.13700368962506987
0.1029949 -0.06338746265502491 -0.1326723830842271
0.1049948 -0.06340136894849979 -0.130315308673062
0.1069947 -0.06268925249063101 -0.1269095015907345
0.1089946 -0.062368168602266724 -0.12441446889153658
0.1109945 -0.061083247562482866 -0.12215291787834164
0.1129944 -0.06076553472771647 -0.12059496058945217
0.1149943 -0.06026072289892554 -0.1165293749592315
0.1169942 -0.059873713372618376 -0.11510285877336258
0.1189941 -0.05888174806205239 -0.11266619840436552
0.120994 -0.05752812177945836 -0.11064681187367037
0.1229939 -0.05776442066305889 -0.10774724112389615
0.1249938 -0.05732574861937194 -0.10554234405908504
0.1269937 -0.057228001458285646 -0.10369574628308975
0.1289936 -0.055665987529236766 -0.10202536242488347
0.1309935 -0.055320299803534784 -0.09973059877201217
0.1329934 -0.05677269951465201 -0.09807596655077902
0.1349933 -0.054988104959907955 -0.09666970410443557
0.1369932 -0.0551724504383236 -0.09449560447434956
0.1389931 -0.053677023776621945 -0.09213461161137096
0.140993 -0.05404963761963885 -0.09121401706142007
0.1429929 -0.05400481058877793 -0.08948043907119603
0.1449928 -0.053628955054281814 -0.08704051031697271
0.1469927 -0.05266645951348464 -0.08576726519342795
0.1489926 -0.05354377811181896 -0.08407773517336187
0.1509925 -0.05234662383460451 -0.08207981177386962
0.1529924 -0.052738978520968705 -0.08028449694311292
0.1549923 -0.05224943618851738 -0.07931588791114781
0.1569922 -0.052480375734324486 -0.07806251908140477
0.1589921 -0.05249078603770263 -0.07595025961425678
0.160992 -0.05178146118968702 -0.07459126699958635
0.1629919 -0.0515556710391407 -0.0730831158449468
0.1649918 -0.05194277554412111 -0.0715448840991423
0.1669917 -0.05185935932237022 -0.070462265581203
0.1689916 -0.05242983715770819 -0.0690896702257365
0.1709915 -0.05155440150328053 -0.06768698245350367
0.1729914 -0.05199907552747901 -0.06634435575851473
0.1749913 -0.05156327446082327 -0.06552983682702541
0.1769912 -0.05200523764030342 -0.06355418096873365
0.1789911 -0.051704604700346615 -0.06325598140102724
0.180991 -0.051935571242838346 -0.06193679559662983
0.1829909 -0.05161951607850897 -0.06079510634937911
0.1849908 -0.05278054140541559 -0.05961079236774315
0.1869907 -0.05232712842885617 -0.05835707933909535
0.1889906 -0.052561535962971764 -0.05791958012662063
0.1909905 -0.052488743673839676 -0.0566851291475181
0.1929904 -0.05187281852831105 -0.05648063731130716
0.1949903 -0.05150165897330848 -0.05522032410639939
0.1969902 -0.05225088370002057 -0.05443539305547808
0.1989901 -0.052101536122757405 -0.05338054616260387
0.20099 -0.052380771996358114 -0.052413010655240996
0.2029899 -0.052096485396514305 -0.05179433844831342
0.2049898 -0.05179103441505067 -0.04996350382044955
0.2069897 -0.05231927760881693 -0.05022301151686485
0.2089896 -0.052214874756919334 -0.049392429604231944
0.2109895 -0.05208907210007556 -0.04848296611275478
0.2129894 -0.05181000040406876 -0.046997884726959566
0.2149893 -0.05159321643647423 -0.04674465052552121
0.2169892 -0.05223399635356063 -0.04583711774374166
0.2189891 -0.051405117842741044 -0.04475910730118311
0.220989 -0.051684503188226684 -0.04335319203473667
0.2229889 -0.0521450795373621 -0.04296816167440592
0.2249888 -0.052062175346567936 -0.04147179416224668
0.2269887 -0.05187510122825975 -0.040621279186927886
0.2289886 -0.05178217967957835 -0.040590933903440984
0.2309885 -0.05196847702995553 -0.03958436624953403
0.2329884 -0.05209049214826172 -0.0385207301497113
0.2349883 -0.05198293798902479 -0.03768861812549844
0.2369882 -0.05261016402400632 -0.036867536990716515
0.2389881 -0.052512362887770905 -0.036336386204780066
0.240988 -0.0525290489656344 -0.03513083720526301
0.2429879 -0.052450010139263335 -0.034542119933448176
0.2449878 -0.05286736626137014 -0.033623441372726645
0.2469877 -0.053060893854826534 -0.033422133819243804
0.2489876 -0.05305259084459543 -0.032270749282994234
0.2509875 -0.05359133630875583 -0.03180749241148358
0.2529874 -0.05376439057409332 -0.031077419766279597
0.2549873 -0.054309500208216295 -0.030529942988782928
0.2569872 -0.054522362317404 -0.030439655508947266
0.2589871 -0.05407975019865456 -0.029606175177315223
0.260987 -0.05425797586582977 -0.029246801693429386
0.2629869 -0.05451129086797756 -0.028256600744961925
0.2649868 -0.054812965981182196 -0.027762783253309914
0.2669867 -0.05478782527147698 -0.02761665489024043
0.2689866 -0.055196906506643884 -0.027006524461894783
0.2709865 -0.05509145362382009 -0.026205507034069802
0.2729864 -0.0554316012149971 -0.025687330361535095
0.2749863 -0.05507679331025296 -0.025411231530436215
0.2769862 -0.05569890373865713 -0.024977623384613127
0.2789861 -0.0553939499733015 -0.02396620996828768
0.280986 -0.055718964062864466 -0.024204135125368256
0.2829859 -0.05571464274062005 -0.023243612282323124
0.2849858 -0.05565562035064636 -0.023063712388087486
0.2869857 -0.05572981001643657 -0.02163488859565421
0.2889856 -0.05596221276344914 -0.021697019628747552
0.2909855 -0.05588813623378155 -0.021414236788583223
0.2929854 -0.056088408946740345 -0.02043481327373055
0.2949853 -0.05603518636536229 -0.02005715434911506
0.2969852 -0.056339465387605904 -0.019745290899522695
0.2989851 -0.056884107925025365 -0.01905624770011114
0.300985 -0.056903273681675005 -0.018431901019396374
0.3029849 -0.05713010504091891 -0.01822750435994088
0.3049848 -0.057184021469787315 -0.016951462849825523
0.3069847 -0.057312130968616634 -0.016549045651052037
0.3089846 -0.057586877410919 -0.01622139935882518
0.3109845 -0.057882052521169736 -0.016216608945941714
0.3129844 -0.057942497424082806 -0.015177018053959452
0.3149843 -0.0581956384326695 -0.014956389627108642
0.3169842 -0.05837976237588119 -0.014370011343896802
0.3189841 -0.058867347977011736 -0.014908372305687888
0.320984 -0.05927252004774087 -0.014210413831332577
0.3229839 -0.059618383090754054 -0.012954044671059005
0.3249838 -0.059507404181620566 -0.01336311281089382
0.3269837 -0.059327812337727576 -0.012934246770793318
0.3289836 -0.060027821834054404 -0.012046551167809599
0.3309835 -0.06025370043011729 -0.011890384601297488
0.3329834 -0.06037979705306014 -0.011867242712978277
0.3349833 -0.06097724149282317 -0.01159047482055938
0.3369832 -0.06093576872020683 -0.010968002280013777
0.3389831 -0.06130616418364708 -0.010562635054938013
0.340983 -0.061265507862243974 -0.010873210748323713
0.3429829 -0.061645791257365745 -0.010300650291811778
0.3449828 -0.06160685428042685 -0.009728141593291155
0.3469827 -0.062169034436665466 -0.0096234521506527
0.3489826 -0.06216734531281041 -0.009608616891269087
0.3509825 -0.06208452112178488 -0.009089166779663461
0.3529824 -0.06251748366565205 -0.008466053963259938
0.3549823 -0.06213517352987634 -0.007808186335457247
0.3569822 -0.06257519777952923 -0.007818189502774981
0.3589821 -0.06290029099781513 -0.007560108905304147
0.360982 -0.0632358758859224 -0.00744594851886685
0.3629819 -0.06322079252263064 -0.007171883029635402
0.3649818 -0.06302415940907813 -0.006714081315400234
0.3669817 -0.06319873283087901 -0.006287346611213322
0.3689816 -0.06339577049443637 -0.0065613599741769085
0.3709815 -0.06343963354860317 -0.005614751431747108
0.3729814 -0.0639029067004165 -0.005188426343509255
0.3749813 -0.06397256352415662 -0.00493165648327519
0.3769812 -0.06399904743124178 -0.005161428598357772
0.3789811 -0.06410363558664438 -0.004624492844129389
0.380981 -0.06469049194163917 -0.0044138796652502706
0.3829809 -0.06512585632087457 -0.004149182656351853
0.3849808 -0.06519294525593115 -0.003920207754544002
0.3869807 -0.06553988332570906 -0.0030993046601771046
0.3889806 -0.06517814380456875 -0.0026605001308647076
0.3909805 -0.06586710430494504 -0.002625651201943316
0.3929804 -0.06602346395902024 -0.0024630688560930113
0.3949803 -0.06627220143674885 -0.0021140570237051133
0.3969802 -0.06689251891325183 -0.0017464244936730537
0.3989801 -0.06721130489337868 -0.001475962737859781
0.40098 -0.06748351312854249 -0.0016351451084205548
0.4029799 -0.06754082255312678 -0.001266421189003622
0.4049798 -0.0680535046093397 -0.0013700242706208982
0.4069797 -0.06824818406039643 -0.001071308321610974
0.4089796 -0.06824606539898681 -0.0008060364519337504
0.4109795 -0.06855937818817877 -0.0008628299758958111
0.4129794 -0.06869599861068164 -0.0007315039877256041
0.4149793 -0.06895550045578308 -0.0006112095795208911
0.4169792 -0.06924798135493272 8.54243652227693e-06
0.4189791 -0.06939677651961325 0.00021386168692943963
0.420979 -0.06952343229309159 0.00019421313046401323
0.4229789 -0.06994401872251174 5.0955032042603043e-05
0.4249788 -0.07009127662222653 0.00035865053808251807
0.4269787 -0.07018248864335663 0.00041120648392391906
0.4289786 -0.07047401416023767 0.000932963359078158
0.4309785 -0.07047043346032848 0.0007567525384703649
0.4329784 -0.07064478590362644 0.0008876226192727418
0.4349783 -0.07112710321033985 0.0010463132725689675
0.4369782 -0.07101694847337842 0.0013933247113326122
0.4389781 -0.07131127165167267 0.0014655395356630227
0.440978 -0.07178608749376611 0.0017924561722904575
0.4429779 -0.07161979062474355 0.0017029730459188694
0.4449778 -0.07209356569632547 0.002018085478986513
0.4469777 -0.07198864176028699 0.0020800181985080116
0.4489776 -0.07223884075388634 0.00231585569654022
0.4509775 -0.07286133884111803 0.0020875715551325405
0.4529774 -0.07307531087636647 0.002348688606542762
0.4549773 -0.07288894365371534 0.0026623004433651357
0.4569772 -0.07330921006251627 0.002759343021042693
0.4589771 -0.07373656615594493 0.0028651343895272838
0.460977 -0.07359301186304157 0.003090138434368693
0.4629769 -0.07427625783460753 0.0032639678825595875
0.4649768 -0.07434478646361602 0.0031207041449944975
0.4669767 -0.07468847568691067 0.003277391173693578
0.4689766 -0.07471571671685417 0.003145802558842767
0.4709765 -0.0753104695370557 0.003293623244252003
0.4729764 -0.0751901219367499 0.003279942168341883
0.4749763 -0.07549618703275023 0.0033708473420387547
0.4769762 -0.07596598465289739 0.003477435629004426
0.4789761 -0.0759890812466567 0.003355688933568801
0.480976 -0.07622661074094841 0.003481876920470542
0.4829759 -0.07626204670243963 0.0036694520875097253
0.4849758 -0.07661477637735872 0.0038233722430396147
0.4869757 -0.07668559546202164 0.003869447814119166
0.4889756 -0.0767139988879779 0.004090375585655462
0.4909755 -0.07699317587007157 0.004110909800020747
0.4929754 -0.07730533284133892 0.004219085550473817
0.4949753 -0.07719251610389123 0.004305286841436891
0.4969752 -0.07741437726458808 0.004129610132146716
0.4989751 -0.0775201228101407 0.004465372790612557
0.500975 -0.07768162766963535 0.004504488491470199
0.5029749 -0.07798631840105341 0.0047671030933180425
0.5049748 -0.07799199365883247 0.004838551242576351
0.5069747 -0.07820938132904715 0.004802742654468228
0.5089746 -0.07853833951814111 0.004765470039961459
0.5109745 -0.07892879980189903 0.005093986424923862
0.5129744 -0.07925374137046996 0.005055526408255788
0.5149743 -0.07960068310652 0.0049853617029669145
0.5169742 -0.07965362276797815 0.0051475522736482635
0.5189741 -0.08009062528811389 0.005241112228268376
0.520974 -0.07990054408570828 0.00560895107940769
0.5229739 -0.0805264969235856 0.005401983645693498
0.5249738 -0.08103209294622216 0.005395347569217973
0.5269737 -0.08093863710401208 0.005545419974970281
0.5289736 -0.08156176683789224 0.0056201701127177525
0.5309735 -0.08189059081306901 0.005344317835970412
0.5329734 -0.08206789878131968 0.005463670695304408
0.5349733 -0.0824237888574933 0.005449313708246271
0.5369732 -0.08275412109097213 0.005313369242393229
0.5389731 -0.08306664346978995 0.005271960301019479
0.540973 -0.08313099608331842 0.004907999423026811
0.5429729 -0.08360399725112572 0.004635949196505736
0.5449728 -0.08359023699746684 0.004807140019651782
0.5469727 -0.08398533469543062 0.0045589407635315965
0.5489726 -0.08375881487348838 0.004732878037568979
0.5509725 -0.08428754773074021 0.004621703067015842
0.5529724 -0.08440946674758049 0.004611292177346002
0.5549723 -0.08461287733045053 0.00439787669694381
0.5569722 -0.08470362532339777 0.004358386470680674
0.5589721 -0.08484459048718168 0.004101700446971557
0.560972 -0.08478988321707291 0.003921701956970017
0.5629719 -0.08495697226376449 0.003913363619820184
0.5649718 -0.08494863012654735 0.0039023013273624466
0.5669717 -0.08499598256576318 0.0038251505847120837
0.5689716 -0.08517450794182366 0.003723098998666137
0.5709715 -0.08525861291636425 0.004059905221447405
0.5729714 -0.08507613234401928 0.003946412934221259
0.5749713 -0.08513686516149635 0.004081517443452226
0.5769712 -0.08531559780493278 0.004102066339688945
0.5789711 -0.08550848006742462 0.004020468197590686
0.580971 -0.08588499241171667 0.004083213845512315
0.5829709 -0.08633643709223097 0.0043350916980614065
0.5849708 -0.08633118259986067 0.0042949789561561105
0.5869707 -0.08682679125829079 0.004445164991454732
0.5889706 -0.08697312806205952 0.004291489625439217
0.5909705 -0.08701788087600877 0.004157732358163441
0.5929704 -0.08724995607569003 0.004088432273795017
0.5949703 -0.08763472920813226 0.004352686171464441
0.5969702 -0.08791940629473638 0.0037829403140439907
0.5989701 -0.0881002678294546 0.003913894555685797
0.60097 -0.08849319777322956 0.0037763023943596513
0.6029699 -0.0886890486498439 0.00373343096183483
0.6049698 -0.08907310156876933 0.003370774571359522
0.6069697 -0.0895876083110609 0.0032182034137464566
0.6089696 -0.08960427418101653 0.003294090479434117
0.6109695 -0.09002478597550878 0.0030090117748834064
0.6129694 -0.09018813147237988 0.002917363932793883
0.6149693 -0.09066717239977047 0.0024504904776141492
0.6169692 -0.0904988957876166 0.00218986551324013
0.6189691 -0.09038619101440225 0.002209725308128463
0.620969 -0.09062965452637724 0.001838689177598385
0.6229689 -0.09097218420878359 0.001855501920508644
0.6249688 -0.0911218788369508 0.001859706092440891
0.6269687 -0.09132779233049429 0.0012636805524718839
0.6289686 -0.09118389111268468 0.0011448094962902555
0.6309685 -0.09130679617522017 0.0013592651735382308
0.6329684 -0.09147312643311498 0.0009070680660369576
0.6349683 -0.09106483107856031 0.000876124939728308
0.6369682 -0.09124891024185719 0.0006269783370792675
0.6389681 -0.09094212369631917 0.000916989990772818
0.640968 -0.09148078680106848 0.0005724500786206885
0.6429679 -0.09136060621020838 0.0006205841710318002
0.6449678 -0.09136829759770201 0.0008227993924842247
0.6469677 -0.09152875081205025 0.0008220348191051371
0.6489676 -0.09202621369641387 0.0006216069683355682
0.6509675 -0.09205226347160089 0.0007488718437304379
0.6529674 -0.09229884071484484 0.0008196496515976703
0.6549673 -0.09229806795520379 0.0007687063067596464
0.6569672 -0.0926831083740422 0.0006463171285517461
0.6589671 -0.09306050907356689 0.00036366799759599694
0.660967 -0.09333333852302103 0.000499953517701282
0.6629669 -0.09371913337781038 0.0006368833783247096
0.6649668 -0.09404363737826005 0.00010334356522945926
0.6669667 -0.09445252915904348 9.404018941245457e-05
0.6689666 -0.09460493897264076 0.00023840246939085818
0.6709665 -0.09509123763766586 -0.00018257020706267946
0.6729664 -0.09519481287193633 -0.0005973420651831512
0.6749663 -0.09533953061360714 -0.0007049272567324558
0.6769662 -0.0954446155752005 -0.0010105781294011407
0.6789661 -0.09582692831955478 -0.0011110108737027863
0.680966 -0.09597641301987732 -0.0013184736069944622
0.6829659 -0.09615040230194785 -0.0018239235805039763
0.6849658 -0.09629375603987263 -0.002084729344365717
0.6869657 -0.09648830158466501 -0.0022377126225865893
0.6889656 -0.09680518951207959 -0.0028770529348645726
0.6909655 -0.09700332169647762 -0.003166008764029886
0.6929654 -0.09695112554543482 -0.0035541697469240324
0.6949653 -0.09715995991062826 -0.0038445894321830834
0.6969652 -0.09724558285399401 -0.004210252614297284
0.6989651 -0.0972992325981878 -0.004530159689936933
0.700965 -0.09715327559900296 -0.004871755762212389
0.7029649 -0.09752760370832558 -0.0052282723826992325
0.7049648 -0.09706344804250172 -0.005451537738420442
0.7069647 -0.09691204927963731 -0.0056579556993488905
0.7089646 -0.09670409322824478 -0.005865117178440654
0.7109645 -0.09670974251327073 -0.006011862982291082
0.7129644 -0.09653350710235234 -0.005982681121554569
0.7149643 -0.096521872057524 -0.006206965338227961
0.7169642 -0.09654447090477268 -0.006304340960113501
0.7189641 -0.09667730791536501 -0.006521453926684927
0.720964 -0.09674447131030058 -0.006496331208444839
0.7229639 -0.09696116612126653 -0.006574815124494621
0.7249638 -0.09678502356038546 -0.007125042200941886
0.7269637 -0.09679769143661066 -0.006833320419137423
0.7289636 -0.09675064088754998 -0.006860446683978061
0.7309635 -0.0970546070382698 -0.006744261207958797
0.7329634 -0.09730361290581557 -0.00694083485475739
0.7349633 -0.09745314896281733 -0.006937866864040035
0.7369632 -0.09771239964123093 -0.007020658170407319
0.7389631 -0.09807290630710698 -0.006992591491714176
0.740963 -0.09836188153236097 -0.007422799339914424
0.7429629 -0.09846660468119275 -0.007293640370147299
0.7449628 -0.09878543317201034 -0.007716322740108125
0.7469627 -0.09927118667782678 -0.007943580935778231
0.7489626 -0.09942676325102393 -0.008214134116800442
0.7509625 -0.09941194533097264 -0.00853324550858587
0.7529624 -0.10009828709565612 -0.008937586769917814
0.7549623 -0.10030855200777215 -0.009149603465126312
0.7569622 -0.10038950687239206 -0.009689416414730506
0.7589621 -0.10051041592669965 -0.010076215347824886
