! Created with skrf 1.8.0 (http://scikit-rf.org).
# GHz S RI R 50.0 
!freq ReS11 ImS11
0.001 -1.0000514734873107 0.0002671643014761811
0.0029999 -1.0005923391870784 0.0006465516802973345
0.0049998 -1.0015881553896357 0.0006917132623629682
0.0069997 -1.0029203844727268 0.00020810862847170375
0.0089996 -1.0046469413410886 -0.000871756461111442
0.0109995 -1.0066067965184795 -0.0026279223620979397
0.0129994 -1.00873304700643 -0.00519114519577886
0.0149993 -1.0108966800213 -0.008317675352272541
0.0169992 -1.0129576722273697 -0.012116969775694778
0.0189991 -1.0149471737513602 -0.01636571798995401
0.020999 -1.017001437755852 -0.021577760931130008
0.0229989 -1.018748831822081 -0.026745870574260838
0.0249988 -1.019794752143133 -0.03255726403596618
0.0269987 -1.0217454756227118 -0.03847418961711714
0.0289986 -1.0230558370582612 -0.04486265862328839
0.0309985 -1.0243628968416891 -0.05132296125393189
0.0329984 -1.024529295152058 -0.0581159912181491
0.0349983 -1.0260387456317774 -0.06521238108127214
0.0369982 -1.0261436517986904 -0.07229855884533448
0.0389981 -1.0268276112304024 -0.07920732183423387
0.040998 -1.0278737957745019 -0.08616470623181724
0.0429979 -1.0281564715143188 -0.09275606893357292
0.0449978 -1.02800787864916 -0.1012415131685572
0.0469977 -1.028142430236122 -0.10761814220108308
0.0489976 -1.0276706493917436 -0.11486115070804975
0.0509975 -1.0280859151071087 -0.1216316231101925
0.0529974 -1.0267306010029982 -0.12870524747097753
0.0549973 -1.0274918887497537 -0.13578403721715376
0.0569972 -1.0270792907356527 -0.1425290494416271
0.0589971 -1.0269335915400133 -0.14896820272562586
0.060997 -1.025121034605366 -0.15631531186612949
0.0629969 -1.0254384983386127 -0.16276426921213258
0.0649968 -1.0249835668667113 -0.1703206529455844
0.0669967 -1.023302314159233 -0.17753024643864296
0.0689966 -1.0227307235209981 -0.18436063695842858
0.0709965 -1.0223847161903548 -0.19078126837810552
0.0729964 -1.0210778223811694 -0.1981145456983583
0.0749963 -1.0197988308667167 -0.20451249096622853
0.0769962 -1.0192451372067475 -0.21131539697688198
0.0789961 -1.0180802081590217 -0.21813120737170213
0.080996 -1.017491714658533 -0.22463931314046026
0.0829959 -1.0151968394720348 -0.23112548809530536
0.0849958 -1.0149240061850568 -0.23790224656777437
0.0869957 -1.0134330031206567 -0.2447641188129639
0.0889956 -1.0122317746368874 -0.2506923878100453
0.0909955 -1.0109039550247088 -0.25755375014446713
0.0929954 -1.009609157239974 -0.2648777760063492
0.0949953 -1.0077846371140549 -0.2693724426428753
0.0969952 -1.0065059657682622 -0.27736859526293994
0.0989951 -1.0037374146514673 -0.28298189047847344
0.100995 -1.0039583981786537 -0.28936548472026663
0.1029949 -1.0021429467970209 -0.29670486129731255
0.1049948 -0.9996259112017577 -0.30281137806996145
0.1069947 -0.998603920438917 -0.3097567237851072
0.1089946 -0.9969331644052137 -0.3156924197436841
0.1109945 -0.9945906136246416 -0.32167182323821897
0.1129944 -0.9929692333191013 -0.32767759239446714
0.1149943 -0.9912191360453481 -0.33454565408471887
0.1169942 -0.9902121945638033 -0.3405359949722819
0.1189941 -0.9865311798638913 -0.3473179742538502
0.120994 -0.9842733467112766 -0.3530717163520584
0.1229939 -0.9837200360249753 -0.35939489749822884
0.1249938 -0.9808529374205477 -0.365362113301844
0.1269937 -0.9791313583282614 -0.3707586908311207
0.1289936 -0.9768959898752456 -0.3774131839824566
0.1309935 -0.975176362628922 -0.38455376893191573
0.1329934 -0.9736483167349945 -0.3902001694478993
0.1349933 -0.9705707975488491 -0.39560974455107306
0.1369932 -0.9680660940704111 -0.4021017936366919
0.1389931 -0.9662920294038584 -0.4087781046053139
0.140993 -0.9641749437770187 -0.41355377539726346
0.1429929 -0.9609466721066109 -0.4195494837538617
0.1449928 -0.9585994138925821 -0.42620170042539823
0.1469927 -0.9566187393568547 -0.4325697876250036
0.1489926 -0.9547896294331496 -0.4381258722958715
0.1509925 -0.9504413507118364 -0.44387776723957345
0.1529924 -0.9496779227656927 -0.4505677946292673
0.1549923 -0.9474362602234521 -0.45500726369286537
0.1569922 -0.9442962859836888 -0.4621824998224409
0.1589921 -0.9400793324658702 -0.4668487912580379
0.160992 -0.9389191348074503 -0.47417192391613555
0.1629919 -0.9358800534971256 -0.4794717494424976
0.1649918 -0.9327911944529754 -0.48520547076199017
0.1669917 -0.9304915478624629 -0.4916080581215282
0.1689916 -0.9281983479340172 -0.496710573471607
0.1709915 -0.9243457327823791 -0.5026321494951328
0.1729914 -0.9218964455197225 -0.508352088613518
0.1749913 -0.9191309321589861 -0.5137643445066654
0.1769912 -0.9169662091204384 -0.5190295379235471
0.1789911 -0.9131193963671671 -0.5254377429795707
0.180991 -0.9104416504265034 -0.531539163703312
0.1829909 -0.9068658074562175 -0.5379679483672533
0.1849908 -0.903666454369257 -0.5415828279573177
0.1869907 -0.8998013320328341 -0.5476473269555152
0.1889906 -0.8979537647336985 -0.5544471590954625
0.1909905 -0.8944757790684286 -0.5595199158784313
0.1929904 -0.8909977215258983 -0.5647664357120569
0.1949903 -0.8878131417520251 -0.5700319928320481
0.1969902 -0.885393853405979 -0.5753307033699285
0.1989901 -0.8816397299808276 -0.580378304505064
0.20099 -0.8784557908339481 -0.5864040922591813
0.2029899 -0.8750077377482405 -0.5905664243764014
0.2049898 -0.8712099694794956 -0.5974101632401061
0.2069897 -0.8681361197263642 -0.6030656972818448
0.2089896 -0.8645802082598607 -0.6073474262073706
0.2109895 -0.8613815699121963 -0.6131180753405908
0.2129894 -0.8575471819626332 -0.6184016886489866
0.2149893 -0.8543140447582114 -0.6242370130211026
0.2169892 -0.8504863662450096 -0.6300027698666512
0.2189891 -0.8467948802182295 -0.6344327775921861
0.220989 -0.8430754302581156 -0.6400720917288462
0.2229889 -0.8400519977151604 -0.6455339155870953
0.2249888 -0.8356048391313513 -0.64946370025452
0.2269887 -0.8326217714820552 -0.6555301249365183
0.2289886 -0.8291308598724338 -0.6608027211912044
0.2309885 -0.8250066222416884 -0.6657425733413411
0.2329884 -0.8212470449242962 -0.6706474315098038
0.2349883 -0.8174177736550085 -0.6758536275785663
0.2369882 -0.8131464930843366 -0.6810468161248773
0.2389881 -0.8092516118601518 -0.6859848438783345
0.240988 -0.8047427102045425 -0.6908029465802679
0.2429879 -0.8013912165778729 -0.6957115309654183
0.2449878 -0.7971151055307019 -0.7007432934531748
0.2469877 -0.794135925477905 -0.7060720926201908
0.2489876 -0.7893457734841963 -0.7115660052853707
0.2509875 -0.7855877565648158 -0.7158797436924482
0.2529874 -0.781587306337644 -0.720631777894539
0.2549873 -0.7772720551857465 -0.7255963914845497
0.2569872 -0.7730296985085334 -0.7308959343569263
0.2589871 -0.7676696987201855 -0.7348727995222178
0.260987 -0.7638355452884338 -0.7407689250422244
0.2629869 -0.760624427997644 -0.7453269519200894
0.2649868 -0.7561990460983956 -0.7500592735391554
0.2669867 -0.7518407796775596 -0.7543599975717187
0.2689866 -0.7471715084405166 -0.7590472108320887
0.2709865 -0.7432164428294743 -0.7638762866790665
0.2729864 -0.7386369267652622 -0.767427326273337
0.2749863 -0.7344611193923037 -0.7717634662526355
0.2769862 -0.7298107657378413 -0.7778391089232476
0.2789861 -0.7251741811445407 -0.7822293390763715
0.280986 -0.7206480085696454 -0.786804328532162
0.2829859 -0.7162621649724518 -0.7914386535501023
0.2849858 -0.7119937849089455 -0.7958032342172817
0.2869857 -0.7067611015772836 -0.7995671534029346
0.2889856 -0.7024881213937787 -0.8042900250703752
0.2909855 -0.6983823214228415 -0.8092284833103238
0.2929854 -0.6928465097207956 -0.813241675463682
0.2949853 -0.6877120766131304 -0.8173294560606209
0.2969852 -0.683571407748026 -0.8218581584136591
0.2989851 -0.6788130057078315 -0.8264163883333373
0.300985 -0.6748271354986426 -0.8319917436634702
0.3029849 -0.6691319290852341 -0.8346927038216898
0.3049848 -0.6642330363807187 -0.8386648057643614
0.3069847 -0.6597160733514721 -0.8434165070446825
0.3089846 -0.6547375636077298 -0.8474437959108291
0.3109845 -0.6489809879289459 -0.8523077672664087
0.3129844 -0.6448116444389556 -0.8559552085491398
0.3149843 -0.640031632542145 -0.8600655405631745
0.3169842 -0.6342182859774791 -0.8629801809602408
0.3189841 -0.6307367156957928 -0.8684071807757769
0.320984 -0.6252703367797993 -0.8725349696236031
0.3229839 -0.6195839060154978 -0.8758467173668022
0.3249838 -0.6139776520421286 -0.880205066880746
0.3269837 -0.6085742277951529 -0.8834482038976775
0.3289836 -0.6042325672179613 -0.8876646251261548
0.3309835 -0.5986800638353181 -0.8915013155446598
0.3329834 -0.5940508066269182 -0.8953995823647325
0.3349833 -0.5890227202691781 -0.8998118896745421
0.3369832 -0.584663988669115 -0.9029818734129907
0.3389831 -0.5788739224174183 -0.9069261630893569
0.340983 -0.573032267107742 -0.9101490663170139
0.3429829 -0.5676595627271762 -0.9141632017860436
0.3449828 -0.5624984605725096 -0.9179209172559128
0.3469827 -0.5569746884357055 -0.9214861596140345
0.3489826 -0.551758644174545 -0.9248724821731571
0.3509825 -0.5459676686683043 -0.9283630441208558
0.3529824 -0.5407831382775897 -0.9319254750853233
0.3549823 -0.534711531281795 -0.9343393588652054
0.3569822 -0.5291381432814579 -0.9388746629127123
0.3589821 -0.5249231206468812 -0.9424406368269882
0.360982 -0.5199470805495925 -0.9456503655598638
0.3629819 -0.5132062714254574 -0.9486712861621946
0.3649818 -0.5083393694596005 -0.9528356603360424
0.3669817 -0.5031142948957464 -0.9562502161875458
0.3689816 -0.4966980248743053 -0.9593802309907956
0.3709815 -0.49097159263990836 -0.962541247172952
0.3729814 -0.4857299122793005 -0.9661380127779842
0.3749813 -0.47976838192242505 -0.9685803257000584
0.3769812 -0.47369312073999525 -0.9719701130100763
0.3789811 -0.4679322104648696 -0.9752048005960553
0.380981 -0.46278461638610213 -0.9784823831375129
0.3829809 -0.457547034717335 -0.9816708152899417
0.3849808 -0.45098621496709174 -0.9845072977558194
0.3869807 -0.4457390756070513 -0.9867196460484703
0.3889806 -0.43882915930168753 -0.9896599936436714
0.3909805 -0.43317326631832576 -0.9923508686964689
0.3929804 -0.42752333744343984 -0.9949707172731453
0.3949803 -0.4216610987494799 -0.998298067080672
0.3969802 -0.4162939571190981 -1.0016164661279414
0.3989801 -0.41032840957827654 -1.0032757486581525
0.40098 -0.4032685570736696 -1.0077135264256467
0.4029799 -0.3985273651875398 -1.0097779986403677
0.4049798 -0.39174017202007577 -1.012797581455968
0.4069797 -0.3860272475658687 -1.0145080475027242
0.4089796 -0.37938084644742076 -1.0174145230612324
0.4109795 -0.3743025593197251 -1.0206635682262712
0.4129794 -0.36774901998505494 -1.0232633263449893
0.4149793 -0.36233432744876076 -1.025471866577721
0.4169792 -0.3555881012067429 -1.0269808767752282
0.4189791 -0.3491686643105673 -1.0297138026265205
0.420979 -0.3437175889306306 -1.0318452541318213
0.4229789 -0.33799022944078316 -1.034758391187868
0.4249788 -0.33130953519470074 -1.0376452394039593
0.4269787 -0.32536445115361795 -1.0396972448955981
0.4289786 -0.3182205968619121 -1.0421861089782456
0.4309785 -0.3122910711373757 -1.0440956176318608
0.4329784 -0.30681317307768874 -1.0461886091997084
0.4349783 -0.3001105595926438 -1.0483778049554184
0.4369782 -0.293946834178124 -1.0496275220778126
0.4389781 -0.2879676464708686 -1.0523188949230007
0.440978 -0.2807991448944567 -1.0539185647569598
0.4429779 -0.2749760891458679 -1.0552309740563612
0.4449778 -0.268175550830122 -1.0576942671442697
0.4469777 -0.262139562685049 -1.0597539783760515
0.4489776 -0.2548564746487405 -1.0615546733130787
0.4509775 -0.24987070896423857 -1.0641922176995227
0.4529774 -0.24299109237998076 -1.0662646867395413
0.4549773 -0.2360409479544754 -1.0669177929457718
0.4569772 -0.23017602637100176 -1.068945966905596
0.4589771 -0.22446076119271624 -1.0701740820369485
0.460977 -0.21664468414659876 -1.071914072061907
0.4629769 -0.21087867756116813 -1.0736248828805242
0.4649768 -0.2044998976651904 -1.0750743952089958
0.4669767 -0.19754057758849253 -1.077114295705364
0.4689766 -0.19130152620020413 -1.0781394604996248
0.4709765 -0.18555751633803563 -1.0806646744922264
0.4729764 -0.17784523572629896 -1.0813948316243744
0.4749763 -0.171985330245713 -1.0829033089322597
0.4769762 -0.1649971054081748 -1.0843694905567494
0.4789761 -0.158833690082332 -1.086019883447732
0.480976 -0.15242569773461778 -1.0862291326711986
0.4829759 -0.14600523531717502 -1.0870539453472725
0.4849758 -0.1387234353006081 -1.0878549183815478
0.4869757 -0.13210008436930587 -1.0897795701702548
0.4889756 -0.12530720847268836 -1.090343980196401
0.4909755 -0.1193606471706237 -1.091947447701043
0.4929754 -0.11271711407508023 -1.0924956552979455
0.4949753 -0.10565105143324799 -1.0933075697202388
0.4969752 -0.09913350365516903 -1.0950999036138218
0.4989751 -0.09271642456998143 -1.096259017171763
0.500975 -0.08588502573768557 -1.0973342084532705
0.5029749 -0.07914217541650495 -1.0974277998370952
0.5049748 -0.07184861570422638 -1.098273876340195
0.5069747 -0.06504846327854676 -1.0998240270639525
0.5089746 -0.05847240180604153 -1.1005847288612587
0.5109745 -0.05181151426446662 -1.100267129938002
0.5129744 -0.045430107046571175 -1.101451738677328
0.5149743 -0.038935593804651905 -1.102204804863076
0.5169742 -0.03187435802046769 -1.1013211113954071
0.5189741 -0.0252216559524734 -1.102063625520227
0.520974 -0.017763166272811666 -1.1019949704259229
0.5229739 -0.0116114097795939 -1.1027091625637622
0.5249738 -0.004965580344286444 -1.1033568179057915
0.5269737 0.0021606265710105294 -1.1031556656832309
0.5289736 0.008821249403940787 -1.1040184343900876
0.5309735 0.015530460026665513 -1.1042868437064115
0.5329734 0.022860691439215375 -1.1040308500154445
0.5349733 0.029125245968319544 -1.1048445130054623
0.5369732 0.0362324105010194 -1.1043773740609595
0.5389731 0.04268804586918058 -1.1042542533795077
0.540973 0.050251723585214125 -1.1045366173604205
0.5429729 0.056401518652316865 -1.1052519153428395
0.5449728 0.0633713748502924 -1.1046172169930948
0.5469727 0.06990131772877275 -1.1045441299055847
0.5489726 0.07781276859510813 -1.1034018992412162
0.5509725 0.08367803105803273 -1.1038643404876989
0.5529724 0.09092969370056683 -1.1028444503349764
0.5549723 0.09790070696251806 -1.1026550101068109
0.5569722 0.10416301089452952 -1.1025797142872509
0.5589721 0.111090732620574 -1.10214303663873
0.560972 0.11817894073898867 -1.1015803121368999
0.5629719 0.12509680475939033 -1.1009986192097283
0.5649718 0.1322206884580501 -1.1005349127697919
0.5669717 0.13858424229116745 -1.0997279523727443
0.5689716 0.14598705655830452 -1.0996654477570729
0.5709715 0.15292628053732144 -1.0987546320708148
0.5729714 0.15953672520704276 -1.0978306741716004
0.5749713 0.1663114852153501 -1.097566477297313
0.5769712 0.17434390535598035 -1.0962787590439758
0.5789711 0.18085061026098406 -1.0960220978720425
0.580971 0.18708729365209986 -1.0950156856592552
0.5829709 0.19360013471533952 -1.0936303045435847
0.5849708 0.20118125702405937 -1.0923949027396418
0.5869707 0.20714882285447916 -1.0917191447379662
0.5889706 0.21565785201803694 -1.0899957884495273
0.5909705 0.22100344738264388 -1.0895571455142694
0.5929704 0.22802155976110672 -1.0884652048375523
0.5949703 0.23478223632419293 -1.0865755170418514
0.5969702 0.24214893191293624 -1.0860731026038046
0.5989701 0.2491167429115269 -1.0839618971458655
0.60097 0.2555125282589847 -1.08334628240877
0.6029699 0.2627473225948329 -1.0822235112351666
0.6049698 0.2698669762954777 -1.0804599257312455
0.6069697 0.2769636636590056 -1.0793525564568305
0.6089696 0.2833080155773686 -1.07767795924967
0.6109695 0.29031932488234496 -1.0761405499100252
0.6129694 0.29656452862403415 -1.0741147174095862
0.6149693 0.3034765997379954 -1.0726704129517235
0.6169692 0.3105489380200215 -1.071125579054353
0.6189691 0.31744348032867553 -1.068712247196595
0.620969 0.3233465142414694 -1.0670934385281938
0.6229689 0.3308694207954772 -1.0655966748909833
0.6249688 0.33732223682496776 -1.0633804693417235
0.6269687 0.3441013421326412 -1.0613681949726337
0.6289686 0.3513565660580335 -1.0593595402151377
0.6309685 0.3576935931449664 -1.0569503997837975
0.6329684 0.36481080470713095 -1.055118686400848
0.6349683 0.3714962749738122 -1.0532644228928398
0.6369682 0.3780550461634333 -1.051557128647428
0.6389681 0.38449149804658467 -1.0487222840218566
0.640968 0.3921100544869514 -1.0471648261816449
0.6429679 0.39833765050548764 -1.0453345811697607
0.6449678 0.4057448211135389 -1.0414637888946991
0.6469677 0.41193803294130316 -1.039376000977801
0.6489676 0.41835126389724797 -1.0372796163940257
0.6509675 0.4251830902194489 -1.034271040348638
0.6529674 0.4311352301720237 -1.0317333115553724
0.6549673 0.43780322100983354 -1.0289146495556871
0.6569672 0.44459842055456944 -1.0263303989614108
0.6589671 0.45170294104991526 -1.0237110061141161
0.660967 0.4581903910581906 -1.0207925575199401
0.6629669 0.4655042402310531 -1.0180687151365733
0.6649668 0.47116505415820426 -1.015461648964868
0.6669667 0.47766675517890833 -1.012448173126999
0.6689666 0.48369322468631 -1.0093314053678184
0.6709665 0.49094908998189146 -1.0069784988060502
0.6729664 0.49747036256876875 -1.0040572808477242
0.6749663 0.5038711420302383 -1.001799875531174
0.6769662 0.5110806832821583 -0.9981012048212712
0.6789661 0.5174883763076724 -0.9944679416029227
0.680966 0.5231127684620397 -0.9917160474465605
0.6829659 0.5300683928063015 -0.9879345603864991
0.6849658 0.5370371433726633 -0.9854363029429344
0.6869657 0.5432047398756843 -0.9813548311349501
0.6889656 0.5489892155336782 -0.9782813005160281
0.6909655 0.5555409597807419 -0.9749314791704847
0.6929654 0.5621308824749423 -0.9713794940017828
0.6949653 0.5682491396350554 -0.967742262724589
0.6969652 0.5745028202032446 -0.9640389625085377
0.6989651 0.5807397883952473 -0.9602353191699844
0.700965 0.587281829832948 -0.9564545338417184
0.7029649 0.5927684199079417 -0.9532582950865734
0.7049648 0.5997378771500346 -0.9491626497745931
0.7069647 0.6058439217234308 -0.9457157366187925
0.7089646 0.6118430693180203 -0.941492866609391
0.7109645 0.6180804101862528 -0.9379130733136715
0.7129644 0.6239572533764333 -0.9340148702106061
0.7149643 0.630705897613314 -0.9301426878094841
0.7169642 0.6360705369714956 -0.9259164273589547
0.7189641 0.642247387292142 -0.9220322700967931
0.720964 0.6485346221147104 -0.9175499912966032
0.7229639 0.6537774237387267 -0.9137815092625434
0.7249638 0.6604486648471222 -0.909998456560525
0.7269637 0.6667484264621996 -0.9054656891672573
0.7289636 0.6724230537719044 -0.9018200155034265
0.7309635 0.6787230348133123 -0.8964916544214102
0.7329634 0.684654294142104 -0.8923918786488052
0.7349633 0.6899769801742084 -0.8882610233764436
0.7369632 0.6957389527710524 -0.8836875612102191
0.7389631 0.701687133769964 -0.8789298221612658
0.740963 0.7075522400725994 -0.8744407243093012
0.7429629 0.7129515475909296 -0.8695933231740739
0.7449628 0.7192910905063629 -0.8657434928382636
0.7469627 0.7240992252919827 -0.8606756749406421
0.7489626 0.7300110990503734 -0.8560586862055908
0.7509625 0.7362580776512491 -0.8517799480912867
0.7529624 0.7412500454308507 -0.8463648500155858
0.7549623 0.7474887237319097 -0.8418462251325963
0.7569622 0.7525444569040765 -0.8370571079643051
0.7589621 0.7582902615367434 -0.8325165814486163
0.760962 0.7644887864125807 -0.8274038955492067
0.7629619 0.7700091364321728 -0.8226770606899988
0.7649618 0.7752610491735342 -0.8175358690920181
0.7669617 0.7803519536336452 -0.8126902694097284
0.7689616 0.7862381529677711 -0.807539605054211
0.7709615 0.791618064817355 -0.8022223242815949
0.7729614 0.7964973649129041 -0.7968917144674315
0.7749613 0.8019314059415112 -0.791421918667848
0.7769612 0.8074113800878017 -0.7862255298496362
0.7789611 0.8124185748810552 -0.7808970342215431
0.780961 0.8174822026909616 -0.7759857216931569
0.7829609 0.8225664357693107 -0.7701740242492316
0.7849608 0.8278542498279174 -0.7650455177313208
0.7869607 0.8325559726018575 -0.7592022268645616
0.7889606 0.8379799548351047 -0.7537020358925794
0.7909605 0.8421915184948725 -0.7480626392027709
0.7929604 0.8475862971382828 -0.7425729577132182
0.7949603 0.852791651861279 -0.7372352352523681
0.7969602 0.857171287853503 -0.7312467861679219
0.7989601 0.8622873600387895 -0.7260332244021971
