! Created with skrf 1.8.0 (http://scikit-rf.org).
# GHz S RI R 50.0 
!freq ReS11 ImS11
0.001 -0.9976445929960062 0.01584235095140829
0.0029999 -0.9886189123043833 0.046145572188087625
0.0049998 -0.9742348754656354 0.07402459512914544
0.0069997 -0.95311504824132 0.10024315022370295
0.0089996 -0.9268881818051959 0.12571189403763844
0.0109995 -0.8966499693063621 0.1485928814578365
0.0129994 -0.8634863232038811 0.16792330982403764
0.0149993 -0.8284470261490682 0.18517204781708624
0.0169992 -0.7910544028404176 0.2020674742022966
0.0189991 -0.7552952333334733 0.213506349239701
0.020999 -0.7166180640905123 0.22331471706809372
0.0229989 -0.67966153329951 0.233465872240494
0.0249988 -0.6455886924329708 0.23890714874531602
0.0269987 -0.6088942885770819 0.24344830047849986
0.0289986 -0.5775506645168588 0.24676097790672769
0.0309985 -0.5446967142305893 0.25008550846917776
0.0329984 -0.5162686856362734 0.25061060488290543
0.0349983 -0.48511180754607686 0.2506020565844388
0.0369982 -0.46092152468329767 0.2491488403770295
0.0389981 -0.43324138688879477 0.2494799768463905
0.040998 -0.408967753155682 0.24731122076134338
0.0429979 -0.3879597821225875 0.2450061267007861
0.0449978 -0.3663869402080493 0.24247919644606097
0.0469977 -0.3487303624638505 0.24012801920113744
0.0489976 -0.3299597909871706 0.23655690806985644
0.0509975 -0.3140355060776706 0.233495687081325
0.0529974 -0.3005710394736992 0.22869676870021988
0.0549973 -0.2821261452434504 0.22865437078951736
0.0569972 -0.2724192867374687 0.22426079861262843
0.0589971 -0.25826500089111515 0.22033204840550813
0.060997 -0.24670230706894228 0.21786581173139782
0.0629969 -0.2359300515084253 0.2142224242675311
0.0649968 -0.22426822887729925 0.209138623490502
0.0669967 -0.2128229568521919 0.20692783353945388
0.0689966 -0.2051593606257671 0.20390355144297959
0.0709965 -0.19738436588383082 0.19914925949446333
0.0729964 -0.18889872401019242 0.19743507014800588
0.0749963 -0.1807375038341902 0.19398675057976353
0.0769962 -0.17502523481971077 0.1909975922308657
0.0789961 -0.16758362186868186 0.1877351294267401
0.080996 -0.1620359471698079 0.18581719898586102
0.0829959 -0.15567794363823415 0.18299321959320025
0.0849958 -0.15205806362058275 0.17964417654261958
0.0869957 -0.14566033870392547 0.1771011961090052
0.0889956 -0.14094190333751672 0.173795442918366
0.0909955 -0.1355335503151403 0.1718293496132774
0.0929954 -0.13081215505138868 0.16966238204977363
0.0949953 -0.12860175787354686 0.16704283704407483
0.0969952 -0.12501958070549027 0.1640139182263133
0.0989951 -0.12091665960870385 0.1624930389684339
0.100995 -0.11741029758202673 0.16059549753282212
0.1029949 -0.11258930611250674 0.1583402499031893
0.1049948 -0.11038693372095663 0.155328204870957
0.1069947 -0.1076759688206588 0.15347444003534877
0.1089946 -0.10499406915983658 0.15110093441769357
0.1109945 -0.10199079888761847 0.14922902632039112
0.1129944 -0.10032442726757744 0.14759207667870833
0.1149943 -0.09743639256590392 0.1451208196432352
0.1169942 -0.09532321712768602 0.14314067458534302
0.1189941 -0.09142176036422225 0.14176030463220846
0.120994 -0.09013396897462142 0.1405341103777218
0.1229939 -0.08865489027572027 0.13793584998930614
0.1249938 -0.0853153613045158 0.1365525673636329
0.1269937 -0.08418774436511975 0.1347655297768757
0.1289936 -0.08140590388473029 0.13282143474864477
0.1309935 -0.08058337270789026 0.13274063416108603
0.1329934 -0.07891504213119245 0.12975995198891224
0.1349933 -0.07709259077598461 0.1289887629634036
0.1369932 -0.07600069028313719 0.12752731584085264
0.1389931 -0.07349334036046665 0.12598987488594124
0.140993 -0.07305480309038082 0.12421076976582873
0.1429929 -0.07068179219780388 0.12296679359256202
0.1449928 -0.07005764458814587 0.12292816853764656
0.1469927 -0.06916990661316254 0.12133183774614616
0.1489926 -0.06877593536038168 0.11986837719566142
0.1509925 -0.0661450769469594 0.11953535325978051
0.1529924 -0.06541900963060257 0.11793806254164259
0.1549923 -0.06512604429178392 0.11706366957881158
0.1569922 -0.06390948886820955 0.11613576822143716
0.1589921 -0.06420144688253676 0.11561272997328748
0.160992 -0.06222438104423858 0.11461737799537397
0.1629919 -0.06081694430945964 0.11314999686661789
0.1649918 -0.0611170964308599 0.11255761557164577
0.1669917 -0.06015268326810283 0.11159922124103305
0.1689916 -0.059223405971564475 0.10972741709768395
0.1709915 -0.05882476510768339 0.1099325859867156
0.1729914 -0.05900895905737113 0.10861067831159966
0.1749913 -0.05790860591962882 0.10793351015455405
0.1769912 -0.057416373290793105 0.10726776238172318
0.1789911 -0.05716071651477768 0.10610316502845177
0.180991 -0.05649314357556744 0.10545575729498624
0.1829909 -0.055382908191332014 0.10395828883906695
0.1849908 -0.05586299047487005 0.10285959272660061
0.1869907 -0.05399259848804394 0.10178128374404322
0.1889906 -0.05466124392868026 0.10096443511288138
0.1909905 -0.054027775497313475 0.10065471602306988
0.1929904 -0.0536024320136974 0.09900553206897414
0.1949903 -0.05325644374715602 0.09837483365216032
0.1969902 -0.053047178374832776 0.09721395016112303
0.1989901 -0.05222295892548469 0.09696666279534955
0.20099 -0.05137890934339366 0.09661337603549375
0.2029899 -0.05114209674174356 0.09471078217136367
0.2049898 -0.05061131833545135 0.09482062920653826
0.2069897 -0.050163203065958534 0.09386256890359539
0.2089896 -0.05021666204622719 0.09357009395703902
0.2109895 -0.04996333865900186 0.09289790059987116
0.2129894 -0.049647178851372126 0.09253068431826056
0.2149893 -0.049148545693271296 0.09105835257942448
0.2169892 -0.04869259715144242 0.09133138923429938
0.2189891 -0.048831468549248136 0.09019031269649486
0.220989 -0.04757483710821123 0.09021181952148757
0.2229889 -0.047265687357476965 0.08948810856968895
0.2249888 -0.04768490173263662 0.08913222432868365
0.2269887 -0.04743334410597652 0.08854017490512003
0.2289886 -0.04717065999140797 0.08809634465062123
0.2309885 -0.04765719026195959 0.08817296384942676
0.2329884 -0.04738755234169467 0.08741100472535979
0.2349883 -0.04727674455301742 0.08694422649790948
0.2369882 -0.047298246682413364 0.08675966235463786
0.2389881 -0.047122935628837855 0.0861422736182337
0.240988 -0.046773238703852714 0.08554585261376264
0.2429879 -0.04687571504938004 0.08537169436820118
0.2449878 -0.04661534511538449 0.0849892834699827
0.2469877 -0.04721275093276959 0.08447792791181552
0.2489876 -0.04655783209202812 0.0840128006572576
0.2509875 -0.04715781193033633 0.08328762725829811
0.2529874 -0.047162900490752516 0.0832238573033993
0.2549873 -0.047464523631165566 0.08211967720728598
0.2569872 -0.04691379806157363 0.08175898240933632
0.2589871 -0.046962449944606036 0.08159517031587703
0.260987 -0.04740342891537842 0.08096365114405911
0.2629869 -0.046863371944893276 0.08019116094876808
0.2649868 -0.04659519724561226 0.07973245191104042
0.2669867 -0.047037882817960106 0.07939767717534649
0.2689866 -0.04714498968567023 0.07947806891520243
0.2709865 -0.0469201904275568 0.07844685796257772
0.2729864 -0.0472922567873141 0.07838907565636297
0.2749863 -0.04717912143633653 0.07781236721684164
0.2769862 -0.04701738132034054 0.07709308740354151
0.2789861 -0.04668948085504467 0.07671250765213193
0.280986 -0.046764605070228255 0.07650884217128587
0.2829859 -0.04677079931416422 0.07582321161629822
0.2849858 -0.04695401102456528 0.07587715661967279
0.2869857 -0.04695279941898223 0.07553838681675591
0.2889856 -0.04711460468497057 0.07504871013177448
0.2909855 -0.04695491391644636 0.07453887194869394
0.2929854 -0.04700019718954583 0.07451547543481737
0.2949853 -0.04720857037129293 0.07450941536163205
0.2969852 -0.04706260609687801 0.07387599866796578
0.2989851 -0.04733101722555523 0.07385068111649822
0.300985 -0.04728210165332303 0.07361097943234451
0.3029849 -0.04696197411365227 0.07368021914046985
0.3049848 -0.0477747315454379 0.07314692303406152
0.3069847 -0.04739567712234679 0.07264074818319942
0.3089846 -0.047863013056583685 0.07241410225320176
0.3109845 -0.047941998958927694 0.0725119686891127
0.3129844 -0.04824783065022174 0.07225985402378138
0.3149843 -0.048423216841838576 0.07161925532515348
0.3169842 -0.048427403459623534 0.07184846164979973
0.3189841 -0.04870863472495447 0.0709722389133166
0.320984 -0.04927445781951707 0.07050900025619584
0.3229839 -0.049312994361906524 0.07070308165311737
0.3249838 -0.04976113787444817 0.06991106289447822
0.3269837 -0.04926425877859452 0.06970176355763491
0.3289836 -0.04988081539860779 0.06932733056956664
0.3309835 -0.04998664747090067 0.06876887512862806
0.3329834 -0.050024917559696826 0.06826416226806956
0.3349833 -0.050320339686747755 0.0678346951325479
0.3369832 -0.0504869444379168 0.06760136603398273
0.3389831 -0.05045890289628378 0.06734853630484608
0.340983 -0.050742464437633875 0.06702273323099564
0.3429829 -0.05094935791805587 0.06653789312393688
0.3449828 -0.05098106058220398 0.06620310769667291
0.3469827 -0.05130296977958547 0.0660998871926317
0.3489826 -0.05150670340827214 0.06568187159663813
0.3509825 -0.05144359136043721 0.06522326694869063
0.3529824 -0.05112088980816322 0.06493918032144556
0.3549823 -0.05157124384762322 0.06520221132816878
0.3569822 -0.05176431915845171 0.06494727314141434
0.3589821 -0.0519591912575455 0.06407757412687361
0.360982 -0.052223361546201504 0.06409234087058004
0.3629819 -0.05219417276571692 0.06425152334095376
0.3649818 -0.0523535544324214 0.0634692788987441
0.3669817 -0.052277639449430376 0.06309798574267804
0.3689816 -0.052579251167408636 0.06305442048650724
0.3709815 -0.052351517210642136 0.06289160245275263
0.3729814 -0.052807503630059364 0.06245903786992225
0.3749813 -0.05320179520044321 0.06253625318194034
0.3769812 -0.05318272255219941 0.062398234607063376
0.3789811 -0.05308484644601362 0.06204526128551254
0.380981 -0.053885215803771994 0.061365106429345846
0.3829809 -0.05411707513080468 0.06149879845809976
0.3849808 -0.05440790406408124 0.06104540385206829
0.3869807 -0.05421689040438371 0.06141141519007452
0.3889806 -0.054481524540479644 0.06110557139335284
0.3909805 -0.05497860432265151 0.06079430140641585
0.3929804 -0.05529326485747722 0.06032073063828454
0.3949803 -0.05583816068684278 0.06024500725213559
0.3969802 -0.05610186185407237 0.059957267950672286
0.3989801 -0.056249504511466576 0.05978814590056575
0.40098 -0.05664596310864975 0.05914365129248334
0.4029799 -0.057000592039163286 0.05866694143390737
0.4049798 -0.05695774891115337 0.058766944726135514
0.4069797 -0.057293373562812104 0.05838405128089617
0.4089796 -0.05756924735131111 0.0583581646839407
0.4109795 -0.057693402136420144 0.05738826799733185
0.4129794 -0.05792798097257253 0.05728763961727854
0.4149793 -0.05816460182175974 0.05712603932202989
0.4169792 -0.05827032147902089 0.05697501681956449
0.4189791 -0.05851179485495097 0.05705196101693519
0.420979 -0.05890241467159779 0.05657040942468619
0.4229789 -0.059286227531669525 0.05564221002917863
0.4249788 -0.059370747371926685 0.05561558417885514
0.4269787 -0.0595802068679586 0.05533510877904127
0.4289786 -0.0597391061433765 0.05515740084747796
0.4309785 -0.06001639191534276 0.05479752120509498
0.4329784 -0.06012469200565989 0.054434576785439864
0.4349783 -0.06033999864287899 0.054483676490022406
0.4369782 -0.06059153856524464 0.05414544328706599
0.4389781 -0.06103502883766427 0.05397910670274536
0.440978 -0.061105639668526696 0.05344436433986136
0.4429779 -0.061463726701285984 0.05356237312446746
0.4449778 -0.06155199749760305 0.05333056299195093
0.4469777 -0.061663098079448635 0.05285880201541071
0.4489776 -0.06188055083088409 0.052978248961366416
0.4509775 -0.06254541624506732 0.05221038309399507
0.4529774 -0.062472090271230345 0.0518134958655973
0.4549773 -0.06274835451608962 0.05197769131363365
0.4569772 -0.0629669535093695 0.05163467408723611
0.4589771 -0.06325388643509233 0.051476409076200026
0.460977 -0.06338803178643486 0.0513161857745972
0.4629769 -0.0638641814210958 0.050713515980645774
0.4649768 -0.06423212960269196 0.05065769233209727
0.4669767 -0.06425965493850096 0.050039969547770874
0.4689766 -0.06492579343233848 0.049673143856902004
0.4709765 -0.06505088482324867 0.049366153671285426
0.4729764 -0.06518661776586479 0.049126356738313545
0.4749763 -0.06568208679948943 0.048778974265836925
0.4769762 -0.06569059433897914 0.0484771905456284
0.4789761 -0.06619894532338068 0.04802444143927723
0.480976 -0.06626338133055555 0.04793437131470953
0.4829759 -0.06630293824550175 0.04768525431520024
0.4849758 -0.0666516685773799 0.047448868926291216
0.4869757 -0.06687012050877678 0.04734134666228701
0.4889756 -0.06698221908440019 0.047066682510056704
0.4909755 -0.06729280657378114 0.04659263692105224
0.4929754 -0.06762859361071852 0.0463379285752271
0.4949753 -0.06764702779035076 0.04631622347780747
0.4969752 -0.0678014571495873 0.0455323617350356
0.4989751 -0.06787238236400936 0.04557267883579331
0.500975 -0.06797746268748892 0.04510222062384707
0.5029749 -0.06851175399909819 0.04550458883787048
0.5049748 -0.06864789782710956 0.04510189358073441
0.5069747 -0.0689528490707455 0.04480666761405887
0.5089746 -0.06952553330298467 0.04474389395466823
0.5109745 -0.0693984763195484 0.044342189834036864
0.5129744 -0.07012771527217952 0.04396987918092015
0.5149743 -0.07048289510509739 0.043729125577693435
0.5169742 -0.0704956810844202 0.043714670871212724
0.5189741 -0.0710553247263807 0.04329669932238954
0.520974 -0.071329225832445 0.0431231429611125
0.5229739 -0.07170767513193353 0.0429449102244707
0.5249738 -0.07191769772955937 0.042682198132647155
0.5269737 -0.07218503294109833 0.04238995886597831
0.5289736 -0.07274342191869738 0.04212204253109828
0.5309735 -0.07325026963032208 0.041664532204773355
0.5329734 -0.07334663087041764 0.04151433824397012
0.5349733 -0.07348501034860433 0.04100606620218116
0.5369732 -0.0741322005476884 0.04070888382525623
0.5389731 -0.07422593933397394 0.040181878411348196
0.540973 -0.0746408836270051 0.03979708767579994
0.5429729 -0.07498577752380176 0.039141502738385486
0.5449728 -0.07507952490365623 0.03898897345226699
0.5469727 -0.07545300977263826 0.03846728422826182
0.5489726 -0.07551387813984263 0.038366564999981985
0.5509725 -0.07586382583396718 0.037878788399346434
0.5529724 -0.07608492721552239 0.037736279270933225
0.5549723 -0.076392449720093 0.037273472632852495
0.5569722 -0.07667310008208085 0.03680709636092773
0.5589721 -0.07678081488020157 0.036283136808407536
0.560972 -0.0766940559373506 0.03611243599262473
0.5629719 -0.07672852118133608 0.03558511989162173
0.5649718 -0.07686341936934125 0.035519932302986564
0.5669717 -0.07704941687316222 0.0350847796730951
0.5689716 -0.07723994131032264 0.03502645013831699
0.5709715 -0.07748901069990546 0.03449932735348277
0.5729714 -0.0774780171069221 0.03444040550856761
0.5749713 -0.07748661133374904 0.03421512637009617
0.5769712 -0.07799204196297574 0.03405878886775886
0.5789711 -0.07826018403523938 0.033591775968653745
0.580971 -0.07856178670429131 0.033372279003661916
0.5829709 -0.07888068686525856 0.0334074386001916
0.5849708 -0.07880774694248183 0.03326693142295707
0.5869707 -0.07913850592916105 0.03294268081342111
0.5889706 -0.07974922244861317 0.032697202375752715
0.5909705 -0.07998646500318478 0.032441397965576074
0.5929704 -0.08064416391290971 0.03211434334214247
0.5949703 -0.08076206863673076 0.031921746364566246
0.5969702 -0.08079449878776651 0.03129094274966519
0.5989701 -0.08148224363814588 0.03106959450613659
0.60097 -0.08184250281320991 0.03049783722732462
0.6029699 -0.08204973035751155 0.030258632971522294
0.6049698 -0.08236917954620537 0.029849735756443136
0.6069697 -0.08281687018402721 0.029356872158158003
0.6089696 -0.0830660070024141 0.029215313625827848
0.6109695 -0.08352018896782047 0.028546955103429632
0.6129694 -0.08378189824299685 0.028284741802854084
0.6149693 -0.08389636804952118 0.027825143468660957
0.6169692 -0.08417085035968382 0.027294662912730593
0.6189691 -0.08392401418531847 0.02698307907728517
0.620969 -0.08438795097332678 0.026847831439345243
0.6229689 -0.08467917313641872 0.026200582052826438
0.6249688 -0.08483477288795874 0.02584494756430258
0.6269687 -0.08507664259349478 0.02523951205317513
0.6289686 -0.08529776367038304 0.024957452663413524
0.6309685 -0.08536407499384438 0.024525800189227117
0.6329684 -0.08556007074085155 0.024116438816315946
0.6349683 -0.08528245644792107 0.02407158645468942
0.6369682 -0.08549124517107373 0.02352602098456709
0.6389681 -0.08555825533162795 0.023400408256584453
0.640968 -0.08572497249193817 0.02307058423788345
0.6429679 -0.0858877005128633 0.02289495597016181
0.6449678 -0.08602613570108633 0.02286031464619374
0.6469677 -0.0861488350357874 0.02276598018846487
0.6489676 -0.08681569903331067 0.022342801574839255
0.6509675 -0.08676645519174787 0.022215881483323367
0.6529674 -0.08684872247106956 0.021889544919548178
0.6549673 -0.0871488540831443 0.021875962666497453
0.6569672 -0.0875041735513161 0.021392860645740926
0.6589671 -0.08797658598541175 0.02125207239297805
0.660967 -0.08855250194275052 0.020753825310967016
0.6629669 -0.08855119551812478 0.020482697905476695
0.6649668 -0.08917560879200481 0.020115180434248987
0.6669667 -0.08943151105019197 0.01999026156930908
0.6689666 -0.08997942768987074 0.01967875712071879
0.6709665 -0.09062581664495478 0.01944354953749147
0.6729664 -0.09042517475724218 0.018771829368149525
0.6749663 -0.0908685911867516 0.018061673683967872
0.6769662 -0.09094666542749903 0.017764186085542408
0.6789661 -0.09107088167019423 0.0173249364939544
0.680966 -0.09184721155010875 0.016756485755268676
0.6829659 -0.0919712436212965 0.01627016950954166
0.6849658 -0.09194542074222634 0.015880862281872177
0.6869657 -0.09236781522428399 0.015521306072239813
0.6889656 -0.09264064512102643 0.014675666426956953
0.6909655 -0.0928379095764627 0.014234409082741307
0.6929654 -0.0930818070939661 0.013454074022326845
0.6949653 -0.09316662664089805 0.013108396148870927
0.6969652 -0.0933777266349826 0.012469176828861894
0.6989651 -0.09340920155260203 0.012111209989028315
0.700965 -0.09347594566423244 0.011567229354792943
0.7029649 -0.09374259706161207 0.011238739065736025
0.7049648 -0.09340383578380684 0.010595706359680674
0.7069647 -0.09322214186212685 0.010273143833435666
0.7089646 -0.09322009461105632 0.009869578852942634
0.7109645 -0.09325083484336737 0.009626022424194768
0.7129644 -0.09321348367322817 0.009454355209481891
0.7149643 -0.09324709591110361 0.009030271446484012
0.7169642 -0.09325977773583671 0.008956500954989951
0.7189641 -0.09350434316854792 0.008462142450212928
0.720964 -0.09374794355435663 0.008148293179626592
0.7229639 -0.094042826424245 0.007940260371952324
0.7249638 -0.09367380867036947 0.007666411363651177
0.7269637 -0.09384508499396536 0.007450252023183907
0.7289636 -0.09425381562804955 0.007133530715101359
0.7309635 -0.09436632777647302 0.00732860951177439
0.7329634 -0.09462550190194612 0.0068312713746572565
0.7349633 -0.09493105372438121 0.006611140409221894
0.7369632 -0.09544884048872532 0.006345041463818368
0.7389631 -0.09556315468392709 0.006260623829479613
0.740963 -0.0959812485040315 0.0056874947253052165
0.7429629 -0.09594965456232754 0.005462783961580741
0.7449628 -0.09650779506935442 0.004977677681717932
0.7469627 -0.09687230912223949 0.0047193180979327315
0.7489626 -0.09731823546264741 0.004152723410230683
0.7509625 -0.09743137310633987 0.0034025099397171875
0.7529624 -0.09815149378683849 0.003175176703917735
0.7549623 -0.09840453049186113 0.0025035870718167277
0.7569622 -0.09853298309423426 0.0020421597438653495
0.7589621 -0.09870448084981373 0.0013371920826664996
0.760962 -0.09885909796046835 0.0008844357329589395
0.7629619 -0.09910246950559681 -1.8682644503040247e-06
0.7649618 -0.09922668042771228 -0.00033707083647144254
0.7669617 -0.09918795910917647 -0.0006889450041137751
0.7689616 -0.09922421598322062 -0.0014634899011632882
0.7709615 -0.09942116286662536 -0.0020041448636169447
0.7729614 -0.09938569187073557 -0.002463865933466907
0.7749613 -0.09938212389482093 -0.0029356212120752595
0.7769612 -0.09952434680669124 -0.0035205976216937593
0.7789611 -0.09948094297329853 -0.00407593785845748
