! Created with skrf 1.8.0 (http://scikit-rf.org).
# GHz S RI R 50.0 
!freq ReS11 ImS11
0.001 -0.9963958327663156 0.009688491976283131
0.0029999 -0.9746049751727337 0.027605254917290545
0.0049998 -0.9368827327987633 0.043735606683159345
0.0069997 -0.8878920806866691 0.059018492785097326
0.0089996 -0.8287201443139153 0.07007690873602665
0.0109995 -0.7655251919607045 0.07866822917086622
0.0129994 -0.7005293964346221 0.0858760065422845
0.0149993 -0.6397331369576761 0.08912295829332223
0.0169992 -0.5824879225439462 0.09307548716157421
0.0189991 -0.5322328748646666 0.09367723646624632
0.020999 -0.47971773427885145 0.09459756195994795
0.0229989 -0.4375872102055327 0.09354577851870624
0.0249988 -0.40013095433318324 0.09689719273340472
0.0269987 -0.3638861729591186 0.09143040656253414
0.0289986 -0.332783066432525 0.08985707333753079
0.0309985 -0.30505880161416904 0.08717317069563287
0.0329984 -0.28052529246736596 0.08940959880695949
0.0349983 -0.25626271566930325 0.08421773439690977
0.0369982 -0.23683130113854448 0.08401663655060407
0.0389981 -0.21909545011874582 0.08159054695835458
0.040998 -0.2027269291846043 0.07716928517878552
0.0429979 -0.19097828221889968 0.0753342891552209
0.0449978 -0.17312391242256794 0.07511627885235184
0.0469977 -0.16454078632119154 0.07181865089377638
0.0489976 -0.1534041041453457 0.07182483419483032
0.0509975 -0.14502388295551916 0.06797094085576695
0.0529974 -0.13608949289210454 0.0692801658025459
0.0549973 -0.12829038808944182 0.06495822395313236
0.0569972 -0.12180101843387386 0.06331373632364476
0.0589971 -0.1165321133489031 0.06135865138049615
0.060997 -0.10937143091051503 0.06298911805441632
0.0629969 -0.10530736166754688 0.05951221628954464
0.0649968 -0.09850984064100142 0.058028061595793455
0.0669967 -0.09303676219697286 0.058774644166556
0.0689966 -0.08906422652451686 0.05698076006399348
0.0709965 -0.08610361103364378 0.05541957117662552
0.0729964 -0.08118856449934807 0.05473363167661027
0.0749963 -0.07811724332671552 0.054276912355861566
0.0769962 -0.07545462474152798 0.0529096431997386
0.0789961 -0.07219997920849283 0.052154085520608205
0.080996 -0.06977023979678411 0.0501707598238999
0.0829959 -0.06727668885856712 0.05142902292306466
0.0849958 -0.06515989998541052 0.04931812989655908
0.0869957 -0.062344171010944006 0.048957768718212
0.0889956 -0.0617859072410485 0.04815537602605044
0.0909955 -0.05934148968711318 0.04737256156729511
0.0929954 -0.05658952094241307 0.04659385297184902
0.0949953 -0.05728853244283487 0.046730020060390204
0.0969952 -0.05370011860259295 0.045641144211588734
0.0989951 -0.05315783360128066 0.04717639979046899
0.100995 -0.052342351705454974 0.04396759388416389
0.1029949 -0.0498779428739087 0.044119789305553436
0.1049948 -0.04895406380314067 0.044405715903520146
0.1069947 -0.04748023208896393 0.0429424634461908
0.1089946 -0.0466366781522674 0.04252279035573139
0.1109945 -0.04612414937665341 0.042530670447913914
0.1129944 -0.045618363044575706 0.04214253828869096
0.1149943 -0.044173698212593315 0.041423445755862216
0.1169942 -0.04402790059816538 0.039834151025599944
0.1189941 -0.041689167037540616 0.04104704576553269
0.120994 -0.04156087135195796 0.04115031316557193
0.1229939 -0.040992121078282436 0.039230451592897515
0.1249938 -0.04004317268427179 0.039840430517010555
0.1269937 -0.04004931845853445 0.039148425462205774
0.1289936 -0.038762908794009156 0.03853876719621521
0.1309935 -0.03741480914909341 0.03760184599327974
0.1329934 -0.03730156444697209 0.03697019295589322
0.1349933 -0.03710998444752397 0.037619661975016414
0.1369932 -0.03582153288479163 0.03740439062616829
0.1389931 -0.034875952121690486 0.03659476648926875
0.140993 -0.03571682639678084 0.03639806482796351
0.1429929 -0.03493394469462874 0.03721602940031594
0.1449928 -0.03382785712105671 0.03670847593454347
0.1469927 -0.033192635988714365 0.036049943381322155
0.1489926 -0.033449602086109885 0.03561108915306334
0.1509925 -0.03268221430330514 0.037092273245675045
0.1529924 -0.0321784297434501 0.03548290933759221
0.1549923 -0.03297359769455708 0.035763279119952335
0.1569922 -0.03187382223957946 0.035633037922518526
0.1589921 -0.03212686853233953 0.03705488740084471
0.160992 -0.031583819848280945 0.035249767838072286
0.1629919 -0.03133562279069578 0.03544781649021598
0.1649918 -0.031198674762299563 0.03577038704759908
0.1669917 -0.030881046457599207 0.03520744907210613
0.1689916 -0.03131179062111825 0.03491809083328418
0.1709915 -0.030951062022576574 0.035150820230854654
0.1729914 -0.031180509827903206 0.03497805101623934
0.1749913 -0.031378283636959936 0.03494049586015687
0.1769912 -0.031801727801566364 0.03429053117456153
0.1789911 -0.031073690898188414 0.03460856347307363
0.180991 -0.03079987088415731 0.03397905607588966
0.1829909 -0.030155579045742453 0.033744140952396376
0.1849908 -0.031183820593652885 0.03442312815753537
0.1869907 -0.03060028954880953 0.034207285190222404
0.1889906 -0.0305784503262847 0.03277166271167006
0.1909905 -0.030850264359565928 0.032840932441240846
0.1929904 -0.0307721002795772 0.032760426728417884
0.1949903 -0.03057122233429668 0.03258350754126011
0.1969902 -0.030762844010814687 0.03178538436867558
0.1989901 -0.030683230890846472 0.0321999469806538
0.20099 -0.03030223632673191 0.031803993966459596
0.2029899 -0.031060353147772533 0.032105814461738685
0.2049898 -0.029935945125693714 0.03167658527688163
0.2069897 -0.029942441067015955 0.03123139273605191
0.2089896 -0.03027550561390612 0.03165029935434
0.2109895 -0.030068787147445708 0.031238769726834856
0.2129894 -0.029946332546696052 0.03123082810375013
0.2149893 -0.02965392606155804 0.031062217472555637
0.2169892 -0.029211645561654526 0.03078923251136343
0.2189891 -0.029735500144897488 0.031197566930873694
0.220989 -0.029323153315160527 0.031158624555993275
0.2229889 -0.02955050778657068 0.030818614594643263
0.2249888 -0.029830600569566906 0.03158298685687623
0.2269887 -0.029841479846224796 0.03091032345947971
0.2289886 -0.02989940915456124 0.03070278520536271
0.2309885 -0.02989462513179857 0.031092251148439796
0.2329884 -0.030167142699415013 0.03126617044135209
0.2349883 -0.030046712098952634 0.031008349723070417
0.2369882 -0.030214839846229927 0.031281796849924146
0.2389881 -0.030272012734558713 0.03130396555076141
0.240988 -0.030334257186351677 0.0316978471278474
0.2429879 -0.030942144172929543 0.03145674937454396
0.2449878 -0.030801029038509793 0.031582592004951324
0.2469877 -0.031249555916383454 0.03097865245993176
0.2489876 -0.03107299784002028 0.030988288870723555
0.2509875 -0.03149652428020074 0.03099023124493467
0.2529874 -0.031897200277610796 0.030953819278283737
0.2549873 -0.032097567061904995 0.03064959772118291
0.2569872 -0.03185130377537265 0.030349115485163357
0.2589871 -0.03202648042367719 0.031054864890467392
0.260987 -0.03198676368414567 0.030413271751081883
0.2629869 -0.03262282184253456 0.030007552449963185
0.2649868 -0.03254280854847075 0.029902314051619663
0.2669867 -0.032728231577884195 0.029864980836368175
0.2689866 -0.03270059098137117 0.02993717019761144
0.2709865 -0.0329227131477387 0.029556462669609176
0.2729864 -0.033320157310328516 0.029962500796829127
0.2749863 -0.033644514309456294 0.029758948670422773
0.2769862 -0.03332309389516276 0.029251329701708954
0.2789861 -0.03341083166821203 0.02925850984814667
0.280986 -0.033451614139283076 0.029228116542422286
0.2829859 -0.033514938801598504 0.02912053138657451
0.2849858 -0.03380123355762138 0.028870810633031065
0.2869857 -0.033806785935320674 0.029510359186933052
0.2889856 -0.03398531734000617 0.029117556477863762
0.2909855 -0.03411294502912254 0.02875497733933098
0.2929854 -0.03401637332527627 0.029124014344498364
0.2949853 -0.03404177431278074 0.029554507544108
0.2969852 -0.03463984597045815 0.029249025504341088
0.2989851 -0.03468084577938628 0.029022920960212528
0.300985 -0.03487066603560679 0.028499560803704957
0.3029849 -0.035120675676606275 0.02921670615905122
0.3049848 -0.035235514399894176 0.0294562435529546
0.3069847 -0.03557433074994348 0.029116713743226646
0.3089846 -0.035771615276867244 0.02923716291560309
0.3109845 -0.035655040699603485 0.02915760956987443
0.3129844 -0.03631938793081742 0.029231972202583258
0.3149843 -0.036557555183907686 0.029062862022156674
0.3169842 -0.03676929289335987 0.029735856418109524
0.3189841 -0.03739926716179795 0.028678682971556943
0.320984 -0.03730233871156588 0.028543065653576977
0.3229839 -0.03778839882111474 0.028812341240641998
0.3249838 -0.03751792258203644 0.028675829971707884
0.3269837 -0.03783858319017136 0.029019346008648167
0.3289836 -0.03837508806914067 0.028472440036184984
0.3309835 -0.03854833146084703 0.028499556838877005
0.3329834 -0.038882557979458617 0.028329755936040157
0.3349833 -0.03912570434662379 0.02787623631489957
0.3369832 -0.03985138591991904 0.027687651047905854
0.3389831 -0.03971232323249677 0.027769611248886078
0.340983 -0.03984456626915804 0.027797650076770646
0.3429829 -0.03998861672645779 0.02748957189462685
0.3449828 -0.04026802062514125 0.027400575302875818
0.3469827 -0.04022966118346348 0.027198348869643268
0.3489826 -0.04053288000483425 0.027087530093982612
0.3509825 -0.040632899355635174 0.027090334091820465
0.3529824 -0.04091168238437061 0.026918291315694412
0.3549823 -0.04098389101660191 0.027376065088140895
0.3569822 -0.04104711725324883 0.026898016605345583
0.3589821 -0.04169705309347323 0.026702034589810963
0.360982 -0.04210695885758901 0.026551255823072106
0.3629819 -0.041806316041830424 0.026849959354603103
0.3649818 -0.042011785298552456 0.026473070955003036
0.3669817 -0.04237206637731454 0.026240161224199855
0.3689816 -0.04237702065712333 0.026559258148495756
0.3709815 -0.042554851215031705 0.026451949206054544
0.3729814 -0.04278664626936815 0.02629053470016729
0.3749813 -0.0431555285370561 0.026567551932101245
0.3769812 -0.04315093964646564 0.02641377804979845
0.3789811 -0.043352767026426695 0.026418917416758107
0.380981 -0.04387187413469171 0.026143018616044535
0.3829809 -0.0442223462908886 0.02595657177487494
0.3849808 -0.04427040466934905 0.02608277208223536
0.3869807 -0.04499218940336977 0.0262018690535694
0.3889806 -0.04464488527047222 0.026349672917568748
0.3909805 -0.04521067638251863 0.026352366534015677
0.3929804 -0.045501386589852866 0.026412290360953918
0.3949803 -0.04586664238563158 0.02603060536040272
0.3969802 -0.04634999772910983 0.025872798839261354
0.3989801 -0.046823193565404625 0.02612674554988556
0.40098 -0.04657466916317629 0.025558404558411078
0.4029799 -0.047357080612371816 0.025337639193209194
0.4049798 -0.04730835636384476 0.025095307051456205
0.4069797 -0.04776858360231666 0.025347823515763396
0.4089796 -0.047608594070771504 0.025123595350970973
0.4109795 -0.048194858104558896 0.024593651998295378
0.4129794 -0.04846920780807568 0.02452433099806549
0.4149793 -0.04897338564777333 0.024392617107014194
0.4169792 -0.048940499615221164 0.024617951736975854
0.4189791 -0.04914580952995394 0.024452187546361043
0.420979 -0.049595501139286166 0.024318695283794208
0.4229789 -0.050119685716819073 0.02404399921264123
0.4249788 -0.049996881186034195 0.023584574121855613
0.4269787 -0.05028579187322469 0.023574159891719883
0.4289786 -0.05020479746603805 0.023291975767149843
0.4309785 -0.050496628934544874 0.023415490006166308
0.4329784 -0.051048447149035774 0.02329033512079505
0.4349783 -0.051138044098025304 0.02322199148393317
0.4369782 -0.051460148528101865 0.023236820036121302
0.4389781 -0.051785662590311164 0.02292286303691475
0.440978 -0.051700669237889754 0.023007373905372202
0.4429779 -0.05210227368063372 0.0231209912077411
0.4449778 -0.05231670825046523 0.022863769041959525
0.4469777 -0.052599748982387895 0.02272870212761326
0.4489776 -0.05263558276551557 0.022679006156086035
0.4509775 -0.05330359451504771 0.02220482747746029
0.4529774 -0.05341511804616419 0.022026603515600058
0.4549773 -0.053519036909181625 0.0222228577794626
0.4569772 -0.05388902364710569 0.022046411266392636
0.4589771 -0.054465786625666986 0.021962502576923656
0.460977 -0.054310908156876524 0.021805432965500547
0.4629769 -0.0548727712194243 0.021680909488249286
0.4649768 -0.05521758494870399 0.02147835077962671
0.4669767 -0.05531781687795427 0.02112280152967543
0.4689766 -0.05573937792998711 0.020996495049401397
0.4709765 -0.05606192547920165 0.02063420624264346
0.4729764 -0.05588603032963768 0.020647289974111905
0.4749763 -0.056419650022100754 0.020408640174895666
0.4769762 -0.05665769346435977 0.020059314003058576
0.4789761 -0.05695318839004504 0.01976827774053181
0.480976 -0.05725741698661428 0.019858897487292634
0.4829759 -0.0575127863549816 0.01990841629656839
0.4849758 -0.05756998057941744 0.01994518865050436
0.4869757 -0.05792991408480069 0.019374587648031474
0.4889756 -0.057962123848385685 0.019581630854307263
0.4909755 -0.05840579330353016 0.01916022497842871
0.4929754 -0.05870226317862544 0.019251084813094524
0.4949753 -0.05857936703470068 0.019233938461241166
0.4969752 -0.05897435664713144 0.01898295682946953
0.4989751 -0.05904508590200128 0.018483210395039064
0.500975 -0.059058318850614036 0.018389411040081398
0.5029749 -0.059495941421155774 0.018538641308206046
0.5049748 -0.059472784797277876 0.01862744553059441
0.5069747 -0.05997963518755354 0.01818735507820574
0.5089746 -0.06018254838586364 0.01809091349001741
0.5109745 -0.060532649666794176 0.01803690578107685
0.5129744 -0.06103240837818448 0.017760138123902307
0.5149743 -0.061445346352431464 0.017496711792669817
0.5169742 -0.06160362293192492 0.017714370694316934
0.5189741 -0.061906539850538095 0.01752991864126206
0.520974 -0.06216533275122045 0.017617146410950347
0.5229739 -0.06262835792334273 0.017339194073857027
0.5249738 -0.06286367464260367 0.017190046136135482
0.5269737 -0.0632272395282845 0.017114825144217537
0.5289736 -0.06375799846264851 0.01672979351706934
0.5309735 -0.06410361687258458 0.01637856524656719
0.5329734 -0.06419076967524275 0.016397758640761283
0.5349733 -0.06481559450050008 0.01598858144264527
0.5369732 -0.0651597837943828 0.015841531604537655
0.5389731 -0.06555174736102405 0.015635408244932637
0.540973 -0.06552224929778419 0.015095992820748548
0.5429729 -0.06608641556136438 0.014681352170468908
0.5449728 -0.06625004757086553 0.014718377345273367
0.5469727 -0.0663969051757326 0.014252898683581976
0.5489726 -0.06635956650941108 0.014243534598191162
0.5509725 -0.06690493595070687 0.013777318286773456
0.5529724 -0.06699974510479395 0.013725043355911362
0.5549723 -0.06718648576978171 0.013308481637758142
0.5569722 -0.06754041701234952 0.013200276853392364
0.5589721 -0.06779455250147076 0.012911711811681402
0.560972 -0.06771555732159111 0.01249609312361015
0.5629719 -0.06773012620460087 0.012334327577908491
0.5649718 -0.06760324929912268 0.01213637557774326
0.5669717 -0.0680490206795118 0.012051563931768941
0.5689716 -0.06805913959538903 0.011703232549435422
0.5709715 -0.06827054665950157 0.011634919597594415
0.5729714 -0.06825866499195175 0.011498538131614021
0.5749713 -0.06850621572174598 0.011367924739825477
0.5769712 -0.068161516805157 0.011228574311355578
0.5789711 -0.06890972161370243 0.011147941524725667
0.580971 -0.06929530549866215 0.0109933610359195
0.5829709 -0.0696367245252342 0.011026567199231473
0.5849708 -0.06958533253068766 0.010877044935483453
0.5869707 -0.0702588242081132 0.010832867576440704
0.5889706 -0.06999602108933732 0.010592029087287416
0.5909705 -0.07075672866752952 0.010361079686523583
0.5929704 -0.07102397111098817 0.010146703410163431
0.5949703 -0.07149016125219367 0.010342840288528981
0.5969702 -0.0714460941048608 0.009574165794329247
0.5989701 -0.07192624593996834 0.009579898699319012
0.60097 -0.0724227191476508 0.00916863524514316
0.6029699 -0.07254442674200205 0.008795114037560305
0.6049698 -0.07284244339101599 0.008576549775456889
0.6069697 -0.07336541476386088 0.00819615301505221
0.6089696 -0.07351662868616088 0.008152815369087577
0.6109695 -0.0736874005610838 0.007702959310015668
0.6129694 -0.07410172815104699 0.007577493711105023
0.6149693 -0.0743462820426724 0.007346535923274167
0.6169692 -0.07473139571746935 0.006576834581441295
0.6189691 -0.07449346844472365 0.006386898312884904
0.620969 -0.07496425013760055 0.006125419701192944
0.6229689 -0.07518621886677188 0.005694449024989716
0.6249688 -0.07524837623566624 0.005407276421835874
0.6269687 -0.07554129930899958 0.004960947816935235
0.6289686 -0.07551752954926177 0.004854110278734711
0.6309685 -0.07570635451933344 0.00463728814383723
0.6329684 -0.07579372338716049 0.004191346450890584
0.6349683 -0.07567560248601143 0.0040753091348356765
0.6369682 -0.07568579149282938 0.0037077320389413693
0.6389681 -0.07573004299489525 0.003835698934388586
0.640968 -0.0758806757301353 0.003382580863643358
0.6429679 -0.07603853802066338 0.003265874273117815
0.6449678 -0.07588345397572172 0.0034992548632680476
0.6469677 -0.0762981964746679 0.0034376777320415247
0.6489676 -0.07678558662939515 0.003136232067918257
0.6509675 -0.07669321166301044 0.003182273504168727
0.6529674 -0.07721858233757271 0.0029688140413475367
0.6549673 -0.07724854026544585 0.002825646897565627
0.6569672 -0.07753954914244865 0.0025297160645184683
0.6589671 -0.07786663898299476 0.0023042011689152833
0.660967 -0.07834371517889718 0.002400011855653021
0.6629669 -0.0782952455666216 0.001993330841824785
0.6649668 -0.07894126972523723 0.0017498908149882128
0.6669667 -0.0792021665848933 0.0014543161236608496
0.6689666 -0.07984259455183479 0.0017163188251621275
0.6709665 -0.0800240088173808 0.0011797099290620505
0.6729664 -0.08047949923726458 0.00052344710187191
0.6749663 -0.08060434024615429 0.0001838029282349718
0.6769662 -0.08076161994462519 -0.00017778767140600588
0.6789661 -0.08087439595724347 -0.0002558366270909579
0.680966 -0.08150146027437642 -0.0008969171681775731
0.6829659 -0.0814805459108373 -0.001195022740561498
0.6849658 -0.08153148398971007 -0.0016973108403085385
0.6869657 -0.08173762059318601 -0.0018477965522135861
0.6889656 -0.08230529203607238 -0.0024633321786236353
0.6909655 -0.08250569323116758 -0.0028896243474659314
0.6929654 -0.08246188835194525 -0.00338426391833873
0.6949653 -0.08270655433458163 -0.0037590260456638117
0.6969652 -0.08271754314068898 -0.004241369773566969
0.6989651 -0.08265080878862432 -0.004680332185300146
0.700965 -0.08264149036808124 -0.004952626917897926
0.7029649 -0.0830933548958276 -0.005497355177018916
0.7049648 -0.08277988228771302 -0.005780070380935115
0.7069647 -0.08249291042701509 -0.006287474487616688
0.7089646 -0.08247726340488465 -0.006307355355434193
0.7109645 -0.08243214824717758 -0.006667403846969941
0.7129644 -0.08227943942291667 -0.006704079049804513
0.7149643 -0.0822796899806245 -0.007016514233967524
0.7169642 -0.08238750324782745 -0.007166781264380216
0.7189641 -0.08256461151884688 -0.007429980195076957
0.720964 -0.08269628628522376 -0.007529097010082857
0.7229639 -0.08313233097792623 -0.007687607320430379
0.7249638 -0.08273643920351781 -0.008048366603914819
0.7269637 -0.08263777378290113 -0.008003049546890458
0.7289636 -0.08309423706769307 -0.008030105258132685
0.7309635 -0.08293688725939144 -0.00809887989712861
0.7329634 -0.08324571950036105 -0.008307939210161711
0.7349633 -0.08364373896806039 -0.008423388276189662
0.7369632 -0.08422181105795176 -0.00873883799693187
0.7389631 -0.08427491893624288 -0.008589392049867622
0.740963 -0.08465312531027389 -0.00906655802864094
0.7429629 -0.08463911215106751 -0.008992159605305625
0.7449628 -0.08497534183868112 -0.009571495231332314
0.7469627 -0.08547613126509329 -0.009746248624653765
0.7489626 -0.08574754644188291 -0.010171600427196809
0.7509625 -0.08602849965295703 -0.010712686159963042
0.7529624 -0.08644572024142824 -0.010991592913572924
0.7549623 -0.08658506648061469 -0.011481839028118956
0.7569622 -0.08695061065722516 -0.012000866035985908
0.7589621 -0.0871516337219581 -0.012384713663445474
0.760962 -0.08720497253175535 -0.012866582827158607
0.7629619 -0.0873363719256553 -0.013567662887659822
0.7649618 -0.0874170438172835 -0.013829058671657402
0.7669617 -0.08721584728552251 -0.014199982631564488
