! Created with skrf 1.8.0 (http://scikit-rf.org).
# GHz S RI R 50.0 
!freq ReS11 ImS11
0.001 -1.0000246092979534 -0.0002609091114699584
0.0029999 -1.0000498630542094 -0.0008478107258865636
0.0049998 -1.0000154869990248 -0.0015280282210072132
0.0069997 -0.9999523624547707 -0.00245984003198646
0.0089996 -0.9998721788196415 -0.0036843465928278474
0.0109995 -0.999711471306643 -0.005228995970664757
0.0129994 -0.9994549244355099 -0.007203223791812957
0.0149993 -0.9990969627581698 -0.009438371233737808
0.0169992 -0.9987418838866055 -0.012028377884839792
0.0189991 -0.9982187040943036 -0.014944808095714412
0.020999 -0.9975013969113332 -0.01850778644221507
0.0229989 -0.996795582611304 -0.02200430262946579
0.0249988 -0.9958952190344478 -0.025827518882420852
0.0269987 -0.9949841416770346 -0.030350365105752453
0.0289986 -0.9939111721161638 -0.0349160724104246
0.0309985 -0.9929973573865244 -0.03966735550851308
0.0329984 -0.9917369482527877 -0.044538128749948835
0.0349983 -0.9903309344127909 -0.05025062652963397
0.0369982 -0.988973880892619 -0.05530499887395357
0.0389981 -0.9877622070601746 -0.060920389759820504
0.040998 -0.9867630025636032 -0.06682699670039588
0.0429979 -0.985280659748912 -0.07253345161074382
0.0449978 -0.9833638373324474 -0.07863880961818487
0.0469977 -0.9823089360672835 -0.08462795815373769
0.0489976 -0.9803855223133019 -0.09036518733749122
0.0509975 -0.9792667142208661 -0.09649069236528646
0.0529974 -0.977913751749277 -0.10226435072138518
0.0549973 -0.9762570763961718 -0.10904930572641414
0.0569972 -0.9747826134086075 -0.1145236803891328
0.0589971 -0.9735387334734359 -0.1208107747866086
0.060997 -0.9721325058849067 -0.1269422089359857
0.0629969 -0.970700165253165 -0.13313205377474574
0.0649968 -0.9691785814713493 -0.14003091873213477
0.0669967 -0.9670141794993357 -0.14637220368334364
0.0689966 -0.9659886681346797 -0.1527409616309989
0.0709965 -0.9643581233719225 -0.1586781115408736
0.0729964 -0.9625102006529564 -0.1650429055149461
0.0749963 -0.96126913086423 -0.17120311184481043
0.0769962 -0.9601587943310745 -0.17773250963515116
0.0789961 -0.9583575830396022 -0.18369619524954603
0.080996 -0.956699708383091 -0.18999615255285296
0.0829959 -0.9548870218208207 -0.19604410503809538
0.0849958 -0.9538009701598182 -0.20239010658775075
0.0869957 -0.9515929325527446 -0.2087910392027424
0.0889956 -0.9506335337416771 -0.2146700719953645
0.0909955 -0.9493968822753406 -0.2213382155319559
0.0929954 -0.9467808311609369 -0.2276980456499778
0.0949953 -0.9457425058897804 -0.23180932893216516
0.0969952 -0.9436494074768376 -0.2396872141526487
0.0989951 -0.9416674423506688 -0.24534275767476843
0.100995 -0.9404878528374252 -0.25098716698267665
0.1029949 -0.9393083333747451 -0.25786096980230455
0.1049948 -0.9374315830079745 -0.26361743381100744
0.1069947 -0.9356471758216351 -0.26975855770476215
0.1089946 -0.9340056536945379 -0.27593079001184795
0.1109945 -0.931428853699224 -0.2817780290484721
0.1129944 -0.9303566159736117 -0.2873480742455231
0.1149943 -0.928080206566278 -0.2937991344475897
0.1169942 -0.9266103870416684 -0.2996141685738162
0.1189941 -0.9239162199305531 -0.3057282583815924
0.120994 -0.9218690950283885 -0.3115265784892123
0.1229939 -0.9207134973524173 -0.31756462853723655
0.1249938 -0.9182951131941484 -0.32338024856871905
0.1269937 -0.916634652207678 -0.3288555342836262
0.1289936 -0.91427520307951 -0.33526386144896475
0.1309935 -0.9122204264842401 -0.3412434143006742
0.1329934 -0.9111737727784183 -0.34700132926382105
0.1349933 -0.9089616177548042 -0.35269747267788065
0.1369932 -0.9060965843077068 -0.35763099723727887
0.1389931 -0.9043005142976026 -0.36437506426609545
0.140993 -0.9029882259897788 -0.36936300005559375
0.1429929 -0.8999505135325583 -0.37581221130230325
0.1449928 -0.8972843684194819 -0.38087993505677925
0.1469927 -0.8960239897797161 -0.38713057072745544
0.1489926 -0.8944797957226809 -0.3924892446084517
0.1509925 -0.8905349739255366 -0.397775407876174
0.1529924 -0.8890258236909063 -0.40470841459873863
0.1549923 -0.8871868417692527 -0.4083851168115296
0.1569922 -0.885425663039192 -0.4164748747409279
0.1589921 -0.8810148764288156 -0.41964385337852084
0.160992 -0.8796646975714059 -0.4270445211611166
0.1629919 -0.8770885619265518 -0.43274355529632
0.1649918 -0.8751001566960636 -0.43766936532771894
0.1669917 -0.8717749714037533 -0.44393544929488404
0.1689916 -0.8701325601544577 -0.448933241291823
0.1709915 -0.8673030486210362 -0.45446167790673536
0.1729914 -0.864611631221324 -0.45950100961669693
0.1749913 -0.8622136970963648 -0.4651981951188383
0.1769912 -0.8595050743193056 -0.4705733584382808
0.1789911 -0.8573920940369747 -0.476711823772538
0.180991 -0.8538206823787515 -0.48166547495908474
0.1829909 -0.8509457154891468 -0.48850648693878
0.1849908 -0.8491088573155985 -0.49271762518268336
0.1869907 -0.8456122028785962 -0.49906386486057536
0.1889906 -0.8433490303108465 -0.5041141415611893
0.1909905 -0.8404243602823317 -0.5091494584430645
0.1929904 -0.8377302016644849 -0.5150604742951818
0.1949903 -0.8344844120728582 -0.519882140175006
0.1969902 -0.8320562820019712 -0.5247664832895035
0.1989901 -0.8290882489866698 -0.5300299830547136
0.20099 -0.826408791246908 -0.5360093935037594
0.2029899 -0.8231737470801332 -0.5398036503393279
0.2049898 -0.8197804605943229 -0.5460378897177265
0.2069897 -0.8170999919695371 -0.5518949233190592
0.2089896 -0.8136514952699044 -0.5561583760450004
0.2109895 -0.8111638078740413 -0.5617713883010281
0.2129894 -0.8083069487073443 -0.5660704508254807
0.2149893 -0.8056265790696397 -0.572635716924325
0.2169892 -0.8012978808884251 -0.5774508104947389
0.2189891 -0.798144634045453 -0.5821455858229394
0.220989 -0.7946888889190364 -0.5876229871343782
0.2229889 -0.7923620248027072 -0.593634813340681
0.2249888 -0.7884566315121787 -0.5968571382551189
0.2269887 -0.7855571010549489 -0.6024631186782936
0.2289886 -0.7823801413330669 -0.6078430427474054
0.2309885 -0.7790991837798966 -0.6126265045674164
0.2329884 -0.7754879669562482 -0.6171741220115965
0.2349883 -0.7718505808497291 -0.6218401658015401
0.2369882 -0.7686891729734601 -0.6273207321955346
0.2389881 -0.7652340409640773 -0.6324616419457254
0.240988 -0.7610179838127079 -0.6370964599982302
0.2429879 -0.7585822826794376 -0.6411248293235927
0.2449878 -0.7544491458470601 -0.6472831604111797
0.2469877 -0.7514819302509517 -0.651602381260732
0.2489876 -0.747086145254014 -0.6570343357371508
0.2509875 -0.7442264711694491 -0.6619453103952291
0.2529874 -0.7408777966514197 -0.666778901282896
0.2549873 -0.7366787362936005 -0.6712724438634056
0.2569872 -0.7327405167969522 -0.6757008395810946
0.2589871 -0.7283952885200313 -0.6804813204520246
0.260987 -0.7253236628925243 -0.6860963851735691
0.2629869 -0.7214270268659028 -0.6904005459114623
0.2649868 -0.7173181107921826 -0.6956526192851722
0.2669867 -0.7139724133622525 -0.700099115992405
0.2689866 -0.7098517658386335 -0.7047645461694753
0.2709865 -0.7059954917291935 -0.7088113289599437
0.2729864 -0.7020380414704996 -0.7131613501037397
0.2749863 -0.6988939020042404 -0.7174736198100151
0.2769862 -0.6937497324072178 -0.7227989723089819
0.2789861 -0.6901547746373777 -0.727505120755052
0.280986 -0.6856059517636789 -0.7318579296953122
0.2829859 -0.6822072782051334 -0.7367315968664118
0.2849858 -0.6779412632887217 -0.7401010060311888
0.2869857 -0.6737968205917853 -0.7444998480191214
0.2889856 -0.6702606698662297 -0.7496067373816696
0.2909855 -0.6658221299964311 -0.7541682353540233
0.2929854 -0.6609228671671143 -0.7578688885589393
0.2949853 -0.6566394918451435 -0.7617998938368445
0.2969852 -0.6527389528024541 -0.7672617594117783
0.2989851 -0.6480800091271237 -0.7708546233929695
0.300985 -0.6445228775209575 -0.7761315599464795
0.3029849 -0.6397307198871104 -0.7794849699049613
0.3049848 -0.6359425564750607 -0.7837376301300265
0.3069847 -0.6308044924844345 -0.7881289602557753
0.3089846 -0.626547489600573 -0.7921927214118445
0.3109845 -0.6222838422467499 -0.796706675210102
0.3129844 -0.6175981685227807 -0.8008423880791706
0.3149843 -0.6130322417241907 -0.8043479207357689
0.3169842 -0.6079669171499462 -0.8079928349445581
0.3189841 -0.6050512028736467 -0.8134828503106033
0.320984 -0.5998038863448565 -0.8167253280954967
0.3229839 -0.5954043755786692 -0.8198331461634684
0.3249838 -0.5900901665974987 -0.8248413867017624
0.3269837 -0.5857786489959071 -0.8291126591969432
0.3289836 -0.5801844990604588 -0.8323682577851388
0.3309835 -0.5751442584111334 -0.8367720084602539
0.3329834 -0.5724139134010184 -0.8409181104530973
0.3349833 -0.5666813419774792 -0.8454777768404365
0.3369832 -0.5624460898826177 -0.8480127503437378
0.3389831 -0.5566347739777874 -0.8521245468786944
0.340983 -0.5523569194625568 -0.8558791415215335
0.3429829 -0.5469767862009304 -0.8597598963134018
0.3449828 -0.5426297941209841 -0.863158934056054
0.3469827 -0.5377140326198774 -0.867156582845584
0.3489826 -0.5331321273823982 -0.8706972607006925
0.3509825 -0.5273599362485836 -0.8741867715894347
0.3529824 -0.5221422411724816 -0.8780218190363187
0.3549823 -0.5173070233831842 -0.8809862029542408
0.3569822 -0.512309274285816 -0.8845026751114409
0.3589821 -0.5081096458357878 -0.8884479716486112
0.360982 -0.5028262959379136 -0.8915355138599671
0.3629819 -0.49732316297432777 -0.8949774341615685
0.3649818 -0.4928959361055272 -0.898694703708427
0.3669817 -0.4872353017617709 -0.9026634662128754
0.3689816 -0.48232054377311506 -0.9060594105206138
0.3709815 -0.4765858207728976 -0.9094939769876417
0.3729814 -0.4715081741926656 -0.9126178927457376
0.3749813 -0.4664459292651672 -0.915085500602985
0.3769812 -0.4605781763438165 -0.918582906991851
0.3789811 -0.4554739185538692 -0.9220263677692105
0.380981 -0.450650941785809 -0.9256430048795641
0.3829809 -0.445292529307821 -0.9281778641608379
0.3849808 -0.43994697284584683 -0.9321696159446322
0.3869807 -0.4345109364626294 -0.9342887810324676
0.3889806 -0.42867925494062825 -0.9370646815105579
0.3909805 -0.42350514236453424 -0.9397286041614781
0.3929804 -0.4177975581305876 -0.9438459749911986
0.3949803 -0.41281306782961447 -0.94559093021677
0.3969802 -0.4073078719387435 -0.9493419596821717
0.3989801 -0.40158194785112683 -0.9520500999201397
0.40098 -0.3957232137687924 -0.9559227798403325
0.4029799 -0.3911024113010725 -0.9584074686829768
0.4049798 -0.38467529820125124 -0.96076381877856
0.4069797 -0.37963201020476045 -0.9635815200088875
0.4089796 -0.3739748292539742 -0.9654476466604435
0.4109795 -0.3686967206471493 -0.9697832620356656
0.4129794 -0.3623196592298772 -0.9721796744394221
0.4149793 -0.35683870936551493 -0.9748743292676114
0.4169792 -0.3509285563433317 -0.9762538273946986
0.4189791 -0.3448697568246761 -0.9786438673761595
0.420979 -0.33926552871281135 -0.9817303383514568
0.4229789 -0.33463840663587324 -0.9848442087619318
0.4249788 -0.3280606439182805 -0.9873374942307392
0.4269787 -0.32271182445576274 -0.9893983102762336
0.4289786 -0.3161547478439963 -0.9926155316521004
0.4309785 -0.3108579520188062 -0.9939981546805107
0.4329784 -0.3053800196403109 -0.9963431533543375
0.4349783 -0.29899248878544543 -0.9990210533029853
0.4369782 -0.29329620649265997 -1.0007433709220566
0.4389781 -0.2871163396552383 -1.0029868712999883
0.440978 -0.2808536824099002 -1.0049687907971518
0.4429779 -0.27567749960933174 -1.0071233629742031
0.4449778 -0.26937956374959504 -1.008825016868606
0.4469777 -0.26292675284722794 -1.011245323773291
0.4489776 -0.2565744824027145 -1.012819438246465
0.4509775 -0.25187147572269303 -1.0163135671906929
0.4529774 -0.24538110048758885 -1.0178310937626915
0.4549773 -0.2379600707524757 -1.0188572232147162
0.4569772 -0.2331012911635842 -1.0210555826204315
0.4589771 -0.2277763529983523 -1.0227203158045644
0.460977 -0.2202927428606835 -1.0240188433673074
0.4629769 -0.21515022503521863 -1.026328463120339
0.4649768 -0.20915253844904697 -1.0280315284810688
0.4669767 -0.20223889237468318 -1.0301453254991513
0.4689766 -0.19668380033821226 -1.0316894726909671
0.4709765 -0.1907168090086288 -1.0339089261371606
0.4729764 -0.1840498823604454 -1.035129611302937
0.4749763 -0.17805875014982683 -1.036444328023226
0.4769762 -0.17109963675267253 -1.0383231107499034
0.4789761 -0.1661296055474191 -1.040143209567025
0.480976 -0.15956341363033236 -1.04080899975425
0.4829759 -0.1531433911975229 -1.0412693002523032
0.4849758 -0.14700126585855217 -1.04249509607491
0.4869757 -0.1399589051045627 -1.0446399419041104
0.4889756 -0.13390800119259935 -1.0451836770023124
0.4909755 -0.12827677290719203 -1.046934826185229
0.4929754 -0.1220158651946838 -1.0477605811678337
0.4949753 -0.1155788070383474 -1.0488847759755082
0.4969752 -0.10906451792186833 -1.050937614816643
0.4989751 -0.10270062412681148 -1.0520342677919898
0.500975 -0.09636503110305204 -1.0529569496425857
0.5029749 -0.09026844893909006 -1.0533552824745387
0.5049748 -0.08329529286758758 -1.0543106617794897
0.5069747 -0.07657234293134978 -1.0560071976461565
0.5089746 -0.071041725353172 -1.056773175212411
0.5109745 -0.06407535125548162 -1.056837080180248
0.5129744 -0.058318978707554904 -1.0580114144081068
0.5149743 -0.0521761402401682 -1.0589978165724492
0.5169742 -0.04531030086083888 -1.058710690408058
0.5189741 -0.03953863532719531 -1.0593475899303715
0.520974 -0.032695122034436225 -1.0595811403713125
0.5229739 -0.026032983841471513 -1.0603458597827116
0.5249738 -0.020007103485557745 -1.0615499019129324
0.5269737 -0.012776434837538278 -1.0612399608080783
0.5289736 -0.006699328140086981 -1.0619335812290036
0.5309735 -0.0005160945836328867 -1.0626501869909364
0.5329734 0.006571799834704864 -1.0625039529195737
0.5349733 0.012704523115619135 -1.0629332284590174
0.5369732 0.01948022173844277 -1.0632193344543686
0.5389731 0.025937746970827194 -1.0633951984918693
0.540973 0.032558462001397115 -1.063837845230462
0.5429729 0.038945330248387644 -1.06459219396545
0.5449728 0.04608866882686276 -1.0643148297433191
0.5469727 0.05149501477491837 -1.0644651471483402
0.5489726 0.05918689652754158 -1.0633240251564895
0.5509725 0.06495321538372026 -1.0636474529263968
0.5529724 0.07132566726040054 -1.0631819950188803
0.5549723 0.07845994786777602 -1.062994729789659
0.5569722 0.0839248454956307 -1.0632154247726755
0.5589721 0.0908439721798383 -1.0629172638980755
0.560972 0.09778857062807794 -1.0630066133209561
0.5629719 0.10416432855558713 -1.0623417436901028
0.5649718 0.11055992557374633 -1.0619049575222892
0.5669717 0.11680339767443419 -1.0614067968042034
0.5689716 0.12369579711505495 -1.0614293126789616
0.5709715 0.13037550602638678 -1.0608105216005554
0.5729714 0.13671183401902226 -1.0598939199719748
0.5749713 0.14330831661748983 -1.059690683021337
0.5769712 0.15063027007348295 -1.0590170227820315
0.5789711 0.15615949965858364 -1.058950633350295
0.580971 0.16339377492150972 -1.0580211606345866
0.5829709 0.16959788125512068 -1.0565376873871293
0.5849708 0.1768210636746137 -1.055498666359526
0.5869707 0.1823417914319368 -1.0552515444674944
0.5889706 0.18986426735277107 -1.054052340379165
0.5909705 0.19534987993085542 -1.0536801147624308
0.5929704 0.2018346497301673 -1.0526477129068341
0.5949703 0.20843155555029685 -1.0514717526000272
0.5969702 0.21519827072220238 -1.0506523833283448
0.5989701 0.22222277820471717 -1.0491759111319763
0.60097 0.22811033373876743 -1.0481772610872897
0.6029699 0.23565619823798828 -1.0475369434881736
0.6049698 0.24192621495902267 -1.0459380497502464
0.6069697 0.24860708454634342 -1.0452822757611002
0.6089696 0.25448712382461885 -1.0434641935628446
0.6109695 0.26132552759570504 -1.0424419467960366
0.6129694 0.26767682556806527 -1.0408411106261568
0.6149693 0.2741507406081024 -1.0393854847518451
0.6169692 0.280604846594512 -1.0378071676857732
0.6189691 0.28766637036089626 -1.0355655324757251
0.620969 0.29324408923805834 -1.0341806117826509
0.6229689 0.30008838362600915 -1.0325613968244445
0.6249688 0.3062065622722126 -1.030617136446875
0.6269687 0.31291653483212534 -1.029188094303623
0.6289686 0.3199062973108504 -1.0270784265366608
0.6309685 0.32559625633562694 -1.025170508604979
0.6329684 0.3321081146135143 -1.0235045626513557
0.6349683 0.33845326406310683 -1.0217411706628994
0.6369682 0.3448146930685947 -1.020323139339202
0.6389681 0.35164528105116544 -1.017781520927442
0.640968 0.3578658760882506 -1.0164387045337016
0.6429679 0.3643841487210435 -1.0147768525864855
0.6449678 0.37085985240745 -1.0115908877755508
0.6469677 0.3768147964613103 -1.0093939090522137
0.6489676 0.3832599668190533 -1.00744944477087
0.6509675 0.39001028860149745 -1.0049706427795813
0.6529674 0.39533389688437515 -1.002474820892128
0.6549673 0.40186051244439225 -0.9996795634271269
0.6569672 0.4082607057760975 -0.9977927394495587
0.6589671 0.4146517917984679 -0.9955304779441302
0.660967 0.42101282505699444 -0.9930909461360446
0.6629669 0.42741765215098193 -0.9904130456491309
0.6649668 0.43321035007477215 -0.9877709096560855
0.6669667 0.43949268677052844 -0.9851233361567409
0.6689666 0.4449727882486758 -0.9822017355990524
0.6709665 0.4516548038463395 -0.9804447043797966
0.6729664 0.4587550413739572 -0.9772921073244034
0.6749663 0.464828762345738 -0.9755441571290715
0.6769662 0.4709948845532904 -0.9719370466494439
0.6789661 0.47693814107345855 -0.9692245750564442
0.680966 0.4831781583352048 -0.9661193083540544
0.6829659 0.48910764047838384 -0.9634104447219594
0.6849658 0.49555043783336916 -0.9603525674869567
0.6869657 0.5011696544677018 -0.9569223601702764
0.6889656 0.5073717124074719 -0.9546348872201363
0.6909655 0.5131813973085225 -0.951223370183259
0.6929654 0.5194150868547045 -0.9479661710866149
0.6949653 0.5252665691603966 -0.9444993048525439
0.6969652 0.531163885763453 -0.9411132222192893
0.6989651 0.5372103367384278 -0.9376491566152704
0.700965 0.5432917271251995 -0.9344551839988954
0.7029649 0.5484621099685714 -0.9313620896989043
0.7049648 0.5553848369624416 -0.9279117679829362
0.7069647 0.5607940574495841 -0.9244711582621482
0.7089646 0.5663543716351718 -0.9211139069515146
0.7109645 0.5726757500310323 -0.9172993176724881
0.7129644 0.5782656197288474 -0.9135520971682571
0.7149643 0.5847459743016535 -0.9103787173718741
0.7169642 0.5901807030214198 -0.9061817189922557
0.7189641 0.5953309328568889 -0.902950248680411
0.720964 0.6017731992609511 -0.8993728058175353
0.7229639 0.6070402341674168 -0.8955060817166229
0.7249638 0.6133502321353472 -0.8922274666060217
0.7269637 0.6192299226531587 -0.888135376358137
0.7289636 0.6240994640318778 -0.8845342678935739
0.7309635 0.6299329358784879 -0.8798862320545313
0.7329634 0.6357786657373579 -0.8760822559302237
0.7349633 0.6407910542517234 -0.8719079128040609
0.7369632 0.6461401967948084 -0.8682516425937692
0.7389631 0.6519190254032918 -0.8639353688852038
0.740963 0.6577287327056738 -0.8598978710207459
0.7429629 0.6632315930963558 -0.8552151872383259
0.7449628 0.6686173838648296 -0.8518247874236744
0.7469627 0.6737632619999435 -0.8472820160767932
0.7489626 0.6793113694134311 -0.8430565729430544
0.7509625 0.685042979732906 -0.8390934970023738
0.7529624 0.6899258496247399 -0.8339878365039103
0.7549623 0.6956839307227419 -0.8299767735384233
0.7569622 0.7005709911910969 -0.8253093299598729
0.7589621 0.7058902692203711 -0.8214822635628394
0.760962 0.7115624634963995 -0.8169613486281921
0.7629619 0.7171126939599302 -0.8125016831883536
0.7649618 0.7220260384628997 -0.8076121670848302
0.7669617 0.726967426492601 -0.8034300199643655
0.7689616 0.7323315365492458 -0.7986359209887657
0.7709615 0.7372162319568708 -0.7941395570593909
0.7729614 0.7419156729817992 -0.7892396851893287
0.7749613 0.7474233087368912 -0.784085103518592
0.7769612 0.7526880903135669 -0.7795417639493069
0.7789611 0.7573107845889531 -0.7744286444619857
0.780961 0.7621063486365982 -0.7698338972661257
0.7829609 0.7670514692722726 -0.7648415995530907
0.7849608 0.771977761203314 -0.7601516568213227
0.7869607 0.7767641708587409 -0.7547080390268219
0.7889606 0.781568887132761 -0.7494083836333868
0.7909605 0.7861550235185203 -0.7445459309711919
0.7929604 0.791053698698062 -0.7391872327665899
0.7949603 0.7954946261921815 -0.7347030354558262
0.7969602 0.8006297754047389 -0.7295376525097157
