! Created with skrf 1.8.0 (http://scikit-rf.org).
# GHz S RI R 50.0 
!freq ReS11 ImS11
0.001 1.6879341636288305 -0.32494801513324123
0.0029999 1.5302547622679383 -0.05325194004467938
0.0049998 1.4589935953760265 0.03376474770345324
0.0069997 1.4068307009574468 0.0776356451108556
0.0089996 1.3677775324832628 0.1099465364029671
0.0109995 1.3383880717300514 0.13992524901521752
0.0129994 1.306828012831012 0.1600235443882831
0.0149993 1.2841792140389852 0.1745431650410933
0.0169992 1.265145785241701 0.186123323430552
0.0189991 1.2484589342357832 0.19591397140837563
0.020999 1.2316402935575725 0.20109061632911918
0.0229989 1.2196381976020445 0.20626486018792603
0.0249988 1.2112327012495963 0.213254374826735
0.0269987 1.1978660217292858 0.21680617113257278
0.0289986 1.1899199225911357 0.22107896670626515
0.0309985 1.1821557754411127 0.2265845266641821
0.0329984 1.176282901042497 0.2301054949607609
0.0349983 1.1687355145169835 0.23221458213186308
0.0369982 1.163770595327017 0.23893636148417163
0.0389981 1.1592514260312616 0.24337101706273412
0.040998 1.1514768175488537 0.24720866349964016
0.0429979 1.149347239885501 0.2518558027156301
0.0449978 1.1462777218383495 0.25579430436382566
0.0469977 1.1404964279605143 0.261881823941848
0.0489976 1.1387068128102138 0.26635319213113007
0.0509975 1.1350495937075642 0.27235684221107304
0.0529974 1.1312077947581007 0.2789185324084609
0.0549973 1.1281032383697456 0.2825237114693582
0.0569972 1.1256768325084474 0.2895768135100785
0.0589971 1.1221610195405431 0.2953827594340639
0.060997 1.1194402956274392 0.3014744595381804
0.0629969 1.1159888095795447 0.3077496160645559
0.0649968 1.11304381865849 0.3120500665916831
0.0669967 1.1108097486812931 0.3173122226772612
0.0689966 1.10711406067121 0.3238554880640833
0.0709965 1.1056283359107395 0.3307577961402672
0.0729964 1.1021177612441053 0.3366103018989986
0.0749963 1.0990282650116403 0.3424544898502088
0.0769962 1.0954905863544984 0.3490036836492896
0.0789961 1.0933946477500982 0.3553670573345594
0.080996 1.0902605195018606 0.3613876390175909
0.0829959 1.0882846617469877 0.36796264054696887
0.0849958 1.0841622505217774 0.3744893169003042
0.0869957 1.0824519996642537 0.38028690830377265
0.0889956 1.0783886647507794 0.3876174700637788
0.0909955 1.07467487151741 0.39339334977082924
0.0929954 1.0730548778927742 0.39909147894417407
0.0949953 1.0696811639499195 0.408564791580762
0.0969952 1.0665278209802185 0.41225610867234075
0.0989951 1.064495927831807 0.419430272999375
0.100995 1.0606968117994002 0.4262984101522762
0.1029949 1.0564649727967592 0.4322029372537996
0.1049948 1.0534139118049475 0.4390892540873594
0.1069947 1.0501960057012867 0.44577178731070394
0.1089946 1.0463198698259557 0.4517534426387214
0.1109945 1.0437446892441673 0.45788607475685117
0.1129944 1.0395031292566272 0.4652627305558128
0.1149943 1.0369490905207186 0.47102474143361606
0.1169942 1.0325986652540615 0.47777298382187106
0.1189941 1.0304971110989467 0.4836096391008107
0.120994 1.0269917213140953 0.4900521299112514
0.1229939 1.0222892545399176 0.49672419047055605
0.1249938 1.0191979825024804 0.5031143989733388
0.1269937 1.0151183872991763 0.5095146755654414
0.1289936 1.0117046948304969 0.5151883668778833
0.1309935 1.0079542160025992 0.5211352122074526
0.1329934 1.0029844793511198 0.5278046348702014
0.1349933 0.9989022626962019 0.5339403789995492
0.1369932 0.9964144070627913 0.541654720032089
0.1389931 0.9923177246926288 0.5467194558078811
0.140993 0.9870000261653987 0.5540430312116472
0.1429929 0.9836965337860742 0.5591561099821907
0.1449928 0.9803526615242096 0.566168181710289
0.1469927 0.9751398195632304 0.5715955148454319
0.1489926 0.9699603758189279 0.5785246477501373
0.1509925 0.967773861079308 0.5849105838151181
0.1529924 0.9627553546690237 0.5892342480342607
0.1549923 0.958333524844504 0.5977250131462682
0.1569922 0.9523937584539077 0.6011356707643473
0.1589921 0.9504764971626491 0.6096937968697009
0.160992 0.944683536919091 0.6138062865768495
0.1629919 0.9406026994420542 0.6191703572707825
0.1649918 0.9354656930062822 0.6259321665526849
0.1669917 0.9318839544659229 0.6315283737606683
0.1689916 0.9268293816716446 0.6371705351694207
0.1709915 0.9219701433697183 0.6432181851415891
0.1729914 0.9173762229217483 0.6498348087552912
0.1749913 0.9125913765444822 0.6557042793852096
0.1769912 0.9077550303552055 0.6610222527145847
0.1789911 0.9028102822023762 0.6660929633971682
0.180991 0.8986426666120487 0.6724344772646778
0.1829909 0.8938873680546469 0.6760800853337778
0.1849908 0.8879164312245864 0.683376622913934
0.1869907 0.8834397879422596 0.6877077909396329
0.1889906 0.878169232966049 0.6938104555132648
0.1909905 0.8733960769909852 0.6998389582270119
0.1929904 0.8684921623274869 0.7044657444522913
0.1949903 0.8638507412913179 0.7100246882218161
0.1969902 0.8582850202073478 0.7153918417885186
0.1989901 0.8532485000617904 0.720947314110715
0.20099 0.8476464855937337 0.7256846392684575
0.2029899 0.8424624858893102 0.732481111581731
0.2049898 0.8376702512584417 0.7369290375624296
0.2069897 0.832068969687954 0.7412998491342144
0.2089896 0.8273118557698893 0.7475327065638546
0.2109895 0.8213521537343663 0.7524364671674233
0.2129894 0.8151212067622844 0.7581243301826768
0.2149893 0.8096424218540222 0.7619473628036022
0.2169892 0.8050298531134571 0.7672999849476315
0.2189891 0.7995649490226762 0.7728660989934564
0.220989 0.7943139418591374 0.777291296202014
0.2229889 0.7876979129115745 0.7811902647833502
0.2249888 0.782743725360327 0.7880104445225186
0.2269887 0.7765106566080219 0.7922291554644738
0.2289886 0.771008754489236 0.7964524012007005
0.2309885 0.7651850666252386 0.8011016823000723
0.2329884 0.7593017706081312 0.8065682821352514
0.2349883 0.7542046513844789 0.8118292795444124
0.2369882 0.7473464586494443 0.8158464195997724
0.2389881 0.7417623231835425 0.820014211356929
0.240988 0.7371760538616384 0.8245670344028048
0.2429879 0.7296922389036051 0.8302359395755801
0.2449878 0.7247112811326964 0.8334633201885491
0.2469877 0.7184862639837737 0.8382991651628142
0.2489876 0.7127048443810473 0.8421675018940221
0.2509875 0.7064951119380071 0.8464522948117266
0.2529874 0.6996965808175345 0.850504276321175
0.2549873 0.6942526304094162 0.8545822587086125
0.2569872 0.6887357838704788 0.8594291865515649
0.2589871 0.6827865471803378 0.8636130429472464
0.260987 0.6760226347373247 0.8666696655850387
0.2629869 0.6699156631639731 0.8711862254622919
0.2649868 0.6643206696503089 0.8744306010333789
0.2669867 0.6573133402645597 0.8784272171100062
0.2689866 0.6518298850494597 0.8827254288017428
0.2709865 0.6454546732661999 0.8868378168162154
0.2729864 0.6392007707483804 0.8909366642160648
0.2749863 0.6320919878268307 0.8946609721595614
0.2769862 0.6266306705406719 0.8978613447893208
0.2789861 0.619877786068243 0.9015635515040774
0.280986 0.6140774229415671 0.9054455114850561
0.2829859 0.606970594381863 0.9086792943366868
0.2849858 0.6008630286537425 0.9129644931029426
0.2869857 0.5943140606541599 0.91668451187391
0.2889856 0.5876983855493036 0.9191993534697465
0.2909855 0.5814588796202561 0.9227582351666876
0.2929854 0.5751461841114182 0.9265934078012332
0.2949853 0.5691471584592134 0.9307760001547912
0.2969852 0.5620012109287107 0.9325289825672607
0.2989851 0.5556571906596115 0.9361585543850555
0.300985 0.549005461562599 0.9388517348117456
0.3029849 0.5428114116931252 0.9427445692490473
0.3049848 0.5355813137450044 0.9458998167659748
0.3069847 0.5301922243022537 0.9490034532480596
0.3089846 0.52326454511782 0.9518753612470167
0.3109845 0.5165166517053839 0.9546312241587971
0.3129844 0.5099015678623915 0.9575984911154689
0.3149843 0.5033948514025735 0.9610051630013741
0.3169842 0.49740900901120894 0.9640747942716227
0.3189841 0.4887095377728006 0.965098695783095
0.320984 0.48329232868930055 0.9686424989339669
0.3229839 0.4756393312642475 0.9724230010184225
0.3249838 0.4698987280403578 0.9743270864319947
0.3269837 0.4628800196981494 0.9769727822022072
0.3289836 0.4569854719642009 0.9799379994630444
0.3309835 0.45071052727602756 0.9820971222684856
0.3329834 0.4423221469810301 0.984147526552985
0.3349833 0.43653929069088304 0.9858652720970612
0.3369832 0.4287906905803244 0.9891998969486644
0.3389831 0.4232208864906383 0.9915641889243105
0.340983 0.41577721493718256 0.9937886653993995
0.3429829 0.409202287418651 0.9957943358442767
0.3449828 0.40175007160855714 0.9985138433392995
0.3469827 0.3955678747667731 0.9999523397943315
0.3489826 0.3882076284075247 1.0021574921499041
0.3509825 0.38219009582247776 1.004592267674878
0.3529824 0.3751866602497578 1.0061638260132595
0.3549823 0.36806045351829497 1.0085214093194261
0.3569822 0.3612522619548908 1.0107625490649959
0.3589821 0.3535515530941037 1.0124418149043468
0.360982 0.3468779247166521 1.0144911617881938
0.3629819 0.34044923437500957 1.016556621448909
0.3649818 0.33363148407712295 1.018211132581177
0.3669817 0.3265394194356312 1.0195970546307793
0.3689816 0.3193140103670616 1.0214159984511648
0.3709815 0.31287535529948546 1.0224721259888017
0.3729814 0.30613929418495656 1.0239255961853289
0.3749813 0.29854051144260707 1.0262534094124929
0.3769812 0.2921548071455501 1.0278618092909386
0.3789811 0.2851125922052658 1.0285911852568121
0.380981 0.27798701490379973 1.0292505011025264
0.3829809 0.2711452067556599 1.031040445733877
0.3849808 0.2640465307943284 1.0316656564137048
0.3869807 0.2569710146067616 1.0337245578973104
0.3889806 0.25064708845491745 1.0358380734192403
0.3909805 0.2430956468725386 1.0368837070782522
0.3929804 0.23664129929115252 1.037396491813994
0.3949803 0.22943654969482796 1.039115226966291
0.3969802 0.22213777056754014 1.0396103734460878
0.3989801 0.21549025223640572 1.0410391832663817
0.40098 0.20883578032363093 1.0413956808240965
0.4029799 0.20126011157615367 1.0420738193586832
0.4049798 0.194873831299569 1.0433312386040126
0.4069797 0.18731116174396464 1.0440384754260803
0.4089796 0.18080486167301507 1.045418808018534
0.4109795 0.17359843305555234 1.0448424260564444
0.4129794 0.1669319132213022 1.045881543611497
0.4149793 0.16004941497189662 1.0462923409514862
0.4169792 0.1530354570400248 1.047846639200049
0.4189791 0.146193594516006 1.0486012178198327
0.420979 0.13934439070828628 1.0488216130819423
0.4229789 0.13112541393372787 1.0487690988877274
0.4249788 0.12517596766219158 1.0488607049225918
0.4269787 0.1180524543885243 1.049630705758432
0.4289786 0.11148663183594133 1.0491147061738038
0.4309785 0.10446499121927806 1.0504233669470724
0.4329784 0.09707155065389443 1.0504674004150276
0.4349783 0.09030143890038089 1.0505772920836598
0.4369782 0.08358654406096364 1.0512535589736633
0.4389781 0.07662517424888733 1.0511992820474925
0.440978 0.06983287414906136 1.0512242574086736
0.4429779 0.06295311880932866 1.0516544128045502
0.4449778 0.05571143714332165 1.051659746487253
0.4469777 0.04951328249717534 1.0515736216998728
0.4489776 0.042434831146461474 1.0519007621034366
0.4509775 0.03461831831932364 1.0504712902408577
0.4529774 0.028718277719855342 1.050634673550467
0.4549773 0.02275143560153841 1.050945945640314
0.4569772 0.01426571938654475 1.050649487636817
0.4589771 0.007455957266679761 1.0504827835381754
0.460977 0.0011472022374517943 1.0502630625752174
0.4629769 -0.006283616962037837 1.049807639638344
0.4649768 -0.013181521459702285 1.0493634466889297
0.4669767 -0.019470884314113597 1.049039769155125
0.4689766 -0.026858299855901803 1.0479926577979253
0.4709765 -0.03315153109732988 1.0476017616502675
0.4729764 -0.03975470162403137 1.0470928486764282
0.4749763 -0.046881219780334125 1.0463345173995153
0.4769762 -0.053407253100903725 1.0455204091495502
0.4789761 -0.060949328087499914 1.044406101293
0.480976 -0.06720839621619382 1.0439939856520692
0.4829759 -0.0744110158628505 1.0438522333765212
0.4849758 -0.08115746110747786 1.0432594269980493
0.4869757 -0.08751733867661543 1.0415136622581083
0.4889756 -0.09443204798363933 1.0415287444321446
0.4909755 -0.10157318392038084 1.0399553681312865
0.4929754 -0.10842482836660199 1.0391674390368266
0.4949753 -0.1147642576851957 1.03813973119872
0.4969752 -0.12170461774827522 1.0367091319045472
0.4989751 -0.12795309961279672 1.0353982156347574
0.500975 -0.13458509495011264 1.0345980165249866
0.5029749 -0.14137615379787358 1.0334795713203004
0.5049748 -0.14792588864706824 1.033040807995081
0.5069747 -0.15430312359607196 1.0309183902824821
0.5089746 -0.1610150644952431 1.0296149835661044
0.5109745 -0.1676665790218242 1.0285633124811693
0.5129744 -0.1744776181332745 1.0263000622332377
0.5149743 -0.1811328829403379 1.025009261395156
0.5169742 -0.18772324673922133 1.0241044397990091
0.5189741 -0.1942546675109168 1.0224404531322049
0.520974 -0.20092840633172698 1.0208985907031833
0.5229739 -0.20745166121770364 1.0196454539101985
0.5249738 -0.2138677454214994 1.0179551727943748
0.5269737 -0.22043916424225615 1.0166702037215989
0.5289736 -0.22710634908006103 1.014476164565671
0.5309735 -0.23382320904071924 1.0126530042610082
0.5329734 -0.24000561591008432 1.0115511461476492
0.5349733 -0.24640383918423153 1.0094567951896063
0.5369732 -0.25320056507803457 1.0077272934513066
0.5389731 -0.2592741335750432 1.0057640248882336
0.540973 -0.2657908576020256 1.0036422297574563
0.5429729 -0.2722543890694948 1.001379442693952
0.5449728 -0.2782713841249863 1.0000751924447502
0.5469727 -0.2851239237968656 0.9978086481708173
0.5489726 -0.29111005988050387 0.996315633129639
0.5509725 -0.29765184777824444 0.9941763169138305
0.5529724 -0.3042529109361218 0.9921788460032102
0.5549723 -0.31037449760095337 0.9898791377206533
0.5569722 -0.3170079695974868 0.9876355700097538
0.5589721 -0.3233363219711478 0.9854148054084065
0.560972 -0.3293048492719687 0.983134724235327
0.5629719 -0.335503722393136 0.9808927397218336
0.5649718 -0.34163701824349946 0.9785300371226857
0.5669717 -0.3480432331600652 0.9761493380496641
0.5689716 -0.35421011748292613 0.9738846916459696
0.5709715 -0.3606109255273453 0.9712871274129721
0.5729714 -0.3665468981083312 0.9691070736682531
0.5749713 -0.37288889273840553 0.9666441691825648
0.5769712 -0.3783534552981384 0.9642434631736367
0.5789711 -0.385045737311135 0.9607183637853373
0.580971 -0.3907718247152566 0.9583732501719235
0.5829709 -0.39703833734231186 0.9558163009666208
0.5849708 -0.402692191483823 0.9534626012400449
0.5869707 -0.40896793869940234 0.9501678811815218
0.5889706 -0.4148978812017603 0.9477815077169165
0.5909705 -0.42114061480476883 0.9452717002862071
0.5929704 -0.42721854060829506 0.9422602566487693
0.5949703 -0.4334531843831695 0.9394906324899279
0.5969702 -0.4388750056599227 0.9366360899263191
0.5989701 -0.4450885699272097 0.933608800925897
0.60097 -0.4509926512515926 0.9309311508454169
0.6029699 -0.4566281620902746 0.9280586060616332
0.6049698 -0.4626144500921309 0.9250294031728049
0.6069697 -0.46824012358292344 0.9214945192809999
0.6089696 -0.4743862125540634 0.9186351568819812
0.6109695 -0.47998718696112147 0.9157747833460241
0.6129694 -0.48579601304865827 0.9127857568027873
0.6149693 -0.49148895685913996 0.9089258677230351
0.6169692 -0.49715110357346237 0.9053498900958695
0.6189691 -0.5026341760718 0.9027743637347847
0.620969 -0.5085824992153817 0.899779738469541
0.6229689 -0.5144091559552002 0.896232529091414
0.6249688 -0.5199154283716099 0.8930084693830155
0.6269687 -0.5255255846414733 0.8894091356796001
0.6289686 -0.5311869368148623 0.8861572556491819
0.6309685 -0.5370383855904624 0.8827388356633801
0.6329684 -0.5420889606824236 0.8793874027187853
0.6349683 -0.5477304467945858 0.8757807800062113
0.6369682 -0.5533846754148347 0.8726037661586374
0.6389681 -0.5587762564468408 0.8691973152598691
0.640968 -0.5644778131962618 0.8647396378474511
0.6429679 -0.5696614433666691 0.8616295667861839
0.6449678 -0.5751560480399163 0.8579226607186929
0.6469677 -0.5806692120404889 0.8546374118949094
0.6489676 -0.5856391959156335 0.850384876726676
0.6509675 -0.5912578928330664 0.8473365651787335
0.6529674 -0.596659518488065 0.8429688099483281
0.6549673 -0.6020317106376705 0.8396411813682154
0.6569672 -0.6070163982997887 0.8357577884022035
0.6589671 -0.6123386934411802 0.831560843757092
0.660967 -0.6176640739833844 0.827716715832846
0.6629669 -0.6225242369495612 0.8242052550845647
0.6649668 -0.627876734492823 0.8200826928832039
0.6669667 -0.6326403784648288 0.8164138376890052
0.6689666 -0.6382700991630446 0.8120427734510914
0.6709665 -0.6432245089943802 0.8082384500754088
0.6729664 -0.648293538521299 0.8042274698250966
0.6749663 -0.6533105154077705 0.8000727878844218
0.6769662 -0.6583984398841757 0.7962140300852303
0.6789661 -0.6634289208526185 0.7918374964826744
0.680966 -0.6682625749348441 0.7876160490252528
0.6829659 -0.6731709346484985 0.783389275405278
0.6849658 -0.6781275402474795 0.779309281012149
0.6869657 -0.6831057713975198 0.7753377313719203
0.6889656 -0.6879399959063539 0.7706786224941437
0.6909655 -0.6928051625463939 0.7664867539670129
0.6929654 -0.697680818229922 0.7621633346695604
0.6949653 -0.7024598229226107 0.7578844325778581
0.6969652 -0.7074066160358151 0.7537432513993868
0.6989651 -0.7117898145279609 0.7494762438893883
0.700965 -0.7167473613108856 0.7447918369156175
0.7029649 -0.7213778980888721 0.7403662725461613
0.7049648 -0.7257073475678939 0.7360045422927689
0.7069647 -0.7305733314434509 0.7314074606573977
0.7089646 -0.7350477918282418 0.727057198899233
0.7109645 -0.7396791593265165 0.7223755072143965
0.7129644 -0.7442715994007466 0.7178630787169287
0.7149643 -0.7488759893207493 0.7133614316646754
0.7169642 -0.7532979866718016 0.7089447497205337
0.7189641 -0.7575121907073291 0.7037440286350519
0.720964 -0.7620699670006044 0.6995178183860077
0.7229639 -0.7664387088700426 0.6947087932235432
0.7249638 -0.7706392147376347 0.6898378901741188
0.7269637 -0.7749776176547283 0.6853339160884806
0.7289636 -0.7795091764313291 0.6803100609934588
0.7309635 -0.7838540276369488 0.6757293850308115
0.7329634 -0.7878454031160362 0.6707583737357723
0.7349633 -0.792380729342171 0.6660274681236634
0.7369632 -0.7962005093683534 0.6611008773584525
0.7389631 -0.8006407917538443 0.656184337860707
0.740963 -0.804664717718471 0.6514262510613884
0.7429629 -0.808654739704311 0.6465345777037574
0.7449628 -0.8124617245415968 0.6414508970643393
0.7469627 -0.8165482375285756 0.6367618722716946
0.7489626 -0.8207432150809302 0.6314381928178805
0.7509625 -0.8248350162102778 0.6266256520493927
0.7529624 -0.8284760953282504 0.6214066661314873
0.7549623 -0.83225225639595 0.616333183888482
0.7569622 -0.8361813928929134 0.6113627289490944
0.7589621 -0.8401173165398654 0.6060176679046894
0.760962 -0.843850497358913 0.6010281630179494
0.7629619 -0.8478959796137651 0.5958644579055903
0.7649618 -0.851316045195043 0.5906408643645668
0.7669617 -0.8548936593950094 0.5858311321113314
0.7689616 -0.8588873926217606 0.5805481107519421
0.7709615 -0.8625809844212031 0.57506776273107
0.7729614 -0.8662102295065436 0.5700241612795023
0.7749613 -0.8693939556491006 0.5647252920190807
0.7769612 -0.8730721374550143 0.5592544346932877
0.7789611 -0.8768404933078574 0.5543360646985311
0.780961 -0.8802751579557286 0.5490065132316087
0.7829609 -0.8838125019856793 0.5436012753410158
0.7849608 -0.8870210177064737 0.5380526010529962
0.7869607 -0.890410376603533 0.5327808393534077
0.7889606 -0.8940636907509472 0.5273124455655332
0.7909605 -0.8970587802239771 0.522049817544883
0.7929604 -0.9002221541342792 0.516540894444827
0.7949603 -0.9035950594637188 0.5110476111009992
0.7969602 -0.9071959999624498 0.5054517595683684
0.7989601 -0.910514612454246 0.5000939386534936
0.80096 -0.9129939948330825 0.4943492510715099
0.8029599 -0.9163131128026405 0.48907279083092325
0.8049598 -0.9193073210846942 0.4835854907146577
0.8069597 -0.9222298658420515 0.47787127659145145
0.8089596 -0.9254183653864282 0.47223589351290507
0.8109595 -0.9282914774293359 0.4666188145105352
0.8129594 -0.9313127804159084 0.46094635405800394
0.8149593 -0.9340527040482551 0.45536306358605905
0.8169592 -0.9369002992474584 0.4499182234771868
0.8189591 -0.940065647670588 0.44394852941456137
0.820959 -0.942898193834726 0.43848009626955387
