! Created with skrf 1.8.0 (http://scikit-rf.org).
# GHz S RI R 50.0 
!freq ReS11 ImS11
0.001 -1.0000028886659031 -2.7231889740735038e-05
0.0029999 -1.0000569445434557 -0.00015237632925637484
0.0049998 -1.0000973938223134 -0.000347059255774565
0.0069997 -1.0002126534934268 -0.0007416346591005152
0.0089996 -1.0002917105841134 -0.0014124791765044442
0.0109995 -1.0003766282862352 -0.002332633362563119
0.0129994 -1.0004602260329019 -0.003524869471569575
0.0149993 -1.000490335037747 -0.00505855149809048
0.0169992 -1.0004268917842878 -0.007029691275778127
0.0189991 -1.0003396422844542 -0.009171675899968229
0.020999 -1.0003237121944883 -0.011794111059460016
0.0229989 -1.000001974663346 -0.014767502615135597
0.0249988 -0.9997112121666587 -0.017869838578490088
0.0269987 -0.9994176695324934 -0.021544164036473884
0.0289986 -0.9989240842712144 -0.025301394717375914
0.0309985 -0.9983581964782315 -0.02958279112582546
0.0329984 -0.9977521808754605 -0.033721046040724845
0.0349983 -0.9971501391422419 -0.038791072756508144
0.0369982 -0.9964073647561432 -0.04327328615364548
0.0389981 -0.9954594487775947 -0.04875803199604062
0.040998 -0.9946808066818824 -0.05409074975454395
0.0429979 -0.9939067748741078 -0.05947693846042357
0.0449978 -0.9928698812852879 -0.06522021125956748
0.0469977 -0.9915727780528256 -0.07059008827713506
0.0489976 -0.9906888005036445 -0.07649161434272173
0.0509975 -0.9895137863651764 -0.08227036049831893
0.0529974 -0.9886920485035724 -0.08761856435507101
0.0549973 -0.9865781306162353 -0.09454024872928429
0.0569972 -0.9857827067805713 -0.0996525989627382
0.0589971 -0.984730783167217 -0.10614270382879068
0.060997 -0.9831371292984779 -0.1121148597366734
0.0629969 -0.981891332537042 -0.11827204563104077
0.0649968 -0.981177612933702 -0.12500169744891942
0.0669967 -0.9792557487327742 -0.13174922665148037
0.0689966 -0.977808502551115 -0.13757379995922925
0.0709965 -0.9772283800406529 -0.14385744146928037
0.0729964 -0.9750789430766749 -0.1502049412127961
0.0749963 -0.9736966919706299 -0.15654988973832185
0.0769962 -0.9724361804263821 -0.1625763465410497
0.0789961 -0.9710187238416268 -0.16926320001966266
0.080996 -0.9691109120820697 -0.17514147473882316
0.0829959 -0.9675250086709777 -0.18161327949140907
0.0849958 -0.9665393763862176 -0.18724872303565493
0.0869957 -0.9648571854215746 -0.19409227729014375
0.0889956 -0.9635219350104539 -0.20058417457992106
0.0909955 -0.961568917277783 -0.20702069430482503
0.0929954 -0.9597857596984156 -0.21362484358275338
0.0949953 -0.9583609655007149 -0.21859938620831806
0.0969952 -0.9572686683712226 -0.22504503489903255
0.0989951 -0.9551185640425975 -0.23127639746285814
0.100995 -0.9532398861295313 -0.23727446607965424
0.1029949 -0.9514151886194449 -0.2445088426005876
0.1049948 -0.9502053542263273 -0.25020891025809033
0.1069947 -0.9482723630889449 -0.2563154858523092
0.1089946 -0.9468058585911469 -0.2624070554314265
0.1109945 -0.9446336216224471 -0.2686361832564374
0.1129944 -0.9428994201277041 -0.274152430212828
0.1149943 -0.9412650227182859 -0.2808225231975565
0.1169942 -0.9393281341197709 -0.2867192203001113
0.1189941 -0.9366410675540673 -0.2935154677467584
0.120994 -0.9346110214497507 -0.2990033413778898
0.1229939 -0.9336178369994238 -0.3048895221317396
0.1249938 -0.9309970193707825 -0.3115130676579465
0.1269937 -0.9292859044987167 -0.31687309139532455
0.1289936 -0.9271027525713378 -0.32343299112301405
0.1309935 -0.924369349531094 -0.32841510745604685
0.1329934 -0.9235005994611685 -0.3348880782088677
0.1349933 -0.9207132021521784 -0.34066490278957573
0.1369932 -0.9188327006869438 -0.3461659730126499
0.1389931 -0.9165307249516669 -0.3528791281046188
0.140993 -0.9149378441950697 -0.3581482142932474
0.1429929 -0.9124598909936757 -0.3648212501253769
0.1449928 -0.9095721920715879 -0.36964874067400894
0.1469927 -0.9078584737012622 -0.37520976355617414
0.1489926 -0.9062135349327485 -0.3808045777339792
0.1509925 -0.9024508854552206 -0.3874190311102621
0.1529924 -0.9011070484754904 -0.3930941665702208
0.1549923 -0.8990483249198824 -0.3982747228409755
0.1569922 -0.8963806359890721 -0.4044873844027784
0.1589921 -0.8938580986072989 -0.4088867114028878
0.160992 -0.8908212068057765 -0.41574156587131184
0.1629919 -0.8884804463580661 -0.42180827065502396
0.1649918 -0.8863028502487766 -0.4264471213576293
0.1669917 -0.8837284344972648 -0.4323795951576518
0.1689916 -0.8818721637392966 -0.43874163450521275
0.1709915 -0.8780210313262102 -0.4434199960183356
0.1729914 -0.8763783852479803 -0.44892631521286763
0.1749913 -0.8733325471678206 -0.45479147885452004
0.1769912 -0.8705307547484936 -0.4600114445469669
0.1789911 -0.8681712353983164 -0.46560964094905394
0.180991 -0.8650610984076371 -0.4710968983376428
0.1829909 -0.8623447878811894 -0.47752424001159977
0.1849908 -0.8605299355892514 -0.4821399450521603
0.1869907 -0.8566323888381828 -0.4887896996262611
0.1889906 -0.8543711576180208 -0.49356723153811427
0.1909905 -0.8506068963662676 -0.4988431971965908
0.1929904 -0.8485265212525708 -0.5044659650458482
0.1949903 -0.8456090093460855 -0.5094204722377682
0.1969902 -0.8431206583759725 -0.5145063341928976
0.1989901 -0.8396005155677706 -0.5198088215128518
0.20099 -0.8359975744680549 -0.5253218037121519
0.2029899 -0.8340535301681921 -0.5312470299738083
0.2049898 -0.8301489140751531 -0.5362604849343392
0.2069897 -0.82728939213293 -0.5416573316449588
0.2089896 -0.8241252859999081 -0.5460642563794537
0.2109895 -0.8212867873011591 -0.5513593469246029
0.2129894 -0.8176497291449976 -0.5560867296051102
0.2149893 -0.8155786671753511 -0.5623656015760761
0.2169892 -0.8112404434760603 -0.5668347309219554
0.2189891 -0.8089921044470406 -0.5722607217328686
0.220989 -0.8044448021631468 -0.5778289323596243
0.2229889 -0.8014320480835426 -0.5832505886042947
0.2249888 -0.798436350512121 -0.5875092714269514
0.2269887 -0.7951234286295628 -0.5928724904097692
0.2289886 -0.7916506674268403 -0.5979814523177335
0.2309885 -0.7883822845032313 -0.601897642145825
0.2329884 -0.7852472646664175 -0.6074722850428885
0.2349883 -0.7815427593440769 -0.6121374845062363
0.2369882 -0.7778657282080649 -0.6171396455349822
0.2389881 -0.7745802589883469 -0.622233920310792
0.240988 -0.7709103742422032 -0.6277563635762586
0.2429879 -0.7671493071864617 -0.6323363634189773
0.2449878 -0.7633741190293529 -0.6373785649675651
0.2469877 -0.7606235682146555 -0.6417195424640565
0.2489876 -0.7559725330764304 -0.6475002074465843
0.2509875 -0.7533313210221998 -0.6519389772352611
0.2529874 -0.7489825052870481 -0.656329527717453
0.2549873 -0.7457937875993791 -0.6613849704559097
0.2569872 -0.7415825461211512 -0.6663981892968027
0.2589871 -0.7372867164840429 -0.6708521275404227
0.260987 -0.7341578524786856 -0.6753733878924165
0.2629869 -0.7300695754554751 -0.6810725636195525
0.2649868 -0.7258620705037407 -0.6856816561008172
0.2669867 -0.7224052472708227 -0.6898184917348315
0.2689866 -0.7182749719868433 -0.6934974697947146
0.2709865 -0.7145289839935721 -0.6989242297425393
0.2729864 -0.710642827870753 -0.7026147447654246
0.2749863 -0.7066171472271088 -0.7074748040264222
0.2769862 -0.7024629120097255 -0.7127635550600643
0.2789861 -0.698051296873004 -0.7174559230462051
0.280986 -0.6939716301823785 -0.7215914523666095
0.2829859 -0.690389006925395 -0.7266689050874668
0.2849858 -0.6859430527198433 -0.7300033248782528
0.2869857 -0.6818805913578418 -0.7345854982580724
0.2889856 -0.6780450127754799 -0.7389849353890057
0.2909855 -0.6738976301357528 -0.7438714394033462
0.2929854 -0.6692105569444581 -0.7478340751134012
0.2949853 -0.6650312613445305 -0.7515924170747695
0.2969852 -0.6603089845625745 -0.7568378127374092
0.2989851 -0.6562141115601422 -0.760452895767423
0.300985 -0.6516238306900367 -0.7650340340454828
0.3029849 -0.6463671886415806 -0.7690684048590892
0.3049848 -0.6434083872578711 -0.7730731308267061
0.3069847 -0.6383359167606883 -0.7781663626736373
0.3089846 -0.6343450659304043 -0.7821015327178233
0.3109845 -0.6291277449782151 -0.7855473938936468
0.3129844 -0.6250680681725079 -0.790010714594118
0.3149843 -0.6208869756632759 -0.7943249802232328
0.3169842 -0.61536070191042 -0.7977404356541143
0.3189841 -0.6114768694565799 -0.8025779089685551
0.320984 -0.6075890643230251 -0.8063592753405463
0.3229839 -0.6017943270893482 -0.8096223812749778
0.3249838 -0.5981232009783342 -0.8138099853670551
0.3269837 -0.592383323804771 -0.8183218189337395
0.3289836 -0.5881828569139299 -0.8220074278075933
0.3309835 -0.5835275109326142 -0.8262428844146941
0.3329834 -0.5790981046051259 -0.830649933858975
0.3349833 -0.5743447086876913 -0.8346483668668878
0.3369832 -0.5694567648768057 -0.8379255229983215
0.3389831 -0.5643475923899337 -0.8420642865746342
0.340983 -0.5596336565653843 -0.8452714353697974
0.3429829 -0.5547574673077325 -0.8491253318599307
0.3449828 -0.5498218550303599 -0.8532518061330755
0.3469827 -0.5449327704160641 -0.8558679243373671
0.3489826 -0.5403680881334243 -0.8597995872970672
0.3509825 -0.5350623876029444 -0.8637103926098688
0.3529824 -0.5290176617605951 -0.867686273403353
0.3549823 -0.5241810156485797 -0.8697849269922528
0.3569822 -0.5191291400863052 -0.8735183309564776
0.3589821 -0.5148119021067545 -0.8782381495265142
0.360982 -0.5097720174904415 -0.881139016192756
0.3629819 -0.5039714857258584 -0.8838083106340966
0.3649818 -0.4996447639241966 -0.8881686223200838
0.3669817 -0.4942039318135409 -0.8920500180831606
0.3689816 -0.48912973914612995 -0.8953588485696174
0.3709815 -0.48270802691411685 -0.8985886601129843
0.3729814 -0.4783787497813539 -0.9024738007725186
0.3749813 -0.4732664373010199 -0.9047686721119778
0.3769812 -0.4674990143052741 -0.9078937307998652
0.3789811 -0.4616998048380204 -0.911521635284011
0.380981 -0.4577927215108367 -0.915250639103999
0.3829809 -0.4523411970141017 -0.9177067743749283
0.3849808 -0.4469516921379418 -0.9213474554708448
0.3869807 -0.44027741046784397 -0.923439514627658
0.3889806 -0.43527590827937895 -0.926632630786418
0.3909805 -0.42993797840720843 -0.9296209607068113
0.3929804 -0.4249389154321185 -0.933256738729551
0.3949803 -0.419667597723278 -0.9358396164994507
0.3969802 -0.4141589312774554 -0.9389998416671801
0.3989801 -0.40813135987299315 -0.9415114763031212
0.40098 -0.4031477914779527 -0.9454135135757343
0.4029799 -0.3978089360097147 -0.9482830025611922
0.4049798 -0.3914642963675355 -0.9504171329923631
0.4069797 -0.38592611812698846 -0.9533115821402962
0.4089796 -0.3806167977275541 -0.955437917408689
0.4109795 -0.37482003265431363 -0.9594996744409144
0.4129794 -0.3689138049552998 -0.9620839193525833
0.4149793 -0.36324320598211124 -0.9641580633818049
0.4169792 -0.35721396570460795 -0.9664496908214708
0.4189791 -0.35114706947285435 -0.9684463482858814
0.420979 -0.3458747043798226 -0.9713331879593157
0.4229789 -0.34069195908805616 -0.9753336267189667
0.4249788 -0.33447050551300367 -0.977366845590579
0.4269787 -0.32903510115197787 -0.9796147255699549
0.4289786 -0.3225129778781191 -0.9816071259538542
0.4309785 -0.31730690770368497 -0.9844430912763635
0.4329784 -0.3112879717199238 -0.9871422198124447
0.4349783 -0.30512048295770017 -0.9887623195244736
0.4369782 -0.29932943736672624 -0.9907063529491288
0.4389781 -0.2937185489427504 -0.9932969549898
0.440978 -0.2876816831594083 -0.9957253740257375
0.4429779 -0.28204821670772934 -0.9971812501610534
0.4449778 -0.27533027885781314 -0.9995730513729876
0.4469777 -0.26916993895845487 -1.0022762589542011
0.4489776 -0.262743172260768 -1.0034781607546037
0.4509775 -0.2578947687808783 -1.0065912495017897
0.4529774 -0.2513834289878465 -1.009103619720974
0.4549773 -0.2451271279222439 -1.0097124359369116
0.4569772 -0.23927904842138964 -1.0120116922192008
0.4589771 -0.23318055176930222 -1.0137829250903088
0.460977 -0.22672363384104788 -1.0150711219289277
0.4629769 -0.22097733617684323 -1.017734420847041
0.4649768 -0.21476101307988305 -1.0190693804057749
0.4669767 -0.2082097625517073 -1.0216529904091551
0.4689766 -0.20267090835668783 -1.0230869506205824
0.4709765 -0.1969032942022405 -1.0253470109479852
0.4729764 -0.19019995730565703 -1.0267015439569351
0.4749763 -0.18471461378128737 -1.0284507587584222
0.4769762 -0.17759464641552536 -1.0297966993566177
0.4789761 -0.17212557122761585 -1.0314052005430798
0.480976 -0.16551893087281805 -1.0323888540737969
0.4829759 -0.15906785811710072 -1.033944251257347
0.4849758 -0.15274055750665658 -1.0350589304792057
0.4869757 -0.14597382566092693 -1.0361873219130637
0.4889756 -0.13973416306123326 -1.037681142253069
0.4909755 -0.13374938566324768 -1.0392694833882758
0.4929754 -0.12750700478058075 -1.0405422104522284
0.4949753 -0.12101637133464777 -1.0413046430917166
0.4969752 -0.11446298416677902 -1.0441166160113544
0.4989751 -0.10785331233332507 -1.0444950678332785
0.500975 -0.10156023476075723 -1.0464805627256686
0.5029749 -0.09545477281362708 -1.0461073123155802
0.5049748 -0.0887773957646853 -1.04787073574088
0.5069747 -0.0820962540194666 -1.0488855266059665
0.5089746 -0.076452650167665 -1.0497269281539732
0.5109745 -0.0688699306621297 -1.0503342952422872
0.5129744 -0.06343459572821616 -1.0515923140174075
0.5149743 -0.05736328308061374 -1.0523061834002194
0.5169742 -0.05014949236203878 -1.052237155670701
0.5189741 -0.04425874693869546 -1.0534472664536123
0.520974 -0.037213994965954435 -1.053975901072255
0.5229739 -0.030977562725179604 -1.0544319518223446
0.5249738 -0.024265543746749295 -1.0554883834621511
0.5269737 -0.017706251756557455 -1.0559525839455834
0.5289736 -0.0110475537953513 -1.0565121050358208
0.5309735 -0.004880718207211074 -1.0569320210574769
0.5329734 0.002047024906752015 -1.0573831197174461
0.5349733 0.009349552415870974 -1.058128898494154
0.5369732 0.015251560128866734 -1.0582268457752235
0.5389731 0.022218264949085895 -1.0588427046928388
0.540973 0.028352864614330828 -1.0589713573565296
0.5429729 0.03491498744270721 -1.060014065564732
0.5449728 0.041747244602890504 -1.0599476323324393
0.5469727 0.047824886933843694 -1.0602721745972614
0.5489726 0.05495441094055602 -1.059223702043589
0.5509725 0.06131853804053203 -1.0599559708993704
0.5529724 0.06796025081469016 -1.0592584090874875
0.5549723 0.07455009412451459 -1.059319472641607
0.5569722 0.08102724506578608 -1.0598473131424262
0.5589721 0.08765392627403783 -1.060074885687779
0.560972 0.09505790794155716 -1.059276854193153
0.5629719 0.10154519135481284 -1.0595589273881512
0.5649718 0.1078366507120951 -1.0589977337770187
0.5669717 0.11431427298595366 -1.0589700102131836
0.5689716 0.12151574816304968 -1.058185578735512
0.5709715 0.12813412663301338 -1.05851401725802
0.5729714 0.1348359869451069 -1.057554995434869
0.5749713 0.14146684550935346 -1.0574022899253543
0.5769712 0.1480331761701732 -1.056928764856002
0.5789711 0.1549854840721863 -1.0569219641478054
0.580971 0.16140066081806426 -1.0562955560616596
0.5829709 0.16769658943099797 -1.0550653344726677
0.5849708 0.17522448171007846 -1.0541883985943012
0.5869707 0.18213874326745944 -1.0536660379483642
0.5889706 0.1884972069676978 -1.0528685334741668
0.5909705 0.1947360975940377 -1.05197430886291
0.5929704 0.20078149761125083 -1.0514481857756204
0.5949703 0.20818167559595305 -1.0504160588910636
0.5969702 0.2154151239863502 -1.049818198479071
0.5989701 0.2215863072815508 -1.048588432095389
0.60097 0.2283494866703373 -1.048108427932082
0.6029699 0.23539246245369405 -1.0470087910077148
0.6049698 0.24223953539835502 -1.0457714834788443
0.6069697 0.2490110928606368 -1.045089649807834
0.6089696 0.25519930676494734 -1.0437048336805774
0.6109695 0.26158578569323976 -1.0431836336581715
0.6129694 0.26842529043767627 -1.0414583807731608
0.6149693 0.27532057765263573 -1.0402603762494431
0.6169692 0.28223050666655825 -1.0383812144327944
0.6189691 0.2891003242660476 -1.0362976169789704
0.620969 0.2952810310443661 -1.0347114889267766
0.6229689 0.3019839684715937 -1.0336477846732732
0.6249688 0.3083472845167148 -1.03190522701606
0.6269687 0.3151704204473558 -1.0302694688275826
0.6289686 0.3219565596168905 -1.0288917587112654
0.6309685 0.32846985677707596 -1.0268607633552371
0.6329684 0.33514533366100413 -1.025421146683289
0.6349683 0.3419769017748821 -1.0234572394850896
0.6369682 0.34852015884617643 -1.022200112629811
0.6389681 0.3550201162193962 -1.0201825920172063
0.640968 0.36180389672436536 -1.0184489268439518
0.6429679 0.3684668602687995 -1.0168920094736977
0.6449678 0.3752811275523653 -1.014128564314696
0.6469677 0.3824211935729943 -1.011897017258109
0.6489676 0.38794059315773216 -1.0103477665127656
0.6509675 0.39479458532949196 -1.0079479058022474
0.6529674 0.401269284382579 -1.0053402335110695
0.6549673 0.40803390039543463 -1.0025113420098883
0.6569672 0.41429916699242286 -1.0006543852772898
0.6589671 0.42083798342393175 -0.9983351906543237
0.660967 0.42752890082618056 -0.9958909620763523
0.6629669 0.43462498686243467 -0.9939669877083872
0.6649668 0.44073153027163164 -0.9911912305042079
0.6669667 0.44676351447623364 -0.9882979030142441
0.6689666 0.45297946140377054 -0.9861061124482591
0.6709665 0.45926976447858836 -0.9843807027328908
0.6729664 0.4670579522224379 -0.9806215067595696
0.6749663 0.47315580753666664 -0.9797091471561586
0.6769662 0.4802150739500525 -0.9758958226657073
0.6789661 0.48672183393097057 -0.9730020085129328
0.680966 0.492547775109014 -0.9706683797812641
0.6829659 0.49889759813887563 -0.9673049453038896
0.6849658 0.5055957255092897 -0.9646308032260352
0.6869657 0.5118379077331304 -0.9615218257610069
0.6889656 0.518313000418162 -0.958826730129441
0.6909655 0.5248629134564241 -0.9553479712011086
0.6929654 0.5309714140187798 -0.952777762644748
0.6949653 0.5372958750536574 -0.9492244067006281
0.6969652 0.5430038297619614 -0.9461540451733041
0.6989651 0.5493872166839092 -0.9425784917058484
0.700965 0.5559084712657372 -0.9391635380483407
0.7029649 0.5616933128423557 -0.935679122783995
0.7049648 0.5684152824313348 -0.9326908222662365
0.7069647 0.5749197078985633 -0.9290993508821458
0.7089646 0.5809638362527263 -0.9253959960347833
0.7109645 0.5868224474069119 -0.9219993350941248
0.7129644 0.592773124785382 -0.9186727507264414
0.7149643 0.5992506729880958 -0.9152578203056038
0.7169642 0.60509539817151 -0.9107783562714084
0.7189641 0.611390485281193 -0.9075646675872535
0.720964 0.6174385865570209 -0.903902614084621
0.7229639 0.6231265138615735 -0.9004193149011066
0.7249638 0.6292213714050373 -0.8963433780569304
0.7269637 0.6356602467007492 -0.8927669192391607
0.7289636 0.6413572005269248 -0.8894347092331671
0.7309635 0.6477025130190899 -0.8846497545046809
0.7329634 0.6534637286009358 -0.8807666832903774
0.7349633 0.6590228453288496 -0.876761926612633
0.7369632 0.664688686933483 -0.8725074038619239
0.7389631 0.6706146082803768 -0.8681323095574338
0.740963 0.6767777820873601 -0.8637565200279955
0.7429629 0.6826355775769294 -0.8594696818506905
0.7449628 0.6882314048530626 -0.8558323038253877
0.7469627 0.6937269000101841 -0.8509256835728655
0.7489626 0.6995911073376221 -0.8469789788579831
0.7509625 0.7057599471549595 -0.8426864299642801
0.7529624 0.710940861778044 -0.8377162920637737
0.7549623 0.7165677981728735 -0.8336570088633212
0.7569622 0.7223899464339895 -0.8287701300703962
0.7589621 0.7283051757050013 -0.8247866353579278
0.760962 0.7344016085491051 -0.8200705458203126
0.7629619 0.7401246866824293 -0.8158382345100185
0.7649618 0.7454507938267363 -0.8108846383006294
0.7669617 0.7503414373566755 -0.8064284432299514
0.7689616 0.7567257260796851 -0.801394167075034
0.7709615 0.7618234013457414 -0.7966594513346424
0.7729614 0.7668048745320539 -0.7918906316856336
0.7749613 0.7723425734975742 -0.7864731690368527
0.7769612 0.7774465467724381 -0.7816975730597684
0.7789611 0.7832065758641696 -0.776532094726095
0.780961 0.7883791533660006 -0.771605125970073
0.7829609 0.7934820244040136 -0.7665350795194003
0.7849608 0.7986863435853481 -0.7616523646299929
0.7869607 0.8038280485397601 -0.7560312690957284
0.7889606 0.8089626604788575 -0.7502569266582416
0.7909605 0.8133324598502999 -0.7453106205827261
0.7929604 0.8189821963270822 -0.7399634646061781
0.7949603 0.8240999063030701 -0.7353951785022904
0.7969602 0.8292426488678716 -0.7296815562621545
