! Created with skrf 1.8.0 (http://scikit-rf.org).
# GHz S RI R 50.0 
!freq ReS11 ImS11
0.001 -0.9999907330691707 0.0020320960971976915
0.0029999 -1.0007582774687473 0.005936997249348014
0.0049998 -1.002386764863182 0.009611741887249114
0.0069997 -1.0047238850254738 0.013222798347452325
0.0089996 -1.007864145775672 0.016439513893292512
0.0109995 -1.0116592640539328 0.019245736967335614
0.0129994 -1.016268866261774 0.021730891256160123
0.0149993 -1.021324883302584 0.023590835554792633
0.0169992 -1.0267418603859688 0.0249486065784571
0.0189991 -1.032670534179727 0.0256614129242812
0.020999 -1.0390775309427465 0.025784393115714455
0.0229989 -1.0454102426195093 0.025374479929769045
0.0249988 -1.051879561542164 0.02416027069663179
0.0269987 -1.0590323144961913 0.022139964466567408
0.0289986 -1.0658859614288563 0.020053975782923172
0.0309985 -1.0729747022313951 0.017310001848228174
0.0329984 -1.0795061244163224 0.01356349768381937
0.0349983 -1.0870029378231925 0.009337206347509897
0.0369982 -1.093181974377165 0.004954356453997166
0.0389981 -1.0998603411440322 -0.00017181249454345515
0.040998 -1.106206538243911 -0.005446571295740554
0.0429979 -1.1119304412445772 -0.011365295563809996
0.0449978 -1.1185238262841288 -0.0177603759025316
0.0469977 -1.1241164915087525 -0.024000383852524676
0.0489976 -1.12934497458225 -0.03135430582099746
0.0509975 -1.1345811585995946 -0.03775395640143919
0.0529974 -1.138954393858589 -0.04497243536243539
0.0549973 -1.1440099633001932 -0.05369225163469793
0.0569972 -1.1483757997863289 -0.06032922181987621
0.0589971 -1.152053172985799 -0.06814791539135279
0.060997 -1.1562690736198364 -0.07655224921379614
0.0629969 -1.159509645116712 -0.08482826644303573
0.0649968 -1.1627262252204231 -0.09363756332170053
0.0669967 -1.1655526980502984 -0.10245447954444231
0.0689966 -1.1687583327607167 -0.11083013174814799
0.0709965 -1.171026985841678 -0.11909217953120754
0.0729964 -1.1734258446249828 -0.12821922206327618
0.0749963 -1.175283855999089 -0.13699993692661108
0.0769962 -1.176837264720561 -0.145246433329597
0.0789961 -1.1788625289628152 -0.15460753797453847
0.080996 -1.1806764233366716 -0.16262225140763903
0.0829959 -1.1812808341921697 -0.17212303967568773
0.0849958 -1.182591604257785 -0.18079715442358607
0.0869957 -1.1835827187743546 -0.19027733988193762
0.0889956 -1.1835168030864283 -0.19818506142394143
0.0909955 -1.185018080444225 -0.2071577514766409
0.0929954 -1.1856536752963616 -0.21636143808888078
0.0949953 -1.1849213354885089 -0.22433465409397402
0.0969952 -1.1859686019415 -0.23321880500786676
0.0989951 -1.1850045449684952 -0.24368402386012133
0.100995 -1.1865415263296246 -0.2512464431136368
0.1029949 -1.1851719502114473 -0.2604272480993504
0.1049948 -1.184252530725924 -0.26862872433819496
0.1069947 -1.1832870854004334 -0.27745724663743887
0.1089946 -1.182746561206822 -0.2852821489563719
0.1109945 -1.1816908356328113 -0.29436428958761157
0.1129944 -1.1815330898505474 -0.3030663353613261
0.1149943 -1.1795790369712822 -0.31198053452608776
0.1169942 -1.1789090837818401 -0.3198990341160701
0.1189941 -1.1767376767988642 -0.32885594584026073
0.120994 -1.1754982454153757 -0.33783067018766044
0.1229939 -1.1738579488398915 -0.34527630844183205
0.1249938 -1.1721049552151075 -0.35375818430158257
0.1269937 -1.1702575929218968 -0.3610768938541132
0.1289936 -1.1684058109807236 -0.3706033092865393
0.1309935 -1.167191191116937 -0.3783040982683197
0.1329934 -1.1649618902207566 -0.38503576410900486
0.1349933 -1.1622471631195628 -0.39376948554392766
0.1369932 -1.1600443151874156 -0.4026651431504641
0.1389931 -1.1577472494592547 -0.410418121685444
0.140993 -1.1555284680195805 -0.4171784775033713
0.1429929 -1.152784812067574 -0.4262657506524784
0.1449928 -1.1501353077692233 -0.43365150439724964
0.1469927 -1.14816846851176 -0.4417973920391282
0.1489926 -1.1462815643094262 -0.4494742464513273
0.1509925 -1.1421774544099943 -0.458248365986899
0.1529924 -1.1403679868293761 -0.4649874067616236
0.1549923 -1.1379734009973117 -0.4723398919361631
0.1569922 -1.1352042016840165 -0.4805160810965858
0.1589921 -1.13067868788423 -0.4880486024037607
0.160992 -1.129220647261478 -0.49626934137474704
0.1629919 -1.1253184544173533 -0.5038147257487005
0.1649918 -1.1218372538533161 -0.511062872995674
0.1669917 -1.118854644352954 -0.5184831300736668
0.1689916 -1.115479222728345 -0.5246813571087308
0.1709915 -1.1110702988214722 -0.5327445802917536
0.1729914 -1.1079611015167243 -0.5402420918353172
0.1749913 -1.10526856085099 -0.5485156340457509
0.1769912 -1.1018926894782588 -0.5542661430884809
0.1789911 -1.098356510402358 -0.5622995728153614
0.180991 -1.093590995538715 -0.569256609627762
0.1829909 -1.090618022710883 -0.5771730177661594
0.1849908 -1.0859648800206267 -0.5820669471608761
0.1869907 -1.080715540574169 -0.5895832121768405
0.1889906 -1.0784887723315846 -0.596939883400663
0.1909905 -1.0740880751909143 -0.6037976897584302
0.1929904 -1.0704486970316576 -0.6114163547517466
0.1949903 -1.0656650756766117 -0.6174482465815948
0.1969902 -1.0622357273332481 -0.6240717847940123
0.1989901 -1.0580767862582738 -0.6298245480249904
0.20099 -1.0539383115971974 -0.6368618771203669
0.2029899 -1.04879609823179 -0.6437515095483554
0.2049898 -1.0446053552738892 -0.6505533282777273
0.2069897 -1.0413741411135589 -0.6565647052481186
0.2089896 -1.037609714565433 -0.6626390292572196
0.2109895 -1.032663033004427 -0.669570341256661
0.2129894 -1.026939694658104 -0.6765724327559947
0.2149893 -1.0236212363507164 -0.6833157140350832
0.2169892 -1.0190123770749913 -0.6892993401860958
0.2189891 -1.0139101977133633 -0.6961272648222778
0.220989 -1.00933559398352 -0.7021000495343178
0.2229889 -1.005153174122772 -0.7069002414398146
0.2249888 -0.9989366171063325 -0.7131509548094497
0.2269887 -0.9956906173093717 -0.7204893899273342
0.2289886 -0.9910377270540971 -0.7265035925456308
0.2309885 -0.9857988118471298 -0.7330347582478922
0.2329884 -0.9806002711608314 -0.7384974216825095
0.2349883 -0.9758975346702321 -0.7448372796560906
0.2369882 -0.970144022891859 -0.7504333216686702
0.2389881 -0.9658694932912963 -0.7561642176533663
0.240988 -0.9602198289742389 -0.7619404622592156
0.2429879 -0.9549277200635925 -0.7687972450508084
0.2449878 -0.9509032870150023 -0.7740830125571869
0.2469877 -0.9453429483860805 -0.7795542864497391
0.2489876 -0.9405148435105604 -0.7860532535931671
0.2509875 -0.9355233773583056 -0.791006140636251
0.2529874 -0.9290704296153017 -0.7959704927016766
0.2549873 -0.9237879291660762 -0.8009301948315826
0.2569872 -0.9197919266480566 -0.8074870177801448
0.2589871 -0.913622313486714 -0.8131814978390912
0.260987 -0.9074942275529033 -0.8184966552659229
0.2629869 -0.9027127797655453 -0.8238953513391405
0.2649868 -0.8972052276515533 -0.8296418265889502
0.2669867 -0.8918113423302144 -0.8339079349510139
0.2689866 -0.8867707693970799 -0.8390421183292146
0.2709865 -0.8808202824896726 -0.8436315480783907
0.2729864 -0.875347912246156 -0.8493841736671941
0.2749863 -0.8697766270401092 -0.8536349645017676
0.2769862 -0.8633198288874288 -0.859784938653327
0.2789861 -0.8581539973035289 -0.8642588891308709
0.280986 -0.8532355102006977 -0.8700676985445264
0.2829859 -0.8463449669548381 -0.8742439883954036
0.2849858 -0.8413795960805897 -0.8800837103360495
0.2869857 -0.834357659155824 -0.8838765834158562
0.2889856 -0.8295580616137047 -0.8890303675128872
0.2909855 -0.8238745119942593 -0.8943659120809162
0.2929854 -0.8176871246891452 -0.8984524765756806
0.2949853 -0.8114965419694492 -0.9038915981279737
0.2969852 -0.8057958837909728 -0.9085750684332178
0.2989851 -0.8001640974322567 -0.9128091004343294
0.300985 -0.7948626362442022 -0.9180502915204424
0.3029849 -0.7888484600237053 -0.9221175606649151
0.3049848 -0.7810696063924618 -0.9255808706432174
0.3069847 -0.775771406863129 -0.9310206924210439
0.3089846 -0.7702026157964698 -0.93472981603203
0.3109845 -0.7642328817567485 -0.9395425473218862
0.3129844 -0.7572597025534754 -0.9443272916643152
0.3149843 -0.7514379990860824 -0.9481299219595605
0.3169842 -0.744873696918591 -0.9518793123464637
0.3189841 -0.7401919282648252 -0.9576221669752453
0.320984 -0.7343078923214643 -0.9609398465989457
0.3229839 -0.7264175235683451 -0.9644279346852376
0.3249838 -0.7208391073477642 -0.9683829735952416
0.3269837 -0.7136327209827579 -0.9725529086235793
0.3289836 -0.7069821921187767 -0.9761635346715501
0.3309835 -0.7011009143995175 -0.9802108555826297
0.3329834 -0.6953210126816115 -0.9844922135080029
0.3349833 -0.6895667536111434 -0.9879680311375856
0.3369832 -0.6829609575214936 -0.9922654687632223
0.3389831 -0.676209202867367 -0.995390408690812
0.340983 -0.6698001164790728 -0.999332089108989
0.3429829 -0.6632678808434779 -1.0024139711131714
0.3449828 -0.657072254112828 -1.0067909988490091
0.3469827 -0.6504625606458613 -1.0098535641776476
0.3489826 -0.643805899452088 -1.0138108162676505
0.3509825 -0.6377139049719358 -1.0166508676795727
0.3529824 -0.6303869033222252 -1.0202708138413632
0.3549823 -0.6228665719253907 -1.0228392882045916
0.3569822 -0.616431553174864 -1.0263788144625332
0.3589821 -0.6113283703332498 -1.03017240963208
0.360982 -0.60550851096214 -1.033978057672338
0.3629819 -0.597454084051247 -1.0371587689793431
0.3649818 -0.5909932056516257 -1.0406193899066478
0.3669817 -0.5848224962831595 -1.0434597278942535
0.3689816 -0.5778524266910262 -1.0474172564640862
0.3709815 -0.5703368679695263 -1.049868457199262
0.3729814 -0.5640834539808849 -1.0522863838162027
0.3749813 -0.557206712145501 -1.055648054059749
0.3769812 -0.5508101831339935 -1.0594743031060927
0.3789811 -0.5436571702846089 -1.062040219387815
0.380981 -0.5376977759276627 -1.0646978218464371
0.3829809 -0.5311758553518242 -1.0678219666574291
0.3849808 -0.5236399784807871 -1.0701127634127672
0.3869807 -0.5166503204030304 -1.0715536836784691
0.3889806 -0.5094831682772702 -1.0744720769887781
0.3909805 -0.5022834036302266 -1.0780454562919337
0.3929804 -0.495929378047025 -1.079971327385408
0.3949803 -0.48893649602744593 -1.0827512880884693
0.3969802 -0.4824258838794181 -1.0857768856668895
0.3989801 -0.4756234398591518 -1.086647920151411
0.40098 -0.4683052758963766 -1.0905346542370982
0.4029799 -0.4621552577940231 -1.092647859255499
0.4049798 -0.45507790981299834 -1.0950911710955844
0.4069797 -0.4478043048921181 -1.0970189804781623
0.4089796 -0.4409700692172167 -1.0987748660669114
0.4109795 -0.4346086195877261 -1.1016321357648302
0.4129794 -0.42615681823353263 -1.1045744934484512
0.4149793 -0.42008562587285847 -1.106206217696797
0.4169792 -0.4126268396841754 -1.1065948052413803
0.4189791 -0.40473208655117704 -1.1093318826341627
0.420979 -0.39907520109179506 -1.1111039959230908
0.4229789 -0.3917235079687692 -1.113735203472123
0.4249788 -0.385092905577365 -1.1156381696287252
0.4269787 -0.37784675134322476 -1.1178058543749672
0.4289786 -0.3702976281667806 -1.1192061652848737
0.4309785 -0.3635437319097137 -1.1209283070415146
0.4329784 -0.35653669696303397 -1.1232312876624237
0.4349783 -0.3497466495309062 -1.1246306338193641
0.4369782 -0.3421637117795324 -1.1251520806684003
0.4389781 -0.3350262593466323 -1.12749684805513
0.440978 -0.32759627098576005 -1.1284120111685383
0.4429779 -0.3207631043579504 -1.1305329824741042
0.4449778 -0.3141053524520594 -1.1313879103444167
0.4469777 -0.30615777941150885 -1.1334805215963915
0.4489776 -0.2986760898779971 -1.135123211739444
0.4509775 -0.2935595069451093 -1.1369062756568893
0.4529774 -0.2854220986156193 -1.1380254519512378
0.4549773 -0.2776414523865419 -1.1385852879492788
0.4569772 -0.2712523649524215 -1.1400546740531416
0.4589771 -0.26497120918972117 -1.140697111249906
0.460977 -0.2568226031264065 -1.1419566852030647
0.4629769 -0.25014074432744987 -1.1430746103749356
0.4649768 -0.2425415697350061 -1.1441210500167929
0.4669767 -0.23526492001033308 -1.1453867946697063
0.4689766 -0.22741534326397816 -1.1461343475572197
0.4709765 -0.2225283963010537 -1.1477835130829472
0.4729764 -0.21351893824844997 -1.1482441271266526
0.4749763 -0.2066735386341913 -1.1492583472548654
0.4769762 -0.19954074537708658 -1.1498560702415792
0.4789761 -0.19308652190893294 -1.1510277562268298
0.480976 -0.18557105699276755 -1.1507294890141284
0.4829759 -0.17825515996830443 -1.1510989428022564
0.4849758 -0.1709614023647537 -1.1514806549584626
0.4869757 -0.16318936781270788 -1.1527868588454582
0.4889756 -0.15588168152903864 -1.15241175807828
0.4909755 -0.1489171106436473 -1.1533543963064306
0.4929754 -0.1416605313571443 -1.1542365656546218
0.4949753 -0.13487861631866727 -1.1537542111525765
0.4969752 -0.127577834684216 -1.155023154050132
0.4989751 -0.12039350315648137 -1.1550963478158502
0.500975 -0.11341143966827394 -1.155689250072921
0.5029749 -0.10607244007086247 -1.1554700189151963
0.5049748 -0.09834542658832596 -1.1560368029603727
0.5069747 -0.09043039205277584 -1.1568207742831924
0.5089746 -0.0838248158982661 -1.1571701993797563
0.5109745 -0.076683843413742 -1.1557559859957565
0.5129744 -0.07012992279621869 -1.1564116094886465
0.5149743 -0.06268849333010265 -1.1565778162932483
0.5169742 -0.05548118918136153 -1.1556897176486125
0.5189741 -0.048761067325197346 -1.1554652479883571
0.520974 -0.040082563100600106 -1.1547573900687658
0.5229739 -0.03353972132872884 -1.155509775900345
0.5249738 -0.027322210836529776 -1.1549043833771355
0.5269737 -0.019441292405704053 -1.154720544064967
0.5289736 -0.012350447791380531 -1.1544730627304571
0.5309735 -0.005338192296509697 -1.154206119333251
0.5329734 0.002369035783945178 -1.1539664825032279
0.5349733 0.00942066075794025 -1.1537028707719867
0.5369732 0.016767581427947084 -1.15288599645424
0.5389731 0.023686473682807047 -1.1521933069036645
0.540973 0.03142570072575236 -1.1520346659376617
0.5429729 0.037906015680502864 -1.1518587348494327
0.5449728 0.04520302886156534 -1.1510625867706448
0.5469727 0.05177350050520593 -1.150114931111806
0.5489726 0.05978760493791538 -1.1486298055705164
0.5509725 0.06620500014962313 -1.1481882442485822
0.5529724 0.07368943098035183 -1.146675085868591
0.5549723 0.08061881948846669 -1.1459386980414183
0.5569722 0.08780445040053136 -1.145538522005708
0.5589721 0.09522914348460523 -1.14512275801882
0.560972 0.10233380003939599 -1.1439776243801916
0.5629719 0.10899104771704049 -1.1423044564518172
0.5649718 0.1157926528788453 -1.1415121726671948
0.5669717 0.12364610921783051 -1.140561733216467
0.5689716 0.1303611375298701 -1.1394758703156391
0.5709715 0.13762921824677277 -1.1377141477056398
0.5729714 0.14532808748147927 -1.136211669584376
0.5749713 0.1521192154642019 -1.1359083657665194
0.5769712 0.1593672449523551 -1.1335427508455105
0.5789711 0.16692097938651104 -1.1326229859418147
0.580971 0.17347911398780447 -1.131570586524013
0.5829709 0.1792447133670927 -1.130120417059581
0.5849708 0.18670905382611525 -1.128294099480711
0.5869707 0.19397514923988876 -1.1263792408806619
0.5889706 0.2011246143099846 -1.1250360501609542
0.5909705 0.20839166745273544 -1.1231973368271406
0.5929704 0.21462175537017086 -1.121824608850153
0.5949703 0.22176974861148271 -1.1196743163400869
0.5969702 0.22876727768533203 -1.118705342313007
0.5989701 0.23664564188389373 -1.1162365363296538
0.60097 0.2429620121179659 -1.1145858506258675
0.6029699 0.2503474432587511 -1.1132026743117511
0.6049698 0.2571874666611416 -1.1115589754366817
0.6069697 0.26396870212238954 -1.1094757281969467
0.6089696 0.27108757894310903 -1.1072883946331387
0.6109695 0.27762977659774885 -1.1057491775996136
0.6129694 0.2843897649944532 -1.1033348537493197
0.6149693 0.29123644428735185 -1.1016085808702643
0.6169692 0.29843133724428994 -1.099232989574015
0.6189691 0.3049440098109808 -1.096572409742381
0.620969 0.3119849208236239 -1.0947157488020458
0.6229689 0.31884369996348205 -1.0921700846472613
0.6249688 0.32493694467687956 -1.0897836057578623
0.6269687 0.33227326953920794 -1.0874641786937884
0.6289686 0.33970451309467964 -1.0850146764946458
0.6309685 0.3456256670062269 -1.0819999300026686
0.6329684 0.35269551650832537 -1.0803366505668648
0.6349683 0.3598133271084655 -1.077543526272918
0.6369682 0.3659744174522945 -1.0750815725685763
0.6389681 0.3729117438190567 -1.0725594232261235
0.640968 0.37971528181859127 -1.0703769863492683
0.6429679 0.38682408510378236 -1.0680309985634513
0.6449678 0.3931365924162119 -1.0643083604023482
0.6469677 0.400304240525313 -1.0613902986428951
0.6489676 0.4063092891131862 -1.059426483775741
0.6509675 0.4135399363833162 -1.0558713818676142
0.6529674 0.4193301522182869 -1.0530427101549082
0.6549673 0.4258421009703421 -1.0495618821003967
0.6569672 0.43221987460359085 -1.0475087884554268
0.6589671 0.43941793204277574 -1.044295188756539
0.660967 0.44583929932785443 -1.0408408300284202
0.6629669 0.45263294623243544 -1.0383562826344077
0.6649668 0.45885195697576114 -1.0348194003429616
0.6669667 0.4650505113300755 -1.0315601187230412
0.6689666 0.4715118703677329 -1.0280945292300578
0.6709665 0.47773359119463765 -1.0262519824280285
0.6729664 0.48476009468113707 -1.0221996820701527
0.6749663 0.4910292874304265 -1.0200376834385625
0.6769662 0.49746122660780745 -1.0159581131569004
0.6789661 0.50441062558923 -1.0127095894395255
0.680966 0.5096611878159277 -1.0086735487896812
0.6829659 0.5164516232803328 -1.005482994961621
0.6849658 0.5233091753237006 -1.0021080436824743
0.6869657 0.5296916703303635 -0.9982774752809913
0.6889656 0.5354299763195409 -0.9947892286782779
0.6909655 0.5421329091608525 -0.9913229245076794
0.6929654 0.5481956366262819 -0.9875794073099667
0.6949653 0.5543452721805813 -0.9834578769358289
0.6969652 0.560426157304063 -0.9797248685448541
0.6989651 0.5661728520059037 -0.9760570872460552
0.700965 0.572576693273577 -0.972383504341179
0.7029649 0.5783006190781512 -0.9686774360605495
0.7049648 0.5852884403251604 -0.9645214637977086
0.7069647 0.591001471445118 -0.9606549496451782
0.7089646 0.5969388413986484 -0.9567686345717772
0.7109645 0.6034692557615089 -0.952297032136705
0.7129644 0.6091980517987617 -0.9484589769388054
0.7149643 0.6156166097231791 -0.9446490768745452
0.7169642 0.620885832321995 -0.9403552086250455
0.7189641 0.6268376058190288 -0.9360173265353113
0.720964 0.6329657360879093 -0.9317711249272274
0.7229639 0.6389039399776458 -0.9279818417896998
0.7249638 0.6449076574498395 -0.9242267735645123
0.7269637 0.6512009268643534 -0.9194172294199412
0.7289636 0.6566164032490297 -0.9152850986593984
0.7309635 0.6624347011875136 -0.9104812813590378
0.7329634 0.6683333279692759 -0.9062078079158389
0.7349633 0.6736332068964718 -0.901661068464331
0.7369632 0.6795847418990045 -0.8970808390316533
0.7389631 0.6851643046627611 -0.892532331037069
0.740963 0.6908404755371684 -0.8878889087767327
0.7429629 0.6964767196804129 -0.8831413667771124
0.7449628 0.7022149060408611 -0.8792273990940033
0.7469627 0.7073089510044367 -0.8742573397936685
0.7489626 0.7129067981062848 -0.8695106328135912
0.7509625 0.7187735475726085 -0.8654424760922425
0.7529624 0.723841516897964 -0.8599012661617764
0.7549623 0.7294396343400751 -0.8551052795129996
0.7569622 0.7346208080772673 -0.8504303546680163
0.7589621 0.7404950366999811 -0.8458467993771016
0.760962 0.7466077930746737 -0.8406887021937887
0.7629619 0.7517293612893458 -0.8360949866428065
0.7649618 0.7572015174595966 -0.8309210644367943
0.7669617 0.7620796594186642 -0.826222268765797
0.7689616 0.767816063324563 -0.8208714684921408
0.7709615 0.7727434727179457 -0.8159370918512935
0.7729614 0.7778874527288333 -0.8108736923177805
0.7749613 0.7830962658203218 -0.8051122620978598
0.7769612 0.7883251944687454 -0.8002371256150854
0.7789611 0.7935229006983533 -0.794612659815091
0.780961 0.798277732644133 -0.7896690942935597
0.7829609 0.8030351423577416 -0.7839059853445078
0.7849608 0.8085581593009296 -0.7789962634270318
0.7869607 0.8133094676851147 -0.7732195254167162
0.7889606 0.818108359878398 -0.7673960206959376
0.7909605 0.8224480719073304 -0.7618765590399011
0.7929604 0.8278722564902072 -0.7562975042594434
0.7949603 0.8330266263790438 -0.7516362574439679
0.7969602 0.8375577215587212 -0.7458415337303004
0.7989601 0.8420997141284475 -0.7401273248381722
0.80096 0.8472046819858121 -0.7353241391842253
