! Created with skrf 1.8.0 (http://scikit-rf.org).
# GHz S RI R 50.0 
!freq ReS11 ImS11
0.001 -1.0000109227412963 0.00015799189222415536
0.0029999 -1.0002070944493198 0.00038373059371812554
0.0049998 -1.0006203445342448 0.0004677836907297228
0.0069997 -1.0012365324951702 0.0004062289492771029
0.0089996 -1.0019801158416495 5.513634484183294e-05
0.0109995 -1.002856663347157 -0.0005982806258268969
0.0129994 -1.0038764783621978 -0.001579772505601762
0.0149993 -1.004938088502627 -0.0029623527116998116
0.0169992 -1.0060153842895998 -0.004708871184540719
0.0189991 -1.0071684159613299 -0.006885032132883745
0.020999 -1.0084270054476474 -0.009458964324269237
0.0229989 -1.0095885035185272 -0.012387380793156128
0.0249988 -1.010655132930441 -0.015531848533856335
0.0269987 -1.0119102879691602 -0.019271879967429295
0.0289986 -1.0129827380623657 -0.02342073190368782
0.0309985 -1.0138110586723719 -0.027747778689494546
0.0329984 -1.014803319390952 -0.031941196892140394
0.0349983 -1.01575544960837 -0.03734207183661367
0.0369982 -1.0162425248603784 -0.04237246587937721
0.0389981 -1.0168453475830566 -0.047783309615265696
0.040998 -1.017717936106047 -0.05334863884378213
0.0429979 -1.018140810816944 -0.059683723704602454
0.0449978 -1.0189865017090871 -0.06523319778446338
0.0469977 -1.01842706288127 -0.07103450372169187
0.0489976 -1.0188636140741814 -0.07771717329360994
0.0509975 -1.0188343691539998 -0.08394053597889634
0.0529974 -1.018772270914834 -0.08952565806617951
0.0549973 -1.0189682539716365 -0.09655336274867571
0.0569972 -1.018270690941799 -0.10300547032223484
0.0589971 -1.0184583334765571 -0.10948184604077402
0.060997 -1.0179800199836688 -0.11575121779543504
0.0629969 -1.01777405901982 -0.12244527008837719
0.0649968 -1.0176012297163097 -0.12976507548148095
0.0669967 -1.0170040873717698 -0.1364613326613145
0.0689966 -1.016244932021969 -0.14290651010420358
0.0709965 -1.0159194636562183 -0.1499711618563837
0.0729964 -1.0150256371784336 -0.15690075228418948
0.0749963 -1.0141281032392926 -0.16306047204350588
0.0769962 -1.0138229722758332 -0.16942243307421323
0.0789961 -1.0125607221634105 -0.17676044151584946
0.080996 -1.0117925272290593 -0.18310211003979782
0.0829959 -1.0104991396087084 -0.18997182082678524
0.0849958 -1.0096854308470342 -0.19628414978954167
0.0869957 -1.0084175188078373 -0.20368895966594291
0.0889956 -1.0081257307265488 -0.21047730050715124
0.0909955 -1.0064169988840728 -0.2168375209316209
0.0929954 -1.004727471565513 -0.22425464333974293
0.0949953 -1.0033910008633191 -0.22974862458387585
0.0969952 -1.0027932628808043 -0.2364795125482379
0.0989951 -1.0011678490920672 -0.24282811605488963
0.100995 -0.9989848592515244 -0.2497847313940768
0.1029949 -0.998010564645101 -0.25708592627735277
0.1049948 -0.9972143141591892 -0.26254719004528304
0.1069947 -0.9952053888377924 -0.26942697829899603
0.1089946 -0.9942999964267425 -0.2756813544268536
0.1109945 -0.9922255489783685 -0.28201504709913094
0.1129944 -0.990374315231939 -0.2886190269615874
0.1149943 -0.9886455308371714 -0.2955255651162799
0.1169942 -0.9872145359478222 -0.3016888582875497
0.1189941 -0.9849731275327086 -0.30857581710071147
0.120994 -0.9831486371011607 -0.3149200307434189
0.1229939 -0.9813940416015985 -0.32110696683027296
0.1249938 -0.9797815087331381 -0.32789678083983154
0.1269937 -0.9777783344124615 -0.3331385360764391
0.1289936 -0.9755030321560205 -0.33998514350155845
0.1309935 -0.9729539004200088 -0.3459692619210029
0.1329934 -0.9727097450137183 -0.35220658897935475
0.1349933 -0.9698564616039334 -0.35874400502329107
0.1369932 -0.9678808372956016 -0.36447227483706385
0.1389931 -0.9653427143519862 -0.37167512089539984
0.140993 -0.9637354900219994 -0.3774368896721123
0.1429929 -0.9616752538328115 -0.3840285473459023
0.1449928 -0.9579709699224099 -0.3899657166902671
0.1469927 -0.956566489800078 -0.39524320376445515
0.1489926 -0.9551172420857554 -0.4012646086596517
0.1509925 -0.9510033219843512 -0.4077261353168853
0.1529924 -0.9494191251321508 -0.4141768164258829
0.1549923 -0.947324571765893 -0.41975253753622155
0.1569922 -0.9454090498545707 -0.4259025239685461
0.1589921 -0.9417815956244149 -0.4312554940286224
0.160992 -0.9395125080527873 -0.43831445467753116
0.1629919 -0.9369416475981673 -0.4434294517016175
0.1649918 -0.9343439071292183 -0.44906050068859893
0.1669917 -0.9312400267833222 -0.4553132073406937
0.1689916 -0.930323472006156 -0.46168184033173965
0.1709915 -0.9260006572381584 -0.46695801817824073
0.1729914 -0.9227178673814884 -0.47208937056730893
0.1749913 -0.9202166122129893 -0.47814633986466193
0.1769912 -0.9181451099784759 -0.4843266222076367
0.1789911 -0.9153990033153836 -0.489809172915333
0.180991 -0.9118824126482032 -0.4963302201685534
0.1829909 -0.9089950326241512 -0.5026507344841393
0.1849908 -0.9079652057648446 -0.5070394934285096
0.1869907 -0.9030675725798378 -0.5131076121986997
0.1889906 -0.8997975341248978 -0.519241916705171
0.1909905 -0.8972219791456423 -0.5246916463500071
0.1929904 -0.8948045920123733 -0.5303335124538097
0.1949903 -0.8911340394781042 -0.5361147073571016
0.1969902 -0.8883743601948104 -0.5406797358477604
0.1989901 -0.8855621210365358 -0.5468749921290935
0.20099 -0.8817308874486139 -0.5519079497934908
0.2029899 -0.8785893965887625 -0.5574497497002844
0.2049898 -0.8751056896265632 -0.5637106871425694
0.2069897 -0.8721273541611165 -0.5687452358821686
0.2089896 -0.8687621453512044 -0.5734695539122522
0.2109895 -0.8650881088354119 -0.5791801167028843
0.2129894 -0.8619275835593614 -0.5837912750029828
0.2149893 -0.8588363564565031 -0.5905647991720755
0.2169892 -0.8548170423757813 -0.5950714067794564
0.2189891 -0.8518390318549145 -0.600668486252795
0.220989 -0.8477887682215748 -0.6063096300528077
0.2229889 -0.8448905727488915 -0.6126108098133292
0.2249888 -0.8408218572596649 -0.6166522227073101
0.2269887 -0.8374159797580156 -0.6224775941227144
0.2289886 -0.8343292973589149 -0.6276532820071036
0.2309885 -0.830574040070176 -0.6324168809618494
0.2329884 -0.8265212234546754 -0.63738926695402
0.2349883 -0.823127705222279 -0.642724589492671
0.2369882 -0.8194198863567677 -0.6478888587773796
0.2389881 -0.8152750181903349 -0.6525446260332203
0.240988 -0.8109674512014557 -0.6577366390902907
0.2429879 -0.8068808386400206 -0.6631053605429446
0.2449878 -0.8036241661377341 -0.6682168346224768
0.2469877 -0.7997547968959737 -0.6726652175312158
0.2489876 -0.7960733027009932 -0.6787731524125951
0.2509875 -0.792797275504028 -0.6831782881451413
0.2529874 -0.7881195956519877 -0.6880071309666771
0.2549873 -0.7838377151773729 -0.6926802281554305
0.2569872 -0.7804352814959427 -0.6977784654637549
0.2589871 -0.7757850845608011 -0.702980153980115
0.260987 -0.7719011202109345 -0.7076590184086299
0.2629869 -0.767636190714027 -0.7127639996814096
0.2649868 -0.7628100757375289 -0.7180169538995275
0.2669867 -0.7599265423970974 -0.722897372506174
0.2689866 -0.7549833616885371 -0.7260933975323367
0.2709865 -0.7508397991031156 -0.7312698104362173
0.2729864 -0.7473276814705223 -0.7353186084381054
0.2749863 -0.7424760878538794 -0.740737062679474
0.2769862 -0.7379657983077781 -0.745550463984122
0.2789861 -0.7331180504891445 -0.7504256312975617
0.280986 -0.7291135460537719 -0.7542365000955771
0.2829859 -0.7248308307680518 -0.7596202240084947
0.2849858 -0.7201690135207868 -0.7629081287632858
0.2869857 -0.7154213308098085 -0.7677062606507447
0.2889856 -0.7113433118324544 -0.7723423096009558
0.2909855 -0.7069311610466358 -0.7769618061671707
0.2929854 -0.7018821107753972 -0.7812833725208996
0.2949853 -0.6973632002441532 -0.7853023019553919
0.2969852 -0.6926178123548842 -0.7906704998760203
0.2989851 -0.6880999550721799 -0.7938585589344227
0.300985 -0.6836179682234489 -0.7989998782357076
0.3029849 -0.6795529794601418 -0.8029856852671168
0.3049848 -0.6739291693767897 -0.8072493276955117
0.3069847 -0.6686268867740193 -0.8114612775270248
0.3089846 -0.6652619372128461 -0.8163957459733654
0.3109845 -0.659360071125988 -0.8200968847692207
0.3129844 -0.6544406929151525 -0.8241936876998006
0.3149843 -0.6501095573802269 -0.8284995954550451
0.3169842 -0.6446007783452021 -0.8322410073295341
0.3189841 -0.6406703950854544 -0.8363585511815336
0.320984 -0.6360405475495072 -0.8404338986548079
0.3229839 -0.6301063066734667 -0.843943684310653
0.3249838 -0.6254506614210817 -0.8481580363509723
0.3269837 -0.6199189736035975 -0.8525984432223965
0.3289836 -0.6148691598513795 -0.8560034453970295
0.3309835 -0.6103483983822268 -0.860389822591113
0.3329834 -0.6053256696206958 -0.8647516861256033
0.3349833 -0.6001391258394633 -0.868037886823761
0.3369832 -0.5948705903317327 -0.8717574853320206
0.3389831 -0.5894263903076447 -0.8759351809796218
0.340983 -0.5842098733656149 -0.8792414528104299
0.3429829 -0.5791729289490051 -0.8828373499633302
0.3449828 -0.5742704690010871 -0.8868237768814667
0.3469827 -0.5689678041416105 -0.8895816299151021
0.3489826 -0.564166407678872 -0.8935436223078925
0.3509825 -0.5580458414728641 -0.8973247320918993
0.3529824 -0.5524050900686439 -0.9004052753620229
0.3549823 -0.5466192970847172 -0.9035434781575306
0.3569822 -0.5415197516593736 -0.9068659516751836
0.3589821 -0.536516202192918 -0.9115652349168597
0.360982 -0.5320928674331269 -0.9145280747152993
0.3629819 -0.525728156540581 -0.9175825116020476
0.3649818 -0.520239666552391 -0.9213711557467197
0.3669817 -0.51508825045118 -0.9248853434465559
0.3689816 -0.5095893137875571 -0.9284434729327506
0.3709815 -0.502708047827993 -0.9317254687536477
0.3729814 -0.4981250675904647 -0.934789794172683
0.3749813 -0.4928860090860109 -0.9376810199175025
0.3769812 -0.48710186850924264 -0.9414357008918077
0.3789811 -0.4807745310468604 -0.9437047803086765
0.380981 -0.4757885576476967 -0.9473389844173393
0.3829809 -0.47012787006557133 -0.9503846608826172
0.3849808 -0.4648517065675123 -0.9538766573287998
0.3869807 -0.4578116419408993 -0.955269253303355
0.3889806 -0.451818220331977 -0.9592514188654678
0.3909805 -0.4465964397861575 -0.9615745181915498
0.3929804 -0.44135342131519567 -0.9655384687117095
0.3949803 -0.43485860443193936 -0.9681025714823669
0.3969802 -0.4295038228036966 -0.9712703745929943
0.3989801 -0.4239057080660109 -0.9732241257375407
0.40098 -0.4184444943560698 -0.9767406667371694
0.4029799 -0.41182256286327557 -0.9792988039281401
0.4049798 -0.4061002971368012 -0.9814705513295302
0.4069797 -0.40055494253392787 -0.9849082175176851
0.4089796 -0.3948114269763098 -0.9861192112643596
0.4109795 -0.3887547446788025 -0.9901458288409805
0.4129794 -0.3824789129341663 -0.9926227063132808
0.4149793 -0.37702729641943244 -0.9945816041631685
0.4169792 -0.36957504262232155 -0.9960466297139108
0.4189791 -0.363477061484435 -0.9988121747467292
0.420979 -0.3580846712638704 -1.0010132099736395
0.4229789 -0.3519010223184984 -1.0048166428498584
0.4249788 -0.34625893336033825 -1.0067909332943468
0.4269787 -0.3398852771547935 -1.0090828373540868
0.4289786 -0.33337170150623235 -1.0106609315341903
0.4309785 -0.32742885145169565 -1.0136333357781524
0.4329784 -0.32137119191790325 -1.0157388073582116
0.4349783 -0.31527055723191977 -1.0174919970908645
0.4369782 -0.3088558096712242 -1.0189997849573782
0.4389781 -0.3028981517228007 -1.0210997153793056
0.440978 -0.29680132715743446 -1.023692294274663
0.4429779 -0.2905863709348554 -1.0249390114854322
0.4449778 -0.28409001826238894 -1.0269763802401912
0.4469777 -0.2773221623440208 -1.029434692429088
0.4489776 -0.2712050700246211 -1.0311006844671484
0.4509775 -0.2655873653829716 -1.0334410129584257
0.4529774 -0.25896599830746075 -1.0354258164047538
0.4549773 -0.25239212850418674 -1.036397986467903
0.4569772 -0.2463049385479093 -1.0384288294310067
0.4589771 -0.2402765014196756 -1.0393431154266743
0.460977 -0.2331886953473939 -1.0409099370264694
0.4629769 -0.22710312830339346 -1.0430678842468488
0.4649768 -0.22036586584262313 -1.0442630887218636
0.4669767 -0.21421234603154155 -1.046100000317137
0.4689766 -0.2080688817772126 -1.047729295901804
0.4709765 -0.20223254380885983 -1.0496389877970096
0.4729764 -0.19530694287497646 -1.0510874903958
0.4749763 -0.1888442763176696 -1.0524356254796667
0.4769762 -0.1822947497559092 -1.0535616515136588
0.4789761 -0.1758368989176638 -1.0551518198803207
0.480976 -0.16976482689779793 -1.055436626479315
0.4829759 -0.16292985935411752 -1.0561900700436397
0.4849758 -0.15630788183290878 -1.057496961962768
0.4869757 -0.14953646360940498 -1.0581166332773229
0.4889756 -0.1427909051519911 -1.0597284800043467
0.4909755 -0.1362935788677045 -1.0603519931673147
0.4929754 -0.1302676522448659 -1.0619406597338465
0.4949753 -0.12351545806987127 -1.0627588092513252
0.4969752 -0.11599075338477238 -1.0642161596148731
0.4989751 -0.11020827647573053 -1.0647815331862234
0.500975 -0.10377986741718992 -1.066580688105616
0.5029749 -0.09730131068541073 -1.0658676107317586
0.5049748 -0.09015136323095205 -1.067400302708214
0.5069747 -0.08349580603605218 -1.0681214204776657
0.5089746 -0.07691885712758405 -1.0687182250000207
0.5109745 -0.07003884414065599 -1.068841213695645
0.5129744 -0.06420242823615727 -1.069746899570671
0.5149743 -0.058010406484250154 -1.070253080194075
0.5169742 -0.050695802683342256 -1.070265278121898
0.5189741 -0.043928048819011786 -1.0707254183010388
0.520974 -0.037203703937729496 -1.0709646622288438
0.5229739 -0.030620293006643685 -1.0710823327656005
0.5249738 -0.024367670907111803 -1.072408227132001
0.5269737 -0.017087260189131287 -1.0720188494886005
0.5289736 -0.01025454123949654 -1.072097568358743
0.5309735 -0.004220657319087995 -1.072704050245694
0.5329734 0.0032495492554229927 -1.072045858873218
0.5349733 0.010146250629748846 -1.072907819465727
0.5369732 0.016709613033966494 -1.0727369095467734
0.5389731 0.023331542652855877 -1.0729070078124479
0.540973 0.029594104521851086 -1.0726575698332539
0.5429729 0.03647074137711076 -1.073661872562026
0.5449728 0.04371044110939033 -1.0732050557876256
0.5469727 0.04959456045926175 -1.072949953389944
0.5489726 0.0572251977602309 -1.0720458006762892
0.5509725 0.06339791140944034 -1.0720934077090276
0.5529724 0.07004391875083048 -1.0712100001511633
0.5549723 0.07664789510529017 -1.0709297106724387
0.5569722 0.08343785681968374 -1.0709706190765622
0.5589721 0.0898743546909003 -1.0707624158142768
0.560972 0.09734921225220491 -1.069632225414644
0.5629719 0.10375387169749395 -1.0696280786296868
0.5649718 0.11015484311344759 -1.0687433670916513
0.5669717 0.11732020473224714 -1.0681950500678148
0.5689716 0.12435265636533455 -1.0672460697790571
0.5709715 0.13101546987767937 -1.0669401246620545
0.5729714 0.1376458012677989 -1.0658063986379853
0.5749713 0.14449707739516843 -1.0656121343498632
0.5769712 0.15064306467722036 -1.0642111802447152
0.5789711 0.15821224686742877 -1.0637678707480358
0.580971 0.16504743487929927 -1.0626962641593904
0.5829709 0.1708901694020017 -1.0617264277398868
0.5849708 0.17766456020836127 -1.0605298198532378
0.5869707 0.18467361187741094 -1.059488170184719
0.5889706 0.19157556212236804 -1.0583646640991884
0.5909705 0.1982946058488086 -1.0571335971061306
0.5929704 0.20420476706730903 -1.0561984030481886
0.5949703 0.21141170529801 -1.0547221867106233
0.5969702 0.21811695007567533 -1.0543424914316277
0.5989701 0.22472999190795429 -1.0516422644376306
0.60097 0.232157032850268 -1.050897657547142
0.6029699 0.23900904460743433 -1.049775334854663
0.6049698 0.2455352822083493 -1.048599852572499
0.6069697 0.252150323460413 -1.047131943599242
0.6089696 0.2586460350878571 -1.0455096283248106
0.6109695 0.264922134932557 -1.0446474005352875
0.6129694 0.271524634344414 -1.042535909968589
0.6149693 0.27863090109947636 -1.040827624242256
0.6169692 0.2851641524744424 -1.0385406860420068
0.6189691 0.2920961741152653 -1.0364040760080173
0.620969 0.29835237069179177 -1.034673819779379
0.6229689 0.3049320710907316 -1.032752817404161
0.6249688 0.31124645831577186 -1.0310417068988664
0.6269687 0.3179470592166189 -1.0292571539592235
0.6289686 0.3247099617482324 -1.0271628737512857
0.6309685 0.3310768210564724 -1.0246422783615046
0.6329684 0.33769043837946155 -1.023275069130073
0.6349683 0.34438464774463745 -1.0202832931197994
0.6369682 0.3508443169403335 -1.019038363557442
0.6389681 0.3570660218715434 -1.0165671543533126
0.640968 0.36436794700588726 -1.0150244446915544
0.6429679 0.37050344391448553 -1.0121881373477506
0.6449678 0.3773114956832974 -1.009715623598919
0.6469677 0.3837937707132203 -1.0074553371151833
0.6489676 0.39016832132986234 -1.0052611875857131
0.6509675 0.39617487646110056 -1.0029265598395622
0.6529674 0.4027456369068348 -0.9997240776336923
0.6549673 0.40921780814842923 -0.9966021577367793
0.6569672 0.41586008151973486 -0.9946218995063287
0.6589671 0.42190521657888846 -0.991686137330628
0.660967 0.42909700295303255 -0.989549907535297
0.6629669 0.4349433862435241 -0.9860169397257784
0.6649668 0.4410525317810191 -0.9836716772930945
0.6669667 0.4474531634216455 -0.9804893716202235
0.6689666 0.45348366067899915 -0.9774924376114079
0.6709665 0.46019320444173667 -0.9759112197401062
0.6729664 0.4669890926668083 -0.972120075088343
0.6749663 0.4731349608795859 -0.9698077188690757
0.6769662 0.4801213616839649 -0.966320697508023
0.6789661 0.48628325711272896 -0.9634905863937265
0.680966 0.49171446550756914 -0.9602738067547912
0.6829659 0.4981248183099465 -0.9564652707081128
0.6849658 0.5044838748436359 -0.9535383704930724
0.6869657 0.5106783737581527 -0.950053964635312
0.6889656 0.516914693456213 -0.9473023734505632
0.6909655 0.5229430943767902 -0.9440310303284744
0.6929654 0.5292974181222314 -0.940562391411658
0.6949653 0.5353284994596448 -0.9370195114256735
0.6969652 0.5414576810173106 -0.9335136222326375
0.6989651 0.547301797856836 -0.9299433610236223
0.700965 0.55345904356799 -0.9265799456723276
0.7029649 0.5590939389765122 -0.9224999314622822
0.7049648 0.5657961267425997 -0.9194213167109608
0.7069647 0.5714860698531091 -0.915061687637373
0.7089646 0.5772494454456044 -0.9116699249662346
0.7109645 0.5835277758045521 -0.9078832863077221
0.7129644 0.5893535174210649 -0.9038913273585165
0.7149643 0.5956530940250249 -0.9004106134912474
0.7169642 0.6008959724275642 -0.8963951376080913
0.7189641 0.6071404216935847 -0.8923261303578663
0.720964 0.6130607849201705 -0.8884884947034021
0.7229639 0.618318922185525 -0.8846710416476673
0.7249638 0.6244390317078596 -0.881226607141511
0.7269637 0.6305034332897573 -0.8766709510944747
0.7289636 0.636204088372211 -0.8726807235925396
0.7309635 0.6416173545183169 -0.8681082412802391
0.7329634 0.6475238139870401 -0.8644844209635272
0.7349633 0.6523837252816227 -0.859517996503777
0.7369632 0.6583773416628141 -0.8548216779139357
0.7389631 0.6638200299468933 -0.850582522734192
0.740963 0.6698835064245876 -0.8463609937543962
0.7429629 0.6753611716522556 -0.8421038263512436
0.7449628 0.6811656212809131 -0.8377678948123862
0.7469627 0.6860152311304176 -0.8331295744067257
0.7489626 0.6914343986350654 -0.8286329495660107
0.7509625 0.6976195246787849 -0.8237608840296727
0.7529624 0.7024913057622891 -0.8194391683201196
0.7549623 0.7083487219721597 -0.814986314705763
0.7569622 0.7132954871508893 -0.8100483491020428
0.7589621 0.7189639586965068 -0.8057327723687131
0.760962 0.7244560782023531 -0.80097789690694
0.7629619 0.729944740394656 -0.7964130481544051
0.7649618 0.7353250057760602 -0.7913360610169705
0.7669617 0.7399648190381506 -0.7867450845979337
0.7689616 0.7453272122654069 -0.781652719225903
0.7709615 0.7504165983629636 -0.776671557279059
0.7729614 0.7557962245529516 -0.7715909371061457
0.7749613 0.7608210727289513 -0.7661049977059468
0.7769612 0.7656904938723361 -0.7617491958993206
0.7789611 0.7708272625630949 -0.756184313870984
0.780961 0.7752818577486157 -0.7511585037506349
0.7829609 0.7803738608396612 -0.7458391384329877
0.7849608 0.7856261089543229 -0.7409525186569478
0.7869607 0.7905474471685858 -0.7354116100129093
0.7889606 0.7953085385485444 -0.7300464153687445
0.7909605 0.7996400015578855 -0.7247312649010117
0.7929604 0.8047912240912883 -0.7196462572319631
0.7949603 0.8091012027044935 -0.7143343893268589
0.7969602 0.8144421013980724 -0.7087730013471515
0.7989601 0.8190961624841959 -0.703604048327992
