! Created with skrf 1.8.0 (http://scikit-rf.org).
# GHz S RI R 50.0 
!freq ReS11 ImS11
0.001 0.8202753258012108 0.076181838513936
0.0029999 0.8553156245258258 0.04928920840368178
0.0049998 0.8673361549807892 0.044875486490036254
0.0069997 0.8767753947304566 0.047813373373755075
0.0089996 0.8807728006091919 0.052248723378264694
0.0109995 0.8821743230099225 0.055289499030728106
0.0129994 0.8844510911110777 0.059878183317052136
0.0149993 0.8856078945973338 0.06534788537310765
0.0169992 0.8864923649895167 0.07002618894820267
0.0189991 0.8857946340468812 0.07529207406415428
0.020999 0.8862037531721563 0.08041435542958902
0.0229989 0.8865714631615351 0.08581566898170251
0.0249988 0.8853329521735264 0.09151566216987411
0.0269987 0.8861064153876239 0.09813801848037029
0.0289986 0.8852062237799884 0.10320048556495709
0.0309985 0.885445589981499 0.10883749767313144
0.0329984 0.8842467511671267 0.11483113346526591
0.0349983 0.8852812401535417 0.12052477497217606
0.0369982 0.8836134675477382 0.12661447883124471
0.0389981 0.8837310374604264 0.13316238727967922
0.040998 0.8825891998628318 0.13880141900251364
0.0429979 0.8823686839070213 0.1451029650449664
0.0449978 0.8815737540863007 0.15100124697073408
0.0469977 0.8806403404481375 0.157127112881304
0.0489976 0.8799775936324095 0.16267921504110594
0.0509975 0.8784648949116218 0.16903851223081462
0.0529974 0.8777571192421144 0.1761769762100393
0.0549973 0.8775011775550043 0.18221597903262127
0.0569972 0.8753543399944175 0.18719846987539293
0.0589971 0.8739070087494889 0.19376912425638823
0.060997 0.8730971789979873 0.1994776344758006
0.0629969 0.8717074222361147 0.20595918092616625
0.0649968 0.8708453927756281 0.21213921558642954
0.0669967 0.8697299512701818 0.21800644862932234
0.0689966 0.8683237572062452 0.2241987244997045
0.0709965 0.8665321739081066 0.2310984680337979
0.0729964 0.8651347109375096 0.236485550793937
0.0749963 0.86391877293719 0.24220631480079977
0.0769962 0.8617606467731976 0.24937229033255098
0.0789961 0.8607145495310942 0.25475216295433617
0.080996 0.8587365199800377 0.260852253786581
0.0829959 0.8574177997756534 0.26756422250174505
0.0849958 0.8549968135701126 0.27324546679660716
0.0869957 0.8544490848087246 0.27941605409457587
0.0889956 0.8517367129304608 0.28541589321869365
0.0909955 0.8502661810504292 0.29115218237353024
0.0929954 0.8483294968131132 0.29695239679413443
0.0949953 0.8462598784384918 0.3040709172781947
0.0969952 0.8438337951394146 0.31006429071699054
0.0989951 0.8432074250478109 0.31561442285613955
0.100995 0.8402702148478918 0.32089803155793695
0.1029949 0.8387035604226347 0.3273833160172187
0.1049948 0.8362440439800621 0.33351452093402195
0.1069947 0.8347294799403141 0.339727673902396
0.1089946 0.8317283296073544 0.3459326643429458
0.1109945 0.8298005005286423 0.3508195167457815
0.1129944 0.826869798914871 0.35671006476677025
0.1149943 0.8255107711587507 0.3636368749440155
0.1169942 0.8226103703646142 0.3691311186422064
0.1189941 0.8208886954427608 0.37508747960006755
0.120994 0.8186957233608333 0.3801156695214978
0.1229939 0.8161074063536063 0.3869887030725916
0.1249938 0.813438473362284 0.39304474405980666
0.1269937 0.8106900484838591 0.39884621393267483
0.1289936 0.8086004300042766 0.4041746511434083
0.1309935 0.806252409280829 0.4098534399020569
0.1329934 0.8021805989904217 0.41673683321824695
0.1349933 0.8000084345794525 0.421227608013786
0.1369932 0.7972464483507682 0.42785433910781207
0.1389931 0.7955736828563746 0.4333163687054099
0.140993 0.7915278162134705 0.43915843241337726
0.1429929 0.7882227255685229 0.44477183809008036
0.1449928 0.7860004112995844 0.45104410194246736
0.1469927 0.7833501467770447 0.45591604097609606
0.1489926 0.7795346611028169 0.4624079684538388
0.1509925 0.7773020476743718 0.4675475882108463
0.1529924 0.7739892826270878 0.4735413744127934
0.1549923 0.770479156090937 0.47820238852914587
0.1569922 0.766955525963432 0.4839985990834704
0.1589921 0.7641403990946164 0.4900182110606763
0.160992 0.7616203047089909 0.4951505266117033
0.1629919 0.75859969555206 0.5005154168227626
0.1649918 0.7550886289933264 0.5064980544558649
0.1669917 0.751355626707388 0.5117482734543347
0.1689916 0.7480773745948506 0.5173287989725606
0.1709915 0.7456287164566558 0.5224400125106111
0.1729914 0.741661122632846 0.5280418045155814
0.1749913 0.7382615472987484 0.5328937966472121
0.1769912 0.7351287624679231 0.5390084064257581
0.1789911 0.7314465021838567 0.5436782597691862
0.180991 0.7276019359946919 0.5493142284568071
0.1829909 0.7245144226688434 0.5543266265699398
0.1849908 0.7200872358278758 0.560685717213478
0.1869907 0.7171155772694211 0.5660934377695512
0.1889906 0.713072608866587 0.5707851830602826
0.1909905 0.7100340991325209 0.5762678305796421
0.1929904 0.7063698494738202 0.5805840231475942
0.1949903 0.7031914484462499 0.5856379731866472
0.1969902 0.6985182602763779 0.5912499484815887
0.1989901 0.6948764501615152 0.596456244139453
0.20099 0.6904525939862941 0.6020276946528413
0.2029899 0.6864402292864767 0.6065237278968185
0.2049898 0.6836107742073813 0.6124943869654874
0.2069897 0.6783828773890463 0.6165994972427776
0.2089896 0.6743317115619393 0.6217090908332679
0.2109895 0.6704182085454338 0.626774366857899
0.2129894 0.6669918248669291 0.6321685837877792
0.2149893 0.6624680284375062 0.636342553320997
0.2169892 0.6572716831036861 0.6417676032390164
0.2189891 0.6540753776048515 0.6462898706104041
0.220989 0.6500112263913735 0.6518265431563557
0.2229889 0.6451830607862836 0.656384188716063
0.2249888 0.6414839887874841 0.6615920795092094
0.2269887 0.6373230166449516 0.6661795260472111
0.2289886 0.6327399723607342 0.6698394004711243
0.2309885 0.6283443528343607 0.6745090601653643
0.2329884 0.6239565765783693 0.6794963211261137
0.2349883 0.6198575902200549 0.6842892714040534
0.2369882 0.6146381170946758 0.6891843962193541
0.2389881 0.6101199857030634 0.6931610587321514
0.240988 0.6063722750982842 0.6982565280797338
0.2429879 0.6021528718320482 0.7020320556606852
0.2449878 0.59754103661572 0.7072194068534312
0.2469877 0.592550148303619 0.71101102088209
0.2489876 0.5882274562014458 0.7157710922682355
0.2509875 0.5833618975884446 0.7202735413541295
0.2529874 0.5786086428402638 0.7246706201139398
0.2549873 0.5736535989938621 0.7290252718156284
0.2569872 0.5685105760106568 0.73308488786377
0.2589871 0.5644951965614777 0.7373007210412947
0.260987 0.5595753534472673 0.7410393153499985
0.2629869 0.5548288771439663 0.7459496379143011
0.2649868 0.5497171288273125 0.7500923561909598
0.2669867 0.5446557804138983 0.7537571941517673
0.2689866 0.5396435279228284 0.7585455551846791
0.2709865 0.5352823922248405 0.7627546971160865
0.2729864 0.5299391981310516 0.7670131465844028
0.2749863 0.5253559077691934 0.770262951332559
0.2769862 0.5194377079226601 0.774316455888062
0.2789861 0.5153491152602193 0.7789808567032208
0.280986 0.5093788892737053 0.781953920589336
0.2829859 0.5046768861815959 0.786346226734361
0.2849858 0.4995235874761975 0.7894705779762516
0.2869857 0.4949644154486704 0.7945891413643698
0.2889856 0.4893799552123723 0.7978306579181266
0.2909855 0.48409004865004296 0.8011893696288732
0.2929854 0.4788527964074653 0.8055383809017913
0.2949853 0.47359829597041153 0.8088882169901914
0.2969852 0.46820803931313837 0.8118898569659073
0.2989851 0.46227953428205854 0.8157621280915277
0.300985 0.45771851730356733 0.8197777961155805
0.3029849 0.45202329111196454 0.822954100289525
0.3049848 0.4469964792780276 0.8272642692062121
0.3069847 0.4420341565151965 0.8307501139968315
0.3089846 0.43643041144314704 0.8337137186460574
0.3109845 0.4307322189696474 0.8365810879144918
0.3129844 0.42560762771483107 0.8405062004986322
0.3149843 0.420150270954738 0.8434892992334281
0.3169842 0.41501611189724885 0.8467389095065486
0.3189841 0.4085271556681068 0.8489073560020443
0.320984 0.4028924461455682 0.8524836459405246
0.3229839 0.3974603441435492 0.857347706354008
0.3249838 0.392093941968528 0.8592452603182879
0.3269837 0.3872303795051964 0.8622368805718408
0.3289836 0.3810469992853267 0.866263925842498
0.3309835 0.3755617455604211 0.8691012391595474
0.3329834 0.3696801294417954 0.871568140745734
0.3349833 0.36350635920429414 0.8744463412209322
0.3369832 0.3580604957687152 0.8779000569127975
0.3389831 0.35232342070825307 0.8809917934196676
0.340983 0.34660607358404705 0.8828219672593732
0.3429829 0.3404442280115018 0.886061565969754
0.3449828 0.33505438329616244 0.8894491089999506
0.3469827 0.3288260166200102 0.8919663677191773
0.3489826 0.32280766694612134 0.894196243218954
0.3509825 0.3177683714926183 0.8968536016235447
0.3529824 0.31124560723654277 0.9003209196105614
0.3549823 0.3064115449400028 0.9029573163287622
0.3569822 0.2999213297459697 0.9055565363971272
0.3589821 0.29355096876927356 0.9077633053959745
0.360982 0.2870213899856153 0.9099976191527227
0.3629819 0.28167349911456596 0.9125859637686984
0.3649818 0.27633062485932475 0.9151000541706084
0.3669817 0.27013864920716024 0.9175227579571172
0.3689816 0.2640409356603253 0.9186663626034389
0.3709815 0.2587286105546619 0.9218482030936797
0.3729814 0.251887239928834 0.9242662740555682
0.3749813 0.2460857291198778 0.9260086900169447
0.3769812 0.24031534846505315 0.927603948404564
0.3789811 0.23438151796430026 0.9297531183722655
0.380981 0.2278426677377012 0.9315175662583686
0.3829809 0.22130764905617145 0.9335136034881085
0.3849808 0.21546645632124906 0.9354661275477686
0.3869807 0.2091003697244537 0.9380552475080608
0.3889806 0.2041517316350883 0.9405080005895349
0.3909805 0.19738641200644838 0.941700543573644
0.3929804 0.19136512322597835 0.9435696268768559
0.3949803 0.18546627482218772 0.9453400007742593
0.3969802 0.17859909895441 0.9472427392828884
0.3989801 0.17254552575454524 0.94947956867385
0.40098 0.1661225108844855 0.9504092729121633
0.4029799 0.1604277860005333 0.9522886725147045
0.4049798 0.15364071214867983 0.9532462522070054
0.4069797 0.14747400357769047 0.9550686402753944
0.4089796 0.14184097244845686 0.9569017157927562
0.4109795 0.13532856913577399 0.9577519891315135
0.4129794 0.1290238190882989 0.9593122079527842
0.4149793 0.12294531541437109 0.9603599124053275
0.4169792 0.11615916299523737 0.9626761035518284
0.4189791 0.11018610676263432 0.96365429497998
0.420979 0.1042105218608842 0.9651702440252492
0.4229789 0.09733444373639924 0.9655664449729681
0.4249788 0.09115968265986249 0.9670178609767034
0.4269787 0.08503683530548647 0.9677845865203356
0.4289786 0.07852212261847052 0.9693018823841422
0.4309785 0.07259292974250912 0.9696860241369002
0.4329784 0.06624125173441753 0.9710017146425735
0.4349783 0.05946835727892659 0.971751680680317
0.4369782 0.05383818556885436 0.9736381893200134
0.4389781 0.047345342662597406 0.973915592705631
0.440978 0.040098356266656296 0.9747447126942393
0.4429779 0.034739980757862624 0.9753671466835114
0.4449778 0.02773397935996967 0.9761084814205022
0.4469777 0.02211008016662576 0.9767157132185842
0.4489776 0.015751483713477288 0.9775320572323223
0.4509775 0.008427122946029084 0.9776311538255564
0.4529774 0.0020765056513925018 0.9782292754119785
0.4549773 -0.0035425048751266536 0.9790549952983149
0.4569772 -0.010446673279794469 0.979532896811023
0.4589771 -0.01718485290352504 0.9800847108398401
0.460977 -0.022853108531875645 0.9804950028190856
0.4629769 -0.03004038152738865 0.9809427389594811
0.4649768 -0.03587065114152586 0.9812110376256103
0.4669767 -0.04241171926827415 0.9815830398170998
0.4689766 -0.04869196425112706 0.9816335870675931
0.4709765 -0.05553505362299638 0.981736675415411
0.4729764 -0.061354349090121725 0.9816611401446494
0.4749763 -0.06804205366556854 0.9815583186378808
0.4769762 -0.0749716584881882 0.9817442645482996
0.4789761 -0.08095681595996124 0.981540002488563
0.480976 -0.08732458301922741 0.9816357171630004
0.4829759 -0.09384198240776549 0.9818079672099306
0.4849758 -0.10058083908921764 0.9816941668131063
0.4869757 -0.10643415675887037 0.981546947683211
0.4889756 -0.11293556528607233 0.9816211030366491
0.4909755 -0.11964052511775336 0.9812374926839602
0.4929754 -0.12624400866770025 0.9807822228395866
0.4949753 -0.1321260422838991 0.9805326664318562
0.4969752 -0.13864792653589703 0.9796185853849368
0.4989751 -0.14513510576857164 0.9797289566746141
0.500975 -0.15131953966750783 0.9788884249404508
0.5029749 -0.15798318147145324 0.9787641339953631
0.5049748 -0.16403826416536602 0.978383382617237
0.5069747 -0.17030536863657186 0.9775350524990901
0.5089746 -0.17643899689115125 0.9763579287579045
0.5109745 -0.18289418003272098 0.9760227821712698
0.5129744 -0.18941871832214302 0.9750668580369715
0.5149743 -0.19600926610640268 0.9741090011512006
0.5169742 -0.20207014997922912 0.9734799073557272
0.5189741 -0.20854828045129253 0.9725107402208143
0.520974 -0.21443430946371428 0.9720349328005997
0.5229739 -0.22108342174768997 0.9709412901173137
0.5249738 -0.22760685675561323 0.9698975986517245
0.5269737 -0.23366430150109094 0.9690840132108696
0.5289736 -0.24017233998224422 0.9679585697868053
0.5309735 -0.2467885928277835 0.9667282746241531
0.5329734 -0.2529118276201059 0.9659638507183251
0.5349733 -0.2589538950540418 0.9645492571418737
0.5369732 -0.26552029187150417 0.9633000758759065
0.5389731 -0.2716553209340026 0.9619387533396527
0.540973 -0.27780005404029384 0.9603132492142836
0.5429729 -0.28421327725365536 0.9585604721611215
0.5449728 -0.29048176853991897 0.9577950782602442
0.5469727 -0.29681745347595156 0.9561572070451518
0.5489726 -0.30264185953602923 0.9551350528702737
0.5509725 -0.30914507755776144 0.9537725660680586
0.5529724 -0.31550915798095963 0.9522506051772297
0.5549723 -0.32165454064765897 0.950392547811968
0.5569722 -0.32798273373033415 0.9487969158691987
0.5589721 -0.33404741823365863 0.9467934650847971
0.560972 -0.3400868165258384 0.9453555263197957
0.5629719 -0.34629749828516154 0.9433824168935456
0.5649718 -0.3525619308071787 0.9416227846289
0.5669717 -0.3583318320390356 0.9395786033476028
0.5689716 -0.36470157431534905 0.937804405511187
0.5709715 -0.3709222806333228 0.9361029359670084
0.5729714 -0.37664633139824666 0.9344324174479868
0.5749713 -0.38289234906028524 0.932321936943858
0.5769712 -0.3889279466042014 0.930258585243221
0.5789711 -0.39459258051709345 0.9277907763120636
0.580971 -0.4006945374340368 0.9254885213132145
0.5829709 -0.4070760667848421 0.923253596634078
0.5849708 -0.4128416987611236 0.9211775990160793
0.5869707 -0.4187953923919887 0.9188081851271103
0.5889706 -0.424945482350868 0.9164056609553967
0.5909705 -0.43046334141701054 0.914664679124922
0.5929704 -0.4365610026035096 0.912176827545303
0.5949703 -0.44272088401994736 0.9099032035348816
0.5969702 -0.44828939164502096 0.9072598213823233
0.5989701 -0.4544782441947029 0.9048583802307114
0.60097 -0.4603014052942256 0.9023915341427854
0.6029699 -0.46609014368679824 0.9000535985890584
0.6049698 -0.47205638328161326 0.8971190212302586
0.6069697 -0.4778676501275164 0.8941565903958979
0.6089696 -0.4837339023072629 0.8917003387118738
0.6109695 -0.489470350339406 0.8889669911233656
0.6129694 -0.49523003671921223 0.8864922865889776
0.6149693 -0.5007835433113721 0.882442174159502
0.6169692 -0.5064033847150051 0.8800641667932799
0.6189691 -0.5122038420533189 0.8777786468785529
0.620969 -0.5175665040739299 0.8749097071350675
0.6229689 -0.5235959019360532 0.8717865930937833
0.6249688 -0.529455056344013 0.8688827597354561
0.6269687 -0.5349017258386208 0.8656241409649346
0.6289686 -0.5403970802803973 0.8627519606869023
0.6309685 -0.5463696977562106 0.8600851326756842
0.6329684 -0.5515467228059613 0.8565346810035935
0.6349683 -0.55707538205524 0.8534899918699629
0.6369682 -0.5626950301351471 0.8504161862148232
0.6389681 -0.5681263740382733 0.8475204831214962
0.640968 -0.5738623143702468 0.8432094253608041
0.6429679 -0.5790220156305645 0.8405156461219795
0.6449678 -0.5844202055838228 0.8369818787177004
0.6469677 -0.5900151882236548 0.834040583924723
0.6489676 -0.5949936135353198 0.8299971533498677
0.6509675 -0.600903180813827 0.8271667903867732
0.6529674 -0.6061878648283648 0.8232400931781328
0.6549673 -0.6113856280019878 0.8200863497882825
0.6569672 -0.6167093873204114 0.8163531751372051
0.6589671 -0.6220431943262725 0.812520715642911
0.660967 -0.6273299837670987 0.8089745589105128
0.6629669 -0.6325997598056282 0.8056078809593364
0.6649668 -0.6374272745093458 0.80161014897101
0.6669667 -0.6424627140922019 0.7979918852107317
0.6689666 -0.6478021931774597 0.7942776449856542
0.6709665 -0.653024978452917 0.790408085465206
0.6729664 -0.6579366307763281 0.7866798053951868
0.6749663 -0.6631215529250766 0.7828341080076444
0.6769662 -0.6681673453649563 0.7790779040285695
0.6789661 -0.6732050989189752 0.7749159520252166
0.680966 -0.678191886109394 0.7712557402480185
0.6829659 -0.6830054273333783 0.7671107366313983
0.6849658 -0.6881032451999507 0.7629678937453117
0.6869657 -0.6930631072730662 0.7591522386988881
0.6889656 -0.697844725207716 0.7548855038203731
0.6909655 -0.7028098166147606 0.7509103866469379
0.6929654 -0.7076009553432017 0.7467391906126302
0.6949653 -0.7124469679982083 0.7425967661419888
0.6969652 -0.717388306434693 0.7385123922057714
0.6989651 -0.721943796049707 0.7342071235536591
0.700965 -0.7268318132750551 0.7299112411372994
0.7029649 -0.731480623328792 0.7255547801183125
0.7049648 -0.7360203308460913 0.7213850625739264
0.7069647 -0.7407953488630257 0.7169812021938146
0.7089646 -0.7452115058715414 0.7128600143978626
0.7109645 -0.7498669825117217 0.7081979799459964
0.7129644 -0.7544673310619792 0.7037997443498247
0.7149643 -0.7591705582610653 0.6992962489178255
0.7169642 -0.763587569451652 0.694976089858168
0.7189641 -0.7676120209774386 0.6900167136664601
0.720964 -0.7722436084725174 0.6858928256120321
0.7229639 -0.776707087752979 0.6812163013588022
0.7249638 -0.7809475220624422 0.6763873475592598
0.7269637 -0.7853559722103005 0.6717691622183162
0.7289636 -0.789584966680084 0.6672619873144942
0.7309635 -0.7940900898993319 0.6625551682407443
0.7329634 -0.7981053074392187 0.657683792337742
0.7349633 -0.8025791168491238 0.6530301565910436
0.7369632 -0.8066054943328821 0.6483741686470726
0.7389631 -0.8109262182383123 0.6435270336229681
0.740963 -0.8149937142038511 0.6387153237948777
0.7429629 -0.819042910462741 0.633806823986962
0.7449628 -0.8229260107964819 0.6287974403347143
0.7469627 -0.8269273600673026 0.6240565832913199
0.7489626 -0.831141809337497 0.6189511175096691
0.7509625 -0.8352204440179494 0.6145498081021294
0.7529624 -0.8389422685743629 0.6089746163607852
0.7549623 -0.842845711496132 0.6039863361888129
0.7569622 -0.8466911408601514 0.5992469217400807
0.7589621 -0.8504381343946115 0.5940661051369036
0.760962 -0.8541363269807235 0.5889936365512743
0.7629619 -0.8582193968444511 0.5838816137991041
0.7649618 -0.8616761111442192 0.5786560462533028
0.7669617 -0.8651924711003229 0.5739080094407718
0.7689616 -0.8690589385602668 0.568644623919481
0.7709615 -0.8728343791409996 0.5632527061758376
0.7729614 -0.8763431773713677 0.558183692026598
0.7749613 -0.8795830076666602 0.5529880430469147
0.7769612 -0.883313355483742 0.547383690574812
0.7789611 -0.8869630039182761 0.5425987531854207
0.780961 -0.8903179551251688 0.5372419632609936
0.7829609 -0.8939498025731419 0.5318809610348111
0.7849608 -0.8970781372458916 0.5265103102038573
0.7869607 -0.9004870155638021 0.5210307303893699
0.7889606 -0.9040742980263147 0.5155915844589016
0.7909605 -0.907196362818573 0.5103132987674769
0.7929604 -0.910289937710266 0.5047630147662358
0.7949603 -0.9135447276835434 0.499387044347811
0.7969602 -0.9171272839273298 0.4938288952143226
0.7989601 -0.920337674819101 0.48854212785149725
0.80096 -0.9228055391661338 0.482751850728464
0.8029599 -0.9262082372297098 0.4774157963049227
0.8049598 -0.9291471566288838 0.4719494901413849
0.8069597 -0.932021285109185 0.4661896869117473
0.8089596 -0.9351483181424451 0.4606372302606263
0.8109595 -0.9380367949001829 0.4549110053177598
0.8129594 -0.9410418544102742 0.449357634906727
0.8149593 -0.9437192697396777 0.44368662728428715
0.8169592 -0.9464642883969642 0.4381319812032845
0.8189591 -0.9495257070782485 0.43234569371254744
