! Created with skrf 1.8.0 (http://scikit-rf.org).
# GHz S RI R 50.0 
!freq ReS11 ImS11
0.001 -0.9958097694273034 0.010011407601001387
0.0029999 -0.9730432821657329 0.027931993720741066
0.0049998 -0.9343553302094862 0.04387324564716688
0.0069997 -0.8844665116384359 0.05891224583363833
0.0089996 -0.8245580849921451 0.06960954055052965
0.0109995 -0.7608093040573968 0.07783784966418635
0.0129994 -0.695406417561072 0.08471241943484314
0.0149993 -0.6344239623496025 0.08764101518606036
0.0169992 -0.5770882105595221 0.09133667647639487
0.0189991 -0.5268739181105421 0.09171143895532578
0.020999 -0.4743825084417615 0.09244724924440406
0.0229989 -0.43236924854403014 0.09125258803442407
0.0249988 -0.39504242213003876 0.09449696207241282
0.0269987 -0.3589588089672756 0.08892179513501126
0.0289986 -0.32800700571652247 0.0872797566274744
0.0309985 -0.30043876512953777 0.08454232974880083
0.0329984 -0.27603300841282163 0.08675792596126537
0.0349983 -0.25192759435488715 0.08152430220419801
0.0369982 -0.23262539416549705 0.08131531636015833
0.0389981 -0.21501804527297583 0.0788841005185069
0.040998 -0.19877701303010697 0.0744591526980896
0.0429979 -0.18714803844957112 0.07263122252695062
0.0449978 -0.16939491152657454 0.07241533440777954
0.0469977 -0.1609098145083713 0.06914048362124495
0.0489976 -0.1498689554337416 0.06915844833728545
0.0509975 -0.14157968821035408 0.06532347213250825
0.0529974 -0.1327242516674541 0.06665251974605528
0.0549973 -0.12501095055765574 0.062346104673342895
0.0569972 -0.11858752050661218 0.06073003299975267
0.0589971 -0.11339151520046059 0.05879523603847978
0.060997 -0.10629319838218498 0.06044687106278581
0.0629969 -0.10229213262602926 0.05699379210123174
0.0649968 -0.09555541426944182 0.05552832935947238
0.0669967 -0.09013689278183658 0.05629588676591013
0.0689966 -0.08621602126951096 0.054525592731587726
0.0709965 -0.08330704413949044 0.05298614091866565
0.0729964 -0.07843849569457506 0.05232150574945183
0.0749963 -0.07541138743704921 0.05188729518768677
0.0769962 -0.0727920859885972 0.050541725973974855
0.0789961 -0.0695794780888762 0.04980617763519479
0.080996 -0.06718791276919757 0.04784501867111951
0.0829959 -0.06473174161891536 0.049123085963073854
0.0849958 -0.06265099360984291 0.04703285831531513
0.0869957 -0.0598705140804362 0.04669115495112476
0.0889956 -0.05934538131506346 0.04590892041744481
0.0909955 -0.05693289544749726 0.04514488163988716
0.0929954 -0.05421076927151666 0.04438481792185883
0.0949953 -0.05493870846944287 0.04454052856419252
0.0969952 -0.051379336326200405 0.04346827897925179
0.0989951 -0.0508632189430742 0.04502161696745235
0.100995 -0.05007568537632927 0.041830092073803476
0.1029949 -0.04763651744815193 0.041998586715854144
0.1049948 -0.04673749717643665 0.04230083962385384
0.1069947 -0.0452884424799213 0.040853451675776316
0.1089946 -0.044467675049347954 0.040449889382095795
0.1109945 -0.04397723397014315 0.040473568328884074
0.1129944 -0.04349313468597973 0.040100890295370686
0.1149943 -0.04207014930990108 0.039396214833037554
0.1169942 -0.0419453559241552 0.03782183660566758
0.1189941 -0.039625435202857315 0.0390486957502438
0.120994 -0.039516518574129175 0.03916609485475696
0.1229939 -0.0389670125797414 0.037260221494777375
0.1249938 -0.038036145634012655 0.037883484625789554
0.1269937 -0.038059622397765724 0.037205299614968546
0.1289936 -0.036790909726110946 0.03660829126458804
0.1309935 -0.03545987598322862 0.035684031499730554
0.1329934 -0.03536371073692254 0.035064827584551685
0.1349933 -0.03518731321186031 0.035726813939920936
0.1369932 -0.03391503148083574 0.035523066871887485
0.1389931 -0.032984983186347634 0.0347252913913687
0.140993 -0.03384072833936843 0.03454056393668764
0.1429929 -0.03307199389176815 0.03536981702459849
0.1449928 -0.03198001723897204 0.03487338853466272
0.1469927 -0.03135897272099196 0.0342256837499156
0.1489926 -0.03162936842334147 0.03379799165239192
0.1509925 -0.030874425155202875 0.03528969602709001
0.1529924 -0.030385144458252654 0.03369054225021998
0.1549923 -0.031192040958075123 0.03398160146471452
0.1569922 -0.030105041297520507 0.033861256933361096
0.1589921 -0.030370131655320015 0.0352928925527687
0.160992 -0.02983884925927758 0.03349786223156446
0.1629919 -0.02960257292856707 0.03370535416821034
0.1649918 -0.029476812464983477 0.034037444439864284
0.1669917 -0.02917084375035067 0.03348372770593048
0.1689916 -0.029612737873067743 0.03320367838662432
0.1709915 -0.029262460753200395 0.03344535222759724
0.1729914 -0.029502296003747215 0.03328158987996872
0.1749913 -0.029710549551856376 0.033252792543162296
0.1769912 -0.03014460734267476 0.03261165373844063
0.1789911 -0.02942650084071183 0.032937963423141974
0.180991 -0.029162789558507735 0.03231672536006421
0.1829909 -0.02852808024108296 0.03208990278954196
0.1849908 -0.02956583706882427 0.03277722339498855
0.1869907 -0.028991747081040048 0.03256922161897538
0.1889906 -0.02897955754554473 0.031141578555569364
0.1909905 -0.029260208202102168 0.03121861468462127
0.1929904 -0.029190972344889328 0.031145744355413993
0.1949903 -0.02899887180124073 0.030976255647819594
0.1969902 -0.029199269293334808 0.03018572866601882
0.1989901 -0.029128077861716596 0.03060741746035141
0.20099 -0.02875546801608908 0.030218643078187588
0.2029899 -0.029521688998733517 0.030527772131993515
0.2049898 -0.028405547115112204 0.03010527351236115
0.2069897 -0.02842016393445911 0.029666950667826767
0.2089896 -0.02876057433674893 0.03009273735295859
0.2109895 -0.028561858837719424 0.02968791584056203
0.2129894 -0.028446911742199397 0.029686561345824924
0.2149893 -0.028162108991535935 0.029524413725591944
0.2169892 -0.027727275186882554 0.02925770741372394
0.2189891 -0.028258145910355567 0.029672549289891634
0.220989 -0.02785325093321659 0.02963982237084817
0.2229889 -0.028087836936820675 0.029306079242647956
0.2249888 -0.028374597609639285 0.030076548190942187
0.2269887 -0.02839235199565336 0.029409996433357483
0.2289886 -0.028457104209913323 0.029208448674005863
0.2309885 -0.028458821538962918 0.02960365640482295
0.2329884 -0.028737910843893516 0.02978350974282258
0.2349883 -0.028623875473802043 0.029531420994369936
0.2369882 -0.02879850063154314 0.029810605652178176
0.2389881 -0.02886196464165485 0.02983833344415245
0.240988 -0.028930284510085197 0.0302377588112027
0.2429879 -0.029544318950870313 0.03000227393395803
0.2449878 -0.029409231616367888 0.030133457909291755
0.2469877 -0.029864048672931975 0.02953499740852042
0.2489876 -0.029693316000163422 0.029549849757502876
0.2509875 -0.030122627276648876 0.029557016279070463
0.2529874 -0.030529165978306544 0.029525918163643257
0.2549873 -0.03073543916723237 0.029226999024022295
0.2569872 -0.030494833985988363 0.028931345793909585
0.2589871 -0.030675217405063113 0.029642045491488866
0.260987 -0.03064141363137178 0.029005459230107507
0.2629869 -0.031282879087019155 0.028604743900007397
0.2649868 -0.03120822958512346 0.028504309191319174
0.2669867 -0.03139894241902057 0.028471748150625118
0.2689866 -0.03137660133214702 0.02854861045729715
0.2709865 -0.03160393031220524 0.02817268293066632
0.2729864 -0.032006296388636286 0.02858325005864301
0.2749863 -0.032335882789769836 0.028384447624649364
0.2769862 -0.03201962446486813 0.02788129760189995
0.2789861 -0.03211239528270648 0.02789295042082308
0.280986 -0.03215798780428805 0.02786688041508476
0.2829859 -0.032226196376122666 0.027763728044532476
0.2849858 -0.032517333703742136 0.027518424354519285
0.2869857 -0.032527396707022274 0.028162178095499417
0.2889856 -0.03271082245391957 0.027773712351610913
0.2909855 -0.03284310451320668 0.02741525286165794
0.2929854 -0.03275095271639143 0.027788330632053812
0.2949853 -0.03278073531488004 0.028222925909848845
0.2969852 -0.0333834387601877 0.027921662451122497
0.2989851 -0.033428931336629227 0.027699577814631254
0.300985 -0.03362331218682604 0.027180215128125233
0.3029849 -0.0338773981776343 0.027901192051288916
0.3049848 -0.03399658266656963 0.028144794684793254
0.3069847 -0.034339772861406596 0.0278092438766563
0.3089846 -0.03454112883267593 0.02793344848865155
0.3109845 -0.034428870638631384 0.027857546083629087
0.3129844 -0.03509726872508398 0.02793593582449115
0.3149843 -0.03533959455227755 0.027770623598189534
0.3169842 -0.035555158780809705 0.028447204214519475
0.3189841 -0.036189381113087504 0.027393936640287816
0.320984 -0.036096468831616865 0.027261703532702578
0.3229839 -0.03658630156389874 0.027534785976216267
0.3249838 -0.03631998023575517 0.02740174532630208
0.3269837 -0.03664426694379482 0.02774880955420573
0.3289836 -0.03718477829262373 0.027205587299534165
0.3309835 -0.03736178006611401 0.02723620959325932
0.3329834 -0.03769987718552338 0.02706994095852361
0.3349833 -0.03794672258315635 0.026619831074729518
0.3369832 -0.03867617830012699 0.02643473574161289
0.3389831 -0.03854094002450558 0.02651994081204854
0.340983 -0.03867664278278694 0.026551246331179598
0.3429829 -0.03882432055746001 0.02624656534818546
0.3449828 -0.039107372065788716 0.026160741529764754
0.3469827 -0.03907246338854815 0.025961757006185762
0.3489826 -0.03937927921742794 0.025854231529325658
0.3509825 -0.03948265675600785 0.025860095317898263
0.3529824 -0.039764959086803164 0.02569119389687899
0.3549823 -0.03984043364942957 0.02615206488356177
0.3569822 -0.039907119819697245 0.025677235862808342
0.3589821 -0.04056040619581602 0.02548442069942542
0.360982 -0.0409736552540101 0.025336655969714142
0.3629819 -0.04067623645777138 0.02563817141355871
0.3649818 -0.04088498102331876 0.02526436065016294
0.3669817 -0.0412485465120548 0.02503450712894737
0.3689816 -0.04125658455330458 0.025356334259313433
0.3709815 -0.04143770896617311 0.02525204568666778
0.3729814 -0.0416726599869019 0.025093671198524542
0.3749813 -0.04204452478394019 0.025373550713123867
0.3769812 -0.042043186855885956 0.025222497363347345
0.3789811 -0.04224788712057673 0.025230399672335077
0.380981 -0.04277017270530216 0.024957438658596336
0.3829809 -0.04312372361885599 0.024773880041226222
0.3849808 -0.043174723950802914 0.024902697467977505
0.3869807 -0.04389942672633131 0.025024714050789383
0.3889806 -0.043555220519143754 0.025175109768786515
0.3909805 -0.04412368404509245 0.025180517163926976
0.3929804 -0.04441730462044998 0.025243279756908845
0.3949803 -0.044785375071646635 0.02486421064838931
0.3969802 -0.045271792943844716 0.024709010514988635
0.3989801 -0.045747795301963136 0.02496575526740089
0.40098 -0.04550219665818228 0.02439999520618195
0.4029799 -0.0462873464748466 0.02418190393966191
0.4049798 -0.04624162385731923 0.023941919878821175
0.4069797 -0.0467044600613633 0.02419704729972684
0.4089796 -0.04654719211501466 0.023975384289683814
0.4109795 -0.0471361837742834 0.023448016736853913
0.4129794 -0.047413335274113316 0.023381164640454227
0.4149793 -0.047920136800582845 0.023251984259376638
0.4169792 -0.047889935765182565 0.023479678170105094
0.4189791 -0.048097886717758706 0.023316404752992747
0.420979 -0.048550085427939926 0.023185412392951715
0.4229789 -0.049076908201956246 0.022913186128928294
0.4249788 -0.048956889071713784 0.02245600535040094
0.4269787 -0.04924831291532698 0.022447924640805375
0.4289786 -0.049169924502326975 0.02216803703849948
0.4309785 -0.04946421681066464 0.022293851399264812
0.4329784 -0.05001852285943568 0.022171118752404455
0.4349783 -0.05011060313421675 0.02210493102935061
0.4369782 -0.050435111218117536 0.022122171218240404
0.4389781 -0.0507630988649735 0.02181039945562656
0.440978 -0.05068059227634522 0.02189713692387802
0.4429779 -0.051084520311363436 0.022013023232899057
0.4449778 -0.05130141910485101 0.021758073214487514
0.4469777 -0.05158689620388655 0.021625211610451146
0.4489776 -0.05162502440343303 0.021577501740225734
0.4509775 -0.052295507068670366 0.021105701782556642
0.4529774 -0.05240946564234911 0.020929624511373073
0.4549773 -0.05251549999235014 0.02112789560691057
0.4569772 -0.052887958013824746 0.02095360688306922
0.4589771 -0.05346699024859358 0.02087183558794728
0.460977 -0.0533143438517857 0.020716888280896104
0.4629769 -0.05387854018988892 0.020594521882829817
0.4649768 -0.05422549726296286 0.020393917392973856
0.4669767 -0.05432813682829128 0.02004048692402513
0.4689766 -0.05475184251600013 0.01991627875663615
0.4709765 -0.05507671921318583 0.019555995436007167
0.4729764 -0.054902908827344374 0.01957102004357259
0.4749763 -0.055438783276369155 0.019334447922573102
0.4769762 -0.05567916797883049 0.018987122537731303
0.4789761 -0.05597672750252042 0.01869808293240066
0.480976 -0.05628303407935145 0.018790686819386348
0.4829759 -0.056540493732687554 0.018842046177255482
0.4849758 -0.05659975790230885 0.018880663408763345
0.4869757 -0.056961842478973165 0.01831204657881526
0.4889756 -0.05699611264866764 0.018520995547986262
0.4909755 -0.057441895067106244 0.01810156456440477
0.4929754 -0.057740310792612465 0.01819423241633908
0.4949753 -0.057619541569957064 0.01817895491264487
0.4969752 -0.058016669836002524 0.017929994716347025
0.4989751 -0.058089417826454784 0.01743189851157524
0.500975 -0.05810469641175399 0.017339886070988127
0.5029749 -0.05854416748923334 0.01749088119287994
0.5049748 -0.05852293903518891 0.017581435665366147
0.5069747 -0.05903182783166687 0.01714331762701281
0.5089746 -0.059236719489814724 0.01704856233567221
0.5109745 -0.059588739859491355 0.016996382077435195
0.5129744 -0.06009045378133032 0.016721403550850982
0.5149743 -0.06050527350465229 0.016459786487558737
0.5169742 -0.0606655090562873 0.016679035242921976
0.5189741 -0.060970252845764676 0.01649652299800128
0.520974 -0.06123082498083462 0.01658560365454838
0.5229739 -0.06169586745397303 0.016309212856051386
0.5249738 -0.06193310275855467 0.016161725976142377
0.5269737 -0.062298391516780384 0.016088293751033843
0.5289736 -0.06283112976678407 0.015705101739504023
0.5309735 -0.06317863235982803 0.015355576976648189
0.5329734 -0.06326759226869197 0.015376309856735073
0.5349733 -0.06389432576204472 0.01496885346527159
0.5369732 -0.0642402508454728 0.014823409752347656
0.5389731 -0.06463405371553163 0.014619146536433703
0.540973 -0.06460643684103676 0.014081085806956033
0.5429729 -0.06517247064783604 0.013668256276592017
0.5449728 -0.06533789498468916 0.013706738334497107
0.5469727 -0.06548655559469152 0.013242858119399764
0.5489726 -0.06545086325647193 0.013235046926803499
0.5509725 -0.06599804803932545 0.012770509618639174
0.5529724 -0.06609459856909984 0.012719671279347904
0.5549723 -0.06628308995212201 0.012304718257287114
0.5569722 -0.06663870936526421 0.012198138732631123
0.5589721 -0.06689470369494342 0.011911017013321458
0.560972 -0.06681749208305142 0.011496757669651317
0.5629719 -0.06683373436216414 0.011336539419545422
0.5649718 -0.06670849027841792 0.011139981123146618
0.5669717 -0.06715583838973246 0.01105669559613686
0.5689716 -0.06716776708290886 0.01070969487507678
0.5709715 -0.0673807911097398 0.01064297364234816
0.5729714 -0.06737045812097779 0.0105079553182078
0.5749713 -0.06761969649625627 0.010378838800115978
0.5769712 -0.06727655299068337 0.010240724160555176
0.5789711 -0.06802637718159767 0.010161772425422513
0.580971 -0.06841352378382727 0.010008631833751398
0.5829709 -0.06875650489346682 0.010043181696051964
0.5849708 -0.0687069396081938 0.009894969878584469
0.5869707 -0.06938186077347908 0.009852496145026285
0.5889706 -0.06912055828831486 0.009612843804479305
0.5909705 -0.0698828156039188 0.009383403144664435
0.5929704 -0.07015164637379392 0.009170452984990671
0.5949703 -0.07061916340219701 0.009368088561039056
0.5969702 -0.0705770809835286 0.008600655348784753
0.5989701 -0.07105852843971508 0.008607916037884172
0.60097 -0.07155663437989496 0.008198012119100581
0.6029699 -0.07167982045014328 0.007825852764853463
0.6049698 -0.07197949487633735 0.007608533009852574
0.6069697 -0.07250396556868481 0.007229647385941947
0.6089696 -0.07265674845495512 0.007187513527956102
0.6109695 -0.07282898033894683 0.006738940050359941
0.6129694 -0.07324478373850553 0.006614868597691965
0.6149693 -0.07349096954936904 0.0063852046972301645
0.6169692 -0.0738777114780063 0.0056168440000153
0.6189691 -0.07364122792790652 0.005428004726692016
0.620969 -0.0741133221923604 0.005167906438118035
0.6229689 -0.07433691246401586 0.0047382222522582805
0.6249688 -0.07440069328572622 0.004452347381085863
0.6269687 -0.07469509418573478 0.004007203925793457
0.6289686 -0.07467266106160948 0.0039015388843553454
0.6309685 -0.07486286873386193 0.0036858434014888537
0.6329684 -0.07495164801456262 0.003241167080455791
0.6349683 -0.07483502808365113 0.0031261595593770966
0.6369682 -0.0748466046261722 0.0027599090274665478
0.6389681 -0.07489202246215232 0.0028890525612425416
0.640968 -0.07504430729392217 0.0024370993324338147
0.6429679 -0.07520347574838168 0.002321328417181058
0.6449678 -0.0750498536038343 0.0025560165881719707
0.6469677 -0.07546567805217388 0.0024956387653057716
0.6489676 -0.07595448238547589 0.0021954641113546627
0.6509675 -0.07586330406142475 0.002242417019432723
0.6529674 -0.07639029907874365 0.0020303350288659455
0.6549673 -0.07642129083893553 0.0018882149945200072
0.6569672 -0.07671387452546476 0.0015935878503862896
0.6589671 -0.07704226559318787 0.0013691664286315033
0.660967 -0.07752059852744864 0.001466309702563312
0.6629669 -0.07747347663151921 0.0010606265524294237
0.6649668 -0.07812077817945745 0.0008181331064121347
0.6669667 -0.07838315499833072 0.0005239615872784584
0.6689666 -0.07902452963748215 0.0007870722321796572
0.6709665 -0.07920746723465674 0.000251497063590532
0.6729664 -0.07966449710988065 -0.0004034481169834722
0.6749663 -0.07979058629779429 -0.0007419337620804128
0.6769662 -0.07994924132908317 -0.0011024150098730215
0.6789661 -0.08006343210803257 -0.0011794551802948652
0.680966 -0.08069175178809693 -0.001819340120004287
0.6829659 -0.08067206524508298 -0.0021165472358405657
0.6849658 -0.0807243600724315 -0.0026178439086934346
0.6869657 -0.0809316923062815 -0.0027670806066684914
0.6889656 -0.08150079504264456 -0.003381553438819143
0.6909655 -0.08170247998957367 -0.0038069135682598787
0.6929654 -0.0816599217254722 -0.004300571667601935
0.6949653 -0.08190592176677612 -0.004674166030194209
0.6969652 -0.08191828213043897 -0.005155632818079299
0.6989651 -0.0818527871482909 -0.005593614635013133
0.700965 -0.08184470052183072 -0.005864931306499892
0.7029649 -0.08229785307636339 -0.0064087178119746485
0.7049648 -0.08198569881999786 -0.006690443597298427
0.7069647 -0.08169985249223621 -0.0071968938821865905
0.7089646 -0.08168542181469708 -0.0072158875654713475
0.7109645 -0.08164150032786766 -0.007575011663218216
0.7129644 -0.08148992594715707 -0.007610886581631171
0.7149643 -0.08149145297742655 -0.007922327162554022
0.7169642 -0.08160042503866242 -0.00807166889977353
0.7189641 -0.0817786163711674 -0.008333803576880301
0.720964 -0.08191148709983534 -0.008431989782965364
0.7229639 -0.08234858376948676 -0.008589417776242895
0.7249638 -0.08195405362534755 -0.0089495023146807
0.7269637 -0.08185642156134998 -0.008903257012446309
0.7289636 -0.0823137815421686 -0.008929365663917548
0.7309635 -0.08215786357187738 -0.008997249872513154
0.7329634 -0.08246762920302964 -0.009205306109102938
0.7349633 -0.08286681407795879 -0.009319828120256814
0.7369632 -0.08344602453920191 -0.009634015838416235
0.7389631 -0.08350036430316433 -0.009484005697836792
0.740963 -0.08387964314352946 -0.009960113087211675
0.7429629 -0.08386661354072958 -0.00988475568323122
0.7449628 -0.08420402398437672 -0.01046309092700579
0.7469627 -0.08470597343593479 -0.01063699417491969
0.7489626 -0.08497853134950241 -0.011061404023775537
0.7509625 -0.08526088385982386 -0.011601705802882223
0.7529624 -0.08567907898437795 -0.011879706108552504
0.7549623 -0.08581950400075997 -0.012369003927667436
0.7569622 -0.08618628426276287 -0.012887013341371129
0.7589621 -0.08638848455253466 -0.013270112734160514
0.760962 -0.08644297627906736 -0.01375109986399329
0.7629619 -0.0865754837107079 -0.014451384565445601
0.7649618 -0.08665727755833043 -0.01471184875688155
0.7669617 -0.08645728493760307 -0.01508203462282378
