! Created with skrf 1.8.0 (http://scikit-rf.org).
# GHz S RI R 50.0 
!freq ReS11 ImS11
0.001 2.158852875007093 -0.7213540277250235
0.0029999 1.920947362427297 -0.1233681193001733
0.0049998 1.7724195227825408 0.06717050736651486
0.0069997 1.6634767115452764 0.16302683387150496
0.0089996 1.5738330955825826 0.21776979171024408
0.0109995 1.5058732085754396 0.2640296311738729
0.0129994 1.444086260367187 0.29434363413898235
0.0149993 1.3984065705121729 0.31022905094402137
0.0169992 1.3595934240548766 0.3125303587129088
0.0189991 1.325563396082226 0.3190260418801637
0.020999 1.2954175400435521 0.32132218452800965
0.0229989 1.2719051683805163 0.32045795175143055
0.0249988 1.25492858376438 0.3210255116159543
0.0269987 1.2344226660503317 0.31949439489462583
0.0289986 1.2217504534142187 0.32061896936260326
0.0309985 1.2095941562235684 0.3187764409345337
0.0329984 1.199644206630711 0.31991301120623583
0.0349983 1.1873500292543957 0.31819914844300234
0.0369982 1.178749410565065 0.32227116100756287
0.0389981 1.1720412989354139 0.3213036124091077
0.040998 1.1632404123040545 0.3219309616848686
0.0429979 1.1585235361281572 0.32474977502138747
0.0449978 1.1519884647674534 0.32643763185714797
0.0469977 1.1474518746544615 0.33022591435870186
0.0489976 1.1416339471860681 0.33242549346561345
0.0509975 1.1380396467966536 0.33647154354230013
0.0529974 1.1326162588883997 0.34213614723505426
0.0549973 1.1302833954337776 0.3415687715785222
0.0569972 1.1263253948520442 0.34898282217793974
0.0589971 1.1218511610486408 0.3525875194913083
0.060997 1.1193166911099437 0.35712280446647127
0.0629969 1.115144423629832 0.36199812984907703
0.0649968 1.1105545785133488 0.3657324760829237
0.0669967 1.1071650841983887 0.36867995279105004
0.0689966 1.104565961803773 0.3749808329242412
0.0709965 1.1004017198531897 0.3810344520579903
0.0729964 1.0975173462343042 0.3857780916180118
0.0749963 1.0941270726320014 0.39007515623207023
0.0769962 1.0912264700437453 0.39673983360349385
0.0789961 1.0877502138285557 0.40119501119166584
0.080996 1.0852816257599605 0.40745331100319726
0.0829959 1.08232832200976 0.4125234197099593
0.0849958 1.0780028664871382 0.4198355698106492
0.0869957 1.0753616869495188 0.424517459930955
0.0889956 1.0712145135697204 0.43016057365252014
0.0909955 1.0688732029649661 0.43543670087328473
0.0929954 1.0653635300048823 0.44081885643038315
0.0949953 1.0622231270992306 0.4486911611263086
0.0969952 1.0577499239939743 0.4547578475872317
0.0989951 1.0557890504281786 0.46011592171762294
0.100995 1.0528551299218711 0.46608372723783853
0.1029949 1.049192205206994 0.47103159477259465
0.1049948 1.0448963181685074 0.477411003290503
0.1069947 1.0418055987444843 0.48422338879933136
0.1089946 1.0375111782302096 0.49042814713746585
0.1109945 1.0340763231131784 0.49537803018246995
0.1129944 1.0308047972746306 0.5027768538495903
0.1149943 1.026879602182264 0.5083422268732014
0.1169942 1.0230785181254891 0.5146541168534922
0.1189941 1.020820732963245 0.5191783380457965
0.120994 1.0174080354713084 0.5261700544712509
0.1229939 1.0120825291703925 0.5329280452072991
0.1249938 1.0089851555706748 0.5379788311519675
0.1269937 1.0047649675334456 0.5445197968810603
0.1289936 1.0011262710016056 0.5497529693943621
0.1309935 0.9984245852961905 0.557019428166703
0.1329934 0.9926184317614827 0.5626550351968398
0.1349933 0.9893069895562393 0.5686644993089766
0.1369932 0.9851136395936033 0.5757432795413695
0.1389931 0.9816639153893961 0.5805854440937885
0.140993 0.9762468253446648 0.5878364294696121
0.1429929 0.9721494424352705 0.5922911166146282
0.1449928 0.9690456782228806 0.600048685877543
0.1469927 0.9641136365017184 0.6059396466226828
0.1489926 0.9589103681373794 0.6128523064410649
0.1509925 0.9561062331062387 0.6173828358239618
0.1529924 0.950678419070485 0.6233625661055248
0.1549923 0.9459447989458224 0.6298717277629319
0.1569922 0.9417033684724537 0.6354910937833717
0.1589921 0.9369881689344208 0.6429778454837396
0.160992 0.9332334126411241 0.6476173227334185
0.1629919 0.9286340064867097 0.6522097150676036
0.1649918 0.9236171554612115 0.65957662022804
0.1669917 0.919427746064478 0.6648122164056196
0.1689916 0.9138241164516571 0.6694552594000818
0.1709915 0.9103289155437466 0.6763949023381718
0.1729914 0.9039099791492079 0.6824918734975238
0.1749913 0.899959834516624 0.6878350693333279
0.1769912 0.8950537577911257 0.6935898826077309
0.1789911 0.8900786750212214 0.6993159782444706
0.180991 0.8853532656778232 0.7050562308985581
0.1829909 0.8800449160374395 0.7091311939801123
0.1849908 0.8740498039865107 0.7156697317496621
0.1869907 0.8700600506946212 0.7196491851194993
0.1889906 0.8644191911558288 0.7264550041925637
0.1909905 0.8602803742249318 0.7320726804432846
0.1929904 0.8545343035555688 0.7367895515218059
0.1949903 0.8493223148361234 0.7423934969210131
0.1969902 0.8433097529915541 0.7476387766739755
0.1989901 0.83899579168895 0.7530517433888957
0.20099 0.8341478076992934 0.7584424181431426
0.2029899 0.8271557426860735 0.7627653371148627
0.2049898 0.8230965696809172 0.7688171588846516
0.2069897 0.8174357134783174 0.7732659371239875
0.2089896 0.8120424428427917 0.7792968955337904
0.2109895 0.8064216138749517 0.7849177849204565
0.2129894 0.8008229860944056 0.7901132009254177
0.2149893 0.794271317327021 0.7941859194830034
0.2169892 0.789598743855392 0.8000539527275878
0.2189891 0.7825524477551948 0.8047796736305646
0.220989 0.77851733399398 0.8091108975940875
0.2229889 0.7728157792591795 0.8136771423385949
0.2249888 0.7665436095517292 0.819425206122205
0.2269887 0.7607405602566064 0.8238492775875941
0.2289886 0.7550621328144312 0.8283625036636225
0.2309885 0.7489684453384287 0.8340450008957163
0.2329884 0.7426155422842408 0.8382664125871698
0.2349883 0.7369928221147816 0.8428913568768722
0.2369882 0.7308665086330287 0.8480116908964622
0.2389881 0.7246674915915129 0.8521492227679021
0.240988 0.7191515985630897 0.8561162751023268
0.2429879 0.7131809718487756 0.8607909037084733
0.2449878 0.7077728432667941 0.8652354415942032
0.2469877 0.7007469514722641 0.8701035321878761
0.2489876 0.6953052387009285 0.8737875894994269
0.2509875 0.6883264964245845 0.8782710586645699
0.2529874 0.6824991125771842 0.8827117459459587
0.2549873 0.6755252854194723 0.8860394113449824
0.2569872 0.6703903803991723 0.8903988825879983
0.2589871 0.6642894664213672 0.8950610074489458
0.260987 0.6571750387058628 0.8989878350962874
0.2629869 0.6514113383101963 0.9020859060196955
0.2649868 0.6454684047079147 0.9059286202501884
0.2669867 0.638514877974475 0.9105759813470219
0.2689866 0.6325003874218632 0.9158182461439868
0.2709865 0.6259531802838227 0.9182795605824423
0.2729864 0.6193078663569788 0.923094941914965
0.2749863 0.6127443238963195 0.926537173864333
0.2769862 0.606279613439999 0.9293611559667521
0.2789861 0.6001519546075181 0.9331456513535101
0.280986 0.5935870043720577 0.9369679487315858
0.2829859 0.5867051942641082 0.9401809460570252
0.2849858 0.5801397164998082 0.9445209636200065
0.2869857 0.5733199067462386 0.9479445724647404
0.2889856 0.5666408760298869 0.9513202355398027
0.2909855 0.5601653279600349 0.9542947125576148
0.2929854 0.5533610483115212 0.9581345967137903
0.2949853 0.546615406985294 0.962031033407575
0.2969852 0.5402694834932096 0.9638258930217292
0.2989851 0.5334110187848258 0.9676861569523542
0.300985 0.5274895756653606 0.9710835774312073
0.3029849 0.5216561861383566 0.9745338368721999
0.3049848 0.5131707814984701 0.9774931969831461
0.3069847 0.5075525030259584 0.9799348822431571
0.3089846 0.5001205578611918 0.9828907496956295
0.3109845 0.493985288311262 0.9864182429146615
0.3129844 0.48636960193427037 0.9893882880769214
0.3149843 0.47988650874297667 0.9915081928198539
0.3169842 0.47394838321884464 0.9948543075703332
0.3189841 0.4660373089453984 0.9967064726444973
0.320984 0.4587425087214893 0.999542406588054
0.3229839 0.45217243857203016 1.0032249826446669
0.3249838 0.44485491333259 1.0051911285751916
0.3269837 0.43937608999960087 1.0076490368277669
0.3289836 0.4315067257262026 1.0102107969756708
0.3309835 0.4249447540658678 1.0123101888310884
0.3329834 0.41785491941023556 1.0143964777810097
0.3349833 0.4106636427795041 1.0161640261641882
0.3369832 0.403770169199761 1.0188436186210235
0.3389831 0.3970283944234328 1.0212329849799076
0.340983 0.3900850727858461 1.0236483007692172
0.3429829 0.38277002628735335 1.025452252634901
0.3449828 0.3758958945670434 1.0276320424680505
0.3469827 0.36885111484391975 1.0301457183402607
0.3489826 0.3610444269767997 1.0321398184189587
0.3509825 0.3547247440996849 1.0338286116784907
0.3529824 0.34848619116432705 1.0352243308010147
0.3549823 0.3410747469720406 1.0383122988458264
0.3569822 0.33358023777060786 1.0405709328239199
0.3589821 0.32640774413294565 1.0412179105741906
0.360982 0.3189182756929997 1.0434101770043633
0.3629819 0.31275146121995157 1.045941429526544
0.3649818 0.3056544045234607 1.0467975937166436
0.3669817 0.29857159167772446 1.0480420668068664
0.3689816 0.2910774370767872 1.049854459236797
0.3709815 0.28536392765358276 1.051063752890107
0.3729814 0.27702507769549267 1.0520093420701895
0.3749813 0.26979004431915166 1.0539988784562395
0.3769812 0.26310077714557145 1.0556581194455408
0.3789811 0.25661013738254107 1.0564353808717386
0.380981 0.24839559224242097 1.0566245019953076
0.3829809 0.2413591178131744 1.0584718872739611
0.3849808 0.2340904345198715 1.0591419055138025
0.3869807 0.22784152463145868 1.0613278389482774
0.3889806 0.22075477811327118 1.062588640775781
0.3909805 0.2133028875472156 1.0631758595800118
0.3929804 0.2060371352932543 1.0639572593141469
0.3949803 0.19871662941796914 1.0649708257173696
0.3969802 0.19120793070109945 1.0658547388852506
0.3989801 0.18484685491174743 1.0672345422267189
0.40098 0.17736216972358404 1.0673311078912922
0.4029799 0.17013039654853673 1.0675857821859662
0.4049798 0.1635270762338834 1.0689548919012866
0.4069797 0.15623565837051928 1.0694936301158091
0.4089796 0.1490997271379031 1.0706297152534447
0.4109795 0.14209851615284758 1.0697496970336664
0.4129794 0.1348815030382963 1.070760241012845
0.4149793 0.127875977045684 1.0714732610329976
0.4169792 0.12079426135085372 1.0722540289058042
0.4189791 0.11354624546606734 1.0730434642211255
0.420979 0.1065023159917716 1.0730715748298603
0.4229789 0.09907896158228534 1.0722140060538863
0.4249788 0.0920287955620184 1.0726555370015343
0.4269787 0.08513705234503083 1.0729652665781593
0.4289786 0.07838312200211106 1.0730253437934063
0.4309785 0.07117066553021685 1.073060853451058
0.4329784 0.06394118629925177 1.073092267390637
0.4349783 0.05702226472497417 1.073469959952575
0.4369782 0.05027825932896626 1.0738809934219253
0.4389781 0.04257722582107206 1.0734173948574686
0.440978 0.035771485255862406 1.0727768936442559
0.4429779 0.028594581020226578 1.0731663339218314
0.4449778 0.0215981107589064 1.0729121074947776
0.4469777 0.01507621563067351 1.0723188749389143
0.4489776 0.008132420163194681 1.0727329552895946
0.4509775 0.00027462537196489 1.0712150129018518
0.4529774 -0.006067810410865404 1.0708775624398448
0.4549773 -0.012900808355875988 1.0707126938640126
0.4569772 -0.020048397339199026 1.0704637765434717
0.4589771 -0.02722392244546125 1.0702627960730444
0.460977 -0.033887023543439115 1.069855361545613
0.4629769 -0.04110919958971346 1.068644672607708
0.4649768 -0.04807853012701975 1.0684645339252445
0.4669767 -0.054578532835096935 1.0676705770677895
0.4689766 -0.062264288913476316 1.0661821051799651
0.4709765 -0.0686645688770347 1.0655495776447859
0.4729764 -0.07533535055408776 1.0648202934237556
0.4749763 -0.08292990407391457 1.0635451641729718
0.4769762 -0.08933472819500528 1.0627715723647886
0.4789761 -0.09652541454510821 1.0614789762001
0.480976 -0.10316780983364349 1.0609076121659533
0.4829759 -0.11009221513189855 1.0600206300729176
0.4849758 -0.11708537280238879 1.0588487760806005
0.4869757 -0.1237555998407054 1.0578669660292654
0.4889756 -0.13052566335025967 1.056942837588352
0.4909755 -0.1375449541218295 1.055297394744285
0.4929754 -0.1444019413917484 1.0537602289306491
0.4949753 -0.15086045469554532 1.0528354320216597
0.4969752 -0.1573719980341003 1.0507485385011517
0.4989751 -0.16421316522518892 1.049692452771562
0.500975 -0.17057181501056526 1.0480732356308569
0.5029749 -0.1779386733680744 1.047246469315191
0.5049748 -0.18433496915888758 1.0458375997249845
0.5069747 -0.1909709223462135 1.0439611514163916
0.5089746 -0.19790973164913114 1.04222074540725
0.5109745 -0.20372709522052065 1.0408373243648186
0.5129744 -0.21103373121923874 1.0383869920879967
0.5149743 -0.21776883077913806 1.036821951685917
0.5169742 -0.22399423067177066 1.0356419305406295
0.5189741 -0.23065263045274426 1.0333547649186456
0.520974 -0.23717221631581262 1.0313351611890507
0.5229739 -0.24391789543538533 1.0300441870122226
0.5249738 -0.25014089941919576 1.0282411898370045
0.5269737 -0.2567764572144973 1.0264072759131955
0.5289736 -0.2634036423117417 1.0239897497044108
0.5309735 -0.27034005398404193 1.0220081390390767
0.5329734 -0.2765222905186882 1.0205468751798632
0.5349733 -0.2823422672244146 1.0181595039080127
0.5369732 -0.28945080981728477 1.0159573514059763
0.5389731 -0.29501281644559907 1.0137543698795028
0.540973 -0.30196255740734024 1.0114582364282465
0.5429729 -0.30815420939602156 1.008605789927637
0.5449728 -0.314610574114068 1.0069752675371457
0.5469727 -0.3211071141318404 1.004583536084345
0.5489726 -0.3271843980538913 1.0026394659619973
0.5509725 -0.3336486497597032 1.0001479667456383
0.5529724 -0.3401236784253861 0.9980673215212411
0.5549723 -0.34639960914587536 0.9952681472653013
0.5569722 -0.3526906245418577 0.9925341726628854
0.5589721 -0.3588279745062293 0.9900976508262365
0.560972 -0.3649202103349747 0.9877617603060092
0.5629719 -0.3709303488251008 0.9849438657682769
0.5649718 -0.3773348999083209 0.9823781852871764
0.5669717 -0.3833112344972073 0.9796486608359966
0.5689716 -0.389624962210752 0.9772246156437393
0.5709715 -0.39566430082703063 0.9741181173632663
0.5729714 -0.4015692944275525 0.9715769464735635
0.5749713 -0.407724645858239 0.9689886955239922
0.5769712 -0.4139124617715243 0.9657091131416564
0.5789711 -0.41966791941377285 0.9623188662000395
0.580971 -0.42545954591475693 0.9595576838891471
0.5829709 -0.4315317573188748 0.9567955725250784
0.5849708 -0.4373587828645427 0.9541422309441326
0.5869707 -0.442775466522001 0.9507607456487078
0.5889706 -0.4494837358397592 0.9475172848800626
0.5909705 -0.4550255742011143 0.9450682712501646
0.5929704 -0.46139496757192655 0.941507744133591
0.5949703 -0.466991707893848 0.9385955214368146
0.5969702 -0.47235746405908413 0.9355840944289483
0.5989701 -0.4788141204189162 0.9320149414129498
0.60097 -0.48420323511505375 0.9288469263316974
0.6029699 -0.4899433321515927 0.9257737178764566
0.6049698 -0.49578821641933385 0.9224574913090318
0.6069697 -0.501180615487254 0.9187866269718863
0.6089696 -0.5070702169240623 0.9155790302541814
0.6109695 -0.5127977777837291 0.9120873691518211
0.6129694 -0.5182085711373994 0.9089193360642724
0.6149693 -0.5237012864575464 0.9048498418398196
0.6169692 -0.5292918318708502 0.9011590645099201
0.6189691 -0.5346297960533719 0.8983682184588456
0.620969 -0.5404106337759578 0.8950779453041198
0.6229689 -0.5459501087163544 0.8911854827827239
0.6249688 -0.5512922707510474 0.8875966052617885
0.6269687 -0.556739403819438 0.8838621712855591
0.6289686 -0.5623664788456988 0.8802025130436499
0.6309685 -0.5677085658603842 0.8766865805747448
0.6329684 -0.5728223819403255 0.8727716145985058
0.6349683 -0.5783080746750219 0.8690515583323065
0.6369682 -0.5836178747072069 0.8654654389559402
0.6389681 -0.5889875311895608 0.861689934366018
0.640968 -0.5943190429366696 0.8571875946528127
0.6429679 -0.5994303479157369 0.8537505519292209
0.6449678 -0.6047298182085449 0.8496929704938421
0.6469677 -0.6099635968179022 0.8462073336418645
0.6489676 -0.6148241770156462 0.8416076649846911
0.6509675 -0.6202531575727751 0.8383003479311878
0.6529674 -0.6250668415902676 0.8339519715958881
0.6549673 -0.6303188122237336 0.8302214108160388
0.6569672 -0.6352109409643787 0.8259871117236408
0.6589671 -0.6405593728906207 0.8217204944000625
0.660967 -0.6453462732852422 0.8174496443750761
0.6629669 -0.6501475430178433 0.8136948112571596
0.6649668 -0.6547595599026271 0.8093371094054678
0.6669667 -0.659754067146131 0.8055068236294732
0.6689666 -0.6649231636457898 0.8009529864997676
0.6709665 -0.6701416650094478 0.7966070707417147
0.6729664 -0.6745485749278187 0.7928165895991326
0.6749663 -0.6794420578140972 0.7880796379136881
0.6769662 -0.6841506107344054 0.7840893713820963
0.6789661 -0.6888279609662105 0.7796769490267306
0.680966 -0.6934517629001656 0.7751737340732422
0.6829659 -0.6980589122574029 0.7708358945263836
0.6849658 -0.7027923976522538 0.7664440153420367
0.6869657 -0.7075978925869892 0.7621585217248805
0.6889656 -0.7119659616371403 0.7574885474222725
0.6909655 -0.7164908050727147 0.7531834113543778
0.6929654 -0.7210872468409787 0.7483916406773381
0.6949653 -0.7256890574730596 0.7440716854495044
0.6969652 -0.7303414008157272 0.7396526475544911
0.6989651 -0.7346044545627589 0.7350474724778155
0.700965 -0.7391913506949267 0.730359383052038
0.7029649 -0.7436483779638368 0.7257118819183668
0.7049648 -0.7477524773423324 0.7211484436493022
0.7069647 -0.7521869788012889 0.7165048694727639
0.7089646 -0.7564214880026642 0.7119681771682721
0.7109645 -0.760868961142257 0.7070641381344821
0.7129644 -0.7651529718796922 0.7023925480907619
0.7149643 -0.7694735397179238 0.69759237137926
0.7169642 -0.7735905063063874 0.6932051148392385
0.7189641 -0.7773417532571492 0.6878058177616257
0.720964 -0.781656458019278 0.6833192586993472
0.7229639 -0.7858978341514069 0.6783706029288438
0.7249638 -0.7898005390930725 0.6735443306355673
0.7269637 -0.7938971028287909 0.6685692499697418
0.7289636 -0.7978245062725859 0.6636551783769141
0.7309635 -0.8020785544455683 0.658819962735479
0.7329634 -0.8057412387889491 0.6538097328261229
0.7349633 -0.8099593293014711 0.6489242952824323
0.7369632 -0.813622163651267 0.6439485772982987
0.7389631 -0.8176796786301255 0.6390474173288291
0.740963 -0.8214061659122232 0.6341314021020241
0.7429629 -0.824989150099621 0.6290163613245865
0.7449628 -0.8286580170559834 0.6238041888031421
0.7469627 -0.8324121661820496 0.6190516295582913
0.7489626 -0.83622760039058 0.6135629724455979
0.7509625 -0.8399837579280363 0.6088353436890463
0.7529624 -0.8435523882833372 0.6032935368794101
0.7549623 -0.8469899928453769 0.5982025955491741
0.7569622 -0.8507046347458055 0.5932043781689469
0.7589621 -0.8541214974178674 0.5878491170641702
0.760962 -0.8575800379166449 0.5827701653658508
0.7629619 -0.8614082933603806 0.5774848749113983
0.7649618 -0.8645843635534582 0.5721386125358507
0.7669617 -0.8679077406059558 0.5672858169696499
0.7689616 -0.8714899782599194 0.5618935940836132
0.7709615 -0.874930616522038 0.5564656967527853
0.7729614 -0.8781303380180918 0.5512874060435895
0.7749613 -0.8811666997903536 0.5460118098018022
0.7769612 -0.88465679281847 0.5404187582169715
0.7789611 -0.88799005012255 0.5354565389510272
0.780961 -0.8910385320520742 0.5299956563097024
0.7829609 -0.8944329775976081 0.5246667821749191
0.7849608 -0.8972855529917798 0.5191565353961025
0.7869607 -0.9004307068855627 0.5137524250585521
0.7889606 -0.9037501826164174 0.5082247607071271
0.7909605 -0.9065716561983947 0.5028199921832359
0.7929604 -0.9093742362896602 0.49745429889244414
0.7949603 -0.912522230922977 0.49186172493226404
0.7969602 -0.9157862075038365 0.48633746866312405
0.7989601 -0.9188565962674528 0.480930980440551
0.80096 -0.9210426584957264 0.47523339738818393
0.8029599 -0.9241378028431155 0.46987263825096776
0.8049598 -0.9268875318194938 0.4644840086115345
0.8069597 -0.9295735890420246 0.4587167245022265
0.8089596 -0.9324360135666692 0.4532123438409751
0.8109595 -0.9350991054318183 0.4475499333954824
0.8129594 -0.9379480581208189 0.44187283550662604
0.8149593 -0.9404071357177224 0.4363107879638663
0.8169592 -0.9429139897641493 0.4307927194340405
0.8189591 -0.9457894929562396 0.42503658908621716
0.820959 -0.9483245239292237 0.419438239272824
