! Created with skrf 1.8.0 (http://scikit-rf.org).
# GHz S RI R 50.0 
!freq ReS11 ImS11
0.001 4.335031567455125 -1.437336578088856
0.0029999 1.9441636719826387 0.7673330109857861
0.0049998 1.3899273497036249 0.5581129874038652
0.0069997 1.2396557880226102 0.41856529680508914
0.0089996 1.1632782399666035 0.34108612213013123
0.0109995 1.1188975912316732 0.2981264629489788
0.0129994 1.0921584796942865 0.26431180470005644
0.0149993 1.0742158989217727 0.24554258078763727
0.0169992 1.0646803080545402 0.23155418191112828
0.0189991 1.0562189755145353 0.2239207239078722
0.020999 1.0494368722195402 0.21414079825763543
0.0229989 1.0454811153808918 0.2098273497839008
0.0249988 1.0435446115669968 0.208415736989922
0.0269987 1.0373704554584617 0.20663214639904137
0.0289986 1.0347804008614605 0.2061980223674527
0.0309985 1.032113582886673 0.20703160628669098
0.0329984 1.0321819397351746 0.20844069675167548
0.0349983 1.028278227534638 0.20959269075923448
0.0369982 1.0267451047559282 0.2123892170968477
0.0389981 1.025436338676169 0.21519263331244043
0.040998 1.0219281870421975 0.2181974078015278
0.0429979 1.0208004737572114 0.22310167814136572
0.0449978 1.0200039288321816 0.22497575152536423
0.0469977 1.0173939749458438 0.2306070444074298
0.0489976 1.0167777276003278 0.23454196758231274
0.0509975 1.01449730380134 0.23989900220844096
0.0529974 1.0145529435132705 0.24476547264411763
0.0549973 1.0113392180915501 0.24965953807237748
0.0569972 1.0093556540596897 0.2548629603321182
0.0589971 1.0072492016824672 0.26088905302816673
0.060997 1.0074437199471349 0.265913995288198
0.0629969 1.0040574162549867 0.27200216089955137
0.0649968 1.0024940369509394 0.27641924718334987
0.0669967 1.0016383365806383 0.28159425974418023
0.0689966 0.9995207401677945 0.2874487239206002
0.0709965 0.9975257118609404 0.2939384731242097
0.0729964 0.9954046357219332 0.2989464440289111
0.0749963 0.9938287492894479 0.30479836502889013
0.0769962 0.9916153981189784 0.3108791243831287
0.0789961 0.9897526587635077 0.31650093247472993
0.080996 0.9866071970860302 0.322550913471985
0.0829959 0.986170622592598 0.3290553177911203
0.0849958 0.9825920705748125 0.3347605407170385
0.0869957 0.9811100053538377 0.3405056667295028
0.0889956 0.9784138965440179 0.3473093513973655
0.0909955 0.9762728837744541 0.3529866636566039
0.0929954 0.9739125967459349 0.35825552344519995
0.0949953 0.9713972171615163 0.36626260066508454
0.0969952 0.9690681496558828 0.37050615099051043
0.0989951 0.9684562103168498 0.3778256481672148
0.100995 0.9636717743412878 0.38377728218868495
0.1029949 0.961688677064579 0.3891376514145595
0.1049948 0.9598008794299018 0.395487302018891
0.1069947 0.9566026165065463 0.4012427231600701
0.1089946 0.9536581186819497 0.40759650049847534
0.1109945 0.9512219970962973 0.4135991590255778
0.1129944 0.9483945790651366 0.42032487794955264
0.1149943 0.9456955339386852 0.4260122327723845
0.1169942 0.9416988056830715 0.4323013075765288
0.1189941 0.9409587774092023 0.43797837107939436
0.120994 0.9382739702842108 0.44442652429830354
0.1229939 0.9337778758804718 0.45036115530864756
0.1249938 0.9314367363233726 0.4569977102090119
0.1269937 0.9279340348726433 0.46313117592958153
0.1289936 0.9250232935361082 0.4689180138769108
0.1309935 0.9216361277635984 0.47366645781164135
0.1329934 0.9176350302514559 0.4800575730029649
0.1349933 0.9151248336515909 0.48669966665665115
0.1369932 0.9122746505940472 0.4924815022537494
0.1389931 0.9088192197187243 0.49794020388947424
0.140993 0.9046300206612363 0.5052198794500539
0.1429929 0.9019303923828873 0.511296053031592
0.1449928 0.8984704009108135 0.5166244366740959
0.1469927 0.8948786694670655 0.5219524119328716
0.1489926 0.8904885447448679 0.528316580674936
0.1509925 0.888597012405069 0.534910294770264
0.1529924 0.8836138952426997 0.5393762106406533
0.1549923 0.8798137521026181 0.5462096333942784
0.1569922 0.8763083961326448 0.5513527865720194
0.1589921 0.873752027438212 0.5585039127629235
0.160992 0.8684669622372914 0.5627749391645815
0.1629919 0.8652759330595815 0.5685521187720701
0.1649918 0.8616956069493167 0.5746329951074115
0.1669917 0.8574484426436223 0.5797227965040676
0.1689916 0.8532007483705785 0.5858218803768198
0.1709915 0.8498126207789884 0.5914488096805499
0.1729914 0.8452417098916735 0.5970683955969077
0.1749913 0.8412459010035319 0.603146403866927
0.1769912 0.8362131927082379 0.6086002926066212
0.1789911 0.8331012448163384 0.613988846931731
0.180991 0.828432911218294 0.6191126954536993
0.1829909 0.8248872798756115 0.6235838455653302
0.1849908 0.8204631391520807 0.6311940991552258
0.1869907 0.8167286830636075 0.6363347670035892
0.1889906 0.8115130894853869 0.6404478582113381
0.1909905 0.8073582148064463 0.646487056380354
0.1929904 0.8032674244859261 0.65214429656063
0.1949903 0.7989374244498317 0.6572594554539722
0.1969902 0.7937010424569583 0.6622562925297782
0.1989901 0.7895352538327334 0.6681038164799687
0.20099 0.7848607275075149 0.6729187591618676
0.2029899 0.7796918022524132 0.679499181603573
0.2049898 0.7758665376868598 0.6833539603331052
0.2069897 0.7709266123235723 0.6881297306243047
0.2089896 0.7664081276833077 0.6944167879136075
0.2109895 0.7615306734711298 0.6993033699086779
0.2129894 0.7566843532486283 0.7042316804470422
0.2149893 0.7518598654832113 0.7090020693517745
0.2169892 0.7468720067672925 0.7135006941064961
0.2189891 0.7417098113277909 0.7195112430520431
0.220989 0.7369881475121712 0.7239846415410319
0.2229889 0.7317155292094539 0.7287550295805487
0.2249888 0.7273712331111026 0.7346702126070576
0.2269887 0.7216958558124249 0.7385632965661404
0.2289886 0.7166073610568849 0.7430924437993435
0.2309885 0.7118012937907474 0.7478488301036887
0.2329884 0.7061589216232107 0.75295845027401
0.2349883 0.7016867127508091 0.7574757066675518
0.2369882 0.6960996262377017 0.7626177536723585
0.2389881 0.6911163674206202 0.7669280739634481
0.240988 0.6863839077555218 0.7720137564945871
0.2429879 0.6804822394024274 0.7763631027816138
0.2449878 0.6756508110396674 0.7809533100979911
0.2469877 0.6697113743964676 0.7850042341914312
0.2489876 0.6644728430656996 0.7891592732766098
0.2509875 0.6591869045144454 0.7937668415600264
0.2529874 0.6533984592567325 0.7984225857972966
0.2549873 0.6479968129370456 0.8022533875065021
0.2569872 0.6430921175523734 0.8062003899672471
0.2589871 0.6378494725692588 0.811669501637611
0.260987 0.6322758797026601 0.8147447684304833
0.2629869 0.6256413369901651 0.818999646497713
0.2649868 0.6204505107440719 0.8230372793660967
0.2669867 0.6147479833600781 0.8274893537162633
0.2689866 0.6094868865285162 0.831910082870111
0.2709865 0.6036081087974097 0.8355090161844978
0.2729864 0.5977897635352467 0.8403780603842013
0.2749863 0.5918579184214144 0.8443875325638867
0.2769862 0.5862089362665138 0.8473904380553208
0.2789861 0.5805397291347717 0.8514731857808753
0.280986 0.5745919115410701 0.8551728674264968
0.2829859 0.568742831894185 0.8590015569321011
0.2849858 0.5624424261195573 0.862490552225433
0.2869857 0.5571006945876222 0.8671089198029891
0.2889856 0.5511119327757605 0.8703640087917307
0.2909855 0.5448226330377144 0.8735581940717384
0.2929854 0.5392400435028238 0.8775193755599259
0.2949853 0.5336205835950816 0.8818302308748732
0.2969852 0.5269919534127757 0.8846783085966305
0.2989851 0.5208516563869926 0.887363333104058
0.300985 0.5149193624875634 0.8904126914810346
0.3029849 0.5091942989976336 0.8948188356046652
0.3049848 0.5032126176188789 0.8984710896826907
0.3069847 0.49703567854238745 0.9015858026541144
0.3089846 0.4909406051376103 0.9045598607851433
0.3109845 0.48516239686285223 0.9075483470341541
0.3129844 0.47822847358924364 0.9109473618624822
0.3149843 0.472427433662287 0.9139137255365788
0.3169842 0.4669771913856374 0.9179964702169171
0.3189841 0.4590010712172541 0.919719756299601
0.320984 0.4537492392320951 0.9223064703114066
0.3229839 0.4470485948285031 0.9262012026318224
0.3249838 0.4419390401342451 0.9289453904182392
0.3269837 0.43553453767974004 0.9326612775094788
0.3289836 0.4287919143892861 0.9346581139147011
0.3309835 0.4226554598768331 0.9379640663817335
0.3329834 0.41589135920313786 0.9404285076968545
0.3349833 0.4095409788868506 0.9424215332760971
0.3369832 0.40210489794612275 0.9451847191105055
0.3389831 0.3963500259220916 0.9480848164127171
0.340983 0.3903185118633986 0.9510632798345167
0.3429829 0.3835506291011185 0.9529339742850512
0.3449828 0.37712430834696375 0.9558451957015011
0.3469827 0.3711291943575818 0.9581646632408937
0.3489826 0.3641436420150977 0.9605254207987417
0.3509825 0.35804064678357433 0.9626307329602828
0.3529824 0.3513415534204679 0.9651474994867576
0.3549823 0.34506585057001193 0.9682756195106829
0.3569822 0.33864198122415146 0.9701537467424021
0.3589821 0.33113595231545256 0.9721908880346293
0.360982 0.32415631855525545 0.9742576000867482
0.3629819 0.31861059444843964 0.9770074043079705
0.3649818 0.31193780768207346 0.9784264066095489
0.3669817 0.3049877239125586 0.980218683912085
0.3689816 0.2987442017942513 0.9827175029468967
0.3709815 0.29233183452671885 0.984209051030048
0.3729814 0.28527058844534736 0.985749479123085
0.3749813 0.27870284001560525 0.9880449252223226
0.3769812 0.2724832714313544 0.9897397292203889
0.3789811 0.265560641312523 0.9913277805470961
0.380981 0.2586100102459882 0.9922678811749482
0.3829809 0.2518276952829336 0.9938948978954342
0.3849808 0.2455771394131906 0.9957367211743087
0.3869807 0.23809299736394693 0.9974919824698482
0.3889806 0.23266093157542572 0.9996195403242903
0.3909805 0.22563562867872677 1.0010195069863608
0.3929804 0.21890168293504042 1.002832879461878
0.3949803 0.21233211671451951 1.0037492093399085
0.3969802 0.20496564785393487 1.0047292656507196
0.3989801 0.1982077342565035 1.0073133847303763
0.40098 0.1923042807597873 1.0073246363387056
0.4029799 0.18502928168325514 1.0085041484633188
0.4049798 0.178769683617223 1.0093972239554068
0.4069797 0.17159859583571058 1.0111986446394112
0.4089796 0.1656622188706118 1.0121876952393278
0.4109795 0.15837994415610207 1.0125001343284397
0.4129794 0.15130232375188898 1.0137270880864724
0.4149793 0.14426184216485238 1.014512155401704
0.4169792 0.1378944754222286 1.0162351551170357
0.4189791 0.13116759564723468 1.0168965724762684
0.420979 0.12432834309015912 1.0179866703751947
0.4229789 0.11687131477187881 1.0182449348767215
0.4249788 0.11080419717779978 1.018366295712834
0.4269787 0.103879355847939 1.019097506037488
0.4289786 0.09786070930955947 1.0195707706773993
0.4309785 0.09082425771492955 1.020207012084269
0.4329784 0.08337417685703333 1.0210652371607207
0.4349783 0.07686107175194759 1.0214913719126417
0.4369782 0.07014164693436098 1.0227336554859296
0.4389781 0.06328698214241299 1.0224434002366942
0.440978 0.05676286671031794 1.0230525634733716
0.4429779 0.050019214476192383 1.0237484986609375
0.4449778 0.04311449699116223 1.0235903862250795
0.4469777 0.0364442213996774 1.0240482459849345
0.4489776 0.030117266645404442 1.024306026310134
0.4509775 0.022443259287505485 1.0237808477620411
0.4529774 0.015886802079546854 1.0236879359428268
0.4549773 0.009725960732360386 1.024023032253718
0.4569772 0.0024580162316015855 1.0242882479303057
0.4589771 -0.004712442096979144 1.0243015468580576
0.460977 -0.010750361912943054 1.0242101944956
0.4629769 -0.01806665413823514 1.024227434650232
0.4649768 -0.02464415435175903 1.024158966810627
0.4669767 -0.031147182837783338 1.023814488267769
0.4689766 -0.03807826157719479 1.0234476706853974
0.4709765 -0.044744613850602716 1.022988794067692
0.4729764 -0.05078285005660893 1.0228923649724542
0.4749763 -0.05806410200005174 1.0219529912396457
0.4769762 -0.06473782253779208 1.0216267792448892
0.4789761 -0.07144791269402988 1.0209614189366625
0.480976 -0.0782653763332131 1.020778645287668
0.4829759 -0.08538368018982787 1.0204622614233287
0.4849758 -0.0919179738501977 1.02025036330672
0.4869757 -0.0982974426187258 1.0189515557123654
0.4889756 -0.10517952538035652 1.0188934288243088
0.4909755 -0.11221646696554888 1.0177437847032687
0.4929754 -0.11906579502300252 1.0170851002726804
0.4949753 -0.12520767024008184 1.0164853097247677
0.4969752 -0.1322935619213897 1.0152714235748652
0.4989751 -0.1384724415235715 1.0141349793499672
0.500975 -0.1447773617682549 1.0132877341244362
0.5029749 -0.15174407506944032 1.0125155803984307
0.5049748 -0.15796375616243188 1.0121378090373758
0.5069747 -0.16466345609423944 1.0103186417908319
0.5089746 -0.17095951178905286 1.0091384428235228
0.5109745 -0.17759314241035862 1.0080276682921878
0.5129744 -0.1844934966299973 1.006291209904901
0.5149743 -0.1911105717880735 1.0050420562476776
0.5169742 -0.1974739899726324 1.0043170087969053
0.5189741 -0.2038966696901169 1.0028486610158578
0.520974 -0.21055325885724369 1.0015863553270312
0.5229739 -0.21715028091685903 1.0003734788477219
0.5249738 -0.22345630971858108 0.999157544666252
0.5269737 -0.23008671798034286 0.9977367850737708
0.5289736 -0.23651867762848994 0.9956289346750191
0.5309735 -0.24331576510809844 0.9942138088319689
0.5329734 -0.24929929913616722 0.9931574341515742
0.5349733 -0.2560064584588638 0.9910018868804107
0.5369732 -0.26264481074505275 0.9894376296307459
0.5389731 -0.2688278633385428 0.987730110219537
0.540973 -0.2750054160969998 0.9857581276649887
0.5429729 -0.2815523620519539 0.983568885183402
0.5449728 -0.28826085122954537 0.982355644566861
0.5469727 -0.2943056018336506 0.9804580813947955
0.5489726 -0.30039238775857047 0.9788938056280803
0.5509725 -0.3069067335557385 0.9769575566601186
0.5529724 -0.3134043006306759 0.9751621348249381
0.5549723 -0.31959599046997267 0.9729495674305076
0.5569722 -0.3262546917761743 0.9709378139157359
0.5589721 -0.3325534369468061 0.9687147586023791
0.560972 -0.3384854236638204 0.9666571355116208
0.5629719 -0.3446787988547346 0.964496127275746
0.5649718 -0.3507277962648402 0.9623868323447303
0.5669717 -0.3571658939454473 0.960079354594327
0.5689716 -0.3632531879773233 0.9578994734242049
0.5709715 -0.36943259027377023 0.9554412694723615
0.5729714 -0.375358020818141 0.9533415276658599
0.5749713 -0.381816014609441 0.9507341011363466
0.5769712 -0.3871783952630059 0.9487170844227535
0.5789711 -0.3936709713643244 0.9454060657276042
0.580971 -0.39967539674899005 0.9430197880690613
0.5829709 -0.4058396887601907 0.9404273771772564
0.5849708 -0.41156123666368094 0.9380618936422663
0.5869707 -0.4177887939253999 0.9352153535505039
0.5889706 -0.42338996033969456 0.9329393579071825
0.5909705 -0.4297636464285313 0.9302542823186277
0.5929704 -0.4357418793451929 0.9274570840751096
0.5949703 -0.4420179229101935 0.9249236564336708
0.5969702 -0.4472401754849113 0.9222103247672893
0.5989701 -0.4537856182383503 0.9191809190707252
0.60097 -0.4594933670990226 0.9163254533701629
0.6029699 -0.4650734394846939 0.9137307948306922
0.6049698 -0.4710052171275894 0.9106970411901874
0.6069697 -0.47666164732330274 0.9072826389341881
0.6089696 -0.482686339232966 0.9045590900072075
0.6109695 -0.48823619506022076 0.9017924694628744
0.6129694 -0.49413229561924527 0.8989020667160766
0.6149693 -0.49979314910159106 0.8951276935440066
0.6169692 -0.5055577776539064 0.8915186160918078
0.6189691 -0.5110449579591523 0.8890273116084229
0.620969 -0.5167644015534306 0.8859509725774208
0.6229689 -0.5224353762534534 0.8824441101919074
0.6249688 -0.5279352599515973 0.8792960059917205
0.6269687 -0.5336016052553542 0.8758773738118943
0.6289686 -0.5392545715415209 0.8727029120001226
0.6309685 -0.5450099867802121 0.8696268891380645
0.6329684 -0.5500264419942453 0.8659634404300486
0.6349683 -0.5557552356504485 0.8624580989833579
0.6369682 -0.5611138329620742 0.8592872868064578
0.6389681 -0.566717881994163 0.8559257724271653
0.640968 -0.5721145086589559 0.8516990569802904
0.6429679 -0.5774186663220985 0.8485353801463361
0.6449678 -0.5826055195381646 0.8450315967135164
0.6469677 -0.5883524058464036 0.8417028306377698
0.6489676 -0.5932815069672439 0.8375368711679217
0.6509675 -0.5989888374174919 0.8345527282693355
0.6529674 -0.6042742117732959 0.8301057261668692
0.6549673 -0.6095557832294467 0.8269288889882058
0.6569672 -0.6145271236055925 0.8230140148921367
0.6589671 -0.6197910309933208 0.819029548121961
0.660967 -0.6253522722418957 0.8153278422548927
0.6629669 -0.6297923966870492 0.8117238092087503
0.6649668 -0.6349678463531717 0.8078084476243946
0.6669667 -0.6398536759174538 0.8039839726949494
0.6689666 -0.6455613769732047 0.7997906787350653
0.6709665 -0.6502485288940411 0.795885796783242
0.6729664 -0.655366653670452 0.7917463764497115
0.6749663 -0.6604350657970796 0.7878076897977065
0.6769662 -0.6653237302481461 0.7838948617256887
0.6789661 -0.6703637199001855 0.7797900804246264
0.680966 -0.675099495464297 0.7755262360937577
0.6829659 -0.6799585700899988 0.7716308435711183
0.6849658 -0.6848166524801813 0.7674230577060602
0.6869657 -0.6897082545156518 0.7635279270275882
0.6889656 -0.6944892159866983 0.7589443181734686
0.6909655 -0.6992898525093074 0.7548678159711675
0.6929654 -0.7041210749114587 0.7505276571161239
0.6949653 -0.7088331748236648 0.7462436614865695
0.6969652 -0.7136552214919344 0.7421357753294805
0.6989651 -0.7180360577243639 0.7378709308175919
0.700965 -0.722954191063783 0.7333405263192914
0.7029649 -0.7274782912120725 0.7288156354717852
0.7049648 -0.7320347696787791 0.7244878471091362
0.7069647 -0.7365716399006262 0.7200927578244729
0.7089646 -0.7410840969933576 0.7157889778527193
0.7109645 -0.7456022861177913 0.7110794849226769
0.7129644 -0.7501652373869445 0.7066962313017724
0.7149643 -0.7546907827469348 0.7021345125957225
0.7169642 -0.7590364456181962 0.6977578132811589
0.7189641 -0.7629518679935654 0.6926858479920421
0.720964 -0.7676342307791983 0.688474254170179
0.7229639 -0.7719595912813989 0.6836974060569476
0.7249638 -0.7762218576486832 0.6788921180014772
0.7269637 -0.7804246060072298 0.6744065000742869
0.7289636 -0.7847334432947355 0.6695125438834916
0.7309635 -0.7889304018108441 0.6650256475724643
0.7329634 -0.7930071847958055 0.6600250951596486
0.7349633 -0.7973739599126434 0.6553438243931028
0.7369632 -0.8012420346306939 0.6504352237897344
0.7389631 -0.805586047587447 0.6457875037043719
0.740963 -0.8095713554514112 0.6409899489143298
0.7429629 -0.8136179758117719 0.6360448066126622
0.7449628 -0.8173034690602337 0.63109648079644
0.7469627 -0.82129469088236 0.6263976418534303
0.7489626 -0.8254087829189205 0.6211995814438502
0.7509625 -0.829480791101914 0.6165843694468954
0.7529624 -0.8329569449950499 0.6112347612022085
0.7549623 -0.8367494022390792 0.606232518459222
0.7569622 -0.8406641814952315 0.6013387767590208
0.7589621 -0.8444459452266877 0.59614409112027
0.760962 -0.8480480632106988 0.591149280312055
0.7629619 -0.8521225019094609 0.5860848714823003
0.7649618 -0.8554881650165916 0.5808793030600221
0.7669617 -0.8590438969467828 0.5761522668490033
0.7689616 -0.8628055260617714 0.5709329606531126
0.7709615 -0.8664848476270883 0.5655639269595873
0.7729614 -0.8700935072028777 0.5605624527540137
0.7749613 -0.8732400344313476 0.5553676614913272
0.7769612 -0.8768497775813763 0.5498904351623601
0.7789611 -0.8804994678986995 0.5450346301065251
0.780961 -0.8838341197476112 0.5397679327232255
0.7829609 -0.8873698034385455 0.5345230641108556
0.7849608 -0.8906126539706549 0.5290676373499117
0.7869607 -0.8939060027605724 0.5238369698069092
0.7889606 -0.8974408992786064 0.518415227314047
0.7909605 -0.9003896193543388 0.5132008545627578
0.7929604 -0.903549980275982 0.5077229754581352
0.7949603 -0.9067791910856018 0.5023639957508748
0.7969602 -0.9104187017303264 0.49691314063614905
0.7989601 -0.9135794799292561 0.4916305363867565
0.80096 -0.9160332700055509 0.48591591197122663
0.8029599 -0.9194201228382326 0.48070378911067463
0.8049598 -0.9223243635029432 0.47532563984548737
0.8069597 -0.9252385317464162 0.46960845965750325
0.8089596 -0.9283031785455372 0.46415926010372616
0.8109595 -0.9311576498124565 0.4585382450677945
0.8129594 -0.9341563229632084 0.4530527108953551
0.8149593 -0.9369374974180364 0.447365062857588
0.8169592 -0.9396158413738555 0.44205932688711613
0.8189591 -0.9427104994097805 0.4362984868815095
