! Created with skrf 1.8.0 (http://scikit-rf.org).
# GHz S RI R 50.0 
!freq ReS11 ImS11
0.001 -1.0000143176013427 -0.0002506476913749778
0.0029999 -1.0000280114880309 -0.000824928971393496
0.0049998 -0.999984871093847 -0.0014911062823930593
0.0069997 -0.9999118573847903 -0.002404876399157818
0.0089996 -0.9998208771679753 -0.003607879948415549
0.0109995 -0.9996495520279707 -0.005127259427950198
0.0129994 -0.9993817004342949 -0.007072425091458834
0.0149993 -0.9990136145668108 -0.0092766923638673
0.0169992 -0.9986470923876576 -0.011835080128023256
0.0189991 -0.9981132792132864 -0.014718122372944897
0.020999 -0.9973836946599606 -0.018242213143732033
0.0229989 -0.9966668522185378 -0.021705040302396783
0.0249988 -0.9957559015664418 -0.025492356453585996
0.0269987 -0.9948301712512524 -0.02997572631281431
0.0289986 -0.9937439282506517 -0.03450390064771003
0.0309985 -0.9928152663168164 -0.03921883073768706
0.0329984 -0.9915429307156158 -0.04405231394844278
0.0349983 -0.9901201348661615 -0.04972354451319605
0.0369982 -0.9887510523078639 -0.05474330419765455
0.0389981 -0.9875231090828456 -0.0603223747214659
0.040998 -0.9865039522393542 -0.06619415036459053
0.0429979 -0.985007393033032 -0.07186558963138884
0.0449978 -0.983077861870495 -0.07793233786410503
0.0469977 -0.9820072543344867 -0.08388739982966231
0.0489976 -0.9800718127355951 -0.08959292453611756
0.0509975 -0.9789362679181898 -0.09568655574178031
0.0529974 -0.9775698459372869 -0.10143118332261553
0.0549973 -0.9758971332989912 -0.10818002640669155
0.0569972 -0.9744126832687237 -0.11362787644208178
0.0589971 -0.9731533733368734 -0.11988531763161472
0.060997 -0.9717340455973943 -0.12598813913776552
0.0629969 -0.9702883103137139 -0.13214996292680006
0.0649968 -0.9687511000218212 -0.13901680314556278
0.0669967 -0.9665783773894149 -0.1453272107023289
0.0689966 -0.965538572884894 -0.15166938832714294
0.0709965 -0.963897865349599 -0.15758190315340234
0.0729964 -0.9620411808695241 -0.16391813837065766
0.0749963 -0.9607891100676866 -0.17005348609852836
0.0769962 -0.9596653820003036 -0.17655724868491712
0.0789961 -0.957856906634799 -0.18249671915849297
0.080996 -0.9561914393010714 -0.18877035132573125
0.0829959 -0.9543721311383183 -0.19479417599360432
0.0849958 -0.9532751533632887 -0.2011167802670308
0.0869957 -0.9510617170015552 -0.20749116427977415
0.0889956 -0.95009309502632 -0.213350135221647
0.0909955 -0.9488460049036652 -0.21999364476227004
0.0929954 -0.9462287499820039 -0.22632637801689484
0.0949953 -0.9451870304976726 -0.23042806966262988
0.0969952 -0.943086208223483 -0.23827251404837188
0.0989951 -0.9411021309519355 -0.24390773180779965
0.100995 -0.9399165912494206 -0.24953415684649993
0.1029949 -0.9387274266574785 -0.2563838370604202
0.1049948 -0.9368485482955873 -0.2621201859189063
0.1069947 -0.9350596301990362 -0.26824035324428125
0.1089946 -0.9334148220864378 -0.27439083120122687
0.1109945 -0.9308399939398272 -0.28021614353480573
0.1129944 -0.9297632428576457 -0.2857696646505937
0.1149943 -0.9274854461020331 -0.29219739452737353
0.1169942 -0.9260127084464488 -0.2979939120170841
0.1189941 -0.9233210542911154 -0.3040854792002001
0.120994 -0.9212740054355189 -0.3098647676988131
0.1229939 -0.9201136849428158 -0.3158845214514369
0.1249938 -0.9176976773130654 -0.32168025349959767
0.1269937 -0.9160372560940753 -0.32713894620850636
0.1289936 -0.9136784746203213 -0.33352533643557203
0.1309935 -0.9116246334762041 -0.33948535185869755
0.1329934 -0.9105738208149629 -0.3452275099449159
0.1349933 -0.9083644099388832 -0.3509055473142072
0.1369932 -0.9055064728160543 -0.355823568495225
0.1389931 -0.9037087468526128 -0.3625457614585428
0.140993 -0.9023965496324262 -0.36752111664461035
0.1429929 -0.8993637111385429 -0.3739481587631802
0.1449928 -0.8967044837390082 -0.37900028192619883
0.1469927 -0.8954417852904696 -0.38523279474326605
0.1489926 -0.8938980873771534 -0.3905774326862568
0.1509925 -0.8899654996327188 -0.3958454035411708
0.1529924 -0.8884544375906909 -0.40275723229365035
0.1549923 -0.8866209826506597 -0.40642687659310894
0.1569922 -0.8848579618113107 -0.41448981613603497
0.1589921 -0.8804645487473652 -0.4176507735043731
0.160992 -0.8791122220028483 -0.4250282906925277
0.1629919 -0.8765414682372021 -0.43071086277523624
0.1649918 -0.8745572811257523 -0.43562447118538306
0.1669917 -0.8712407295744206 -0.44187050461780675
0.1689916 -0.8696008055606387 -0.4468564505080331
0.1709915 -0.8667793274459594 -0.4523688191957747
0.1729914 -0.8640958165185133 -0.45739488570736175
0.1749913 -0.8617030216616638 -0.4630762381463107
0.1769912 -0.8590019310332464 -0.46843679174567904
0.1789911 -0.8568925740144316 -0.47455825038057936
0.180991 -0.8533332234548059 -0.47949835964452603
0.1829909 -0.8504646331551614 -0.4863186015464569
0.1849908 -0.8486329903706663 -0.4905216775845537
0.1869907 -0.8451468918902731 -0.49684884173723803
0.1889906 -0.8428896782779393 -0.5018870785216781
0.1909905 -0.8399741767388568 -0.5069098209144381
0.1929904 -0.8372874387488144 -0.5128050440839627
0.1949903 -0.834052390490377 -0.5176150255560996
0.1969902 -0.8316318284375972 -0.5224880043036455
0.1989901 -0.8286730483686807 -0.5277384362358122
0.20099 -0.8260013125323523 -0.5337018993941182
0.2029899 -0.8227776155156491 -0.5374895199943673
0.2049898 -0.8193951722807014 -0.5437063831318687
0.2069897 -0.8167225314639598 -0.5495485518116958
0.2089896 -0.8132867012246485 -0.5538031701375546
0.2109895 -0.810806536339813 -0.5594025773017682
0.2129894 -0.8079596355089832 -0.5636931206562527
0.2149893 -0.8052867832955861 -0.5702412367416196
0.2169892 -0.8009739544385681 -0.5750450080533785
0.2189891 -0.797831439245493 -0.5797299200930295
0.220989 -0.7943876083642978 -0.585194231246242
0.2229889 -0.7920677078040693 -0.5911917074102562
0.2249888 -0.7881771786465481 -0.5944099811315068
0.2269887 -0.7852872205002889 -0.6000028783042135
0.2289886 -0.7821212875550769 -0.6053707442050036
0.2309885 -0.7788520156352435 -0.6101443053470192
0.2329884 -0.7752538562860988 -0.6146832865820641
0.2349883 -0.7716296090962819 -0.6193399839888998
0.2369882 -0.7684790196971933 -0.624808730465117
0.2389881 -0.7650363902724157 -0.6299388361537727
0.240988 -0.7608356153435047 -0.6345645625726514
0.2429879 -0.7584087702145025 -0.6385869601935504
0.2449878 -0.7542904793502471 -0.6447309804594626
0.2469877 -0.7513339226073921 -0.6490429976169132
0.2489876 -0.7469540463131767 -0.6544633344873733
0.2509875 -0.7441046072525936 -0.6593653130945498
0.2529874 -0.7407682105238297 -0.6641900218047851
0.2549873 -0.7365845503749844 -0.6686762276866624
0.2569872 -0.7326607276995682 -0.6730970969624132
0.2589871 -0.7283318072496865 -0.6778694056246433
0.260987 -0.7252711798511742 -0.6834731257084
0.2629869 -0.7213888530611502 -0.6877708108036371
0.2649868 -0.717295156191189 -0.693013011851271
0.2669867 -0.7139617502900728 -0.6974530103164568
0.2689866 -0.7098562672879626 -0.702110759653681
0.2709865 -0.7060142045349073 -0.7061526338685848
0.2729864 -0.7020713217159836 -0.7104965882792107
0.2749863 -0.6989391063687771 -0.7148030446381751
0.2769862 -0.6938136409841861 -0.7201189814485713
0.2789861 -0.6902320758309765 -0.7248181940028242
0.280986 -0.6856999975585248 -0.7291650360690753
0.2829859 -0.6823141340035176 -0.734031615111987
0.2849858 -0.6780635176405165 -0.7373986104692173
0.2869857 -0.6739343596580011 -0.7417922968019129
0.2889856 -0.6704115072609627 -0.7468911600686716
0.2909855 -0.6659893006275348 -0.7514466516132094
0.2929854 -0.6611077965011283 -0.7551447256896153
0.2949853 -0.6568402460925832 -0.7590721452736932
0.2969852 -0.652954358351035 -0.7645254510249118
0.2989851 -0.6483122544305059 -0.7681163909736912
0.300985 -0.6447683341494238 -0.7733849877270869
0.3029849 -0.6399935396640872 -0.7767375872522616
0.3049848 -0.6362190247948194 -0.7809863069344878
0.3069847 -0.631099891469481 -0.7853733826959808
0.3089846 -0.6268580953781807 -0.7894339287173922
0.3109845 -0.6226102105797786 -0.7939430109785623
0.3129844 -0.6179414924681239 -0.7980761063838111
0.3149843 -0.6133916869088961 -0.8015803685750136
0.3169842 -0.6083444309284085 -0.8052243817795902
0.3189841 -0.6054402796025498 -0.8107061388409355
0.320984 -0.6002109975293509 -0.8139490227584434
0.3229839 -0.5958270884002215 -0.8170576737095796
0.3249838 -0.5905322172209099 -0.8220608375944778
0.3269837 -0.5862367184140257 -0.826329046610787
0.3289836 -0.5806615758247616 -0.8295857805189623
0.3309835 -0.57563933582131 -0.8339868432638036
0.3329834 -0.5729194048693005 -0.838129586609053
0.3349833 -0.5672071933711845 -0.8426864414064807
0.3369832 -0.5629859219355766 -0.8452242823669719
0.3389831 -0.5571952469499437 -0.8493352966467792
0.340983 -0.5529320813336885 -0.853089352126468
0.3429829 -0.5475708716964274 -0.8569698777758246
0.3449828 -0.5432382892046125 -0.8603693865447473
0.3469827 -0.5383402172655146 -0.864366244843943
0.3489826 -0.5337740604675566 -0.8679075169174131
0.3509825 -0.5280212384269287 -0.87139889279554
0.3529824 -0.5228212056851469 -0.8752337200506682
0.3549823 -0.5180022182641925 -0.8782013948577582
0.3569822 -0.5130214315395507 -0.8817193136000164
0.3589821 -0.5088364152628846 -0.8856636080342063
0.360982 -0.50357007729488 -0.8887541477944423
0.3629819 -0.49808524025786766 -0.8921986496701341
0.3649818 -0.4936734104894267 -0.8959161158060236
0.3669817 -0.48803179470720753 -0.899885760588754
0.3689816 -0.4831333615289209 -0.9032839217021972
0.3709815 -0.4774173785078669 -0.906721412628852
0.3729814 -0.4723562635723906 -0.9098486138888937
0.3749813 -0.46730942526567953 -0.9123216115993857
0.3769812 -0.46146058366176484 -0.915822091199767
0.3789811 -0.45637341559110695 -0.9192680429466169
0.380981 -0.45156618445949165 -0.9228868480268048
0.3829809 -0.4462242271351969 -0.9254273132256475
0.3849808 -0.44089645486517254 -0.9294204137375061
0.3869807 -0.4354762044644589 -0.9315466960175219
0.3889806 -0.42966222387767705 -0.9343287341027505
0.3909805 -0.4245039588396553 -0.9369979799165367
0.3929804 -0.41881573000205297 -0.9411176930177713
0.3949803 -0.41384486254643893 -0.9428702186225245
0.3969802 -0.40835722054860735 -0.9466241319647938
0.3989801 -0.4026482881988478 -0.9493388814433896
0.40098 -0.39680887364094014 -0.9532147213428103
0.4029799 -0.3922014987241277 -0.9557050924651873
0.4049798 -0.38579227828477586 -0.9580696668601123
0.4069797 -0.38076431740592465 -0.9608931337642854
0.4089796 -0.37512263054816775 -0.9627682404795538
0.4109795 -0.3698619940818485 -0.9671056063570453
0.4129794 -0.363502756594007 -0.969510546395072
0.4149793 -0.3580382052018643 -0.9722115664852624
0.4169792 -0.35214276478555834 -0.9736019869963205
0.4189791 -0.3461009500350627 -0.976000738659503
0.420979 -0.34051331154668163 -0.9790932636610682
0.4229789 -0.33589990177928564 -0.982211619216795
0.4249788 -0.3293403423310577 -0.9847141638825362
0.4269787 -0.3240056605031943 -0.9867832926069562
0.4289786 -0.31746753751778456 -0.9900078756290606
0.4309785 -0.3121837152537898 -0.9914011206086932
0.4329784 -0.30672032875746413 -0.9937542025760153
0.4349783 -0.30035040607500585 -0.9964407958255336
0.4369782 -0.29466833844987056 -0.998173471438471
0.4389781 -0.28850464290192007 -1.0004268389748925
0.440978 -0.28225772910703884 -1.0024193547992557
0.4429779 -0.2770949375015864 -1.004582270301663
0.4449778 -0.2708122064615057 -1.006295480263541
0.4469777 -0.2643758930539539 -1.0087259779222186
0.4489776 -0.25803913682024837 -1.0103120402022956
0.4509775 -0.2533502333521354 -1.0138108623168374
0.4529774 -0.24687470640744974 -1.0153409683528427
0.4549773 -0.23947036814909917 -1.0163822255745285
0.4569772 -0.2346234148171174 -1.0185890704494875
0.4589771 -0.2293111460877765 -1.0202640229340518
0.460977 -0.2218440996297029 -1.0215777116471123
0.4629769 -0.21671439454448727 -1.023895898742255
0.4649768 -0.21073016566322073 -1.0256107187472423
0.4669767 -0.2038330852325968 -1.0277365127175564
0.4689766 -0.19829021234228264 -1.0292919826065132
0.4709765 -0.19233746944530372 -1.0315220729164771
0.4729764 -0.18568460638832862 -1.0327570650856357
0.4749763 -0.17970583959662567 -1.0340843681675287
0.4769762 -0.17276248884768913 -1.0359764607948414
0.4789761 -0.16780356572201777 -1.0378065385550588
0.480976 -0.161249655817017 -1.0384877407836197
0.4829759 -0.15484102457470428 -1.0389635897915732
0.4849758 -0.14871140747909084 -1.040202972135465
0.4869757 -0.14168486082318033 -1.0423606257252664
0.4889756 -0.135644505133905 -1.0429195796108626
0.4909755 -0.13002501613198125 -1.044682080236018
0.4929754 -0.12377550621882649 -1.0455223649293006
0.4949753 -0.11735070332360481 -1.0466612864666565
0.4969752 -0.11085025990142569 -1.0487268408501729
0.4989751 -0.10449827520551427 -1.0498377246211876
0.500975 -0.0981738819222157 -1.0507754353367926
0.5029749 -0.0920871787233253 -1.0511888008958419
0.5049748 -0.08512640246850482 -1.0521604799642492
0.5069747 -0.078416846775858 -1.053870963067137
0.5089746 -0.07289506251839227 -1.0546509117771088
0.5109745 -0.06593887121776565 -1.0547324826064464
0.5129744 -0.06019260685782264 -1.0559201499080555
0.5149743 -0.05406040974229108 -1.0569211323074095
0.5169742 -0.047203388700854707 -1.0566524095511738
0.5189741 -0.04144038520938708 -1.0573040213607
0.520974 -0.0346069836243711 -1.0575553039299708
0.5229739 -0.027955070615823224 -1.058335887078567
0.5249738 -0.021939176054508625 -1.0595539443062578
0.5269737 -0.014717701201698588 -1.0592634196685964
0.5289736 -0.008649339275908184 -1.0599723544947455
0.5309735 -0.0024752060844135254 -1.0607043834630174
0.5329734 0.00460376895380378 -1.0605765969761582
0.5349733 0.01072868159858481 -1.0610216894401059
0.5369732 0.01749516638127635 -1.0613253033478405
0.5389731 0.023944819311229285 -1.061518506883891
0.540973 0.03055661389784972 -1.0619778079323257
0.5429729 0.03693471143158933 -1.0627480971101637
0.5449728 0.04407063770665523 -1.0624899550431166
0.5469727 0.049471060330630465 -1.0626549601968907
0.5489726 0.05715624325674304 -1.0615359563097833
0.5509725 0.06291589057167 -1.0618748135183704
0.5529724 0.06928279079320249 -1.0614272109331
0.5549723 0.07640954335404447 -1.0612592980061426
0.5569722 0.08186923084259733 -1.061494880979025
0.5589721 0.08878189843614168 -1.0612154259010282
0.560972 0.09571912409396333 -1.0613228882723267
0.5629719 0.10209015528347364 -1.060676541062497
0.5649718 0.10848051402337154 -1.0602577309562207
0.5669717 0.11471971518632161 -1.0597772808393746
0.5689716 0.12160556838609232 -1.0598178615870164
0.5709715 0.1282804176471933 -1.0592181759774941
0.5729714 0.13461300229973355 -1.0583202838665726
0.5749713 0.14120437788380372 -1.0581348856957076
0.5769712 0.14852092216805515 -1.0574814472273462
0.5789711 0.1540464155457684 -1.057430863953051
0.580971 0.16127622208925696 -1.0565217159779232
0.5829709 0.16747914666755767 -1.0550570074267211
0.5849708 0.1746985134026577 -1.0540385290015681
0.5869707 0.18021636577360162 -1.053807331673307
0.5889706 0.18773484920944566 -1.0526298798159195
0.5909705 0.19321812363635366 -1.0522731101526874
0.5929704 0.19970071447594956 -1.0512594238269408
0.5949703 0.2062955011950225 -1.050102912756997
0.5969702 0.21305973358896335 -1.0493029516486574
0.5989701 0.2200822914618717 -1.0478470215317408
0.60097 0.22596887851377317 -1.0468656571395991
0.6029699 0.2335107159281889 -1.0462462077676085
0.6049698 0.2397806870030301 -1.0446660342028622
0.6069697 0.246459051224625 -1.044029193786183
0.6089696 0.2523404232578914 -1.0422291536133241
0.6109695 0.25917710932971194 -1.0412263880429014
0.6129694 0.26552880304666043 -1.0396447038810024
0.6149693 0.2720027440640328 -1.03820821189241
0.6169692 0.2784572487052196 -1.0366489877944434
0.6189691 0.2855203736688413 -1.0344284022996602
0.620969 0.2910990178839263 -1.0330604513001431
0.6229689 0.2979437840993695 -1.0314613092752565
0.6249688 0.30406437000996567 -1.0295356023274675
0.6269687 0.310774770922103 -1.02812571905219
0.6289686 0.3177661515132785 -1.0260367817946554
0.6309685 0.3234587824653155 -1.0241461090619255
0.6329684 0.3299721679111238 -1.0224993563413083
0.6349683 0.3363194995687933 -1.0207543590531714
0.6369682 0.34268200692706874 -1.019354821585886
0.6389681 0.3495163386433279 -1.0168339077622344
0.640968 0.3557381736428811 -1.0155090165226028
0.6429679 0.3622587317688939 -1.013865373557235
0.6449678 0.36874056965980817 -1.0106999011648532
0.6469677 0.3746990512220242 -1.0085207434501204
0.6489676 0.3811474261819886 -1.006595162832646
0.6509675 0.38790168564407435 -1.0041360313692482
0.6529674 0.3932314399923762 -1.0016564291951984
0.6549673 0.39976286353339785 -0.9988810037416831
0.6569672 0.40616693755502664 -0.9970124797897825
0.6589671 0.41256228434066305 -0.9947686795799608
0.660967 0.4189284166289794 -0.992348019142115
0.6629669 0.4253388922220048 -0.989688808171973
0.6649668 0.431137650474549 -0.9870633656810051
0.6669667 0.43742596165912323 -0.9844344455563426
0.6689666 0.4429130236153201 -0.9815295022338575
0.6709665 0.44959847168693723 -0.9797912009998013
0.6729664 0.4567062710830762 -0.9766587843489989
0.6749663 0.4627844233319929 -0.9749279565640382
0.6769662 0.4689591910453912 -0.9713393438042108
0.6789661 0.47490946948738444 -0.9686437587609248
0.680966 0.48115687395922424 -0.9655565503049642
0.6829659 0.4870934365892341 -0.9628645779974042
0.6849658 0.4935439881928782 -0.9598251958516871
0.6869657 0.49917270885913595 -0.9564116935533913
0.6889656 0.5053809022991815 -0.9541413180770418
0.6909655 0.5111996057385308 -0.9507463611948079
0.6929654 0.5174417961090029 -0.9475068806549898
0.6949653 0.523303073779523 -0.9440567835790785
0.6969652 0.5292098029069191 -0.9406870477702982
0.6989651 0.5352655780770342 -0.9372400294742407
0.700965 0.5413560945025999 -0.9340629825358346
0.7029649 0.5465354777190906 -0.9309841637737252
0.7049648 0.5534682298654023 -0.9275527426810819
0.7069647 0.558887236626825 -0.9241273401013239
0.7089646 0.5644575065874885 -0.9207852930600191
0.7109645 0.5707899032634965 -0.9169878110170747
0.7129644 0.5763907783284924 -0.9132557472976917
0.7149643 0.5828806054768426 -0.9100996838732242
0.7169642 0.5883277299833896 -0.9059173581168976
0.7189641 0.5934878881519131 -0.9026999542154565
0.720964 0.599941027245758 -0.8991394226503951
0.7229639 0.6052197965516846 -0.8952866511814376
0.7249638 0.6115401607009725 -0.8920241604156813
0.7269637 0.6174323605695698 -0.8879475777703251
0.7289636 0.622312817958798 -0.8843593884589763
0.7309635 0.6281602633408767 -0.8797263426213157
0.7329634 0.6340179256823213 -0.8759374645317509
0.7349633 0.6390433188344534 -0.8717756956502992
0.7369632 0.6444044187418086 -0.8681330165725074
0.7389631 0.6501963810240542 -0.8638309345553409
0.740963 0.6560190130064465 -0.8598080598199702
0.7429629 0.661536324984886 -0.8551390598448249
0.7449628 0.6669334035933588 -0.8517619551800462
0.7469627 0.6720935456739456 -0.8472316023350472
0.7489626 0.6776551281145597 -0.843019555885502
0.7509625 0.6833997229110482 -0.8390697667957644
0.7529624 0.6882983074607505 -0.8339759385003304
0.7549623 0.694069388248354 -0.8299785082629642
0.7569622 0.6989714195033951 -0.8253223548385641
0.7589621 0.704303588256678 -0.8215073791344704
0.760962 0.7099904305442449 -0.8169995200681213
0.7629619 0.7155550261040295 -0.8125525486145093
0.7649618 0.7204842102718012 -0.807673876558455
0.7669617 0.7254394175745746 -0.8035024682202471
0.7689616 0.7308188414825944 -0.7987201522193583
0.7709615 0.7357181095971226 -0.7942345196063461
0.7729614 0.7404334206105033 -0.7893440733805255
0.7749613 0.7459577150439138 -0.7842013368500496
0.7769612 0.7512374448377572 -0.779669510256346
0.7789611 0.7558762238965616 -0.7745652149672938
0.780961 0.7606869932014722 -0.7699801460150894
0.7829609 0.7656483021011526 -0.7649975553457837
0.7849608 0.7705900648249357 -0.7603172413668471
0.7869607 0.7753938469540835 -0.7548828582799001
0.7889606 0.7802152540966597 -0.7495920899955686
0.7909605 0.7848172594057088 -0.7447381185110988
0.7929604 0.7897332639675066 -0.7393882810912467
0.7949603 0.7941890343901867 -0.7349123734170951
0.7969602 0.7993413837963136 -0.7297563157685614
