! Created with skrf 1.8.0 (http://scikit-rf.org).
# GHz S RI R 50.0 
!freq ReS11 ImS11
0.001 -0.9982274524679127 0.009327436626429264
0.0029999 -0.9902870415061809 0.027375962798045494
0.0049998 -0.9755292077853658 0.04465200113378048
0.0069997 -0.9547432344546485 0.05992578553749717
0.0089996 -0.9293129332322811 0.07468175775162011
0.0109995 -0.8996873887967614 0.08833568695547306
0.0129994 -0.8666876825300869 0.1000840283695332
0.0149993 -0.8316266069437198 0.11100168808175204
0.0169992 -0.7960387051508596 0.1209722730523298
0.0189991 -0.7593282888245563 0.12898142554056863
0.020999 -0.7210183792032682 0.13507829403091612
0.0229989 -0.6844514000667727 0.14054640839527807
0.0249988 -0.6513442379068647 0.14415481596386448
0.0269987 -0.6147557114326325 0.1462486159981691
0.0289986 -0.5810017396917054 0.14896269117409355
0.0309985 -0.5503884315640596 0.15156928975347672
0.0329984 -0.5226747050708667 0.150628588295181
0.0349983 -0.49138661631195907 0.15099156969908673
0.0369982 -0.4662384305795599 0.15148794509424052
0.0389981 -0.44112982197911854 0.15134113338189675
0.040998 -0.4170970650767159 0.14917462619518013
0.0429979 -0.3931594613606833 0.14921528950462026
0.0449978 -0.37392339436348915 0.1449865779884975
0.0469977 -0.3572397249729336 0.14632669728441625
0.0489976 -0.3367591235463088 0.14399841237035632
0.0509975 -0.3208320734937565 0.14255090827679162
0.0529974 -0.30798837447657357 0.1402902188868435
0.0549973 -0.2913560621730766 0.13768633756167314
0.0569972 -0.27842589895736763 0.13757968957654257
0.0589971 -0.26592672315829613 0.1347321117210642
0.060997 -0.2550643222788642 0.13304104830122312
0.0629969 -0.24391952180419418 0.13056439523899221
0.0649968 -0.23152269501791725 0.12804463782566816
0.0669967 -0.22195983155488197 0.1261952148885303
0.0689966 -0.21392852558428258 0.12466567273967914
0.0709965 -0.20481539306158497 0.12257059652026821
0.0729964 -0.1963261431277558 0.12068544963015491
0.0749963 -0.18992723392143085 0.1193515090464497
0.0769962 -0.18432003002888156 0.11675058224528448
0.0789961 -0.17632512531414077 0.11589014216686533
0.080996 -0.17089787544915128 0.11384332442179763
0.0829959 -0.16468735967486992 0.11281902111617578
0.0849958 -0.16028113928626506 0.11113358168163445
0.0869957 -0.15364361243565075 0.10985318220116021
0.0889956 -0.1492646333781186 0.1068487127257415
0.0909955 -0.14501298375732477 0.10635128663176135
0.0929954 -0.13946212502810856 0.1057265842400637
0.0949953 -0.1369661242356386 0.10444556134994387
0.0969952 -0.1334417459895569 0.1023111542373856
0.0989951 -0.13010867847097815 0.10142939103604974
0.100995 -0.12544631496463346 0.10110224852185827
0.1029949 -0.1213954510355854 0.0992732973242833
0.1049948 -0.1201245094633538 0.09704199998907402
0.1069947 -0.11667884634392839 0.09642923307776288
0.1089946 -0.11429865463759895 0.09438712520672835
0.1109945 -0.11183624625663176 0.09368482443026102
0.1129944 -0.10909631938992384 0.0929379934432026
0.1149943 -0.10601263324846606 0.09167916762160587
0.1169942 -0.1042581835254384 0.08998663078284033
0.1189941 -0.10098279621766537 0.08938280069209296
0.120994 -0.09914274577049054 0.0884657798935547
0.1229939 -0.09711239575865836 0.08749000155751305
0.1249938 -0.09452237341115681 0.08594112993344476
0.1269937 -0.09385342799050277 0.08557557279086328
0.1289936 -0.0910748280659695 0.08436023714616958
0.1309935 -0.08960705314604898 0.08437416384320795
0.1329934 -0.08845723551757068 0.0817646645462972
0.1349933 -0.08626248849069472 0.0815701628778886
0.1369932 -0.08522957330414314 0.08075968566254788
0.1389931 -0.0825011678066648 0.08015150737864421
0.140993 -0.08184110261890619 0.07890554391818227
0.1429929 -0.07999920591388979 0.07801730300639129
0.1449928 -0.07845319318814777 0.07883397640818815
0.1469927 -0.07822644661526992 0.07772826975640074
0.1489926 -0.07762385660718615 0.07655301508056449
0.1509925 -0.07547685831807517 0.07721207445417698
0.1529924 -0.07410330078829876 0.0760982226524096
0.1549923 -0.07380541968635015 0.07571750884012081
0.1569922 -0.07317233959202224 0.07463147580404597
0.1589921 -0.07251105327772522 0.07507918411728595
0.160992 -0.07104035355452493 0.07394519975831805
0.1629919 -0.07044276138434062 0.07363093305398047
0.1649918 -0.07006012036658274 0.07326298257857612
0.1669917 -0.06902711717022121 0.07323810543041906
0.1689916 -0.06858027852048708 0.0711507553410639
0.1709915 -0.06789369996086075 0.0718855099526024
0.1729914 -0.06789527109830693 0.07234277861869638
0.1749913 -0.06723302004037959 0.07165369560344625
0.1769912 -0.06657770387924605 0.07034182633896807
0.1789911 -0.06632227294475387 0.06997705631978507
0.180991 -0.06503079009950799 0.06953811686778533
0.1829909 -0.06422033435943779 0.06865725378785173
0.1849908 -0.06539060211569275 0.06747741628423261
0.1869907 -0.06375129519696725 0.06773463639943368
0.1889906 -0.0632179960800888 0.06725433053931257
0.1909905 -0.0632390097135272 0.06642647122850791
0.1929904 -0.06290567884263576 0.06540665345125037
0.1949903 -0.061901724884644446 0.06512669131442675
0.1969902 -0.06207556596871117 0.06464566909808679
0.1989901 -0.06125688652689635 0.0639219304995306
0.20099 -0.06087918931101066 0.06418613456650143
0.2029899 -0.06053860759235895 0.06344587758413414
0.2049898 -0.05960277208031043 0.0630320929067332
0.2069897 -0.05960422230788792 0.06259409012392778
0.2089896 -0.059504600733983073 0.06265413047487542
0.2109895 -0.05883653660430055 0.06239612176831262
0.2129894 -0.059061775308695025 0.062113746453685934
0.2149893 -0.058007606677970884 0.061320183491875416
0.2169892 -0.0579162316832979 0.06158448903675724
0.2189891 -0.05774244425717022 0.060944342750536576
0.220989 -0.056883746199945504 0.06096278226141047
0.2229889 -0.05633914051784987 0.06002770765441807
0.2249888 -0.05658721544734821 0.06044786071634132
0.2269887 -0.05635308607836567 0.05996877196747736
0.2289886 -0.05629530859478742 0.05955192368691387
0.2309885 -0.0562747150107082 0.05967280479346997
0.2329884 -0.056227652724566875 0.0598035352851369
0.2349883 -0.05604634879759458 0.05915770893348608
0.2369882 -0.056262322510729906 0.05909882457795135
0.2389881 -0.055935611953601735 0.059194587904553245
0.240988 -0.05572189636255587 0.05925797296113027
0.2429879 -0.055571386177412405 0.05908670196821548
0.2449878 -0.055616524860807794 0.058572470586477764
0.2469877 -0.055875447212896674 0.05866145034462272
0.2489876 -0.05562764673565915 0.05778381598605087
0.2509875 -0.05606592929343014 0.0575412681921437
0.2529874 -0.05591757002861095 0.057582308570443025
0.2549873 -0.05605896921951772 0.05727586951367879
0.2569872 -0.05610552533454277 0.05675332162398558
0.2589871 -0.055855564742788424 0.05648426608784374
0.260987 -0.055975671490292325 0.056221453752087154
0.2629869 -0.05576176435868878 0.05599900918962563
0.2649868 -0.05529040999841868 0.05563185991264388
0.2669867 -0.05564547396129328 0.054769005789073906
0.2689866 -0.0558576470424163 0.055488612862712644
0.2709865 -0.05562101210247089 0.05488841040719351
0.2729864 -0.05620465893152502 0.05464846822338611
0.2749863 -0.05561944495576508 0.05422090130171808
0.2769862 -0.055631953458322767 0.054055121284383945
0.2789861 -0.05524870894078385 0.05384150206148902
0.280986 -0.05560768240280038 0.053892430936834164
0.2829859 -0.05536720930074934 0.05335619713258785
0.2849858 -0.05568576640664312 0.0535493870995752
0.2869857 -0.055388567516621426 0.05342753965802865
0.2889856 -0.05549321188507633 0.053043814730341865
0.2909855 -0.055379816998940345 0.052893119883521425
0.2929854 -0.0552862581700194 0.05285861838631165
0.2949853 -0.05549275624443871 0.053018441518463376
0.2969852 -0.0553463733218323 0.05250288357124215
0.2989851 -0.05574981812835299 0.05278181104770458
0.300985 -0.05574843547650403 0.052408470853952116
0.3029849 -0.05611794020058976 0.05226619758779124
0.3049848 -0.05576880549026738 0.052359690436200076
0.3069847 -0.055728955565542915 0.052480476729451046
0.3089846 -0.056264153092271826 0.05156672927232296
0.3109845 -0.056186236459763256 0.05202995996059977
0.3129844 -0.056336198541584136 0.052071019732234824
0.3149843 -0.056548235409613165 0.05166380317701014
0.3169842 -0.05667598665517607 0.05184030824876075
0.3189841 -0.05713164517599058 0.05136588792281231
0.320984 -0.05744503687829173 0.051003022670066775
0.3229839 -0.057541999463935456 0.05115487764191965
0.3249838 -0.057641318201472586 0.050845549139903405
0.3269837 -0.057446453731367336 0.050559555739693396
0.3289836 -0.05783855446492505 0.05052472863450631
0.3309835 -0.05812890626103688 0.04996806112213785
0.3329834 -0.0580618866916161 0.04969284376457446
0.3349833 -0.05837821792920649 0.049681695014649745
0.3369832 -0.058469992595133885 0.049450370151346415
0.3389831 -0.058353230647428034 0.049255287543227826
0.340983 -0.05854241319632629 0.04907844678620771
0.3429829 -0.05884464580796064 0.04888183372032586
0.3449828 -0.059069689962842745 0.048540510168174206
0.3469827 -0.05922152558419334 0.04852607421851557
0.3489826 -0.059424605814297135 0.04806727004544673
0.3509825 -0.05926797462544084 0.04796020142836616
0.3529824 -0.05932713356253687 0.04801400168469786
0.3549823 -0.059267108690524185 0.04805510637341326
0.3569822 -0.059657277427346736 0.04791745255065288
0.3589821 -0.05960228450868656 0.047350904895531884
0.360982 -0.060192030953956296 0.0471227696850663
0.3629819 -0.06002625366262952 0.04734821105949387
0.3649818 -0.059962217516161334 0.04711438099200081
0.3669817 -0.060177646295168946 0.046908738712620385
0.3689816 -0.060383290917701685 0.04683262754811983
0.3709815 -0.05999502192062935 0.04678881277090724
0.3729814 -0.06052498810175913 0.0465736453949466
0.3749813 -0.06090888373246453 0.046576315488261855
0.3769812 -0.06080090499012364 0.04617866851410683
0.3789811 -0.06088003791683999 0.04662421318723206
0.380981 -0.0613550265481229 0.04617776310478496
0.3829809 -0.06152802001062685 0.04609574654056293
0.3849808 -0.061883253846417685 0.04570242957402473
0.3869807 -0.06179178009513625 0.046393390865735795
0.3889806 -0.061689159594139065 0.04589739615822754
0.3909805 -0.06237172095301281 0.04595909226531034
0.3929804 -0.06261746750652017 0.04539450885042097
0.3949803 -0.0627042629210919 0.04539934665779126
0.3969802 -0.06321251887279512 0.045138909750113615
0.3989801 -0.06369238870644653 0.045166415618491
0.40098 -0.06405443748572799 0.04478475036048015
0.4029799 -0.063926948190436 0.04454251555083084
0.4049798 -0.06435021446564468 0.044587786704985616
0.4069797 -0.06465811427059595 0.044025962860658574
0.4089796 -0.06490797750170052 0.04429431781235806
0.4109795 -0.06496908034199472 0.04352553184259092
0.4129794 -0.06522856060724924 0.0434805326239475
0.4149793 -0.06560914410542958 0.04330944772030536
0.4169792 -0.06530759432830005 0.043693535373128235
0.4189791 -0.06561118380318387 0.043303417463945046
0.420979 -0.06596114319237337 0.04321113243447888
0.4229789 -0.06611249521327102 0.04244835159064606
0.4249788 -0.06640442319397055 0.04234108817826798
0.4269787 -0.06642931389376847 0.04222028112041554
0.4289786 -0.0666849121832002 0.04222053446398834
0.4309785 -0.06671197786553268 0.04186724521805429
0.4329784 -0.06701794997188427 0.04168259869061297
0.4349783 -0.06720370475287873 0.04167643766888551
0.4369782 -0.06732278798620034 0.04161901935274291
0.4389781 -0.06773661520864233 0.04161195981193226
0.440978 -0.06800503499274571 0.041063836500616235
0.4429779 -0.06803025808251711 0.04124901442895961
0.4449778 -0.06833516549839616 0.041102558823873925
0.4469777 -0.06829104332534239 0.040886957598867436
0.4489776 -0.06868370302480295 0.04068625700871475
0.4509775 -0.06899168852562818 0.040333434265969095
0.4529774 -0.06915218109145328 0.04023130173283121
0.4549773 -0.06932996541521066 0.040214588479853465
0.4569772 -0.06953726469042953 0.040023057650462476
0.4589771 -0.06992070383170054 0.04007711505128348
0.460977 -0.07000490062554818 0.03981497154496815
0.4629769 -0.07039801136924315 0.039448572457501635
0.4649768 -0.07058102413106003 0.0394027466484181
0.4669767 -0.07091697508191594 0.03902020998528613
0.4689766 -0.07123234422165159 0.03864401041654324
0.4709765 -0.07158188567851394 0.038496357010456936
0.4729764 -0.07160742526757397 0.03819271650297504
0.4749763 -0.07181576275360183 0.03795151782974975
0.4769762 -0.07217990821327065 0.03777069990981398
0.4789761 -0.07221569028615653 0.0373848861643913
0.480976 -0.0725966328064486 0.03744977979936766
0.4829759 -0.07270645902143434 0.03746672227534063
0.4849758 -0.07295463239095965 0.03716450990861467
0.4869757 -0.07316346691875983 0.03706074009887733
0.4889756 -0.07308910030499857 0.0369343039003235
0.4909755 -0.07332904769171084 0.03675197743685923
0.4929754 -0.07378051041383954 0.036358378258468986
0.4949753 -0.07367853522498663 0.036345212413252545
0.4969752 -0.07354605225957615 0.03612786354311296
0.4989751 -0.07394779933546318 0.035942734034269355
0.500975 -0.0741549386910475 0.0355007744821106
0.5029749 -0.07445646661393332 0.03598646299925169
0.5049748 -0.07448413400989919 0.03573295546124727
0.5069747 -0.0748844347996121 0.035498078249940744
0.5089746 -0.07500659870693395 0.035552031186306454
0.5109745 -0.07525380094922436 0.03518370398955044
0.5129744 -0.07590720040952262 0.03499817360713339
0.5149743 -0.07629718703385877 0.034812653386445985
0.5169742 -0.07639845532740527 0.03475752591551516
0.5189741 -0.0764881507027668 0.034554534427096606
0.520974 -0.07699221260589778 0.03448041681357206
0.5229739 -0.07725723719833696 0.03442650797407447
0.5249738 -0.07759476249940514 0.03405853867989014
0.5269737 -0.07783800229634238 0.03415026507656736
0.5289736 -0.07818413806722442 0.033855701831911944
0.5309735 -0.07879418319344761 0.033372971659926864
0.5329734 -0.07872910521795047 0.0334037151054883
0.5349733 -0.07900953478103896 0.03288612830823779
0.5369732 -0.07950098123229453 0.03270060805179374
0.5389731 -0.07982469877014807 0.03228895960986593
0.540973 -0.08015422806283794 0.03218345541005638
0.5429729 -0.08033979312074105 0.031447362123359746
0.5449728 -0.08041181564766174 0.0313661433122416
0.5469727 -0.08086880990319151 0.030917409637871103
0.5489726 -0.08077206221993627 0.03082631202647063
0.5509725 -0.08110109347962877 0.03044214366980471
0.5529724 -0.08143724952764084 0.030374505425308403
0.5549723 -0.0816403600494433 0.030023763575099102
0.5569722 -0.0818723068510565 0.02971907749965145
0.5589721 -0.08213361293052404 0.02932396542706106
0.560972 -0.08188338439473054 0.029221004715914843
0.5629719 -0.08197277419014078 0.028643716293273745
0.5649718 -0.08203643697834599 0.0286312281570997
0.5669717 -0.08216508530509865 0.028429031454764955
0.5689716 -0.08211027503105522 0.028428326268178497
0.5709715 -0.08251391691642737 0.028046083627539336
0.5729714 -0.08240696174585103 0.02802244309428364
0.5749713 -0.0824463366185398 0.027746305606803627
0.5769712 -0.08276906659905697 0.02783173114861927
0.5789711 -0.08299531918558814 0.027435694704699774
0.580971 -0.08322407368603753 0.027452513140889718
0.5829709 -0.08376556677992912 0.02745816995858938
0.5849708 -0.08393812749415552 0.027352364680157223
0.5869707 -0.08410703159633957 0.02713292571138577
0.5889706 -0.08449930954682205 0.0268817247370458
0.5909705 -0.08439487587257528 0.026734302626997077
0.5929704 -0.08514906585946491 0.02649026027801029
0.5949703 -0.08534996157393918 0.026455839645685396
0.5969702 -0.08565662290168558 0.02568706822736017
0.5989701 -0.0859957320025574 0.02587920266901702
0.60097 -0.08606533413496684 0.02531116671286499
0.6029699 -0.08640225878937369 0.025108257439407044
0.6049698 -0.0868605443556241 0.02470302958179717
0.6069697 -0.08727099303192073 0.02441993252386558
0.6089696 -0.08738863178795497 0.024278663339468404
0.6109695 -0.08793618512062168 0.023744272714262268
0.6129694 -0.08820918001402939 0.02359880218002451
0.6149693 -0.08827629064797823 0.023157326333113976
0.6169692 -0.08850537227873365 0.022788894501989187
0.6189691 -0.08828682936982207 0.022469972267331835
0.620969 -0.08859287259174044 0.02219429264749164
0.6229689 -0.08892836458919526 0.021981924292151296
0.6249688 -0.08919499580287749 0.021611088144317843
0.6269687 -0.08935167379903751 0.021011137308685493
0.6289686 -0.08948474411016503 0.020829446223457834
0.6309685 -0.08948831981600414 0.020601980985272154
0.6329684 -0.0897641868219779 0.020131547889057713
0.6349683 -0.08928870546109735 0.020415517478731708
0.6369682 -0.08944836875309088 0.01989647636935897
0.6389681 -0.08963595850156719 0.019746147452746714
0.640968 -0.08969044301446595 0.019384061357793157
0.6429679 -0.0897302527269003 0.01946990471920611
0.6449678 -0.08992462244381737 0.019392499389722567
0.6469677 -0.09017375636434438 0.019343976364757206
0.6489676 -0.09057952147492329 0.01893909991730361
0.6509675 -0.0907342622563484 0.018980666790910476
0.6529674 -0.09071278540833275 0.01881167199356821
0.6549673 -0.09094966583100353 0.01874824200710552
0.6569672 -0.09126962155980844 0.018396878949843036
0.6589671 -0.09176302508916451 0.018427174828578804
0.660967 -0.09203848650159963 0.017908612492298047
0.6629669 -0.09253631375246042 0.018054638293934326
0.6649668 -0.09283894534713576 0.017613966209332383
0.6669667 -0.09319173674067827 0.017430436810947372
0.6689666 -0.09358462755034247 0.017290740607957204
0.6709665 -0.09404679681614242 0.0169371471233652
0.6729664 -0.09406759582499616 0.016322003198993712
0.6749663 -0.0943017523584505 0.015995351151792913
0.6769662 -0.09447558440509776 0.015633950292101885
0.6789661 -0.09489612186570744 0.015279872446409569
0.680966 -0.09529950946377809 0.014992882811540102
0.6829659 -0.0954317964379553 0.014499973508293709
0.6849658 -0.09544589765581488 0.014231379589593664
0.6869657 -0.09579459128327256 0.013947921428641156
0.6889656 -0.09602564336007974 0.013082874862446147
0.6909655 -0.09627878595928674 0.012741266427344095
0.6929654 -0.09634673469779012 0.012166413389220754
0.6949653 -0.096498601397287 0.011848298590328623
0.6969652 -0.09661256539497555 0.011313260647384287
0.6989651 -0.09669382549309913 0.010969290683826235
0.700965 -0.09668836832019971 0.010436933856599918
0.7029649 -0.0969507473566874 0.010268371540535812
0.7049648 -0.09647935264334187 0.009694752950658473
0.7069647 -0.09632939800042567 0.009671100212514147
0.7089646 -0.09628849513548851 0.009094551756856861
0.7109645 -0.09630919826793001 0.00903625075433875
0.7129644 -0.09620016840297575 0.00893970479626786
0.7149643 -0.09618415295116843 0.008594242137021962
0.7169642 -0.09632409841018412 0.008484027421550192
0.7189641 -0.09640615069012863 0.008131994362213148
0.720964 -0.09663176678556006 0.007945751316385016
0.7229639 -0.09693290221956158 0.007863919668753463
0.7249638 -0.09657423455060056 0.0074683623321442315
0.7269637 -0.09662818011284546 0.007531614571978273
0.7289636 -0.09689187333888953 0.007320133926706041
0.7309635 -0.097251763292388 0.0074352620767529284
0.7329634 -0.09748340681447173 0.007063911655226494
0.7349633 -0.09774512067561292 0.0071043700888602235
0.7369632 -0.09793792354488273 0.006852941366990207
0.7389631 -0.09824836946643525 0.006880336929158494
0.740963 -0.09862966768979065 0.006301350769274423
0.7429629 -0.09861654405537063 0.006174273579746887
0.7449628 -0.09906111640502464 0.005718310011563532
0.7469627 -0.09953991810955673 0.005596834691792316
0.7489626 -0.09976241176186267 0.005199107281500949
0.7509625 -0.09975654981692611 0.004639188136389319
0.7529624 -0.10059551067574997 0.00422529524337668
0.7549623 -0.10060912733999212 0.0038164458451841014
0.7569622 -0.10094801574309505 0.0033058718195825947
0.7589621 -0.10101642124651534 0.0026289261105154407
0.760962 -0.1014149193415125 0.002265565609572022
0.7629619 -0.10147077106627056 0.0015510236139301761
0.7649618 -0.1014163418257822 0.0011293684691551925
0.7669617 -0.10139399898736018 0.0008850477362038409
0.7689616 -0.10154064016287742 0.0002410323408040052
0.7709615 -0.10173332321624702 -0.000218739847910987
0.7729614 -0.10155657210657129 -0.0005479074193067354
0.7749613 -0.10147319768486468 -0.000983594993782616
0.7769612 -0.10179763470328355 -0.0014947512702113905
