! Created with skrf 1.8.0 (http://scikit-rf.org).
# GHz S RI R 50.0 
!freq ReS11 ImS11
0.001 -1.000001443031978 -2.578433987800166e-05
0.0029999 -1.0000500091676043 -0.0001465527193122082
0.0049998 -1.0000856696740485 -0.0003342548392068767
0.0069997 -1.0001931205322814 -0.0007186957570775032
0.0089996 -1.0002636523872832 -0.001374668516576888
0.0109995 -1.0003394589778432 -0.002277247103120189
0.0129994 -1.000413491890101 -0.0034492011853907156
0.0149993 -1.000433741449622 -0.0049595556917660655
0.0169992 -1.0003596744551366 -0.006903468283270292
0.0189991 -1.0002627485717124 -0.00901840557969627
0.020999 -1.0002341490629565 -0.011611804770956219
0.0229989 -0.9999017261227925 -0.01455337896908665
0.0249988 -0.9996004519089772 -0.017624958289288867
0.0269987 -0.9992937867937879 -0.02126527156176905
0.0289986 -0.9987891601531251 -0.024989289077027688
0.0309985 -0.9982096194319268 -0.029235982990326703
0.0329984 -0.9975926218491852 -0.03334174716338856
0.0349983 -0.9969739495571124 -0.03837452433540994
0.0369982 -0.9962199872255404 -0.0428252587694119
0.0389981 -0.9952565299348649 -0.048272274172223795
0.040998 -0.9944627801001703 -0.05357068966460132
0.0429979 -0.9936739589270254 -0.058923285316284435
0.0449978 -0.9926223783445733 -0.0646314563374154
0.0469977 -0.9913145633119494 -0.06996922802298042
0.0489976 -0.9904145933067205 -0.07583794125048401
0.0509975 -0.9892261862132901 -0.0815849897526118
0.0529974 -0.9883904780293837 -0.08690744466410016
0.0549973 -0.9862643022523574 -0.09378861352913356
0.0569972 -0.985457566314706 -0.09887735257960584
0.0589971 -0.9843897578275823 -0.10533527932479109
0.060997 -0.9827854021724146 -0.11127800460100293
0.0629969 -0.9815268497263556 -0.11740614210285236
0.0649968 -0.9807950837718574 -0.12410582176243434
0.0669967 -0.9788625179862681 -0.13082002658117214
0.0689966 -0.9774051997348541 -0.13661942852108103
0.0709965 -0.9768093005027048 -0.14287794894501904
0.0729964 -0.9746533446517414 -0.1491953107930694
0.0749963 -0.9732600289391857 -0.15551344300909972
0.0769962 -0.9719889421057138 -0.16151590800738097
0.0789961 -0.9705609531297428 -0.1681742066537691
0.080996 -0.9686479415323275 -0.17402772072461054
0.0829959 -0.9670521104545328 -0.18047353998860333
0.0849958 -0.966057538078424 -0.18608910431875444
0.0869957 -0.9643664589282769 -0.19290435316752996
0.0889956 -0.9630213185968468 -0.1993715699956071
0.0909955 -0.9610622510580054 -0.20578233501326637
0.0929954 -0.9592731399633685 -0.21235991794438364
0.0949953 -0.9578455086631718 -0.2173180315183165
0.0969952 -0.9567430598456319 -0.22374111578115854
0.0989951 -0.95458934420296 -0.22994862725606327
0.100995 -0.952708826039043 -0.2359236777421719
0.1029949 -0.9508746287645553 -0.24313122249269958
0.1049948 -0.949659722495032 -0.24881268591219247
0.1069947 -0.9477230789693277 -0.2548975910712079
0.1089946 -0.9462522826736839 -0.26096824447611033
0.1109945 -0.9440786091215352 -0.26717444963161907
0.1129944 -0.9423422707494383 -0.27267292283998235
0.1149943 -0.9407034504078724 -0.27931948579483296
0.1169942 -0.9387653329647925 -0.28519613219251305
0.1189941 -0.9360782794626257 -0.2919666888373413
0.120994 -0.9340491593000831 -0.29743670809341377
0.1229939 -0.933050717904186 -0.30330549669828705
0.1249938 -0.9304303695231882 -0.30990499427132634
0.1269937 -0.928719390454759 -0.315248848086202
0.1289936 -0.9265357104092276 -0.3217861219016049
0.1309935 -0.9238083392932762 -0.32675226707499794
0.1329934 -0.9229331054728873 -0.3332058508470571
0.1349933 -0.9201496313280821 -0.33896350336718717
0.1369932 -0.9182710946795397 -0.344447891988538
0.1389931 -0.9159693082264222 -0.3511385003801626
0.140993 -0.9143762567626885 -0.35639330299716687
0.1429929 -0.9119008260290493 -0.363043623114329
0.1449928 -0.9090208793438995 -0.36785656474461786
0.1469927 -0.9073069088820536 -0.37340205268576465
0.1489926 -0.9056624486368414 -0.3789813152307199
0.1509925 -0.9019088094660618 -0.38557191464580776
0.1529924 -0.9005643445564772 -0.39123168030514294
0.1549923 -0.8985088096468037 -0.39639828058794807
0.1569922 -0.8958464964237282 -0.40259110154997896
0.1589921 -0.8933302050686316 -0.4069795627120352
0.160992 -0.890299047834038 -0.4138116253970038
0.1629919 -0.8879610356839625 -0.4198605284105349
0.1649918 -0.8857894615895768 -0.4244879215054106
0.1669917 -0.8832202539541063 -0.4304030127851026
0.1689916 -0.8813651175811275 -0.43674665350185304
0.1709915 -0.8775261665682512 -0.4414116950949505
0.1729914 -0.8758865379602646 -0.44690388826051175
0.1749913 -0.8728484254766751 -0.4527519078377427
0.1769912 -0.8700535415579567 -0.45795793128839857
0.1789911 -0.8676992903384992 -0.4635410015083343
0.180991 -0.8645982236330517 -0.4690129054992399
0.1829909 -0.8618881614624383 -0.47542145241360095
0.1849908 -0.8600769836588263 -0.4800272929407061
0.1869907 -0.8561907889924945 -0.4866563644962982
0.1889906 -0.8539362362318628 -0.4914230058813405
0.1909905 -0.8501831930528754 -0.49668467409079153
0.1929904 -0.8481078510457093 -0.5022932696717506
0.1949903 -0.8451993166045888 -0.5072359142560481
0.1969902 -0.8427180064293942 -0.5123095384628509
0.1989901 -0.8392090040520803 -0.5175982828881136
0.20099 -0.8356170925550788 -0.5230965958194509
0.2029899 -0.8336783514387803 -0.5290070997127982
0.2049898 -0.8297864238115582 -0.5340081709799019
0.2069897 -0.8269355259235582 -0.5393917964297427
0.2089896 -0.8237824858366406 -0.543789501832912
0.2109895 -0.8209528435330805 -0.5490720975980679
0.2129894 -0.8173272093515707 -0.5537888340359174
0.2149893 -0.8152612582651798 -0.5600519536911881
0.2169892 -0.8109391034430964 -0.5645112530342825
0.2189891 -0.8086973293347159 -0.5699251117697088
0.220989 -0.8041653066192179 -0.5754791276709339
0.2229889 -0.8011627805819791 -0.5808882001491409
0.2249888 -0.7981767914176197 -0.5851392096482795
0.2269887 -0.7948748824177965 -0.5904903354367684
0.2289886 -0.7914139811064684 -0.5955880764575301
0.2309885 -0.7881570761928675 -0.5994981044494567
0.2329884 -0.7850325645106809 -0.6050600795308088
0.2349883 -0.7813405510962549 -0.6097159802475509
0.2369882 -0.7776764952638848 -0.614707830394987
0.2389881 -0.7744022771040343 -0.6197916013343987
0.240988 -0.7707452136701303 -0.6253018407003941
0.2429879 -0.7669970291380211 -0.629873432115982
0.2449878 -0.763235497596871 -0.6349055178229775
0.2469877 -0.7604943153457459 -0.6392393976035764
0.2489876 -0.7558595808885158 -0.6450069891105269
0.2509875 -0.7532270931812693 -0.6494384894450017
0.2529874 -0.748893874728141 -0.6538217668880176
0.2549873 -0.7457168036850658 -0.658867639036238
0.2569872 -0.7415200482068173 -0.6638712969291434
0.2589871 -0.7372399582852766 -0.6683181317833836
0.260987 -0.7341219253475801 -0.6728321507013925
0.2629869 -0.7300484052894789 -0.6785197873587758
0.2649868 -0.7258558044785153 -0.6831210366848943
0.2669867 -0.7224114344241318 -0.687252672157952
0.2689866 -0.7182957969812039 -0.6909276185184103
0.2709865 -0.7145632161681349 -0.6963442387537431
0.2729864 -0.7106902966311491 -0.7000308473309138
0.2749863 -0.7066796028418983 -0.7048833754443968
0.2769862 -0.7025403792794502 -0.7101626470188004
0.2789861 -0.6981442585057913 -0.7148478921656003
0.280986 -0.6940791014364482 -0.7189785305253947
0.2829859 -0.6905098678709394 -0.7240477637642369
0.2849858 -0.6860796185816804 -0.7273804240656109
0.2869857 -0.6820311039245944 -0.7319561149081265
0.2889856 -0.6782095123153585 -0.7363501929187998
0.2909855 -0.6740770612863414 -0.7412295204454232
0.2929854 -0.6694066591259779 -0.7451885392164915
0.2949853 -0.6652418269617516 -0.7489438414502093
0.2969852 -0.6605368311489204 -0.7541814236404348
0.2989851 -0.656456579786403 -0.7577944047802576
0.300985 -0.6518822358996696 -0.7623699285267891
0.3029849 -0.6466440248593732 -0.7664012439893401
0.3049848 -0.6436957866396447 -0.7704022447664748
0.3069847 -0.638641828814703 -0.7754888435019233
0.3089846 -0.634664821230258 -0.7794210781193556
0.3109845 -0.6294654338224768 -0.7828661774268293
0.3129844 -0.6254201146728808 -0.7873248918299764
0.3149843 -0.6212540683866745 -0.7916353137850625
0.3169842 -0.6157463344735407 -0.7950505826052173
0.3189841 -0.6118769472974298 -0.7998826888740019
0.320984 -0.6080022431259943 -0.8036615465469018
0.3229839 -0.6022274261971501 -0.8069257094903081
0.3249838 -0.5985693226767289 -0.8111099947740978
0.3269837 -0.5928492065764553 -0.8156186153415065
0.3289836 -0.5886633999464518 -0.8193029131625056
0.3309835 -0.5840240888107859 -0.8235356471492908
0.3329834 -0.5796101477946575 -0.827939443779536
0.3349833 -0.5748733333532504 -0.8319363352795667
0.3369832 -0.5700016098911538 -0.8352141890072609
0.3389831 -0.5649099827759173 -0.8393513981739603
0.340983 -0.5602115612861397 -0.8425599141627564
0.3429829 -0.5553524754619689 -0.8464131335384661
0.3449828 -0.5504327243836141 -0.8505379056934425
0.3469827 -0.5455594564313203 -0.853157385094826
0.3489826 -0.5410107044484864 -0.8570883697233138
0.3509825 -0.5357229662820838 -0.8609990485880522
0.3529824 -0.52969759983417 -0.8649748225175485
0.3549823 -0.5248757055740846 -0.8670790401119601
0.3569822 -0.5198411081084723 -0.8708130395280936
0.3589821 -0.5155390528708934 -0.8755295788148061
0.360982 -0.5105145662683865 -0.8784332828163997
0.3629819 -0.5047318803810645 -0.8811073921704894
0.3649818 -0.5004204651277327 -0.8854662341845084
0.3669817 -0.494997632625704 -0.8893483165088104
0.3689816 -0.4899394968015393 -0.8926593780390562
0.3709815 -0.4835378583709854 -0.8958934228388803
0.3729814 -0.47922348801614956 -0.8997785967404187
0.3749813 -0.4741258845575144 -0.9020790960740626
0.3769812 -0.468376248739295 -0.9052082156791764
0.3789811 -0.46259561366446866 -0.9088383649283284
0.380981 -0.4587018256669319 -0.912568054680161
0.3829809 -0.45326631377472854 -0.9150300684068794
0.3849808 -0.4478935189181278 -0.9186726160685063
0.3869807 -0.4412386424418128 -0.9207733216456427
0.3889806 -0.4362522315991371 -0.9239698100108539
0.3909805 -0.4309303299853024 -0.9269625690125306
0.3929804 -0.42594727425910706 -0.9306010650007365
0.3949803 -0.4206911806950465 -0.9331891521252869
0.3969802 -0.41519887365875985 -0.9363536103410477
0.3989801 -0.40918844261659754 -0.9388722770178217
0.40098 -0.4042212475746657 -0.9427762889985339
0.4029799 -0.39889787411243294 -0.9456510921012211
0.4049798 -0.39257019857873304 -0.9477936087539413
0.4069797 -0.38704818100349164 -0.9506936323177333
0.4089796 -0.38175381477033765 -0.9528277645984707
0.4109795 -0.37597477797740636 -0.9568923578603636
0.4129794 -0.3700850337222464 -0.9594836244159288
0.4149793 -0.3644294999174111 -0.9615660152924317
0.4169792 -0.35841632272883994 -0.9638656912208435
0.4189791 -0.35236555363090216 -0.9658716181906809
0.420979 -0.34710822555421716 -0.968764314133111
0.4229789 -0.341941634140188 -0.9727675998016316
0.4249788 -0.3357362324672065 -0.9748103054577973
0.4269787 -0.33031518385439346 -0.9770660442135124
0.4289786 -0.32380968387168935 -0.9790684989866534
0.4309785 -0.3186179659931114 -0.9819110389447686
0.4329784 -0.3126151428650716 -0.9846176539073997
0.4349783 -0.3064627155873403 -0.9862487209646601
0.4369782 -0.30068596300267536 -0.9882022125365527
0.4389781 -0.2950897762112194 -0.9908005809821541
0.440978 -0.2890686131271093 -0.9932376098273893
0.4429779 -0.28344814962375375 -0.9947043086932335
0.4449778 -0.27674725332395544 -0.9971060277712114
0.4469777 -0.2706026858166983 -0.9998180158033944
0.4489776 -0.26419040636763047 -1.0010323884280365
0.4509775 -0.25935567980978813 -1.0041514357254542
0.4529774 -0.252860817488845 -1.0066736297596266
0.4549773 -0.24661668169800424 -1.0072961412979469
0.4569772 -0.24078285337968863 -1.0096047318767567
0.4589771 -0.23469850272347964 -1.011387144091577
0.460977 -0.22825528566304065 -1.0126882436357942
0.4629769 -0.22252345017514796 -1.0153600062612484
0.4649768 -0.21632017509924734 -1.0167075833290409
0.4669767 -0.20978530920333766 -1.0193012909870014
0.4689766 -0.2042576833313556 -1.0207462377945058
0.4709765 -0.19850388985074727 -1.0230160919381837
0.4729764 -0.19181453093185957 -1.0243842667686087
0.4749763 -0.18634103203252017 -1.0261440835307543
0.4769762 -0.1792359205845216 -1.027504005182877
0.4789761 -0.1737783359522321 -1.02912374576034
0.480976 -0.1671841159558076 -1.0301216543559626
0.4829759 -0.1607463140635208 -1.0316898605000966
0.4849758 -0.1544309781524263 -1.0328180992390463
0.4869757 -0.14767745285922024 -1.033961134631743
0.4889756 -0.1414502619822411 -1.0354678289436214
0.4909755 -0.1354772910263774 -1.037068058158922
0.4929754 -0.12924690226629718 -1.038354090653702
0.4949753 -0.1227675171718282 -1.039131534715434
0.4969752 -0.11622930862545244 -1.041954621668283
0.4989751 -0.10963024820083034 -1.0423485825167913
0.500975 -0.10335027473873128 -1.04434631552945
0.5029749 -0.09725277911775904 -1.043989811180284
0.5049748 -0.09058830419503601 -1.0457669377258012
0.5069747 -0.0839189757404651 -1.046796555816821
0.5089746 -0.07828431045342234 -1.047651593943978
0.5109745 -0.0707139555128071 -1.0482764495338757
0.5129744 -0.06528796747945517 -1.0495465194876261
0.5149743 -0.05922586459792932 -1.0502750131389997
0.5169742 -0.05202202339737948 -1.0502241776283983
0.5189741 -0.04614121534808609 -1.0514478396185851
0.520974 -0.03910685026002924 -1.051993425715526
0.5229739 -0.032879264896212415 -1.0524647909978635
0.5249738 -0.026178043015665425 -1.053536652355263
0.5269737 -0.019627752311024607 -1.0540171141926522
0.5289736 -0.01297855647329963 -1.0545929306523392
0.5309735 -0.006819758210255669 -1.055028360346198
0.5329734 9.835445121504638e-05 -1.0554963163623619
0.5349733 0.00739026283686503 -1.0562593718983522
0.5369732 0.013285387806121221 -1.0563729766539451
0.5389731 0.02024253525694751 -1.0570060567190953
0.540973 0.026370143333697776 -1.0571506225417593
0.5429729 0.032922669972231755 -1.05820877877441
0.5449728 0.0397478214183484 -1.0581599512474595
0.5469727 0.04581823860696929 -1.0585001512206755
0.5489726 0.052942276706042804 -1.057472030101849
0.5509725 0.05929780210631745 -1.0582198024350933
0.5529724 0.06593418760310933 -1.0575409785180168
0.5549723 0.07251739176553317 -1.057619208406405
0.5569722 0.07898674072443322 -1.0581633623314775
0.5589721 0.08560664976468217 -1.058407922458004
0.560972 0.09300463106061449 -1.057630291881168
0.5629719 0.09948527805300697 -1.057929025701569
0.5649718 0.10577196725198294 -1.0573855693803147
0.5669717 0.11224404088805137 -1.0573748547428747
0.5689716 0.11944038758658906 -1.0566102606593135
0.5709715 0.12605228237600036 -1.0569557619164687
0.5729714 0.13275022681781007 -1.0560159134642197
0.5749713 0.13937586839738825 -1.0558809518753758
0.5769712 0.1459376392181805 -1.0554252930568389
0.5789711 0.1528844610755918 -1.055436941612343
0.580971 0.1592956194311226 -1.0548286056835658
0.5829709 0.16558971880068019 -1.0536167731931638
0.5849708 0.17311332336776658 -1.0527605016111323
0.5869707 0.18002346487414866 -1.0522570244057223
0.5889706 0.18637888578105605 -1.0514779742551927
0.5909705 0.19261583289058126 -1.050601235488591
0.5929704 0.1986586035165727 -1.0500919137134221
0.5949703 0.20605549077735497 -1.049080473922596
0.5969702 0.21328533224324447 -1.0485024671224608
0.5989701 0.21945552479807323 -1.0472906996149973
0.60097 0.22621528797028823 -1.0468291675902164
0.6029699 0.2332561461158998 -1.0457493431974163
0.6049698 0.24010220572293245 -1.0445316047216497
0.6069697 0.2468710094499389 -1.043868646563925
0.6089696 0.2530592754055798 -1.042501805223515
0.6109695 0.25944359014104507 -1.0419981009792678
0.6129694 0.2662831177910793 -1.0402931336176569
0.6149693 0.27317793016597586 -1.0391146922241559
0.6169692 0.2800886508344433 -1.0372555430124357
0.6189691 0.2869597041297362 -1.0351922041590076
0.620969 0.29314161541096373 -1.0336246890145033
0.6229689 0.2998441215988734 -1.0325796892890744
0.6249688 0.3062088173007712 -1.030855829228772
0.6269687 0.31303314336798654 -1.0292395254976705
0.6289686 0.31981985851763883 -1.0278809363673325
0.6309685 0.32633515731279106 -1.0258689808617423
0.6329684 0.33301166041613217 -1.0244486855816977
0.6349683 0.33984572065241747 -1.0225042754774802
0.6369682 0.3463897830248025 -1.0212659712196628
0.6389681 0.35289243396663195 -1.0192675661807786
0.640968 0.35967803497871326 -1.0175531765619787
0.6429679 0.36634327485488705 -1.016014693366398
0.6449678 0.37316217753272896 -1.0132718593495473
0.6469677 0.38030560140081976 -1.0110609202262009
0.6489676 0.38582770262376187 -1.0095277793769086
0.6509675 0.3926859707952951 -1.0071474299940804
0.6529674 0.3991657207446296 -1.0045588181630283
0.6549673 0.4059357563093179 -1.0017498765800734
0.6569672 0.4122049324483317 -0.9999108807535
0.6589671 0.4187485959045493 -0.9976105091955692
0.660967 0.42544418994729993 -0.9951854205592637
0.6629669 0.43254398243496256 -0.9932813090293683
0.6649668 0.43865682548684715 -0.9905228725730981
0.6669667 0.44469557327925324 -0.9876477713112732
0.6689666 0.4509166991822352 -0.9854735192297571
0.6709665 0.4572111643896067 -0.9837657849874174
0.6729664 0.4650077302552853 -0.9800287651924062
0.6749663 0.47110755919327063 -0.9791329059340915
0.6769662 0.47817620178911197 -0.9753401237757288
0.6789661 0.48469029259262125 -0.9724646028264339
0.680966 0.49052245706488873 -0.9701472716111165
0.6829659 0.49688074411499406 -0.9668018617846779
0.6849658 0.5035857644907054 -0.964146665500341
0.6869657 0.5098364639128133 -0.9610555977256205
0.6889656 0.5163190073286144 -0.9583780579533301
0.6909655 0.5228781737477858 -0.9549174858487833
0.6929654 0.5289935620043397 -0.9523643578544205
0.6949653 0.5353280937640343 -0.9488287074011509
0.6969652 0.5410449494251538 -0.9457741041687651
0.6989651 0.5474381060078153 -0.9422164924196035
0.700965 0.5539692418990146 -0.9388193423425658
0.7029649 0.559764196189785 -0.935350743216473
0.7049648 0.5664950298668131 -0.9323805158578325
0.7069647 0.5730098690361468 -0.9288068586770201
0.7089646 0.5790648049250795 -0.9251196811315251
0.7109645 0.5849337760098265 -0.9217389951625556
0.7129644 0.5908946707618435 -0.9184279497143051
0.7149643 0.5973825946557426 -0.9150302782361566
0.7169642 0.6032405724116098 -0.9105665028508741
0.7189641 0.6095460313061262 -0.9073692666715505
0.720964 0.6156052095429078 -0.903723293479392
0.7229639 0.6213042456580364 -0.9002547337861259
0.7249638 0.6274117349618062 -0.8961946351413543
0.7269637 0.6338620275231297 -0.8926344671527114
0.7289636 0.6395697391000861 -0.8893167164936863
0.7309635 0.645929651780644 -0.8845479480826651
0.7329634 0.6517035516076563 -0.8806796530881138
0.7349633 0.6572753859265739 -0.8766886830044043
0.7369632 0.6629548597040869 -0.872448242154803
0.7389631 0.6688943979030353 -0.8680877021884387
0.740963 0.6750715922056747 -0.8637272879013072
0.7429629 0.6809431089703802 -0.8594548666712523
0.7449628 0.6865513383987369 -0.85583113566426
0.7469627 0.6920622097009774 -0.8509375986271154
0.7489626 0.6979396329055223 -0.8470046924404219
0.7509625 0.7041227046531252 -0.8427264438796812
0.7529624 0.7093192403322148 -0.8377684306977494
0.7549623 0.7149598083936921 -0.8337222742303381
0.7569622 0.72079795804753 -0.8288487552712509
0.7589621 0.7267268190501266 -0.8248784996392502
0.760962 0.7328387474491243 -0.8201763757025491
0.7629619 0.7385761850020083 -0.8159570142118431
0.7649618 0.743918522573792 -0.8110150782575078
0.7669617 0.7488241969772662 -0.8065690857948171
0.7689616 0.755225169879629 -0.8015486647080432
0.7709615 0.7603385517860245 -0.7968248808584021
0.7729614 0.7653357783077387 -0.7920661454087499
0.7749613 0.7708912686077507 -0.7866601975283776
0.7769612 0.7760111053793515 -0.7818954235510045
0.7789611 0.7817882237713751 -0.7767411300211252
0.780961 0.7869774286548794 -0.7718243565163705
0.7829609 0.7920971625067359 -0.7667642810200449
0.7849608 0.7973178006134043 -0.7618914523108062
0.7869607 0.8024778442315366 -0.7562799673001337
0.7889606 0.807631155697042 -0.750514800314711
0.7909605 0.8120173276626429 -0.7455762354302229
0.7929604 0.8176850946467502 -0.7402392550535954
0.7949603 0.8228186156893413 -0.7356805305477526
0.7969602 0.8279800512686829 -0.7299757178317375
