! Created with skrf 1.8.0 (http://scikit-rf.org).
# GHz S RI R 50.0 
!freq ReS11 ImS11
0.001 0.9927247329822771 0.013196750116641676
0.0029999 0.9972614881402965 0.018833522474889064
0.0049998 1.0004885734031406 0.026100916797488383
0.0069997 1.0016110182761138 0.0333429136671447
0.0089996 1.0044609390013373 0.0395448819117378
0.0109995 1.0051338151311808 0.0459863229968249
0.0129994 1.0051447610626434 0.05307372881310536
0.0149993 1.0041964575661084 0.058882550648774463
0.0169992 1.0050922964751487 0.06574852970881234
0.0189991 1.003923500570437 0.0726430735398616
0.020999 1.0045063759812243 0.08011656877110787
0.0229989 1.0035505548971155 0.08722170262600869
0.0249988 1.003669593794743 0.09439627917667348
0.0269987 1.0037910276325446 0.10182475135742199
0.0289986 1.0025014479925491 0.1079364721952857
0.0309985 1.0018136605275434 0.11585619985209081
0.0329984 1.0014268578673335 0.12300803687112621
0.0349983 1.0003808204070044 0.12963193351532967
0.0369982 0.9987710077691713 0.13764205616207403
0.0389981 0.9980628562760424 0.14431124614968285
0.040998 0.9978889949997203 0.15173558720396058
0.0429979 0.9967721655083341 0.16047479129376965
0.0449978 0.995273055690195 0.16512366766849632
0.0469977 0.9934483219522268 0.1742313297678237
0.0489976 0.9935328064967982 0.18019187283617666
0.0509975 0.9910235528601052 0.18728859921748264
0.0529974 0.9912874531855843 0.19375575366831413
0.0549973 0.9887745984403694 0.2026123198780998
0.0569972 0.9879584689877213 0.20877010079128544
0.0589971 0.9860055457591338 0.21591661922295066
0.060997 0.9848711747231381 0.22272324289168366
0.0629969 0.982612973924685 0.23079091816834751
0.0649968 0.9814335974950629 0.23700376665928546
0.0669967 0.9803230152268975 0.24389396097742824
0.0689966 0.9784328330690585 0.25081203853408074
0.0709965 0.9763827730682085 0.25887286216958744
0.0729964 0.9745466880181575 0.26522306942074797
0.0749963 0.9726720089493596 0.27189014650296234
0.0769962 0.9704166112566378 0.2790005608498177
0.0789961 0.969066524998305 0.2864692427006976
0.080996 0.9667010401136041 0.2929641862977812
0.0829959 0.9650062504189361 0.29954195749916174
0.0849958 0.9620250862698432 0.306853647498745
0.0869957 0.9611288953655013 0.31377418746168406
0.0889956 0.9579623874952259 0.3212826849601812
0.0909955 0.9556725483928576 0.32797763784100237
0.0929954 0.9542813532540527 0.3337722883589346
0.0949953 0.951487155956093 0.3414549634448992
0.0969952 0.948212387788579 0.3490967897137163
0.0989951 0.9473643000062052 0.35555799425272877
0.100995 0.9441130156507055 0.3613148068695099
0.1029949 0.9417392694749848 0.36866722674315516
0.1049948 0.9388656288848921 0.3757842143874752
0.1069947 0.9357603646367458 0.3824436364921187
0.1089946 0.9326814756701665 0.3894855580294912
0.1109945 0.9308422614013252 0.39569690041065586
0.1129944 0.9278327289425287 0.40276350273853095
0.1149943 0.9250963306441222 0.40967920224580046
0.1169942 0.9212901786146532 0.41592593967429814
0.1189941 0.9201007469244796 0.42158876317079635
0.120994 0.9169262956973638 0.4288652196774832
0.1229939 0.9134240419315854 0.435776435663269
0.1249938 0.9105126364605165 0.4418058228706608
0.1269937 0.9070882377149021 0.44902698836345484
0.1289936 0.9051694059954007 0.4551071791218499
0.1309935 0.9014471182859096 0.46051509448062444
0.1329934 0.8961670835003287 0.4682619966846023
0.1349933 0.8943462508230068 0.47437613947533175
0.1369932 0.8906613530915696 0.4822896221724446
0.1389931 0.8879129463916707 0.4870366151230151
0.140993 0.8834950007991451 0.49400032548865846
0.1429929 0.8799959398940447 0.4997297811206318
0.1449928 0.8775827033601812 0.5054035866606292
0.1469927 0.873612332665925 0.511727339485495
0.1489926 0.8693879849807348 0.5188155074447398
0.1509925 0.8660898799794853 0.5256820653859088
0.1529924 0.8631649703495426 0.5305047119240244
0.1549923 0.8584314579368018 0.5379618724270163
0.1569922 0.8542427277728781 0.5426391595497173
0.1589921 0.8510556172432786 0.5501117614195303
0.160992 0.8467578114941787 0.5557495043726824
0.1629919 0.8427234117095266 0.5614350588362664
0.1649918 0.839549107873695 0.5681923468237594
0.1669917 0.8355352517115042 0.5741265143856868
0.1689916 0.8303493991494117 0.5796502825694909
0.1709915 0.827728717992852 0.5860954522242481
0.1729914 0.8229456010742541 0.5920182995655685
0.1749913 0.8187556318956389 0.5990591824369448
0.1769912 0.814398292169619 0.6037166651507355
0.1789911 0.8095884209886843 0.6096223610538283
0.180991 0.80629289965782 0.6159092501074489
0.1829909 0.8018270413802601 0.6196992361131467
0.1849908 0.7958210352473379 0.627029988107784
0.1869907 0.7931709765974003 0.6337300486901487
0.1889906 0.788149725133429 0.6385579637226024
0.1909905 0.7840408055879025 0.6445017236774623
0.1929904 0.7796715959015392 0.6495276184442381
0.1949903 0.7754587913575027 0.6559167007545849
0.1969902 0.7709287968339866 0.661250979964621
0.1989901 0.7652308196189426 0.6656472753763198
0.20099 0.7614616252911509 0.671752434074104
0.2029899 0.7558716119419707 0.6775663745520735
0.2049898 0.7516668833039302 0.682741158742977
0.2069897 0.7465546235712786 0.6881626781472141
0.2089896 0.742782564141405 0.6936381006238609
0.2109895 0.7365579071846492 0.6989998892013676
0.2129894 0.7321965399253829 0.7048288714510754
0.2149893 0.7272337326854612 0.7089684927558075
0.2169892 0.7219160643216272 0.7149280631855677
0.2189891 0.7168918680939377 0.7195121152142598
0.220989 0.7121095021645548 0.7254916245546575
0.2229889 0.7068153469969158 0.7292475877697271
0.2249888 0.7021488871986055 0.7355151488360478
0.2269887 0.6966511545317025 0.7404042400396403
0.2289886 0.6914901832351382 0.7445405161070411
0.2309885 0.6857725304037926 0.7497081617066684
0.2329884 0.6804318592644721 0.7540809942421997
0.2349883 0.6756039110151784 0.7601716024525659
0.2369882 0.6700707993423699 0.7644253010618081
0.2389881 0.664603299936808 0.7694637105525192
0.240988 0.6599164933854239 0.7747662696219786
0.2429879 0.6540690940052681 0.7789640829129367
0.2449878 0.6482507946572842 0.7836577077432996
0.2469877 0.6430870841352401 0.7879390400505929
0.2489876 0.6382064523415713 0.7926434587683524
0.2509875 0.63133950264876 0.797418766664489
0.2529874 0.6262734692058309 0.8021474308630886
0.2549873 0.6211255711637544 0.8070225247212952
0.2569872 0.6155515099614494 0.8110744243265954
0.2589871 0.6098877891454858 0.815481310501358
0.260987 0.6046450981214774 0.8197647431243074
0.2629869 0.5981987852843418 0.8237083773564619
0.2649868 0.5928707373140173 0.8288454365614272
0.2669867 0.5868896074900383 0.8316329892112708
0.2689866 0.5807337102592439 0.8368169408372556
0.2709865 0.5756551752993078 0.8421477050763496
0.2729864 0.5695245307964328 0.8455517788506393
0.2749863 0.5634735749478329 0.8481966421686449
0.2769862 0.5578984225974741 0.8529047351782402
0.2789861 0.5513610531885221 0.8565879927593029
0.280986 0.5459927536658096 0.8607567363801382
0.2829859 0.539974004455333 0.8644741419679278
0.2849858 0.5342209613417114 0.8688433456669883
0.2869857 0.5281900100226469 0.8732309504053186
0.2889856 0.521428552558239 0.8763188277189391
0.2909855 0.5156816228037591 0.8801556432632132
0.2929854 0.5096856088187964 0.8835441575084839
0.2949853 0.503683063266688 0.8874901113799895
0.2969852 0.4974770909558038 0.8909867666461009
0.2989851 0.49122064898554507 0.8942643994006665
0.300985 0.4846154226139928 0.8983482705132307
0.3029849 0.4784032349044127 0.9005494677062967
0.3049848 0.47288835374419574 0.9056106100372042
0.3069847 0.46628860185276694 0.9085962287643222
0.3089846 0.4597022279455092 0.9111059024124214
0.3109845 0.454558988632396 0.9136561496103947
0.3129844 0.4475756378288082 0.9181906869584273
0.3149843 0.4413774099375569 0.9214217235032676
0.3169842 0.4355921953391329 0.9246092257248971
0.3189841 0.4272220181375183 0.9274473598760639
0.320984 0.4216592924222169 0.9307096969837526
0.3229839 0.4156346690384633 0.934035491709007
0.3249838 0.40847235869056253 0.9367211347582463
0.3269837 0.4030990359868288 0.9404545330184945
0.3289836 0.39651611665105185 0.9433821250075869
0.3309835 0.39016408324237994 0.945971399730296
0.3329834 0.3828787264807678 0.9483300540215317
0.3349833 0.37633878573789364 0.9511384845251197
0.3369832 0.3702109613238103 0.9541843429297148
0.3389831 0.36398907603739394 0.956690675128005
0.340983 0.35665468582807586 0.9597587124740986
0.3429829 0.3498056727634779 0.9622049777268592
0.3449828 0.3435204122577488 0.964041376297206
0.3469827 0.33651109621560793 0.9668512203864015
0.3489826 0.3307268100874065 0.9691291035513319
0.3509825 0.32359981873568416 0.9712740479816029
0.3529824 0.31711996205280985 0.9739109269747023
0.3549823 0.31055637961117466 0.9765825927772454
0.3569822 0.3037293359597188 0.9786546926693525
0.3589821 0.2967237990900594 0.9809667777756299
0.360982 0.28945008935157474 0.9828334572982521
0.3629819 0.28374183009926046 0.9859418752548936
0.3649818 0.2767465777170153 0.9870120325386436
0.3669817 0.2695977573019751 0.9895384769801278
0.3689816 0.26237149389428616 0.9912642234631713
0.3709815 0.2567686064672645 0.992702451802628
0.3729814 0.24880007435454016 0.9950020897486498
0.3749813 0.24293753686393776 0.9961405048101611
0.3769812 0.23653796697750532 0.998626976977484
0.3789811 0.2293177260007192 1.0000254365078871
0.380981 0.22176303424393629 1.0014937769860688
0.3829809 0.21513638063104165 1.0025120829614413
0.3849808 0.20823157471887552 1.004339662884486
0.3869807 0.20139356187378166 1.0062804124174884
0.3889806 0.1949923190064089 1.0085466150884765
0.3909805 0.18849855201082477 1.0099156242409282
0.3929804 0.18077988046427998 1.010400287042725
0.3949803 0.17419769071381208 1.0123822873926498
0.3969802 0.1668244211129502 1.0138207320096937
0.3989801 0.1596823791218283 1.0149569189957373
0.40098 0.15325156541325585 1.0163512846765748
0.4029799 0.1463752477333698 1.0172356867973782
0.4049798 0.13917957454027666 1.018701508308117
0.4069797 0.13218844323717582 1.019567938403024
0.4089796 0.12544663049137433 1.0206215801037075
0.4109795 0.11800126115598437 1.020981142897421
0.4129794 0.11145412476831637 1.0225427486635674
0.4149793 0.10452302817952967 1.0233593794752278
0.4169792 0.09777975939103613 1.0248640278766064
0.4189791 0.09112762131039281 1.0252827961086228
0.420979 0.08403072776514679 1.0255700195460298
0.4229789 0.07670512775363318 1.0264947313920898
0.4249788 0.06982173727842685 1.0267820070230051
0.4269787 0.06344288048097144 1.027465668841687
0.4289786 0.056460409107633946 1.0276122053068226
0.4309785 0.04964501565174617 1.0280105763261989
0.4329784 0.042525723597177184 1.0283588737176677
0.4349783 0.03512220644407246 1.0293693598561007
0.4369782 0.028942209179725398 1.0304081363415718
0.4389781 0.021932600974168007 1.0304507139171186
0.440978 0.014479615592389944 1.0304307140809543
0.4429779 0.007539438623874406 1.0308741060739108
0.4449778 0.0005729176540661823 1.0307414641431494
0.4469777 -0.0058951329304262196 1.031050510751018
0.4489776 -0.01233032393021799 1.0311719971059585
0.4509775 -0.01943065147106241 1.0306826998482317
0.4529774 -0.026950789866594597 1.0307360287153924
0.4549773 -0.03287238671111201 1.0309198352542563
0.4569772 -0.040242069246888425 1.0307615081026176
0.4589771 -0.04749880136818739 1.030698489389129
0.460977 -0.05444053942879402 1.0311130147244691
0.4629769 -0.0614564279436982 1.030913379468904
0.4649768 -0.06808195629584962 1.0306072899721628
0.4669767 -0.0750607791027631 1.0300477277202449
0.4689766 -0.08187790954428865 1.029428838457608
0.4709765 -0.08911993042990636 1.0290449971626252
0.4729764 -0.09596121216905909 1.028174127097712
0.4749763 -0.10290644941822813 1.0278316771716964
0.4769762 -0.10952981545061762 1.0272120203284845
0.4789761 -0.1165200911028856 1.0266408814908936
0.480976 -0.12340000791986075 1.0258158193512883
0.4829759 -0.12989028149646603 1.0253676193408618
0.4849758 -0.13680410025820677 1.0247581572766389
0.4869757 -0.14378660743082036 1.0238871911897474
0.4889756 -0.1508404824723556 1.0236821595041883
0.4909755 -0.15778949466119935 1.0225853345965348
0.4929754 -0.16487681925473166 1.0211695931254576
0.4949753 -0.17109330572115433 1.020385684928255
0.4969752 -0.17763012084566898 1.0196437361406732
0.4989751 -0.18487452069274712 1.018592226208172
0.500975 -0.19155643925988908 1.0175822852457197
0.5029749 -0.19851482458689795 1.0164967677401515
0.5049748 -0.205230453581963 1.0153204945710677
0.5069747 -0.21172070535320914 1.0137798819455484
0.5089746 -0.21841633192215335 1.012769906773171
0.5109745 -0.22497343209048304 1.011391297377916
0.5129744 -0.23181233349188457 1.0094780823057614
0.5149743 -0.23878215641495207 1.007808252823112
0.5169742 -0.24507532037516555 1.0068907043738031
0.5189741 -0.25172595259603514 1.0055898518802522
0.520974 -0.25861385173119167 1.0042561265497991
0.5229739 -0.2652863338095091 1.0029580287616964
0.5249738 -0.27213261560470137 1.000729557774957
0.5269737 -0.2785832188637346 0.9994235618355697
0.5289736 -0.28520700004131627 0.9979851726238816
0.5309735 -0.292370174480152 0.9956319559041036
0.5329734 -0.29872350582521867 0.9942142533660082
0.5349733 -0.30507468362929535 0.9924760330321672
0.5369732 -0.31175791720465135 0.9905172929652327
0.5389731 -0.3179608962111101 0.9886307665061712
0.540973 -0.32479320039152243 0.9863181969487972
0.5429729 -0.33137034456619247 0.9840539994919351
0.5449728 -0.3378556950398619 0.9821720276793999
0.5469727 -0.34424974264891 0.9802610713516513
0.5489726 -0.3507593959199794 0.9781940359661019
0.5509725 -0.35738680493964403 0.9763019140757941
0.5529724 -0.36345847989117247 0.9740219886079767
0.5549723 -0.37007720355962764 0.9718993109689861
0.5569722 -0.3766114151689264 0.9692376681121007
0.5589721 -0.38303411223085826 0.9668353203753337
0.560972 -0.3888539448136663 0.9647303822422452
0.5629719 -0.3953395008623378 0.9622800598924837
0.5649718 -0.40165654060900463 0.9598133144297541
0.5669717 -0.4079693641282536 0.9571768547491567
0.5689716 -0.4147046628085163 0.9546609643267305
0.5709715 -0.42066345135952377 0.9520155815020502
0.5729714 -0.4265790803740512 0.9501153588440597
0.5749713 -0.433009676399846 0.9474527177750138
0.5769712 -0.43950460820218734 0.9442423932728328
0.5789711 -0.4450314877734646 0.9415378641777277
0.580971 -0.45128085098271364 0.9388034770776106
0.5829709 -0.45786854947521627 0.935732228736411
0.5849708 -0.4640006033161961 0.9332917159184129
0.5869707 -0.4696054882711753 0.9307640671098361
0.5889706 -0.4762179223375536 0.92742400612254
0.5909705 -0.48168380954707546 0.9247225439210524
0.5929704 -0.4882649578471352 0.9216351954606071
0.5949703 -0.4938322446140163 0.9186764946954358
0.5969702 -0.4997647118910522 0.915710265606361
0.5989701 -0.5060441407274281 0.9124542426715618
0.60097 -0.5118458853728948 0.9097117470319391
0.6029699 -0.5183410001454054 0.9062237217947887
0.6049698 -0.523570305804214 0.902973996635522
0.6069697 -0.5297313785804731 0.8999296374505678
0.6089696 -0.535312654193762 0.896314429554553
0.6109695 -0.5412052769194021 0.8932135008057771
0.6129694 -0.5471478401562292 0.8901277810648551
0.6149693 -0.5527269037784649 0.8865441846724529
0.6169692 -0.5582351809354504 0.8824789934430943
0.6189691 -0.5640592250768062 0.8790906982750735
0.620969 -0.5698982263103484 0.8762074062171133
0.6229689 -0.575892885101836 0.8726526418598013
0.6249688 -0.5815279778250054 0.8687690486693238
0.6269687 -0.5869258552701078 0.8652221009206383
0.6289686 -0.5923334435595866 0.8616243555425221
0.6309685 -0.5982166878645654 0.8579949744973909
0.6329684 -0.6036439954487856 0.8544590290614127
0.6349683 -0.6094816523677811 0.8505925906926806
0.6369682 -0.6149145186089839 0.8469962770911852
0.6389681 -0.6199711198230491 0.843536866428768
0.640968 -0.6257291569922326 0.8392208041670193
0.6429679 -0.6312342413853118 0.8356759830598852
0.6449678 -0.6366389770562579 0.8317225037606164
0.6469677 -0.6420821445559093 0.8276653475250135
0.6489676 -0.6471887109111913 0.8239578036594151
0.6509675 -0.6525659447171921 0.819845132132451
0.6529674 -0.6579037243857074 0.8158290051913625
0.6549673 -0.6630126977697014 0.8117672055626524
0.6569672 -0.6683135213281686 0.8079276598431957
0.6589671 -0.6736076894495374 0.8034442146547014
0.660967 -0.6785416037738248 0.7995079955469653
0.6629669 -0.6842834933958362 0.7951996567334957
0.6649668 -0.6889587810486927 0.7911453273130844
0.6669667 -0.6943845692278171 0.7870154781316331
0.6689666 -0.6989447053835981 0.7827052455825395
0.6709665 -0.7042462750927507 0.778713683894455
0.6729664 -0.7092791012373993 0.7740810171685761
0.6749663 -0.7140179773444516 0.7696890240184424
0.6769662 -0.7189539786108293 0.7652563791019511
0.6789661 -0.7240333677371082 0.760938320258383
0.680966 -0.7286040069667816 0.7561446151646337
0.6829659 -0.7334492412714154 0.7520941423785008
0.6849658 -0.7384588489692823 0.7476452583857922
0.6869657 -0.7432030872014682 0.742900770140996
0.6889656 -0.7480191704981384 0.7385017662570454
0.6909655 -0.752461246990419 0.7340469058091496
0.6929654 -0.7573513453920309 0.7291854918139286
0.6949653 -0.7621197268438112 0.7246414073652291
0.6969652 -0.766749717791035 0.7201199112699268
0.6989651 -0.7712796514833873 0.7152211173043999
0.700965 -0.7760984235523417 0.7106856954494073
0.7029649 -0.7804440304865835 0.7060019935077744
0.7049648 -0.784973674332008 0.7010907478817758
0.7069647 -0.7894935738119625 0.6964874219149464
0.7089646 -0.7940744354273925 0.6915078882918123
0.7109645 -0.7983772118801432 0.6866099402745521
0.7129644 -0.802832456310078 0.6820788737851248
0.7149643 -0.8071258955354131 0.6769891689379715
0.7169642 -0.8114295052748781 0.6721315248639437
0.7189641 -0.8158168733342163 0.6671644218880923
0.720964 -0.8202217133704569 0.6622578549451874
0.7229639 -0.8244315380569834 0.6572401097101631
0.7249638 -0.8282985419022425 0.6522386828563791
0.7269637 -0.8325975201981068 0.6469711038992325
0.7289636 -0.8369027067067253 0.6422807469731466
0.7309635 -0.8407648514032954 0.6367025520903007
0.7329634 -0.8447774964070119 0.6316199690932703
0.7349633 -0.8487002528484829 0.6268345330168654
0.7369632 -0.8528319311937302 0.6214193774491857
0.7389631 -0.8569252086067587 0.6164025480228683
0.740963 -0.8609322539605713 0.6113104902600034
0.7429629 -0.8647709286952765 0.6055666761847268
0.7449628 -0.8684018384382404 0.6006442712423945
0.7469627 -0.8720031518748398 0.5952216118758494
0.7489626 -0.8757630151355636 0.58990150782189
0.7509625 -0.8798890036738856 0.5845257984823697
0.7529624 -0.883118320401 0.5792377083996414
0.7549623 -0.886996711565152 0.5738873287208573
0.7569622 -0.8907848097606771 0.5685945465943104
0.7589621 -0.8945114666076942 0.5633299021181252
0.760962 -0.897853127758652 0.5579952415849022
0.7629619 -0.9016266455731503 0.5522643999404239
0.7649618 -0.9050704574490981 0.5468999552597134
0.7669617 -0.9083968625725007 0.5415174177108035
0.7689616 -0.9120531109044693 0.5361209686663044
0.7709615 -0.915679515568857 0.5305172124360967
0.7729614 -0.9188993835244276 0.5250189062577109
0.7749613 -0.9222315788867441 0.5194585998856951
0.7769612 -0.9258075990772425 0.5138179649714524
0.7789611 -0.9288938789073219 0.5082690201959741
0.780961 -0.9323570978725038 0.5027970035313152
0.7829609 -0.9354910759300494 0.49711547406445145
0.7849608 -0.9386042007359069 0.4915309972626759
0.7869607 -0.9417534426159466 0.48570293924960795
0.7889606 -0.9448779034885709 0.48011452360279366
0.7909605 -0.9481118040284119 0.4744055073665465
0.7929604 -0.9510413357399052 0.46878004705633647
0.7949603 -0.9541222535451331 0.46296465727366726
0.7969602 -0.9570243410906971 0.45729794299312454
0.7989601 -0.9599918483230527 0.45135224676741087
0.80096 -0.9627607081432159 0.44574099441075477
0.8029599 -0.9656464775094413 0.4398942207651746
0.8049598 -0.9685419718620752 0.4340477671257196
0.8069597 -0.9713726274216478 0.4283262333698955
0.8089596 -0.9741854652622305 0.42228814458809305
0.8109595 -0.9770460475300633 0.41682969220095256
0.8129594 -0.9792649898490925 0.4107215479512162
0.8149593 -0.982095957548046 0.40485761966961
0.8169592 -0.9845878782673152 0.39871779806048846
0.8189591 -0.9873279276761763 0.3931718376741346
