! Created with skrf 1.8.0 (http://scikit-rf.org).
# GHz S RI R 50.0 
!freq ReS11 ImS11
0.001 -1.0258906786161255 -0.02425977134171803
0.0029999 -1.048238779729881 -0.0313800189884422
0.0049998 -1.0567832643252026 -0.029713255627483712
0.0069997 -1.057777481750606 -0.03922946071201437
0.0089996 -1.05846609425241 -0.04007487884081419
0.0109995 -1.0584879328758416 -0.044552703222823335
0.0129994 -1.0590101943077375 -0.052071200434695764
0.0149993 -1.0606508787998778 -0.05791341860539213
0.0169992 -1.0603303809262101 -0.06396892864364415
0.0189991 -1.059712521496671 -0.07063041057474495
0.020999 -1.0604051980337221 -0.07659577394789867
0.0229989 -1.0603431653561142 -0.08392397869720275
0.0249988 -1.0611488675160596 -0.09042031975074544
0.0269987 -1.059411247605369 -0.09598512678455313
0.0289986 -1.059985290946857 -0.10240145891020828
0.0309985 -1.0599630728809915 -0.10895366491735539
0.0329984 -1.058892703140275 -0.11430766764862885
0.0349983 -1.0588742111156386 -0.12199124836421937
0.0369982 -1.0587674573027968 -0.12797233697460622
0.0389981 -1.0577907008097271 -0.1352479399750796
0.040998 -1.0561437604202721 -0.14094798696445338
0.0429979 -1.0563405763169718 -0.14790972118265844
0.0449978 -1.0564083831789257 -0.15406412195074887
0.0469977 -1.0562047451879037 -0.1600335587235328
0.0489976 -1.0538264031497016 -0.166953522327214
0.0509975 -1.0537443370870365 -0.17378105112632747
0.0529974 -1.0545772960586104 -0.17995011608666575
0.0549973 -1.0524876577939737 -0.186559855810479
0.0569972 -1.051284521426705 -0.19334636387141235
0.0589971 -1.050999233454344 -0.19927885184319638
0.060997 -1.0500657327938874 -0.20632330297348922
0.0629969 -1.049131866548101 -0.21201903261082833
0.0649968 -1.0482685415400934 -0.21869807017357856
0.0669967 -1.046116037926409 -0.22539216284349306
0.0689966 -1.0454302766034151 -0.2316517377910206
0.0709965 -1.044611870088462 -0.23723293437000348
0.0729964 -1.0428670370923159 -0.2444835927837447
0.0749963 -1.0420292700688203 -0.2507393184401935
0.0769962 -1.041131680457462 -0.2567881783231703
0.0789961 -1.0393462515840708 -0.2632578170020058
0.080996 -1.0388280755125525 -0.2695085437425104
0.0829959 -1.0363715257347923 -0.2765097030600662
0.0849958 -1.036212267664059 -0.2822544972515133
0.0869957 -1.0340037899868546 -0.2888353813427489
0.0889956 -1.033170991254498 -0.295075709472934
0.0909955 -1.0321140946531837 -0.30179894406792396
0.0929954 -1.0289476321333397 -0.3084873821809828
0.0949953 -1.0273402578932458 -0.31267148266200484
0.0969952 -1.0269387522867282 -0.31908990659595504
0.0989951 -1.023800498802902 -0.32530760492949845
0.100995 -1.023450161614873 -0.3325046935847556
0.1029949 -1.0204540351570426 -0.33998558076226476
0.1049948 -1.019415531912011 -0.34487557617032133
0.1069947 -1.0177590440970692 -0.35172808219561646
0.1089946 -1.0161711861240836 -0.3571405132157804
0.1109945 -1.013422651658109 -0.36348297518883754
0.1129944 -1.0119872708785824 -0.3701511509699001
0.1149943 -1.009730311255655 -0.3758234410515789
0.1169942 -1.0080966454825253 -0.38177293346402236
0.1189941 -1.005120804556283 -0.38844101723923496
0.120994 -1.0033339913966053 -0.3953933624692992
0.1229939 -1.0014301114793913 -0.40024072979102304
0.1249938 -0.9986723068337908 -0.4067584502985299
0.1269937 -0.9966291036852137 -0.41130266556965894
0.1289936 -0.9951397179396906 -0.41833349166747813
0.1309935 -0.9925463579132143 -0.4252067038109536
0.1329934 -0.9904978816196403 -0.4307724224395079
0.1349933 -0.9879334548320388 -0.43677828709276145
0.1369932 -0.985533049724263 -0.4426657050243736
0.1389931 -0.9824493962573256 -0.4490692832349371
0.140993 -0.9815282997423808 -0.4529986191688846
0.1429929 -0.977720521230397 -0.46068809634716384
0.1449928 -0.9753213814530423 -0.4666163786381503
0.1469927 -0.9729491377876399 -0.4724741631373309
0.1489926 -0.9712069759884634 -0.47825665091209557
0.1509925 -0.9670187013170949 -0.4843831215614685
0.1529924 -0.9653998129455068 -0.4906791002271194
0.1549923 -0.9623938131523524 -0.495804476471051
0.1569922 -0.9603122492565948 -0.5025670340384224
0.1589921 -0.9564155437417802 -0.5080487941001393
0.160992 -0.9539346691371938 -0.5153392752735386
0.1629919 -0.950109907429412 -0.5198761924719364
0.1649918 -0.9478275182714132 -0.5255594738972809
0.1669917 -0.94517407864224 -0.5317234182899192
0.1689916 -0.9427712041812526 -0.5367153988115189
0.1709915 -0.938499179295811 -0.542189475773066
0.1729914 -0.9353843214413247 -0.5484457043943973
0.1749913 -0.9327444819753308 -0.5539158265637505
0.1769912 -0.9301481415228511 -0.5599138649784937
0.1789911 -0.926902837541019 -0.5656606081323493
0.180991 -0.9232334592969187 -0.5709161572263513
0.1829909 -0.9197334963723849 -0.5778627456275097
0.1849908 -0.9178306520591499 -0.5818150236436971
0.1869907 -0.9130042590971935 -0.587633205995528
0.1889906 -0.9104502416450801 -0.5940157163345655
0.1909905 -0.9070235334305677 -0.5993781916335407
0.1929904 -0.90357678653236 -0.6054834133456055
0.1949903 -0.9007091878233973 -0.6109081725405119
0.1969902 -0.8969854423923345 -0.615319826940251
0.1989901 -0.8939069465890754 -0.6220754913187092
0.20099 -0.8903618088119509 -0.625836550814512
0.2029899 -0.8863131384544022 -0.6318874436802433
0.2049898 -0.8829092469649962 -0.6381232147166775
0.2069897 -0.8790944871868882 -0.6432273370896456
0.2089896 -0.8761215933111483 -0.6475339615609279
0.2109895 -0.8722794514103083 -0.6533982766885799
0.2129894 -0.8686743237086871 -0.6587139118605697
0.2149893 -0.8641164648970026 -0.6642870734116856
0.2169892 -0.8604219013726289 -0.6692379645614208
0.2189891 -0.8569618518483271 -0.6753259765709774
0.220989 -0.8525880706723801 -0.6810148196579701
0.2229889 -0.8488268534839379 -0.6863001427010297
0.2249888 -0.8452911779057684 -0.6904238916010373
0.2269887 -0.8408788894143804 -0.6955857521729857
0.2289886 -0.8371229272458542 -0.7012513137703097
0.2309885 -0.8327335610998323 -0.7063873084607136
0.2329884 -0.8290365924449109 -0.7116784739844975
0.2349883 -0.8241957076044001 -0.7163902665619286
0.2369882 -0.8204020387549747 -0.7213451290540608
0.2389881 -0.8167634958317159 -0.726918364656253
0.240988 -0.8118770713626942 -0.7313508821774272
0.2429879 -0.8076822446267659 -0.7366394730859025
0.2449878 -0.8042901474243572 -0.7422021563922983
0.2469877 -0.8001390575737014 -0.7467329280754098
0.2489876 -0.7950561412506902 -0.7520834823668435
0.2509875 -0.7912248734028273 -0.7566045977958158
0.2529874 -0.7862235575645373 -0.7614859475646791
0.2549873 -0.7819436869651523 -0.7660458409139439
0.2569872 -0.7778874679117946 -0.7711661883349867
0.2589871 -0.7731160656649362 -0.7754263310424372
0.260987 -0.7686717585996664 -0.7813661928679868
0.2629869 -0.7644021564924269 -0.7854416388525591
0.2649868 -0.7590040648931086 -0.7900939199561605
0.2669867 -0.7552080707702868 -0.7956195885541936
0.2689866 -0.7508055347397012 -0.7999914428862386
0.2709865 -0.7459898889245712 -0.8031632976231636
0.2729864 -0.7410206902143182 -0.808285721825065
0.2749863 -0.7365112289035046 -0.8136418171501746
0.2769862 -0.7320274226165925 -0.8184502434262988
0.2789861 -0.7272645949713977 -0.8224366358854395
0.280986 -0.721744811526916 -0.8268942970810277
0.2829859 -0.7170832251753603 -0.8328078801581249
0.2849858 -0.7122860500842966 -0.8362600285958951
0.2869857 -0.7070844279456825 -0.8399436599671034
0.2889856 -0.7025758966519448 -0.8458829703603078
0.2909855 -0.697869012769796 -0.8494423848563155
0.2929854 -0.6927662501239702 -0.8538314709156203
0.2949853 -0.6873628816553341 -0.8575237678132862
0.2969852 -0.6820236950648588 -0.8627651048326885
0.2989851 -0.6771307828251835 -0.8664732646819768
0.300985 -0.6722956938486855 -0.8707651842074776
0.3029849 -0.6674547064186344 -0.8747653563725065
0.3049848 -0.6615110172719696 -0.8783306613397411
0.3069847 -0.656770386458341 -0.8826367552036017
0.3089846 -0.6515811739633135 -0.8884926682212211
0.3109845 -0.6463604593098292 -0.8923742774534776
0.3129844 -0.641516975172249 -0.8954630183810186
0.3149843 -0.6365370923356449 -0.9003575087680954
0.3169842 -0.629788388860006 -0.9037575938537452
0.3189841 -0.626243652398444 -0.907481474562981
0.320984 -0.6201702503598737 -0.9115559082032422
0.3229839 -0.6137803206934812 -0.9154090624166983
0.3249838 -0.6095604625469921 -0.9191322654614451
0.3269837 -0.6029752980140974 -0.9232240141633424
0.3289836 -0.5970689451190785 -0.9270990596453059
0.3309835 -0.5929014184702768 -0.9299319917425268
0.3329834 -0.5876517573894998 -0.9347117020530344
0.3349833 -0.5825990100923782 -0.9387328415289495
0.3369832 -0.5764070210936497 -0.9419362940480958
0.3389831 -0.5700766031443129 -0.9449617746246329
0.340983 -0.5640768962755834 -0.9493642548850622
0.3429829 -0.5596828993139724 -0.9524242530932916
0.3449828 -0.5536741299159662 -0.956419760587429
0.3469827 -0.5477591327038708 -0.9600002524065993
0.3489826 -0.5419920649388488 -0.9630709519266624
0.3509825 -0.5365359915046559 -0.9670729211034419
0.3529824 -0.5298603608553963 -0.9697436602190543
0.3549823 -0.5242710814952615 -0.9729926213397265
0.3569822 -0.5179388636913653 -0.9767877406540625
0.3589821 -0.5129971900533384 -0.9802949876406482
0.360982 -0.5076297687395324 -0.983517627133313
0.3629819 -0.501236326685807 -0.986154661661844
0.3649818 -0.49559252116567565 -0.9897735654187955
0.3669817 -0.4896224554935723 -0.9936478712231339
0.3689816 -0.4837792673624369 -0.9958876162319998
0.3709815 -0.47684989388670834 -0.999799594800798
0.3729814 -0.4714942141373857 -1.0026701773008004
0.3749813 -0.46534103766744067 -1.0053769264225219
0.3769812 -0.4588462295327818 -1.0077982745163454
0.3789811 -0.45262561842550486 -1.0110460557289571
0.380981 -0.44743180251662146 -1.0146048326237196
0.3829809 -0.44163944224881435 -1.0178274543567558
0.3849808 -0.4355438021939692 -1.020228627345147
0.3869807 -0.42875502567296814 -1.022803521682208
0.3889806 -0.42154162359202 -1.0254196136507538
0.3909805 -0.41571689256989414 -1.0279730521426964
0.3929804 -0.41079369467034627 -1.0313266601644147
0.3949803 -0.40357001033995493 -1.033649778802215
0.3969802 -0.3975934203037524 -1.0366156921235072
0.3989801 -0.3918519676402932 -1.0382510335267405
0.40098 -0.38468798495342305 -1.041714506874574
0.4029799 -0.37951843243546046 -1.0444770308439144
0.4049798 -0.37256032005304834 -1.04644095485354
0.4069797 -0.3658805411312763 -1.0489981637449846
0.4089796 -0.35915939665256635 -1.0519179074042506
0.4109795 -0.35310016397423166 -1.054360919968883
0.4129794 -0.3471500276822342 -1.0561329160525987
0.4149793 -0.340238636779182 -1.0591100654773566
0.4169792 -0.3333819229788243 -1.0600398686236405
0.4189791 -0.3269916409543975 -1.0627434291504918
0.420979 -0.32070424150359117 -1.0646142825142406
0.4229789 -0.3146864677585602 -1.0667191590361804
0.4249788 -0.3080289139536828 -1.0688929629936694
0.4269787 -0.3012801991863496 -1.0712958726743516
0.4289786 -0.29435011893195534 -1.0732334149812763
0.4309785 -0.28818281152798914 -1.0751434477284776
0.4329784 -0.28169917440086356 -1.0779121597368073
0.4349783 -0.2751108896071592 -1.0787223432860937
0.4369782 -0.26841879082666276 -1.080040606511434
0.4389781 -0.2612881019501968 -1.0822840574303434
0.440978 -0.2551329013310335 -1.0835295914997654
0.4429779 -0.2478058709200872 -1.0850424364497482
0.4449778 -0.2418917471509852 -1.088202464033955
0.4469777 -0.23467170319373903 -1.0892887631465114
0.4489776 -0.2277346880969493 -1.0908420906230436
0.4509775 -0.22226230797176694 -1.0931413453732775
0.4529774 -0.2152085890690774 -1.0949306331923663
0.4549773 -0.2078388435319064 -1.0951171556263832
0.4569772 -0.20197701012833258 -1.0973355007863765
0.4589771 -0.1951546095986077 -1.0981916232239097
0.460977 -0.18769464321422336 -1.099636495831938
0.4629769 -0.18103001380231884 -1.1006653802777369
0.4649768 -0.17376009776838136 -1.1017436828789615
0.4669767 -0.16718746915626959 -1.1039972768225026
0.4689766 -0.15995367001475488 -1.1049296753045186
0.4709765 -0.15362547265648108 -1.1066510822811588
0.4729764 -0.14712060223766038 -1.1073219951924491
0.4749763 -0.14006107093984344 -1.1089133888282594
0.4769762 -0.13322983365014407 -1.1095286306468202
0.4789761 -0.12635808345290636 -1.1108314857875266
0.480976 -0.1198464115017402 -1.1117935298435342
0.4829759 -0.111890923532544 -1.1121069198604985
0.4849758 -0.10568620805644091 -1.1124224464838186
0.4869757 -0.09812675843333908 -1.113427243536951
0.4889756 -0.09168227167717172 -1.1134521288546892
0.4909755 -0.08464756403951634 -1.11457230079553
0.4929754 -0.07809891704550359 -1.115270639415527
0.4949753 -0.0704767203968644 -1.116702538088068
0.4969752 -0.0626596712173047 -1.116807733602055
0.4989751 -0.05681835196222847 -1.1170790312241354
0.500975 -0.049402169057799504 -1.117766669303215
0.5029749 -0.042590384009530705 -1.1179983695730606
0.5049748 -0.03523152280856363 -1.1183575703592787
0.5069747 -0.028331717011541795 -1.118768741785704
0.5089746 -0.021746016077309013 -1.1192493998017834
0.5109745 -0.014256562338397144 -1.119277773648383
0.5129744 -0.007831837912416331 -1.1204142283130205
0.5149743 -0.0004848501349149631 -1.1200548918666082
0.5169742 0.006629364644938199 -1.1195374118063997
0.5189741 0.013592454832773493 -1.1193242367164649
0.520974 0.02099151916921524 -1.11983088215432
0.5229739 0.027680985597755836 -1.1193000687885797
0.5249738 0.03434039060730468 -1.1199567132337405
0.5269737 0.04123647272283054 -1.1194234631127882
0.5289736 0.04891751041705554 -1.119607864328366
0.5309735 0.05559003400043415 -1.1196264736281842
0.5329734 0.06333538341500362 -1.1194532681913067
0.5349733 0.07031536406921693 -1.1194568550014974
0.5369732 0.07750918096808584 -1.1188802096491317
0.5389731 0.08456702344681147 -1.119018523942121
0.540973 0.09205126448868847 -1.1184731090759195
0.5429729 0.09895984331813013 -1.118334317428769
0.5449728 0.10541981146183685 -1.1175515344705158
0.5469727 0.11282614213490455 -1.1164326866755143
0.5489726 0.1202390733756545 -1.1163973559713398
0.5509725 0.1267256212335253 -1.1156590049936423
0.5529724 0.1339883086019404 -1.1140015858790009
0.5549723 0.14139717011611214 -1.112880392527914
0.5569722 0.14850862384106067 -1.1132015600491847
0.5589721 0.155010987391359 -1.1122668518684415
0.560972 0.16212568497794672 -1.1118524444267885
0.5629719 0.1700166508681413 -1.1102713457106357
0.5649718 0.17693501024044928 -1.1097310745912985
0.5669717 0.18347138546266942 -1.1083771610479458
0.5689716 0.1904867313163156 -1.1075252941472977
0.5709715 0.1976555202350411 -1.1068685396860742
0.5729714 0.2049083904370465 -1.1048035546955897
0.5749713 0.21242088142247345 -1.1040226450790562
0.5769712 0.2185675197888648 -1.1036873575771728
0.5789711 0.22650326318218242 -1.102060082153709
0.580971 0.23303568584565962 -1.1005881144255876
0.5829709 0.24057122838853878 -1.0984925469295783
0.5849708 0.24653353619585422 -1.0971782369972685
0.5869707 0.25416143696184545 -1.0953418840121312
0.5889706 0.2605422334587166 -1.093890955212125
0.5909705 0.26887510495082695 -1.0922882887169196
0.5929704 0.2753323835578371 -1.0913461099969848
0.5949703 0.2822051581699698 -1.0891993347481141
0.5969702 0.2896565562651836 -1.087730433328691
0.5989701 0.29673652294341274 -1.0863352164491105
0.60097 0.30371697046395185 -1.0837864811946103
0.6029699 0.3104154294376877 -1.0824549063426079
0.6049698 0.3174174226266766 -1.0809110003050413
0.6069697 0.3247641283192268 -1.0789730070166508
0.6089696 0.33197293733260813 -1.077352833291394
0.6109695 0.33880305743564487 -1.0754699110768904
0.6129694 0.3459187573048088 -1.0732935865122082
0.6149693 0.3531811796580835 -1.0715749281040357
0.6169692 0.3599346971344224 -1.0683946603991472
0.6189691 0.36644439153466013 -1.0658043935214883
0.620969 0.372767605814574 -1.0633988585049077
0.6229689 0.3801591839287597 -1.0610086877230935
0.6249688 0.38669955383647625 -1.0587639386289698
0.6269687 0.39404499808833315 -1.0565524442175331
0.6289686 0.4006471523275927 -1.053607825029907
0.6309685 0.4075513438431963 -1.0516834632109133
0.6329684 0.4145690539140653 -1.0495350621651156
0.6349683 0.42136055225349833 -1.0462342062712355
0.6369682 0.42796899761154694 -1.0443464645585012
0.6389681 0.43547711323786303 -1.0413197245296708
0.640968 0.4418206258335496 -1.038625312901327
0.6429679 0.44897905954849276 -1.0357154783158262
0.6449678 0.4555145692684835 -1.0333859306184299
0.6469677 0.4627759365262975 -1.029781330564726
0.6489676 0.4689803145862569 -1.0267696786473095
0.6509675 0.4761970697338414 -1.024310504135147
0.6529674 0.48247525093289334 -1.0208966939799438
0.6549673 0.48913408955765747 -1.0174938394656132
0.6569672 0.4958656531142462 -1.0143325717718632
0.6589671 0.5021448888616653 -1.0110495046518229
0.660967 0.5083040046731642 -1.0078517757300254
0.6629669 0.5150351913633764 -1.0043155207139016
0.6649668 0.5221103388969693 -1.0015876456578259
0.6669667 0.5281660066222027 -0.9979276707414946
0.6689666 0.5354763281856019 -0.9944110037179557
0.6709665 0.5411236994448246 -0.9909510831040288
0.6729664 0.5486401484082525 -0.9879470648890889
0.6749663 0.555108217068617 -0.9852793711247528
0.6769662 0.5617254475770318 -0.9816082684339931
0.6789661 0.5684859325328091 -0.9775541573489459
0.680966 0.5743712767271771 -0.9742698061606131
0.6829659 0.5815918259498571 -0.9700911354116648
0.6849658 0.5875426683252618 -0.9659989491276568
0.6869657 0.5940309821178372 -0.9626910609011448
0.6889656 0.6007136605553166 -0.9587113671967582
0.6909655 0.6071192965380784 -0.9543929465788238
0.6929654 0.6134646733035737 -0.9506312923062484
0.6949653 0.6192835944904913 -0.947049769679288
0.6969652 0.6254291970387921 -0.942436903175926
0.6989651 0.6315394449039123 -0.9385534246415559
0.700965 0.6377862242869157 -0.9338086831570714
0.7029649 0.6445859278380348 -0.9305870394624353
0.7049648 0.6502795877570589 -0.9258929168821993
0.7069647 0.6568860324694753 -0.9215179925415247
0.7089646 0.6626832887135938 -0.9175818421317902
0.7109645 0.6687797154454765 -0.9130612074931072
0.7129644 0.6749666477175553 -0.9082996736588729
0.7149643 0.6810382786267881 -0.9043046812246539
0.7169642 0.6870539493816638 -0.8997308081634309
0.7189641 0.6928179075291 -0.8952850470097325
0.720964 0.6987012707725739 -0.890693674803853
0.7229639 0.7041833702773813 -0.8862201920914111
0.7249638 0.7107142285755786 -0.8810788090793751
0.7269637 0.7166173332912702 -0.8770856042689902
0.7289636 0.7222929676623366 -0.8722388948492145
0.7309635 0.7287575466498507 -0.8672690657715144
0.7329634 0.7340848471607337 -0.8624413426751733
0.7349633 0.7400117544327999 -0.8576972061175
0.7369632 0.7459654207245584 -0.8524783039631986
0.7389631 0.751270555220233 -0.8482125740809514
0.740963 0.7570085467790406 -0.84273845526082
0.7429629 0.7626631833489199 -0.83787705724067
0.7449628 0.7680033479751975 -0.8331964013899799
0.7469627 0.7733993631531618 -0.8279123702318167
0.7489626 0.7798505239356581 -0.8226997659794035
0.7509625 0.7850624772563833 -0.8180025731588529
0.7529624 0.7907371433503262 -0.8123227657498858
0.7549623 0.7957029861794291 -0.8071479118390283
0.7569622 0.8015013218870023 -0.8013403426518262
0.7589621 0.8070780189921964 -0.7969767435569797
0.760962 0.8128070295212813 -0.7908546924881905
0.7629619 0.8178232172237403 -0.7856956781513178
0.7649618 0.8229601371517221 -0.7801667768552918
0.7669617 0.8281347164024554 -0.7744177895312715
0.7689616 0.8342614344173942 -0.7692045576000189
0.7709615 0.8388299253331406 -0.7638145343446744
0.7729614 0.8441154004070157 -0.757509107536819
0.7749613 0.8491142312895712 -0.7524864055761233
0.7769612 0.8545872763610485 -0.7472465792597156
0.7789611 0.8595194631354732 -0.7410699988114229
0.780961 0.864123031106181 -0.7353014448626288
0.7829609 0.8691182761075134 -0.7289819549054328
0.7849608 0.8740268493019325 -0.7235863852409388
0.7869607 0.8789629073513465 -0.7172641054863913
0.7889606 0.8837187544717324 -0.7107809615962997
0.7909605 0.8884753446750524 -0.7060728114088259
0.7929604 0.8934588761799109 -0.6995291094292088
0.7949603 0.8981815847643941 -0.6936085787988501
0.7969602 0.9023522997570447 -0.6871691468917561
0.7989601 0.907446018519406 -0.681437146196977
0.80096 0.9122769196568103 -0.6755887685169658
