! Created with skrf 1.8.0 (http://scikit-rf.org).
# GHz S RI R 50.0 
!freq ReS11 ImS11
0.001 -0.09019978151760512 -0.14558579385838485
0.0029999 0.009734219689490764 -0.008380531498095102
0.0049998 -0.023070804519077736 -0.03776994423548003
0.0069997 -0.018936525990853534 -0.013314625570592377
0.0089996 -0.02570348295848202 -0.017122805852475373
0.0109995 -0.02102876095899568 -0.010994777953753723
0.0129994 -0.024864753602361983 -0.008763109119523159
0.0149993 -0.019800174222136185 -0.008716963879428887
0.0169992 -0.01860136568435256 -0.007682669051550675
0.0189991 -0.02237186754711884 -0.006574621757101661
0.020999 -0.01931408859590507 -0.004362120964448171
0.0229989 -0.018593434755029573 -0.004350782908628427
0.0249988 -0.015995992833027686 -0.00414884145579649
0.0269987 -0.020522107602436224 -0.0014367027620943548
0.0289986 -0.020172303897281724 -0.0023402985649186754
0.0309985 -0.01716214713840239 -0.002592668126006984
0.0329984 -0.021884246994289328 -0.00044942860216271323
0.0349983 -0.02152030526945465 -0.001003266451288696
0.0369982 -0.0224761571200946 -0.0023336026768212247
0.0389981 -0.020993121894201206 0.0009031793478164389
0.040998 -0.0200194461225294 0.0011800255539208642
0.0429979 -0.022803305310292853 0.0015359245697795514
0.0449978 -0.020898039595471568 0.0013980701589880414
0.0469977 -0.0230538007267026 -0.0011822079442972708
0.0489976 -0.022392104139291057 0.0028927575188541425
0.0509975 -0.022046287634300218 0.00016953532572735477
0.0529974 -0.017793683421850642 0.0026121348679262386
0.0549973 -0.024347395697212892 0.0041257977666148225
0.0569972 -0.021446384736302955 0.002201279759426646
0.0589971 -0.02186345392432026 0.002201491194082699
0.060997 -0.02065987729860248 0.0022702015300977815
0.0629969 -0.02268813395570346 0.0012445611436948303
0.0649968 -0.021477268528964883 0.0025720203035981106
0.0669967 -0.021310053317549794 0.003369932333823604
0.0689966 -0.02129617057613435 0.003743050667720116
0.0709965 -0.023488633709852456 0.00371416953724522
0.0729964 -0.021215437919407755 0.004305670857969136
0.0749963 -0.021261615918681833 0.0039013445745393416
0.0769962 -0.02211782304855145 0.0038145553315263926
0.0789961 -0.022258312168094707 0.004618344742369501
0.080996 -0.022030384472629255 0.0038617540349406626
0.0829959 -0.02136418479710887 0.005219658144412707
0.0849958 -0.023414552082299433 0.004241352598859783
0.0869957 -0.02213370313355453 0.006006238324859664
0.0889956 -0.022934602906200162 0.00467479549570399
0.0909955 -0.022915736521477884 0.005152551870802067
0.0929954 -0.021544381030375058 0.0063503172279155895
0.0949953 -0.023734230590404977 0.006614130184890486
0.0969952 -0.024996319322609706 0.00628296188509951
0.0989951 -0.024943302615094233 0.008686914056932527
0.100995 -0.0241804365381105 0.006291574835100566
0.1029949 -0.022473090037634594 0.008150128961990468
0.1049948 -0.02481928012754452 0.007623582998717214
0.1069947 -0.024814725537197244 0.007960833753833631
0.1089946 -0.02558228225716772 0.007059902303771507
0.1109945 -0.025402140931283148 0.008037558801511042
0.1129944 -0.025227884083517733 0.007800014171884413
0.1149943 -0.02552895519211786 0.00830576224731059
0.1169942 -0.025929375977909574 0.0074426195811631525
0.1189941 -0.02458984264520584 0.008384823426095062
0.120994 -0.024497082514974095 0.008602547100669993
0.1229939 -0.025657870921049274 0.008401369607855058
0.1249938 -0.02469413041641345 0.008687297429011732
0.1269937 -0.026250582743797796 0.008959866241544805
0.1289936 -0.025399160251354972 0.00883231222141782
0.1309935 -0.02506636852464759 0.008350667922498257
0.1329934 -0.025720783317324098 0.008252868833579438
0.1349933 -0.02529562126221484 0.008815898532609886
0.1369932 -0.02698978107946258 0.009472472121359843
0.1389931 -0.024328470579677762 0.009451244644215092
0.140993 -0.02698420484730116 0.009182959611767107
0.1429929 -0.025694854957082125 0.009483144955857534
0.1449928 -0.025949313712660547 0.01016406645784403
0.1469927 -0.025197373670067653 0.010131161250087676
0.1489926 -0.026484246071167148 0.009920515014505638
0.1509925 -0.026236004504087758 0.01139552353523873
0.1529924 -0.025603540974380598 0.011148639652612934
0.1549923 -0.026690952785187624 0.011597313561365357
0.1569922 -0.026820278594446044 0.011538553501754431
0.1589921 -0.027205777282965096 0.012419000312589145
0.160992 -0.02668462653178102 0.01171780892654787
0.1629919 -0.027319578602888264 0.012073188253852351
0.1649918 -0.027660689484585946 0.012640093143382356
0.1669917 -0.027648207703227186 0.01305182210307005
0.1689916 -0.02846620968863707 0.012651052875256717
0.1709915 -0.02862357085066656 0.01368450948282441
0.1729914 -0.028677517925282923 0.0139185898569689
0.1749913 -0.029443168769287 0.014267587984662326
0.1769912 -0.029648129003071958 0.013441031658412851
0.1789911 -0.029992588770568374 0.013747555404949631
0.180991 -0.030057210655869148 0.014523882277680453
0.1829909 -0.029381124812918852 0.014027824187743801
0.1849908 -0.03143145356376568 0.013741859228231857
0.1869907 -0.03168304613381827 0.01485825124059558
0.1889906 -0.031224591623288254 0.013911585128199807
0.1909905 -0.031626145251616354 0.014005094567638187
0.1929904 -0.031208498949997422 0.013860827981631465
0.1949903 -0.031696118792534464 0.014016607672512739
0.1969902 -0.03183264586200678 0.013903785295622273
0.1989901 -0.031832691904193924 0.013235096063936266
0.20099 -0.03228812747383683 0.01417984153199155
0.2029899 -0.032099996299818925 0.014305913143185122
0.2049898 -0.03265392780296934 0.013898439557122626
0.2069897 -0.03235955418117102 0.014207609056373069
0.2089896 -0.03259476087546269 0.014761012359135914
0.2109895 -0.0327602523058255 0.014353716194122854
0.2129894 -0.03282027945841373 0.01471415029694902
0.2149893 -0.032960458646531375 0.014864172843941686
0.2169892 -0.032834120620808926 0.015171086127194545
0.2189891 -0.03300873940024883 0.014908814807124585
0.220989 -0.03308428316658517 0.015577928649601992
0.2229889 -0.03324277616252751 0.015058638178315417
0.2249888 -0.0333667063173486 0.01600974393300561
0.2269887 -0.03373809691728655 0.01595808071970447
0.2289886 -0.033820427017084195 0.016111584545439015
0.2309885 -0.03420425967864884 0.01628846226470637
0.2329884 -0.03420918529635604 0.016409805526934208
0.2349883 -0.03475071147690086 0.017206254818281967
0.2369882 -0.03473169027947612 0.01696743699526871
0.2389881 -0.03517529772038901 0.01709502964485069
0.240988 -0.035271968036555745 0.017945607003864612
0.2429879 -0.035891386310007545 0.01754935374144579
0.2449878 -0.03606404196755454 0.01774374724698191
0.2469877 -0.03640249144978787 0.017670106563489236
0.2489876 -0.03617757197691834 0.01797959216234402
0.2509875 -0.03705844733805599 0.018020131596199786
0.2529874 -0.037313197993849176 0.01844454402991035
0.2549873 -0.03775744861145524 0.018217801853099715
0.2569872 -0.0380266888939616 0.01811703314787288
0.2589871 -0.03821076231928163 0.01819843538019924
0.260987 -0.03828803184540122 0.018271567762270645
0.2629869 -0.03878024494264567 0.01805258741331161
0.2649868 -0.03867042549364619 0.018404020442539727
0.2669867 -0.03875716743415867 0.017766037878244968
0.2689866 -0.039226880889540246 0.018122040531180245
0.2709865 -0.03979532561473932 0.018874863393303534
0.2729864 -0.039878560660093605 0.018252208292606667
0.2749863 -0.039854707057607346 0.017979647787065886
0.2769862 -0.0400566765518952 0.01804921320632242
0.2789861 -0.04039760586405363 0.017992094814165666
0.280986 -0.0401194258020971 0.018636209827644523
0.2829859 -0.04026539841444847 0.018227488841186294
0.2849858 -0.040645281972089206 0.01867073624515128
0.2869857 -0.04069522362634421 0.018794384656474115
0.2889856 -0.04080248922951579 0.018384710235751053
0.2909855 -0.041031138888555904 0.01882258073783996
0.2929854 -0.041031135587473636 0.01879653916565223
0.2949853 -0.041444445386215376 0.019348628636951797
0.2969852 -0.041412509823202354 0.01944066025351569
0.2989851 -0.041963277667075596 0.019539461559126635
0.300985 -0.04232753376770767 0.019478903464369233
0.3029849 -0.04254960745857424 0.019423364927342854
0.3049848 -0.042402625387924955 0.02037587076111133
0.3069847 -0.04314016322329158 0.020404868008330388
0.3089846 -0.04330411737789941 0.019684256646369105
0.3109845 -0.043678674709528076 0.019971649402618575
0.3129844 -0.044187931849153955 0.02057442085497594
0.3149843 -0.04446614727797083 0.020240419206939163
0.3169842 -0.044481024928478996 0.020587640630319516
0.3189841 -0.04551426847714833 0.020352130385727887
0.320984 -0.04580185786095806 0.02032320679685331
0.3229839 -0.0456102459923415 0.020612074438789162
0.3249838 -0.04606220074931823 0.020427364238814742
0.3269837 -0.04619382206845695 0.020726033491420603
0.3289836 -0.04641594363026625 0.020784254838410822
0.3309835 -0.047409321712313206 0.02066263278308593
0.3329834 -0.04736253466410859 0.02035719380947076
0.3349833 -0.04772065055692654 0.02025225080758024
0.3369832 -0.048004355311115424 0.02046602209422768
0.3389831 -0.04789583539756788 0.020725542413269658
0.340983 -0.048079946159840306 0.020702835431085444
0.3429829 -0.048509467239444264 0.020475055712052447
0.3449828 -0.04921696988473882 0.02010310895361941
0.3469827 -0.049096281901754996 0.020207273652044676
0.3489826 -0.0493939133072165 0.020303549183440177
0.3509825 -0.04943736322879599 0.01981711176563941
0.3529824 -0.04964678205267843 0.02009506608187701
0.3549823 -0.04947412904760154 0.020505664065682966
0.3569822 -0.049655523285882686 0.0202740897131665
0.3589821 -0.05030874970163578 0.020244637192608387
0.360982 -0.05087800650322962 0.020206922649979264
0.3629819 -0.05080760160191262 0.020580472556851682
0.3649818 -0.05089754478534149 0.02019156460316545
0.3669817 -0.05118458303893442 0.02032355187580112
0.3689816 -0.05156292310533239 0.02038366041463586
0.3709815 -0.05134187997387529 0.020588917063112815
0.3729814 -0.052062257383005614 0.02055025720028793
0.3749813 -0.0517888803353964 0.020683216880456195
0.3769812 -0.05208481770185003 0.020727442042634252
0.3789811 -0.05240057300183567 0.020678767844184855
0.380981 -0.05315927134213528 0.020939234791948123
0.3829809 -0.05346320622878754 0.020370617614911473
0.3849808 -0.05355321207391844 0.020722360426010913
0.3869807 -0.05404985636716557 0.02085818130671791
0.3889806 -0.05418043553465207 0.02128237683636989
0.3909805 -0.05427804468843293 0.021214593830068466
0.3929804 -0.0551632227692227 0.020800856304533027
0.3949803 -0.05495797019122776 0.021135129356271695
0.3969802 -0.055723716363111284 0.021017874835040327
0.3989801 -0.056211536322953455 0.021123697189024106
0.40098 -0.05604997610134502 0.02068769464199233
0.4029799 -0.05694848319432942 0.020601605000325054
0.4049798 -0.057053562506762974 0.020816695501334397
0.4069797 -0.05738173277264021 0.020518609331398693
0.4089796 -0.057474337037984366 0.020505866407839544
0.4109795 -0.05795818047350239 0.020090982869056355
0.4129794 -0.058216577238540956 0.02027854203225557
0.4149793 -0.05837322852032177 0.020107222503440488
0.4169792 -0.05858634221002728 0.0202628122465822
0.4189791 -0.058746707525393696 0.020281452557718446
0.420979 -0.05900802757503415 0.019872932416615197
0.4229789 -0.059730889233756905 0.020028565343649246
0.4249788 -0.05971177406622428 0.019639164188070095
0.4269787 -0.05984455180897918 0.019540900112690777
0.4289786 -0.05997826157777952 0.01956758044653212
0.4309785 -0.0604935765788453 0.019531555197613088
0.4329784 -0.060458448899934555 0.019093230540552453
0.4349783 -0.060935320795352375 0.019574082186208295
0.4369782 -0.061015857683432775 0.01956010090966005
0.4389781 -0.06124258232456676 0.019276923957793006
0.440978 -0.06168797429727175 0.019423871618681515
0.4429779 -0.06160954289852136 0.019483129789966407
0.4449778 -0.06236367956150773 0.019040237382391037
0.4469777 -0.06232411156491755 0.019191517964577697
0.4489776 -0.062440244814570785 0.01916949247757573
0.4509775 -0.06287765391107915 0.018781390701637386
0.4529774 -0.06313742554137104 0.0186695081770728
0.4549773 -0.06316828801082187 0.018978424532526218
0.4569772 -0.06361242695211586 0.018658790901869452
0.4589771 -0.06411134370054467 0.01866941728360593
0.460977 -0.06423269442447775 0.018790972555186653
0.4629769 -0.06468293687951407 0.018471796854762478
0.4649768 -0.06483888870822385 0.0186503550137658
0.4669767 -0.06505799813049312 0.018153089317539006
0.4689766 -0.06527794066076237 0.018001777190043755
0.4709765 -0.0659187140927102 0.017737860158976878
0.4729764 -0.06614157711058855 0.017652570695806603
0.4749763 -0.066310895044613 0.017506782206153957
0.4769762 -0.06652225816309774 0.017250834562327316
0.4789761 -0.06687144789179049 0.017125704431079962
0.480976 -0.06711242619569557 0.016872808423185108
0.4829759 -0.06695496706735732 0.01692040741952939
0.4849758 -0.06744245465374027 0.01694362960108869
0.4869757 -0.0678121597537524 0.016866691469311863
0.4889756 -0.06782699287457661 0.017101531767242037
0.4909755 -0.06813422176804207 0.016691121520155568
0.4929754 -0.06857857749619914 0.016583726135176093
0.4949753 -0.06836354208365539 0.01644225341769239
0.4969752 -0.06846629492799214 0.01633379948077629
0.4989751 -0.06855448936139015 0.016299135886043644
0.500975 -0.06880089044020299 0.016232247126481254
0.5029749 -0.06910768160976793 0.01628930132272648
0.5049748 -0.06938731229447895 0.016474056804498507
0.5069747 -0.06982808126027809 0.016163156910471297
0.5089746 -0.06994161551674329 0.016334763219304903
0.5109745 -0.07029600168625166 0.016075610076253816
0.5129744 -0.07082045436943753 0.01574506961384907
0.5149743 -0.07114415387080805 0.01575804572911091
0.5169742 -0.07133093008769344 0.01574142582347865
0.5189741 -0.07174476110292832 0.015711731738992166
0.520974 -0.0719205711970732 0.01559980818485654
0.5229739 -0.07236417243655419 0.015651404460488676
0.5249738 -0.07282020453235946 0.015376242098657313
0.5269737 -0.07327604028864847 0.015321472650254363
0.5289736 -0.07340757413253797 0.015339551128025392
0.5309735 -0.07398244835440795 0.014962707391406097
0.5329734 -0.07404938213280582 0.014701298220225333
0.5349733 -0.074589926992169 0.014541583595816612
0.5369732 -0.07497735920368084 0.014264433495809185
0.5389731 -0.07535761366244113 0.013897858002257034
0.540973 -0.07532123795419314 0.013583170848101202
0.5429729 -0.07586620935064743 0.013344588517671879
0.5449728 -0.07610221670098062 0.013067994069712315
0.5469727 -0.07626017835952482 0.012802486641779479
0.5489726 -0.07639163307659533 0.012643093969587276
0.5509725 -0.07662228816985439 0.012556955578840585
0.5529724 -0.07695627088922138 0.012268733849478294
0.5549723 -0.07724175834198778 0.012184256066189093
0.5569722 -0.07739878021694238 0.011747840010229084
0.5589721 -0.07768471913953919 0.011396571004312545
0.560972 -0.07751242417391443 0.0110234744147269
0.5629719 -0.07741307155010835 0.010849126071912976
0.5649718 -0.07745698087444809 0.010765719814344196
0.5669717 -0.07765509124876076 0.010779407138941259
0.5689716 -0.07799942793303519 0.0104417574957513
0.5709715 -0.07813548928893205 0.010172160251452542
0.5729714 -0.0780188081098648 0.010150908891455885
0.5749713 -0.0781269863998254 0.01007445756237738
0.5769712 -0.07852341186949865 0.009962005174519575
0.5789711 -0.07844629689372695 0.009807494317368177
0.580971 -0.07904977568602024 0.009832370520256314
0.5829709 -0.07917177153733901 0.009965258671246348
0.5849708 -0.0796396368925603 0.009928069186934445
0.5869707 -0.07981628687819092 0.009911479475825668
0.5889706 -0.0803606942112576 0.009663191408338278
0.5909705 -0.08016098551399632 0.009400857225066079
0.5929704 -0.0807141136333527 0.00909088713987747
0.5949703 -0.08094057911613234 0.009211814839211425
0.5969702 -0.0811902279797479 0.008811578762347727
0.5989701 -0.08148742741003738 0.00843273939505701
0.60097 -0.08207982594292525 0.00839939536929555
0.6029699 -0.08230847315885814 0.008011965181350653
0.6049698 -0.08270418018822308 0.007527239406676878
0.6069697 -0.08303663184546747 0.007333783298647985
0.6089696 -0.08306066406177134 0.006970502187432941
0.6109695 -0.08346135806987463 0.006685774542206535
0.6129694 -0.08374618583457125 0.006266432130709175
0.6149693 -0.08405325356496413 0.005838513338792699
0.6169692 -0.08426185377197142 0.005617817123043212
0.6189691 -0.08443198288665835 0.005053047817606397
0.620969 -0.08450502731805666 0.0052114533495553825
0.6229689 -0.08482254419249205 0.004776439223868938
0.6249688 -0.08515540965789968 0.0043158368356140606
0.6269687 -0.08510194627322813 0.003959424996619942
0.6289686 -0.08517797477870351 0.003885085262533561
0.6309685 -0.08533557110861907 0.003367398265648941
0.6329684 -0.08539135729925132 0.0030361595434564154
0.6349683 -0.08520611473818944 0.0031986228588372426
0.6369682 -0.0855178462221108 0.0027277537940211607
0.6389681 -0.08531366718282704 0.002420793553094769
0.640968 -0.08533494804637903 0.0023879138064626312
0.6429679 -0.08545901078323623 0.002362554851736559
0.6449678 -0.0858083973543225 0.0023511609099901992
0.6469677 -0.08584907117526704 0.0023363979793959502
0.6489676 -0.08629474033537764 0.0024959700197097687
0.6509675 -0.08597646110999684 0.0023140053665262617
0.6529674 -0.0862023770855289 0.0020307932296114717
0.6549673 -0.08641878468828834 0.00197160691402138
0.6569672 -0.0867410057742518 0.001583374461004268
0.6589671 -0.08736944706621044 0.0017392463294143914
0.660967 -0.08765552999184827 0.001580065081501332
0.6629669 -0.08813468656251228 0.0014493065277202122
0.6649668 -0.08842466036613539 0.0010793017595137067
0.6669667 -0.08888428140252597 0.0007727518624522436
0.6689666 -0.08896613052320634 0.0005584499895799622
0.6709665 -0.08962101619075079 0.00048765758906921947
0.6729664 -0.08959742626609654 0.0001927703964032107
0.6749663 -0.08998074745291275 -0.0003342484734993184
0.6769662 -0.09024079210860224 -0.0010417721399782129
0.6789661 -0.09041703370493838 -0.0011732782731505853
0.680966 -0.0907560269158456 -0.001524406574992164
0.6829659 -0.09082610250427324 -0.002139981411112782
0.6849658 -0.09106336267500603 -0.0023095136762586177
0.6869657 -0.09129318689156146 -0.0027892074834433775
0.6889656 -0.09150763642966062 -0.003330151100627232
0.6909655 -0.09160731599058446 -0.0037475826282380373
0.6929654 -0.0917666694651367 -0.004383622941545935
0.6949653 -0.09204945125198287 -0.0047241128699644225
0.6969652 -0.0920801870256114 -0.005248948471318404
0.6989651 -0.09218897068050008 -0.005665594889562343
0.700965 -0.09214484931731143 -0.0059510447933286345
0.7029649 -0.09213136447019864 -0.006455351184801214
0.7049648 -0.0921602282028376 -0.006798974493815599
0.7069647 -0.09196339430410781 -0.007174898878387015
0.7089646 -0.0918377415135492 -0.007477176117632912
0.7109645 -0.09176360100848818 -0.007637120832689352
0.7129644 -0.09132575713993782 -0.007774577476238109
0.7149643 -0.0917322307903436 -0.008076396635975466
0.7169642 -0.09133019526092867 -0.008250860254705568
0.7189641 -0.09156822831676628 -0.008347171436760063
0.720964 -0.09182033925007754 -0.008359532417951124
0.7229639 -0.09207651374346015 -0.008609842198767571
0.7249638 -0.09182785441887725 -0.009014029726195322
0.7269637 -0.09179767339054308 -0.008902098020849614
0.7289636 -0.09195597010944614 -0.009136113370131666
0.7309635 -0.09209961278713563 -0.009181077341085888
0.7329634 -0.09221236222999306 -0.009274862776452581
0.7349633 -0.09271838191460934 -0.00946448383847075
0.7369632 -0.09290847553033357 -0.009431569848776217
0.7389631 -0.09341266164769936 -0.00972287809385734
0.740963 -0.09340655044570001 -0.010104495080678538
0.7429629 -0.09416050483924751 -0.010306958849432168
0.7449628 -0.09413183004458323 -0.010537611664876136
0.7469627 -0.09473982367493944 -0.011013761417990885
0.7489626 -0.0948022554233634 -0.011577749667091457
0.7509625 -0.09499651185878749 -0.011947606692011895
0.7529624 -0.09535448611188134 -0.012313724146853233
0.7549623 -0.09561239812888324 -0.012708228255938672
0.7569622 -0.09571690843624339 -0.013399388063914892
0.7589621 -0.09604257278904459 -0.014070072681391578
0.760962 -0.09599748180527581 -0.014261497203204895
0.7629619 -0.09615524686585164 -0.014826858142073067
