! Created with skrf 1.8.0 (http://scikit-rf.org).
# GHz S RI R 50.0 
!freq ReS11 ImS11
0.001 -0.14314751094488795 0.02524857811284651
0.0029999 -0.06752082887433064 -0.043596796087361035
0.0049998 -0.017565837808544094 -0.00650232899374226
0.0069997 -0.021074323663975457 -0.0017521780549588977
0.0089996 -0.022097254335956336 0.0010323219400984259
0.0109995 -0.017527067594774147 0.0027959356712976106
0.0129994 -0.012603711314295385 0.002617243839559867
0.0149993 -0.016379967860983398 0.001333741501832411
0.0169992 -0.020510810409744052 0.0011175801440863286
0.0189991 -0.01854715589612126 -0.002838494460751979
0.020999 -0.01936049043939762 0.000881519650327929
0.0229989 -0.018308314805574676 0.003289661880273579
0.0249988 -0.019675070499771786 0.002935945462942761
0.0269987 -0.021260429863980215 0.004212779291968369
0.0289986 -0.01769025262665001 0.001852433121802345
0.0309985 -0.019944417614186343 0.004010219056239111
0.0329984 -0.014151086242533898 0.002325246752888217
0.0349983 -0.018035016609285675 0.0024014954331760844
0.0369982 -0.02008964738383504 8.577219040336714e-05
0.0389981 -0.017798457025352293 0.004236448894016234
0.040998 -0.019260980522855246 0.001569291520820804
0.0429979 -0.022305355919046966 0.004205419020069973
0.0449978 -0.018129102690485344 0.0028164674622379758
0.0469977 -0.020799584493612862 0.002440987484697476
0.0489976 -0.018642332190770487 0.004539749629510205
0.0509975 -0.019572228979652283 0.003298317681196138
0.0529974 -0.019810597274857736 0.0029648892400666424
0.0549973 -0.01789800861339444 0.00456240481717646
0.0569972 -0.01850908870974673 0.0034585200407622326
0.0589971 -0.018788991631173178 0.0034874060906787937
0.060997 -0.018804593249019345 0.004298834995309902
0.0629969 -0.01988687465567662 0.0039037110828951415
0.0649968 -0.019634523090019607 0.004418712531124333
0.0669967 -0.018864679725334295 0.0056943379620397715
0.0689966 -0.018795766367240153 0.005133093929196138
0.0709965 -0.02093562013650011 0.005305052378233777
0.0729964 -0.019536210272099567 0.005652257373143024
0.0749963 -0.019659378338581238 0.005179285414914974
0.0769962 -0.02055989178700473 0.005426618873509017
0.0789961 -0.020721890631737412 0.005925516903202055
0.080996 -0.02024622523728132 0.005707641788640038
0.0829959 -0.020009258160885862 0.006924473801152669
0.0849958 -0.02096055843690353 0.0056163687020156245
0.0869957 -0.020754345572802313 0.0069468608415267676
0.0889956 -0.021910471705123613 0.006238393761462114
0.0909955 -0.02121836401833105 0.006859105265929942
0.0929954 -0.020681755440457885 0.007896044410684738
0.0949953 -0.022237305080587907 0.006878604482156226
0.0969952 -0.021532009426870127 0.007011095282314125
0.0989951 -0.021932332820691375 0.008476364360593874
0.100995 -0.021482097355896682 0.006795707334140214
0.1029949 -0.022219211731510532 0.007959905899129188
0.1049948 -0.022326582972012905 0.00828582390450328
0.1069947 -0.022505223958558144 0.008370442399413255
0.1089946 -0.02279653688843149 0.007877471369833584
0.1109945 -0.02232735155773066 0.007937937083388281
0.1129944 -0.023204785302917127 0.00823435948335683
0.1149943 -0.023193084934862433 0.008389316849218738
0.1169942 -0.023830818274324338 0.007593715915095131
0.1189941 -0.022547722866033622 0.008821899445810244
0.120994 -0.022982781886321323 0.008870572908591983
0.1229939 -0.023582758209433088 0.008942635158489344
0.1249938 -0.023384534525172487 0.008771658862248337
0.1269937 -0.023933415770123236 0.009125166854396634
0.1289936 -0.023410662670356908 0.009447948588562152
0.1309935 -0.022769505292765443 0.009312263681818443
0.1329934 -0.02425082840567892 0.008751576445162113
0.1349933 -0.023722042576375925 0.009105837533086587
0.1369932 -0.024616724651402428 0.009423138035479475
0.1389931 -0.023155727895682893 0.00974161882607685
0.140993 -0.024280439171070388 0.009449232802050199
0.1429929 -0.0237450305216467 0.009353302454964038
0.1449928 -0.02417605776180874 0.010449577168127638
0.1469927 -0.024650585534465353 0.010063661425148931
0.1489926 -0.025765194025918498 0.0107047202353385
0.1509925 -0.024480943139411883 0.011339988246235576
0.1529924 -0.02408151125149196 0.01148431579592762
0.1549923 -0.024989483193650366 0.011294241961619541
0.1569922 -0.025377109794759503 0.011149077745351474
0.1589921 -0.02556054097744563 0.01197618796114517
0.160992 -0.02471753127368135 0.011733170600873085
0.1629919 -0.02587937246679042 0.012783794096879582
0.1649918 -0.025854820807977137 0.012637525176055604
0.1669917 -0.025720820801056393 0.01260287657622981
0.1689916 -0.026745875663506367 0.012066827244982193
0.1709915 -0.026675897164697537 0.013192841235892625
0.1729914 -0.02687939716817284 0.013465767876777626
0.1749913 -0.02751598390978148 0.013143930190247639
0.1769912 -0.027279540370673983 0.012803728752874565
0.1789911 -0.027697434857260814 0.013066850612431895
0.180991 -0.028410020989970815 0.013250602975006874
0.1829909 -0.027619689756645083 0.013452726109685193
0.1849908 -0.029334678634806217 0.012961355716564392
0.1869907 -0.0285646509036195 0.013952355558610383
0.1889906 -0.028680411714650876 0.013109765959701472
0.1909905 -0.029086630072834258 0.013562859759983422
0.1929904 -0.029085863832305853 0.013216224229455328
0.1949903 -0.029314126902595068 0.013315819477701964
0.1969902 -0.02954780538836748 0.013323057248866326
0.1989901 -0.029348724051394735 0.01268337526027057
0.20099 -0.029181775316888047 0.013635303446060398
0.2029899 -0.03034409699164697 0.013455978126400094
0.2049898 -0.029664311866820087 0.013809370168115412
0.2069897 -0.029871085169683412 0.013433361246979844
0.2089896 -0.030506278818978938 0.01371982910294181
0.2109895 -0.030820337897382484 0.013677838632828456
0.2129894 -0.0304870282902654 0.013823610088254563
0.2149893 -0.03048377585473097 0.013610847151545395
0.2169892 -0.03073194462257936 0.014573585353702427
0.2189891 -0.030886445448335596 0.013952437899420796
0.220989 -0.03077334644215738 0.014170906470548826
0.2229889 -0.03100019211770315 0.014431378665513188
0.2249888 -0.03157713916716883 0.014952179941167522
0.2269887 -0.03153897089479838 0.015003750510199807
0.2289886 -0.03134631368099428 0.0149797059466976
0.2309885 -0.03206500964211378 0.015225729361570906
0.2329884 -0.03197714120799168 0.015348796073631783
0.2349883 -0.032509159805034424 0.015989033450656002
0.2369882 -0.03279424866684829 0.016023223571948922
0.2389881 -0.0329436142239609 0.015748079619999952
0.240988 -0.033023817491910926 0.016479270530903846
0.2429879 -0.03344042628038547 0.01644635826271459
0.2449878 -0.03352714476450944 0.01663213769532482
0.2469877 -0.03381356027395875 0.016276436972990888
0.2489876 -0.03406034967024546 0.016602811175533833
0.2509875 -0.03463531809715278 0.01635954183202354
0.2529874 -0.03517112637394675 0.016746499581292786
0.2549873 -0.035239399637884763 0.016770916431726582
0.2569872 -0.035467892230522796 0.016642889607357728
0.2589871 -0.035350049909109935 0.016583873609402
0.260987 -0.03573012787112655 0.016781409517641913
0.2629869 -0.036437122015151716 0.016856229926981183
0.2649868 -0.03585782100687375 0.016916537675385285
0.2669867 -0.0363471097201514 0.01639634651097544
0.2689866 -0.03654853224395131 0.016387831811244386
0.2709865 -0.03758880667868119 0.017300442653384325
0.2729864 -0.03756284777421196 0.017079845456029547
0.2749863 -0.03745864141061833 0.01676498692018135
0.2769862 -0.03761855376490423 0.016708191231729914
0.2789861 -0.03805820705409807 0.016729335326019473
0.280986 -0.03814451781128672 0.017077108394812822
0.2829859 -0.038247429200163885 0.016662610584786432
0.2849858 -0.03829421554038274 0.01706860108391524
0.2869857 -0.03875236760968697 0.017258493629965566
0.2889856 -0.03862244126539332 0.016825095013557785
0.2909855 -0.03902274518558022 0.016763593338260337
0.2929854 -0.039156589086323385 0.017420087679824243
0.2949853 -0.03935763201356255 0.017795577177738477
0.2969852 -0.03959277596365783 0.017649109137143834
0.2989851 -0.039865950723426025 0.017813908750492356
0.300985 -0.040195500227433865 0.01772900732972698
0.3029849 -0.04052133450572558 0.017543640956924803
0.3049848 -0.04086446929703759 0.01823513254659974
0.3069847 -0.04096932379869869 0.018442875031272912
0.3089846 -0.040849628122113596 0.01813129883717367
0.3109845 -0.04160315680190975 0.018179867966680294
0.3129844 -0.04165760696393771 0.0182278033800087
0.3149843 -0.04212981031159672 0.018467413850202216
0.3169842 -0.04199254949656888 0.018579098851050926
0.3189841 -0.0427256053776885 0.0183515669737359
0.320984 -0.04284825607624784 0.0182422186042126
0.3229839 -0.04370528247656284 0.01810340895714791
0.3249838 -0.04355654206327768 0.018298637491742042
0.3269837 -0.0436739518248357 0.018256185936206204
0.3289836 -0.044494335619043104 0.018610122231197693
0.3309835 -0.04463303101128875 0.018573541192364432
0.3329834 -0.04496265361209641 0.018013391818541703
0.3349833 -0.045200356350023646 0.018336724094387753
0.3369832 -0.04558589783266618 0.018163916089036267
0.3389831 -0.04534672224941146 0.018411196749477263
0.340983 -0.04581145180171463 0.017877026078401453
0.3429829 -0.0458417936047134 0.018032749649807417
0.3449828 -0.04633472048566567 0.01776726298212172
0.3469827 -0.04653702764577134 0.017712341281566447
0.3489826 -0.04680482270728743 0.017817331281550188
0.3509825 -0.046797049490017034 0.01756473762716896
0.3529824 -0.04699119913943394 0.01792531922201672
0.3549823 -0.04708010160537822 0.017914693932328803
0.3569822 -0.047338865213952475 0.017774811944664126
0.3589821 -0.04786048005135285 0.017542606906694753
0.360982 -0.04840363896889972 0.017609333257806645
0.3629819 -0.04816519376192166 0.017981933078997613
0.3649818 -0.04817257247209145 0.01753031171708707
0.3669817 -0.04830421699939528 0.017755418730968857
0.3689816 -0.04888479980652301 0.01769547456307252
0.3709815 -0.048535182455918216 0.01802875779507008
0.3729814 -0.04876402662511629 0.017697298719093944
0.3749813 -0.04944160899882607 0.018027696067325943
0.3769812 -0.04943212962464809 0.01791952852500414
0.3789811 -0.04976812869572154 0.018150855169051742
0.380981 -0.05019470185971829 0.017864148194318866
0.3829809 -0.05049858670708322 0.017718081630542015
0.3849808 -0.05082865181299042 0.01793622744533962
0.3869807 -0.05083902561078545 0.01820015416467241
0.3889806 -0.05078134306471674 0.018096285654849605
0.3909805 -0.051449793342415936 0.01803883529511023
0.3929804 -0.05203221492976143 0.01787112201274662
0.3949803 -0.0520984897646674 0.01786948813472755
0.3969802 -0.05269713386658062 0.01805863980005015
0.3989801 -0.05307401420634637 0.017938630802926105
0.40098 -0.05320982934324818 0.01793281117429242
0.4029799 -0.0538725610798175 0.017649548791263944
0.4049798 -0.05389875245291687 0.017401148047537757
0.4069797 -0.05424056593504651 0.01736687647506448
0.4089796 -0.054355570404163105 0.017361064097946598
0.4109795 -0.054659539165747464 0.01691792878837232
0.4129794 -0.0551386216149955 0.017228480165360986
0.4149793 -0.05525425870599245 0.016893165222372348
0.4169792 -0.05542935156440961 0.017288459630645892
0.4189791 -0.05551546264309489 0.01694818414640227
0.420979 -0.05606045590611068 0.016846485826125572
0.4229789 -0.056582764023769605 0.01647402473710641
0.4249788 -0.056650094168693765 0.016552282870356178
0.4269787 -0.056978887185814835 0.016448384551048786
0.4289786 -0.057016572465048744 0.016238627039797785
0.4309785 -0.0573098320108581 0.015882977554875714
0.4329784 -0.05737025555264687 0.015982585678148118
0.4349783 -0.05771750816496725 0.016020213021852137
0.4369782 -0.05796460393941462 0.015743264572253376
0.4389781 -0.058263217871666766 0.015967951553999233
0.440978 -0.05860068706738637 0.015837261255769716
0.4429779 -0.0585771595120753 0.015778527993106348
0.4449778 -0.0588595094258716 0.015424240861638839
0.4469777 -0.05944170122898151 0.015400805975042994
0.4489776 -0.059146055681196505 0.015578567533933805
0.4509775 -0.05993198916104504 0.014877407466823981
0.4529774 -0.06030484680596744 0.015090663201311302
0.4549773 -0.059788847281419144 0.015138745186493798
0.4569772 -0.060612217615922066 0.015147807211735923
0.4589771 -0.06073540258068584 0.014866580782206072
0.460977 -0.06079546254111085 0.014858462118855859
0.4629769 -0.061447205212620995 0.014613423556779432
0.4649768 -0.06158206101406983 0.01463874251209429
0.4669767 -0.06187358265923574 0.014350340228195278
0.4689766 -0.062400242952324846 0.013996619206485008
0.4709765 -0.062639384774471 0.013973251431881276
0.4729764 -0.06280500720362764 0.013569121611708368
0.4749763 -0.06312332175987813 0.01353195430087534
0.4769762 -0.06325194856768687 0.013234956132620098
0.4789761 -0.063838548344375 0.013371426469170979
0.480976 -0.06376238542458273 0.01279359655426247
0.4829759 -0.06392035602143212 0.012825290135967747
0.4849758 -0.06394043068209412 0.012866999010164495
0.4869757 -0.06437425831310817 0.012613367114346588
0.4889756 -0.06462429989664858 0.012834548780550261
0.4909755 -0.06473739720966827 0.012279667739396379
0.4929754 -0.06506354010285317 0.012367605212273848
0.4949753 -0.06497053067902452 0.012141635534311895
0.4969752 -0.06514838515564633 0.012061680834302483
0.4989751 -0.06538997484843496 0.012006811853452457
0.500975 -0.06547290467899344 0.011946541859517913
0.5029749 -0.06589501386839108 0.011819780904372114
0.5049748 -0.0659183989192515 0.011809918469598796
0.5069747 -0.06607545456379164 0.011717349234527417
0.5089746 -0.06661324688471171 0.011528623710757996
0.5109745 -0.06675448233053743 0.011492027748199057
0.5129744 -0.06725453166733442 0.011184648410312893
0.5149743 -0.0676847861736097 0.010742217932113572
0.5169742 -0.06775123136095397 0.010815027400582215
0.5189741 -0.06801141336764709 0.010931650648666785
0.520974 -0.06810253223645163 0.01067226716541687
0.5229739 -0.06872653228457691 0.01058059407688106
0.5249738 -0.0688556042240652 0.010421034640693917
0.5269737 -0.06922178171756345 0.010315381665558128
0.5289736 -0.06971692065589001 0.01001068958988632
0.5309735 -0.07004501373818504 0.009881860353001301
0.5329734 -0.0699966378097316 0.009706929846553188
0.5349733 -0.07046918124842574 0.009570584174000963
0.5369732 -0.07113274260000754 0.009097793646808502
0.5389731 -0.07119534014566245 0.008884897519402923
0.540973 -0.07158412802549008 0.00844697753739505
0.5429729 -0.07172032046476257 0.008096621387655763
0.5449728 -0.07202532488280096 0.007967034933376096
0.5469727 -0.07223947499430716 0.007701590081220698
0.5489726 -0.07226348708917722 0.007294564803834197
0.5509725 -0.07250877884437526 0.007377819057335869
0.5529724 -0.07268975413386827 0.007121315845374794
0.5549723 -0.07300094627716593 0.006763467788171218
0.5569722 -0.07330195062669857 0.006269733386675004
0.5589721 -0.07355211016486209 0.006034046806380429
0.560972 -0.07320243439528877 0.00559666155962036
0.5629719 -0.07349721635218856 0.005454738904432439
0.5649718 -0.07321601028321559 0.00536574367892538
0.5669717 -0.07353405974202978 0.005234061125170407
0.5689716 -0.07382705423662124 0.005057266132856168
0.5709715 -0.07381154288253372 0.004742882275535404
0.5729714 -0.07383503484688286 0.004470264178323767
0.5749713 -0.0737371440910741 0.004357635929420921
0.5769712 -0.07408357716223571 0.004509725761108328
0.5789711 -0.07444990192705991 0.004035925305806563
0.580971 -0.07470900661956134 0.004053632346569282
0.5829709 -0.07509935748693097 0.0040319798741734955
0.5849708 -0.07516627500455163 0.0040808034588335
0.5869707 -0.07533000215642766 0.004113113403465735
0.5889706 -0.0756513195795772 0.0038071486231825366
0.5909705 -0.07567468093661597 0.0033502389571229557
0.5929704 -0.07616364585536041 0.003251126463902111
0.5949703 -0.07644724949624795 0.0028854117890530773
0.5969702 -0.0767612180537087 0.0026617404616836315
0.5989701 -0.07710865922035257 0.00224675483857157
0.60097 -0.07751164731582938 0.002434180109881244
0.6029699 -0.07779141142937293 0.0019489039679742443
0.6049698 -0.0780054691787046 0.0014155870523295672
0.6069697 -0.0785654750828378 0.0012402736975926018
0.6089696 -0.07864353557742113 0.0008742607418658066
0.6109695 -0.07891062441566937 0.000553399056906434
0.6129694 -0.07912555013801306 0.00016747962719811799
0.6149693 -0.0791620918951432 -0.0001438319132022886
0.6169692 -0.07963033037824717 -0.0005957629164125289
0.6189691 -0.07964134138819393 -0.0009343757816600504
0.620969 -0.07991569431569012 -0.00100331151417999
0.6229689 -0.08008141964542748 -0.0012774469498473134
0.6249688 -0.08029540815506944 -0.0018016004145469944
0.6269687 -0.0803223734882042 -0.0023653257229029542
0.6289686 -0.08047063392570722 -0.002383034820176655
0.6309685 -0.08064727920131193 -0.0029618468269579784
0.6329684 -0.08070121809522884 -0.0032687081802941706
0.6349683 -0.08042761229458531 -0.0032490864410914255
0.6369682 -0.08072789244326282 -0.003774051926902458
0.6389681 -0.08035324295230972 -0.0041231131357144304
0.640968 -0.08065716953154405 -0.004032696691737614
0.6429679 -0.08055471774409778 -0.004058595265022037
0.6449678 -0.0807709764968363 -0.004302356415331145
0.6469677 -0.08098671117352282 -0.004500611975068847
0.6489676 -0.0812645644344283 -0.004305942655672267
0.6509675 -0.08134750964093904 -0.0044948340665286815
0.6529674 -0.08146900961047064 -0.004928360236146734
0.6549673 -0.08146253902975008 -0.00502593522389342
0.6569672 -0.081774713236798 -0.005444230796461648
0.6589671 -0.08227981262562407 -0.0056082802201315105
0.660967 -0.08251208820859315 -0.0055160859206670465
0.6629669 -0.08295314956472037 -0.005635928623601738
0.6649668 -0.08307529687572691 -0.00606479271190595
0.6669667 -0.08358870078166117 -0.006279029927118991
0.6689666 -0.08408664848322456 -0.006548659099512452
0.6709665 -0.08419552883009912 -0.006648475387417294
0.6729664 -0.0845289054197241 -0.007295384750502475
0.6749663 -0.08440960828807437 -0.007658181316438417
0.6769662 -0.08453817334851424 -0.0081524630376641
0.6789661 -0.08514819155011452 -0.008283850404767264
0.680966 -0.08512636981781424 -0.009239745742545963
0.6829659 -0.08531287591038159 -0.009540152070817688
0.6849658 -0.08549241771822716 -0.009714454988829606
0.6869657 -0.08571319519846686 -0.010233550630041728
0.6889656 -0.0858941204658998 -0.010630604758505503
0.6909655 -0.08613504395688838 -0.011185517513177132
0.6929654 -0.08623722586376144 -0.011823044066310316
0.6949653 -0.08660795633986876 -0.012185701543595356
0.6969652 -0.0864423142989364 -0.012790125522836052
0.6989651 -0.08640842171677413 -0.01327540856727117
0.700965 -0.08647113293869146 -0.013533918930015602
0.7029649 -0.08643622274292773 -0.014049445594480837
0.7049648 -0.08643241093685362 -0.014531739557750264
0.7069647 -0.08609414647418324 -0.014757064093528213
0.7089646 -0.08615144120521286 -0.015117626590069783
0.7109645 -0.08610963179639304 -0.015355350100878958
0.7129644 -0.08563328678301689 -0.015611086852118414
0.7149643 -0.08575196326151655 -0.015893623781481455
0.7169642 -0.08573756357313564 -0.016032795667196176
0.7189641 -0.08584493579581687 -0.016318691092769472
0.720964 -0.08580404887643495 -0.016430919502277826
0.7229639 -0.08611724318983774 -0.01670649175564121
0.7249638 -0.08578920156500211 -0.01705181278480255
0.7269637 -0.08580048423327069 -0.017081989815500343
0.7289636 -0.08618238131110184 -0.01718496985856497
0.7309635 -0.08606620469354707 -0.01730633138013835
0.7329634 -0.08626817671880778 -0.017538734754824457
0.7349633 -0.08644350972591319 -0.017772378249375945
0.7369632 -0.08669946107569335 -0.017904014536304542
0.7389631 -0.087094023920609 -0.017819166545956108
0.740963 -0.0873502699918979 -0.018439797138249895
0.7429629 -0.08767129960706628 -0.018715868073909923
0.7449628 -0.0876392204717861 -0.018715630104701744
0.7469627 -0.0883857748255064 -0.019289668875732156
0.7489626 -0.08852713511851622 -0.01971377878864449
0.7509625 -0.08862491705571643 -0.02017396846735778
0.7529624 -0.08902352359312954 -0.020627330559698422
0.7549623 -0.08917520653130366 -0.021040182728639938
0.7569622 -0.08944341700898253 -0.02167675486158154
0.7589621 -0.08960028253675617 -0.02240988150881409
0.760962 -0.08963273041656016 -0.02264829418128204
