! Created with skrf 1.8.0 (http://scikit-rf.org).
# GHz S RI R 50.0 
!freq ReS11 ImS11
0.001 1.0073979484686222 0.008046659552772964
0.0029999 1.005962898850215 0.01909148609083456
0.0049998 1.0081509917240992 0.024440495505432664
0.0069997 1.0105363952508595 0.03080701943455804
0.0089996 1.0120930670967532 0.0373879998115285
0.0109995 1.012706886062042 0.04390396312358433
0.0129994 1.0122846153926126 0.0502140003296425
0.0149993 1.0123229076233147 0.057735115172782896
0.0169992 1.0122492528679237 0.0650433239578998
0.0189991 1.011180710436188 0.07192680852217433
0.020999 1.0112119483798174 0.07937013158365763
0.0229989 1.011278599654974 0.08615100965355398
0.0249988 1.0109012921566916 0.09364352414118488
0.0269987 1.0105705466990806 0.1007963006783989
0.0289986 1.0091293348808372 0.1074030351200391
0.0309985 1.0090803622817517 0.11531215566319397
0.0329984 1.0080707438178733 0.12067355177267629
0.0349983 1.0070759815704853 0.12900269840338144
0.0369982 1.0052206938494108 0.1364917125669454
0.0389981 1.0058398345149497 0.14361793343843723
0.040998 1.0038756778678777 0.15040905477503932
0.0429979 1.0038633151738525 0.15885761912729846
0.0449978 1.002230649339595 0.164470814293569
0.0469977 1.0005891867343282 0.17241167993065196
0.0489976 1.0006151186005148 0.17877360783000731
0.0509975 0.9988837286524146 0.18629123757860952
0.0529974 0.997581897898752 0.19324496601649077
0.0549973 0.9965522506587641 0.1998406572014883
0.0569972 0.9948418505048306 0.20704177342639724
0.0589971 0.9933213056409604 0.21438439851621127
0.060997 0.9922639338144986 0.2215317790362175
0.0629969 0.9903863442672647 0.2292310903571728
0.0649968 0.9889215330366955 0.23586281524268377
0.0669967 0.9878395210333245 0.24250999194422268
0.0689966 0.9858584826921827 0.24951663218044484
0.0709965 0.9836786436413181 0.2576895952722013
0.0729964 0.9817690100323376 0.2639200366482147
0.0749963 0.9799730783541936 0.2709247178080239
0.0769962 0.9781261995704987 0.27814790331196354
0.0789961 0.9762247583436007 0.28512821646869996
0.080996 0.9740025364263113 0.29180058367054673
0.0829959 0.9729478872272923 0.29863259045272905
0.0849958 0.9696349847384231 0.3057019423493897
0.0869957 0.9681474938441438 0.31261460776425626
0.0889956 0.9654015670197575 0.3200788698844647
0.0909955 0.9634198308896491 0.3264730922402563
0.0929954 0.9620444671649827 0.3331238198223938
0.0949953 0.9584173515281925 0.3405175884343748
0.0969952 0.9560045270810851 0.34705775309255726
0.0989951 0.9548465174057674 0.3539380906154326
0.100995 0.9512725736992548 0.3598596669926283
0.1029949 0.9490575611577581 0.3671121766914846
0.1049948 0.9466928439109504 0.37399865548952876
0.1069947 0.9440014906745886 0.38051019158183047
0.1089946 0.9407965685875899 0.3869624482357663
0.1109945 0.9383165559862288 0.39362772952572345
0.1129944 0.9357701515412761 0.40083576562424167
0.1149943 0.9328825241517991 0.40736329804909505
0.1169942 0.9293511314160617 0.41389280407387324
0.1189941 0.9281233142220576 0.4200749776621212
0.120994 0.9246900546828731 0.4266017566866538
0.1229939 0.9217043645059948 0.4338346226015878
0.1249938 0.9184156573176937 0.4400641322337907
0.1269937 0.9152731790868446 0.44677902427646016
0.1289936 0.9126780139878687 0.4533420942586314
0.1309935 0.909954677153929 0.45882847990814535
0.1329934 0.9053117330275309 0.46646150107625717
0.1349933 0.9026848322460894 0.47228527162426887
0.1369932 0.8989068825683747 0.47965765456897075
0.1389931 0.8966325728935132 0.4849394198179531
0.140993 0.8920354433770507 0.49193807236874315
0.1429929 0.8883627846572241 0.49757216812769484
0.1449928 0.8858002806765676 0.5045508558566121
0.1469927 0.8814532333502854 0.5108474691770647
0.1489926 0.8776763563762686 0.5184356806879393
0.1509925 0.8750490610206557 0.5235959217761115
0.1529924 0.87183969180221 0.5289478107090784
0.1549923 0.8671618775512445 0.5357240409090215
0.1569922 0.8626516622150748 0.5414301658023323
0.1589921 0.859501863225826 0.5480515278467387
0.160992 0.8556229861669687 0.5531378241937773
0.1629919 0.8524948202967279 0.5606840264838353
0.1649918 0.8486465792227138 0.5659118732618607
0.1669917 0.8447449618648788 0.5714704850809584
0.1689916 0.8392960254800813 0.5774929053571864
0.1709915 0.8366511690642634 0.5839082281328585
0.1729914 0.8324473996041903 0.5898648734175654
0.1749913 0.8276394576019901 0.5959051154625982
0.1769912 0.823504764261743 0.6005531566714792
0.1789911 0.8192923217706143 0.6069219043976638
0.180991 0.8147360760181184 0.613279033311959
0.1829909 0.8115791154623563 0.6180482481805701
0.1849908 0.8056418376487657 0.624755507133268
0.1869907 0.8029271965702388 0.6304951652168843
0.1889906 0.7983371126790915 0.6352382851719326
0.1909905 0.7941400085925105 0.64144624827766
0.1929904 0.7893283213902883 0.6469719104323192
0.1949903 0.7851396200727627 0.6524589859246608
0.1969902 0.7804263634665297 0.6584382923731047
0.1989901 0.7754496565337144 0.6626836428292117
0.20099 0.771609897794282 0.6689092851347456
0.2029899 0.7657803967098271 0.6753067730706833
0.2049898 0.7623536667514978 0.6801045146690227
0.2069897 0.7569886355583212 0.6852553768556549
0.2089896 0.7523140162772459 0.6911947433934044
0.2109895 0.7469337915665498 0.6967788989087729
0.2129894 0.7425260717149847 0.7019923264994206
0.2149893 0.7370347088638971 0.7063509111425378
0.2169892 0.7325116843385862 0.7126427390477676
0.2189891 0.726962584587311 0.7169336493149336
0.220989 0.7222843464903462 0.7220262637249908
0.2229889 0.7176081080939373 0.7273024473482012
0.2249888 0.7121745817198659 0.7333059436204471
0.2269887 0.7072137050981758 0.7378273220250796
0.2289886 0.7023847529624826 0.7420614886698869
0.2309885 0.6966255415568574 0.7471706514178926
0.2329884 0.6916899105097488 0.7518096818290664
0.2349883 0.6865188431182675 0.7575662885738712
0.2369882 0.6808598337467725 0.7622449328413224
0.2389881 0.6756070166443253 0.7664596760691021
0.240988 0.6710493760621816 0.7717430570213808
0.2429879 0.6656838306230688 0.776250339957198
0.2449878 0.660317317750835 0.7809833956847855
0.2469877 0.6546005209326099 0.7849426638131574
0.2489876 0.6494367901044262 0.7900494814875615
0.2509875 0.6432221553845766 0.794223555232002
0.2529874 0.6380368369673891 0.7992617961044077
0.2549873 0.6328538251389425 0.8036666409868699
0.2569872 0.6272606153769369 0.8077950781543316
0.2589871 0.6219658938499483 0.8121604206425703
0.260987 0.616542930590376 0.8166743190164482
0.2629869 0.6100384517558625 0.8214714070682975
0.2649868 0.6057143767508402 0.825076427082983
0.2669867 0.5992888147518102 0.8288413433760675
0.2689866 0.5934647861427105 0.8331892211442573
0.2709865 0.5871278675986381 0.8395261830119014
0.2729864 0.5818172177819166 0.8432525279488211
0.2749863 0.5759369040489486 0.8461775030780236
0.2769862 0.5700819530968436 0.8501555835822682
0.2789861 0.5639398811796767 0.8546128297609722
0.280986 0.558148800433553 0.8588842751845506
0.2829859 0.5518968512066663 0.8620529182209113
0.2849858 0.5465106547435732 0.8667409447671046
0.2869857 0.5401703731383949 0.8706780426493578
0.2889856 0.5342089071815356 0.8736663006453568
0.2909855 0.5275411643112587 0.8772851122090116
0.2929854 0.5221169275366805 0.8819026107370815
0.2949853 0.5160752822761803 0.8858128266233624
0.2969852 0.510097982583259 0.888849230649737
0.2989851 0.5036383667461175 0.8924900570189098
0.300985 0.498035210311181 0.8962353096317719
0.3029849 0.49149544633162134 0.8988056059310657
0.3049848 0.4850377785920731 0.9033346667273577
0.3069847 0.47962130063882846 0.9069949457106556
0.3089846 0.47366450812849914 0.9090721804182823
0.3109845 0.46696386330199624 0.9128331731417696
0.3129844 0.46076765171405276 0.9156565842457621
0.3149843 0.4547765268587687 0.9195374894708841
0.3169842 0.4492970005856876 0.9225721274790314
0.3189841 0.44181140129441826 0.9255256095496304
0.320984 0.43583174117403045 0.9286691190671501
0.3229839 0.4283235128985931 0.9320747580838364
0.3249838 0.4227350440285286 0.9349849726628381
0.3269837 0.41676649185340126 0.9377825597232918
0.3289836 0.4100052388594726 0.941489714624632
0.3309835 0.4038838909719994 0.9446813866303296
0.3329834 0.39660862469100444 0.9462102008314854
0.3349833 0.39042610985841586 0.9495795993329741
0.3369832 0.3838568042127777 0.9524639826707079
0.3389831 0.37833725300520415 0.9553414115337396
0.340983 0.37119519498224796 0.9574065749254502
0.3429829 0.36481862220400585 0.9604532870697532
0.3449828 0.3579937794220258 0.9625760522752271
0.3469827 0.3511999025776388 0.9651764709982678
0.3489826 0.3449193395417274 0.9677208776822452
0.3509825 0.33830296956075856 0.9697861284156317
0.3529824 0.3319933334376739 0.9729704704304013
0.3549823 0.3254533521109329 0.9754051552944621
0.3569822 0.31852311032781455 0.9773093658995203
0.3589821 0.3113158534317332 0.9796373630153333
0.360982 0.30407347155721387 0.9817461106695872
0.3629819 0.29840532691056265 0.9849032251029328
0.3649818 0.29196235145082244 0.9860913319451443
0.3669817 0.285395483612766 0.9886621804347746
0.3689816 0.2777412056183015 0.9905101520125527
0.3709815 0.272557153642228 0.9926479353853147
0.3729814 0.26511237051038034 0.9939686647278202
0.3749813 0.2580100160315306 0.9963594762898613
0.3769812 0.25172290897979815 0.997975960632084
0.3789811 0.2445129592156908 0.9999152703017742
0.380981 0.23762024693537437 1.000972676132346
0.3829809 0.23094403372603106 1.0024640487167487
0.3849808 0.22398753168839805 1.0044918335440987
0.3869807 0.21749175634556606 1.0063028393259248
0.3889806 0.211648434733387 1.0078123582783816
0.3909805 0.20417028434251872 1.0094150073061503
0.3929804 0.1967151058262249 1.0104969424244015
0.3949803 0.1902861160471479 1.0120320952486104
0.3969802 0.1830564809832285 1.014010178447743
0.3989801 0.1765151468895152 1.0151121522646596
0.40098 0.16970206714605113 1.0165788318997497
0.4029799 0.1626192345671536 1.0174866800545097
0.4049798 0.1558756192903309 1.0185812257230789
0.4069797 0.14900215528239552 1.0198547908372897
0.4089796 0.14238383509391753 1.0209638145216142
0.4109795 0.13520866315576685 1.0215403090299418
0.4129794 0.12789549919743814 1.0235218262119898
0.4149793 0.1214286321806457 1.0241100473967442
0.4169792 0.11434932236014417 1.0259914718899932
0.4189791 0.10803758512100478 1.0265881228802172
0.420979 0.10075419881669657 1.0270422186119834
0.4229789 0.0935285075302841 1.0272015641575172
0.4249788 0.08656289779090723 1.028217365084689
0.4269787 0.07979218005690694 1.0290076045476755
0.4289786 0.07282538928261523 1.0292789964269795
0.4309785 0.06618765978943182 1.0293504500439985
0.4329784 0.05904563551515958 1.0304414349681277
0.4349783 0.05213417303299599 1.0308738170593814
0.4369782 0.04579691333930662 1.0316147847580577
0.4389781 0.03831812859737834 1.0325750644004756
0.440978 0.031112313997045504 1.0324681967311988
0.4429779 0.024832967119097965 1.0328461490443372
0.4449778 0.01786348477076325 1.0327413848202611
0.4469777 0.010306156818016728 1.032950884804955
0.4489776 0.004665163163502489 1.033634361737533
0.4509775 -0.0031939785335542356 1.0326416482512222
0.4529774 -0.010571740915477905 1.0331106571130326
0.4549773 -0.015718384077913677 1.0334308916983865
0.4569772 -0.024065978910117615 1.0334469592074318
0.4589771 -0.030393678013967862 1.0334473346164765
0.460977 -0.03723032740106239 1.033990424792059
0.4629769 -0.04480232404802071 1.0333022250410326
0.4649768 -0.051276234960615674 1.03351143957359
0.4669767 -0.058228946844068936 1.0332746395056724
0.4689766 -0.06533426114597743 1.0324576637532814
0.4709765 -0.07221169563935768 1.0326892127032876
0.4729764 -0.07899315799770001 1.0315284205381072
0.4749763 -0.08613703470000235 1.0312334881633736
0.4769762 -0.09271542517688411 1.0308650089142664
0.4789761 -0.10040167571385983 1.0305591343508131
0.480976 -0.1066199023165608 1.0296165943577396
0.4829759 -0.11339363759630058 1.0293859574481552
0.4849758 -0.11985843913418415 1.028816772573067
0.4869757 -0.12702593072935134 1.0280161263726466
0.4889756 -0.13433920504163752 1.0277349439713326
0.4909755 -0.14104283916170968 1.026434331244135
0.4929754 -0.14798624943064215 1.0258204567086378
0.4949753 -0.15452968691170718 1.0248416837442724
0.4969752 -0.16119884385404773 1.0241152013542958
0.4989751 -0.16836430729028856 1.0232474258676865
0.500975 -0.17497199296567015 1.022181760911134
0.5029749 -0.1818662442795436 1.0210953427211202
0.5049748 -0.18844789014982455 1.0200505800532178
0.5069747 -0.19469487421708914 1.0188659013906436
0.5089746 -0.20195074579884412 1.0171642372496899
0.5109745 -0.20828612184372478 1.0164304933626196
0.5129744 -0.21534005780953674 1.014769294927287
0.5149743 -0.22209625122139828 1.012808395957747
0.5169742 -0.22838754259288502 1.011940512987247
0.5189741 -0.2350140805841625 1.010921887210873
0.520974 -0.24195236776327675 1.0094383254750756
0.5229739 -0.24849658476200537 1.0081453367869084
0.5249738 -0.25518335156261795 1.0064695574761096
0.5269737 -0.2617518432751678 1.0051395801153409
0.5289736 -0.2682900674461015 1.0032983068663324
0.5309735 -0.2756111286203998 1.0016257628029017
0.5329734 -0.28148873253532963 1.0005529078066697
0.5349733 -0.2883068138611859 0.9988062595961525
0.5369732 -0.295353612669644 0.9966458358350014
0.5389731 -0.30132023327309504 0.99487901018257
0.540973 -0.30839183825417216 0.9926692641440761
0.5429729 -0.3148099808355017 0.9907019902647889
0.5449728 -0.32157049701162593 0.9889307071744625
0.5469727 -0.3278963141627241 0.9869890141217577
0.5489726 -0.3342859602318094 0.9850999181511203
0.5509725 -0.34099944241507907 0.9834063215292638
0.5529724 -0.3473417677114554 0.981254303084036
0.5549723 -0.35380436617677563 0.979048134575192
0.5569722 -0.36046452271648394 0.9764102858086151
0.5589721 -0.36709482154254575 0.9740881152868811
0.560972 -0.3730092166190059 0.9721962632546172
0.5629719 -0.3798393542579348 0.9696620790976221
0.5649718 -0.38591717802303493 0.96735211106002
0.5669717 -0.3923783381882381 0.964772580014505
0.5689716 -0.3991471040030043 0.9624523226698996
0.5709715 -0.4050606720552341 0.959754099264747
0.5729714 -0.41122697715254725 0.9575403094505059
0.5749713 -0.4175686348052424 0.9552145735792854
0.5769712 -0.42420615910995974 0.95269205016677
0.5789711 -0.43012873248498573 0.9492801919784526
0.580971 -0.4362247297751475 0.9467089511888842
0.5829709 -0.44268303483148713 0.9438223454519818
0.5849708 -0.44887083888433843 0.9415579511044185
0.5869707 -0.45482921750457067 0.939049270147262
0.5889706 -0.46111053439124255 0.9359033539604901
0.5909705 -0.4667192978858007 0.9331845653348697
0.5929704 -0.473404127301191 0.9301692752610313
0.5949703 -0.4790751657915956 0.9273043825295118
0.5969702 -0.4850456667825884 0.9244151271054153
0.5989701 -0.491576089043652 0.9210799519249209
0.60097 -0.49771643145394695 0.9184872217865966
0.6029699 -0.5041802297124311 0.9151962131686237
0.6049698 -0.5093275756766187 0.9120208577878888
0.6069697 -0.5157194671906987 0.9088969424513827
0.6089696 -0.5215298950757452 0.905454855490564
0.6109695 -0.5274904067812045 0.9023658628875577
0.6129694 -0.5333686717134871 0.8994484710945552
0.6149693 -0.5388865923457354 0.8957644756393531
0.6169692 -0.5448923524741954 0.8919919975300024
0.6189691 -0.5508917726509528 0.8888552465726656
0.620969 -0.5567958558118629 0.8857356526306823
0.6229689 -0.5628723086756733 0.8823504255509985
0.6249688 -0.5686563582106731 0.8785815761560667
0.6269687 -0.5740278014686668 0.8749974116782947
0.6289686 -0.5797999484727674 0.8714894456225039
0.6309685 -0.5856865265839017 0.8677550555610908
0.6329684 -0.591208908368829 0.8644202611648577
0.6349683 -0.5971177952474249 0.8604681433498023
0.6369682 -0.6025815482189808 0.856852151978941
0.6389681 -0.6077591724405191 0.8534078809702531
0.640968 -0.6138985120146472 0.8490201287321069
0.6429679 -0.6194450237083553 0.8455845895160526
0.6449678 -0.6245752571618545 0.8416850878659261
0.6469677 -0.6302442464415854 0.837756436264047
0.6489676 -0.6357116707041688 0.8338867854357985
0.6509675 -0.6409387466849727 0.8297560742370194
0.6529674 -0.6465493506730736 0.825719732592427
0.6549673 -0.6516207348234243 0.8218447039721896
0.6569672 -0.6570817279751665 0.8180583583262462
0.6589671 -0.6623020141351563 0.813571928408582
0.660967 -0.6677015447883959 0.8099185242566511
0.6629669 -0.6733763276752932 0.8054609196832514
0.6649668 -0.6780102388826384 0.8014725774434397
0.6669667 -0.6838514149657563 0.7972850149945354
0.6689666 -0.6886605500690239 0.792782965506951
0.6709665 -0.6939235597374978 0.7891178517256692
0.6729664 -0.6988771694246156 0.7843601413080901
0.6749663 -0.7038531664921792 0.7801812373333914
0.6769662 -0.7089933184259468 0.7757707035493014
0.6789661 -0.7144728360644729 0.771221399826967
0.680966 -0.7189681988450489 0.7668778272479629
0.6829659 -0.723976322668534 0.7624701739009889
0.6849658 -0.729230562662704 0.758061894048546
0.6869657 -0.7340379073505847 0.7533402273658338
0.6889656 -0.7391492717056791 0.7489798645118928
0.6909655 -0.7437031235981144 0.7444089267299796
0.6929654 -0.7487843857041918 0.7395986495420499
0.6949653 -0.7536405857092191 0.7349452947719839
0.6969652 -0.7583516505633272 0.7304842699387097
0.6989651 -0.7630360616604668 0.7256275053670721
0.700965 -0.7680898818910574 0.721045919099833
0.7029649 -0.7726205671418764 0.7163885239120016
0.7049648 -0.7770789008780646 0.7114675045666675
0.7069647 -0.7819830467697699 0.7067732283964121
0.7089646 -0.7865020988266493 0.7017136928746154
0.7109645 -0.7909847857147501 0.6967231304897975
0.7129644 -0.7956074043303832 0.6921454552945906
0.7149643 -0.7999997584409723 0.6871862467804156
0.7169642 -0.8045573824272197 0.6820564044037585
0.7189641 -0.8090488988335133 0.6771448080241714
0.720964 -0.8133518722056774 0.6723360010192467
0.7229639 -0.8178019654358643 0.6673169584053797
0.7249638 -0.8218724322504571 0.6622036606907583
0.7269637 -0.8263353242422042 0.6569209347742686
0.7289636 -0.8307474941313899 0.6521166164852337
0.7309635 -0.8348182059773436 0.6466605258324758
0.7329634 -0.8389949941446979 0.6415593685697724
0.7349633 -0.8430106369289305 0.6366040047915846
0.7369632 -0.8473539316698585 0.6311326505823398
0.7389631 -0.8515368302283224 0.6261765289818517
0.740963 -0.8556055444849738 0.6209681342572484
0.7429629 -0.8595823910646763 0.61530670121482
0.7449628 -0.8635414702721462 0.6103211462746507
0.7469627 -0.8673568361108221 0.6047787648422186
0.7489626 -0.8712819455467236 0.5993549373761449
0.7509625 -0.8754906955781768 0.5940720328347378
0.7529624 -0.8789294601358155 0.5885855761476392
0.7549623 -0.8828332780857563 0.5831537541395366
0.7569622 -0.8868519539054758 0.5777583889135354
0.7589621 -0.8907002010105491 0.5724716742674603
0.760962 -0.8941779697650597 0.5670051543078718
0.7629619 -0.898136917428497 0.5611378029704774
0.7649618 -0.9015849604565774 0.5557092056168579
0.7669617 -0.9050747609540672 0.5503493934384664
0.7689616 -0.9088349712903214 0.544848206860352
0.7709615 -0.9126666276197636 0.5391566238342785
0.7729614 -0.9159979418768508 0.5333485114282338
0.7749613 -0.919431221426185 0.5278650145745553
0.7769612 -0.9231933841302021 0.5221464684747644
0.7789611 -0.9262730564785716 0.5163903265882465
0.780961 -0.9298791436254634 0.5108462470876914
0.7829609 -0.9331504389450515 0.505065272490133
0.7849608 -0.9364579070624919 0.4994850662646505
0.7869607 -0.9396662897649745 0.4935193312467292
0.7889606 -0.9429851618879406 0.4877489460049775
0.7909605 -0.9462982370812598 0.4820005219531139
0.7929604 -0.949356306266391 0.4763227656108146
0.7949603 -0.9525432176324101 0.4703793322966751
0.7969602 -0.9556476786401228 0.46461600158199584
0.7989601 -0.9586048028726828 0.45857718192677804
0.80096 -0.9615787559804349 0.4528085571115178
0.8029599 -0.9645809047057846 0.4468657186956097
0.8049598 -0.9675693036830919 0.44099278965501176
0.8069597 -0.9704888107158398 0.43512052429892906
0.8089596 -0.9735705968391298 0.4290463793166553
0.8109595 -0.9766104949424004 0.4234444751685207
0.8129594 -0.9789213136541204 0.41710339806101876
0.8149593 -0.9819050021393263 0.4112160754482311
0.8169592 -0.9844234667760992 0.40494742296039443
0.8189591 -0.9874266732038053 0.39918275217833776
