! Created with skrf 1.8.0 (http://scikit-rf.org).
# GHz S RI R 50.0 
!freq ReS11 ImS11
0.001 1.0152434769277023 0.003616976816251005
0.0029999 1.0147802495447056 0.014730715367981095
0.0049998 1.0142880402770467 0.023933807026585055
0.0069997 1.017451449704255 0.02810304881627257
0.0089996 1.0178690733663867 0.03691379542369891
0.0109995 1.0182225375612082 0.0451051726904385
0.0129994 1.0183785409564183 0.05123053908873199
0.0149993 1.017569025126491 0.058347148772917676
0.0169992 1.0174379091454981 0.06513790507850348
0.0189991 1.0179245719715089 0.07295272139316407
0.020999 1.0167493948912474 0.08044004454588072
0.0229989 1.016751955857375 0.08696401234262174
0.0249988 1.0159554018323578 0.09435015550072919
0.0269987 1.0157742347172638 0.10254854470813746
0.0289986 1.014329399352974 0.10974085057217023
0.0309985 1.0136080615507876 0.11706722044091651
0.0329984 1.0134022520109636 0.12526852877039263
0.0349983 1.0121904812773006 0.13211021314485147
0.0369982 1.0104724821733957 0.13970067626545732
0.0389981 1.0104873569192467 0.1468875646347454
0.040998 1.009912501268331 0.15392578900791787
0.0429979 1.008848310502368 0.1614110947365102
0.0449978 1.0069962910784296 0.16839887472519
0.0469977 1.0051962609180154 0.17651186395289264
0.0489976 1.005660520157002 0.18355342837740407
0.0509975 1.0038614958857028 0.1905559867052954
0.0529974 1.0009122977953284 0.19776301741641575
0.0549973 1.0003947972145286 0.20509907935918437
0.0569972 0.999793100414037 0.211986854440955
0.0589971 0.9976881181471227 0.21982174634124935
0.060997 0.9964327332135571 0.2265669065501375
0.0629969 0.9944683331384458 0.23453136020974696
0.0649968 0.992747972077764 0.24116791449018712
0.0669967 0.9919709550340073 0.2480085988367444
0.0689966 0.989827794836887 0.255680113288017
0.0709965 0.987509135638369 0.263628601501926
0.0729964 0.9856379287119736 0.2698982621902808
0.0749963 0.9839522386508004 0.2769938495698128
0.0769962 0.9818202243575691 0.2845621883332906
0.0789961 0.9801138794358386 0.2916435187180242
0.080996 0.9771629973644523 0.298736516271015
0.0829959 0.9762510759101808 0.3052879501399101
0.0849958 0.9729241306135776 0.31265082122133087
0.0869957 0.9714337678398273 0.31958544118567767
0.0889956 0.9685933866972297 0.3271875617376345
0.0909955 0.9656864135762642 0.3332603269651605
0.0929954 0.9652870781119055 0.34021584532639976
0.0949953 0.9623352628994795 0.3487657377998634
0.0969952 0.9583263517848271 0.35593175088831486
0.0989951 0.9575278010567781 0.36286719133043827
0.100995 0.9541041314011947 0.3683833329690465
0.1029949 0.9525349242333173 0.37474888882899227
0.1049948 0.9489389637697168 0.38241156998563686
0.1069947 0.9460537679648151 0.38888260923688805
0.1089946 0.9425852323917606 0.3963690677942087
0.1109945 0.9406143171087282 0.4034927714985183
0.1129944 0.9376461261599568 0.4097312018149486
0.1149943 0.9344831868377428 0.41688861696020996
0.1169942 0.9313653276120383 0.42378975022685933
0.1189941 0.9295802345998259 0.429970138504572
0.120994 0.9259218613762765 0.4357993128948402
0.1229939 0.9225815112362241 0.44389981767019293
0.1249938 0.9198537132860051 0.4499493316495357
0.1269937 0.9159860038925324 0.45769507544994636
0.1289936 0.9123904627786357 0.4636327219434484
0.1309935 0.9099942180612984 0.4693411900144613
0.1329934 0.9063430465552929 0.4765433739289554
0.1349933 0.9030721743286949 0.48290434759269546
0.1369932 0.8991794235154481 0.4895803293794389
0.1389931 0.8965136810789931 0.4957159713872875
0.140993 0.8912915193964861 0.5041413569931867
0.1429929 0.8886095433866426 0.5090580948499904
0.1449928 0.8849899856736436 0.5155942691386932
0.1469927 0.8812223900960268 0.5218095154838317
0.1489926 0.8768221862368802 0.5284877669976261
0.1509925 0.8743420596349685 0.5348378457980733
0.1529924 0.8699614052044053 0.5405152015066413
0.1549923 0.8663726828696798 0.5474455568593305
0.1569922 0.8616971061704155 0.5526495046899094
0.1589921 0.858140460433287 0.559363801236595
0.160992 0.8543136094269771 0.5646778087707625
0.1629919 0.851143828826033 0.5718033852697519
0.1649918 0.8466346089192688 0.577971243718295
0.1669917 0.8423786721803799 0.5837034251606442
0.1689916 0.837555811400988 0.5896329598328145
0.1709915 0.8343926284970536 0.5961009445622837
0.1729914 0.8301643273998566 0.6021974291923926
0.1749913 0.8254422479638022 0.608294531249659
0.1769912 0.8207430384067187 0.6137495769508331
0.1789911 0.8162612338202543 0.6193946147729676
0.180991 0.8122431000935508 0.6261438062478591
0.1829909 0.8084699830265765 0.6303462699495099
0.1849908 0.8023305280812445 0.6374337824174101
0.1869907 0.7987704630769064 0.643307756260345
0.1889906 0.7940020044547977 0.6484097389633875
0.1909905 0.7893892998039664 0.6543492974185915
0.1929904 0.7847789055059015 0.659429590062445
0.1949903 0.7798806924657877 0.6648981981206419
0.1969902 0.7757167850010176 0.6713765437380228
0.1989901 0.770559553855824 0.6753714431635298
0.20099 0.7651201912783059 0.6824188989541239
0.2029899 0.760999799875229 0.6878366698880548
0.2049898 0.7560053807830021 0.6928225686606277
0.2069897 0.7513880943265139 0.6985146047879607
0.2089896 0.7455404795995504 0.7045966527218468
0.2109895 0.7410152044357289 0.7094188800216877
0.2129894 0.7358794447296214 0.715012628750799
0.2149893 0.7313108190010649 0.7198317542557695
0.2169892 0.7259991960267114 0.7255943220594357
0.2189891 0.7205594131829648 0.7299852728425642
0.220989 0.7158446333549825 0.7349031314857751
0.2229889 0.7109819012694184 0.7398585216913041
0.2249888 0.7050555890462381 0.7460984297370373
0.2269887 0.7000991717384422 0.7510912296052384
0.2289886 0.6948345670765645 0.7554456267892701
0.2309885 0.6897915864503963 0.7599673462193419
0.2329884 0.683810150741526 0.7652357962102897
0.2349883 0.6790690267160369 0.7701989865301213
0.2369882 0.6730958562383405 0.7751776818453202
0.2389881 0.6675989080280758 0.7795772471163981
0.240988 0.6627764910912765 0.7851666654839344
0.2429879 0.6571946936719271 0.7895056187304679
0.2449878 0.650889238174013 0.7938299689260623
0.2469877 0.6457253616552023 0.7984816489777578
0.2489876 0.6402507636679549 0.8028584726977568
0.2509875 0.6343362803582763 0.8075792240120949
0.2529874 0.6287345505741557 0.8122015447077272
0.2549873 0.6227685468895346 0.8167582197412936
0.2569872 0.6171083150435824 0.8207537459120847
0.2589871 0.6114043423533617 0.8259461770363975
0.260987 0.6055541769347936 0.8293235533633566
0.2629869 0.5993451723808381 0.8339017033521983
0.2649868 0.5946644353203627 0.8382963858973935
0.2669867 0.5879761523838036 0.8416285071154875
0.2689866 0.5821308859209722 0.8463823569260415
0.2709865 0.5760680093903359 0.8519176272784621
0.2729864 0.5702771505985508 0.8557685628903183
0.2749863 0.5642175819756886 0.8581736193511396
0.2769862 0.5579146339243268 0.8623524105927047
0.2789861 0.5520376408203916 0.867115782331312
0.280986 0.5462214014779679 0.871203937864228
0.2829859 0.5402999228951735 0.8735362359086044
0.2849858 0.5342234500363262 0.8781561746998588
0.2869857 0.5280888922464442 0.8829268177123551
0.2889856 0.5218372476547464 0.8854215112851679
0.2909855 0.515407768443814 0.8893429877446306
0.2929854 0.509156513645217 0.893134665349348
0.2949853 0.5031412172460392 0.8973527261899215
0.2969852 0.49719918457370343 0.9000377382871582
0.2989851 0.49062727864790223 0.9039060599563671
0.300985 0.48443095536580766 0.9075950457742483
0.3029849 0.4781874454618249 0.9106509849588755
0.3049848 0.471886459258188 0.9149205863569952
0.3069847 0.46529978993020277 0.9185308080561396
0.3089846 0.4593373829658254 0.9198591965494289
0.3109845 0.45315491290848664 0.9234071050334404
0.3129844 0.4459561956536903 0.9275945434939808
0.3149843 0.43987466538778325 0.929890735575393
0.3169842 0.43457543181728936 0.9334512551565003
0.3189841 0.4261093086991276 0.9363714322802063
0.320984 0.4201924345999857 0.9396898890457867
0.3229839 0.4144954378103818 0.9429388002545481
0.3249838 0.4067643518357107 0.9455739809702004
0.3269837 0.4013823854913762 0.9483003192340823
0.3289836 0.39532221827984504 0.9512673340835414
0.3309835 0.38715146181574617 0.9548592773323055
0.3329834 0.38034426638433366 0.956095863190873
0.3349833 0.3739446470224089 0.9593309715497559
0.3369832 0.36785777405667563 0.9621327517447548
0.3389831 0.36184579597906535 0.9649629452641083
0.340983 0.3552803361275923 0.9669951779310539
0.3429829 0.34771573310140136 0.9700489762329684
0.3449828 0.3412025775038916 0.9718833415698349
0.3469827 0.3346497011208665 0.974183085626052
0.3489826 0.3280608147316686 0.976557931474039
0.3509825 0.3209885078446596 0.9786619588289474
0.3529824 0.3148713881406671 0.9816555117958674
0.3549823 0.30836243174099176 0.9839006440761031
0.3569822 0.3016509589789415 0.9859076856589079
0.3589821 0.29435433089459345 0.9882187967493917
0.360982 0.2873357689211885 0.9900135076599389
0.3629819 0.28081717343748724 0.9928835486562831
0.3649818 0.27459796347589976 0.9945171731938633
0.3669817 0.26708851523485627 0.9960195244976224
0.3689816 0.2599675258322931 0.9988445099719063
0.3709815 0.2544628088661348 0.9999617278292885
0.3729814 0.24646834670591333 1.0017147174748657
0.3749813 0.2398044410960175 1.0035033336453654
0.3769812 0.23339280887715186 1.0057336999079678
0.3789811 0.22617154137773204 1.0070420691027049
0.380981 0.21898365627633265 1.008060491252471
0.3829809 0.21208653153748933 1.009052155999622
0.3849808 0.20516658173496605 1.0112109527992783
0.3869807 0.19842548676194932 1.0127358843997154
0.3889806 0.19218773454973415 1.0148249658537345
0.3909805 0.18540753356491996 1.0159970120220232
0.3929804 0.1775766336525657 1.016926038133639
0.3949803 0.1713339493642408 1.018547229421914
0.3969802 0.16402448982280643 1.0194524758386512
0.3989801 0.1568287600350965 1.020878479565489
0.40098 0.1505174610061348 1.0217403970990584
0.4029799 0.14316748942294372 1.0225050643444478
0.4049798 0.13617177466096209 1.0243803163833434
0.4069797 0.12951772041701876 1.0249229339852874
0.4089796 0.12308283735407696 1.0256413084579328
0.4109795 0.11570532172893568 1.026467652258813
0.4129794 0.10846086831187232 1.028038491658432
0.4149793 0.10193748176461105 1.0281597537788882
0.4169792 0.09456109774839734 1.0299972081023085
0.4189791 0.088326979735531 1.0303911440665323
0.420979 0.08114265716288446 1.0312400948446723
0.4229789 0.07367632755587206 1.0317053169698502
0.4249788 0.06683399226030974 1.0324320854685893
0.4269787 0.06022202175742937 1.032556700356896
0.4289786 0.053277801715876566 1.0331604266592473
0.4309785 0.04636065270246945 1.0332469462923322
0.4329784 0.03920622939745455 1.0337231464471006
0.4349783 0.03177658507585356 1.0346664199990114
0.4369782 0.025494701190740487 1.0351371655301904
0.4389781 0.018526075081769233 1.0353127147747196
0.440978 0.01116462210488886 1.03539017696658
0.4429779 0.004800515211181286 1.0360078333735796
0.4449778 -0.002885837591588669 1.0351875246184952
0.4469777 -0.009427146839341802 1.0357344399756214
0.4489776 -0.015995828866090245 1.0356998597032567
0.4509775 -0.0234955038736809 1.0350306469305885
0.4529774 -0.03040633351878514 1.0349540879544576
0.4549773 -0.03668217483733016 1.0353200499205388
0.4569772 -0.044530509055724574 1.0347596759849695
0.4589771 -0.05134608126968928 1.0349882343973296
0.460977 -0.05814544986757037 1.0350702206335287
0.4629769 -0.06529034116308012 1.0351173751712603
0.4649768 -0.07169460755448177 1.034739556198545
0.4669767 -0.07891900938434701 1.0341033599359737
0.4689766 -0.08526925636207455 1.0331671356454113
0.4709765 -0.09257123439696668 1.0330462212821823
0.4729764 -0.09956140102256596 1.0320183638722895
0.4749763 -0.10658908332130367 1.031214778310878
0.4769762 -0.11318613707956035 1.0309768948610365
0.4789761 -0.12005584523487824 1.0300890580215813
0.480976 -0.12688230836280862 1.029407618684093
0.4829759 -0.13326628831356807 1.0290638314225309
0.4849758 -0.14063663546366217 1.0280657536074185
0.4869757 -0.14738065324499092 1.0271509796698355
0.4889756 -0.1545032119266992 1.0268960259990108
0.4909755 -0.16138548950859358 1.0257675051420196
0.4929754 -0.16833859082941305 1.0244528430005624
0.4949753 -0.174787201938288 1.0234764937688894
0.4969752 -0.18117108391198766 1.0226112442263091
0.4989751 -0.18842967005086692 1.021910485361741
0.500975 -0.19489206300465473 1.0204863520323433
0.5029749 -0.20198849652690384 1.0195229101664798
0.5049748 -0.20842469610471817 1.0182680799395452
0.5069747 -0.21486523326311052 1.017012136347347
0.5089746 -0.2219507989919623 1.0154613519720128
0.5109745 -0.2283434153394667 1.0143805686482417
0.5129744 -0.2351425661858802 1.012146039198426
0.5149743 -0.24191521272249747 1.0108454445295496
0.5169742 -0.24834770844699627 1.0097040016708159
0.5189741 -0.2549732581772722 1.0081651243004817
0.520974 -0.2619145863455756 1.0065370183529385
0.5229739 -0.268386071620624 1.0052620807163968
0.5249738 -0.27525860458286655 1.0031599791840946
0.5269737 -0.28203718171615805 1.001732419195058
0.5289736 -0.28803695711581917 0.9999194435407845
0.5309735 -0.295300959892419 0.9979190308480387
0.5329734 -0.3012627722275228 0.9965798660474626
0.5349733 -0.3077917729219817 0.9946352205848676
0.5369732 -0.314478660056792 0.9926182840750734
0.5389731 -0.32035101518504605 0.9903724651564239
0.540973 -0.32725581271751536 0.9883740825493476
0.5429729 -0.33391420760772306 0.9861596881389002
0.5449728 -0.34053465810726713 0.9843323842526178
0.5469727 -0.34668608640989307 0.9823412738024182
0.5489726 -0.35296690656388763 0.980263110558083
0.5509725 -0.359711197864804 0.9782823766919923
0.5529724 -0.3657671979714122 0.9760836984264286
0.5549723 -0.3723297747854628 0.9740680834456372
0.5569722 -0.3787509170608131 0.9711548367677629
0.5589721 -0.3851972607941793 0.9689235114065575
0.560972 -0.391409437943028 0.9667439571880393
0.5629719 -0.39768774647602945 0.9641855791112197
0.5649718 -0.40389359013556136 0.9616791667227842
0.5669717 -0.41022514978781177 0.9593094698710048
0.5689716 -0.4171513308745361 0.9568519791051953
0.5709715 -0.4230338290888799 0.9537162960264473
0.5729714 -0.42881004460577643 0.9519526608189055
0.5749713 -0.4350599148736052 0.9492702456478215
0.5769712 -0.44181890568770427 0.9458143972881594
0.5789711 -0.4473965109139768 0.9433408272796859
0.580971 -0.45351838615298967 0.9404835006697007
0.5829709 -0.459926130280917 0.9375078605622043
0.5849708 -0.46605008268943265 0.9350466223695331
0.5869707 -0.47175278518709446 0.932133141151376
0.5889706 -0.47851073083525747 0.9290430747502358
0.5909705 -0.48342446171337344 0.9264918711078249
0.5929704 -0.49016680421670644 0.9231252018869694
0.5949703 -0.49601920337088695 0.920417575557876
0.5969702 -0.5015203889404194 0.9174146120703466
0.5989701 -0.507917508332551 0.9139175308700914
0.60097 -0.5136518470095405 0.9112771355866549
0.6029699 -0.5201732237946374 0.9077165676970205
0.6049698 -0.5255312906013538 0.9044510190162764
0.6069697 -0.531412561762318 0.9015567364840494
0.6089696 -0.5370464361714544 0.8978037520193649
0.6109695 -0.5428631623381783 0.8946476211934912
0.6129694 -0.548709924899099 0.891392084023171
0.6149693 -0.5540920165252933 0.8876536100546348
0.6169692 -0.5599924154139343 0.8839621882858455
0.6189691 -0.5660260711417305 0.8808931074580226
0.620969 -0.5715584239471275 0.877816476955679
0.6229689 -0.5775498437759902 0.8742066251680422
0.6249688 -0.5831568539306073 0.870483258591914
0.6269687 -0.5885516797860709 0.8668321685797653
0.6289686 -0.5940262774381591 0.8631949321089043
0.6309685 -0.5998064953660912 0.8594886635605902
0.6329684 -0.6052720900271039 0.8560592184761142
0.6349683 -0.6110150443435062 0.8522411251845524
0.6369682 -0.6164225139497583 0.8484634437755842
0.6389681 -0.6215826121041674 0.8449935732230851
0.640968 -0.6274937543255048 0.8406034065731488
0.6429679 -0.632734595522749 0.8371698153098107
0.6449678 -0.6382577026485564 0.8330667856534669
0.6469677 -0.6435264712118147 0.8293155210288257
0.6489676 -0.6487685103109265 0.825280428876423
0.6509675 -0.6538265482932513 0.8213835386686491
0.6529674 -0.6593823971235082 0.817159672265346
0.6549673 -0.6643874670875834 0.8132453297559863
0.6569672 -0.6695977770702698 0.8094770505586988
0.6589671 -0.6749571872026181 0.8050261916632965
0.660967 -0.6803936445961241 0.8010670279582706
0.6629669 -0.6856584682406635 0.7968222924859075
0.6649668 -0.6902261594802812 0.7927810483504393
0.6669667 -0.6957695776134976 0.7887155595601615
0.6689666 -0.7000324821066374 0.7843780130417194
0.6709665 -0.7055170231021204 0.7800903639674928
0.6729664 -0.7104372261828763 0.7757382152983744
0.6749663 -0.7154877366929892 0.7712884092183355
0.6769662 -0.7201354011833041 0.7668649101914985
0.6789661 -0.7252055683530435 0.7625516829151341
0.680966 -0.7299085876836122 0.758205778409968
0.6829659 -0.734519943399747 0.7538178156744932
0.6849658 -0.7395060632712791 0.7494175874358353
0.6869657 -0.7443704657693222 0.7447216458418384
0.6889656 -0.7491673961540676 0.740383827298468
0.6909655 -0.7535366636071663 0.7358917101988933
0.6929654 -0.7584315076927549 0.7310404216142531
0.6949653 -0.7631680175091056 0.7265647534022145
0.6969652 -0.7677550012095544 0.7220144169187729
0.6989651 -0.7723787288949235 0.7170763356703743
0.700965 -0.7771219748980314 0.7125342573757186
0.7029649 -0.7815665054363594 0.7079172095681098
0.7049648 -0.7860297502559455 0.7030807802286886
0.7069647 -0.7906134223708225 0.6982857410445968
0.7089646 -0.795025000029906 0.6933589600288221
0.7109645 -0.7993394819466954 0.6885552992257111
0.7129644 -0.8037815824675021 0.6839981198974974
0.7149643 -0.8080771247313504 0.6790700846885207
0.7169642 -0.812331948489419 0.6741290738966177
0.7189641 -0.8167556256577011 0.6691631310883418
0.720964 -0.8211017976527188 0.6643055226053006
0.7229639 -0.8253934736227917 0.6591598559754172
0.7249638 -0.8291846929690707 0.6542916411066177
0.7269637 -0.833503969961022 0.649007889483852
0.7289636 -0.837726211876269 0.6442589671854168
0.7309635 -0.8415927275001063 0.6388526988625322
0.7329634 -0.8456298006426641 0.6336114160454474
0.7349633 -0.8495642912146585 0.6288603452989859
0.7369632 -0.8538002438066873 0.6235291638733248
0.7389631 -0.8576683067493066 0.618458127442416
0.740963 -0.8617263554995033 0.613316820361325
0.7429629 -0.8656200789691475 0.607671195043571
0.7449628 -0.8692632764574026 0.6027099821148619
0.7469627 -0.8729634625439056 0.5973138462593828
0.7489626 -0.8767239286890998 0.5920587760087688
0.7509625 -0.8808683672819052 0.5865400503295429
0.7529624 -0.8840375443036753 0.5812410213707204
0.7549623 -0.8879181365885145 0.5759720441203413
0.7569622 -0.8918150449637626 0.5707023921694578
0.7589621 -0.8955009324748765 0.5654139994555528
0.760962 -0.8988201929295015 0.5601393010819171
0.7629619 -0.9026677674743739 0.554376301959945
0.7649618 -0.9060922146796437 0.5489643233712057
0.7669617 -0.9094293272713588 0.5436973716230084
0.7689616 -0.913089004996529 0.5382431145323288
0.7709615 -0.9167146393010592 0.5326798158500335
0.7729614 -0.9198874260522196 0.5270994421857459
0.7749613 -0.9232933723897281 0.5214934617198873
0.7769612 -0.926875651253723 0.5159028459504378
0.7789611 -0.9298453947577839 0.5103452891499111
0.780961 -0.9333450115693679 0.5048835612261914
0.7829609 -0.9365106257474873 0.4992259872596472
0.7849608 -0.9396054568251427 0.49363356684400195
0.7869607 -0.9427998877607482 0.4878257689007695
0.7889606 -0.9459369067691257 0.48223801780230946
0.7909605 -0.9491099265066579 0.47657981687855294
0.7929604 -0.9520924662206434 0.4709865634944071
0.7949603 -0.9551397670074591 0.465094825152319
0.7969602 -0.9581319863496628 0.45943696433806036
0.7989601 -0.9610183470116962 0.4536043065043666
0.80096 -0.9638952794654697 0.44789074924426747
0.8029599 -0.966714903015266 0.44213882146025896
0.8049598 -0.9695847554309633 0.43631669577276316
0.8069597 -0.9724516878355938 0.43063436814859796
0.8089596 -0.975317379173003 0.4246681320665831
0.8109595 -0.9782789584622081 0.41912433413507777
0.8129594 -0.9805538870752051 0.41295002249681523
0.8149593 -0.983330879066914 0.407079905063825
0.8169592 -0.9858279358071776 0.40097667774738155
0.8189591 -0.9886807713947066 0.39541152828373494
