! Created with skrf 1.8.0 (http://scikit-rf.org).
# GHz S RI R 50.0 
!freq ReS11 ImS11
0.001 -1.0151025329487564 0.03026715922090384
0.0029999 -1.0548043123266941 0.01980473767929941
0.0049998 -1.063295940168565 0.0009630825518399111
0.0069997 -1.0646261556318892 -0.00729192454618019
0.0089996 -1.0659744238778128 -0.019272397033375757
0.0109995 -1.0668543705058096 -0.028583373523579994
0.0129994 -1.066419743847082 -0.03630481305969704
0.0149993 -1.0692610190305 -0.04431620867841603
0.0169992 -1.0684544895988641 -0.052456588119427515
0.0189991 -1.0693046917198878 -0.05938790829751803
0.020999 -1.067763145073158 -0.06747466745551033
0.0229989 -1.0683076986104318 -0.07411090785237415
0.0249988 -1.068277734051066 -0.0813464398546743
0.0269987 -1.066470732529553 -0.0883586874205628
0.0289986 -1.0671935356882016 -0.09564737164816535
0.0309985 -1.066844569937606 -0.10213129345268443
0.0329984 -1.0663467979793644 -0.10866052842150375
0.0349983 -1.066234529284377 -0.11682743739649304
0.0369982 -1.0657177064493764 -0.1221264185464465
0.0389981 -1.0656861913662246 -0.12981590616561245
0.040998 -1.0634790667918248 -0.13570729342203317
0.0429979 -1.0630360449863512 -0.14121361411117864
0.0449978 -1.063681659539696 -0.14990336194007856
0.0469977 -1.0626410741889667 -0.15469457980230014
0.0489976 -1.0613393768605606 -0.16275247498579437
0.0509975 -1.0620449804073093 -0.16907501822282606
0.0529974 -1.059901719634049 -0.17759185763821966
0.0549973 -1.0590307244791726 -0.1812478304023542
0.0569972 -1.0583878395660975 -0.188896727535895
0.0589971 -1.0580761786424273 -0.19522427908387696
0.060997 -1.057000812619688 -0.2022898685356819
0.0629969 -1.0562800387365938 -0.20772794119375138
0.0649968 -1.054964778163827 -0.214784609320212
0.0669967 -1.0531241332376922 -0.22139161833059876
0.0689966 -1.0523963081819694 -0.22828709077290057
0.0709965 -1.0511348122210646 -0.2337532040909645
0.0729964 -1.0494241002822648 -0.24094541501611388
0.0749963 -1.0488820164941348 -0.24734862550230435
0.0769962 -1.0483521223179888 -0.25381325736387156
0.0789961 -1.0461338114628371 -0.25979086593195105
0.080996 -1.0449699691103875 -0.26677902308539697
0.0829959 -1.0433542765039483 -0.27346625956938375
0.0849958 -1.0429010192314312 -0.2791912312247296
0.0869957 -1.040163880201974 -0.2857748320159013
0.0889956 -1.0397199576600604 -0.29172582334414027
0.0909955 -1.0379764995222935 -0.2980532913796884
0.0929954 -1.0361088015418678 -0.30580402380557675
0.0949953 -1.034352809065169 -0.3107530969014392
0.0969952 -1.0333557105951259 -0.3166819278525802
0.0989951 -1.03027402653069 -0.3232931056136206
0.100995 -1.02972234147383 -0.3304824771679083
0.1029949 -1.0275750481392978 -0.3363448486848538
0.1049948 -1.025749551407233 -0.34206592232405747
0.1069947 -1.0242658697936475 -0.3482842352597722
0.1089946 -1.0224117512132846 -0.35399430100797197
0.1109945 -1.0198871222359565 -0.3612960811223478
0.1129944 -1.0184566195777065 -0.3669333335602199
0.1149943 -1.0158939736528823 -0.3728062338762224
0.1169942 -1.0150118208999725 -0.37915349835848405
0.1189941 -1.0115616775025715 -0.3865676230198598
0.120994 -1.009409318609512 -0.3919033233277994
0.1229939 -1.007692861133425 -0.39776367869286267
0.1249938 -1.005042272190981 -0.40426586407865345
0.1269937 -1.0026913747329467 -0.4092704458309492
0.1289936 -0.9995768334294394 -0.4161727313846155
0.1309935 -0.9985031331304931 -0.42324960305708603
0.1329934 -0.9979132138618227 -0.4276610560306569
0.1349933 -0.9941705295101307 -0.4340832522893257
0.1369932 -0.99132253933469 -0.4387975864837639
0.1389931 -0.9887016695526513 -0.44652960434779454
0.140993 -0.9872277185403788 -0.45186774614472175
0.1429929 -0.9841751738176105 -0.45844432426452864
0.1449928 -0.9807970140833167 -0.4654127216191472
0.1469927 -0.9787327449615814 -0.4709964970913323
0.1489926 -0.9768482438932771 -0.47610917143488274
0.1509925 -0.9734391676679118 -0.48168550424318896
0.1529924 -0.9705230787731919 -0.4888598822622623
0.1549923 -0.9688344091090504 -0.4930354375499784
0.1569922 -0.9663914000604311 -0.5005564174757864
0.1589921 -0.962041880563725 -0.5051131400850598
0.160992 -0.9599256440690447 -0.5122291690702303
0.1629919 -0.957492528153678 -0.5176696939760931
0.1649918 -0.9538491761855244 -0.5226530073101278
0.1669917 -0.9511192168763685 -0.5285164964594018
0.1689916 -0.9490199440397887 -0.5343066397662543
0.1709915 -0.9443033919170778 -0.5398253359084344
0.1729914 -0.94180231403929 -0.545812755134413
0.1749913 -0.9386224417139831 -0.5504522189258523
0.1769912 -0.9360905911932589 -0.557002721145582
0.1789911 -0.9328896987894737 -0.5627727309287758
0.180991 -0.928812613223541 -0.5680954974265523
0.1829909 -0.9261147522883731 -0.5757214301088527
0.1849908 -0.9241933136778185 -0.5791241329156945
0.1869907 -0.9183742725518339 -0.5842432023267851
0.1889906 -0.9162116910118884 -0.5905821659406502
0.1909905 -0.9124372146920086 -0.596001169709139
0.1929904 -0.9089602468240775 -0.602203584706158
0.1949903 -0.9051938351930875 -0.6064343888188716
0.1969902 -0.9020195402747091 -0.6120809822923462
0.1989901 -0.8996152961977274 -0.6182532903128788
0.20099 -0.8946192628629724 -0.6232386802787724
0.2029899 -0.892061409158054 -0.6285725433487309
0.2049898 -0.8878893415107089 -0.634560585688082
0.2069897 -0.8848508228478662 -0.6398814715321027
0.2089896 -0.8800855933453656 -0.6448392317205098
0.2109895 -0.8778326743226778 -0.6500548493565
0.2129894 -0.873594346576181 -0.6550661224920803
0.2149893 -0.8695830512845896 -0.6612756327677941
0.2169892 -0.8659410807008746 -0.6657661683331466
0.2189891 -0.8622011275887045 -0.6715974069984887
0.220989 -0.8578286333301302 -0.6763465981087821
0.2229889 -0.8546932426766407 -0.682733332809933
0.2249888 -0.8500165132025512 -0.6869184179429083
0.2269887 -0.846448551754713 -0.6919386629522855
0.2289886 -0.8426788009267365 -0.6976415618373805
0.2309885 -0.8389570501416155 -0.7022598954835769
0.2329884 -0.8349250904239273 -0.7083408793829497
0.2349883 -0.8301742713098762 -0.7119114891974067
0.2369882 -0.8261688649627282 -0.71758462407972
0.2389881 -0.822438460711432 -0.7224163715723653
0.240988 -0.8175522762389422 -0.7272583351339675
0.2429879 -0.813953275847337 -0.7323034120628735
0.2449878 -0.8099881492490257 -0.7374871182995126
0.2469877 -0.8059825349835551 -0.74260183919956
0.2489876 -0.8003971484688084 -0.7475429322272479
0.2509875 -0.7974245260904704 -0.7518077988735402
0.2529874 -0.7923681156306726 -0.7567830921618489
0.2549873 -0.7873007606681526 -0.7612106076166817
0.2569872 -0.78327691536896 -0.7661981041319607
0.2589871 -0.7785174293645163 -0.7710928497634201
0.260987 -0.7736723949790686 -0.7759038945934191
0.2629869 -0.7696612551688145 -0.7808228433054327
0.2649868 -0.7648595317726361 -0.7844473711237733
0.2669867 -0.7605542270183716 -0.7906125296818082
0.2689866 -0.7565892271186342 -0.7943996673950946
0.2709865 -0.7510093644775843 -0.7983111752180349
0.2729864 -0.7467416789976822 -0.803172455114485
0.2749863 -0.7424282375583449 -0.8087841160991178
0.2769862 -0.7370850296710962 -0.8127069251260088
0.2789861 -0.7330728593358581 -0.8178636510948363
0.280986 -0.7273557482976315 -0.8222046709119917
0.2829859 -0.7226248655008328 -0.8267750793611164
0.2849858 -0.7179128757514653 -0.8305019346546747
0.2869857 -0.7127096614836764 -0.8343580195462206
0.2889856 -0.7088978381556501 -0.8395517742560907
0.2909855 -0.7031095902451128 -0.8436167505679218
0.2929854 -0.698284004664529 -0.8482042099539168
0.2949853 -0.6930403645723109 -0.8522969429270548
0.2969852 -0.6881728623995593 -0.8564092968523007
0.2989851 -0.6831785181107497 -0.8607559910241294
0.300985 -0.6786598406638686 -0.8646437652207575
0.3029849 -0.6741745123368217 -0.8695783341782987
0.3049848 -0.6676349300748212 -0.8724959368577754
0.3069847 -0.6627289864005451 -0.8771295806820594
0.3089846 -0.6583092232678248 -0.8816799826423555
0.3109845 -0.6521805592370763 -0.8871034398469343
0.3129844 -0.6472204363824523 -0.8897267239385933
0.3149843 -0.642311307052217 -0.8934683947715354
0.3169842 -0.6363405932228866 -0.8975670118133711
0.3189841 -0.6327527232911179 -0.9014260422368737
0.320984 -0.6267600471636199 -0.9050392772355411
0.3229839 -0.6206668885460975 -0.9090874369763996
0.3249838 -0.6160664181385672 -0.9129118525281722
0.3269837 -0.6091710897018329 -0.9161882294514252
0.3289836 -0.6043532860078923 -0.9195622445350615
0.3309835 -0.5985981317078296 -0.9237802091668924
0.3329834 -0.5936238216728722 -0.9273072381151463
0.3349833 -0.5885255197952884 -0.93185599975487
0.3369832 -0.5829616363150457 -0.934878463970232
0.3389831 -0.5770877442894455 -0.9381776392701484
0.340983 -0.5718388588980696 -0.9413361439278226
0.3429829 -0.5665619710361101 -0.9453765988404205
0.3449828 -0.560626129738371 -0.9493199803677106
0.3469827 -0.5550704946063276 -0.9521833399719355
0.3489826 -0.5488418766614735 -0.9556212461028512
0.3509825 -0.5439113648771321 -0.9594092124239216
0.3529824 -0.5374160399056778 -0.9626456845214078
0.3549823 -0.531868822122168 -0.9652431593356213
0.3569822 -0.5258668096625984 -0.968752561609837
0.3589821 -0.5206853371198896 -0.9726370190609868
0.360982 -0.5158604720380167 -0.9756715891872464
0.3629819 -0.5086264657903016 -0.9783976848038587
0.3649818 -0.5035246220234079 -0.9826727854079309
0.3669817 -0.49789304019527614 -0.9852001583892654
0.3689816 -0.4922903343941569 -0.9885742117735775
0.3709815 -0.48542417115372116 -0.9922799655829907
0.3729814 -0.4803673205359039 -0.994514961356
0.3749813 -0.47343120584475545 -0.9979572057703258
0.3769812 -0.4669503987650193 -1.0005240055493483
0.3789811 -0.4611275498792329 -1.0033037122139083
0.380981 -0.45616649545226917 -1.0066320342120862
0.3829809 -0.4503675880023901 -1.0100894953121675
0.3849808 -0.444061533402329 -1.0125931741941074
0.3869807 -0.4374405289404768 -1.0145164030647316
0.3889806 -0.43089529838367296 -1.0168790824927365
0.3909805 -0.4245273981006432 -1.0196695973537595
0.3929804 -0.41989523494818265 -1.0232771780169758
0.3949803 -0.41280343734202535 -1.0253271863212934
0.3969802 -0.4071864669635722 -1.0276479506454714
0.3989801 -0.40178224821577885 -1.0297764375628844
0.40098 -0.394711883880168 -1.0323708922727626
0.4029799 -0.3889918222109334 -1.0355820697582077
0.4049798 -0.3824936865410426 -1.0379453551160125
0.4069797 -0.376249603917256 -1.040037886198741
0.4089796 -0.37004881563848835 -1.042544294697421
0.4109795 -0.36433778550438917 -1.0453604505971479
0.4129794 -0.3574579284408027 -1.0475240308724654
0.4149793 -0.351266800349267 -1.0495851507795382
0.4169792 -0.3440821617892785 -1.05141554898643
0.4189791 -0.3379129502125455 -1.054069178109794
0.420979 -0.3319825947569703 -1.0559952761468827
0.4229789 -0.3255276300147574 -1.0583766927057425
0.4249788 -0.3194055323294325 -1.0606223214153543
0.4269787 -0.3123068528523666 -1.0628268984501408
0.4289786 -0.30608844336691476 -1.0655549811019704
0.4309785 -0.2998515236363167 -1.0670274164263656
0.4329784 -0.2929226228460734 -1.0696753012380076
0.4349783 -0.28650827506010423 -1.070645648619917
0.4369782 -0.279835190136624 -1.0714079512800874
0.4389781 -0.2731679243610332 -1.0736292783796573
0.440978 -0.2673729529069104 -1.075262005720248
0.4429779 -0.260715877489684 -1.077197620911698
0.4449778 -0.25389284962748665 -1.0793453398135884
0.4469777 -0.24721214014864962 -1.080991241373647
0.4489776 -0.23986378638651734 -1.0824639561220797
0.4509775 -0.23383636187810164 -1.0850015329040326
0.4529774 -0.2279393373659824 -1.0861773452824677
0.4549773 -0.22048604165566615 -1.0869536240462714
0.4569772 -0.21344837608964923 -1.0883856325879593
0.4589771 -0.2075592515829311 -1.0898373741820813
0.460977 -0.2007387055952075 -1.0910510071965278
0.4629769 -0.1935130415508402 -1.0925348128160783
0.4649768 -0.18683532192509034 -1.0935350574850624
0.4669767 -0.1800212719224401 -1.0955411061954778
0.4689766 -0.17369986805035936 -1.0962296856995215
0.4709765 -0.16754682609148533 -1.0979430403593033
0.4729764 -0.16066850650098163 -1.0989609657142105
0.4749763 -0.15355525301796907 -1.1001056612708873
0.4769762 -0.14739849116577325 -1.101539465530791
0.4789761 -0.1404297167534273 -1.1022493546644088
0.480976 -0.1343073118319088 -1.1032589606406769
0.4829759 -0.12653875022225924 -1.104039375484317
0.4849758 -0.11999835383651308 -1.1042350976414927
0.4869757 -0.11306376860480838 -1.1051921176023927
0.4889756 -0.10648898282433006 -1.1052111245892164
0.4909755 -0.09968054889799774 -1.1064506471278117
0.4929754 -0.09372387661366176 -1.1071948652740016
0.4949753 -0.08577430665856407 -1.108513026394684
0.4969752 -0.07800586570436009 -1.108852697258171
0.4989751 -0.072488092626154 -1.1094061019298427
0.500975 -0.06520256024110863 -1.1096612247186326
0.5029749 -0.058637851999437426 -1.1101496847641925
0.5049748 -0.05164675792267066 -1.1106916807176883
0.5069747 -0.04480771712802043 -1.1116750563795423
0.5089746 -0.03767642112457174 -1.111654006370689
0.5109745 -0.03077126224844995 -1.1118370774352473
0.5129744 -0.02410384550784804 -1.1125677486542596
0.5149743 -0.017512662549103906 -1.1132945104245302
0.5169742 -0.010334802037561708 -1.1122837785998079
0.5189741 -0.003505035286606714 -1.1120150294905542
0.520974 0.003602014462368436 -1.1126010821717403
0.5229739 0.010333045103115904 -1.1121747804447721
0.5249738 0.017061937490801357 -1.1125910425301226
0.5269737 0.024219554085928005 -1.1123062909606625
0.5289736 0.03090284598272522 -1.1118866982036502
0.5309735 0.037791760702932664 -1.112670975091712
0.5329734 0.04468051384823672 -1.1123575540123822
0.5349733 0.05193048155129448 -1.1122540972155845
0.5369732 0.059052231744392364 -1.1117032199672239
0.5389731 0.06565609318489896 -1.1114319302021696
0.540973 0.072883302115295 -1.1115602502918578
0.5429729 0.07951514280483155 -1.111506090323397
0.5449728 0.08638937834325933 -1.1108025082733428
0.5469727 0.09336009075961563 -1.1099813039853281
0.5489726 0.10042769706227618 -1.1102083601852053
0.5509725 0.10684900451052182 -1.1090231488982478
0.5529724 0.11416741696998105 -1.1077692918172029
0.5549723 0.12094894625351786 -1.1071113707462312
0.5569722 0.1278910964991018 -1.1070293059414562
0.5589721 0.13452820773990376 -1.1063321256124627
0.560972 0.14180797544073237 -1.1059628194012092
0.5629719 0.14902402597629222 -1.1046763129707533
0.5649718 0.1560628915699256 -1.1040605379544324
0.5669717 0.16273312030593456 -1.1031370013413133
0.5689716 0.16953169830961035 -1.1026774815448712
0.5709715 0.17641095831898784 -1.1016607682074269
0.5729714 0.1839757601056734 -1.0994839205745257
0.5749713 0.1906890461660527 -1.0992138731845578
0.5769712 0.1974228659540434 -1.0983827123481444
0.5789711 0.2052309399189114 -1.0973465865323198
0.580971 0.2116438334278289 -1.0957414679580353
0.5829709 0.21814052077488322 -1.093928183093654
0.5849708 0.22489254300207853 -1.0927196615151609
0.5869707 0.2322821523382562 -1.0908215488597748
0.5889706 0.23895248285222026 -1.0897441965388845
0.5909705 0.24618123676825165 -1.089023479104069
0.5929704 0.2529018922424233 -1.0871495512626626
0.5949703 0.2600521551418863 -1.0858531625180088
0.5969702 0.26663436385241945 -1.0841254633000466
0.5989701 0.27377580062835605 -1.0827876703946822
0.60097 0.28043256026225727 -1.0801400806380557
0.6029699 0.28756778290278134 -1.0790455154560368
0.6049698 0.2946370111209129 -1.0780303582871467
0.6069697 0.300978258125181 -1.0762287039570113
0.6089696 0.30873209140234675 -1.074197388062089
0.6109695 0.3152811567721716 -1.0721252551755374
0.6129694 0.3220756251064971 -1.0701916358339898
0.6149693 0.3288082337976942 -1.0682526933032257
0.6169692 0.3360975038669823 -1.0660006873728922
0.6189691 0.342622458963715 -1.064203145385174
0.620969 0.3489060919422234 -1.061548606570742
0.6229689 0.35598075468893087 -1.0592261761630193
0.6249688 0.3621447491752968 -1.0572594148428067
0.6269687 0.36941118873256035 -1.0551461635086932
0.6289686 0.37620997610476403 -1.0525722132067117
0.6309685 0.38277656825937867 -1.0507094150659775
0.6329684 0.38929649863917837 -1.048796882627209
0.6349683 0.3964035718768002 -1.0457938868141925
0.6369682 0.4026925433320437 -1.0437063329970953
0.6389681 0.41058955766281036 -1.0410809526599245
0.640968 0.41687434604612594 -1.0386566370594918
0.6429679 0.4239599525074196 -1.0356829456177334
0.6449678 0.430269096585354 -1.033222318341141
0.6469677 0.4367643621430158 -1.0307364566778627
0.6489676 0.4433019074329873 -1.0273005964659596
0.6509675 0.450095863461202 -1.0249204144355955
0.6529674 0.4566139882956568 -1.0212825413767879
0.6549673 0.46285774610059405 -1.018449785485073
0.6569672 0.46969751453297076 -1.0156997392113678
0.6589671 0.47606428877868906 -1.0127489701610504
0.660967 0.4827536257783342 -1.0097620880908391
0.6629669 0.4888433573939087 -1.0063000186816218
0.6649668 0.4959375060259148 -1.003749234410623
0.6669667 0.5019066533655753 -1.0005997970019957
0.6689666 0.5083841056567906 -0.9972155954093785
0.6709665 0.5146942288502063 -0.993703753783989
0.6729664 0.5218409215008226 -0.9909036133089417
0.6749663 0.5283798520538021 -0.9884118784866276
0.6769662 0.534857154971134 -0.9848250325187807
0.6789661 0.5418359996398776 -0.9806780873972347
0.680966 0.5478617016286438 -0.978603236319409
0.6829659 0.5546592423326533 -0.9740415979225595
0.6849658 0.5605210744025995 -0.9703029025526305
0.6869657 0.5671858147142511 -0.9671345231266328
0.6889656 0.5732828359596592 -0.9634849050304064
0.6909655 0.5799348526615227 -0.959230543212598
0.6929654 0.5861027943247381 -0.9557086061103435
0.6949653 0.5921299738615539 -0.9522229303369384
0.6969652 0.598018907198172 -0.9479192257866247
0.6989651 0.6042544824992224 -0.9441519447625797
0.700965 0.6102182862141803 -0.9400529049427824
0.7029649 0.6167651748339814 -0.9366250472435025
0.7049648 0.6230007612540592 -0.9323762459588338
0.7069647 0.6293346772836514 -0.927926917661124
0.7089646 0.6348433488054892 -0.9244215573172185
0.7109645 0.6410200595925679 -0.919987643615734
0.7129644 0.6472335557324314 -0.9156823229602854
0.7149643 0.6532108277374629 -0.9119622287194306
0.7169642 0.6594336390408427 -0.9072421108329338
0.7189641 0.6649737077799012 -0.903398046933269
0.720964 0.6708289202533819 -0.8989821059879937
0.7229639 0.6760421910903354 -0.8946879210668677
0.7249638 0.6829273703676068 -0.8904865205124073
0.7269637 0.6885880745237901 -0.8862744312807209
0.7289636 0.6944069956625747 -0.8816288463583868
0.7309635 0.7006680992620343 -0.8767801412329144
0.7329634 0.7059957012009311 -0.872734073519352
0.7349633 0.7120532276998615 -0.8675956939189441
0.7369632 0.7181886257880061 -0.8632566613905571
0.7389631 0.7234014986040331 -0.8583360030664879
0.740963 0.7296695915204107 -0.8532942255871013
0.7429629 0.7345365312128198 -0.8493903329825662
0.7449628 0.7404825141455932 -0.8441014776991945
0.7469627 0.7457313670981502 -0.839398531713238
0.7489626 0.7517188579910947 -0.8346987230654441
0.7509625 0.757319681071783 -0.8299139124979935
0.7529624 0.7623861411390651 -0.8244529611706451
0.7549623 0.7678972587614801 -0.8190666080330415
0.7569622 0.7734507508570978 -0.8143479898962019
0.7589621 0.779410294426283 -0.8099675965136959
0.760962 0.7851379674324427 -0.8044372088305246
0.7629619 0.7900938171769378 -0.7992376310985928
0.7649618 0.7953483631230082 -0.7938351358301131
0.7669617 0.8002775835648194 -0.7883413010820807
0.7689616 0.806781430532771 -0.7832200135533012
0.7709615 0.8111317933754749 -0.7781971429244936
0.7729614 0.8169189484598466 -0.7718543471009113
0.7749613 0.8216200531884669 -0.7670076759778917
0.7769612 0.8270121871307192 -0.7618470045660007
0.7789611 0.8320281811432598 -0.7559299328606333
0.780961 0.8365536817467063 -0.750644971445245
0.7829609 0.8419434432351701 -0.7444586077434907
0.7849608 0.8467516844493371 -0.739487357058441
0.7869607 0.851881514025716 -0.7333629671451264
0.7889606 0.8564402477699609 -0.727499311920438
0.7909605 0.8613495436996661 -0.7224177583172489
0.7929604 0.8661770677394326 -0.7163780530489349
0.7949603 0.871440960450675 -0.7107377567928742
0.7969602 0.8757960240892667 -0.7045337088422459
0.7989601 0.880228038478138 -0.6992551959182448
0.80096 0.8856701895192797 -0.6933475451912927
