! Created with skrf 1.8.0 (http://scikit-rf.org).
# GHz S RI R 50.0 
!freq ReS11 ImS11
0.001 -1.0539728498696697 0.011796708598183964
0.0029999 -1.0676829021258432 -0.01189757656225284
0.0049998 -1.0652949661195095 -0.01367310839667623
0.0069997 -1.0656413539985967 -0.023915402323684443
0.0089996 -1.0654678201706562 -0.02989391764321276
0.0109995 -1.0658210504914802 -0.0378090073101596
0.0129994 -1.065236361376372 -0.04442656511576983
0.0149993 -1.066324873797825 -0.05187317699775838
0.0169992 -1.0663597233983475 -0.05873204924355559
0.0189991 -1.066036174045133 -0.06515978400245408
0.020999 -1.0659455290173108 -0.0725244838401992
0.0229989 -1.0661396646017582 -0.07941115105674379
0.0249988 -1.0666979544109012 -0.08696176341302009
0.0269987 -1.06487871062712 -0.09302920573275547
0.0289986 -1.065021727031868 -0.09956726791033835
0.0309985 -1.0652743749010232 -0.10697356961943691
0.0329984 -1.0639334233051432 -0.11257486026038836
0.0349983 -1.0636685242555124 -0.11959896858096443
0.0369982 -1.0635586879044914 -0.12594175244331887
0.0389981 -1.0623717624835711 -0.13334050943595654
0.040998 -1.0615329681085461 -0.1399029728285468
0.0429979 -1.0610406172721172 -0.1458751303817958
0.0449978 -1.0605080115797352 -0.15276524109159303
0.0469977 -1.0608839673464598 -0.1587684797372351
0.0489976 -1.0585918913425154 -0.1658234717286879
0.0509975 -1.0591575559984683 -0.1725226167738294
0.0529974 -1.057441795178547 -0.1813963323954956
0.0549973 -1.0556221623468116 -0.18469480563671498
0.0569972 -1.0559056158866629 -0.19249285329141
0.0589971 -1.0551932887037345 -0.19876662122375346
0.060997 -1.0544155153871495 -0.20593904740493363
0.0629969 -1.053879121452419 -0.2112905601672631
0.0649968 -1.0523325701572783 -0.21841539669356466
0.0669967 -1.0507194620415041 -0.2249505767330298
0.0689966 -1.0496269435449121 -0.23168000414639178
0.0709965 -1.0486604062755802 -0.23701994572200616
0.0729964 -1.0469367801579788 -0.244767930695203
0.0749963 -1.0463431588339263 -0.25104904921172383
0.0769962 -1.045507520138017 -0.25743444675056026
0.0789961 -1.0437202584587268 -0.2638364008576995
0.080996 -1.042883091373487 -0.27042513141646213
0.0829959 -1.0404887476528 -0.27732201671239254
0.0849958 -1.0403086804089443 -0.28254747492309845
0.0869957 -1.037711671011446 -0.28968165500190524
0.0889956 -1.037385291968778 -0.29592794678084533
0.0909955 -1.0355386915768288 -0.3023556205581449
0.0929954 -1.0332426746716787 -0.30985659296609247
0.0949953 -1.0316263328641575 -0.3144004912865086
0.0969952 -1.030513550991733 -0.3200379496665758
0.0989951 -1.027038246916423 -0.3263718344771884
0.100995 -1.0271859206030163 -0.3337352947766278
0.1029949 -1.024117526856385 -0.34118826414078485
0.1049948 -1.0228750649145946 -0.3458616901187355
0.1069947 -1.0208388362362024 -0.3524809841784494
0.1089946 -1.0198607333322085 -0.35817526609318084
0.1109945 -1.016877910544217 -0.36482963339124846
0.1129944 -1.0152725323883647 -0.37133081775883997
0.1149943 -1.0127859559659602 -0.37721597012848185
0.1169942 -1.0116870617287035 -0.3835997347843437
0.1189941 -1.0082951777244844 -0.3906336198610745
0.120994 -1.0061970222110792 -0.3970072308916047
0.1229939 -1.004641104289648 -0.40214409397517226
0.1249938 -1.001721533034678 -0.4091250290960376
0.1269937 -0.9995557803316716 -0.4137938277359485
0.1289936 -0.9972584703790789 -0.4206976011412669
0.1309935 -0.9956828706792936 -0.4276164477170582
0.1329934 -0.9939252306938923 -0.43299532831152765
0.1349933 -0.9908171534767127 -0.4393633264246118
0.1369932 -0.988260988836911 -0.4436863203067049
0.1389931 -0.9850423045712907 -0.4523442874829098
0.140993 -0.9840293878674026 -0.4560442548946122
0.1429929 -0.980650769221397 -0.4634268297436796
0.1449928 -0.9777963300515523 -0.46926808688244076
0.1469927 -0.975127176199019 -0.4760081931287525
0.1489926 -0.9735809772452523 -0.48105747913483005
0.1509925 -0.9693354631969013 -0.4869427261258051
0.1529924 -0.9670434755732856 -0.493875028137129
0.1549923 -0.9645811194195705 -0.49901037441578827
0.1569922 -0.9622886760358672 -0.5053473815765808
0.1589921 -0.9581838874065403 -0.5104916965005198
0.160992 -0.9562697350092658 -0.5179752606330444
0.1629919 -0.9531053775985673 -0.5229248640542985
0.1649918 -0.9499882106590899 -0.5284254017957014
0.1669917 -0.9467818628268333 -0.5345169537459123
0.1689916 -0.9446402565561599 -0.5397823033684702
0.1709915 -0.9401896954102179 -0.5451114859192762
0.1729914 -0.9371296746661977 -0.5515485115783194
0.1749913 -0.9341034628089754 -0.5565240801340068
0.1769912 -0.9319517296385468 -0.56293880996213
0.1789911 -0.9283401706050918 -0.5683516628417788
0.180991 -0.9241980352959638 -0.5739240249356596
0.1829909 -0.9209701966590862 -0.5810331831419262
0.1849908 -0.919377608066058 -0.5844810161584054
0.1869907 -0.9141472737978663 -0.5892593200780096
0.1889906 -0.9113250138341337 -0.5969211653841602
0.1909905 -0.9079487958309482 -0.6022118990387948
0.1929904 -0.9042558148512959 -0.6082843584442482
0.1949903 -0.9010383175936321 -0.6131399215055395
0.1969902 -0.8978522723749895 -0.6182990834125199
0.1989901 -0.8949360995214203 -0.6246418691570229
0.20099 -0.8906365154824701 -0.6287292941820284
0.2029899 -0.8867303851477435 -0.634863432314792
0.2049898 -0.8839536604574942 -0.64065242209445
0.2069897 -0.879776846029722 -0.6462279987833903
0.2089896 -0.8755979211163388 -0.650926257520696
0.2109895 -0.8726563124609517 -0.6565469875062713
0.2129894 -0.8683373725700299 -0.661800391281321
0.2149893 -0.8644947088697558 -0.6671612107140299
0.2169892 -0.8606086494374436 -0.6726750789033882
0.2189891 -0.8571031398344205 -0.6784279706603619
0.220989 -0.8524747839986353 -0.6834229553824785
0.2229889 -0.8493259663825669 -0.6891756823330036
0.2249888 -0.8445310438918696 -0.6936368578263951
0.2269887 -0.8409138180308157 -0.6989943003183322
0.2289886 -0.8367336225611749 -0.704217151385199
0.2309885 -0.8329384719584811 -0.7092566808823048
0.2329884 -0.8286706663266592 -0.7149991536341298
0.2349883 -0.8239114684945599 -0.7187313789127043
0.2369882 -0.8199796886339769 -0.7247910434729754
0.2389881 -0.8161174711697812 -0.7297435952447922
0.240988 -0.8109670856442889 -0.7343482158340986
0.2429879 -0.807523589090919 -0.7396636459123743
0.2449878 -0.8032941773753326 -0.7447349176736948
0.2469877 -0.799338255362951 -0.7497132501258261
0.2489876 -0.7937349386041938 -0.7551000788890758
0.2509875 -0.7901930094949333 -0.7593409329050704
0.2529874 -0.7850014510997608 -0.7639720574408269
0.2549873 -0.7808421686008381 -0.7689173058958656
0.2569872 -0.7766162177545559 -0.7738235289984623
0.2589871 -0.771792177589422 -0.7783530576246458
0.260987 -0.7668895512210057 -0.7835276523894094
0.2629869 -0.762796328093876 -0.7883034904055218
0.2649868 -0.7576464813950199 -0.7926640258235428
0.2669867 -0.753198260039748 -0.7986583485231595
0.2689866 -0.7488437244693099 -0.8025269504819666
0.2709865 -0.7437434653798521 -0.8057820858896679
0.2729864 -0.7396345520084241 -0.8112498592037016
0.2749863 -0.734641783366484 -0.8165178074748565
0.2769862 -0.7297880918361739 -0.8209571288832588
0.2789861 -0.7254963997439628 -0.8257180046029585
0.280986 -0.7192807776863148 -0.8299128728764327
0.2829859 -0.7147116275939454 -0.8350013739164792
0.2849858 -0.7098230822261137 -0.8384801585213616
0.2869857 -0.704756072696442 -0.8430297108026243
0.2889856 -0.7004155043321753 -0.8484687687445693
0.2909855 -0.6947184480720892 -0.8520106196789345
0.2929854 -0.6896505586318595 -0.8568161241725146
0.2949853 -0.6846006904195719 -0.8603470484401636
0.2969852 -0.6788244957376184 -0.8650531064014343
0.2989851 -0.6743164624984441 -0.8691177884208071
0.300985 -0.6692406321367709 -0.873394459872988
0.3029849 -0.6643527821785133 -0.8778833215683077
0.3049848 -0.657703904669889 -0.8811765911132486
0.3069847 -0.6532281972816953 -0.8853828750723491
0.3089846 -0.6486815243249201 -0.8909764610423814
0.3109845 -0.6430731820283215 -0.8945595832020887
0.3129844 -0.637808196261892 -0.8978878274130265
0.3149843 -0.632829934950258 -0.9023366241806667
0.3169842 -0.626441313058808 -0.9060987298696667
0.3189841 -0.6224608248866812 -0.9096194230147545
0.320984 -0.6170840528092467 -0.9135196684796141
0.3229839 -0.6105538567835551 -0.9174227202180945
0.3249838 -0.6054063906788673 -0.9214987452944522
0.3269837 -0.599018005767198 -0.9247189773485467
0.3289836 -0.5931836330678879 -0.9286924769521387
0.3309835 -0.5888058038771192 -0.9319680223164803
0.3329834 -0.5831651833913584 -0.9363466998348766
0.3349833 -0.5781409597352514 -0.9407589527565995
0.3369832 -0.5721968095136516 -0.9434547562494363
0.3389831 -0.5657135793171705 -0.9466063071851866
0.340983 -0.5596076273820251 -0.9504134704661763
0.3429829 -0.5547179651893103 -0.9540541412552191
0.3449828 -0.5499072198914301 -0.9577377296608554
0.3469827 -0.5433354303048502 -0.9611339840587231
0.3489826 -0.5376801661045676 -0.9640553480823842
0.3509825 -0.5319322244265902 -0.968453105001788
0.3529824 -0.5256876352884536 -0.9712600982558361
0.3549823 -0.5191528921468298 -0.9740787257944566
0.3569822 -0.5133063511512893 -0.978014575542701
0.3589821 -0.5081745825459878 -0.9813877346655364
0.360982 -0.5032362339328396 -0.9843060482726063
0.3629819 -0.4963681770610815 -0.9866679028894934
0.3649818 -0.4908058498644301 -0.9911481046881265
0.3669817 -0.48483976668502315 -0.9939241296859112
0.3689816 -0.47913706187193517 -0.9972854938995719
0.3709815 -0.4719438577600506 -1.0005203455245903
0.3729814 -0.4672184841051537 -1.0031090536026483
0.3749813 -0.4595926375617662 -1.0061822567966938
0.3769812 -0.45364215692636867 -1.008885112238022
0.3789811 -0.44756802732097384 -1.011872797597465
0.380981 -0.4423640135789859 -1.0145771966040862
0.3829809 -0.43685167637773714 -1.0185157144379893
0.3849808 -0.4298411209784697 -1.020712806784504
0.3869807 -0.4236819198496187 -1.0228812571422008
0.3889806 -0.41706798978062415 -1.0252834748003774
0.3909805 -0.4103582440928834 -1.0278737005560568
0.3929804 -0.4058680740928136 -1.031390356143617
0.3949803 -0.3980078713970212 -1.0336761522704339
0.3969802 -0.39231493044060234 -1.0360295818298761
0.3989801 -0.3863236073139368 -1.03781473122238
0.40098 -0.3791822972532245 -1.041521518783494
0.4029799 -0.3740449253211674 -1.0438526301809101
0.4049798 -0.3672948444439509 -1.045926463403249
0.4069797 -0.3606654372754242 -1.0483135152086225
0.4089796 -0.3539721723397874 -1.050871445909274
0.4109795 -0.3483652046013393 -1.053617390731071
0.4129794 -0.3416638088457506 -1.0553454521131629
0.4149793 -0.3350191208916526 -1.0578300720192446
0.4169792 -0.32800406766982326 -1.0593495089426848
0.4189791 -0.3210964779467594 -1.061451182909981
0.420979 -0.31494254514207265 -1.0641971894531903
0.4229789 -0.30922907792693893 -1.0656005920021319
0.4249788 -0.30244590392252574 -1.0683675534895394
0.4269787 -0.29578212488659056 -1.0705122961499294
0.4289786 -0.289028311201388 -1.0723057304663313
0.4309785 -0.28265289837508184 -1.073930809754009
0.4329784 -0.27603742545925763 -1.077283485306335
0.4349783 -0.26952267961630927 -1.0780068170301536
0.4369782 -0.2626647181379935 -1.0788784618009268
0.4389781 -0.2554145124639621 -1.0812385089205485
0.440978 -0.24946108140918932 -1.0821166021376847
0.4429779 -0.24198825496757867 -1.0842749258443005
0.4449778 -0.23635145042756742 -1.086720006628295
0.4469777 -0.2286731103911255 -1.088162347176159
0.4489776 -0.2215996254595694 -1.0892384789940632
0.4509775 -0.21563205671097613 -1.0916450910286173
0.4529774 -0.20885984092921844 -1.0934019637642796
0.4549773 -0.20129369728184437 -1.0935708363223773
0.4569772 -0.19506610222376847 -1.0956263392376406
0.4589771 -0.1886722275729334 -1.0966303749441557
0.460977 -0.18136996907199054 -1.097203063402982
0.4629769 -0.1748911362346645 -1.099206784311041
0.4649768 -0.16770004503323838 -1.0998575304585159
0.4669767 -0.1605845179638922 -1.1018601983674192
0.4689766 -0.1533588439506175 -1.102725563699106
0.4709765 -0.14763449762792866 -1.1043873585298465
0.4729764 -0.14073474439225175 -1.1049367328080644
0.4749763 -0.13348990797641955 -1.106235908656382
0.4769762 -0.12701906812452385 -1.1073917615796383
0.4789761 -0.11999706631253605 -1.1084335508774303
0.480976 -0.11373926910199444 -1.1090679971183623
0.4829759 -0.10547398015622686 -1.1094095056054984
0.4849758 -0.09914885003781831 -1.1097372822151392
0.4869757 -0.09204511526958406 -1.1105089221207833
0.4889756 -0.08527353721789196 -1.110410401985728
0.4909755 -0.07873935006344891 -1.1117834396360482
0.4929754 -0.07184286616729879 -1.1124967499403666
0.4949753 -0.06402673826046149 -1.1133210583846844
0.4969752 -0.05609730905368317 -1.1138525423447097
0.4989751 -0.05019450071626677 -1.114443131782401
0.500975 -0.04304984035758418 -1.1146940949606992
0.5029749 -0.03619169972833773 -1.1152338148664709
0.5049748 -0.0291366905354197 -1.1148783125688932
0.5069747 -0.022456154775837366 -1.116083734429536
0.5089746 -0.015200278253766096 -1.1157134132010043
0.5109745 -0.008097392465916418 -1.1162480128028638
0.5129744 -0.001516723497165931 -1.116887692479794
0.5149743 0.0056331510134576684 -1.1165199510535484
0.5169742 0.012861231585765881 -1.1159557908251736
0.5189741 0.01948257411208912 -1.1157079413684363
0.520974 0.02689574408332318 -1.1158451777172016
0.5229739 0.03392078229883774 -1.115288538374218
0.5249738 0.040240147591798656 -1.1159258827329177
0.5269737 0.047359069974533846 -1.1153827525321294
0.5289736 0.0549582549008049 -1.1149316799383289
0.5309735 0.06155723748073291 -1.115333474789641
0.5329734 0.0690131574785256 -1.1149507778395478
0.5349733 0.07595239111519579 -1.1148757101733646
0.5369732 0.0830159281200123 -1.11425565056954
0.5389731 0.08944025357666179 -1.114168721462332
0.540973 0.09766179883979222 -1.113712715988293
0.5429729 0.10406892866959556 -1.1136971141601157
0.5449728 0.11099983996339906 -1.1129098440300855
0.5469727 0.11823849390308201 -1.1118785148552806
0.5489726 0.12546802554588538 -1.1112607249477076
0.5509725 0.1320815231027941 -1.1105816211420305
0.5529724 0.1391154751634413 -1.1091934741901055
0.5549723 0.14621829649634238 -1.1080377317287309
0.5569722 0.15343502959766453 -1.1079665900627502
0.5589721 0.16004968263941016 -1.107405101882674
0.560972 0.1673351415088269 -1.1069448036725118
0.5629719 0.17503637163566027 -1.1050509730445948
0.5649718 0.18190040009370861 -1.1046993637493505
0.5669717 0.18904753073821062 -1.103227834606306
0.5689716 0.19540584396704266 -1.102623825202776
0.5709715 0.2026201159468637 -1.1020329660851003
0.5729714 0.20996696332633127 -1.0993782841400117
0.5749713 0.2172172186698445 -1.0987689764249604
0.5769712 0.22421455470417725 -1.0977050512039745
0.5789711 0.23168442135239303 -1.0963243378226375
0.580971 0.23786894515658147 -1.0950192081647983
0.5829709 0.24565182570894079 -1.0929765551688255
0.5849708 0.25159438125816436 -1.0913340948580232
0.5869707 0.2590923922791486 -1.0892997098060901
0.5889706 0.265809385737234 -1.0881826032291564
0.5909705 0.27365048978952655 -1.0865639770550408
0.5929704 0.2800333810568315 -1.0853583759540195
0.5949703 0.2872068367520979 -1.0830568312024016
0.5969702 0.2939066815084534 -1.081303624818092
0.5989701 0.3014229286149228 -1.0799472109377857
0.60097 0.307858982779483 -1.077804076588694
0.6029699 0.31521140031259004 -1.0759832521146662
0.6049698 0.3221355980601435 -1.074713547458264
0.6069697 0.32922292605184655 -1.072659332637743
0.6089696 0.3367614078257881 -1.0705839446809258
0.6109695 0.3429576373555303 -1.0685913766566837
0.6129694 0.35002732254771596 -1.066258890529524
0.6149693 0.3568056625504294 -1.0648512927567497
0.6169692 0.36404707831613925 -1.0620445406651453
0.6189691 0.3706814739766513 -1.0598869036599867
0.620969 0.3769557810118981 -1.0566318839671909
0.6229689 0.38395074717245015 -1.054616818754338
0.6249688 0.3905276154081876 -1.052754445449502
0.6269687 0.39791375849520005 -1.0501401859925348
0.6289686 0.40450205833666053 -1.047076486769224
0.6309685 0.4113918314835291 -1.0452459986048375
0.6329684 0.41820647864710947 -1.0430375529904703
0.6349683 0.42529584566581885 -1.039686245788298
0.6369682 0.4316177542164368 -1.0375629362294714
0.6389681 0.4391758783620362 -1.035017739438873
0.640968 0.44606376336026515 -1.032171375177243
0.6429679 0.4526834499332544 -1.0293782054336469
0.6449678 0.4592006308761271 -1.0266668042008824
0.6469677 0.46637486050985105 -1.0229086341641016
0.6489676 0.47233810338001525 -1.0197755216896531
0.6509675 0.479777516403783 -1.0171025726841483
0.6529674 0.4863571536736331 -1.0132991693285747
0.6549673 0.49244382822570976 -1.0101390984093266
0.6569672 0.4993029107988911 -1.0070874323213876
0.6589671 0.5053171814813545 -1.0034874638035787
0.660967 0.5121498665131933 -1.0004340496634252
0.6629669 0.5182211600204629 -0.9973965550070272
0.6649668 0.5250247998094681 -0.9940434343851945
0.6669667 0.5310604401330861 -0.9907219446493212
0.6689666 0.5381335523790659 -0.9869845085741272
0.6709665 0.5436778154218739 -0.9837646236328913
0.6729664 0.5514951641776952 -0.9801333411682633
0.6749663 0.5576447545001889 -0.9778796512385554
0.6769662 0.5640553041096669 -0.9739656557003593
0.6789661 0.5706200396330614 -0.9699501475010107
0.680966 0.576479106562708 -0.9665613028080513
0.6829659 0.5835233889037358 -0.9626307370502621
0.6849658 0.589390862470351 -0.9584461163240189
0.6869657 0.5960477701214257 -0.9554805595875954
0.6889656 0.6023786627648502 -0.9512908351568568
0.6909655 0.6088288720906411 -0.9470136201156432
0.6929654 0.6151269895169623 -0.9431844809582232
0.6949653 0.6210397579024254 -0.9396876655965173
0.6969652 0.6269483272693201 -0.9351511886112667
0.6989651 0.6331371218431476 -0.9311829656288645
0.700965 0.6394916889452815 -0.9265052202045877
0.7029649 0.645763479367389 -0.9232738683040995
0.7049648 0.6518560858129938 -0.9186760325128167
0.7069647 0.6581445061595145 -0.9142853432521829
0.7089646 0.6640614467742956 -0.9103260231888148
0.7109645 0.6701688358102176 -0.9055749269381983
0.7129644 0.6762860719729462 -0.9011177390959109
0.7149643 0.6821899671140375 -0.8971388440681607
0.7169642 0.6887044947178839 -0.8921280113825985
0.7189641 0.6941020765912502 -0.8879454822114684
0.720964 0.6999680009009221 -0.8833600221464513
0.7229639 0.7055013963793096 -0.878707432502888
0.7249638 0.711901384577293 -0.8736420066279453
0.7269637 0.717747246427367 -0.8692674341245831
0.7289636 0.7234639559377922 -0.8645710800800253
0.7309635 0.729678427871643 -0.8592539461133077
0.7329634 0.7348746477282021 -0.8542654355361566
0.7349633 0.7402829114973327 -0.8497607854598574
0.7369632 0.7462053119233896 -0.8445323470417501
0.7389631 0.75160689107199 -0.8402413129185675
0.740963 0.7576803660825198 -0.8345941369496033
0.7429629 0.7626364069539125 -0.8300624615200716
0.7449628 0.7681064220805733 -0.8250659337316998
0.7469627 0.7733520549952568 -0.8200990523000612
0.7489626 0.7800502604029451 -0.8149588351370437
0.7509625 0.7851752469304887 -0.8100682462746785
0.7529624 0.7906732639315036 -0.8043182232680771
0.7549623 0.7954339235264398 -0.799264795383015
0.7569622 0.8015929415077269 -0.7936741725433574
0.7589621 0.8068868013435121 -0.7894912548730202
0.760962 0.8125381795212216 -0.7834381992160258
0.7629619 0.8175557012764377 -0.7783566191469936
0.7649618 0.8229937187504696 -0.7726796264865895
0.7669617 0.8278286284370796 -0.7671494615586443
0.7689616 0.833913958342371 -0.7620263931473242
0.7709615 0.8383153800682147 -0.7564849997402628
0.7729614 0.8439509787517945 -0.7501394420930673
0.7749613 0.8486396206944127 -0.7452241157278722
0.7769612 0.8542380166212655 -0.7401563479764925
0.7789611 0.8590988601566696 -0.7337300884227901
0.780961 0.8636936198774371 -0.7280265952546363
0.7829609 0.8686498685818729 -0.7216372592471336
0.7849608 0.8734852972662406 -0.7165730049646959
0.7869607 0.878472078093337 -0.710238642668654
0.7889606 0.8832510409397692 -0.7034692879871531
0.7909605 0.8875922143280532 -0.6986273540563503
0.7929604 0.8927494547664727 -0.6921347675162488
0.7949603 0.8975116626619937 -0.6862636413982722
0.7969602 0.9015697087590837 -0.6798230556330925
0.7989601 0.9064712389777472 -0.6738513465448955
0.80096 0.9112029264306952 -0.6680127195703128
