! Created with skrf 1.8.0 (http://scikit-rf.org).
# GHz S RI R 50.0 
!freq ReS11 ImS11
0.001 1.010832673210625 0.0030085334863649837
0.0029999 1.0117943610273685 0.016578866249361043
0.0049998 1.0120132377254822 0.023944177809205852
0.0069997 1.0136631809074257 0.03055110354834836
0.0089996 1.0156326752571074 0.03757369179590758
0.0109995 1.0158078487809115 0.044403429444301284
0.0129994 1.0154189672293377 0.0505359765821999
0.0149993 1.0158430100948173 0.05924949473691869
0.0169992 1.0153523112776837 0.06580009788731339
0.0189991 1.0148949638599014 0.07339559343729556
0.020999 1.014411644983528 0.08088544589033547
0.0229989 1.014352799984516 0.08823002306458111
0.0249988 1.0136933121534746 0.09557914591826203
0.0269987 1.0134523590743456 0.10290036046043448
0.0289986 1.0119617655236441 0.11039460736160901
0.0309985 1.0117408036316926 0.11829616350315618
0.0329984 1.0109510757593398 0.12490550713296009
0.0349983 1.0100798019951323 0.13256615235029973
0.0369982 1.0077841129844487 0.14002675641861512
0.0389981 1.0080669759310061 0.1469526644297866
0.040998 1.0072205230189704 0.15403030105099808
0.0429979 1.0064835460959596 0.16211444219548646
0.0449978 1.0045916217437272 0.16913999355648066
0.0469977 1.0026442048969606 0.17717466983812985
0.0489976 1.0030171077470917 0.1836828665260491
0.0509975 1.0012975433427005 0.1910681308038362
0.0529974 0.9996972614018075 0.19858018714704048
0.0549973 0.9979109182866879 0.20483304680192846
0.0569972 0.9972043137278367 0.21249185392564524
0.0589971 0.9953655512303649 0.22031388123949308
0.060997 0.9940793577730319 0.2272816992953102
0.0629969 0.9922684931408218 0.23540653336338593
0.0649968 0.9904997063578307 0.2419981133303078
0.0669967 0.989325600218717 0.24871907765242798
0.0689966 0.9871653164919588 0.2560791344295169
0.0709965 0.985013624212538 0.2642166859535596
0.0729964 0.9833928283814577 0.2708637125941583
0.0749963 0.9816306879592328 0.27776335417059406
0.0769962 0.9793555997656702 0.2854936742305775
0.0789961 0.9778924764743117 0.29220582770813924
0.080996 0.975014590640485 0.2994619080822205
0.0829959 0.9739491147499788 0.30649618037747783
0.0849958 0.970404551427974 0.3131064504856371
0.0869957 0.9690916459914425 0.3205843160628297
0.0889956 0.9661809368509334 0.3283758602111909
0.0909955 0.9637050613457655 0.3342096980049852
0.0929954 0.9625028352559379 0.3419028586911998
0.0949953 0.9590865683933112 0.35017099738101476
0.0969952 0.9559627790720195 0.35637618178470837
0.0989951 0.9545383628399411 0.3636466109379669
0.100995 0.9515508338101046 0.3686356558855441
0.1029949 0.948856431515044 0.3764972466456575
0.1049948 0.9458331574359211 0.38327306420403107
0.1069947 0.9433984331164786 0.3901813118891048
0.1089946 0.9402549897549357 0.39738063931096923
0.1109945 0.9376554654979492 0.4040352115489333
0.1129944 0.9348662504685175 0.4109927069673594
0.1149943 0.9317828277012373 0.4180456955868674
0.1169942 0.928042677552851 0.42498264589526685
0.1189941 0.926876179423719 0.43063837258602505
0.120994 0.9230547633123595 0.4371643153574306
0.1229939 0.9197684335053834 0.4449600111269138
0.1249938 0.9167995978250253 0.45047926384774173
0.1269937 0.9131856662928586 0.4587389468978804
0.1289936 0.909385383269998 0.46530927789964616
0.1309935 0.9073576406142403 0.4705840033774162
0.1329934 0.9024395915253822 0.47796124399371
0.1349933 0.8998478364859256 0.483955062492501
0.1369932 0.8959221161748138 0.4908549800405366
0.1389931 0.893385820364265 0.49738208633613074
0.140993 0.8883931376168763 0.5047124711353714
0.1429929 0.8853188899731738 0.5103396895344218
0.1449928 0.881825100787444 0.5174209390762015
0.1469927 0.8777041867189412 0.5231856922637386
0.1489926 0.8738115970727204 0.5309665280459066
0.1509925 0.8710474074741914 0.5361609224493834
0.1529924 0.866652030002158 0.5425616969254831
0.1549923 0.8626896077927267 0.5484227519106453
0.1569922 0.8584132436725707 0.5540608495496242
0.1589921 0.8547587979867394 0.5604213389121063
0.160992 0.8507701444980683 0.5660864015287262
0.1629919 0.8477177615356648 0.5738742376618247
0.1649918 0.8435241991530944 0.5799437203994572
0.1669917 0.8390748962067582 0.5850250795084826
0.1689916 0.8337136015262826 0.5909121460133248
0.1709915 0.8306818707037074 0.5978096542742557
0.1729914 0.8266099004229823 0.6039654096084089
0.1749913 0.821129115678587 0.6098875468609908
0.1769912 0.8172476971200378 0.6146216570399041
0.1789911 0.8125874615496765 0.6207610504225366
0.180991 0.8080567695884405 0.6272505432280556
0.1829909 0.8046406728248289 0.6319693020826944
0.1849908 0.799138520521517 0.6389030348565293
0.1869907 0.7945597498227788 0.6446857766740482
0.1889906 0.7901925580617326 0.649738443117644
0.1909905 0.7856044459072536 0.6560101318633764
0.1929904 0.7810021937863364 0.660712878124795
0.1949903 0.7764726575206066 0.6666252605153273
0.1969902 0.771917324988012 0.6726153806313856
0.1989901 0.7668042399338728 0.6766649394384907
0.20099 0.7615673201184778 0.6833517360306609
0.2029899 0.7573808707960226 0.6892966720196163
0.2049898 0.7528095425966056 0.6940455577392962
0.2069897 0.7470987353882699 0.6993099155894829
0.2089896 0.7418102626155704 0.7053905840427322
0.2109895 0.7372583953747014 0.7109142933150636
0.2129894 0.7321809653697124 0.7163201944358262
0.2149893 0.7269757093310859 0.7207516427653209
0.2169892 0.7218215574086697 0.7269980165076201
0.2189891 0.7166896920271416 0.7311405406950945
0.220989 0.7113589105969238 0.7362073699764762
0.2229889 0.7065676897322553 0.741368797364562
0.2249888 0.7011263771398889 0.7474102115381657
0.2269887 0.6960301113256961 0.7522048817474472
0.2289886 0.6904118994571995 0.7562149464841381
0.2309885 0.6855177483827211 0.7612521094537132
0.2329884 0.680137469151551 0.7664506830488639
0.2349883 0.6750026661214954 0.7715369554554427
0.2369882 0.6685696135509913 0.776615066071595
0.2389881 0.6633689080517141 0.7808012671288878
0.240988 0.6586401509256506 0.7861590398825768
0.2429879 0.6532040204054124 0.7907188734949244
0.2449878 0.646809711125367 0.7952574317835688
0.2469877 0.6411002487028308 0.7993384653383204
0.2489876 0.6359881214004582 0.8040254340432529
0.2509875 0.6294158983943549 0.8083338545502504
0.2529874 0.6241796138224863 0.8134644102529088
0.2549873 0.6182637891985522 0.8180554447157917
0.2569872 0.612608535686433 0.8219006916459918
0.2589871 0.6071710016008459 0.8266641029852674
0.260987 0.6011923569335493 0.8307223839688646
0.2629869 0.5949846042884911 0.8355367000098834
0.2649868 0.5898375298954597 0.8394284151077774
0.2669867 0.5833544074955835 0.8429307284913168
0.2689866 0.5776402059585217 0.8476261979716257
0.2709865 0.5716159099450753 0.8531230520558963
0.2729864 0.565702729556678 0.8569800964323022
0.2749863 0.5591628187959776 0.8594456512384383
0.2769862 0.553419662152551 0.8637604799165828
0.2789861 0.5470231940722 0.867669694326914
0.280986 0.5412789308942731 0.8726543092742425
0.2829859 0.5351233258456889 0.8754932222344938
0.2849858 0.5291454323277165 0.8791157401836973
0.2869857 0.5232038259210704 0.8843533099504154
0.2889856 0.5166413147948064 0.886520139616597
0.2909855 0.509877526930508 0.8901873493893334
0.2929854 0.50378513831811 0.8944242344850754
0.2949853 0.49793591444688556 0.8984682317759985
0.2969852 0.49164369831654364 0.9017948992096882
0.2989851 0.4851581767417453 0.9053759267864213
0.300985 0.4793655584367241 0.9088465862163513
0.3029849 0.47226641791274915 0.911686661172581
0.3049848 0.466032539425207 0.9161869805810311
0.3069847 0.45962655211511416 0.9195145170263249
0.3089846 0.45417120802176525 0.9208996097966918
0.3109845 0.44745706181147826 0.9247059404240471
0.3129844 0.4407368188356162 0.9277135695567381
0.3149843 0.4347392863223432 0.9312618170102595
0.3169842 0.4289473960595864 0.934169324535511
0.3189841 0.4203390069019787 0.9371312355793459
0.320984 0.414840246997584 0.9402296655653668
0.3229839 0.40803185336068476 0.9434639273827204
0.3249838 0.4012736434922394 0.9462908024003555
0.3269837 0.39543227141279297 0.9490100457898499
0.3289836 0.3886136143713017 0.9521164950356295
0.3309835 0.38200692753637955 0.9550318913541475
0.3329834 0.3744671523301277 0.9564759428481784
0.3349833 0.367825139505909 0.9602867465504166
0.3369832 0.36187549820154785 0.9625020719913929
0.3389831 0.3560603601383123 0.965315443335207
0.340983 0.34931071182124446 0.9670622292233702
0.3429829 0.34220397428993354 0.9701887244688718
0.3449828 0.3353827160398122 0.9720803012632868
0.3469827 0.32856399060145414 0.9744166553875556
0.3489826 0.3221977184738609 0.9767988008142001
0.3509825 0.3154819194385927 0.978740674474689
0.3529824 0.3086468351541247 0.9818469816233825
0.3549823 0.302199602921929 0.9839467568128817
0.3569822 0.29533438644968446 0.9855312291433784
0.3589821 0.2882471211256334 0.988197568956645
0.360982 0.28080663366537906 0.9901131295163573
0.3629819 0.27471750086091723 0.9926220907783478
0.3649818 0.26858651682438134 0.9942602027830171
0.3669817 0.2615202557684312 0.9964504151128367
0.3689816 0.25403152243982446 0.9981619141925839
0.3709815 0.24835911816870582 0.9999477310866371
0.3729814 0.24108774265605162 1.0016253461928943
0.3749813 0.23404023967359333 1.0039377960877542
0.3769812 0.22729242245980824 1.005228756687029
0.3789811 0.21996658017620102 1.006610482087767
0.380981 0.21289260819319397 1.0078939592383078
0.3829809 0.20614159518134134 1.0088266027535973
0.3849808 0.19920625099141284 1.0109241480987743
0.3869807 0.19207948527463842 1.0123096578831012
0.3889806 0.18632549724688025 1.0143631725497466
0.3909805 0.17910564000513793 1.0154501654965313
0.3929804 0.17128088567996483 1.01603928146773
0.3949803 0.1648681026607996 1.0178333783383122
0.3969802 0.1576683469561576 1.0189133102671926
0.3989801 0.1511580079107722 1.0203404819083692
0.40098 0.14391873009024814 1.0211125914993515
0.4029799 0.13690343234781865 1.0221315513998104
0.4049798 0.12985404305753362 1.0230563563800184
0.4069797 0.12310120277906814 1.0240953614729382
0.4089796 0.11670594810290447 1.0250250469922852
0.4109795 0.10871609333863842 1.0256188096640237
0.4129794 0.10231312612197971 1.0271736700527678
0.4149793 0.0951555901485035 1.0272513496765243
0.4169792 0.08810876209803634 1.0292981778605286
0.4189791 0.08169236656759407 1.0296346991720067
0.420979 0.07442850466858007 1.0303152625556276
0.4229789 0.06694950513514444 1.0302601531319255
0.4249788 0.059811094676051516 1.0313284389057267
0.4269787 0.05332595856774976 1.0315343575676845
0.4289786 0.04648331227193955 1.0320603352857354
0.4309785 0.0397110443894545 1.0318328841151263
0.4329784 0.03202009232091653 1.0324349664899768
0.4349783 0.024973577148330706 1.0330494547907139
0.4369782 0.018636140133877196 1.033659645595866
0.4389781 0.011165464392426439 1.0339665848198951
0.440978 0.0038849787636142247 1.0335969240535712
0.4429779 -0.0023927813580350704 1.0341228954853252
0.4449778 -0.00984522882909649 1.0339748951329026
0.4469777 -0.016798181075792083 1.0337708521256894
0.4489776 -0.023183001322181845 1.0340839155286754
0.4509775 -0.030739903930076688 1.033271051918321
0.4529774 -0.03803820791518682 1.0330826295509603
0.4549773 -0.04375031183609731 1.0334086672777678
0.4569772 -0.051579625712690216 1.0330548861813107
0.4589771 -0.05810611428267731 1.0331452664783507
0.460977 -0.06518756022888089 1.0333477193251823
0.4629769 -0.07265684258097628 1.0325024175170305
0.4649768 -0.07889824447148579 1.0325708780934009
0.4669767 -0.08616291429422201 1.031843983717301
0.4689766 -0.09295535472996422 1.0308661662935334
0.4709765 -0.09999292167308275 1.0308583354713898
0.4729764 -0.10696111953227161 1.0295185351706593
0.4749763 -0.1136233152202101 1.0289799641847857
0.4769762 -0.12046252366638774 1.0284781230870985
0.4789761 -0.1277172497378621 1.0277846904642178
0.480976 -0.13406362640397218 1.0267832409465947
0.4829759 -0.14077440318797052 1.026485549820156
0.4849758 -0.1477621550571196 1.0253774217499483
0.4869757 -0.15468485974591967 1.0243866488028124
0.4889756 -0.1618601334790184 1.0240947800705744
0.4909755 -0.16869095996025085 1.0228079630773703
0.4929754 -0.17554888416482112 1.0213954934987002
0.4949753 -0.18199675169914234 1.0205053278840048
0.4969752 -0.18857959812539782 1.0194451166862621
0.4989751 -0.19598063779168073 1.0187117918152315
0.500975 -0.2023277481233212 1.0171147457149763
0.5029749 -0.2091180943333632 1.0162024675835846
0.5049748 -0.21571929159871922 1.014818314158764
0.5069747 -0.22210749629895826 1.013498319073423
0.5089746 -0.22909453078842107 1.0117516088244851
0.5109745 -0.23551988766845267 1.0106601959451913
0.5129744 -0.24236071274683785 1.0087196001667667
0.5149743 -0.24904160819411336 1.0070093822404185
0.5169742 -0.2555320896518777 1.0057057328649968
0.5189741 -0.2621594885329946 1.00430906711071
0.520974 -0.26899304140970026 1.0027835738542292
0.5229739 -0.2754843748151976 1.0011488391409051
0.5249738 -0.28244079438478986 0.9992010622133157
0.5269737 -0.28874745510319133 0.9978164627143691
0.5289736 -0.29515645564164417 0.9957657781273124
0.5309735 -0.30238753729088935 0.9938066927941104
0.5329734 -0.3084684683481794 0.9923213439226249
0.5349733 -0.31484787380234425 0.9902414711854891
0.5369732 -0.3216380074759444 0.9883349968248528
0.5389731 -0.327728602448923 0.9860229754668137
0.540973 -0.3345526836253391 0.983866468929418
0.5429729 -0.34095154193469673 0.9815763404393913
0.5449728 -0.34750761141743725 0.9797567882491155
0.5469727 -0.3536944069237651 0.9776139838445247
0.5489726 -0.3602132630695408 0.9753591453096708
0.5509725 -0.36669429124551406 0.9735369141808765
0.5529724 -0.37284483199494195 0.9713339503650273
0.5549723 -0.37933665816484224 0.9688598133591882
0.5569722 -0.3859084524127828 0.9661962762310434
0.5589721 -0.39214267421496984 0.9637738620148081
0.560972 -0.3983916920233308 0.9616386965174407
0.5629719 -0.40465312094364786 0.9591433405117171
0.5649718 -0.4108971285394242 0.9564020208597704
0.5669717 -0.4171555619610323 0.9540157688133609
0.5689716 -0.4242046294466246 0.9513927794255381
0.5709715 -0.4299314957529462 0.948423259455374
0.5729714 -0.43582303777000986 0.9461861732056598
0.5749713 -0.44209639194297523 0.9435915749135094
0.5769712 -0.4483772328037144 0.9406765946889704
0.5789711 -0.45429965116707693 0.9375766690485081
0.580971 -0.46059848110195994 0.9345845473249734
0.5829709 -0.4666833827335897 0.9316451188762752
0.5849708 -0.4729514515609943 0.9291491115949859
0.5869707 -0.47861278755260733 0.9263183167422994
0.5889706 -0.48503624399100653 0.9231211061641886
0.5909705 -0.4905285521008161 0.9202129239392458
0.5929704 -0.4970941004808348 0.9170154992606401
0.5949703 -0.5027732041545436 0.9141531824040565
0.5969702 -0.5082762504002478 0.9110399742330456
0.5989701 -0.5147546710189336 0.9075675413654595
0.60097 -0.5208460808992901 0.9047509549690492
0.6029699 -0.5269139336398992 0.9015144084581976
0.6049698 -0.532271643865489 0.898022728305201
0.6069697 -0.5380523821239026 0.8946572940886516
0.6089696 -0.544103224426261 0.8910141822335261
0.6109695 -0.5498470947543186 0.8878013639091501
0.6129694 -0.5556927735042757 0.884538482331685
0.6149693 -0.5609127270061088 0.8809531126889923
0.6169692 -0.5668468251495249 0.8770034943865443
0.6189691 -0.5727385788090289 0.8739041759174279
0.620969 -0.5783603988856321 0.8705843546322685
0.6229689 -0.584181631832121 0.8671180715668185
0.6249688 -0.5897892352176697 0.8631727029129158
0.6269687 -0.5951809352992126 0.8595871304707703
0.6289686 -0.6005778533738219 0.8559710582037721
0.6309685 -0.6064352804502082 0.8519303553106673
0.6329684 -0.6117543461360094 0.8485966813802794
0.6349683 -0.6175539007382794 0.8446789644997887
0.6369682 -0.6228368545241387 0.8408772706709224
0.6389681 -0.6280033459610168 0.8372960051536227
0.640968 -0.633791334399 0.8327486509276726
0.6429679 -0.6391237460043314 0.8292662143132511
0.6449678 -0.6443864829171287 0.8252608982776773
0.6469677 -0.6498463555509402 0.8213349715055317
0.6489676 -0.6548993713754934 0.817402383541457
0.6509675 -0.6602912045528002 0.8131080816726628
0.6529674 -0.6656158945560663 0.8089572378765485
0.6549673 -0.6703137951580094 0.8051794414223353
0.6569672 -0.6757079626421076 0.8011850644020746
0.6589671 -0.6806010085950688 0.7967097389606869
0.660967 -0.6862798331662011 0.7927018575060768
0.6629669 -0.6912717286790523 0.7884857560879561
0.6649668 -0.696119465879136 0.784333710391299
0.6669667 -0.7014139738175141 0.7798188131808244
0.6689666 -0.7059414583542571 0.7756113146990802
0.6709665 -0.7112791081719257 0.7713703259341463
0.6729664 -0.7161675308033096 0.7667123908843323
0.6749663 -0.7210147347772131 0.7625917919018685
0.6769662 -0.7257900418529013 0.7577944542994601
0.6789661 -0.7307843242728536 0.7534444671772312
0.680966 -0.7354314880263109 0.7493318716025793
0.6829659 -0.7401296303696268 0.7446655190668152
0.6849658 -0.7448964935667746 0.740204219857729
0.6869657 -0.7498074104418059 0.7354469415471133
0.6889656 -0.7545855468060293 0.7310503596927621
0.6909655 -0.7589839467849671 0.7264942569014479
0.6929654 -0.763876052624696 0.7216016950083756
0.6949653 -0.7685121950095424 0.7169455411843516
0.6969652 -0.7730666669025704 0.7124278579605801
0.6989651 -0.7777289929296863 0.7074624239065948
0.700965 -0.7823107262054414 0.7028459634781288
0.7029649 -0.7867333530135356 0.698104102036547
0.7049648 -0.7910852516577276 0.6932458927409679
0.7069647 -0.7956909591086897 0.6885464818878828
0.7089646 -0.8000889963053675 0.6832388554164441
0.7109645 -0.804301414257331 0.6784720266518598
0.7129644 -0.8087224772210505 0.6737868770008857
0.7149643 -0.8130168481269788 0.6687011223317836
0.7169642 -0.817336728822541 0.6637815352664389
0.7189641 -0.8217081193162366 0.6586160006078392
0.720964 -0.8259591775143968 0.6538008401984836
0.7229639 -0.8301618882366233 0.6486668722641153
0.7249638 -0.8340666398061368 0.6434430049794994
0.7269637 -0.8382879168367184 0.6382421803522005
0.7289636 -0.8424659213704057 0.6335099623709001
0.7309635 -0.84639469540448 0.6279739519633625
0.7329634 -0.8503150017899876 0.6230107635485076
0.7349633 -0.8541938615770513 0.6179874944741097
0.7369632 -0.8584011518003304 0.612552356258504
0.7389631 -0.8621911744824927 0.6073980378509585
0.740963 -0.8661646624324886 0.6021154291000997
0.7429629 -0.8701269387515103 0.5965650447024556
0.7449628 -0.8737002213328484 0.5915604945672293
0.7469627 -0.8773880818296617 0.5860120000035665
0.7489626 -0.8810146791233817 0.5807559871385983
0.7509625 -0.8851103616640245 0.5755167094773903
0.7529624 -0.8882317613788414 0.5699440159118743
0.7549623 -0.8920688930690198 0.5646149717379197
0.7569622 -0.895827538119487 0.5592439125670873
0.7589621 -0.8995004810066147 0.5539284493573244
0.760962 -0.9027543805816736 0.5485345147549541
0.7629619 -0.9064978816612758 0.5427400628554025
0.7649618 -0.9099049944856777 0.5372419672489729
0.7669617 -0.9131941116063301 0.5319230292182121
0.7689616 -0.916849892245897 0.5262753783791236
0.7709615 -0.9203325757473404 0.5207972343640355
0.7729614 -0.9233747536198699 0.5150972582982858
0.7749613 -0.9268119310489713 0.5094915164477329
0.7769612 -0.9303188407295861 0.5039268527803434
0.7789611 -0.9332544249730228 0.4983085296392907
0.780961 -0.9366348504026537 0.49265388177781894
0.7829609 -0.9397221818474488 0.48701063073979267
0.7849608 -0.9428835782099982 0.4813348240862262
0.7869607 -0.9459430929524144 0.475484512765005
0.7889606 -0.9490046343586505 0.46988690525118226
0.7909605 -0.9521438228984658 0.4640906402565916
0.7929604 -0.9549873422089288 0.45849628216892724
0.7949603 -0.9580581258755625 0.4525845862702356
0.7969602 -0.9609381860256713 0.4468067800323411
0.7989601 -0.9638082295463615 0.44091918472401376
0.80096 -0.966602445154331 0.43522939864639015
0.8029599 -0.9693674043596017 0.42937681532992233
0.8049598 -0.9722111249029486 0.4235144448759935
0.8069597 -0.9749925922152246 0.417694176224199
0.8089596 -0.9777772792042394 0.41171925498310935
0.8109595 -0.9806576865818595 0.40621989594128444
0.8129594 -0.9829186053297329 0.40001667764373594
0.8149593 -0.9856573403146639 0.3940277576177205
0.8169592 -0.9880238377964415 0.38778879605464045
0.8189591 -0.9908852162516146 0.3823013286678473
