! Created with skrf 1.8.0 (http://scikit-rf.org).
# GHz S RI R 50.0 
!freq ReS11 ImS11
0.001 -0.3311691082983061 0.3098131956446338
0.0029999 -0.08375402854897401 0.19198030479425482
0.0049998 -0.048444717194192244 0.09857600006852137
0.0069997 -0.02194598498391033 0.10816993549164468
0.0089996 -0.0365721085743729 0.06939796240751929
0.0109995 -0.0395690468325384 0.05582689397853679
0.0129994 -0.02941932875826255 0.0546381034509887
0.0149993 -0.024312786478544887 0.04268662772495283
0.0169992 -0.024108983406788277 0.0399127357489023
0.0189991 -0.024616785114261606 0.040550103985901864
0.020999 -0.023161678593032423 0.03330843250298256
0.0229989 -0.019404899373868724 0.033170222304264786
0.0249988 -0.01885393898086158 0.028540008814416994
0.0269987 -0.023144782217094127 0.029079607796621536
0.0289986 -0.021713291047011446 0.025049631135144707
0.0309985 -0.021299771050092838 0.02314020561576297
0.0329984 -0.025304007957541938 0.023350660907521824
0.0349983 -0.021804207653256375 0.021899580774388167
0.0369982 -0.023398800995312333 0.01930083400246344
0.0389981 -0.021579233795850906 0.0206993810065193
0.040998 -0.0231670672192548 0.022092453554224414
0.0429979 -0.022377009768752953 0.02043915015570096
0.0449978 -0.021472806055938185 0.01790530325499676
0.0469977 -0.023862366551432954 0.01631922129820855
0.0489976 -0.022941312903525708 0.019747076395904326
0.0509975 -0.022293022761977543 0.017922572059937955
0.0529974 -0.022446945383340643 0.013332634866645831
0.0549973 -0.022391620658796917 0.01618842357297672
0.0569972 -0.021512341710483458 0.016684302275374298
0.0589971 -0.022399005159528435 0.0153925460123511
0.060997 -0.02127758319928412 0.015444040629999062
0.0629969 -0.022492766881170113 0.014972094704856097
0.0649968 -0.021820613398297124 0.014616422084975964
0.0669967 -0.02115431524028543 0.016133642717387604
0.0689966 -0.021835856500809037 0.015453209590376455
0.0709965 -0.023409745124134018 0.015067791940089165
0.0729964 -0.02184859075414743 0.01534627129831501
0.0749963 -0.021790396609504287 0.015089758258551796
0.0769962 -0.02305297087371995 0.014842824384597284
0.0789961 -0.022957434388189972 0.015520465140989398
0.080996 -0.023084297391690142 0.014173522238544931
0.0829959 -0.022130024359720883 0.01539671114164936
0.0849958 -0.023227551151437553 0.014172279309572667
0.0869957 -0.022757821084080365 0.015274035939328894
0.0889956 -0.023484249440155525 0.014556831537941644
0.0909955 -0.0229293231022783 0.013700673151087901
0.0929954 -0.022353859350999716 0.01602439870915074
0.0949953 -0.02485491146040095 0.0162793049289635
0.0969952 -0.02533651338541748 0.014728810189509839
0.0989951 -0.025360826504614555 0.01661151546810481
0.100995 -0.024463982128464734 0.014761994857162326
0.1029949 -0.022843756797697595 0.01632943141227416
0.1049948 -0.02484038824587748 0.015466412155519787
0.1069947 -0.024642681453261074 0.015317620602694308
0.1089946 -0.025551454886780185 0.015044040062001728
0.1109945 -0.02556007621118475 0.01581321059183641
0.1129944 -0.02523676664117578 0.015170600256359763
0.1149943 -0.025759502660486582 0.015393710410692988
0.1169942 -0.02634564926387167 0.015171702464360455
0.1189941 -0.025467697479225157 0.015679359200340914
0.120994 -0.0249349003717781 0.015372279094659956
0.1229939 -0.02617160173201263 0.015552486555852892
0.1249938 -0.02550753273280913 0.015710763071902077
0.1269937 -0.02719113955588503 0.015860639023987946
0.1289936 -0.026391470817410164 0.01486025702101082
0.1309935 -0.025696660628541167 0.0152696514443906
0.1329934 -0.026024991615575997 0.015356001865651833
0.1349933 -0.02609124071842283 0.01549705791826099
0.1369932 -0.02633741844295346 0.015464702817688115
0.1389931 -0.025690650110345655 0.01588943197506328
0.140993 -0.028061338076928493 0.015545169378753108
0.1429929 -0.026291679319537856 0.01607175501564762
0.1449928 -0.026600136150729224 0.01627796179804206
0.1469927 -0.02665329418579844 0.01619617700593835
0.1489926 -0.02719872906033867 0.015988393591931816
0.1509925 -0.026673834164237367 0.017295167519980763
0.1529924 -0.026744629973145903 0.01674056101153394
0.1549923 -0.027501906003386853 0.017512661727276644
0.1569922 -0.027391903718761823 0.01711045796947227
0.1589921 -0.027604422946093048 0.017727394102808616
0.160992 -0.027031829596104825 0.017452956233850684
0.1629919 -0.027682510111917788 0.018400853562993435
0.1649918 -0.02808296432666235 0.01836532398034252
0.1669917 -0.028204755651282172 0.01835050014262627
0.1689916 -0.029051430209157673 0.018095112211340057
0.1709915 -0.02915288032711171 0.019008528735038655
0.1729914 -0.02926377120067776 0.019277571752596735
0.1749913 -0.02977314457443714 0.019203538526645813
0.1769912 -0.030090553861593126 0.01888475047086636
0.1789911 -0.030278732346523275 0.018744442283080184
0.180991 -0.030720626227904117 0.019379597361274654
0.1829909 -0.029950292877352118 0.018981596928628712
0.1849908 -0.03159923736174387 0.018718038078772117
0.1869907 -0.031223731111307718 0.01929679550551898
0.1889906 -0.031698260666553735 0.01856460376345368
0.1909905 -0.03198688889456312 0.0186962829920811
0.1929904 -0.03162169385812113 0.018384614155220025
0.1949903 -0.03192720102068852 0.018166059140624694
0.1969902 -0.03220203968482882 0.01860774532070359
0.1989901 -0.03188260563518311 0.017849738917552954
0.20099 -0.032841592245928114 0.01846562652812933
0.2029899 -0.032518143748496674 0.018761837526530732
0.2049898 -0.03262115432595421 0.018495172280684688
0.2069897 -0.03264255356886205 0.01878258313880247
0.2089896 -0.033578328485423616 0.018872981375583974
0.2109895 -0.03321241855117052 0.018785476324921217
0.2129894 -0.033421053353194806 0.01882905158969094
0.2149893 -0.03307832733276166 0.019250350462079284
0.2169892 -0.03338343327571571 0.019626376753736192
0.2189891 -0.0333869036312419 0.01926094309170799
0.220989 -0.03319107111003813 0.019542309591462075
0.2229889 -0.033290949994448794 0.019497765697856953
0.2249888 -0.034067511677864884 0.019957649719981436
0.2269887 -0.03418835490745644 0.02038669350244224
0.2289886 -0.034217455972459 0.02025942161540581
0.2309885 -0.03433797718592046 0.02056340259660954
0.2329884 -0.03474148996199698 0.020665219480452628
0.2349883 -0.03477572292262707 0.021068886007750698
0.2369882 -0.03529011131465034 0.021236891959558468
0.2389881 -0.035487871203223595 0.02095835162944747
0.240988 -0.03573445318118506 0.021843617006084805
0.2429879 -0.036057091779610584 0.021808028194935682
0.2449878 -0.036352267300336714 0.021488643481722296
0.2469877 -0.036773490725179436 0.02165109320448047
0.2489876 -0.036775495402579794 0.021739654530259417
0.2509875 -0.03737923697825953 0.0218244644540576
0.2529874 -0.037688362831411415 0.022089045805812134
0.2549873 -0.0381673904016059 0.022129696183163076
0.2569872 -0.03837894463321556 0.021829547082905826
0.2589871 -0.038666090421094035 0.0220806811879597
0.260987 -0.038627464688975474 0.021652359500464284
0.2629869 -0.03928177184287916 0.021809911175205417
0.2649868 -0.039043282234074134 0.022117251200121184
0.2669867 -0.03942179274086316 0.021481756538158443
0.2689866 -0.039726139901397804 0.021679438742185187
0.2709865 -0.040287279525225775 0.02238732298088378
0.2729864 -0.040284187695595955 0.022256723924398442
0.2749863 -0.040357594367292124 0.02174119878056275
0.2769862 -0.04061730693416386 0.02156748095171169
0.2789861 -0.040934217649932846 0.021970125870354004
0.280986 -0.04087640483661837 0.022265248408828545
0.2829859 -0.0406681801833165 0.02161074784197068
0.2849858 -0.04111029952556872 0.022056324623377654
0.2869857 -0.04133683353858704 0.02264213646351702
0.2889856 -0.0411915858383598 0.02199849816997771
0.2909855 -0.041743175296689444 0.022119569424553565
0.2929854 -0.04189602667461384 0.02231122568223625
0.2949853 -0.042109250253678135 0.02292781079711933
0.2969852 -0.04214708425788801 0.022715351887820576
0.2989851 -0.04257036436003405 0.023051092321290045
0.300985 -0.04305020790653662 0.023002742718604093
0.3029849 -0.04335354630094279 0.023117911455937876
0.3049848 -0.043502359480703086 0.023794964323595354
0.3069847 -0.04399487497559601 0.023848359598604013
0.3089846 -0.04384346323431586 0.02325421685009252
0.3109845 -0.044214666075506975 0.023383363492832134
0.3129844 -0.045000462246062946 0.023930791496026886
0.3149843 -0.04516523355032222 0.02349979548093379
0.3169842 -0.045110085191853166 0.024022887929261234
0.3189841 -0.046245295795954655 0.0236714694390503
0.320984 -0.04623759822389241 0.023726176572159946
0.3229839 -0.046143382936644925 0.023984267926362133
0.3249838 -0.04698390749285855 0.023771976433964295
0.3269837 -0.04681375895081952 0.023863620901084213
0.3289836 -0.047044056126441865 0.0239718441609131
0.3309835 -0.04823712937994229 0.024058824713501188
0.3329834 -0.048242101650299914 0.02347250319709587
0.3349833 -0.048605557663946294 0.023607378954514032
0.3369832 -0.04871787565771491 0.023685800587841352
0.3389831 -0.04865964113943598 0.023972153972407713
0.340983 -0.04878349656595439 0.023614446063194502
0.3429829 -0.04952659590134168 0.02356372148423422
0.3449828 -0.04964452858948802 0.023392114694228375
0.3469827 -0.049743499317166665 0.023286812487642295
0.3489826 -0.0499760445078936 0.023339606415102566
0.3509825 -0.05030993954399468 0.023073780553991792
0.3529824 -0.05027747959848199 0.023493250658155326
0.3549823 -0.05040637485439384 0.023507845806149303
0.3569822 -0.05048975466950267 0.023484432298658996
0.3589821 -0.05099796232225706 0.023283050134304394
0.360982 -0.05144213998315397 0.02326411492090936
0.3629819 -0.05156451199152998 0.02359931697379664
0.3649818 -0.051609026993812104 0.023379154416483944
0.3669817 -0.05187030520892919 0.02326801752689102
0.3689816 -0.05230052306319373 0.023722993510040265
0.3709815 -0.0520445503834948 0.02361257248305999
0.3729814 -0.05259829048528196 0.02367623569823813
0.3749813 -0.052924393919189724 0.023791888652808617
0.3769812 -0.05303713244496143 0.023996191471596307
0.3789811 -0.0532530777124469 0.02401486245720771
0.380981 -0.05389910690301092 0.023769184436954773
0.3829809 -0.05422173155709505 0.02362140346594944
0.3849808 -0.05458203446169823 0.023773372637049556
0.3869807 -0.05472990221135037 0.023992250772324277
0.3889806 -0.05463410648534187 0.02433289752667563
0.3909805 -0.055132293103935526 0.02419055484762867
0.3929804 -0.05582020882250986 0.02398885968998688
0.3949803 -0.05584407566248254 0.024117990842700845
0.3969802 -0.0565030761848375 0.023810929570178455
0.3989801 -0.05718246739629958 0.024003622846846144
0.40098 -0.056987375396167134 0.02373161592919348
0.4029799 -0.05779121188660909 0.02351066035187174
0.4049798 -0.0578512020105168 0.02382299769923536
0.4069797 -0.05814381822089329 0.023491711507758053
0.4089796 -0.05817215672775674 0.02333382813286378
0.4109795 -0.058558888236334 0.023080755992799025
0.4129794 -0.05899682051324989 0.023298855222133142
0.4149793 -0.05914117675666199 0.022897525245031917
0.4169792 -0.059415504287165535 0.023344354676949258
0.4189791 -0.059530641105057486 0.023011071569707667
0.420979 -0.05997273735710607 0.02306741993995613
0.4229789 -0.06058887821786229 0.023032416716071372
0.4249788 -0.06063681592875468 0.022934006662734048
0.4269787 -0.06080415355867311 0.02267283178685574
0.4289786 -0.06091103179123454 0.022740962454368272
0.4309785 -0.061365335405775094 0.022563103538305075
0.4329784 -0.061411778826579055 0.022342507914636562
0.4349783 -0.06188677895240798 0.022843383284820693
0.4369782 -0.06206089626900889 0.0225912958145416
0.4389781 -0.062287994690864226 0.022369325703821153
0.440978 -0.06267321796784181 0.022469733109569956
0.4429779 -0.06267453312836853 0.022646149644157558
0.4449778 -0.06323031238804308 0.022182601108661222
0.4469777 -0.06337462983256555 0.022308448536906878
0.4489776 -0.06360221584581101 0.022268934335152958
0.4509775 -0.0641745260609117 0.021848624076343075
0.4529774 -0.06437592280252397 0.021801312123918094
0.4549773 -0.06443309810112696 0.022037714329094488
0.4569772 -0.06502014554339568 0.021823276363928296
0.4589771 -0.06536060957657974 0.021856748797436116
0.460977 -0.06542243718741249 0.02174964961737476
0.4629769 -0.06583404645380264 0.02187124093047883
0.4649768 -0.0659174916560925 0.02176700641614454
0.4669767 -0.06638598733971283 0.021313910385888618
0.4689766 -0.06665227921645514 0.021016983809957642
0.4709765 -0.06705731069496906 0.020928239014003983
0.4729764 -0.06737732615785795 0.02076861697704168
0.4749763 -0.06769811261419545 0.020552445279751124
0.4769762 -0.06787560207172717 0.020529511873772676
0.4789761 -0.0681421767512644 0.020299751714875715
0.480976 -0.06837347738655612 0.0199752564326486
0.4829759 -0.06839050276733287 0.02012336256129249
0.4849758 -0.06887182649803839 0.020142400925482206
0.4869757 -0.06907016483673056 0.01995631311071552
0.4889756 -0.06924594876006225 0.02018049051375356
0.4909755 -0.06941384059552298 0.019967819596353877
0.4929754 -0.06997296636041417 0.019767117217102424
0.4949753 -0.06983020256230091 0.019545134978369957
0.4969752 -0.06994422771702896 0.019528451553681193
0.4989751 -0.07015724684029667 0.019611095634375214
0.500975 -0.07025951235386281 0.019469513795740155
0.5029749 -0.07066896452243254 0.01959072610853429
0.5049748 -0.0708092638645923 0.01956215944109177
0.5069747 -0.07115502375464891 0.01949828983077737
0.5089746 -0.07154618888394977 0.019455850447177587
0.5109745 -0.07169421693987446 0.019357460499332017
0.5129744 -0.07235210736341595 0.01883871109720692
0.5149743 -0.07261558285175138 0.01890271875833793
0.5169742 -0.07283308213568476 0.018934182562864832
0.5189741 -0.07323004386108822 0.018904317490271064
0.520974 -0.0734122181384066 0.018774438734671408
0.5229739 -0.07402332147060012 0.018768825269558864
0.5249738 -0.07435425133449343 0.018506434009227662
0.5269737 -0.07483312608493076 0.018513258209936784
0.5289736 -0.0750763198627295 0.018282053559382692
0.5309735 -0.0755862495530973 0.018027192039742887
0.5329734 -0.07561409093061504 0.017759530150546318
0.5349733 -0.07610534043310913 0.017654245194002393
0.5369732 -0.07652861400732441 0.017316001173978975
0.5389731 -0.07674147460121075 0.016782070580605303
0.540973 -0.07697454671663664 0.01664084059224402
0.5429729 -0.07735564421878169 0.016390695503566803
0.5449728 -0.07773403353201347 0.01621732938124719
0.5469727 -0.0778582614032017 0.015965899095113437
0.5489726 -0.07798373351805109 0.015588047020958277
0.5509725 -0.07826590420504381 0.015622686201850259
0.5529724 -0.07854468953574542 0.015374305765842512
0.5549723 -0.07874896896753089 0.015289463950615076
0.5569722 -0.07904747234266558 0.014748220204079013
0.5589721 -0.07929501470838442 0.014551939798606854
0.560972 -0.07918216705627022 0.01423547215955756
0.5629719 -0.07912116461090876 0.014030845386503375
0.5649718 -0.07912243959551767 0.01391190527317283
0.5669717 -0.0794097341847804 0.013874272415519365
0.5689716 -0.0796409450789705 0.013812971204748805
0.5709715 -0.08000798639943721 0.013509475112294979
0.5729714 -0.07979706691723543 0.013241642691884749
0.5749713 -0.07981805048234604 0.01322976962039209
0.5769712 -0.08055308103075255 0.012980452294646977
0.5789711 -0.0803651177908419 0.012983682321443868
0.580971 -0.08089333899844939 0.012981828880948013
0.5829709 -0.08125666331378378 0.01311010275357383
0.5849708 -0.08155779415046167 0.012988235825418432
0.5869707 -0.0817686165614297 0.012948329932602847
0.5889706 -0.08238875167994274 0.01290489939973639
0.5909705 -0.08201168487409066 0.0124923806590235
0.5929704 -0.08267530628397356 0.012238970031879067
0.5949703 -0.08300197319423569 0.01232457023387043
0.5969702 -0.0831608762759418 0.011838905771712562
0.5989701 -0.08363857200257548 0.011507681993308629
0.60097 -0.08389646997367779 0.011557645457522518
0.6029699 -0.08452788637969584 0.011117107659379066
0.6049698 -0.08490629200860633 0.010719047203567755
0.6069697 -0.08510968734228985 0.010528715802682699
0.6089696 -0.08529302238327932 0.010107938896915143
0.6109695 -0.0856214774861758 0.00974195111204993
0.6129694 -0.0859610321342322 0.009301485365988835
0.6149693 -0.0860835159368151 0.009017614065119903
0.6169692 -0.0864108970566557 0.00881408599655522
0.6189691 -0.08659088041602528 0.008547694648655096
0.620969 -0.0867177256551928 0.008377032182795535
0.6229689 -0.08700297634090212 0.008048882279849762
0.6249688 -0.08725941473103052 0.007775118008579315
0.6269687 -0.08729623111565832 0.007236590326756338
0.6289686 -0.08748870452603025 0.007151880718248647
0.6309685 -0.08761054646911282 0.006691337557702917
0.6329684 -0.08770446425389575 0.006447140592231788
0.6349683 -0.08756673021153048 0.0065473868659391005
0.6369682 -0.08791693070727816 0.0060220998550563
0.6389681 -0.0876909981538892 0.005843386491338767
0.640968 -0.08792864046969712 0.005837022321366063
0.6429679 -0.08784352091895259 0.0057698793753631905
0.6449678 -0.08834764428551385 0.005749197360550691
0.6469677 -0.08835610485055262 0.005622761554832184
0.6489676 -0.08877389718848049 0.005738156117909642
0.6509675 -0.08859040107962274 0.005493716478977874
0.6529674 -0.08900058032130279 0.005271836521108783
0.6549673 -0.08913134306525929 0.005095401096421225
0.6569672 -0.08935871084745343 0.004771531832285909
0.6589671 -0.0899971439901605 0.004865544451037505
0.660967 -0.09062873801608842 0.005010835296818776
0.6629669 -0.09083195879267908 0.004818793661034819
0.6649668 -0.09109970130349278 0.004306091956437247
0.6669667 -0.091455820337566 0.004244232861261472
0.6689666 -0.0915918837596478 0.003766453786292319
0.6709665 -0.0924109626189286 0.0038274863469924467
0.6729664 -0.09248656947198544 0.003310405472962387
0.6749663 -0.09273628985164309 0.0030118835953443293
0.6769662 -0.09290632489210657 0.002234723210414992
0.6789661 -0.09328232798233485 0.0021654444625275257
0.680966 -0.09352704630527045 0.0015024964096525262
0.6829659 -0.09355046700577485 0.0011177272726669227
0.6849658 -0.09378348406413899 0.0009159394104129165
0.6869657 -0.0940151478034621 0.0005828524870365448
0.6889656 -0.09425765226627228 6.54482133969278e-05
0.6909655 -0.09446266086359259 -0.0004051599617164517
0.6929654 -0.09458334302472546 -0.0011193712404562323
0.6949653 -0.09482957683505736 -0.001331346600302534
0.6969652 -0.09488756067190984 -0.0019074173826524737
0.6989651 -0.0950062248378689 -0.002386920138989536
0.700965 -0.09509092357839394 -0.002632866976708753
0.7029649 -0.0948575924209229 -0.0031078039112895223
0.7049648 -0.09507003400535831 -0.0034074304637768046
0.7069647 -0.09492380366266831 -0.0038060724707592447
0.7089646 -0.09480651324734393 -0.00408598070230911
0.7109645 -0.09476040751261394 -0.004291555061842839
0.7129644 -0.09430366010585496 -0.004433864674421487
0.7149643 -0.09458729621003528 -0.0047864166717133325
0.7169642 -0.09449995165212068 -0.0049942641280918965
0.7189641 -0.09469678917886205 -0.0049930069691309364
0.720964 -0.09482641776102166 -0.005024078345643626
0.7229639 -0.09528919166966279 -0.005247671405117331
0.7249638 -0.09482107726596518 -0.005746809901461515
0.7269637 -0.0949507532172274 -0.0057326954037300246
0.7289636 -0.0952557832560146 -0.00586612189009815
0.7309635 -0.09534110142007733 -0.006027178523513671
0.7329634 -0.09565886854679168 -0.0062498951862157495
0.7349633 -0.0957626702025792 -0.006444723270191674
0.7369632 -0.09613850571503604 -0.00644021584927857
0.7389631 -0.09666149883142537 -0.006649611270212338
0.740963 -0.09689547406369046 -0.0069441269659922394
0.7429629 -0.09731515260330266 -0.007238413338162542
0.7449628 -0.09750210979932251 -0.007370551075358667
0.7469627 -0.09805563957259278 -0.007939583863102524
0.7489626 -0.09811378090487087 -0.008410893302969392
0.7509625 -0.09858975396475454 -0.00887581144988192
0.7529624 -0.09894461928506827 -0.009305447697326684
0.7549623 -0.09922327738746425 -0.009650381344309532
0.7569622 -0.09928375894824044 -0.010171043614816976
0.7589621 -0.09948786885304953 -0.010837129310115056
0.760962 -0.09953675741037693 -0.011098761585256411
0.7629619 -0.09968190818868293 -0.011669084533447976
0.7649618 -0.10011833701452505 -0.012145122878555271
0.7669617 -0.09966831009157895 -0.012551555832491446
