! Created with skrf 1.8.0 (http://scikit-rf.org).
# GHz S RI R 50.0 
!freq ReS11 ImS11
0.001 -1.040707265377069 0.010908221889388559
0.0029999 -1.056285310641042 0.001696526760818079
0.0049998 -1.0613889081355694 -0.011790926117270839
0.0069997 -1.0620203632547438 -0.020265821065295883
0.0089996 -1.0634095221253366 -0.029237640196698268
0.0109995 -1.0618393133699713 -0.03623044120201485
0.0129994 -1.0622858576066805 -0.0439563534709214
0.0149993 -1.0630435268012386 -0.050873813665775855
0.0169992 -1.0629015279628267 -0.05841972761239337
0.0189991 -1.0631636684703922 -0.06402235300965711
0.020999 -1.0625436189461135 -0.07136208209449713
0.0229989 -1.062298070697857 -0.07865091876059079
0.0249988 -1.0621075336210266 -0.08436095020417253
0.0269987 -1.061306721214172 -0.09152426833211644
0.0289986 -1.0617099838980169 -0.09924333510258221
0.0309985 -1.0608749750171909 -0.10490466828523538
0.0329984 -1.0613929509596318 -0.11230350711985757
0.0349983 -1.060477310899794 -0.11929895192718996
0.0369982 -1.060489199217203 -0.1251984411443718
0.0389981 -1.0593800048474593 -0.13271519875006366
0.040998 -1.0582576780662734 -0.13876958530005779
0.0429979 -1.0574000988599959 -0.14444215262441656
0.0449978 -1.057787796331406 -0.15216968019259217
0.0469977 -1.0564270476021422 -0.15749878710926365
0.0489976 -1.0551048973876866 -0.16497731903017201
0.0509975 -1.055252143934031 -0.17161922036188976
0.0529974 -1.054362851350625 -0.17776711307104276
0.0549973 -1.0534526337792989 -0.18389817344569956
0.0569972 -1.0529297651206935 -0.19150130608852414
0.0589971 -1.0523287509152375 -0.19771572475023572
0.060997 -1.0509512835447812 -0.20507547968302822
0.0629969 -1.0500209224929826 -0.2106002475867727
0.0649968 -1.0490951217075604 -0.21700275440244668
0.0669967 -1.0472786409254333 -0.22378056160239262
0.0689966 -1.046255212599277 -0.230699606461556
0.0709965 -1.045387556700756 -0.23599002912647526
0.0729964 -1.0437135339446737 -0.24315405948743046
0.0749963 -1.0425693766166886 -0.24938880964759566
0.0769962 -1.0419304905022038 -0.25564066081218384
0.0789961 -1.0401531577166687 -0.2622396080539804
0.080996 -1.0391500991777023 -0.26913259501971454
0.0829959 -1.0369478320139547 -0.27531565658388324
0.0849958 -1.0367129608548113 -0.2812852984839107
0.0869957 -1.0344565079803858 -0.28740094314899245
0.0889956 -1.0336047926027776 -0.29345193464962194
0.0909955 -1.0318042225173794 -0.30033632059167603
0.0929954 -1.0295854706204972 -0.3076254076570749
0.0949953 -1.028795807184669 -0.3116684382754022
0.0969952 -1.0274621429169957 -0.3192922772721785
0.0989951 -1.0238714799362278 -0.3260805636955211
0.100995 -1.0241568246778574 -0.3316845484808118
0.1029949 -1.0218704039274993 -0.338133100174908
0.1049948 -1.0198829775679907 -0.3443441625465664
0.1069947 -1.017483208159439 -0.35070000746978347
0.1089946 -1.0162972619956 -0.3565717859291479
0.1109945 -1.0139940267981091 -0.3637587902772925
0.1129944 -1.0122763294955488 -0.3696460961460591
0.1149943 -1.0097871188548797 -0.3754040711049293
0.1169942 -1.0087291365373245 -0.3816745769565892
0.1189941 -1.005538705858008 -0.388483189823142
0.120994 -1.0031992315373037 -0.3944207211085685
0.1229939 -1.0012622329728675 -0.39987965617402954
0.1249938 -0.9992479352473901 -0.40632363967205803
0.1269937 -0.9962542667105354 -0.4119911754452445
0.1289936 -0.9933334375694652 -0.4184486999911815
0.1309935 -0.9921207477876878 -0.425191244300552
0.1329934 -0.991165458491578 -0.430433059777267
0.1349933 -0.9879007439988633 -0.43659750605201736
0.1369932 -0.9852948248056759 -0.44143083882653994
0.1389931 -0.9821156838029359 -0.44907946991764247
0.140993 -0.980662578094519 -0.45429233519430606
0.1429929 -0.9777944971402763 -0.46124480753205954
0.1449928 -0.974650536861525 -0.4667807701800012
0.1469927 -0.9723594389482365 -0.4730958229669379
0.1489926 -0.9704526513086557 -0.4785730925557599
0.1509925 -0.9659113622354943 -0.48459383556474495
0.1529924 -0.9642814696512192 -0.49141659453286163
0.1549923 -0.9617074844113398 -0.4959884056596064
0.1569922 -0.9599235409664526 -0.5029038643890175
0.1589921 -0.955475170723362 -0.5080313114605178
0.160992 -0.9532076346442874 -0.5151977327717887
0.1629919 -0.9500617845225213 -0.5201290150079413
0.1649918 -0.9468608305700364 -0.5253374283682818
0.1669917 -0.9438285212545143 -0.5321108741369359
0.1689916 -0.9422498914860996 -0.5371614532074517
0.1709915 -0.9374415705074923 -0.5427481983028897
0.1729914 -0.9343254715335219 -0.5486404091739572
0.1749913 -0.9317403320780474 -0.5541960327094385
0.1769912 -0.929164472304918 -0.5606845660154437
0.1789911 -0.9256271135454257 -0.5660806895352892
0.180991 -0.9220017929789512 -0.5711458838623024
0.1829909 -0.9189784528279158 -0.5785838912054092
0.1849908 -0.9161776284024097 -0.5822796296117813
0.1869907 -0.9119779471060616 -0.5875135361774361
0.1889906 -0.9088372024916144 -0.5944249983346909
0.1909905 -0.9050291072817209 -0.599460557798252
0.1929904 -0.9013551186286478 -0.6059447236489452
0.1949903 -0.8980441363108952 -0.6102787873161093
0.1969902 -0.8950282145642264 -0.6157115973620473
0.1989901 -0.8917917951178875 -0.6218308417494331
0.20099 -0.8867612230970466 -0.6266147948172184
0.2029899 -0.8841140932682588 -0.6314378973667051
0.2049898 -0.8798584984215634 -0.6379858091841131
0.2069897 -0.8768682801654294 -0.6436402261364049
0.2089896 -0.8729192556604325 -0.6481954389847223
0.2109895 -0.87015850524706 -0.6537828239052237
0.2129894 -0.8656919140370359 -0.6586818319335735
0.2149893 -0.8616157137753406 -0.6644005010335873
0.2169892 -0.8576628396905719 -0.6691595815425659
0.2189891 -0.8542465061040252 -0.6749084354187681
0.220989 -0.8499763401640219 -0.6806436906835205
0.2229889 -0.8462206848398852 -0.6862900046799071
0.2249888 -0.8420574996538003 -0.6904363442770247
0.2269887 -0.8382492073137852 -0.695814199716502
0.2289886 -0.8341593810997804 -0.7013843712597108
0.2309885 -0.8305158379969466 -0.7059262353967811
0.2329884 -0.8262693841151239 -0.7122342678077114
0.2349883 -0.8219610596553879 -0.7162290849625673
0.2369882 -0.8176369306552788 -0.7211401626269693
0.2389881 -0.8137810178508957 -0.7265732359403043
0.240988 -0.8088634695288165 -0.7312764826295508
0.2429879 -0.8047839361465464 -0.7363971307332291
0.2449878 -0.800964857216633 -0.7417853223228889
0.2469877 -0.7968082048776224 -0.746683760816385
0.2489876 -0.7915209910955365 -0.7519567008332202
0.2509875 -0.7883617954282974 -0.7565159485768713
0.2529874 -0.7836161708871158 -0.7610476312389297
0.2549873 -0.7789178760231086 -0.7659225151170838
0.2569872 -0.7745169164032127 -0.7710337805485838
0.2589871 -0.7696138288039409 -0.7754301336338777
0.260987 -0.7646347627309691 -0.7803189523442206
0.2629869 -0.7604433266084747 -0.7852942316267263
0.2649868 -0.7554233086597596 -0.7893305228292619
0.2669867 -0.7508923553763568 -0.7947878853069633
0.2689866 -0.7468733623445681 -0.7994710787155236
0.2709865 -0.7420098363509204 -0.802835589699854
0.2729864 -0.737196151529961 -0.8079144559643744
0.2749863 -0.7326552541469625 -0.8133659579480904
0.2769862 -0.7271927060722635 -0.8171288263006103
0.2789861 -0.7231658971690822 -0.822085683854241
0.280986 -0.7178040406670969 -0.8265547598860702
0.2829859 -0.7128505370886477 -0.8309500263690632
0.2849858 -0.7084659969490482 -0.8352163960611239
0.2869857 -0.7026087121328405 -0.8392666750347891
0.2889856 -0.6986461586445039 -0.8443155399961426
0.2909855 -0.6934270023752264 -0.8485327748431732
0.2929854 -0.6880841387282992 -0.8526338615884919
0.2949853 -0.6829882370850047 -0.8566704238587278
0.2969852 -0.6775530285774021 -0.8611040862107336
0.2989851 -0.672737514875907 -0.8652070894875432
0.300985 -0.6675551864549464 -0.8698494800000189
0.3029849 -0.6629813802298258 -0.8742483675528421
0.3049848 -0.6571105237601123 -0.8776449050109445
0.3069847 -0.651443482603583 -0.8820468616619909
0.3089846 -0.6467270106295089 -0.8870053423065956
0.3109845 -0.6415002323250949 -0.8907478253543368
0.3129844 -0.6360253940427947 -0.8947576674211847
0.3149843 -0.6313054035065283 -0.898664743062241
0.3169842 -0.6250609111146678 -0.9024850124293734
0.3189841 -0.621218996634041 -0.9061209299659286
0.320984 -0.6152519502759323 -0.9099786007703535
0.3229839 -0.6093822900046729 -0.9140831984377065
0.3249838 -0.6035266954647082 -0.9182660054691234
0.3269837 -0.5974207421381713 -0.9217587202603137
0.3289836 -0.5925207311172566 -0.9246387596837727
0.3309835 -0.5867338517035088 -0.92834299792421
0.3329834 -0.5813703346544141 -0.9326200559952589
0.3349833 -0.5764589685509394 -0.9368136102926283
0.3369832 -0.5707878337312751 -0.9404850811255919
0.3389831 -0.5648541055581766 -0.9431415597169057
0.340983 -0.5592115185623284 -0.9468496560237769
0.3429829 -0.5537373248879043 -0.9507425698352527
0.3449828 -0.5478820023492182 -0.9542025295295848
0.3469827 -0.5420610307293474 -0.9572967515433419
0.3489826 -0.5359907454428914 -0.9607880560438755
0.3509825 -0.5309616582468368 -0.9648026542361935
0.3529824 -0.5244078920824352 -0.9678701094081716
0.3549823 -0.5183353141604397 -0.970264110448772
0.3569822 -0.5128652623997991 -0.9737145833471679
0.3589821 -0.5069544867598001 -0.9778591266197185
0.360982 -0.5024143070610022 -0.9808976949430922
0.3629819 -0.495127939836968 -0.9834384990426004
0.3649818 -0.4898741508968287 -0.987535706222961
0.3669817 -0.48364887867500167 -0.9904148764711753
0.3689816 -0.4780279467906009 -0.9936276392690951
0.3709815 -0.4707841137604091 -0.9970094268653942
0.3729814 -0.46548980748245256 -0.9999976718648877
0.3749813 -0.4586026943546482 -1.002570653669736
0.3769812 -0.4527966486673801 -1.0057678492585167
0.3789811 -0.44621232901775126 -1.0081035880913467
0.380981 -0.44097527795598096 -1.0119349321455464
0.3829809 -0.43524653144253317 -1.0146362666417976
0.3849808 -0.4287456143110382 -1.017425359008895
0.3869807 -0.42217957758610225 -1.019150171061237
0.3889806 -0.41535633228021873 -1.022360237447774
0.3909805 -0.4095095657679398 -1.0248867951310678
0.3929804 -0.40349109522820786 -1.0282152963587017
0.3949803 -0.3969205305649569 -1.030519912521516
0.3969802 -0.3905293655359242 -1.0327123041966473
0.3989801 -0.3854723259360554 -1.0344213391637855
0.40098 -0.3779981531780472 -1.0372020827774557
0.4029799 -0.37267973198775983 -1.0404365631827184
0.4049798 -0.3662357866626995 -1.0429866439498754
0.4069797 -0.35944957965719876 -1.0448223030502441
0.4089796 -0.3527044160571349 -1.0473544868814488
0.4109795 -0.34745017774133413 -1.050028397182038
0.4129794 -0.3406698802915464 -1.0518251504062908
0.4149793 -0.3339525421594206 -1.0541875658754827
0.4169792 -0.3273782038845785 -1.0552893601216364
0.4189791 -0.3209561683396019 -1.0581459472525099
0.420979 -0.3143458613177001 -1.059527631545766
0.4229789 -0.3079311643541038 -1.0629275314963278
0.4249788 -0.30169143761215755 -1.0650483706315546
0.4269787 -0.294796701597863 -1.0669857515491858
0.4289786 -0.2880629079876852 -1.0692360899928448
0.4309785 -0.2820446087258718 -1.0713863623333608
0.4329784 -0.2751292076096418 -1.072997034275446
0.4349783 -0.26865916188879085 -1.0747574607090076
0.4369782 -0.261631579449821 -1.0756616615581636
0.4389781 -0.2550777265583541 -1.0770423878464939
0.440978 -0.2488669201729154 -1.078966861002511
0.4429779 -0.24245718982158204 -1.0806611222502613
0.4449778 -0.23489101245178234 -1.0833225152449488
0.4469777 -0.2282821474653493 -1.0846326027729267
0.4489776 -0.22036044914893926 -1.085688474911652
0.4509775 -0.21525820161176237 -1.0885577012572907
0.4529774 -0.20886968694071426 -1.0893654003208266
0.4549773 -0.20138070836704502 -1.0898663954262628
0.4569772 -0.1945106396433798 -1.0916554009448611
0.4589771 -0.1883173272250057 -1.0930258776667678
0.460977 -0.18089407863925194 -1.093830619651238
0.4629769 -0.17393845821548382 -1.0958709124386032
0.4649768 -0.16685221315069393 -1.0965989446868523
0.4669767 -0.15991427710335154 -1.098112669654243
0.4689766 -0.15353831556698322 -1.0988689917316492
0.4709765 -0.1465284862490449 -1.100297437839449
0.4729764 -0.14023013726640232 -1.1012471918108109
0.4749763 -0.13292585067047286 -1.1027380790566335
0.4769762 -0.12669157056213967 -1.104024322096751
0.4789761 -0.12014268037010165 -1.1042802207282918
0.480976 -0.11331744887752748 -1.1054724982724167
0.4829759 -0.1054134302075081 -1.1055404542291913
0.4849758 -0.09868638494507746 -1.1059735568787368
0.4869757 -0.09170690766420743 -1.10693999657951
0.4889756 -0.0853387846394982 -1.1069971129581495
0.4909755 -0.07836354004487998 -1.1081534896204344
0.4929754 -0.07127337514928246 -1.108644243887521
0.4949753 -0.06423853522988641 -1.1094836234320056
0.4969752 -0.056284473210872016 -1.1098563830825794
0.4989751 -0.05051368005756168 -1.1107028062766071
0.500975 -0.04373789037892749 -1.1108824933069144
0.5029749 -0.03656632171289487 -1.1112122371959103
0.5049748 -0.029236911091203563 -1.1117235897490845
0.5069747 -0.02238269288540993 -1.11226666692873
0.5089746 -0.015468132904646402 -1.1126273791904775
0.5109745 -0.007931182639419283 -1.1124620108400354
0.5129744 -0.0013900012873710038 -1.113113252845781
0.5149743 0.005615066760438839 -1.114024537571352
0.5169742 0.012647432344630366 -1.1126749750328249
0.5189741 0.019898732898785687 -1.112315298301138
0.520974 0.026837520368408987 -1.1129420898286826
0.5229739 0.03374855814761592 -1.112459772146382
0.5249738 0.040686784785259944 -1.1124182684369643
0.5269737 0.04790183758490536 -1.112127895336823
0.5289736 0.05473878215766664 -1.1118735156651607
0.5309735 0.06170455171917205 -1.1120480038191227
0.5329734 0.06921471234536264 -1.1115452476665313
0.5349733 0.07632349201763138 -1.1111483789710022
0.5369732 0.08302949534457069 -1.1108961415935765
0.5389731 0.09023582915526905 -1.1102499206217693
0.540973 0.09763193981251928 -1.1101867630418314
0.5429729 0.10461549744607787 -1.1099459154813571
0.5449728 0.11161503262983295 -1.1093162088748312
0.5469727 0.11836066073192356 -1.1082248357123716
0.5489726 0.12554545596377062 -1.107716329881325
0.5509725 0.13204677908817486 -1.107059143406116
0.5529724 0.1392420576886854 -1.1052019916474993
0.5549723 0.14618812178395413 -1.1047716613044005
0.5569722 0.15338935636292822 -1.1045875994320002
0.5589721 0.15965338712864033 -1.1038723577229617
0.560972 0.167386815521646 -1.1028329449128706
0.5629719 0.17435046004564864 -1.1016171481485073
0.5649718 0.18187720259948315 -1.1007962467297894
0.5669717 0.18819086617343034 -1.0998509932524423
0.5689716 0.19511777614769077 -1.0989517820780557
0.5709715 0.20254965838645742 -1.0979653900617137
0.5729714 0.2095351230020313 -1.0960926819345254
0.5749713 0.21682078251396827 -1.0955120649599348
0.5769712 0.22361352654263297 -1.094019056418094
0.5789711 0.2306787311626842 -1.093179535245438
0.580971 0.2374361918173013 -1.0914873442746276
0.5829709 0.24492863655858482 -1.0893802458052422
0.5849708 0.2516240284498003 -1.0879316972872832
0.5869707 0.2585855291733975 -1.0857706163635605
0.5889706 0.2659622720876659 -1.0846354210491047
0.5909705 0.27263118230347033 -1.0837971883425688
0.5929704 0.2798547747962135 -1.0816119356756095
0.5949703 0.2864032751434127 -1.0802244448304703
0.5969702 0.29383883449654863 -1.0782323541550045
0.5989701 0.3004941731651509 -1.0772058528682291
0.60097 0.3074492409237854 -1.0737900958410136
0.6029699 0.3143140234857022 -1.0730608616622703
0.6049698 0.3219735242185178 -1.071375994294631
0.6069697 0.32798308331463194 -1.069779335763794
0.6089696 0.335882364399838 -1.0671739266181897
0.6109695 0.3423328174975034 -1.0653061716653047
0.6129694 0.34916072062674525 -1.0627855355177565
0.6149693 0.35642580106966054 -1.0609745685215572
0.6169692 0.3634026956160967 -1.0581104104913426
0.6189691 0.36970215591195765 -1.055891045606779
0.620969 0.3758828352386244 -1.0534580935005464
0.6229689 0.38348509569065525 -1.050651970058925
0.6249688 0.38958443061074133 -1.048600216950804
0.6269687 0.3970221565437124 -1.0462126099739981
0.6289686 0.4034678378543497 -1.0431759047300768
0.6309685 0.4101852138727832 -1.0415215963853746
0.6329684 0.41738209554762984 -1.0391626305877706
0.6349683 0.4238629458517967 -1.0358417059654843
0.6369682 0.4303924455775079 -1.0340439445023766
0.6389681 0.43811106750430834 -1.0309689570154394
0.640968 0.4446032587664915 -1.028376818998377
0.6429679 0.45128601497952797 -1.0253046909659733
0.6449678 0.45829738843878587 -1.0225912801156105
0.6469677 0.4647458671493226 -1.0195098525114528
0.6489676 0.4713983618027797 -1.015829520850751
0.6509675 0.4779304305557436 -1.0139959054426173
0.6529674 0.4843836641018889 -1.0099831898183858
0.6549673 0.4904782899321344 -1.0068096344466442
0.6569672 0.4975730432616661 -1.004155044336538
0.6589671 0.503531357081292 -1.000677677183716
0.660967 0.5103587656113073 -0.9968443569521646
0.6629669 0.5167861956243909 -0.9942574665983367
0.6649668 0.5235809867970965 -0.9908225851992961
0.6669667 0.5294076135231807 -0.9879522078678235
0.6689666 0.5363429070818053 -0.9842256068289006
0.6709665 0.5425416825840073 -0.9803414124178604
0.6729664 0.5492733795522036 -0.9777433875059628
0.6749663 0.5564997181196455 -0.9739452587439887
0.6769662 0.5621994068974114 -0.9706698705382004
0.6789661 0.5691654462894004 -0.9663112303586125
0.680966 0.5750859027492083 -0.9635513319089761
0.6829659 0.5820374044739616 -0.9593555411707374
0.6849658 0.5874075250027047 -0.9555667203816722
0.6869657 0.5944344588901753 -0.9520589550021223
0.6889656 0.6004429284008582 -0.9477799748358781
0.6909655 0.6068156407916235 -0.9435953978946802
0.6929654 0.6130999177126024 -0.9397648152262498
0.6949653 0.6187611516446321 -0.9366402904264883
0.6969652 0.625149029462516 -0.9316413987728291
0.6989651 0.6312113351099395 -0.9276976445269343
0.700965 0.6373254115997287 -0.9231334719358544
0.7029649 0.6440365501486779 -0.9197249590585257
0.7049648 0.6496635486813233 -0.9151349612254325
0.7069647 0.6560276980855168 -0.9107956026827911
0.7089646 0.6613792804433154 -0.9069401199522235
0.7109645 0.6674857077962693 -0.9025357620686623
0.7129644 0.6737390473029495 -0.8980322215459758
0.7149643 0.679686355453839 -0.8938997422488669
0.7169642 0.6856013152158882 -0.8889779928341459
0.7189641 0.6915023612363049 -0.8847359874038425
0.720964 0.6969800717081875 -0.8804458163484832
0.7229639 0.7025368670140483 -0.875975541129836
0.7249638 0.708938585219146 -0.8712041402366796
0.7269637 0.7146937633527417 -0.8666935562665957
0.7289636 0.7200459964159827 -0.86243112459654
0.7309635 0.7266670633944868 -0.8566129493021815
0.7329634 0.7317271667797524 -0.8526139768895934
0.7349633 0.7374900113358659 -0.8469066383009862
0.7369632 0.7433824430766269 -0.842603033243147
0.7389631 0.748635598373564 -0.8377760767163482
0.740963 0.7547936434432988 -0.8323201363321427
0.7429629 0.7597505610996107 -0.8280684771129516
0.7449628 0.7653439375971859 -0.8228010370652573
0.7469627 0.7706503207490395 -0.8177806943175836
0.7489626 0.7765688973962814 -0.8128823265581722
0.7509625 0.7822118288750817 -0.8075768507552394
0.7529624 0.7870250439560342 -0.8023630245806398
0.7549623 0.7924747110665467 -0.7967196908095476
0.7569622 0.7979775615848286 -0.7916974013998375
0.7589621 0.8036915392308791 -0.7869500081798206
0.760962 0.8090541062083196 -0.7812614478331527
0.7629619 0.814033772340148 -0.7759716735916043
0.7649618 0.8192277785215332 -0.770593302540407
0.7669617 0.8241295214164851 -0.7648841498188189
0.7689616 0.8302020280974699 -0.7595561871082168
0.7709615 0.8345298714448754 -0.754359445664766
0.7729614 0.8402013645142067 -0.7480426151872678
0.7749613 0.8448193288464547 -0.7429826080175218
0.7769612 0.8499680326390019 -0.7376458409961586
0.7789611 0.855000574090909 -0.7314214385394538
0.780961 0.8593475834054912 -0.7260228327596087
0.7829609 0.8643980876389433 -0.7196456559653532
0.7849608 0.8693617423236846 -0.7142952990914851
0.7869607 0.873981425755022 -0.7082801664562606
0.7889606 0.8788057801760779 -0.7020891458267541
0.7909605 0.8831618733576194 -0.6969914631118915
0.7929604 0.8881598090472073 -0.690834497862953
0.7949603 0.8929020071675655 -0.6850084993608136
0.7969602 0.8970228771563964 -0.678311283884316
0.7989601 0.9017053862083535 -0.6726469435799654
0.80096 0.9067562683764001 -0.6668725983076781
