! Created with skrf 1.8.0 (http://scikit-rf.org).
# GHz S RI R 50.0 
!freq ReS11 ImS11
0.001 -1.0454806773913574 -0.006244083625390341
0.0029999 -1.054685983033308 -0.005666854995855779
0.0049998 -1.0606725843752214 -0.0178524996009032
0.0069997 -1.060473902251778 -0.0249748049148372
0.0089996 -1.0603696686835242 -0.03213301293208323
0.0109995 -1.0607520569230413 -0.03936176203611694
0.0129994 -1.0613461670506632 -0.046640694882561146
0.0149993 -1.06126013188975 -0.05286749878256834
0.0169992 -1.060656351901397 -0.05867767339981659
0.0189991 -1.0616463816048276 -0.0652959343845481
0.020999 -1.0607910397750822 -0.07219150581897085
0.0229989 -1.0604114534604174 -0.07928294627359049
0.0249988 -1.0605242264605372 -0.08589695981153239
0.0269987 -1.0592961454867316 -0.09215323323277355
0.0289986 -1.0600532369149598 -0.09929158203946079
0.0309985 -1.0589920663490304 -0.10559516818571883
0.0329984 -1.059825653441501 -0.11339848056645917
0.0349983 -1.0588844387183927 -0.11931404814017121
0.0369982 -1.0589242906000609 -0.12524159326006218
0.0389981 -1.0573934105512743 -0.13294117111794213
0.040998 -1.0573892596699213 -0.1382899665221711
0.0429979 -1.056010961657657 -0.14432843324552422
0.0449978 -1.0560614220639153 -0.15186601816193818
0.0469977 -1.0555070981680388 -0.15788813885326694
0.0489976 -1.0540324162477541 -0.16523113162780131
0.0509975 -1.0537825646082635 -0.1714478324195725
0.0529974 -1.0530550950913016 -0.1779538931776566
0.0549973 -1.0517238973218919 -0.1852721528825475
0.0569972 -1.0512914469654477 -0.19138648504862768
0.0589971 -1.0505247741697894 -0.1976768996266488
0.060997 -1.049339862240051 -0.20419149358865865
0.0629969 -1.0484630016026462 -0.21001331876779644
0.0649968 -1.0472569783906012 -0.21652557364180727
0.0669967 -1.0453707440344988 -0.2233350785263964
0.0689966 -1.0448050004575191 -0.23000077487598522
0.0709965 -1.0436777826406962 -0.23529058916615667
0.0729964 -1.0420362398941894 -0.24247421564869087
0.0749963 -1.0414194076726995 -0.2486252003773921
0.0769962 -1.0403723004311012 -0.2549135955004989
0.0789961 -1.0387776990060142 -0.2612787883290204
0.080996 -1.0375458343418615 -0.26791892404405476
0.0829959 -1.0352687075602478 -0.2743697212544114
0.0849958 -1.0352139106585885 -0.2803073848442548
0.0869957 -1.032964626496174 -0.28669413201821337
0.0889956 -1.0321101528490018 -0.29257518138422367
0.0909955 -1.0301966175122885 -0.29939806246299505
0.0929954 -1.0280738373590057 -0.3060956113473331
0.0949953 -1.027299339134631 -0.31112258725146685
0.0969952 -1.0255594847961191 -0.3184548162857051
0.0989951 -1.022910567046379 -0.32426506241953057
0.100995 -1.0224953481703276 -0.3313545297833367
0.1029949 -1.0202166746808714 -0.3368810632525617
0.1049948 -1.0180575855805116 -0.34317810948298677
0.1069947 -1.0162974212544094 -0.3496392759137222
0.1089946 -1.014707732845725 -0.3555609972588169
0.1109945 -1.0126224316126995 -0.3624941429584035
0.1129944 -1.0106836108859902 -0.36798528180364887
0.1149943 -1.0084337695230994 -0.3741729255115226
0.1169942 -1.0072888239096527 -0.3802168372343831
0.1189941 -1.0037129884444596 -0.3871357928532786
0.120994 -1.0018324866550428 -0.39303926343837525
0.1229939 -0.9998903032911984 -0.3984938171397531
0.1249938 -0.9975472729919517 -0.40484800243074853
0.1269937 -0.9951092061583917 -0.41033163401924977
0.1289936 -0.9924948783832173 -0.4167657748811506
0.1309935 -0.9903728725886658 -0.4238064723440184
0.1329934 -0.9893099291057054 -0.42846315100581644
0.1349933 -0.9864061787160254 -0.4349112592357609
0.1369932 -0.9839716865500387 -0.4400733798948177
0.1389931 -0.9807814402788001 -0.44719776134098393
0.140993 -0.9792456304993395 -0.45254778098283754
0.1429929 -0.9765546440098865 -0.459134429679227
0.1449928 -0.9733479122953305 -0.4645641696500049
0.1469927 -0.9714700440080106 -0.47015047700056767
0.1489926 -0.9690766047643868 -0.4748850622331239
0.1509925 -0.9653167193294148 -0.4822020641176383
0.1529924 -0.9626646217328959 -0.4885661157769034
0.1549923 -0.9608998874363893 -0.494072181818875
0.1569922 -0.958709415973642 -0.5001505463182616
0.1589921 -0.9546821168578649 -0.5054748676706048
0.160992 -0.9520439400781852 -0.5131947308168315
0.1629919 -0.9484504889072064 -0.5170287837479349
0.1649918 -0.9459240010101856 -0.5231067969058477
0.1669917 -0.9432242961727004 -0.5295803064227614
0.1689916 -0.9412939824156766 -0.5346319821796062
0.1709915 -0.9367322637332766 -0.5400860251028028
0.1729914 -0.9336525515279791 -0.5462845545810827
0.1749913 -0.9313979308065065 -0.551752988985008
0.1769912 -0.9284301476007402 -0.5583777103020203
0.1789911 -0.9249527287479009 -0.5636477942332194
0.180991 -0.9219827156986974 -0.5688248457598551
0.1829909 -0.9178248467896978 -0.5753823649151645
0.1849908 -0.9161500971689298 -0.5793929809193458
0.1869907 -0.9105857724121164 -0.585409418550887
0.1889906 -0.9080700667233406 -0.592210961254922
0.1909905 -0.9041832730818651 -0.5972246187016431
0.1929904 -0.901054842782845 -0.6029687097494117
0.1949903 -0.8976887002012006 -0.6080711678469444
0.1969902 -0.8944542054620443 -0.6129861534972245
0.1989901 -0.8914155316469025 -0.6194186584432352
0.20099 -0.8865631816400108 -0.6242785129061861
0.2029899 -0.8842149662754631 -0.6288705441885728
0.2049898 -0.8794214743962193 -0.6354148162224453
0.2069897 -0.8766091884793311 -0.640913736886059
0.2089896 -0.8730690617419619 -0.6452099122583457
0.2109895 -0.8698618056923443 -0.6503507223392295
0.2129894 -0.8656673693550425 -0.6562697069513608
0.2149893 -0.8620566643360122 -0.6619699056307702
0.2169892 -0.857640943849109 -0.6664094801231758
0.2189891 -0.8546239750616258 -0.6724533284908647
0.220989 -0.8504161656024737 -0.6780182404881576
0.2229889 -0.8463887494845106 -0.6828472895546915
0.2249888 -0.8426546800521522 -0.6871522446760595
0.2269887 -0.8385630448807121 -0.6928324315564096
0.2289886 -0.8343869248114885 -0.6985749080213378
0.2309885 -0.8307342509549204 -0.7030688002405623
0.2329884 -0.8263937371151265 -0.7087627812074384
0.2349883 -0.8218585517123019 -0.7126877318926771
0.2369882 -0.81806687628678 -0.7179620045999955
0.2389881 -0.8142276445933975 -0.7235921375550222
0.240988 -0.8093992611021062 -0.7282979283709491
0.2429879 -0.8052731724159438 -0.7333207991482946
0.2449878 -0.80101101795819 -0.7384632088723805
0.2469877 -0.7974121392163854 -0.743949346300083
0.2489876 -0.7923330420410073 -0.7484961936010365
0.2509875 -0.7889429988039091 -0.7535572511064328
0.2529874 -0.7840040651058949 -0.7576687877134752
0.2549873 -0.7793327730691308 -0.762632183595026
0.2569872 -0.7750116134802797 -0.7675874833181543
0.2589871 -0.7700830749626377 -0.7727391956047422
0.260987 -0.7653282729347726 -0.777188861783822
0.2629869 -0.7613898411783177 -0.7813935755393496
0.2649868 -0.7557353206364255 -0.7866959275889627
0.2669867 -0.7519386656538121 -0.7917222504133512
0.2689866 -0.7476529915133906 -0.7964296805232197
0.2709865 -0.7432841136510692 -0.7987804263695512
0.2729864 -0.7383098192035695 -0.8037142154113757
0.2749863 -0.733451424940585 -0.8091766478649851
0.2769862 -0.7285536354559332 -0.8138026176290835
0.2789861 -0.7245342687301557 -0.8180127361869828
0.280986 -0.7191388599691417 -0.8221479364948284
0.2829859 -0.7147464613768917 -0.8273637115366504
0.2849858 -0.7096144742409541 -0.8312747694554672
0.2869857 -0.7049493770271428 -0.8350647565718649
0.2889856 -0.7002625495034032 -0.840617844708537
0.2909855 -0.6956526491703069 -0.8448423848182792
0.2929854 -0.68998933315939 -0.8481906895952341
0.2949853 -0.6849915413669593 -0.8522443027306655
0.2969852 -0.6797177924536151 -0.8568750906013283
0.2989851 -0.6748556126696694 -0.8610973988184256
0.300985 -0.6699559152595169 -0.8653660309610199
0.3029849 -0.6655105526207893 -0.8698756110887667
0.3049848 -0.6599458171633275 -0.8731056926613474
0.3069847 -0.6543174733388666 -0.8773491303484398
0.3089846 -0.648990907593289 -0.8826878166305464
0.3109845 -0.6444462325705443 -0.886216570152607
0.3129844 -0.638945137785658 -0.8908606900446444
0.3149843 -0.6337808983820753 -0.8941040430625803
0.3169842 -0.6274722652440177 -0.89846861005791
0.3189841 -0.623251742748364 -0.9022545548797837
0.320984 -0.6175018678209274 -0.906188051094133
0.3229839 -0.6135096467624532 -0.9097569341368325
0.3249838 -0.6069176279020392 -0.9135927539390583
0.3269837 -0.6009295203181869 -0.9175921903708146
0.3289836 -0.5961443440500385 -0.9202876731393734
0.3309835 -0.5901343846949483 -0.924171366949975
0.3329834 -0.5853938871679837 -0.9283952154969073
0.3349833 -0.5797880447765239 -0.932267932400658
0.3369832 -0.5746463501737367 -0.9356235262776212
0.3389831 -0.5680590763583833 -0.9387094316998792
0.340983 -0.562955602527366 -0.943078198583656
0.3429829 -0.5569671836505269 -0.9465524354209452
0.3449828 -0.5519556838475669 -0.9499512228373507
0.3469827 -0.5462238919131831 -0.9534159216174659
0.3489826 -0.5405425755788098 -0.9560816036343256
0.3509825 -0.5344063144994728 -0.9604299205966254
0.3529824 -0.528376668086783 -0.9627456289683838
0.3549823 -0.5227445539615404 -0.966137463133374
0.3569822 -0.5168467466563693 -0.9698070023050144
0.3589821 -0.5119109786678135 -0.9733994621643632
0.360982 -0.5068688222354963 -0.9762564835501357
0.3629819 -0.4998935426232759 -0.9788684658156886
0.3649818 -0.4941745186890924 -0.9832885331318233
0.3669817 -0.4879767484944781 -0.9857934991697667
0.3689816 -0.48273113959305763 -0.9891538973940367
0.3709815 -0.4754535038091244 -0.9920251476699494
0.3729814 -0.46987001078897256 -0.9958986978969033
0.3749813 -0.46437526943287777 -0.9975497578674516
0.3769812 -0.4579394104776573 -1.0008759241557754
0.3789811 -0.45179656053366796 -1.0033265230652135
0.380981 -0.44625807328975303 -1.0071901965933057
0.3829809 -0.44090383722224635 -1.0101747122158038
0.3849808 -0.4344061456135916 -1.0123703668763588
0.3869807 -0.42730057084577594 -1.0148701742697075
0.3889806 -0.42073413017809935 -1.0179173091129161
0.3909805 -0.4153373927739778 -1.0204420844089124
0.3929804 -0.41022457504596876 -1.0236490469298671
0.3949803 -0.4031698283672251 -1.0262047509492045
0.3969802 -0.39709001949584155 -1.028232265302376
0.3989801 -0.39092605980562734 -1.0303386637109548
0.40098 -0.3843859475047869 -1.0329487743402685
0.4029799 -0.37902999407619775 -1.0357777195244935
0.4049798 -0.37260004338561525 -1.0387622622188417
0.4069797 -0.36592374762534746 -1.0406566782138613
0.4089796 -0.35933121977758986 -1.0430029101480258
0.4109795 -0.3533088615877392 -1.045834195224105
0.4129794 -0.34758510208217663 -1.047282195270181
0.4149793 -0.3408577379820135 -1.049916417758889
0.4169792 -0.33389508989707134 -1.0509263162870788
0.4189791 -0.32759044606791615 -1.0536614449010482
0.420979 -0.3214726800889574 -1.0556652460255327
0.4229789 -0.3155672519560724 -1.0584144182359598
0.4249788 -0.3088682309776362 -1.0602153499668439
0.4269787 -0.3028328232658174 -1.0618897707482897
0.4289786 -0.29585517523799437 -1.0646287590278043
0.4309785 -0.2896342214987782 -1.0667808084351538
0.4329784 -0.2830412416935472 -1.0685919860965414
0.4349783 -0.2764950750323241 -1.070267957554831
0.4369782 -0.27030676972915385 -1.0713444953545848
0.4389781 -0.26332419768202525 -1.0726485808581843
0.440978 -0.2572008000611895 -1.0745491591958405
0.4429779 -0.2499919129118861 -1.0765215221321869
0.4449778 -0.24370869147180674 -1.078818765981104
0.4469777 -0.23770320685965932 -1.0804217748249814
0.4489776 -0.22956667178395085 -1.0812976796477405
0.4509775 -0.22489853649270602 -1.0842948147240656
0.4529774 -0.2184209825395647 -1.0852824550952005
0.4549773 -0.20969011436524118 -1.0859796458365132
0.4569772 -0.20466431363027998 -1.0873749576822997
0.4589771 -0.19742449187137112 -1.0887172731570194
0.460977 -0.19041351973896087 -1.0898381316422363
0.4629769 -0.1843345287028047 -1.0918092126001564
0.4649768 -0.17747038966233442 -1.0922457059293287
0.4669767 -0.17052419341274277 -1.0940177022897521
0.4689766 -0.16438685433308572 -1.0952936364431605
0.4709765 -0.15786590792474642 -1.0963416921095588
0.4729764 -0.15114584253394445 -1.0977122111259325
0.4749763 -0.14425844480994138 -1.0987898615013552
0.4769762 -0.13774659438459466 -1.1000692971358597
0.4789761 -0.13164507828229416 -1.100255876863607
0.480976 -0.1244642771968042 -1.101920758432658
0.4829759 -0.11738636869838753 -1.102378532579603
0.4849758 -0.11015729870099464 -1.1026051027984227
0.4869757 -0.10348234071222255 -1.1034572817247907
0.4889756 -0.0972995364518187 -1.1035360578846767
0.4909755 -0.09036873978081025 -1.1052429662750223
0.4929754 -0.08368822737044156 -1.10543861907443
0.4949753 -0.07615201696009807 -1.1065790305928558
0.4969752 -0.0688540436530448 -1.1070041077554011
0.4989751 -0.06307092101993957 -1.1074433910160837
0.500975 -0.05599259451525394 -1.107890778257019
0.5029749 -0.0494200052980496 -1.1083089004975029
0.5049748 -0.04192891401726434 -1.1088827637663365
0.5069747 -0.03467553032523081 -1.1093004832520468
0.5089746 -0.028588927584715575 -1.1101543480025722
0.5109745 -0.021226605939894963 -1.1095270522635954
0.5129744 -0.015046341442836897 -1.110476146851451
0.5149743 -0.008167717108766459 -1.1112530035942223
0.5169742 -0.0008830171843669798 -1.1105512525927113
0.5189741 0.005983199933569411 -1.1098208147720623
0.520974 0.013302750764411758 -1.1106258801674653
0.5229739 0.019828468622140535 -1.1103652273536795
0.5249738 0.026833808674614018 -1.1104361676796448
0.5269737 0.033729133594178506 -1.1100985429233063
0.5289736 0.040338167054983595 -1.1105187375293524
0.5309735 0.047318086837912776 -1.110353207188887
0.5329734 0.05503815351227713 -1.1097876258501864
0.5349733 0.06168504633189312 -1.109979846967605
0.5369732 0.06795915180045903 -1.1096096968775984
0.5389731 0.0753084489973789 -1.1090414067288612
0.540973 0.0820537437050301 -1.1091414404231053
0.5429729 0.08913135847620157 -1.1090746672498069
0.5449728 0.09586587827022998 -1.1082452354153298
0.5469727 0.10271801431583302 -1.1072075071387733
0.5489726 0.11014595259828443 -1.1072297741370065
0.5509725 0.11641189766035831 -1.1059759800862066
0.5529724 0.12371811986520559 -1.1049747126144611
0.5549723 0.13073007183731433 -1.1041793329666765
0.5569722 0.13716627317951435 -1.1044236866267432
0.5589721 0.14387014234488937 -1.1037928253647629
0.560972 0.15127516819128672 -1.1032168564763472
0.5629719 0.15772298589822453 -1.1015169126047144
0.5649718 0.16512837490924032 -1.1010962573007332
0.5669717 0.17193312933667187 -1.099849377461439
0.5689716 0.1781009344329626 -1.0989534548089324
0.5709715 0.1857605042597955 -1.0982940569870767
0.5729714 0.19307496218968456 -1.096731668683936
0.5749713 0.20002587452647505 -1.0961422248108048
0.5769712 0.20644137768346085 -1.0945411535381193
0.5789711 0.2131653950508685 -1.0942183152219627
0.580971 0.21997281474914696 -1.0927399048764712
0.5829709 0.2270584590143659 -1.0907725818194665
0.5849708 0.2337684387857532 -1.089042453673283
0.5869707 0.24064163710580416 -1.0872902095653227
0.5889706 0.24793797179106075 -1.0860098939901952
0.5909705 0.25489569287371694 -1.0850130102782172
0.5929704 0.26132423453545894 -1.0834959938821183
0.5949703 0.2679832435620938 -1.0821168394881064
0.5969702 0.27478714088771095 -1.0802439519185292
0.5989701 0.28172495207997783 -1.0792477712557134
0.60097 0.28798084596355716 -1.0766407316481534
0.6029699 0.29523319749434385 -1.075100577174533
0.6049698 0.30233998583165667 -1.0738595108847875
0.6069697 0.3089430386413227 -1.0722458121889535
0.6089696 0.31553146928072184 -1.0704404189032228
0.6109695 0.3223026136537889 -1.0684013269293124
0.6129694 0.329047113618929 -1.0662199071640615
0.6149693 0.3364289058881208 -1.0645107806685614
0.6169692 0.3420490260004381 -1.062113963118883
0.6189691 0.3491003620852614 -1.0599442098981358
0.620969 0.35522180517087315 -1.0573647668926056
0.6229689 0.362459464628354 -1.0550521544279374
0.6249688 0.368552207387557 -1.0534226324622429
0.6269687 0.37577097932711234 -1.050974683708221
0.6289686 0.3819928367153089 -1.0481594429887218
0.6309685 0.3884293677049545 -1.046633938489395
0.6329684 0.39492312327009454 -1.0442490452410036
0.6349683 0.40218403927170576 -1.0416301290531431
0.6369682 0.4086121166321304 -1.0395673633460072
0.6389681 0.4160049363483386 -1.0372665519360953
0.640968 0.42216800375110713 -1.0344969443618872
0.6429679 0.4289549756377154 -1.0316151954615245
0.6449678 0.43582796303704585 -1.0293252339809236
0.6469677 0.4421524172729281 -1.026408256780412
0.6489676 0.4483316858777393 -1.02327787721747
0.6509675 0.4553607513253123 -1.020953058843315
0.6529674 0.46105479339089306 -1.0176427725889952
0.6549673 0.46822582699286996 -1.0142644562825416
0.6569672 0.474441062394659 -1.0117783793472783
0.6589671 0.4808919831780741 -1.008756430199466
0.660967 0.48679765254599194 -1.0055727758245336
0.6629669 0.4932176273802134 -1.0022515723696135
0.6649668 0.5000898156880021 -0.9996540662689832
0.6669667 0.5059006308660732 -0.9963989281750266
0.6689666 0.51203801395231 -0.9935186232675278
0.6709665 0.5181282323980958 -0.9896871365752469
0.6729664 0.525538984190391 -0.9872047910191096
0.6749663 0.5320365747883129 -0.9843078153833702
0.6769662 0.5386034847755933 -0.9804534834671792
0.6789661 0.5445008244740107 -0.9771921467869942
0.680966 0.55120409749683 -0.9742266821181558
0.6829659 0.5575539320293651 -0.9706171812784802
0.6849658 0.5634440087215443 -0.9666327511940983
0.6869657 0.5698414334956914 -0.9635372390472019
0.6889656 0.5759631731805701 -0.9596689907955221
0.6909655 0.5821462433573775 -0.9559917053295547
0.6929654 0.5882374950113598 -0.9522263631013113
0.6949653 0.5938903809074525 -0.9493430734323421
0.6969652 0.6000366726399831 -0.9444662205153905
0.6989651 0.6062023194635582 -0.9409631494278023
0.700965 0.6124964787272957 -0.9366242747485801
0.7029649 0.6180733034248289 -0.9333652449041644
0.7049648 0.6244998145533349 -0.9293754548541293
0.7069647 0.6310211428017095 -0.9249798622068501
0.7089646 0.6362145244090363 -0.9215072746733488
0.7109645 0.6424484130943191 -0.917111462879129
0.7129644 0.6484980671341342 -0.9133237590056257
0.7149643 0.6546215247112741 -0.908914461772628
0.7169642 0.6603072122401904 -0.904671862966372
0.7189641 0.6657500659568348 -0.9009661029562941
0.720964 0.6721016984745907 -0.8961774218156342
0.7229639 0.6768293326811301 -0.8924302074430706
0.7249638 0.683648630704555 -0.8874174192952594
0.7269637 0.6890577897388726 -0.8836411204241295
0.7289636 0.6947669788104118 -0.8791942940749269
0.7309635 0.7009374869793532 -0.8741653501223069
0.7329634 0.7061408061100948 -0.8700420253815884
0.7349633 0.711861417895851 -0.8650402193627352
0.7369632 0.7177432719768229 -0.8605544281565816
0.7389631 0.7226898384838036 -0.8558706413788083
0.740963 0.7288820163033296 -0.8511033202757093
0.7429629 0.7339670773402287 -0.8468693438191571
0.7449628 0.7393009063038745 -0.8419683717343998
0.7469627 0.7442467319550339 -0.8374207393882995
0.7489626 0.7498327711940378 -0.8324741017082903
0.7509625 0.7556770537452291 -0.8279203549701168
0.7529624 0.7606106690513279 -0.8225451778162991
0.7549623 0.7659412354170686 -0.8178063191446314
0.7569622 0.7713758240793388 -0.8128584961708999
0.7589621 0.7771279235312574 -0.8087157336604724
0.760962 0.7824784725940683 -0.803190064587544
0.7629619 0.7874857594729665 -0.7981436103349306
0.7649618 0.7927274798259428 -0.7931043909413049
0.7669617 0.797586519632494 -0.78760102058682
0.7689616 0.8036548677541768 -0.7828670253143625
0.7709615 0.8080668379410456 -0.7778715013911681
0.7729614 0.8135104708842829 -0.7725131009924282
0.7749613 0.8183991961013074 -0.7671456538934643
0.7769612 0.8235288213384813 -0.762464331972613
0.7789611 0.828591970366814 -0.7566443880860098
0.780961 0.8330527242772311 -0.7514866498860241
0.7829609 0.8381850794062427 -0.7455188530779014
0.7849608 0.8428606400557532 -0.740367314529735
0.7869607 0.8477595407911548 -0.7345203373736167
0.7889606 0.8520022196433762 -0.7290390398483126
0.7909605 0.8569685508599775 -0.7239166953300027
0.7929604 0.8616515930469103 -0.7181884952274443
0.7949603 0.8668259432709777 -0.7127003262457076
0.7969602 0.870891787721585 -0.7065814822023779
0.7989601 0.8754613346836754 -0.7012509056441781
