! Created with skrf 1.8.0 (http://scikit-rf.org).
# GHz S RI R 50.0 
!freq ReS11 ImS11
0.001 -0.15029062595029624 0.31186506689383653
0.0029999 -0.06274662616547176 0.10921681891286676
0.0049998 -0.02633269832720662 0.06699862520679892
0.0069997 -0.02462426543159045 0.046836266437694306
0.0089996 -0.02838306685146057 0.043142679138440575
0.0109995 -0.0217621142648373 0.035232002317035445
0.0129994 -0.012197967718884825 0.031203305546148512
0.0149993 -0.024643145179502703 0.028226213162391857
0.0169992 -0.02074102279687522 0.024961740879406454
0.0189991 -0.020028992068677216 0.021843167811236703
0.020999 -0.02080386622535908 0.018807650038538255
0.0229989 -0.02153749999414923 0.020209700574751084
0.0249988 -0.019942630937979204 0.017950587562061374
0.0269987 -0.020477977591201152 0.018840376641641163
0.0289986 -0.020726497446897814 0.015315761103049245
0.0309985 -0.021892565041937064 0.015996477207673804
0.0329984 -0.020048838356650167 0.015013315688090773
0.0349983 -0.020414206368683425 0.014829983178148454
0.0369982 -0.022037460996688844 0.010743959034757835
0.0389981 -0.0189452489612173 0.013569888131282765
0.040998 -0.020057147863492747 0.014568027119910882
0.0429979 -0.021310801649852603 0.014351158538305297
0.0449978 -0.020338050157105332 0.01214597161232527
0.0469977 -0.022393259215855388 0.010756974959009393
0.0489976 -0.019984234775352824 0.013951261449441685
0.0509975 -0.02038353796573066 0.012273621850217829
0.0529974 -0.02075871991288637 0.01159955068518253
0.0549973 -0.01862650425099742 0.01120814550139066
0.0569972 -0.01941805092476447 0.012147824634904226
0.0589971 -0.020353260606147696 0.011542051016169931
0.060997 -0.019736670065534877 0.011898639098354894
0.0629969 -0.02126014171942882 0.011882432068216625
0.0649968 -0.02040068633485006 0.011650662066300235
0.0669967 -0.01966884385945678 0.012580151497073021
0.0689966 -0.019898085718461092 0.01186895948886103
0.0709965 -0.021746008860527456 0.011998430389291798
0.0729964 -0.02062200349044965 0.013028980071344202
0.0749963 -0.020193183116056366 0.012693809639067837
0.0769962 -0.021802118431662975 0.012267474948273585
0.0789961 -0.021086239741175336 0.013303197023522829
0.080996 -0.02127121477755995 0.012250252357121773
0.0829959 -0.021286944937275305 0.01377842638977268
0.0849958 -0.02124906660356789 0.011929056988197123
0.0869957 -0.0214145816647203 0.013714584337094167
0.0889956 -0.02254221869238032 0.013015648483882094
0.0909955 -0.02137088176416926 0.012786114753132273
0.0929954 -0.021822852356804104 0.014357260011292684
0.0949953 -0.024270491988316528 0.014162506266132356
0.0969952 -0.02317863744006877 0.013267887705511404
0.0989951 -0.023791622829178325 0.014908955017176154
0.100995 -0.02223105325182116 0.013330670119570428
0.1029949 -0.022888486112355257 0.014252936239227519
0.1049948 -0.02333952303235214 0.013822879630732227
0.1069947 -0.023493538153620337 0.014456520761675418
0.1089946 -0.023887282278529137 0.014506719661592084
0.1109945 -0.02396307314938152 0.014331322404974374
0.1129944 -0.02426410844766901 0.014265287025119592
0.1149943 -0.024574896089904277 0.014671515167204613
0.1169942 -0.025389011946001298 0.014017643828077662
0.1189941 -0.023673113087916944 0.014917875749058384
0.120994 -0.023964770139375383 0.014738602229151954
0.1229939 -0.024923910524597664 0.014921094126314802
0.1249938 -0.02401681248406434 0.014825873939123343
0.1269937 -0.025777649672492464 0.015471383356556262
0.1289936 -0.02580176607715555 0.01477852181304238
0.1309935 -0.024437213396815507 0.015218256512445924
0.1329934 -0.025585875815421055 0.01447184025903328
0.1349933 -0.024986938063878264 0.015042150140082495
0.1369932 -0.02535396732636564 0.015105898602165962
0.1389931 -0.024812456498742672 0.015967217393330315
0.140993 -0.026336796062853503 0.015417934453328761
0.1429929 -0.025352473292017938 0.015954014967571557
0.1449928 -0.025999058880804924 0.016576936151209642
0.1469927 -0.025850886292707008 0.01609921309875768
0.1489926 -0.02698965883557574 0.016799503286518858
0.1509925 -0.025666001294764106 0.01744235054921515
0.1529924 -0.02623374852812233 0.017378356372741145
0.1549923 -0.02641673074534172 0.017321207634018194
0.1569922 -0.026462642464858684 0.01740511637771324
0.1589921 -0.02657300801091492 0.01785865366709323
0.160992 -0.02599323529180319 0.017840655855304203
0.1629919 -0.02733617607149821 0.01919323383582064
0.1649918 -0.027344076449986807 0.01936483523630299
0.1669917 -0.027412622523832864 0.019002143899751748
0.1689916 -0.02822954190859995 0.018407057927291477
0.1709915 -0.028333920304980463 0.019647490269743065
0.1729914 -0.02867903569146823 0.020103479325370575
0.1749913 -0.029331078955405973 0.019532566089649754
0.1769912 -0.029089375941392742 0.019330692930506866
0.1789911 -0.02944668776508648 0.01945116368160631
0.180991 -0.03019246006835149 0.01969460143953008
0.1829909 -0.02913027649874142 0.019908309082746524
0.1849908 -0.03064496531712712 0.019917206173256694
0.1869907 -0.03077867821588794 0.019884783211722098
0.1889906 -0.030916276239514113 0.019473934426778774
0.1909905 -0.031398997532423006 0.0197716741001523
0.1929904 -0.03079856578899199 0.01928126901473028
0.1949903 -0.0312232179285693 0.019544431269205388
0.1969902 -0.03137306096682983 0.019671059795566995
0.1989901 -0.031109249448590087 0.019026758973188704
0.20099 -0.03176305080441916 0.019697047876219828
0.2029899 -0.03174760007207632 0.020140322704736324
0.2049898 -0.03144016533010716 0.020066473316462587
0.2069897 -0.03188901279762119 0.019675612223648574
0.2089896 -0.032687928303949114 0.020094730583219617
0.2109895 -0.03245996047203553 0.020347948848696014
0.2129894 -0.03261759269559011 0.02027886846315312
0.2149893 -0.03242393948103374 0.02041266342061971
0.2169892 -0.03289434556740771 0.021028556008155293
0.2189891 -0.03256491766218107 0.020735808669570505
0.220989 -0.03278310634216904 0.020831122987029473
0.2229889 -0.03297464019900234 0.021037507025485323
0.2249888 -0.03343409119127029 0.021655760162074995
0.2269887 -0.03349088487675451 0.0218989835387514
0.2289886 -0.03370935473630601 0.02154049077231555
0.2309885 -0.03379126236278083 0.022196699263206644
0.2329884 -0.034023955176374986 0.022483935866957603
0.2349883 -0.034179799375680935 0.02280590380907732
0.2369882 -0.03503945924906702 0.023024842720765416
0.2389881 -0.034982498629754874 0.022779694344813323
0.240988 -0.03517168417089241 0.02360462395259868
0.2429879 -0.035508118764909134 0.023715514831115784
0.2449878 -0.035931069105327264 0.023558113702189347
0.2469877 -0.0363121311537714 0.02335058981477541
0.2489876 -0.03624053695607585 0.023669539905679774
0.2509875 -0.037078440843217444 0.02341356726546226
0.2529874 -0.03742846934736796 0.023987525626226774
0.2549873 -0.037894779006222484 0.024137011938892568
0.2569872 -0.037984347383550165 0.023863800905104336
0.2589871 -0.03807739239794214 0.023986225155232854
0.260987 -0.038375566236682826 0.02385566014453385
0.2629869 -0.03901884834311553 0.02411972422852846
0.2649868 -0.03889814257309196 0.024206100335993956
0.2669867 -0.03924047012689358 0.023709031938862625
0.2689866 -0.039392081295572645 0.023996051393972886
0.2709865 -0.039997214472620383 0.024650223562072596
0.2729864 -0.04020046077303953 0.024513214858003562
0.2749863 -0.04040376674361461 0.023881079194173104
0.2769862 -0.040400749359234434 0.02404588144377638
0.2789861 -0.040727445895896476 0.023993709927543204
0.280986 -0.040940397485467996 0.02466832989968181
0.2829859 -0.04091863578897326 0.024264091789398458
0.2849858 -0.04112950717103734 0.024252783894217124
0.2869857 -0.04143857397839447 0.025179094594587285
0.2889856 -0.04134878951564664 0.024364542529409287
0.2909855 -0.041900608981846735 0.024388490910247022
0.2929854 -0.04220002096869492 0.02484038318120766
0.2949853 -0.04226536193857978 0.02542733988180151
0.2969852 -0.04259693444271552 0.025487576345651887
0.2989851 -0.042843420032282996 0.02570685471395166
0.300985 -0.043128064501464336 0.025667923418474757
0.3029849 -0.04386115439415282 0.025601248893107345
0.3049848 -0.04418557517795903 0.026294099379630672
0.3069847 -0.04438431977849435 0.026407109531049036
0.3089846 -0.044055190536082055 0.025875499854959152
0.3109845 -0.044770948278901365 0.02606657915051942
0.3129844 -0.04511893729157225 0.026190443796437153
0.3149843 -0.04538130542581697 0.026414955494267867
0.3169842 -0.04548106949287732 0.026548758104910114
0.3189841 -0.046731053057644106 0.026236134419892254
0.320984 -0.04660921883850744 0.02636004597504039
0.3229839 -0.04693929047669 0.02645271216354303
0.3249838 -0.047321638692846016 0.026443400800318546
0.3269837 -0.04745220032567954 0.026460468015269842
0.3289836 -0.04800965472860701 0.02664878357931752
0.3309835 -0.04843948898774217 0.026561957540548985
0.3329834 -0.04888659285894719 0.02607669687307544
0.3349833 -0.04934708837642312 0.02652694258946138
0.3369832 -0.04925813991579937 0.026312637718839398
0.3389831 -0.04928824534022484 0.02664880200810322
0.340983 -0.04939994632092004 0.026168567449762793
0.3429829 -0.04992793601596851 0.02625876090856919
0.3449828 -0.0502508298064005 0.026087902861271432
0.3469827 -0.050486246602699944 0.025972158382256055
0.3489826 -0.05059628951614084 0.026075568423201134
0.3509825 -0.050823248926224376 0.025782558595464487
0.3529824 -0.05113682025337582 0.026236594439673935
0.3549823 -0.05124553985418855 0.026254074281899593
0.3569822 -0.051407045272991614 0.026102264799505996
0.3589821 -0.051780411823381944 0.02601683915184694
0.360982 -0.05250308660327219 0.02609625792638706
0.3629819 -0.05239770382387961 0.02628497149380953
0.3649818 -0.05227910544203353 0.026152300855320533
0.3669817 -0.05248446412316391 0.026326998980212533
0.3689816 -0.05311665523607667 0.02637179448629452
0.3709815 -0.05293874360444007 0.026567472117210725
0.3729814 -0.053106614079552056 0.02655688068561204
0.3749813 -0.05373908381643276 0.026983289718686795
0.3769812 -0.05399142050291332 0.02668134787515473
0.3789811 -0.05432255035544821 0.026766482379429832
0.380981 -0.05485082339998767 0.02673038947087409
0.3829809 -0.05508646162355953 0.026564741947270834
0.3849808 -0.05542404710308482 0.026795926867106662
0.3869807 -0.055873263126863845 0.02700424091876249
0.3889806 -0.05558400022478461 0.027303099117319634
0.3909805 -0.05618220450879344 0.027086280910282083
0.3929804 -0.057025175343644485 0.026727363716107042
0.3949803 -0.05706188075016187 0.026999571174367465
0.3969802 -0.057633606529670194 0.026781879834086187
0.3989801 -0.05799331147086684 0.027024513108521126
0.40098 -0.05827721705677848 0.02678896593067003
0.4029799 -0.05887655028810669 0.02666426565633536
0.4049798 -0.05907529511800254 0.026487859829688945
0.4069797 -0.05936131870502696 0.026448093540180895
0.4089796 -0.059317073331776604 0.026412091999385736
0.4109795 -0.060132243918634046 0.02610004263824636
0.4129794 -0.060131531008435074 0.02638135015998633
0.4149793 -0.06062536836017212 0.0259097189579141
0.4169792 -0.06074460870147829 0.026420338159713404
0.4189791 -0.060907671943692905 0.02621033244581726
0.420979 -0.061472321703899366 0.026237625970456247
0.4229789 -0.06208655774608826 0.025909844983918174
0.4249788 -0.06226289566363452 0.02616126219704749
0.4269787 -0.0623654017928736 0.025803910769456512
0.4289786 -0.06256398048157347 0.025702234907135392
0.4309785 -0.06287002388325516 0.02545030731840591
0.4329784 -0.06315192075707243 0.025489034144270055
0.4349783 -0.06354076353110141 0.025736643146889764
0.4369782 -0.0637482200452206 0.025560439752420335
0.4389781 -0.06419897366854022 0.025598631742223394
0.440978 -0.06466535611413297 0.025397730942374887
0.4429779 -0.06457235683421146 0.02550241684300336
0.4449778 -0.06508986884567552 0.025323980881932898
0.4469777 -0.06542660064367871 0.025194073153547325
0.4489776 -0.06552993436590634 0.025300189913484664
0.4509775 -0.06608495043585173 0.02492356926008195
0.4529774 -0.06661212783967131 0.02477244589156537
0.4549773 -0.06637760185160582 0.025084520293683996
0.4569772 -0.06697954173864751 0.024954199256207125
0.4589771 -0.06717181052297307 0.024911846804687207
0.460977 -0.067374047388758 0.02489429866833358
0.4629769 -0.06802879275031941 0.024684780724537603
0.4649768 -0.06805312922281606 0.024719078708436676
0.4669767 -0.06860745774189488 0.02432776571642607
0.4689766 -0.06914993819835863 0.02399985843018919
0.4709765 -0.069342867524377 0.02402821195074248
0.4729764 -0.0696987315066874 0.023689334757163456
0.4749763 -0.06975151496169239 0.023533360271788855
0.4769762 -0.07010237335540753 0.023415073990728414
0.4789761 -0.07056741400080342 0.023413172250497036
0.480976 -0.0706833118092748 0.022941260672809403
0.4829759 -0.0707902146959246 0.023041530346809364
0.4849758 -0.07119415521485696 0.023012008490266595
0.4869757 -0.07145779322210137 0.02279228514311053
0.4889756 -0.07174135010302513 0.023129317380204416
0.4909755 -0.07197250836227576 0.022793651326665835
0.4929754 -0.07245781819639309 0.022584056890177916
0.4949753 -0.07236820557909296 0.022338570432771872
0.4969752 -0.07258667864381961 0.02235674005378769
0.4989751 -0.07284025126553147 0.02250818899084733
0.500975 -0.07299068877619744 0.022260229822065863
0.5029749 -0.07322913694230453 0.022357885521978167
0.5049748 -0.07351169653320926 0.02225979602209481
0.5069747 -0.07378077356754718 0.022212333122843174
0.5089746 -0.0742200590284864 0.022094602553340666
0.5109745 -0.07443365032074971 0.022000243088103718
0.5129744 -0.07499145528573913 0.021623635237050205
0.5149743 -0.07536041959460045 0.021437944453376313
0.5169742 -0.07565196239647062 0.02147449772808793
0.5189741 -0.07604570772480755 0.021559296075325373
0.520974 -0.07618877942600707 0.02141583144801544
0.5229739 -0.07685657909296474 0.021231251698547685
0.5249738 -0.07725781527084369 0.02116902817171426
0.5269737 -0.07750351587455095 0.02108716652796809
0.5289736 -0.07794619279423103 0.020812496420965897
0.5309735 -0.07846566579793555 0.020582549164119508
0.5329734 -0.07861388833015348 0.020324413214031216
0.5349733 -0.07908699049151859 0.02011378508803447
0.5369732 -0.07953140166378128 0.019873905997885098
0.5389731 -0.07980297390027749 0.019370645588845107
0.540973 -0.08012898346524057 0.019115733088928884
0.5429729 -0.08038853444680888 0.018813832893739835
0.5449728 -0.08069857518804303 0.01864225068985151
0.5469727 -0.08092952895872599 0.018289918494911545
0.5489726 -0.08120369103524186 0.01795101304784135
0.5509725 -0.08137541214656678 0.018029858617903783
0.5529724 -0.08164714689869211 0.017834734690111667
0.5549723 -0.08201267935088008 0.01745652005096974
0.5569722 -0.08228151318450298 0.017158607687286182
0.5589721 -0.08257489111664063 0.016704024364734966
0.560972 -0.08238150292044458 0.01646456891959108
0.5629719 -0.08241338466892878 0.01629158520294441
0.5649718 -0.08245316730039012 0.016192866674258573
0.5669717 -0.0827293011174075 0.016136249387273045
0.5689716 -0.08311900477165209 0.016086033044612584
0.5709715 -0.0833402091797035 0.015629202083365046
0.5729714 -0.08333702650285507 0.015343932629979143
0.5749713 -0.08332562815979337 0.01534333738842485
0.5769712 -0.08362787756005487 0.01519382447696871
0.5789711 -0.0839039827763496 0.015118507654655687
0.580971 -0.08455906487892605 0.015101709832482307
0.5829709 -0.08476303229713285 0.015124782530125523
0.5849708 -0.08507313200232816 0.015099737777655397
0.5869707 -0.08533554296412134 0.015058342531210727
0.5889706 -0.08581498958014872 0.01478163363674076
0.5909705 -0.0859204267716558 0.01448873865642844
0.5929704 -0.08642801182301996 0.014259792357372986
0.5949703 -0.08671913971938626 0.014236822199083683
0.5969702 -0.08698164334321812 0.013703549082212947
0.5989701 -0.08743595023922493 0.01344898472984406
0.60097 -0.08796720514338409 0.013546275175275804
0.6029699 -0.08812538813362146 0.013094426570400254
0.6049698 -0.08862950144150804 0.012582336108907577
0.6069697 -0.089048268237765 0.012189959086112853
0.6089696 -0.08943019322600365 0.012116891231193402
0.6109695 -0.08973488290969761 0.01168772752833832
0.6129694 -0.09007460199499609 0.011182246554580513
0.6149693 -0.09011213958467947 0.010933938145587296
0.6169692 -0.09046348590509434 0.01056056406917541
0.6189691 -0.09060489012831105 0.01031701131994131
0.620969 -0.09091131352467906 0.010085217896877052
0.6229689 -0.0910625782570789 0.00976396761747022
0.6249688 -0.0914739286867429 0.009368247263246726
0.6269687 -0.09142642414853352 0.008917429969481985
0.6289686 -0.09155919976146057 0.008747614721008358
0.6309685 -0.09198117057994219 0.008242639597703133
0.6329684 -0.09190868670543022 0.007950206926391971
0.6349683 -0.09181352012213428 0.008070351684788049
0.6369682 -0.09212277750045283 0.007465476640285761
0.6389681 -0.0919406195644425 0.007259186773054795
0.640968 -0.09225904500122871 0.007184768832555671
0.6429679 -0.09219962477007736 0.007164294204489746
0.6449678 -0.09251156024404164 0.007107656152379828
0.6469677 -0.09276424913209526 0.006980084021868754
0.6489676 -0.09304357752743342 0.007046140827891623
0.6509675 -0.0932682834074026 0.006932206526255973
0.6529674 -0.09341366036576236 0.00650940662706239
0.6549673 -0.09346050313568495 0.006320789180318656
0.6569672 -0.09382443712968785 0.005935146861943567
0.6589671 -0.09419445280300799 0.005696863366831645
0.660967 -0.09493701875976472 0.006033193964925937
0.6629669 -0.0950630948536132 0.005673477398712878
0.6649668 -0.0954791597171091 0.005561095778457141
0.6669667 -0.09604819407069731 0.004935008881974068
0.6689666 -0.09628841254573661 0.004701889793128335
0.6709665 -0.09683829100151609 0.004515947006002892
0.6729664 -0.09719137088268652 0.004049348303694071
0.6749663 -0.09711672066304058 0.003851997782063153
0.6769662 -0.0975240321209469 0.0029597342620550082
0.6789661 -0.09787161099178943 0.002887125667625119
0.680966 -0.09797278090518309 0.002327160229786761
0.6829659 -0.09823454091641759 0.0017776019765458964
0.6849658 -0.09837848155688135 0.001423558581493005
0.6869657 -0.09871251913857748 0.001082245903856971
0.6889656 -0.0989297767328088 0.0005659148070071493
0.6909655 -0.09921509323642913 0.00015093150982544573
0.6929654 -0.09940612190866784 -0.0005228569795113491
0.6949653 -0.0996987678428936 -0.0009270262557595846
0.6969652 -0.09965622579912373 -0.001496899574072355
0.6989651 -0.0998917401228292 -0.00182065918495182
0.700965 -0.09986613764200411 -0.002298229383228316
0.7029649 -0.0998022506908946 -0.0027968486917462343
0.7049648 -0.09989475216367315 -0.003240506234577209
0.7069647 -0.09968626087829346 -0.0034139094460331407
0.7089646 -0.09984024193123803 -0.003830471930158244
0.7109645 -0.09973066865646278 -0.004146409745226717
0.7129644 -0.09941834346403468 -0.0042602032534547266
0.7149643 -0.09971499428231322 -0.004650859227276732
0.7169642 -0.09955114456761624 -0.004720790535215645
0.7189641 -0.09981118657664029 -0.004881985064397909
0.720964 -0.09997524227075899 -0.004979779954395497
0.7229639 -0.10041340275811157 -0.005285428890361779
0.7249638 -0.1002718479202858 -0.005799962686897517
0.7269637 -0.10023813165081431 -0.005794881519116765
0.7289636 -0.10046551455959675 -0.006072718947953706
0.7309635 -0.100643910733387 -0.006061728359377322
0.7329634 -0.100847287035469 -0.006283529887273015
0.7349633 -0.10110262875059797 -0.006566805198141498
0.7369632 -0.10141733092547423 -0.006644372773532067
0.7389631 -0.10199637965887606 -0.006891555923738246
0.740963 -0.10237377197658964 -0.007514346781472801
0.7429629 -0.10282819409222746 -0.007602854988384082
0.7449628 -0.10287452159119792 -0.0077558565849474015
0.7469627 -0.10360102099621964 -0.008284187183014602
0.7489626 -0.10365966162454145 -0.008906075120630873
0.7509625 -0.1038348172946736 -0.00919155500856065
0.7529624 -0.10434232606210746 -0.00993200380216163
0.7549623 -0.10453375906534924 -0.010086755093036373
0.7569622 -0.10486318498356537 -0.010781386682812082
0.7589621 -0.10503863667896468 -0.01154594194562929
0.760962 -0.10515874449028069 -0.011794215779440797
0.7629619 -0.10518065314640206 -0.012407864915989317
0.7649618 -0.1056733887380376 -0.012846279176629123
