! Created with skrf 1.8.0 (http://scikit-rf.org).
# GHz S RI R 50.0 
!freq ReS11 ImS11
0.001 1.003899725700113 0.008774695774257463
0.0029999 1.0066298613812605 0.01568339189837272
0.0049998 1.0069351183311974 0.02497123113471609
0.0069997 1.0096399372748193 0.030938051185181017
0.0089996 1.0105466063325814 0.038170664362020386
0.0109995 1.0112675496478651 0.04491745135489747
0.0129994 1.0111813661935973 0.052284283918977166
0.0149993 1.0109247241087607 0.05888359481425319
0.0169992 1.010632001962115 0.06518802808395326
0.0189991 1.0102899514583674 0.07355411741152564
0.020999 1.0100150389869935 0.08014851031049045
0.0229989 1.0094912449245046 0.08741543012328712
0.0249988 1.0091112180250723 0.09412230637671404
0.0269987 1.0089679384267303 0.10212998156495925
0.0289986 1.0078950068349175 0.1090635984054288
0.0309985 1.0070447860333989 0.11590458650445432
0.0329984 1.006731281503062 0.12404306544839637
0.0349983 1.0056867986266607 0.13159797154954478
0.0369982 1.004125832501618 0.1387959981294438
0.0389981 1.0042568606558424 0.14633682993806343
0.040998 1.0032597517373982 0.15235516433937535
0.0429979 1.0022351558483873 0.160864204077982
0.0449978 1.0010689199252738 0.16755363670368115
0.0469977 0.9987573738457739 0.17537179530976496
0.0489976 0.9990394326588662 0.18242527451624685
0.0509975 0.9966532256022191 0.18945591143866078
0.0529974 0.9966359950072241 0.19492069348964636
0.0549973 0.995007842312909 0.20556370346837352
0.0569972 0.9932302951570363 0.21094201981499044
0.0589971 0.9916677832146336 0.21837900403268423
0.060997 0.9901619610207107 0.22504184645044603
0.0629969 0.9877430928979349 0.23326594063526357
0.0649968 0.986672214591307 0.23965404524765463
0.0669967 0.9853057492725509 0.24655604973572193
0.0689966 0.9836232190481888 0.25389399811319857
0.0709965 0.9813199972067109 0.26209538263158083
0.0729964 0.9795458486702734 0.2679808036934149
0.0749963 0.9775701658060969 0.275057148175748
0.0769962 0.9754561346515462 0.2823455807552341
0.0789961 0.9737880763241594 0.28931522190555753
0.080996 0.9710751029294159 0.29625178030549354
0.0829959 0.9700585232903339 0.30286205235298563
0.0849958 0.9665127728920136 0.3106868493009591
0.0869957 0.9654485663290848 0.31724410247397616
0.0889956 0.9622364372751108 0.3246616343133849
0.0909955 0.9598765250584951 0.331295680095761
0.0929954 0.95879338638779 0.3375448165413079
0.0949953 0.9558090101315698 0.3456361202708325
0.0969952 0.9525624996911383 0.3533118827553314
0.0989951 0.9517332923153873 0.36049578009513544
0.100995 0.9477774949197697 0.3659158348001513
0.1029949 0.9466067123582672 0.3720911639411496
0.1049948 0.9429667542328414 0.38004685516057796
0.1069947 0.9403716953386317 0.3866479472046142
0.1089946 0.9365212756306514 0.39363961424639404
0.1109945 0.9347894074375298 0.40054788520321033
0.1129944 0.931924862427864 0.40705342160930263
0.1149943 0.9290752391300479 0.41412599035740305
0.1169942 0.925352825749288 0.42040361893863165
0.1189941 0.9239525706501948 0.42645740384352615
0.120994 0.9209263529129539 0.4328532512531885
0.1229939 0.9171451147521636 0.4404773395325029
0.1249938 0.9142978966431987 0.4463429950705392
0.1269937 0.91052906951203 0.45396998470533134
0.1289936 0.9076370961604677 0.4601555280733672
0.1309935 0.904365042812205 0.4656413515136405
0.1329934 0.9003423890607438 0.47279802950502486
0.1349933 0.8977059920364115 0.47892141594920123
0.1369932 0.8935209453221175 0.4872351190257099
0.1389931 0.8914438176038831 0.49135723624341027
0.140993 0.886266571593424 0.4998969102039722
0.1429929 0.8829951225224153 0.5049275772087387
0.1449928 0.8799236320610123 0.5116821462715885
0.1469927 0.8766483043298154 0.5172928441319996
0.1489926 0.8718413709761569 0.5244409305720887
0.1509925 0.8691955352153676 0.5309436727188599
0.1529924 0.8656231321222052 0.5360811893317449
0.1549923 0.8612495142937299 0.5431059970097158
0.1569922 0.856932736425825 0.5488317142495437
0.1589921 0.8535465393287042 0.5557426761862668
0.160992 0.8493752391068359 0.5609890364609901
0.1629919 0.8454404283566718 0.5673989488010067
0.1649918 0.8416789930504451 0.5736846198656748
0.1669917 0.8381109743455568 0.579454735416747
0.1689916 0.8328381253477969 0.5855307324228455
0.1709915 0.8297483456209667 0.5920423586324775
0.1729914 0.8255418028928745 0.5978564078694516
0.1749913 0.8210471458399974 0.6045896349841001
0.1769912 0.8161562669394211 0.6093242871845176
0.1789911 0.8116939601422233 0.6155724876791872
0.180991 0.808204155710128 0.6217893943126396
0.1829909 0.8040558896975528 0.6261657956461127
0.1849908 0.7976429074152429 0.6334199238753351
0.1869907 0.7939147932672246 0.6402925137087554
0.1889906 0.7898438532559164 0.6443685569139397
0.1909905 0.7851658254584224 0.6503154952169119
0.1929904 0.7807825839565479 0.655523313431872
0.1949903 0.776020246053305 0.6614534370165988
0.1969902 0.7713543732556317 0.6672065230644347
0.1989901 0.7659489909983069 0.6715240966637352
0.20099 0.7613615736885699 0.678328300550654
0.2029899 0.75693743391842 0.6836981754437733
0.2049898 0.7513666840041041 0.688878035587045
0.2069897 0.7470273237293884 0.69417714116068
0.2089896 0.7426015894748611 0.70012508181521
0.2109895 0.737050213091132 0.7050960091426732
0.2129894 0.7324218908299192 0.710668480670786
0.2149893 0.726934800316883 0.7156433988605316
0.2169892 0.722145055514143 0.720921388756052
0.2189891 0.7167002203223688 0.7256313280615828
0.220989 0.7119647135779574 0.7313667996931865
0.2229889 0.7065701729370805 0.7356886937702721
0.2249888 0.7019032292717162 0.741829850143491
0.2269887 0.6962390229185156 0.7463948930002978
0.2289886 0.6913285164987631 0.7510705538032296
0.2309885 0.6856845643146278 0.7558435779111716
0.2329884 0.6804449137347344 0.7606795121140781
0.2349883 0.675246821300661 0.7666216007575355
0.2369882 0.6695807175908735 0.7704706725117153
0.2389881 0.6638924675243186 0.7756204660339083
0.240988 0.6594550545323177 0.7808310590300855
0.2429879 0.6532072026807987 0.7849562471726917
0.2449878 0.6475807115764568 0.7897469278914591
0.2469877 0.6420836829713438 0.7941316867218403
0.2489876 0.6372245239430611 0.7987397748807251
0.2509875 0.6310071408499635 0.8034362873521691
0.2529874 0.6257239995482432 0.8084630815777416
0.2549873 0.6195132786343659 0.8124474089377741
0.2569872 0.6138278328949995 0.8167242471287353
0.2589871 0.6083983330356987 0.821523148589833
0.260987 0.6026792604954107 0.8257040350668164
0.2629869 0.5964136931102585 0.8295406043534203
0.2649868 0.5916309713356614 0.8342661880518444
0.2669867 0.58531238587555 0.8371732162026994
0.2689866 0.5792585622509119 0.8422436861550056
0.2709865 0.5734720057082496 0.8477619902906294
0.2729864 0.5671665068614634 0.8510253173468315
0.2749863 0.5613267782843442 0.8538820834740539
0.2769862 0.5553227422151593 0.8583207490316949
0.2789861 0.5489504941175735 0.8623235487284797
0.280986 0.5437773595583066 0.8668517012200339
0.2829859 0.5375348474503774 0.8697762356222897
0.2849858 0.5315936797761014 0.8743920529624634
0.2869857 0.5255224214518317 0.878192373885777
0.2889856 0.5189167305505832 0.8812445115179801
0.2909855 0.5130231425258659 0.8853696651413754
0.2929854 0.5070581050414331 0.8887330274353462
0.2949853 0.5006735234767382 0.8930074181888904
0.2969852 0.49502527355799053 0.8963530008676163
0.2989851 0.48805703369814063 0.8997985924182837
0.300985 0.4822158661268248 0.9033783426195879
0.3029849 0.4758353434861177 0.9060343729816268
0.3049848 0.47036548941167655 0.9108050673059891
0.3069847 0.46323763340580476 0.9142979751582019
0.3089846 0.45679526258539793 0.9156765353508614
0.3109845 0.450725496727351 0.9194962084780632
0.3129844 0.443917706661505 0.9235723415758988
0.3149843 0.43776480302918036 0.9261081309518585
0.3169842 0.43224672117626306 0.9294953106826965
0.3189841 0.4240218192612373 0.9324179926296853
0.320984 0.4175957849312942 0.935685568799694
0.3229839 0.4120193368427606 0.9391757215660428
0.3249838 0.40493855907706 0.9415727222860023
0.3269837 0.39924684800259086 0.9449497516990688
0.3289836 0.39319976426114933 0.9475609566517541
0.3309835 0.3854112229714118 0.9509007134355975
0.3329834 0.37851386389335895 0.9525514169739042
0.3349833 0.37218364161399475 0.9552615118181242
0.3369832 0.3657946602510407 0.9583712554183204
0.3389831 0.3598721108134889 0.9612749932944448
0.340983 0.35321867638150295 0.9638174484136507
0.3429829 0.34616631102948775 0.9664123373374961
0.3449828 0.33866507186515543 0.9681814428962335
0.3469827 0.3324577795536773 0.9706273175223442
0.3489826 0.3257415380300469 0.9733295922353286
0.3509825 0.319358163024688 0.9749831742317755
0.3529824 0.3126356823696619 0.9776754517906164
0.3549823 0.3066537478035761 0.9806280880471226
0.3569822 0.2997763372302632 0.9823216190869956
0.3589821 0.29200244848752555 0.9847420355848862
0.360982 0.2849078079902588 0.9866858188252899
0.3629819 0.27879994379048995 0.9896761366657355
0.3649818 0.27210393260843885 0.9908225704608552
0.3669817 0.26500808565988965 0.9930361520848505
0.3689816 0.25765218149947977 0.9949801720501941
0.3709815 0.251987394880421 0.9965594786121013
0.3729814 0.24393954218963815 0.9985453953234392
0.3749813 0.2383793814330074 1.0001762659795925
0.3769812 0.23152179627521446 1.002054657327585
0.3789811 0.22440077393300709 1.0034041171154409
0.380981 0.2167937778457631 1.005248077180699
0.3829809 0.20985445657701213 1.005496333934334
0.3849808 0.20331784191992186 1.007835734839169
0.3869807 0.19616865347557788 1.0092057107996095
0.3889806 0.1893931233231946 1.0115045424728495
0.3909805 0.18329638099954088 1.0128694858613747
0.3929804 0.17525109066312058 1.0134182373563025
0.3949803 0.1691345067593696 1.0154169247672071
0.3969802 0.16176635733963313 1.016628923688668
0.3989801 0.15480294690357205 1.0179083670321938
0.40098 0.14843930051991389 1.0185697050598033
0.4029799 0.14096585379621052 1.019558003972931
0.4049798 0.1339263543736962 1.0212388015307623
0.4069797 0.12721696227932183 1.0218006077762283
0.4089796 0.1205048374165051 1.0227294123573107
0.4109795 0.11298726644021402 1.0233595462255531
0.4129794 0.10608270478073711 1.0247767603460858
0.4149793 0.09945831791635974 1.0253737393528186
0.4169792 0.09225522835645883 1.0266953783910215
0.4189791 0.08582151931911093 1.0274034117288438
0.420979 0.07895688616466257 1.027740349087902
0.4229789 0.07127138407529379 1.0286778719140466
0.4249788 0.06465281847062135 1.0288451781735488
0.4269787 0.057979801561376616 1.029419412456935
0.4289786 0.05109271955771886 1.0301413580381633
0.4309785 0.04388982142761942 1.030208421380415
0.4329784 0.03683603868723723 1.0302421924814993
0.4349783 0.029382184394594495 1.0312293087466966
0.4369782 0.02307019485510607 1.0321395862433673
0.4389781 0.01601289066702683 1.0319420055873123
0.440978 0.008739185748010934 1.032337837746287
0.4429779 0.0023093236059964217 1.032733397212723
0.4449778 -0.005506880894608206 1.0319185743462866
0.4469777 -0.011985139024676572 1.0323799504344826
0.4489776 -0.018227276862473614 1.0326212878426437
0.4509775 -0.02558650161697152 1.0318942414510908
0.4529774 -0.032628003945705523 1.0317234137436053
0.4549773 -0.03902262826994096 1.0321445973657457
0.4569772 -0.046377484910339585 1.0314690306718999
0.4589771 -0.05358165588860443 1.0316479376705303
0.460977 -0.06048122391469184 1.0320831412081943
0.4629769 -0.06755074179724042 1.031378667169931
0.4649768 -0.07441182016653208 1.031333215109263
0.4669767 -0.08107568979998855 1.0307731571454783
0.4689766 -0.08764776990153694 1.030099905738339
0.4709765 -0.09510942851253495 1.0295765461558284
0.4729764 -0.10208996650591909 1.0286581718840175
0.4749763 -0.10886006800719406 1.0281568857032466
0.4769762 -0.11543787589839763 1.0277040636121195
0.4789761 -0.122718460977888 1.026586789189899
0.480976 -0.12941791588684343 1.0261583590129686
0.4829759 -0.13559806936729574 1.0258852904720364
0.4849758 -0.14285280101881687 1.0247752964150871
0.4869757 -0.1500818234019028 1.0239274846734958
0.4889756 -0.15695379670998594 1.0237391877536497
0.4909755 -0.16394928425093636 1.022463341614142
0.4929754 -0.1709068240720922 1.0210090472025504
0.4949753 -0.17729146378838762 1.020266697692256
0.4969752 -0.1837647151917963 1.019196698730279
0.4989751 -0.19086164901603353 1.0185243862897995
0.500975 -0.19741509251774608 1.0169380653718938
0.5029749 -0.20452187244781822 1.0160877685908551
0.5049748 -0.21127064436420542 1.0149824595966994
0.5069747 -0.21781439101653605 1.0132417524090724
0.5089746 -0.2245954542982398 1.0121765139444556
0.5109745 -0.23134754280823935 1.0106424676978574
0.5129744 -0.23808452901563076 1.0087065831793136
0.5149743 -0.24491434958905792 1.0074019375808079
0.5169742 -0.2511714054971016 1.006065992818884
0.5189741 -0.2579676669505375 1.004552962358115
0.520974 -0.26487446454436614 1.003083909931231
0.5229739 -0.271194989569961 1.0018908975636716
0.5249738 -0.2783146259650491 0.9996650070812013
0.5269737 -0.28495324896924723 0.9980519353177864
0.5289736 -0.2911096006251937 0.9966526011643585
0.5309735 -0.29835236936289267 0.9943991002394769
0.5329734 -0.30441190199844204 0.9930343082364036
0.5349733 -0.310929889271227 0.990976987386362
0.5369732 -0.31777528045913805 0.9889970806053263
0.5389731 -0.32420222596056397 0.9868206800051548
0.540973 -0.33046319773876764 0.9847696014901758
0.5429729 -0.33744832018642446 0.9823355815713939
0.5449728 -0.34372308738565066 0.9805093805947829
0.5469727 -0.3500008906389291 0.9784317200730026
0.5489726 -0.35648059371563956 0.9765109922243294
0.5509725 -0.36307473931776946 0.9744056498007344
0.5529724 -0.3692572051595927 0.9721120182228985
0.5549723 -0.3758899909390342 0.9700655250399087
0.5569722 -0.38227462442520244 0.9673113242790116
0.5589721 -0.388700157024037 0.9648337292544396
0.560972 -0.3948616210693958 0.9626890127881984
0.5629719 -0.4010216479618507 0.9601356070890332
0.5649718 -0.40738720800478073 0.957465057233314
0.5669717 -0.413701202675145 0.9550580336628285
0.5689716 -0.42044292931080296 0.9523956298636865
0.5709715 -0.42638914842410736 0.949503988800835
0.5729714 -0.4324677355573916 0.9476824539674347
0.5749713 -0.4387697389674415 0.944860777006129
0.5769712 -0.445242779716318 0.9416182395916272
0.5789711 -0.45080166018358264 0.9390334205427713
0.580971 -0.4571377681802042 0.9360278602750597
0.5829709 -0.46341595582682604 0.9332889929818033
0.5849708 -0.4697432762800927 0.9306380966627984
0.5869707 -0.4754030943255011 0.9277263695141819
0.5889706 -0.4819578567857423 0.9244424925632838
0.5909705 -0.48738022992649543 0.9217942837764979
0.5929704 -0.4938280545780433 0.918528569263558
0.5949703 -0.4995581933139755 0.915819863804625
0.5969702 -0.5053112550940371 0.9129173296981724
0.5989701 -0.5114902936818334 0.9093785426282772
0.60097 -0.5176478570856168 0.9062706706754374
0.6029699 -0.5237529527020819 0.9030602416842485
0.6049698 -0.5291353426061824 0.8996004677716999
0.6069697 -0.535131750172539 0.896584564822815
0.6089696 -0.5406680826174038 0.8928757642724312
0.6109695 -0.5465707884161738 0.8897308602550126
0.6129694 -0.5524787382637838 0.8864900761633099
0.6149693 -0.5578157639696496 0.882509146809602
0.6169692 -0.56383973068288 0.8787528837334135
0.6189691 -0.5694763820142005 0.8754047855121008
0.620969 -0.5753183266312809 0.872588005546229
0.6229689 -0.5812411375953388 0.8688758109129596
0.6249688 -0.5869170343878535 0.8649030483194219
0.6269687 -0.5923112015298577 0.8613657648125911
0.6289686 -0.5977952171619912 0.8578132982332867
0.6309685 -0.603578073323912 0.8539396504973191
0.6329684 -0.6089742223009005 0.850424081158439
0.6349683 -0.614768287152352 0.8465823180885275
0.6369682 -0.6201321024593206 0.842870294243032
0.6389681 -0.6253436880841599 0.8391187746164465
0.640968 -0.6309396451067038 0.834898466847441
0.6429679 -0.6364587001218418 0.8312570157082041
0.6449678 -0.6419084059401858 0.82717612182121
0.6469677 -0.6473293550777885 0.823364389749359
0.6489676 -0.652508684476589 0.8193234224520746
0.6509675 -0.6575756843594572 0.8154335040984769
0.6529674 -0.6630547200920949 0.8111718738390528
0.6549673 -0.668131549825023 0.8072342458700658
0.6569672 -0.6733837044920454 0.8032832058395141
0.6589671 -0.6787605966071848 0.79876065536149
0.660967 -0.6838150270885685 0.7947607790789399
0.6629669 -0.6893091157693174 0.7903289127718834
0.6649668 -0.6938500881149675 0.7862103872588482
0.6669667 -0.6992782250509029 0.7820509091365362
0.6689666 -0.7037064651435425 0.7777684856200638
0.6709665 -0.7091329502677436 0.7733794618537359
0.6729664 -0.7141367839890388 0.7691361411143868
0.6749663 -0.7190141490382777 0.7644657069262586
0.6769662 -0.7238618100468193 0.7598444541428724
0.6789661 -0.7288319759462424 0.7555990928874515
0.680966 -0.7336623261183137 0.7513354117917176
0.6829659 -0.7382452155032059 0.7467152420919843
0.6849658 -0.7432587135240953 0.7421942962307365
0.6869657 -0.7480080015633901 0.7374399773805648
0.6889656 -0.752764061519353 0.7330166113896053
0.6909655 -0.7571356833213903 0.7285560429885943
0.6929654 -0.7620589856651239 0.7236305356956828
0.6949653 -0.7667401586498089 0.719032879795646
0.6969652 -0.7713767796746278 0.714433902671322
0.6989651 -0.7759862460144349 0.7094359374976149
0.700965 -0.780645420426634 0.7048413667433922
0.7029649 -0.7851926749433816 0.7000576847624556
0.7049648 -0.7895679567184293 0.695247733637738
0.7069647 -0.7941828386530851 0.6904109213503953
0.7089646 -0.7985170693184804 0.6853130524785435
0.7109645 -0.8027996393007177 0.6805085869848977
0.7129644 -0.8072597591456122 0.6758250435507943
0.7149643 -0.8116009945475045 0.6706892935539959
0.7169642 -0.8158108724563908 0.6658424161035917
0.7189641 -0.8202494309040623 0.6607756982419195
0.720964 -0.8246308794122081 0.6558453339763165
0.7229639 -0.8288382101981377 0.6507197295888172
0.7249638 -0.8327229756505947 0.6456373309031619
0.7269637 -0.8369534092975973 0.6403926374184709
0.7289636 -0.8410932499584483 0.635701856132961
0.7309635 -0.8449781185996065 0.6300989249050587
0.7329634 -0.8490475906361198 0.6251081362786819
0.7349633 -0.8530528469074424 0.6199709670706367
0.7369632 -0.8571957151075433 0.6146968519532252
0.7389631 -0.8609880799625385 0.6094218562703977
0.740963 -0.8650772528988367 0.604435630272763
0.7429629 -0.8688895477974389 0.5986525203431523
0.7449628 -0.8724858772551009 0.5936207137361603
0.7469627 -0.8762365385207789 0.5881065606450415
0.7489626 -0.8799220392880477 0.5828671927734757
0.7509625 -0.8839460980956115 0.5775345889318219
0.7529624 -0.8871533230376109 0.5719480745604621
0.7549623 -0.8909718343632426 0.5666067197786778
0.7569622 -0.8947132556143057 0.5612668899635356
0.7589621 -0.898470468783136 0.5559553908130052
0.760962 -0.901763288016617 0.5505371855492487
0.7629619 -0.9055401218963874 0.5447434201373675
0.7649618 -0.9089007823944936 0.5392623625129086
0.7669617 -0.9121859476053358 0.5340032224175599
0.7689616 -0.9158535220390475 0.5284192768687402
0.7709615 -0.9194499466929945 0.5227835635399726
0.7729614 -0.9225873943630719 0.5171511281162315
0.7749613 -0.9259585858435384 0.511539838236729
0.7769612 -0.9294972163506411 0.505836058328092
0.7789611 -0.9324729112090022 0.5002665145547648
0.780961 -0.9358668037739929 0.4946591222634869
0.7829609 -0.9389975644278755 0.48894219443511433
0.7849608 -0.9421580579851158 0.4832511588974366
0.7869607 -0.9452721550440946 0.47740133221335457
0.7889606 -0.948281550485375 0.4718057484411005
0.7909605 -0.9514713888255867 0.46596512367429105
0.7929604 -0.9543522201283343 0.46033005918371117
0.7949603 -0.9574108962108432 0.45445545842074997
0.7969602 -0.9603112718169184 0.4486412979445867
0.7989601 -0.9631790881237244 0.44276044765149375
0.80096 -0.9660006910769103 0.4370143671756166
0.8029599 -0.9688113328414197 0.4311006695495046
0.8049598 -0.9716143839303653 0.42521115161862294
0.8069597 -0.9743975809916159 0.4194129140495181
0.8089596 -0.9772124494279898 0.413358359982552
0.8109595 -0.9801643020111555 0.4077894402942893
0.8129594 -0.9823166109494654 0.4016326359919835
0.8149593 -0.985083621138249 0.395725175526547
0.8169592 -0.9874828731735172 0.3894244605963488
0.8189591 -0.9902820294349912 0.3838878529518543
