! Created with skrf 1.8.0 (http://scikit-rf.org).
# GHz S RI R 50.0 
!freq ReS11 ImS11
0.001 1.0039749108353142 0.011164349484408614
0.0029999 1.0032376062475823 0.019319318032336316
0.0049998 1.005778417842732 0.025507410327604854
0.0069997 1.0078747216075645 0.03199827589255111
0.0089996 1.0095145649883142 0.0377108452641469
0.0109995 1.010581115312889 0.04545997380915422
0.0129994 1.0106090154364065 0.05175754143630906
0.0149993 1.0101419326912455 0.05884924401345106
0.0169992 1.0103370082067162 0.0649655455804818
0.0189991 1.0093471887583543 0.07307272245478245
0.020999 1.0092789992837246 0.08032666829015805
0.0229989 1.0093360313741613 0.0871999941911796
0.0249988 1.0088143956381554 0.0956698385354757
0.0269987 1.0082725809218107 0.1023304446055651
0.0289986 1.0074718976869637 0.10847850403635453
0.0309985 1.0069335804279063 0.11698984849857465
0.0329984 1.0059367329287967 0.12304990209734862
0.0349983 1.0052827748468331 0.130609650617254
0.0369982 1.0034411246741137 0.13789697821166283
0.0389981 1.00357805901153 0.1450386072220977
0.040998 1.0026565344574614 0.152436169102238
0.0429979 1.0020093811364852 0.16085401705980606
0.0449978 1.000290060853565 0.1663312783386171
0.0469977 0.9989653559275112 0.17551288632149417
0.0489976 0.9987423730590153 0.18177733585874095
0.0509975 0.9968489288584144 0.18882748934749083
0.0529974 0.9952604272304658 0.1968561695342721
0.0549973 0.9937957247756135 0.20375368747121322
0.0569972 0.9925068721384416 0.20986451666135983
0.0589971 0.9908183105237919 0.2173244131330017
0.060997 0.9900302681226073 0.22390942560373933
0.0629969 0.9879703833480568 0.2319672764406778
0.0649968 0.9862998188585947 0.2388122691468509
0.0669967 0.985120523702761 0.24552202922769223
0.0689966 0.9835386189356196 0.25253120002002455
0.0709965 0.981081914544722 0.26073335671283254
0.0729964 0.9790862620107352 0.2671174451343848
0.0749963 0.9777501918251289 0.27417619272628857
0.0769962 0.9755082522506509 0.28149137859424955
0.0789961 0.973854442547869 0.2883556516007481
0.080996 0.9713817278912517 0.2949303784137894
0.0829959 0.9699865615665885 0.30222383979775497
0.0849958 0.9668742477995728 0.3093242756420374
0.0869957 0.9653186529985908 0.31658002306676214
0.0889956 0.9625509269183484 0.3242104567671798
0.0909955 0.9604611741266005 0.3304127098502109
0.0929954 0.9591326346862873 0.3366296105423241
0.0949953 0.9552833988717421 0.34499082930098035
0.0969952 0.952811475928715 0.35095215028517696
0.0989951 0.9521560557424258 0.35750873091948815
0.100995 0.9478825226612905 0.36474478675031213
0.1029949 0.9455106474782734 0.3717812970343288
0.1049948 0.9429713102425545 0.37826797571395765
0.1069947 0.9406901222818942 0.38526607669161017
0.1089946 0.9370650093462898 0.3919882556331534
0.1109945 0.9348739349369182 0.3983655070735985
0.1129944 0.9321671883986345 0.40514715854389227
0.1149943 0.9291524061269318 0.4124797762084385
0.1169942 0.9255300970345599 0.4187113677709036
0.1189941 0.923888661534947 0.4249327928539762
0.120994 0.9208096962472307 0.43174886036847904
0.1229939 0.9175622577987376 0.4391885056163126
0.1249938 0.9139179124196602 0.4451787356966577
0.1269937 0.9112464246923186 0.4520225849431666
0.1289936 0.9089370568074702 0.4584923860718413
0.1309935 0.9052757672782522 0.4642311979983777
0.1329934 0.9004737855376517 0.4713530741835823
0.1349933 0.8980225052523989 0.4777103073915785
0.1369932 0.8941275161721192 0.4852440766360794
0.1389931 0.8918158539659924 0.4904650124882917
0.140993 0.8871068142376471 0.49738667581261736
0.1429929 0.8836710787008006 0.5027984884279487
0.1449928 0.8807880360384968 0.5098487193444565
0.1469927 0.87689129843676 0.515550112081754
0.1489926 0.8727151969773748 0.5223404887976048
0.1509925 0.8705822278117005 0.5289619681380591
0.1529924 0.8663137354345763 0.534056703057557
0.1549923 0.8622601413695703 0.5415640412246988
0.1569922 0.8574253905135545 0.5465649275097446
0.1589921 0.854322138926661 0.5534840442398731
0.160992 0.8501999054396001 0.5591315945608499
0.1629919 0.8464454825973772 0.5654904324607937
0.1649918 0.8427918035977736 0.5723156464220321
0.1669917 0.839328394783213 0.5772521059364952
0.1689916 0.8335057013623465 0.5833130122007008
0.1709915 0.83097557049525 0.5898270283027293
0.1729914 0.8266053250709002 0.5959886693118471
0.1749913 0.8217908052350158 0.6021570264274703
0.1769912 0.8172953684952932 0.6070018032611154
0.1789911 0.8131124103390024 0.6129890432020004
0.180991 0.8090309256696371 0.6196891867125266
0.1829909 0.8046539194627498 0.6235193594602002
0.1849908 0.7995037163345071 0.6309992505132029
0.1869907 0.7955606362136087 0.6370841638909532
0.1889906 0.7912594704793906 0.6420512428125451
0.1909905 0.7869532973553863 0.6481327142347035
0.1929904 0.7827059499882653 0.652903013835263
0.1949903 0.7780619089589829 0.6591164851213325
0.1969902 0.7732346139197971 0.6646591803737381
0.1989901 0.7681951829488185 0.6692761995443084
0.20099 0.7643750081107199 0.6756582114971551
0.2029899 0.7587204004642744 0.6818077699735288
0.2049898 0.7544983721322165 0.6865585528939755
0.2069897 0.7492910051869561 0.6916229979589529
0.2089896 0.7447107276231628 0.6974780683072567
0.2109895 0.7390843301235392 0.7024517546227987
0.2129894 0.7346882567000671 0.7086205506184727
0.2149893 0.7294861934232646 0.7131057287033522
0.2169892 0.7245761875049989 0.7189971581472787
0.2189891 0.7191651085868631 0.7237325737689374
0.220989 0.7144562890194811 0.728652660564042
0.2229889 0.7094333957377766 0.7330745167300381
0.2249888 0.7043024102058375 0.7393192257113463
0.2269887 0.6988725866727257 0.7437417336237011
0.2289886 0.6939996940255881 0.7483644346975568
0.2309885 0.6882789184734764 0.7533711146248128
0.2329884 0.6829242798966303 0.7578306879497846
0.2349883 0.6775038138901627 0.7635062203553581
0.2369882 0.6719254824481519 0.7684178034030925
0.2389881 0.6668429116013006 0.7730789736304148
0.240988 0.6621853089611177 0.7783441479107938
0.2429879 0.656429063131579 0.7827281606740596
0.2449878 0.6504883065760334 0.7872525817657114
0.2469877 0.6452628332717296 0.7917425600583955
0.2489876 0.6400297487268384 0.796096187113657
0.2509875 0.6334112535676859 0.800695422408999
0.2529874 0.6279062979126191 0.8056131551455732
0.2549873 0.622299301602015 0.8098606934437348
0.2569872 0.6169351953816652 0.8139996791757592
0.2589871 0.6114435271795076 0.8190397400117146
0.260987 0.6060294147473937 0.8231451904497145
0.2629869 0.5998782215025592 0.8272835405793986
0.2649868 0.594638401394663 0.8319320203218687
0.2669867 0.5885845898509708 0.8355039190321064
0.2689866 0.5824952366128631 0.8398477802251235
0.2709865 0.5766759600529576 0.8452660211183183
0.2729864 0.5710339546530279 0.8487390539704645
0.2749863 0.5647107919612738 0.8514958595780335
0.2769862 0.5592574880133919 0.8564533376160682
0.2789861 0.5528606991458527 0.8601924215881915
0.280986 0.5469987183747338 0.8640758479881414
0.2829859 0.5411101866164143 0.8679680017568085
0.2849858 0.5349658058848854 0.8718026605439898
0.2869857 0.5294117138745732 0.8762594809581662
0.2889856 0.522573037100836 0.8795020318111488
0.2909855 0.5165549282321897 0.8830002557693917
0.2929854 0.5106383200481298 0.886915641186522
0.2949853 0.5045855103290257 0.8906727137809001
0.2969852 0.49874954831967383 0.894161083712847
0.2989851 0.49200332468472424 0.8976820735268192
0.300985 0.486240487220964 0.9011838305504091
0.3029849 0.4797838734186145 0.9037084468670028
0.3049848 0.4738049800189957 0.9083813662737064
0.3069847 0.46785601914433894 0.9117682694079703
0.3089846 0.4614582515795506 0.9138266034026892
0.3109845 0.4549351547486778 0.9175851516615909
0.3129844 0.4485649786719366 0.9212092602318911
0.3149843 0.44220255973494765 0.924107275832312
0.3169842 0.4365377742289166 0.9273507667674741
0.3189841 0.42862994518197184 0.9304436742035382
0.320984 0.4225417418863925 0.9337779152915334
0.3229839 0.41630981897073355 0.9366839110678444
0.3249838 0.4101330219165286 0.9393153204403398
0.3269837 0.40424526978147846 0.9426314589605765
0.3289836 0.39715334563872223 0.9460308995785477
0.3309835 0.3908710665014852 0.949152481789304
0.3329834 0.38395421712590544 0.9507086191901194
0.3349833 0.37723370384568644 0.9538672477338006
0.3369832 0.370994267703185 0.9561526818364032
0.3389831 0.3646536311018348 0.9591737812035805
0.340983 0.35762662106491006 0.9619775687137094
0.3429829 0.3511627871190477 0.9643178455473752
0.3449828 0.34449858273495354 0.966696944675359
0.3469827 0.3376914775898379 0.9692704043821232
0.3489826 0.3315789651531097 0.9712694935332069
0.3509825 0.32420785732420465 0.9733793870538531
0.3529824 0.3179554490800239 0.9760226537629877
0.3549823 0.3118405795772214 0.9790738195465177
0.3569822 0.3045256836136898 0.9809340304732345
0.3589821 0.2977593392065125 0.9831551168441399
0.360982 0.2903168473636309 0.984913039475892
0.3629819 0.2845940242111258 0.9878893198965742
0.3649818 0.277972554476085 0.9891445068762359
0.3669817 0.2706241768056115 0.9913787259343307
0.3689816 0.26354679528713654 0.9933379395404769
0.3709815 0.257927371769133 0.9947331809603432
0.3729814 0.25045216738494436 0.9968143495073667
0.3749813 0.2442908625988446 0.9988644359365773
0.3769812 0.23771210041961077 1.0001939145533874
0.3789811 0.23058126835371062 1.0022780514003249
0.380981 0.22320435670253352 1.0032050285322505
0.3829809 0.21640764266785617 1.0047127469324175
0.3849808 0.2095767949433866 1.0063465121615276
0.3869807 0.2027795512514928 1.0083596940723756
0.3889806 0.1963198618748207 1.0100797440943698
0.3909805 0.18952905074724075 1.0114643132100622
0.3929804 0.1825981152856983 1.012428067551807
0.3949803 0.17551673872592582 1.0141881562824546
0.3969802 0.1686878430506399 1.0156696929785474
0.3989801 0.16111705242030044 1.0168696406466984
0.40098 0.15491439297113865 1.0182289025119804
0.4029799 0.1477824459532917 1.0187046087608165
0.4049798 0.14047680213119215 1.0201132235726373
0.4069797 0.13370870017745604 1.0211466094786317
0.4089796 0.12723258842942672 1.022130650962426
0.4109795 0.11937497472758689 1.0226918819843902
0.4129794 0.11259223493101238 1.0241056409482001
0.4149793 0.10617614897993204 1.024817389576325
0.4169792 0.09878273972304798 1.0264190269039288
0.4189791 0.09226869943444745 1.026707983434388
0.420979 0.08548484017336261 1.027785014957963
0.4229789 0.07839456866992467 1.0275657014072617
0.4249788 0.0712557023654902 1.0283077207828413
0.4269787 0.0646056307957666 1.0289140693227017
0.4289786 0.05787074942821785 1.0292194987238037
0.4309785 0.050759965547565705 1.0291432808265897
0.4329784 0.04387317473504603 1.030214336757791
0.4349783 0.03644961142582645 1.0306844140592741
0.4369782 0.0303657453473158 1.0317921849969711
0.4389781 0.023090032067160524 1.032160973113084
0.440978 0.015700850229258337 1.031731090136113
0.4429779 0.009111639387308287 1.0323705170930866
0.4449778 0.0025748875833800644 1.0319010443045649
0.4469777 -0.0046739930028764295 1.03248076479368
0.4489776 -0.01041550929623556 1.0327014039805815
0.4509775 -0.01850831097060502 1.0317432518367224
0.4529774 -0.02578239452603033 1.032092309483569
0.4549773 -0.03195536808338981 1.032292872052728
0.4569772 -0.039086904356481725 1.0319133675166887
0.4589771 -0.046313288932853455 1.0319749857282032
0.460977 -0.05309820516505419 1.032459629591216
0.4629769 -0.05994394220282899 1.0318836779089653
0.4649768 -0.06676840827938271 1.0316535975862209
0.4669767 -0.07354363629188924 1.0314449678766007
0.4689766 -0.08044374307234285 1.0306796766202155
0.4709765 -0.08705406820245172 1.0307119274903709
0.4729764 -0.09431607231348385 1.0295444574579078
0.4749763 -0.10118713280449457 1.0289427817387613
0.4769762 -0.10812571933865504 1.028336955996354
0.4789761 -0.11551074145669166 1.0277190437288948
0.480976 -0.12187429103117893 1.0269963621667046
0.4829759 -0.128463249799473 1.0268361777156139
0.4849758 -0.13508985239132387 1.0259966545001218
0.4869757 -0.1424173411462577 1.0250635926714
0.4889756 -0.14954017141565018 1.024745320766476
0.4909755 -0.15624588453137794 1.0236090609703663
0.4929754 -0.16288732420800467 1.0225449890459384
0.4949753 -0.1698793336702874 1.0217929214245824
0.4969752 -0.1762328387289076 1.020755301115815
0.4989751 -0.18318738834905685 1.0196397069378387
0.500975 -0.19017164480136614 1.018437905744846
0.5029749 -0.19707450603922066 1.0176075890978893
0.5049748 -0.20349120340379712 1.0163004020992015
0.5069747 -0.21005908968143866 1.0149943267794803
0.5089746 -0.21685584713615785 1.013498698115946
0.5109745 -0.22308652282903035 1.0124461655620631
0.5129744 -0.2300059215010717 1.010453322303926
0.5149743 -0.23687898914524055 1.0085685645573288
0.5169742 -0.24330292754575106 1.0079247780827087
0.5189741 -0.2498059761147014 1.0066014142224493
0.520974 -0.25703060992465326 1.0048877049794085
0.5229739 -0.2633379054585052 1.0036556625486013
0.5249738 -0.2700169951812488 1.001909328939242
0.5269737 -0.276643016566168 1.0003362968497997
0.5289736 -0.28312377425539414 0.998840564693224
0.5309735 -0.2904553528203604 0.9967270802507727
0.5329734 -0.29639032275773586 0.9954169088847395
0.5349733 -0.30303897628391074 0.99360554129823
0.5369732 -0.30990928772927007 0.9914740531080795
0.5389731 -0.31591221206520786 0.9897578370159456
0.540973 -0.3227088252472244 0.9874784123233585
0.5429729 -0.3294424348591253 0.9850913350045768
0.5449728 -0.3356506318491176 0.9834047490725667
0.5469727 -0.34220465331536987 0.9813498420572934
0.5489726 -0.3487438606042539 0.9793692828392545
0.5509725 -0.3554223500106998 0.9774697972910071
0.5529724 -0.36153450706750245 0.9752249923423331
0.5549723 -0.36805981190396114 0.97305995305081
0.5569722 -0.374714620295443 0.9703339441205334
0.5589721 -0.38110858523061814 0.9679672963772001
0.560972 -0.3870566864119189 0.9659243263434789
0.5629719 -0.39379256386954964 0.9632606298272518
0.5649718 -0.39977221386241873 0.9607707664886542
0.5669717 -0.4061621753998388 0.9582130965081448
0.5689716 -0.41288178015689375 0.9559178480678372
0.5709715 -0.4186804637567153 0.9531297179847896
0.5729714 -0.4248828323638412 0.951102278812514
0.5749713 -0.431131258269985 0.9484267970419747
0.5769712 -0.437661079991972 0.9455200264655783
0.5789711 -0.44349383631857886 0.942381013525006
0.580971 -0.44972202730836813 0.9395811767384097
0.5829709 -0.455842684251831 0.9368871212941906
0.5849708 -0.4619844764522007 0.9343926133435209
0.5869707 -0.4678445535554789 0.9317623507709386
0.5889706 -0.4740829184808788 0.9285620174590087
0.5909705 -0.4799166570021689 0.9256594735644891
0.5929704 -0.48616094544734906 0.9228449655530164
0.5949703 -0.4923181770238705 0.9195666803500047
0.5969702 -0.4976474652136751 0.916886686640097
0.5989701 -0.5043581843927374 0.9133045456413682
0.60097 -0.5100737705001129 0.9108863604432944
0.6029699 -0.5166738676322224 0.9071872251007101
0.6049698 -0.5217606127783679 0.9040893055572492
0.6069697 -0.5281565814083148 0.9009370425821768
0.6089696 -0.5335379307696664 0.8974117196121904
0.6109695 -0.5394990476668204 0.8942964743594307
0.6129694 -0.5454945615545038 0.8911870820924487
0.6149693 -0.5508140011812633 0.8876462174537967
0.6169692 -0.5566890390358975 0.8834941908283592
0.6189691 -0.5626515384104378 0.8804989537755827
0.620969 -0.568466987251059 0.8772899494288543
0.6229689 -0.574335167259617 0.873860914880157
0.6249688 -0.5800351994679765 0.8699731876309246
0.6269687 -0.5854036754343952 0.8664173882455081
0.6289686 -0.5910428369602317 0.8628711007275761
0.6309685 -0.5967791829688974 0.859031206453415
0.6329684 -0.6022758347310998 0.8556543355228373
0.6349683 -0.6080584983815888 0.8517136228118329
0.6369682 -0.6135169639387106 0.8480706675043622
0.6389681 -0.6185486166114709 0.8444640335296658
0.640968 -0.6243725172943412 0.8402179571357545
0.6429679 -0.6299333671435914 0.836666459886146
0.6449678 -0.6350859788575203 0.8328570214385699
0.6469677 -0.6407801555393082 0.8286763546621247
0.6489676 -0.6458618896168827 0.8251018159978352
0.6509675 -0.6513221056162126 0.8208755101780668
0.6529674 -0.656655264387743 0.8169074258355549
0.6549673 -0.6619685117516728 0.8125990000019097
0.6569672 -0.6670295769990378 0.8088898171314007
0.6589671 -0.6725802993838599 0.8044639449957528
0.660967 -0.6776077875912898 0.800740444977315
0.6629669 -0.6830442817133463 0.7961626110770814
0.6649668 -0.6875843402490872 0.7920512693621329
0.6669667 -0.6933063204015227 0.7878017155917842
0.6689666 -0.6978925834835646 0.7836462757029807
0.6709665 -0.703142565243572 0.7795852018782675
0.6729664 -0.7082200851474143 0.7749921113808551
0.6749663 -0.7129688855319949 0.7709233768653985
0.6769662 -0.718140606929482 0.7662913860820871
0.6789661 -0.7233014574574202 0.7620316548501754
0.680966 -0.727961435970478 0.7572679855954413
0.6829659 -0.7326952400692722 0.7530019414937851
0.6849658 -0.7378976902143036 0.7483288651609495
0.6869657 -0.7426170814767828 0.7437703200174512
0.6889656 -0.7474981941433954 0.7394619635526127
0.6909655 -0.7519589005773464 0.7348820804359009
0.6929654 -0.7569172229112038 0.7300539036623666
0.6949653 -0.7616824244201328 0.7253717500297717
0.6969652 -0.7663245736518092 0.7208396859194646
0.6989651 -0.770897709561954 0.7159743218274242
0.700965 -0.7758400216062964 0.7114305428197708
0.7029649 -0.7802709044533976 0.7067723378825468
0.7049648 -0.7846381979520286 0.7018193246071018
0.7069647 -0.7893977405443485 0.6970482583079745
0.7089646 -0.7939015784900735 0.6920212631833713
0.7109645 -0.7982542110486429 0.6871440037917864
0.7129644 -0.8027209571246168 0.6825229017048514
0.7149643 -0.8070524699813728 0.6775771363507149
0.7169642 -0.8114618928863144 0.6725212636386602
0.7189641 -0.8158075692708413 0.6676092609792976
0.720964 -0.8202122482887796 0.662665160087678
0.7229639 -0.8243897471389625 0.6577109182620651
0.7249638 -0.8284195059122191 0.6526085903930726
0.7269637 -0.8326389874771021 0.6473943758115249
0.7289636 -0.8371784105732116 0.6423930896472116
0.7309635 -0.8410021589774382 0.6371172935753094
0.7329634 -0.8451379656728475 0.631749385516858
0.7349633 -0.8490320703469949 0.6272772390769098
0.7369632 -0.8533035868199991 0.6215975387895042
0.7389631 -0.8571811886324386 0.616494538496249
0.740963 -0.8613039009651164 0.6114131609752156
0.7429629 -0.8652519377685186 0.6057030890043575
0.7449628 -0.868956766150507 0.600806184257671
0.7469627 -0.8726453729104782 0.5953690057688892
0.7489626 -0.876471089863629 0.5898604621346996
0.7509625 -0.8805958873422682 0.584730966782272
0.7529624 -0.8838351100295437 0.5792361416599385
0.7549623 -0.8877194629655122 0.5738102749836851
0.7569622 -0.8916881542894335 0.5683998875756335
0.7589621 -0.8953971300824167 0.5631454340052506
0.760962 -0.8987998698945098 0.5576594354657942
0.7629619 -0.9026429013084836 0.5518894168305382
0.7649618 -0.9060081246033075 0.5464433768524101
0.7669617 -0.9093340664657715 0.5411518392701511
0.7689616 -0.9130783507444384 0.535629064046888
0.7709615 -0.9167712480476113 0.5299378759440108
0.7729614 -0.9199454161981391 0.5243873739162365
0.7749613 -0.9233694059627172 0.5187555977513715
0.7769612 -0.9269480463061234 0.5130941630747575
0.7789611 -0.9300392087196657 0.5074808423971515
0.780961 -0.9335215018527576 0.5019402703505293
0.7829609 -0.936701494540735 0.49620792340674474
0.7849608 -0.9398790345754655 0.49057407739823505
0.7869607 -0.9430891974741862 0.48465487675001234
0.7889606 -0.9462259748947894 0.478988834924081
0.7909605 -0.9494327256500703 0.47329897615656213
0.7929604 -0.9524528470749704 0.46759922831545225
0.7949603 -0.9555337160792532 0.46178883818254784
0.7969602 -0.9585745111383013 0.45600643527620643
0.7989601 -0.9614385110679191 0.4500709008358522
0.80096 -0.9643504576303141 0.4443483472137409
0.8029599 -0.9671818009226878 0.4384653573232013
0.8049598 -0.970156515494264 0.4325995289478721
0.8069597 -0.9729640246219928 0.4267821747159882
0.8089596 -0.9758827668492808 0.4207779904503739
0.8109595 -0.978856757665818 0.41516113865856585
0.8129594 -0.9810964718225772 0.4089832424253899
0.8149593 -0.9839722498041199 0.40309183734106785
0.8169592 -0.986347726040375 0.3968211378816809
0.8189591 -0.9892625237894201 0.3912294005682954
