! Created with skrf 1.8.0 (http://scikit-rf.org).
# GHz S RI R 50.0 
!freq ReS11 ImS11
0.001 -0.4056807031130004 -0.5886444463272235
0.0029999 -0.04972488184432289 -0.2692403230693169
0.0049998 -0.026091725747478957 -0.1512929667369784
0.0069997 -0.03393738374481064 -0.1326778520312619
0.0089996 -0.028296840720237252 -0.09374806403211891
0.0109995 -0.02296280739956256 -0.07486249918663805
0.0129994 -0.026882001610003377 -0.0627959472919064
0.0149993 -0.01538633614623568 -0.0622836417049741
0.0169992 -0.016234868075129416 -0.049800841318553515
0.0189991 -0.016287749543987314 -0.04865757827157142
0.020999 -0.017216441531855857 -0.03660822190247943
0.0229989 -0.017632959529828497 -0.0363186455999992
0.0249988 -0.01820778037631698 -0.03216548893393997
0.0269987 -0.02001577534484194 -0.025942899394460303
0.0289986 -0.016929691608834087 -0.026230768210417598
0.0309985 -0.018582982424061287 -0.024644137198604206
0.0329984 -0.019286734035615722 -0.022191742167331628
0.0349983 -0.01581719460231422 -0.02063438821359062
0.0369982 -0.02076326074688029 -0.02104011389400849
0.0389981 -0.01768013380851275 -0.020038742904558086
0.040998 -0.02002082845153531 -0.015395375667146032
0.0429979 -0.023936880609114225 -0.014708667130213755
0.0449978 -0.01682369305011487 -0.015857354575561956
0.0469977 -0.023105357829278625 -0.015190226298421934
0.0489976 -0.019351357427957936 -0.012266573198840015
0.0509975 -0.019836715051989168 -0.014980789486402845
0.0529974 -0.016266602658993174 -0.0108963492226789
0.0549973 -0.022697242628967922 -0.010804121688411224
0.0569972 -0.020008588342632992 -0.01034703795182228
0.0589971 -0.02021032387165039 -0.010726949837675442
0.060997 -0.019350671767717785 -0.00957937895264948
0.0629969 -0.021176497547516476 -0.00984595868972897
0.0649968 -0.02004754417530355 -0.008472511116909446
0.0669967 -0.019778788188219144 -0.006928647336456111
0.0689966 -0.01937454444165521 -0.0067739046107074576
0.0709965 -0.02134274160494047 -0.005973775373582289
0.0729964 -0.020036091604094173 -0.005058355752140681
0.0749963 -0.019780699203318822 -0.005369443368227766
0.0769962 -0.020496992351697038 -0.005566138497827954
0.0789961 -0.02128789409772739 -0.0038126984436014162
0.080996 -0.02046590486273063 -0.003797173632872566
0.0829959 -0.019994598865235535 -0.0033116587828616356
0.0849958 -0.021267227362347034 -0.0037299649545584276
0.0869957 -0.020766909301219424 -0.001446522286312432
0.0889956 -0.02194350174804639 -0.00240671805520642
0.0909955 -0.02200438220718558 -0.0017308797453042403
0.0929954 -0.020234272663874925 -0.0010021449935187546
0.0949953 -0.021797129439281197 -0.0004443740497597714
0.0969952 -0.022942105480701254 -0.0007510765915590073
0.0989951 -0.022508183455780144 0.001279127449530636
0.100995 -0.02166687507040171 0.00014124979930083296
0.1029949 -0.022252550256838685 0.0013104791854729476
0.1049948 -0.023174015164859944 0.0013865136611908241
0.1069947 -0.023677307325770627 0.001341424426590832
0.1089946 -0.02423061488967665 0.001551151035346564
0.1109945 -0.02325176216236913 0.0021560266121593867
0.1129944 -0.02414096037468223 0.002026696598917436
0.1149943 -0.024397193478339563 0.002743334042724474
0.1169942 -0.0248470686707087 0.0018074487683121618
0.1189941 -0.023090710710878173 0.002912381121690031
0.120994 -0.02401064067276953 0.0035744985749088676
0.1229939 -0.024391820646903418 0.0034576287138165943
0.1249938 -0.023844104898481634 0.003829546497534933
0.1269937 -0.025070968840361026 0.00424497564656354
0.1289936 -0.02393718993722857 0.005007736758320306
0.1309935 -0.02356919171417486 0.004096884751723911
0.1329934 -0.02544221494112329 0.0033013780706043147
0.1349933 -0.0247365188990447 0.004592832854606099
0.1369932 -0.02595672504086869 0.00552761019653777
0.1389931 -0.02420517810943881 0.005355954465871544
0.140993 -0.025331947725673924 0.0050919047400364275
0.1429929 -0.02472543801331455 0.005480898767849592
0.1449928 -0.02390711640814052 0.006318796286919558
0.1469927 -0.02429031954492763 0.006221583138898158
0.1489926 -0.025318196835517566 0.006424406504986594
0.1509925 -0.025563733182032474 0.007457402774152589
0.1529924 -0.024477413020732718 0.007735652729481551
0.1549923 -0.026357972267702052 0.007937933784119274
0.1569922 -0.025651289601809305 0.0076820988129340274
0.1589921 -0.026412126152982565 0.00908674676525102
0.160992 -0.02617238348857705 0.008799871164198371
0.1629919 -0.026589647655201082 0.008477222804226425
0.1649918 -0.02703230077378284 0.00969959613670592
0.1669917 -0.02733315297843686 0.009963806363509463
0.1689916 -0.027799254453070372 0.009453610145802926
0.1709915 -0.027665558345308223 0.01072958950448738
0.1729914 -0.02824503635372038 0.010770782594960553
0.1749913 -0.029112304955112193 0.011475876291565983
0.1769912 -0.029050293316686314 0.010968096367219581
0.1789911 -0.029362450727844755 0.010941596442838899
0.180991 -0.02952454112487956 0.011826824913317636
0.1829909 -0.028732084395225274 0.010855785285199608
0.1849908 -0.03066583304243697 0.010848383222426207
0.1869907 -0.030410654173761684 0.012432077060660358
0.1889906 -0.030981881037095073 0.011499044399601118
0.1909905 -0.031113407180820354 0.011892698554477775
0.1929904 -0.03071122546967151 0.011676638117475071
0.1949903 -0.031298616426226465 0.01240283079274145
0.1969902 -0.031189353633753046 0.01220506462777749
0.1989901 -0.031402246100862716 0.011397716656438819
0.20099 -0.03112768861890835 0.01241283764139693
0.2029899 -0.03180962537646375 0.012204000379413583
0.2049898 -0.03171721646649039 0.012511065468855314
0.2069897 -0.031928413456519394 0.012415463144929825
0.2089896 -0.03182893293315557 0.013195890399375989
0.2109895 -0.03244024151664264 0.012642673391549335
0.2129894 -0.032584421423049834 0.013170229296549284
0.2149893 -0.03209424667094967 0.013128644658092655
0.2169892 -0.03270482573324106 0.013674190963255837
0.2189891 -0.032702339500633074 0.013590634139575605
0.220989 -0.03298426090085857 0.014323255964602996
0.2229889 -0.032802842746575536 0.013632217142766384
0.2249888 -0.03311272640530177 0.014661461036453322
0.2269887 -0.03356617621943524 0.014816818937886481
0.2289886 -0.033585941586157984 0.014625226042764878
0.2309885 -0.03422963463761978 0.014997852904660509
0.2329884 -0.03414330880069512 0.014945221801188404
0.2349883 -0.034721088118378186 0.015820945450928027
0.2369882 -0.03479720399367909 0.01586083655285204
0.2389881 -0.0352995263777867 0.01595374132125135
0.240988 -0.035363776166356824 0.016784464574609713
0.2429879 -0.03599752607107291 0.01651453316660465
0.2449878 -0.03623525616973183 0.016666809923170607
0.2469877 -0.0364505541722295 0.016601483577895086
0.2489876 -0.03641407426482399 0.017109612350354977
0.2509875 -0.03757717380242 0.017012682056768154
0.2529874 -0.03765828918223668 0.01732621250287417
0.2549873 -0.03787498706247301 0.017789224046774667
0.2569872 -0.03816849320333713 0.017550057949555557
0.2589871 -0.038248723267593494 0.017550559849680097
0.260987 -0.03845670279839346 0.017700451508290492
0.2629869 -0.03889817543914597 0.017545976449371718
0.2649868 -0.03927051483605395 0.018079615406027795
0.2669867 -0.03919342714296832 0.017368015876026294
0.2689866 -0.03979813969269267 0.017673659228734095
0.2709865 -0.03991633525297918 0.01846398656210648
0.2729864 -0.0401927827664537 0.01806673992730613
0.2749863 -0.04024804504299026 0.017497642053149874
0.2769862 -0.04044877215151249 0.017923476157256896
0.2789861 -0.04070158829096263 0.017726774170861045
0.280986 -0.04062593654491104 0.0181443029432709
0.2829859 -0.04077342886317184 0.018135561222233136
0.2849858 -0.04112170410670875 0.018433484320281246
0.2869857 -0.04133678493864913 0.018955958504229105
0.2889856 -0.04165238872292725 0.018421443556499717
0.2909855 -0.041689869201054164 0.01880027368773663
0.2929854 -0.04180125372518649 0.018785370627238902
0.2949853 -0.04196480897801268 0.01921927449111352
0.2969852 -0.04245919139200678 0.01927414284542922
0.2989851 -0.04267211559770368 0.019398780351548593
0.300985 -0.04342244286547722 0.0195310473431522
0.3029849 -0.04358712784377807 0.01917023522253901
0.3049848 -0.043585823481919236 0.020308715167344737
0.3069847 -0.04405922673208788 0.020235593131239613
0.3089846 -0.04443275884660591 0.020021309157148868
0.3109845 -0.044082967271301135 0.019808164983812722
0.3129844 -0.04491605540473219 0.02061249255265049
0.3149843 -0.04537049799321516 0.020624570487364595
0.3169842 -0.04548221530593254 0.020787024431969545
0.3189841 -0.04655389295595071 0.02047226212633756
0.320984 -0.046634875312120135 0.020530496763177128
0.3229839 -0.0466256303081391 0.02079209851965745
0.3249838 -0.04723393517827426 0.020637459964346398
0.3269837 -0.047125911421391845 0.021191844983410896
0.3289836 -0.04783122541567973 0.021218991159917114
0.3309835 -0.048058073182285534 0.02101978932322706
0.3329834 -0.048460106959308 0.020924937035715185
0.3349833 -0.04879268827020668 0.020910388994735143
0.3369832 -0.04906550629067521 0.020934241139717535
0.3389831 -0.04912211523133608 0.021061829932418844
0.340983 -0.049824999385913435 0.02108935852975025
0.3429829 -0.05002514948262134 0.020907994661848832
0.3449828 -0.050123537332867826 0.020678490389898913
0.3469827 -0.050533036659288356 0.02085644956709168
0.3489826 -0.050468383522753915 0.020765141034816702
0.3509825 -0.05093815524788631 0.02053099777089651
0.3529824 -0.05091917665576036 0.020791550292608575
0.3549823 -0.051230013386270055 0.021031672263909486
0.3569822 -0.05146234619555378 0.02102641580388761
0.3589821 -0.051810800711332865 0.020785365368944316
0.360982 -0.052457766936246715 0.02077577832362893
0.3629819 -0.05215600672253765 0.021217039824665884
0.3649818 -0.0524569548140252 0.02078256380753827
0.3669817 -0.052858192467325676 0.0210024274678123
0.3689816 -0.05330493746494577 0.020981759283638244
0.3709815 -0.05307516726166603 0.02102648349343736
0.3729814 -0.053736035434211 0.021281004293562715
0.3749813 -0.05367341191816587 0.021130263641078083
0.3769812 -0.05374890193828511 0.021441558110671194
0.3789811 -0.05415592370498455 0.02145208858979424
0.380981 -0.0549235520253062 0.02142008734287277
0.3829809 -0.05510439852992691 0.021208442534166243
0.3849808 -0.05548581956282703 0.021344775447639526
0.3869807 -0.05578171230150063 0.02173491727393438
0.3889806 -0.055853343166727173 0.022171617152968205
0.3909805 -0.056142208088476246 0.022016605567311307
0.3929804 -0.056884644574592906 0.021646064438757696
0.3949803 -0.057034194030971166 0.02190075921096633
0.3969802 -0.0578094841953524 0.02186331923321049
0.3989801 -0.05849365030654714 0.021821426110637886
0.40098 -0.05842318304504043 0.021834556035721455
0.4029799 -0.058918994664892664 0.021615034570264088
0.4049798 -0.059114445413650706 0.021712131342738753
0.4069797 -0.05960939904055477 0.021547569314212176
0.4089796 -0.05982917850430979 0.021467557612444843
0.4109795 -0.06034078106958364 0.021086514626838956
0.4129794 -0.06037880764698153 0.021220221250521747
0.4149793 -0.06078485118589218 0.021179179119916063
0.4169792 -0.06077257603445409 0.02127972977518045
0.4189791 -0.06103539721687931 0.021086444574710487
0.420979 -0.061641707764057155 0.020915577979226756
0.4229789 -0.062016399022959065 0.020968730942517725
0.4249788 -0.062265565907295 0.020688917727421218
0.4269787 -0.06224651125141786 0.02062125583343747
0.4289786 -0.0625016653121275 0.02029070746014577
0.4309785 -0.0629104815361773 0.020238378621577693
0.4329784 -0.06292076266369324 0.02015342938364053
0.4349783 -0.06340681194674186 0.020602642888481505
0.4369782 -0.06353342125608841 0.020585298015667112
0.4389781 -0.06382316183821468 0.020273889383854944
0.440978 -0.06437503944275609 0.020237323897515674
0.4429779 -0.0646046335802635 0.020347875179996974
0.4449778 -0.06483033333606526 0.020190189682924357
0.4469777 -0.0650202428527873 0.0200412049790333
0.4489776 -0.06511560600785757 0.020096053876993474
0.4509775 -0.065439858094547 0.019730186690519746
0.4529774 -0.06607922408188407 0.019761867115511714
0.4549773 -0.06598216534302442 0.019775459437237734
0.4569772 -0.06628950982075141 0.019904191010090725
0.4589771 -0.06688435859153312 0.0196831753252838
0.460977 -0.06707099687109473 0.019689240718523036
0.4629769 -0.06730645486177293 0.019721987049584028
0.4649768 -0.06759482281943172 0.01961505585760817
0.4669767 -0.06798137558811078 0.01920988446032162
0.4689766 -0.06846533689711568 0.01907111355100534
0.4709765 -0.06896385105661322 0.01887246849590088
0.4729764 -0.06908333869009581 0.01866135248298299
0.4749763 -0.06935016565349035 0.01861195411810516
0.4769762 -0.0696669679915388 0.018288544908611738
0.4789761 -0.06989407563920971 0.018246232264134972
0.480976 -0.07028751443086437 0.017901411800581548
0.4829759 -0.07029781633782987 0.017927096036280083
0.4849758 -0.07058977168911051 0.01804619548074424
0.4869757 -0.07095517397414243 0.01777415058462391
0.4889756 -0.07107861203759364 0.018079858971934745
0.4909755 -0.07130917586025956 0.01777910064944136
0.4929754 -0.07197082762211598 0.017572926521479886
0.4949753 -0.07171562823188023 0.01740708895487486
0.4969752 -0.07178702392586592 0.01741488815125705
0.4989751 -0.07217320184919628 0.01728704464439485
0.500975 -0.07228128303497668 0.017440179457657783
0.5029749 -0.07269995478776807 0.017358707468738833
0.5049748 -0.07294590613783346 0.017383134185829277
0.5069747 -0.0733177887089584 0.017203667989145913
0.5089746 -0.0734205942701838 0.0172962113679569
0.5109745 -0.0738285547630192 0.01704612226147835
0.5129744 -0.07434803203942082 0.0167561549504179
0.5149743 -0.07483891945110482 0.016495956053493337
0.5169742 -0.07496813801598104 0.016656689357415443
0.5189741 -0.07528639026104322 0.016683665457684134
0.520974 -0.07542216760803319 0.016543101617354367
0.5229739 -0.07608690184918505 0.01662039129539862
0.5249738 -0.07647841481340419 0.016333108606327716
0.5269737 -0.07675692684971885 0.016298333535733768
0.5289736 -0.07724861923676515 0.016365879498695515
0.5309735 -0.07772404893613005 0.015878724361809256
0.5329734 -0.07805027598507923 0.015716419789423917
0.5349733 -0.0783983439512998 0.015618908427121742
0.5369732 -0.07879248374983319 0.015290160760360837
0.5389731 -0.07905916376197289 0.014982709344186988
0.540973 -0.07937160835094409 0.014599791410168692
0.5429729 -0.0798114859836408 0.014269394800796916
0.5449728 -0.08008417962485775 0.014077205390363487
0.5469727 -0.08029667977969096 0.013878774724270671
0.5489726 -0.08047496382090892 0.01351367867760982
0.5509725 -0.08077647284682232 0.013587883150820292
0.5529724 -0.08103469278151477 0.013297584741263607
0.5549723 -0.08141441627452049 0.013066344562226169
0.5569722 -0.08165342301800388 0.012704493492187899
0.5589721 -0.0819210124246457 0.012441982832244014
0.560972 -0.081695311848114 0.011919819695675571
0.5629719 -0.08170242449439466 0.011757728308244293
0.5649718 -0.08169499063839696 0.01175456133916776
0.5669717 -0.08206644025651608 0.011589441292544606
0.5689716 -0.08227586368170509 0.011404502710304805
0.5709715 -0.08248470529402323 0.011172098587995734
0.5729714 -0.08233773965310555 0.011069075113216989
0.5749713 -0.08248465634298296 0.010930537867323217
0.5769712 -0.08296420642952296 0.010782736133591
0.5789711 -0.08289193979749976 0.010584042085381454
0.580971 -0.08341695758885881 0.010761889599629211
0.5829709 -0.08399990854652063 0.010699011522370537
0.5849708 -0.08415733065072364 0.010677669902725492
0.5869707 -0.08417523231361959 0.010620684435985121
0.5889706 -0.08482120532226078 0.010491262350511961
0.5909705 -0.0847204512243816 0.01000167224455193
0.5929704 -0.08524838577067453 0.009942299377454625
0.5949703 -0.08555637467206631 0.00971517387740009
0.5969702 -0.0859610417540704 0.00947578848003245
0.5989701 -0.0862510452986083 0.00913318635949327
0.60097 -0.08663445230341547 0.009154934796712581
0.6029699 -0.08707689789622858 0.008738563155638465
0.6049698 -0.08734661825411905 0.008195307319345396
0.6069697 -0.08792727838583211 0.00803547678146059
0.6089696 -0.08788033085919589 0.007747250831656886
0.6109695 -0.08823183002892002 0.007504021372561169
0.6129694 -0.08850697050942422 0.0070601071078629715
0.6149693 -0.08877537575348375 0.007013690074841837
0.6169692 -0.08901236890885011 0.0062297702651393505
0.6189691 -0.08924030964010714 0.0057313509018161735
0.620969 -0.08939448042104238 0.00578905890794499
0.6229689 -0.08968042819520547 0.005495589190880022
0.6249688 -0.0901046440161755 0.005114043741408156
0.6269687 -0.09014682804610817 0.004537706854228725
0.6289686 -0.09016424751925553 0.004408377875127281
0.6309685 -0.09031046782200021 0.003955406971588006
0.6329684 -0.090510629606121 0.003599451686435551
0.6349683 -0.09035776456433395 0.003711244414805255
0.6369682 -0.09068660280817224 0.003291723167945945
0.6389681 -0.090277314137895 0.0029839165134475723
0.640968 -0.09056398947767533 0.002939793430719484
0.6429679 -0.09049552804769567 0.0029301879342812504
0.6449678 -0.09091219330085493 0.002925815262904273
0.6469677 -0.0912246268900066 0.002570432718438577
0.6489676 -0.09134088075962114 0.0028159647004082355
0.6509675 -0.09145995577502822 0.002754029326029042
0.6529674 -0.09155778320387006 0.0024354751388003942
0.6549673 -0.09185533376538266 0.0022194035569806925
0.6569672 -0.09210156679700926 0.0018443090158358905
0.6589671 -0.09268490330266373 0.0019039260284961362
0.660967 -0.09303362382557273 0.0016124623458127832
0.6629669 -0.09350443302912305 0.0017946657426782878
0.6649668 -0.09372776862040334 0.0012585469495527968
0.6669667 -0.09417593900821819 0.0010271312832546495
0.6689666 -0.094394144802899 0.0008396174826619598
0.6709665 -0.09478704190837271 0.0008191117339221912
0.6729664 -0.09514661098551416 0.00023316899748960368
0.6749663 -0.09527322324729223 -0.00025845147098286364
0.6769662 -0.09544550407499619 -0.0008289779223800003
0.6789661 -0.09566108567697129 -0.000825208310932253
0.680966 -0.09644063623103755 -0.0018019782093658537
0.6829659 -0.09617107892827838 -0.001960401606881386
0.6849658 -0.09645274916498286 -0.002176029274289032
0.6869657 -0.09665398439990201 -0.0026264223353048774
0.6889656 -0.09699519203574017 -0.0032089775759761643
0.6909655 -0.09719184851821538 -0.0036306835498722823
0.6929654 -0.09733864461660119 -0.004310834525002076
0.6949653 -0.09759298823794793 -0.004578202116744139
0.6969652 -0.0976699809773209 -0.005178160244880485
0.6989651 -0.09773963497710891 -0.005607874977236173
0.700965 -0.09781226063870138 -0.00595165844172818
0.7029649 -0.09773883791253216 -0.006502134777199478
0.7049648 -0.09791013984087585 -0.0068143287954664095
0.7069647 -0.09756885430455389 -0.007206470238564688
0.7089646 -0.09752469846682685 -0.0073885867166511715
0.7109645 -0.09754548314032542 -0.007606850368177466
0.7129644 -0.09709441191975565 -0.007794724749715806
0.7149643 -0.09746632426476114 -0.008138633854902183
0.7169642 -0.09724505248650425 -0.008350461735933776
0.7189641 -0.0973892856264911 -0.00850395903357428
0.720964 -0.09767951112366001 -0.008472068995414472
0.7229639 -0.09800919304085721 -0.008762642398915603
0.7249638 -0.09755415865289832 -0.009394829435488972
0.7269637 -0.09778574187974663 -0.00923735441325782
0.7289636 -0.09796425570882385 -0.00935919545947566
0.7309635 -0.09804876410053023 -0.009508073228744564
0.7329634 -0.0983518482239262 -0.00968569890703061
0.7349633 -0.0984818152146161 -0.009962312811239986
0.7369632 -0.09880776010880882 -0.010115904939717847
0.7389631 -0.09925296915351554 -0.010090934289914748
0.740963 -0.09936608351221554 -0.010610273221207625
0.7429629 -0.10008741970878939 -0.010863386558585347
0.7449628 -0.09995714613088649 -0.011070818371023333
0.7469627 -0.10058786283026022 -0.011696256305518057
0.7489626 -0.10094033359562056 -0.012262606927569551
0.7509625 -0.10105946303378321 -0.012544950483015876
0.7529624 -0.10147980148252661 -0.012915530080642428
0.7549623 -0.10157496024162267 -0.013288960411052948
0.7569622 -0.10187932165022931 -0.013934016026358697
0.7589621 -0.10209689016791924 -0.014663055520680434
0.760962 -0.10218698313247507 -0.014924631221124304
0.7629619 -0.10237056239695225 -0.01539325589088784
