! Created with skrf 1.8.0 (http://scikit-rf.org).
# GHz S RI R 50.0 
!freq ReS11 ImS11
0.001 -1.034850191971315 -0.030379677473594935
0.0029999 -1.0504299059822217 -0.02253662182370607
0.0049998 -1.056185139345151 -0.026223572782691107
0.0069997 -1.0571530270528409 -0.03051709045425941
0.0089996 -1.0565400525516624 -0.036467171973856995
0.0109995 -1.0574389161600026 -0.04264868458742254
0.0129994 -1.0585148870135122 -0.049978569261464656
0.0149993 -1.0571648215314084 -0.05473807243972561
0.0169992 -1.0575945890399254 -0.06130649629342299
0.0189991 -1.057989724440167 -0.06775074302858608
0.020999 -1.0579235332729093 -0.07373180572804422
0.0229989 -1.0573176698879694 -0.08033068211699229
0.0249988 -1.057930769640148 -0.08721896291678441
0.0269987 -1.0566891624469081 -0.09357428866232831
0.0289986 -1.0571615600736717 -0.09962372847717907
0.0309985 -1.0564335635446307 -0.10592919965715053
0.0329984 -1.056467124293279 -0.11261830722853494
0.0349983 -1.0557814287360405 -0.1194095489438963
0.0369982 -1.0562572517664928 -0.12521680641029767
0.0389981 -1.0551058136384477 -0.1329254714431176
0.040998 -1.0537574088500101 -0.13859503510051438
0.0429979 -1.053405027259824 -0.14506885882585244
0.0449978 -1.0534657523479083 -0.15127597287770395
0.0469977 -1.0532110979218832 -0.15735399785659418
0.0489976 -1.051269198484035 -0.16474825593934916
0.0509975 -1.0511323338206324 -0.17109309655691748
0.0529974 -1.0504337989100332 -0.17737315701844394
0.0549973 -1.0500324006425217 -0.18454138100807538
0.0569972 -1.0485729840860913 -0.19069628450211681
0.0589971 -1.0480226206424044 -0.19661648019371297
0.060997 -1.047010126880575 -0.20336880069047722
0.0629969 -1.0458851994442135 -0.20886524002240786
0.0649968 -1.0450968547335795 -0.2156546071131673
0.0669967 -1.0432905059076432 -0.22230943337408604
0.0689966 -1.0427699067949725 -0.2287598436108809
0.0709965 -1.0416672801036115 -0.2341472166480291
0.0729964 -1.0396391412205623 -0.24109279028444466
0.0749963 -1.0388953617457513 -0.24749050170180478
0.0769962 -1.0382079382267062 -0.253304294363364
0.0789961 -1.0362415086623722 -0.26010200072656947
0.080996 -1.0355995121066226 -0.26629279429192204
0.0829959 -1.0330995542573318 -0.27252246159382654
0.0849958 -1.0333508662997946 -0.27908920710078317
0.0869957 -1.0308170939776682 -0.2851482525565952
0.0889956 -1.0299708320668821 -0.29099876744912856
0.0909955 -1.0285864748907174 -0.2981454193191984
0.0929954 -1.0261117168680183 -0.30410286249777885
0.0949953 -1.0248957188999013 -0.3083341280440614
0.0969952 -1.0239630960265313 -0.31578347381874383
0.0989951 -1.021148930913643 -0.3215277889162821
0.100995 -1.0204623396163823 -0.32929708921431067
0.1029949 -1.0184961001730426 -0.33494152338950073
0.1049948 -1.0169260981033472 -0.34097926224585606
0.1069947 -1.0147519307899173 -0.34732595714377634
0.1089946 -1.0129266120794063 -0.35309928293072124
0.1109945 -1.010953559771934 -0.35954915373086793
0.1129944 -1.0092721338458468 -0.36552630509606787
0.1149943 -1.0069281571304096 -0.3713718582819794
0.1169942 -1.005760892874937 -0.3771990015315385
0.1189941 -1.0023774673181385 -0.38443850790113365
0.120994 -1.0007077086997098 -0.39053878574243167
0.1229939 -0.998791107702502 -0.3956569086536036
0.1249938 -0.9962640479639846 -0.4025114144365944
0.1269937 -0.9938968839057123 -0.4068263676188999
0.1289936 -0.9924589737416815 -0.41290875639215463
0.1309935 -0.9896699908155954 -0.42044221750513366
0.1329934 -0.9886665610602083 -0.42543730231513366
0.1349933 -0.9856165065743737 -0.43189741161365813
0.1369932 -0.983277281023439 -0.4376321096189537
0.1389931 -0.9799460221876969 -0.4436911459754399
0.140993 -0.9788873523256356 -0.44860933165847583
0.1429929 -0.9754688454296518 -0.4553911437686517
0.1449928 -0.9728582027551652 -0.46087236682589205
0.1469927 -0.9709164476311234 -0.46703818512177164
0.1489926 -0.9684737394985866 -0.47180076648888447
0.1509925 -0.9647792059599419 -0.4790283403885228
0.1529924 -0.9629431869904327 -0.4845881330513058
0.1549923 -0.9605505939588747 -0.4906252005083261
0.1569922 -0.958122257635986 -0.49696680845716157
0.1589921 -0.9544385975915904 -0.5026171474709665
0.160992 -0.9518338477131162 -0.5098759994290913
0.1629919 -0.9479146889780768 -0.5133306158419393
0.1649918 -0.9453784327895073 -0.5193401914056391
0.1669917 -0.9430515749000798 -0.5257540590583957
0.1689916 -0.941066175697533 -0.5309543046979581
0.1709915 -0.9366190932515548 -0.5362935640218736
0.1729914 -0.933454882920431 -0.5420863716974121
0.1749913 -0.9314892251876902 -0.5476992811374951
0.1769912 -0.9285098680873898 -0.554159874222288
0.1789911 -0.9251136345768888 -0.559690186761633
0.180991 -0.9221273144007708 -0.564689894123043
0.1829909 -0.9179672708655897 -0.571763455306602
0.1849908 -0.9156953434417248 -0.5756675668841927
0.1869907 -0.9118556895808292 -0.5812560758816175
0.1889906 -0.9089391541585099 -0.5878099670794157
0.1909905 -0.9053836517939904 -0.5928052469376047
0.1929904 -0.902115519925767 -0.5993065819791485
0.1949903 -0.8987629945384604 -0.6041731418886406
0.1969902 -0.8953888731283549 -0.6090930567886755
0.1989901 -0.8923138671854496 -0.615614091021707
0.20099 -0.8885586348216532 -0.619747821564446
0.2029899 -0.8845475687817033 -0.6252896570682366
0.2049898 -0.8806744599883244 -0.6318377312847079
0.2069897 -0.8781245897954589 -0.6370345304154813
0.2089896 -0.8746505656898003 -0.6412621215066592
0.2109895 -0.8706312738780582 -0.6467532522619084
0.2129894 -0.8672367551301695 -0.6521712698914643
0.2149893 -0.8631185098161095 -0.6578537899081944
0.2169892 -0.8594426079075344 -0.6623003203140312
0.2189891 -0.8556507978544382 -0.66881555331386
0.220989 -0.8518881061908653 -0.6741489580435175
0.2229889 -0.8479823972845552 -0.6791080756676369
0.2249888 -0.8439983471266345 -0.683482150829082
0.2269887 -0.8398941764806988 -0.6888819445712832
0.2289886 -0.8365222701329524 -0.6944836733051593
0.2309885 -0.8318658498386685 -0.6994611944802274
0.2329884 -0.8277584772262309 -0.7046332358893556
0.2349883 -0.8232514679905334 -0.7093706488639975
0.2369882 -0.8198219485939371 -0.7138592385302255
0.2389881 -0.8159205659382458 -0.719772966385067
0.240988 -0.811017725322293 -0.7243052976392724
0.2429879 -0.8067662325163278 -0.7293716707235727
0.2449878 -0.8034014954191743 -0.7346358957922977
0.2469877 -0.7997073136056366 -0.7397527179374516
0.2489876 -0.7943329292106334 -0.7449562781908678
0.2509875 -0.7912483548023048 -0.749606385566802
0.2529874 -0.7859738627162414 -0.7539779109356082
0.2549873 -0.7815972582217454 -0.7584838306050136
0.2569872 -0.7774351265976676 -0.7638271481428826
0.2589871 -0.7726712245413626 -0.768458127377503
0.260987 -0.768283306931342 -0.7735904771469272
0.2629869 -0.7639946393964778 -0.7775983559532511
0.2649868 -0.7589432615784589 -0.7824249935124399
0.2669867 -0.7550328125284923 -0.7877447347605898
0.2689866 -0.7503675180479248 -0.7922245108047149
0.2709865 -0.7457573249952687 -0.79547251122553
0.2729864 -0.7410542027600735 -0.8001966058196188
0.2749863 -0.7368999137492497 -0.8057873608659487
0.2769862 -0.731788612902705 -0.8104449995616452
0.2789861 -0.7275950123408144 -0.8151254875970168
0.280986 -0.7221301671157103 -0.8185941780946904
0.2829859 -0.7175414307563568 -0.8240399933950467
0.2849858 -0.712930431284882 -0.8284401250621768
0.2869857 -0.7074373990638451 -0.8314923970103391
0.2889856 -0.703272037599595 -0.8377595697764776
0.2909855 -0.6987267967324365 -0.8416379502806233
0.2929854 -0.6936128903810765 -0.8452730179821143
0.2949853 -0.6880820938532825 -0.8493251660880263
0.2969852 -0.6828696398664403 -0.8537451069178835
0.2989851 -0.6780073603646405 -0.8580002665825681
0.300985 -0.672892589610372 -0.8624849279644203
0.3029849 -0.6688859509887655 -0.8662531449578135
0.3049848 -0.663350545512191 -0.8694198657100269
0.3069847 -0.658091354378779 -0.8742696042171455
0.3089846 -0.6525667728710364 -0.8800711711535808
0.3109845 -0.6477965314240237 -0.8835240735367815
0.3129844 -0.6428461610302422 -0.8878461423014916
0.3149843 -0.6373604445608764 -0.8915765724173391
0.3169842 -0.6312547140350554 -0.8956554569795502
0.3189841 -0.6280695725100407 -0.8991405334861688
0.320984 -0.6216763657777195 -0.9031475641778095
0.3229839 -0.6163153514548295 -0.9070422030802258
0.3249838 -0.6110638782746082 -0.9109283494941187
0.3269837 -0.6051479218990974 -0.914731268437806
0.3289836 -0.5998917568518847 -0.9183613388897187
0.3309835 -0.5943719151323835 -0.9220934120841892
0.3329834 -0.5897028125810064 -0.9262023509076112
0.3349833 -0.5846684211426895 -0.9297763033772575
0.3369832 -0.5785244492761413 -0.9338200386187947
0.3389831 -0.5724116151359743 -0.936550833015472
0.340983 -0.566502447692797 -0.941387934098525
0.3429829 -0.5615106236598357 -0.9443653002607917
0.3449828 -0.5559335363651154 -0.9481973127206392
0.3469827 -0.5503886032979818 -0.9516638284638961
0.3489826 -0.5442730856248362 -0.9548661360496888
0.3509825 -0.5387147840701215 -0.958906261551212
0.3529824 -0.5327490727347528 -0.9612526526306581
0.3549823 -0.5270670771054563 -0.9646867921893636
0.3569822 -0.5209968387293753 -0.9686072823720053
0.3589821 -0.5157244868229529 -0.9721063836856405
0.360982 -0.5108316245912476 -0.9749000378187198
0.3629819 -0.5041943152639214 -0.9779290134392388
0.3649818 -0.49800331097297557 -0.9818893604019373
0.3669817 -0.4919559043332052 -0.9848899044891776
0.3689816 -0.4865682282850956 -0.9878634130218747
0.3709815 -0.4797102683286675 -0.9911721811335209
0.3729814 -0.4738013674820406 -0.9945267984373998
0.3749813 -0.46798257591239567 -0.9962034996731357
0.3769812 -0.4621925231629743 -0.9996377495961951
0.3789811 -0.45620307963981116 -1.0026285265070165
0.380981 -0.45062102253776387 -1.0061526687909832
0.3829809 -0.44470013120280294 -1.0094825490526824
0.3849808 -0.4383350522515811 -1.0116849774997763
0.3869807 -0.4320673725959922 -1.0140488618978885
0.3889806 -0.4247960156651598 -1.0168604060426536
0.3909805 -0.4192361373556648 -1.0197297863866561
0.3929804 -0.41462200586751036 -1.0231109796529365
0.3949803 -0.4074731493051041 -1.025430718700803
0.3969802 -0.4013218412433208 -1.0283631256042343
0.3989801 -0.39493443047063836 -1.0298789066988439
0.40098 -0.3886125085969898 -1.0331705240433067
0.4029799 -0.38303190403811554 -1.035904779158628
0.4049798 -0.37659954681186314 -1.0387396298025893
0.4069797 -0.3698018347942318 -1.0407964392168998
0.4089796 -0.36270673606635545 -1.04338343758659
0.4109795 -0.3578373459326693 -1.0458881053931082
0.4129794 -0.35076846473985546 -1.0477104142907203
0.4149793 -0.34490413711991463 -1.0507339196892576
0.4169792 -0.33772458757942103 -1.0516307745014981
0.4189791 -0.3310928749251185 -1.0541432790105352
0.420979 -0.3251747143738454 -1.0557887131402885
0.4229789 -0.3192636618201259 -1.0587415066924346
0.4249788 -0.31256373045238073 -1.060275222278472
0.4269787 -0.3059902352252857 -1.0629259919588092
0.4289786 -0.29952746339092584 -1.0649523723878933
0.4309785 -0.2929538295901219 -1.0672944219992273
0.4329784 -0.28667095864620323 -1.069557118594233
0.4349783 -0.2800985843128516 -1.0707876737039315
0.4369782 -0.27356558127850045 -1.0720104747399093
0.4389781 -0.2667866057381462 -1.0736098856322942
0.440978 -0.2609351478643745 -1.0755136665378473
0.4429779 -0.25339794737632776 -1.0773883252112737
0.4449778 -0.24748048029002104 -1.0795568664625022
0.4469777 -0.24063322388665315 -1.081451234820389
0.4489776 -0.23348409531937522 -1.082695335690844
0.4509775 -0.22781832765717397 -1.0852579806500258
0.4529774 -0.22172753291556835 -1.0868692000236324
0.4549773 -0.21337588844676927 -1.0870602361750692
0.4569772 -0.2077878015636233 -1.089107696094243
0.4589771 -0.20037728280991535 -1.090117129799226
0.460977 -0.19343816323107293 -1.0913701286238682
0.4629769 -0.1873153417967417 -1.093326967177822
0.4649768 -0.1799617314700624 -1.0938719822281602
0.4669767 -0.17352027283042004 -1.0960192352658693
0.4689766 -0.16715163771739472 -1.0968985911369882
0.4709765 -0.1602856994852334 -1.0984396179374316
0.4729764 -0.15372847958723806 -1.0996299940737986
0.4749763 -0.14607420657316506 -1.1011622490429602
0.4769762 -0.13975757396230898 -1.1022523885780149
0.4789761 -0.1333214499334518 -1.1027147595861844
0.480976 -0.12633973116586447 -1.1040170165678955
0.4829759 -0.11886859180552391 -1.1045787807315028
0.4849758 -0.11247032880260627 -1.1050488358575083
0.4869757 -0.10506820671916106 -1.1062158314769068
0.4889756 -0.09875298890166287 -1.1059233840933
0.4909755 -0.09198493001996946 -1.1071670917221457
0.4929754 -0.08523396291362015 -1.108035200166546
0.4949753 -0.07794908094401806 -1.1093919322497783
0.4969752 -0.0700782737773592 -1.1096214335921326
0.4989751 -0.06434111198462977 -1.1098646507652248
0.500975 -0.05712108810985454 -1.1106865743903376
0.5029749 -0.04985783145071672 -1.1109881092967069
0.5049748 -0.04292282585103871 -1.1115745582620014
0.5069747 -0.03566169022684345 -1.1119762610119246
0.5089746 -0.02915005942059714 -1.1126739150009641
0.5109745 -0.021766417711340524 -1.1124963290480991
0.5129744 -0.015373381951718716 -1.1135725333136242
0.5149743 -0.00819782301138261 -1.113767144592837
0.5169742 -0.0011734976956196824 -1.1132502652482106
0.5189741 0.00566294079156332 -1.1126806959950148
0.520974 0.013099069768534241 -1.1132809219263622
0.5229739 0.019722291712063092 -1.11320837136705
0.5249738 0.026306974841543235 -1.1132013026384149
0.5269737 0.033669628011425715 -1.1129505156465698
0.5289736 0.04091579916555643 -1.1135114966860828
0.5309735 0.047487232975722396 -1.1134869108147816
0.5329734 0.054921445519556605 -1.113275696968967
0.5349733 0.06207959071161047 -1.1133789263451832
0.5369732 0.06912917166665766 -1.1126996884259013
0.5389731 0.07603651259939354 -1.1127647835975987
0.540973 0.08328029959117893 -1.1125071368449706
0.5429729 0.09062084590501215 -1.112428041025388
0.5449728 0.09723339582435629 -1.1116910133220297
0.5469727 0.10445543240901606 -1.1109269918267466
0.5489726 0.11152935640470418 -1.1108730144643457
0.5509725 0.11832335540556625 -1.1097934160826706
0.5529724 0.12550172078303773 -1.108222105032679
0.5549723 0.13270043565122136 -1.1077962962365115
0.5569722 0.13969891938583173 -1.1076082720697908
0.5589721 0.14602684770554428 -1.1071021939118972
0.560972 0.15341045963447264 -1.106753096418988
0.5629719 0.16086318252448537 -1.104952807614752
0.5649718 0.16801335851606422 -1.1044701394878655
0.5669717 0.17471746337551575 -1.103017050424751
0.5689716 0.18110289165296217 -1.102371703429716
0.5709715 0.18822120500560638 -1.1019980631223967
0.5729714 0.19576924201543122 -1.1000211178229768
0.5749713 0.20313316628010775 -1.0993206763536518
0.5769712 0.2100605530753863 -1.0984883773031637
0.5789711 0.21726883316388484 -1.0972358118994203
0.580971 0.22330219557297848 -1.095915905190782
0.5829709 0.23129793116754604 -1.0939112824047812
0.5849708 0.23753267401067216 -1.0924803277146382
0.5869707 0.24470982688238152 -1.0906548938129217
0.5889706 0.2513959555720079 -1.0895754363776966
0.5909705 0.2587937414520856 -1.0880167840358648
0.5929704 0.26546068583490895 -1.0869551628984444
0.5949703 0.272487406424048 -1.0849618119355438
0.5969702 0.2797917363434986 -1.0836438654305458
0.5989701 0.28689574170324916 -1.0823306815892526
0.60097 0.29307777514426064 -1.079612847860132
0.6029699 0.30072915792807947 -1.0783141296429328
0.6049698 0.3075753518757275 -1.0771315560872607
0.6069697 0.314866632342967 -1.0756034140381432
0.6089696 0.3214548576572245 -1.0734593254603764
0.6109695 0.32812892278208816 -1.0715621272279348
0.6129694 0.33516625341966666 -1.069690869667105
0.6149693 0.34266566105900115 -1.0678256722634603
0.6169692 0.34951451334871303 -1.064944492432126
0.6189691 0.3559498223840031 -1.0625723793279687
0.620969 0.3622774683278591 -1.0602828186541677
0.6229689 0.36967072857917604 -1.0577339770888152
0.6249688 0.37602947232038353 -1.055671915730237
0.6269687 0.3836880943657735 -1.0535366602135905
0.6289686 0.3902844450845646 -1.0507388078334177
0.6309685 0.3967314764760654 -1.0491308264696597
0.6329684 0.4038314015837556 -1.0468228367519468
0.6349683 0.410615476226051 -1.0435733078558735
0.6369682 0.4174781098099102 -1.041760207637741
0.6389681 0.42505120960113535 -1.0391113521677142
0.640968 0.43132125536205623 -1.0366528849185852
0.6429679 0.4382692700181785 -1.0335257867362433
0.6449678 0.4452971754261159 -1.0309034370071453
0.6469677 0.45195795913662384 -1.0275979961617934
0.6489676 0.45823805657861627 -1.0246849273575562
0.6509675 0.46501944078689555 -1.0222235903345371
0.6529674 0.4716349571953249 -1.0193215016095958
0.6549673 0.47838893690798795 -1.015267104498336
0.6569672 0.4849541364911139 -1.0127833939074935
0.6589671 0.49196444916732984 -1.0096967679534807
0.660967 0.49770501212779145 -1.0066411858450608
0.6629669 0.504494436383276 -1.003144802343369
0.6649668 0.5112039861170486 -0.9998242225276581
0.6669667 0.5174500658533396 -0.9973343319895934
0.6689666 0.5243988449695555 -0.9934583746324979
0.6709665 0.5303561535683006 -0.9904745135543597
0.6729664 0.5376741115101289 -0.9875008401501587
0.6749663 0.5443139688215449 -0.984521435685398
0.6769662 0.5508058954677699 -0.9811618014200727
0.6789661 0.5575382544036478 -0.9768856448840766
0.680966 0.5639841834119035 -0.9733159769378994
0.6829659 0.5705506508218406 -0.9698344436551064
0.6849658 0.5768153908542994 -0.9657687531491614
0.6869657 0.5829664864703265 -0.9625177364535945
0.6889656 0.5894906429708874 -0.9586901994745696
0.6909655 0.5959258073462332 -0.954248639625747
0.6929654 0.6020960871392541 -0.9507203723658421
0.6949653 0.6080450836767645 -0.9473826437370594
0.6969652 0.6141978859938234 -0.9425757565685101
0.6989651 0.6202680290655302 -0.9387461941214055
0.700965 0.6268401388366037 -0.9342864979148571
0.7029649 0.6332491474145718 -0.9311599330095985
0.7049648 0.6392035828616471 -0.926798229498063
0.7069647 0.6456982936924703 -0.9217235735298036
0.7089646 0.6514167682874532 -0.9183924268714735
0.7109645 0.6575767746426453 -0.9138473669109619
0.7129644 0.6636508387634779 -0.9091693616151685
0.7149643 0.6697419476674883 -0.9052749443938246
0.7169642 0.6759360793556354 -0.9004218596147352
0.7189641 0.6815427598219967 -0.8965927310387845
0.720964 0.6874148861069578 -0.8919659268291283
0.7229639 0.6928481609642164 -0.8876825442139772
0.7249638 0.699180218170255 -0.8830368413364043
0.7269637 0.7052607465717177 -0.8787597494329175
0.7289636 0.710985186882171 -0.8739714511106875
0.7309635 0.7171496118185032 -0.8688339711869965
0.7329634 0.7225732474960396 -0.8643086016816165
0.7349633 0.72850870494616 -0.8594348965624369
0.7369632 0.7347027927326223 -0.8547627048640852
0.7389631 0.7397871382321709 -0.8503442928558315
0.740963 0.7461169129683765 -0.8453052815686579
0.7429629 0.7511674089591434 -0.8405049430572885
0.7449628 0.7568086007832675 -0.8356787638488677
0.7469627 0.7618629174884738 -0.8307316013268066
0.7489626 0.7683743650629942 -0.8256278032800318
0.7509625 0.773913543678847 -0.8205702439054118
0.7529624 0.7791910823409423 -0.8153275351015125
0.7549623 0.7844238633243137 -0.8097947415141895
0.7569622 0.7901777893656963 -0.8048409143244377
0.7589621 0.7959397990118566 -0.8002760943904066
0.760962 0.8013925193851296 -0.7946615275533783
0.7629619 0.8067045853754964 -0.7892113133321972
0.7649618 0.8118506947025935 -0.7838864519102338
0.7669617 0.8166908021499865 -0.7780757657216761
0.7689616 0.8227853297077748 -0.7730965690266206
0.7709615 0.8276963582625886 -0.7674800592758303
0.7729614 0.8331591938204218 -0.761725155136349
0.7749613 0.8381216947496786 -0.7564316423409463
0.7769612 0.8433085762582629 -0.7511064439737581
0.7789611 0.8485463545072425 -0.7450848349078937
0.780961 0.8530238685699815 -0.7395934685997829
0.7829609 0.8582527119307036 -0.7334309465644635
0.7849608 0.8630757653728931 -0.7280880613283862
0.7869607 0.8681134142522262 -0.7220515921972857
0.7889606 0.8729420723945125 -0.7154547889914042
0.7909605 0.8771858326986681 -0.7106238903677226
0.7929604 0.8827524952238249 -0.7043019167454687
0.7949603 0.8874641689095824 -0.6985452765378364
0.7969602 0.8917140223419937 -0.6923276238371282
0.7989601 0.8964911422763322 -0.6866259396462231
