! Created with skrf 1.8.0 (http://scikit-rf.org).
# GHz S RI R 50.0 
!freq ReS11 ImS11
0.001 -0.1885104812365956 -0.16447736926262285
0.0029999 -0.05650579770085949 -0.10983704171967544
0.0049998 -0.023487825527470148 -0.052912035453036146
0.0069997 -0.022865807665542644 -0.039544490644728925
0.0089996 -0.013469419296836578 -0.028076281594339926
0.0109995 -0.02314070548456657 -0.019481399863503893
0.0129994 -0.018430185748081643 -0.01497795745735987
0.0149993 -0.016903053602310526 -0.015617361657462045
0.0169992 -0.014311902452543712 -0.010953475925931738
0.0189991 -0.01949063726702925 -0.01435180596858424
0.020999 -0.018350015236082755 -0.009807733496933056
0.0229989 -0.01733102819492088 -0.007080762552405639
0.0249988 -0.0228810222386014 -0.007252460837014226
0.0269987 -0.020853229980723798 -0.005465489267479345
0.0289986 -0.016317662758450903 -0.0050421535016384675
0.0309985 -0.02063383971474851 -0.004198578706057927
0.0329984 -0.017320433204245027 -0.005144016184046331
0.0349983 -0.01775920754477855 -0.0035946940887861957
0.0369982 -0.019951040100613594 -0.00555072287849265
0.0389981 -0.018061659527427724 -0.0025183211601636554
0.040998 -0.01864756576289857 -0.0012683154623413454
0.0429979 -0.022745332875695103 -0.0001855304274145954
0.0449978 -0.017968179037257996 -0.001983641737248509
0.0469977 -0.022882676585685612 -0.0004736372094336389
0.0489976 -0.020351625148523664 0.0014433954063591862
0.0509975 -0.02018337282480534 -0.0003539646516189047
0.0529974 -0.021101721609278243 -0.00025746601283242916
0.0549973 -0.02197106215688292 0.000184029742268047
0.0569972 -0.019455594265247927 -0.00010925174340012259
0.0589971 -0.019955047888124626 -0.00032437188005462764
0.060997 -0.018466556343153494 0.0011680826925178401
0.0629969 -0.020188626170540028 0.0009291478311909459
0.0649968 -0.020152063163487745 0.001050578143307584
0.0669967 -0.01947716467179344 0.0022513179184666604
0.0689966 -0.019090527723880996 0.0026530407010707134
0.0709965 -0.021311806550493993 0.0025098605686659117
0.0729964 -0.020023627221161838 0.00306127701880689
0.0749963 -0.020024621604329173 0.003585267872820056
0.0769962 -0.021065829465303762 0.0031728225380443
0.0789961 -0.020887331268776965 0.004055254566064515
0.080996 -0.020116097723006897 0.0035666270205942257
0.0829959 -0.020403119001786964 0.004744739077567381
0.0849958 -0.021272310213518567 0.003788634320715027
0.0869957 -0.021534181604390433 0.005231512857951165
0.0889956 -0.022484022123600313 0.004715966073778595
0.0909955 -0.021744750614765454 0.005125583147079714
0.0929954 -0.02053510293594103 0.006196357733207302
0.0949953 -0.023408364026501267 0.005492130507189793
0.0969952 -0.022084444766635597 0.00515212706094255
0.0989951 -0.021484705090376043 0.007620650448038772
0.100995 -0.02286411727519681 0.0055488255883256385
0.1029949 -0.022707860244334445 0.006618909246977568
0.1049948 -0.022859155460845295 0.006668995432044851
0.1069947 -0.023175945730280235 0.0075856410075275235
0.1089946 -0.02363867457679995 0.006858370368478082
0.1109945 -0.02290747455152674 0.007059185356122627
0.1129944 -0.023416761324729425 0.007052949668539262
0.1149943 -0.02386302708531206 0.007662167400442532
0.1169942 -0.02430271718390515 0.006773740043610212
0.1189941 -0.02328555623874085 0.007552121178893529
0.120994 -0.023596152506611345 0.008210619787669567
0.1229939 -0.024272462486225162 0.008319757518823107
0.1249938 -0.024100457822575368 0.00787146222607189
0.1269937 -0.02434055194797991 0.00873801185263726
0.1289936 -0.023705532154005258 0.009345337086976092
0.1309935 -0.02360927461100091 0.00851719293336345
0.1329934 -0.02459388424719532 0.007726868754672396
0.1349933 -0.024302943990842523 0.008584304509869346
0.1369932 -0.02546455082850821 0.009076838162654465
0.1389931 -0.023669201037969843 0.009373801546246778
0.140993 -0.02491291320933224 0.009023337584988054
0.1429929 -0.02402394630948157 0.009051024735782301
0.1449928 -0.02443728182046875 0.01010071356332221
0.1469927 -0.02428650758087765 0.009792529476358945
0.1489926 -0.024852686755379307 0.009879810726096935
0.1509925 -0.024426619304286218 0.011603282879729329
0.1529924 -0.02410649339458961 0.010877687583883137
0.1549923 -0.025463502489267487 0.01154593893054883
0.1569922 -0.025352099527293965 0.010938139733684111
0.1589921 -0.025660838431755158 0.012119230879178202
0.160992 -0.025296817117473253 0.011827485324463585
0.1629919 -0.025843071435886777 0.012111432102174118
0.1649918 -0.02634843950613517 0.013010901316136761
0.1669917 -0.025908845067835765 0.012985289293646665
0.1689916 -0.02705933463622459 0.01227703933724974
0.1709915 -0.0268620047643485 0.013568716973161383
0.1729914 -0.027285481894499045 0.013945068996601237
0.1749913 -0.027821339456382484 0.013891662845580847
0.1769912 -0.027785639341751676 0.013398669796245644
0.1789911 -0.02813165821861334 0.013589846420564988
0.180991 -0.02868167420900702 0.014275050197814899
0.1829909 -0.027936019243884433 0.013404174019831216
0.1849908 -0.029409428817905352 0.013899742675729774
0.1869907 -0.02953978644769271 0.01421169010105357
0.1889906 -0.029533248018356793 0.013769802068457859
0.1909905 -0.029911779916694425 0.014204350225253277
0.1929904 -0.029286214392850757 0.01392311163569371
0.1949903 -0.02999658265068207 0.014270598302501866
0.1969902 -0.030043476226090535 0.013991424048185881
0.1989901 -0.02999180596421825 0.013613792724782517
0.20099 -0.02985712946918712 0.014701317286646557
0.2029899 -0.030807015937779778 0.014664260811967299
0.2049898 -0.03040160771293241 0.014705554898072438
0.2069897 -0.030474495760838393 0.01440322048779531
0.2089896 -0.03086465788024662 0.014892501599170558
0.2109895 -0.03108423340552972 0.014360293963650761
0.2129894 -0.031241661358964546 0.015028796903623715
0.2149893 -0.031052369330090646 0.015163897009796862
0.2169892 -0.03133172159555434 0.015714899047221988
0.2189891 -0.031519929862741845 0.015464262599931753
0.220989 -0.03136033244881929 0.015696716658543074
0.2229889 -0.03133578613388187 0.015487263176993997
0.2249888 -0.03180016378655144 0.016241381139782074
0.2269887 -0.032099841157213246 0.01625732874086013
0.2289886 -0.032013051763372886 0.01627599094864511
0.2309885 -0.03269754346213695 0.016555023314869535
0.2329884 -0.032441781545556755 0.016509323178535238
0.2349883 -0.03303044909811766 0.01702403870633297
0.2369882 -0.03338158006598151 0.01744544061624898
0.2389881 -0.033521771701559816 0.017292916932450865
0.240988 -0.033661712529812406 0.018062623121333832
0.2429879 -0.03410506897269651 0.018036006084425907
0.2449878 -0.03429771937157608 0.01797307825199403
0.2469877 -0.034621266096330844 0.018035271615005375
0.2489876 -0.034570605076129315 0.018194936236431602
0.2509875 -0.0354859694814088 0.018055078807142758
0.2529874 -0.035918550890889314 0.018316939019153065
0.2549873 -0.03616917929034362 0.018363586993637167
0.2569872 -0.03627156839442887 0.018243837544738784
0.2589871 -0.036476153912770426 0.018429874553663718
0.260987 -0.03663412476856499 0.01857481226373809
0.2629869 -0.03693740843438177 0.018443908653188783
0.2649868 -0.037159043954852554 0.018802652177015024
0.2669867 -0.03726990244414161 0.018449948957227007
0.2689866 -0.03754376271111508 0.018385702152125226
0.2709865 -0.03807351348828681 0.01904497031700339
0.2729864 -0.038086288900938625 0.018743030547609778
0.2749863 -0.038206646865433944 0.018276492245967488
0.2769862 -0.038396694793240926 0.018821120148525522
0.2789861 -0.03867775718917085 0.01857220250592784
0.280986 -0.03871459932399269 0.018768615255701036
0.2829859 -0.038858794448196836 0.018844373306415717
0.2849858 -0.03920076687705068 0.018792805982422618
0.2869857 -0.039074304105498454 0.019447879672625817
0.2889856 -0.0394347027806818 0.019007781868542045
0.2909855 -0.03960962700493212 0.019050289649654703
0.2929854 -0.039706623858955806 0.019377443901344018
0.2949853 -0.03994537913952845 0.019725204496702328
0.2969852 -0.04013118595530801 0.019778416884467104
0.2989851 -0.04051648639561871 0.01999236353909542
0.300985 -0.04075121297451866 0.019904626856131383
0.3029849 -0.04109301499853425 0.019724802150319982
0.3049848 -0.04119401918327319 0.02045205987554083
0.3069847 -0.04137627633571647 0.02066449976458457
0.3089846 -0.04161918032876248 0.020292530670783994
0.3109845 -0.04211863999338752 0.02052327587987216
0.3129844 -0.04233363133135377 0.020910718302849428
0.3149843 -0.04285712185748793 0.02071045420351064
0.3169842 -0.04294250316876748 0.020964997289624553
0.3189841 -0.04386619988601932 0.02067482180122441
0.320984 -0.044000795422458265 0.020836868227621583
0.3229839 -0.044119692299755923 0.02083379163675461
0.3249838 -0.044145716561950585 0.02079259071552374
0.3269837 -0.04432242722337629 0.02098648397033403
0.3289836 -0.045161996742948074 0.021296783685445346
0.3309835 -0.045440470999536096 0.021287631642800557
0.3329834 -0.04555562897306348 0.020859087576496245
0.3349833 -0.04600663397583338 0.020903393247374835
0.3369832 -0.04616746833632322 0.020687686475522854
0.3389831 -0.04636279497722399 0.021006102641166213
0.340983 -0.046746976882528574 0.020931121152809568
0.3429829 -0.046894898002871194 0.020703373876177614
0.3449828 -0.04714943772299528 0.020705860403251765
0.3469827 -0.047409555252851884 0.020752441960802316
0.3489826 -0.047445538620685596 0.020640284702914548
0.3509825 -0.0479168948194314 0.020325497760797808
0.3529824 -0.047866051977999216 0.0205267890064619
0.3549823 -0.04794586306163694 0.020922582054522985
0.3569822 -0.04842283322550088 0.020799178678715814
0.3589821 -0.04851239395258638 0.02060417335509352
0.360982 -0.04923071817546783 0.020493097511759543
0.3629819 -0.04897974777582198 0.020886633011222958
0.3649818 -0.04918443590092674 0.02045364319001547
0.3669817 -0.04945976696809503 0.020701668892908087
0.3689816 -0.0498508002494264 0.02072085887110174
0.3709815 -0.04961943095019383 0.020870984592812086
0.3729814 -0.04999681352714147 0.020807062752295425
0.3749813 -0.050024730918579924 0.021102234696340927
0.3769812 -0.050290208154114405 0.0208273291952218
0.3789811 -0.05048766441569624 0.021268258221161625
0.380981 -0.05115178437230171 0.020947838546751914
0.3829809 -0.051464063535505526 0.021004433166890164
0.3849808 -0.05170212940991538 0.02099013548910576
0.3869807 -0.0520125423825368 0.021408580267413848
0.3889806 -0.05198566934199388 0.02149822642612865
0.3909805 -0.05245629089466296 0.02140224718203913
0.3929804 -0.05271290468457772 0.021295223617944073
0.3949803 -0.053045089331966486 0.02140193165964545
0.3969802 -0.05354776520789689 0.02142968974434723
0.3989801 -0.05443675405261168 0.021424305359494474
0.40098 -0.05421507451329904 0.021405668935395198
0.4029799 -0.05490320490535408 0.020996757569114274
0.4049798 -0.05511841312049945 0.02103568769529664
0.4069797 -0.05544307392510189 0.020968677278723643
0.4089796 -0.05548701836816014 0.020872909051725272
0.4109795 -0.05615904019281574 0.020498823007954577
0.4129794 -0.056333148074538195 0.020735365934359283
0.4149793 -0.056489259083901525 0.020503197739351605
0.4169792 -0.056805052769705974 0.020807442243291466
0.4189791 -0.05700084760071468 0.02047047011227643
0.420979 -0.05728898848111452 0.020590589571594205
0.4229789 -0.05765157381146663 0.02009677672381427
0.4249788 -0.057876140344421484 0.020006904581234733
0.4269787 -0.05800202983693051 0.02000215251758385
0.4289786 -0.0581138857967584 0.019787933635090627
0.4309785 -0.058612414564518336 0.019506622850922316
0.4329784 -0.058575315169953686 0.019640068163689503
0.4349783 -0.059018317744182494 0.019800744404131876
0.4369782 -0.058985561566343186 0.0197896656401093
0.4389781 -0.05943518479088049 0.019740464681277825
0.440978 -0.05988307103279454 0.01957404473340913
0.4429779 -0.06007612269848435 0.019539306240302555
0.4449778 -0.06003611595437168 0.019233137255326754
0.4469777 -0.06037901731806346 0.019431503185207217
0.4489776 -0.06023402343300936 0.0194696136062316
0.4509775 -0.06103172294187331 0.018948204006557508
0.4529774 -0.0614212513848377 0.01911140386455731
0.4549773 -0.06144479626024239 0.019210680747980102
0.4569772 -0.061692834462507645 0.01906119837737336
0.4589771 -0.06221110079928843 0.018899418607384873
0.460977 -0.062230008189103334 0.01902749489526293
0.4629769 -0.06250142467703648 0.018755516250795745
0.4649768 -0.06273788167271394 0.018803879676624127
0.4669767 -0.06303491028877552 0.0185113393562801
0.4689766 -0.06354008377260406 0.018278494203635084
0.4709765 -0.06360204861700389 0.0181321585872529
0.4729764 -0.06404548084355469 0.017923700045571655
0.4749763 -0.06422171868021793 0.01770962504441099
0.4769762 -0.06459024992080281 0.017490156765622378
0.4789761 -0.06506066630505364 0.017571978493040655
0.480976 -0.06513845724171946 0.017101432047955206
0.4829759 -0.06514487598608876 0.017366009945565412
0.4849758 -0.06531417771438802 0.017240227193322306
0.4869757 -0.06576475697975462 0.01711894539869342
0.4889756 -0.06593789221902539 0.01727462680238313
0.4909755 -0.06606293064081509 0.016924803727681365
0.4929754 -0.06634011140639447 0.016818220905961745
0.4949753 -0.06643681446958181 0.016770646326608466
0.4969752 -0.06649481228435467 0.016664092443689407
0.4989751 -0.06673085268085341 0.01639247674114759
0.500975 -0.06705415338363266 0.016493233287040346
0.5029749 -0.06728179465257378 0.016593721769975447
0.5049748 -0.06740430212501039 0.016449867720405735
0.5069747 -0.06773487711347992 0.016328927858064328
0.5089746 -0.06802916668141414 0.016285380910686723
0.5109745 -0.06811341854896448 0.01610477784494436
0.5129744 -0.0687045201696286 0.01578988802076505
0.5149743 -0.06910756981606356 0.015438698643964747
0.5169742 -0.06925317710638836 0.015703237050183817
0.5189741 -0.06944452687190641 0.015700728898453458
0.520974 -0.06980848637970473 0.01548102361813597
0.5229739 -0.07028448477225649 0.015490186820320596
0.5249738 -0.07045814042057658 0.015336659768849195
0.5269737 -0.07085498971433381 0.015250883015512813
0.5289736 -0.07130649656416216 0.0152000905307926
0.5309735 -0.07172886617488627 0.014935922547426775
0.5329734 -0.07177768940375479 0.014680341111580557
0.5349733 -0.07223590086303584 0.014688646823614381
0.5369732 -0.07276657716010784 0.014248284943750536
0.5389731 -0.07280765287938105 0.013998843818811425
0.540973 -0.07310347527120278 0.013643079626642206
0.5429729 -0.07352215248074401 0.013382358032931814
0.5449728 -0.07360396347229996 0.013072215856033405
0.5469727 -0.07393235788735983 0.012866998712254482
0.5489726 -0.07409927640454128 0.012658524690400217
0.5509725 -0.074343479387389 0.012615488328613433
0.5529724 -0.0746312510728146 0.012410339754283628
0.5549723 -0.07494367188558278 0.01202534718513477
0.5569722 -0.07516055395156614 0.011747897118313238
0.5589721 -0.07545035836941555 0.011377494733711045
0.560972 -0.07517502840737106 0.011131314487526616
0.5629719 -0.07534667778289891 0.010924313016955688
0.5649718 -0.07516696729210581 0.010817486214593195
0.5669717 -0.07556291190823648 0.010639701243890673
0.5689716 -0.07561765882023076 0.010526373470180005
0.5709715 -0.07574528183817728 0.010191535427433441
0.5729714 -0.0757806560388718 0.010025870896604203
0.5749713 -0.07578506542225541 0.009910258730925447
0.5769712 -0.07614809195762792 0.009924773471146724
0.5789711 -0.07643874106991796 0.009668934632106909
0.580971 -0.07683211563765602 0.009801811357954517
0.5829709 -0.07700697774383207 0.009720028406995818
0.5849708 -0.07716702542308908 0.009689196441285016
0.5869707 -0.07736603028530416 0.009726412304050767
0.5889706 -0.07773803173943894 0.009428460983289155
0.5909705 -0.07789293833754635 0.009018246589378678
0.5929704 -0.07810889877657451 0.008928506258683258
0.5949703 -0.0787513356356738 0.00880027280061424
0.5969702 -0.07874689863539676 0.008402786852848641
0.5989701 -0.0792983837124698 0.008065528427022461
0.60097 -0.07944087225910905 0.008292196043137277
0.6029699 -0.08001430353351097 0.007717733624530411
0.6049698 -0.08009283702955518 0.007272852287700762
0.6069697 -0.08078956607159561 0.00709603477054227
0.6089696 -0.08066830499439359 0.006799185275573598
0.6109695 -0.08096827599540364 0.006517622541121287
0.6129694 -0.08129749793538406 0.0061877319581457105
0.6149693 -0.08127229613589322 0.005894422017503564
0.6169692 -0.08175773805558542 0.005456580826974353
0.6189691 -0.08180640626373775 0.005115306530175098
0.620969 -0.08210537320619242 0.004998216644111091
0.6229689 -0.08216881095702436 0.004721778843536646
0.6249688 -0.08251962338485738 0.004300918768690654
0.6269687 -0.08250885865000851 0.003769369481007062
0.6289686 -0.08264385067035027 0.0037722410874415843
0.6309685 -0.08282726404788443 0.0032087909378955906
0.6329684 -0.08274801637262255 0.002994403395818676
0.6349683 -0.08274430458583708 0.003032146935356049
0.6369682 -0.08298071238424208 0.0024940442611532457
0.6389681 -0.08268160834124799 0.002195826108924076
0.640968 -0.08280291152284273 0.002178910272915849
0.6429679 -0.08287583724207788 0.0022015198805853675
0.6449678 -0.08297592005524076 0.0020694206293492626
0.6469677 -0.08340670127232513 0.0019568130500195458
0.6489676 -0.08339675773919483 0.002177145127458459
0.6509675 -0.08358873613392427 0.0019095230784839379
0.6529674 -0.08361296197649165 0.0016837082703778997
0.6549673 -0.0841498884771654 0.0015794094078790052
0.6569672 -0.08416147410666579 0.001025727900447082
0.6589671 -0.08480857504548055 0.0012275243326878224
0.660967 -0.08490911725586164 0.0011937689151971867
0.6629669 -0.08545201940356859 0.0009271464343704669
0.6649668 -0.08568062343962266 0.0005516427049754441
0.6669667 -0.08627558620176876 0.00027155968115511603
0.6689666 -0.08635232827695095 0.0001709627977398015
0.6709665 -0.08677197217086043 5.563315647465206e-05
0.6729664 -0.08712746669690763 -0.000520852939063142
0.6749663 -0.08680342424073076 -0.0007705384553391564
0.6769662 -0.08729140750870605 -0.0013539907819711192
0.6789661 -0.08744261131724386 -0.0013115783826555052
0.680966 -0.08800102022357098 -0.0022140211475336624
0.6829659 -0.08794223757938442 -0.0025410545093115036
0.6849658 -0.08840009442208327 -0.002718506527153816
0.6869657 -0.08839974453477017 -0.0030980970704163613
0.6889656 -0.0886780034834008 -0.0035946431866444375
0.6909655 -0.08886734147254605 -0.004018116620149247
0.6929654 -0.08891172862192692 -0.004635337812408366
0.6949653 -0.08933976533264937 -0.004971646210170003
0.6969652 -0.08918971482909917 -0.005579300721846488
0.6989651 -0.08923393332157861 -0.006005441486084451
0.700965 -0.08927854980921208 -0.006237606477154281
0.7029649 -0.08907783428712777 -0.006715650733395889
0.7049648 -0.08930742914609612 -0.00716575049077163
0.7069647 -0.08908418970914533 -0.007467396807135866
0.7089646 -0.0890448291499822 -0.007662337489683146
0.7109645 -0.08902609142593429 -0.007944178156770634
0.7129644 -0.0885968607000912 -0.00805287658044641
0.7149643 -0.08875432250060515 -0.008420145450354712
0.7169642 -0.08864028791485695 -0.008530397213369349
0.7189641 -0.08873587238518 -0.008674366314407007
0.720964 -0.08899160119373266 -0.008759283202049745
0.7229639 -0.08912505720827635 -0.009131995883516122
0.7249638 -0.08881486639514444 -0.00954538231303114
0.7269637 -0.0888924802897335 -0.009417767478962148
0.7289636 -0.08949175437733449 -0.00949113570152442
0.7309635 -0.08909414703076968 -0.0095683709919725
0.7329634 -0.08971818098464121 -0.009850842311557133
0.7349633 -0.08946336092022722 -0.009933345532542139
0.7369632 -0.09001600330886592 -0.010087831225224518
0.7389631 -0.09036875240120833 -0.010241711126313717
0.740963 -0.0905015625178489 -0.010708898537004227
0.7429629 -0.09115920307087828 -0.010896080870997953
0.7449628 -0.09092278256607893 -0.010984724657393256
0.7469627 -0.09154020024401092 -0.01148626687167354
0.7489626 -0.09180144107707269 -0.012008919849749677
0.7509625 -0.09167660939376562 -0.012370956579032647
0.7529624 -0.09233506406322804 -0.012916094627865159
0.7549623 -0.09243230157776969 -0.01316312862469058
0.7569622 -0.09275812986337195 -0.013663049749839444
0.7589621 -0.09292553495504566 -0.014460109042051503
0.760962 -0.09304553506056638 -0.014650850476555812
