# GHz S RI R 50
0.001	-0.999962295236367	0.000248615731587968
0.003	-0.99993450420666	0.000698060255055284
0.005	-0.999915112062457	0.0011388993654652
0.007	-0.99989908516469	0.00157617350031268
0.009	-0.99988495972506	0.0020113498068035
0.011	-0.999872065822962	0.00244510030528959
0.013	-0.999860030289261	0.00287779962922307
0.015	-0.999848619980588	0.00330968201153366
0.017	-0.999837677706716	0.00374090548879551
0.019	-0.999827091545306	0.00417158266116399
0.021	-0.999816778463024	0.00460179711727991
0.023	-0.999806674848573	0.00503161293136382
0.025	-0.999796730695584	0.00546108050100961
0.027	-0.99978690585012	0.00589024031438591
0.029	-0.999777167492224	0.0063191254795086
0.031	-0.999767488389037	0.0067477634792547
0.033	-0.999757845648902	0.00717617742352144
0.035	-0.99974821981132	0.00760438696418345
0.037	-0.999738594168319	0.00803240897762498
0.039	-0.999728954249171	0.0084602580831897
0.041	-0.999719287422804	0.00888794704333703
0.043	-0.999709582586672	0.00931548707691734
0.045	-0.999699829920136	0.00974288810757002
0.047	-0.999690020686731	0.0101701589629507
0.049	-0.999680147073994	0.0105973075361877
0.051	-0.999670202062454	0.0110243409179704
0.053	-0.999660179317588	0.0114512655055466
0.055	-0.999650073099963	0.0118780870933813
0.057	-0.999639878189994	0.0123048109491129
0.059	-0.999629589824498	0.0127314418776216
0.061	-0.999619203642859	0.0131579842754077
0.063	-0.999608715641089	0.0135844421770148
0.065	-0.999598122132412	0.0140108192948751
0.067	-0.999587419713275	0.014437119053682
0.069	-0.999576605233896	0.0148633446201826
0.071	-0.999565675772636	0.0152894989291136
0.073	-0.999554628613599	0.0157155847058755
0.075	-0.999543461226988	0.0161416044864316
0.077	-0.999532171251799	0.0165675606348377
0.079	-0.999520756480527	0.0169934553587366
0.081	-0.999509214845621	0.0174192907231018
0.083	-0.999497544407419	0.0178450686624632
0.085	-0.9994857433434	0.0182707909918178
0.087	-0.999473809938559	0.0186964594163924
0.089	-0.999461742576785	0.0191220755404036
0.091	-0.999449539733099	0.0195476408749381
0.093	-0.99943719996666	0.0199731568450583
0.095	-0.999424721914451	0.0203986247962257
0.097	-0.999412104285545	0.020824046000119
0.099	-0.999399345855924	0.0212494216599162
0.101	-0.999386445463749	0.0216747529150998
0.103	-0.999373402005058	0.0221000408458364
0.105	-0.999360214429845	0.0225252864769762
0.107	-0.999346881738456	0.0229504907817113
0.109	-0.999333402978311	0.0233756546849293
0.111	-0.999319777240878	0.0238007790662905
0.113	-0.999306003658895	0.0242258647630583
0.115	-0.999292081403822	0.0246509125727048
0.117	-0.999278009683486	0.0250759232553138
0.119	-0.999263787739896	0.0255008975358007
0.121	-0.999249414847248	0.0259258361059646
0.123	-0.999234890310056	0.0263507396263898
0.125	-0.999220213461424	0.0267756087282076
0.127	-0.999205383661455	0.0272004440147337
0.129	-0.999190400295755	0.0276252460629888
0.131	-0.999175262774051	0.0280500154251145
0.133	-0.999159970528906	0.0284747526296925
0.135	-0.999144523014515	0.0288994581829747
0.137	-0.999128919705578	0.0293241325700319
0.139	-0.999113160096262	0.0297487762558279
0.141	-0.999097243699216	0.0301733896862242
0.143	-0.999081170044646	0.0305979732889203
0.145	-0.999064938679469	0.0310225274743363
0.147	-0.999048549166494	0.0314470526364405
0.149	-0.999032001083672	0.0318715491535263
0.151	-0.999015294023387	0.0322960173889434
0.153	-0.998998427591771	0.032720457691784
0.155	-0.998981401408096	0.0331448703975313
0.157	-0.998964215104166	0.0335692558286682
0.159	-0.998946868323758	0.0339936142952525
0.161	-0.998929360722106	0.03441794609546
0.163	-0.998911691965391	0.0348422515160965
0.165	-0.998893861730277	0.0352665308330824
0.167	-0.998875869703459	0.0356907843119107
0.169	-0.998857715581251	0.0361150122080806
0.171	-0.998839399069186	0.036539214767508
0.173	-0.998820919881631	0.0369633922269151
0.175	-0.998802277741434	0.0373875448141984
0.177	-0.998783472379591	0.03781167274878
0.179	-0.998764503534914	0.0382357762419392
0.181	-0.998745370953724	0.0386598554971284
0.183	-0.998726074389574	0.0390839107102742
0.185	-0.998706613602959	0.0395079420700615
0.187	-0.998686988361056	0.0399319497582063
0.189	-0.99866719843748	0.0403559339497141
0.191	-0.998647243612039	0.0407798948131264
0.193	-0.998627123670507	0.0412038325107553
0.195	-0.998606838404415	0.0416277471989084
0.197	-0.998586387610832	0.0420516390281014
0.199	-0.998565771092185	0.0424755081432633
0.201	-0.99854498865605	0.0428993546839304
0.203	-0.99852404011499	0.0433231787844331
0.205	-0.998502925286376	0.0437469805740735
0.207	-0.998481643992222	0.044170760177296
0.209	-0.998460196059031	0.0445945177138498
0.211	-0.998438581317645	0.0450182532989453
0.213	-0.998416799603094	0.0454419670434029
0.215	-0.99839485075447	0.0458656590537964
0.217	-0.998372734614787	0.0462893294325898
0.219	-0.998350451030853	0.046712978278269
0.221	-0.99832799985316	0.0471366056854677
0.223	-0.998305380935751	0.0475602117450882
0.225	-0.998282594136123	0.047983796544418
0.227	-0.998259639315117	0.0484073601672411
0.229	-0.998236516336807	0.0488309026939447
0.231	-0.998213225068406	0.0492544242016223
0.233	-0.998189765380177	0.0496779247641733
0.235	-0.998166137145333	0.0501014044523973
0.237	-0.998142340239954	0.0505248633340858
0.239	-0.998118374542903	0.0509483014741108
0.241	-0.998094239935739	0.0513717189345087
0.243	-0.998069936302645	0.0517951157745626
0.245	-0.998045463530354	0.0522184920508807
0.247	-0.998020821508065	0.052641847817472
0.249	-0.997996010127392	0.0530651831258196
0.251	-0.997971029282277	0.0534884980249504
0.253	-0.99794587886894	0.053911792561504
0.255	-0.997920558785808	0.0543350667797972
0.257	-0.997895068933453	0.0547583207218876
0.259	-0.997869409214548	0.0551815544276349
0.261	-0.997843579533792	0.0556047679347591
0.263	-0.997817579797871	0.0560279612788981
0.265	-0.997791409915389	0.0564511344936618
0.267	-0.997765069796841	0.0568742876106863
0.269	-0.99773855935454	0.057297420659684
0.271	-0.997711878502585	0.057720533668494
0.273	-0.99768502715681	0.0581436266631297
0.275	-0.997658005234737	0.0585666996678253
0.277	-0.997630812655543	0.0589897527050807
0.279	-0.997603449340007	0.059412785795705
0.281	-0.997575915210478	0.0598357989588585
0.283	-0.997548210190833	0.0602587922120931
0.285	-0.99752033420644	0.0606817655713923
0.287	-0.997492287184121	0.0611047190512086
0.289	-0.997464069052121	0.0615276526645017
0.291	-0.997435679740068	0.061950566422773
0.293	-0.997407119178943	0.0623734603361011
0.295	-0.997378387301047	0.0627963344131755
0.297	-0.997349484039974	0.0632191886613292
0.299	-0.997320409330576	0.06364202308657
0.301	-0.997291163108935	0.0640648376936119
0.303	-0.997261745312333	0.0644876324859041
0.305	-0.997232155879236	0.064910407465661
0.307	-0.997202394749249	0.0653331626338896
0.309	-0.997172461863099	0.0657558979904162
0.311	-0.99714235716262	0.0661786135339149
0.313	-0.997112080590712	0.0666013092619308
0.315	-0.997081632091325	0.0670239851709071
0.317	-0.997051011609439	0.0674466412562081
0.319	-0.997020219091034	0.0678692775121433
0.321	-0.996989254483074	0.06829189393199
0.323	-0.996958117733486	0.0687144905080167
0.325	-0.996926808791138	0.0691370672315031
0.327	-0.996895327605819	0.0695596240927625
0.329	-0.996863674128219	0.0699821610811618
0.331	-0.99683184830991	0.0704046781851414
0.333	-0.996799850103334	0.070827175392235
0.335	-0.996767679461772	0.071249652689088
0.337	-0.996735336339343	0.0716721100614764
0.339	-0.996702820690971	0.0720945474943242
0.341	-0.996670132472384	0.0725169649717213
0.343	-0.996637271640083	0.0729393624769401
0.345	-0.996604238151343	0.0733617399924527
0.347	-0.996571031964179	0.0737840974999457
0.349	-0.996537653037346	0.0742064349803374
0.351	-0.99650410133032	0.074628752413792
0.353	-0.996470376803283	0.0750510497797352
0.355	-0.996436479417109	0.0754733270568686
0.357	-0.996402409133352	0.0758955842231833
0.359	-0.996368165914238	0.0763178212559743
0.361	-0.996333749722637	0.0767400381318538
0.363	-0.996299160522069	0.0771622348267641
0.365	-0.996264398276681	0.0775844113159913
0.367	-0.996229462951239	0.0780065675741763
0.369	-0.996194354511117	0.0784287035753283
0.371	-0.996159072922281	0.0788508192928361
0.373	-0.996123618151284	0.0792729146994798
0.375	-0.996087990165254	0.0796949897674423
0.377	-0.996052188931882	0.0801170444683201
0.379	-0.996016214419412	0.0805390787731342
0.381	-0.995980066596636	0.0809610926523409
0.383	-0.995943745432873	0.0813830860758414
0.385	-0.995907250897973	0.081805059012993
0.387	-0.995870582962302	0.0822270114326176
0.389	-0.995833741596726	0.0826489433030125
0.391	-0.995796726772618	0.0830708545919591
0.393	-0.995759538461832	0.0834927452667319
0.395	-0.995722176636714	0.0839146152941084
0.397	-0.99568464127007	0.0843364646403765
0.399	-0.995646932335182	0.0847582932713444
0.401	-0.995609049805782	0.0851801011523479
0.403	-0.995570993656059	0.0856018882482596
0.405	-0.995532763860637	0.0860236545234959
0.407	-0.995494360394579	0.0864453999420254
0.409	-0.995455783233375	0.0868671244673764
0.411	-0.995417032352935	0.0872888280626442
0.413	-0.995378107729583	0.0877105106904991
0.415	-0.995339009340054	0.088132172313193
0.417	-0.995299737161482	0.0885538128925663
0.419	-0.995260291171393	0.088975432390055
0.421	-0.995220671347704	0.0893970307666974
0.423	-0.995180877668714	0.089818607983141
0.425	-0.9951409101131	0.0902401639996482
0.427	-0.995100768659904	0.0906616987761029
0.429	-0.995060453288542	0.0910832122720178
0.431	-0.995019963978779	0.091504704446538
0.433	-0.994979300710742	0.0919261752584492
0.435	-0.9949384634649	0.0923476246661822
0.437	-0.994897452222071	0.0927690526278198
0.439	-0.994856266963407	0.0931904591011006
0.441	-0.994814907670396	0.0936118440434259
0.443	-0.994773374324849	0.0940332074118645
0.445	-0.994731666908907	0.0944545491631579
0.447	-0.994689785405025	0.0948758692537257
0.449	-0.994647729795973	0.0952971676396702
0.451	-0.99460550006483	0.0957184442767817
0.453	-0.994563096194983	0.0961396991205432
0.455	-0.994520518170115	0.096560932126135
0.457	-0.994477765974207	0.0969821432484396
0.459	-0.994434839591532	0.0974033324420457
0.461	-0.994391739006655	0.0978244996612538
0.463	-0.99434846420442	0.0982456448600794
0.465	-0.994305015169952	0.0986667679922574
0.467	-0.994261391888653	0.0990878690112472
0.469	-0.994217594346195	0.099508947870236
0.471	-0.994173622528526	0.0999300045221432
0.473	-0.99412947642185	0.100351038919624
0.475	-0.99408515601264	0.100772051015075
0.477	-0.99404066128762	0.101193040760633
0.479	-0.993995992233775	0.101614008108187
0.481	-0.993951148838336	0.102034953009374
0.483	-0.993906131088784	0.102455875415588
0.485	-0.993860938972849	0.102876775277979
0.487	-0.993815572478494	0.103297652547461
0.489	-0.993770031593923	0.103718507174712
0.491	-0.993724316307583	0.104139339110179
0.493	-0.993678426608143	0.104560148304083
0.495	-0.993632362484504	0.104980934706416
0.497	-0.993586123925798	0.105401698266953
0.499	-0.993539710921376	0.105822438935246
0.501	-0.99349312346081	0.106243156660636
0.503	-0.993446361533889	0.106663851392248
0.505	-0.993399425130622	0.107084523078999
0.507	-0.99335231424123	0.107505171669601
0.509	-0.993305028856138	0.10792579711256
0.511	-0.993257568965982	0.108346399356182
0.513	-0.993209934561605	0.108766978348574
0.515	-0.993162125634049	0.10918753403765
0.517	-0.993114142174559	0.109608066371128
0.519	-0.99306598417458	0.110028575296539
0.521	-0.993017651625744	0.110449060761224
0.523	-0.992969144519881	0.11086952271234
0.525	-0.992920462849014	0.111289961096862
0.527	-0.992871606605353	0.111710375861585
0.529	-0.992822575781291	0.112130766953124
0.531	-0.99277337036941	0.112551134317921
0.533	-0.992723990362474	0.112971477902246
0.535	-0.992674435753422	0.113391797652194
0.537	-0.992624706535375	0.113812093513695
0.539	-0.992574802701633	0.114232365432513
0.541	-0.992524724245663	0.114652613354245
0.543	-0.992474471161107	0.11507283722433
0.545	-0.992424043441782	0.115493036988043
0.547	-0.992373441081669	0.115913212590504
0.549	-0.992322664074913	0.116333363976677
0.551	-0.99227171241583	0.11675349109137
0.553	-0.992220586098896	0.117173593879243
0.555	-0.992169285118744	0.117593672284803
0.557	-0.992117809470176	0.118013726252411
0.559	-0.992066159148143	0.118433755726279
0.561	-0.992014334147759	0.11885376065048
0.563	-0.991962334464285	0.119273740968938
0.565	-0.991910160093143	0.119693696625443
0.567	-0.991857811029901	0.120113627563641
0.569	-0.991805287270279	0.120533533727044
0.571	-0.991752588810142	0.120953415059028
0.573	-0.991699715645509	0.121373271502833
0.575	-0.991646667772534	0.12179310300157
0.577	-0.991593445187524	0.122212909498219
0.579	-0.991540047886927	0.122632690935629
0.581	-0.991486475867326	0.123052447256524
0.583	-0.991432729125446	0.123472178403501
0.585	-0.991378807658156	0.123891884319034
0.587	-0.991324711462455	0.124311564945473
0.589	-0.991270440535477	0.124731220225048
0.591	-0.991215994874498	0.125150850099868
0.593	-0.991161374476921	0.125570454511926
0.595	-0.991106579340281	0.125990033403096
0.597	-0.991051609462243	0.126409586715137
0.599	-0.990996464840602	0.126829114389694
0.601	-0.990941145473282	0.127248616368299
0.603	-0.990885651358332	0.127668092592374
0.605	-0.990829982493929	0.128087543003229
0.607	-0.990774138878373	0.128506967542067
0.609	-0.990718120510086	0.128926366149983
0.611	-0.990661927387611	0.129345738767964
0.613	-0.990605559509618	0.129765085336894
0.615	-0.990549016874895	0.130184405797554
0.617	-0.990492299482342	0.13060370009062
0.619	-0.990435407330984	0.131022968156668
0.621	-0.990378340419964	0.131442209936173
0.623	-0.990321098748533	0.131861425369513
0.625	-0.990263682316065	0.132280614396965
0.627	-0.990206091122041	0.132699776958713
0.629	-0.99014832516606	0.133118912994841
0.631	-0.990090384447831	0.133538022445343
0.633	-0.990032268967173	0.133957105250115
0.635	-0.989973978724014	0.134376161348964
0.637	-0.989915513718396	0.134795190681604
0.639	-0.989856873950462	0.135214193187659
0.641	-0.989798059420469	0.135633168806665
0.643	-0.989739070128775	0.136052117478066
0.645	-0.989679906075844	0.136471039141223
0.647	-0.989620567262251	0.136889933735408
0.649	-0.989561053688664	0.137308801199808
0.651	-0.989501365355864	0.137727641473527
0.653	-0.989441502264726	0.138146454495583
0.655	-0.989381464416231	0.138565240204913
0.657	-0.989321251811461	0.138983998540372
0.659	-0.989260864451594	0.139402729440735
0.661	-0.989200302337911	0.139821432844697
0.663	-0.989139565471784	0.140240108690872
0.665	-0.989078653854691	0.140658756917798
0.667	-0.989017567488204	0.141077377463935
0.669	-0.988956306373985	0.141495970267666
0.671	-0.988894870513798	0.1419145352673
0.673	-0.988833259909499	0.14233307240107
0.675	-0.988771474563036	0.142751581607134
0.677	-0.988709514476452	0.143170062823579
0.679	-0.988647379651883	0.14358851598842
0.681	-0.988585070091554	0.144006941039596
0.683	-0.988522585797782	0.14442533791498
0.685	-0.988459926772977	0.144843706552374
0.687	-0.988397093019632	0.145262046889507
0.689	-0.988334084540336	0.145680358864045
0.691	-0.988270901337764	0.146098642413582
0.693	-0.988207543414677	0.146516897475646
0.695	-0.988144010773922	0.146935123987699
0.697	-0.988080303418435	0.147353321887137
0.699	-0.988016421351241	0.147771491111291
0.701	-0.987952364575444	0.148189631597427
0.703	-0.987888133094233	0.148607743282748
0.705	-0.987823726910888	0.149025826104395
0.707	-0.987759146028766	0.149443879999444
0.709	-0.987694390451307	0.149861904904912
0.711	-0.987629460182037	0.150279900757753
0.713	-0.987564355224562	0.150697867494863
0.715	-0.987499075582569	0.151115805053074
0.717	-0.987433621259825	0.151533713369163
0.719	-0.987367992260178	0.151951592379846
0.721	-0.987302188587559	0.152369442021783
0.723	-0.987236210245973	0.152787262231574
0.725	-0.987170057239503	0.153205052945765
0.727	-0.987103729572317	0.153622814100844
0.729	-0.987037227248655	0.154040545633244
0.731	-0.986970550272839	0.154458247479344
0.733	-0.986903698649259	0.154875919575465
0.735	-0.986836672382385	0.155293561857878
0.737	-0.986769471476773	0.155711174262799
0.739	-0.986702095937039	0.156128756726392
0.741	-0.986634545767881	0.156546309184767
0.743	-0.986566820974075	0.156963831573983
0.745	-0.986498921560459	0.157381323830049
0.747	-0.986430847531958	0.157798785888921
0.749	-0.986362598893563	0.158216217686507
0.751	-0.986294175650338	0.158633619158665
0.753	-0.986225577807419	0.159050990241201
0.755	-0.986156805370015	0.159468330869876
0.757	-0.986087858343406	0.159885640980401
0.759	-0.986018736732942	0.160302920508439
0.761	-0.985949440544046	0.160720169389607
0.763	-0.985879969782206	0.161137387559473
0.765	-0.985810324452986	0.161554574953561
0.767	-0.985740504562015	0.161971731507348
0.769	-0.98567051011499	0.162388857156266
0.771	-0.985600341117682	0.162805951835702
0.773	-0.985529997575924	0.163223015480997
0.775	-0.98545947949562	0.163640048027451
0.777	-0.985388786882742	0.164057049410317
0.779	-0.985317919743326	0.164474019564807
0.781	-0.985246878083477	0.164890958426089
0.783	-0.985175661909365	0.165307865929291
0.785	-0.98510427122723	0.165724742009495
0.787	-0.985032706043368	0.166141586601745
0.789	-0.984960966364153	0.166558399641042
0.791	-0.984889052196012	0.166975181062347
0.793	-0.984816963545447	0.167391930800581
0.795	-0.984744700419015	0.167808648790624
0.797	-0.984672262823342	0.168225334967317
0.799	-0.984599650765117	0.168641989265462
0.801	-0.984526864251092	0.169058611619822
0.803	-0.984453903288081	0.169475201965122
0.805	-0.984380767882963	0.169891760236049
0.807	-0.984307458042675	0.170308286367251
0.809	-0.984233973774222	0.170724780293341
0.811	-0.984160315084662	0.171141241948892
0.813	-0.984086481981126	0.171557671268443
0.815	-0.984012474470794	0.171974068186496
0.817	-0.983938292560918	0.172390432637518
0.819	-0.983863936258801	0.172806764555938
0.821	-0.983789405571812	0.173223063876152
0.823	-0.983714700507376	0.173639330532521
0.825	-0.983639821072984	0.17405556445937
0.827	-0.983564767276177	0.174471765590991
0.829	-0.983489539124563	0.174887933861643
0.831	-0.983414136625808	0.17530406920555
0.833	-0.983338559787631	0.175720171556902
0.835	-0.983262808617815	0.176136240849858
0.837	-0.983186883124198	0.176552277018545
0.839	-0.983110783314676	0.176968279997055
0.841	-0.983034509197205	0.17738424971945
0.843	-0.982958060779797	0.17780018611976
0.845	-0.982881438070517	0.178216089131983
0.847	-0.982804641077491	0.178631958690087
0.849	-0.982727669808904	0.179047794728009
0.851	-0.982650524272989	0.179463597179654
0.853	-0.982573204478044	0.1798793659789
0.855	-0.982495710432414	0.180295101059591
0.857	-0.982418042144508	0.180710802355545
0.859	-0.982340199622787	0.181126469800549
0.861	-0.982262182875764	0.181542103328362
0.863	-0.982183991912008	0.181957702872711
0.865	-0.98210562674015	0.1823732683673
0.867	-0.982027087368864	0.182788799745801
0.869	-0.981948373806884	0.183204296941857
0.871	-0.981869486062999	0.183619759889087
0.873	-0.981790424146048	0.18403518852108
0.875	-0.981711188064929	0.184450582771398
0.877	-0.981631777828586	0.184865942573578
0.879	-0.981552193446023	0.185281267861127
0.881	-0.981472434926295	0.18569655856753
0.883	-0.981392502278505	0.186111814626242
0.885	-0.981312395511814	0.186527035970693
0.887	-0.981232114635433	0.186942222534288
0.889	-0.981151659658625	0.187357374250408
0.891	-0.981071030590706	0.187772491052405
0.893	-0.980990227441043	0.18818757287361
0.895	-0.980909250219053	0.188602619647327
0.897	-0.980828098934207	0.189017631306835
0.899	-0.980746773596026	0.189432607785392
0.901	-0.980665274214081	0.189847549016228
0.903	-0.980583600797995	0.190262454932552
0.905	-0.98050175335744	0.190677325467549
0.907	-0.98041973190214	0.191092160554379
0.909	-0.980337536441869	0.19150696012618
0.911	-0.98025516698645	0.191921724116069
0.913	-0.980172623545757	0.192336452457137
0.915	-0.980089906129713	0.192751145082454
0.917	-0.980007014748287	0.193165801925068
0.919	-0.979923949411506	0.193580422918005
0.921	-0.979840710129436	0.193995007994268
