# GHz S RI R 50
0.001	-0.999984640548999	0.000225588922630777
0.003	-0.999973224834905	0.000657316757254148
0.005	-0.999965123228135	0.00108554201273753
0.007	-0.999958286956304	0.00151231617676803
0.009	-0.999952120233018	0.00193823635572526
0.011	-0.99994635038898	0.00236357602808095
0.013	-0.999940825537712	0.00278848763172946
0.015	-0.999935450785621	0.00321306645966211
0.017	-0.99993016215338	0.00363737679195392
0.019	-0.999924914086512	0.00406146441547689
0.021	-0.999919672788902	0.00448536330905576
0.023	-0.999914412369585	0.00490909950891015
0.025	-0.999909112475066	0.00533269348471168
0.027	-0.999903756762	0.00575616167288265
0.029	-0.999898331872127	0.00617951750604131
0.031	-0.999892826721264	0.00660277212731386
0.033	-0.999887231992205	0.00702593489997816
0.035	-0.999881539764311	0.00744901377986198
0.037	-0.99987574323729	0.00787201559314142
0.039	-0.999869836521478	0.00829494624735577
0.041	-0.999863814476006	0.00871781089427562
0.043	-0.999857672582164	0.00914061405740917
0.045	-0.999851406843022	0.00956335973310286
0.047	-0.999845013702951	0.00998605147162887
0.049	-0.999838489982429	0.0104086924428997
0.051	-0.999831832824719	0.0108312854902291
0.053	-0.999825039651883	0.0112538331746953
0.055	-0.999818108128226	0.01167633781204
0.057	-0.999811036129649	0.0120988015035831
0.059	-0.999803821717842	0.0125212261622992
0.061	-0.999796463118369	0.01294361353495
0.063	-0.999788958701963	0.0133659652209789
0.065	-0.999781306968484	0.0137882826887283
0.067	-0.999773506533098	0.0142105672894302
0.069	-0.999765556114266	0.0146328202693306
0.071	-0.999757454523336	0.0150550427802471
0.073	-0.999749200655411	0.0154772358887965
0.075	-0.999740793481357	0.0158994005844942
0.077	-0.999732232040761	0.0163215377868889
0.079	-0.999723515435707	0.0167436483518689
0.081	-0.999714642825259	0.0171657330772558
0.083	-0.999705613420548	0.0175877927077807
0.085	-0.999696426480409	0.0180098279395246
0.087	-0.999687081307449	0.0184318394238922
0.089	-0.999677577244547	0.0188538277711771
0.091	-0.999667913671692	0.0192757935537689
0.093	-0.999658090003139	0.0196977373090459
0.095	-0.999648105684827	0.0201196595419886
0.097	-0.999637960192065	0.0205415607275484
0.099	-0.999627653027405	0.0209634413127969
0.101	-0.999617183718729	0.0213853017188823
0.103	-0.99960655181749	0.0218071423428112
0.105	-0.999595756897123	0.0222289635590767
0.107	-0.999584798551568	0.0226507657211476
0.109	-0.999573676393951	0.0230725491628331
0.111	-0.999562390055333	0.0234943141995351
0.113	-0.999550939183601	0.0239160611294005
0.115	-0.999539323442409	0.0243377902343814
0.117	-0.999527542510237	0.0247595017812133
0.119	-0.999515596079491	0.0251811960223185
0.121	-0.9995034838557	0.0256028731966416
0.123	-0.99949120555674	0.0260245335304229
0.125	-0.999478760912153	0.0264461772379161
0.127	-0.999466149662475	0.0268678045220541
0.129	-0.999453371558652	0.0272894155750685
0.131	-0.999440426361451	0.027711010579065
0.133	-0.999427313840959	0.0281325897065614
0.135	-0.999414033776082	0.0285541531209876
0.137	-0.99940058595409	0.0289757009771532
0.139	-0.99938697017019	0.0293972334216848
0.141	-0.999373186227133	0.0298187505934347
0.143	-0.999359233934829	0.0302402526238639
0.145	-0.99934511311001	0.0306617396374011
0.147	-0.999330823575887	0.0310832117517796
0.149	-0.999316365161861	0.0315046690783538
0.151	-0.999301737703209	0.0319261117223958
0.153	-0.999286941040837	0.0323475397833763
0.155	-0.999271975021006	0.0327689533552269
0.157	-0.999256839495095	0.033190352526589
0.159	-0.999241534319377	0.0336117373810476
0.161	-0.999226059354801	0.0340331079973517
0.163	-0.999210414466792	0.0344544644496238
0.165	-0.999194599525052	0.0348758068075564
0.167	-0.999178614403392	0.0352971351365983
0.169	-0.999162458979546	0.0357184494981319
0.171	-0.999146133135023	0.0361397499496393
0.173	-0.99912963675494	0.0365610365448614
0.175	-0.999112969727883	0.0369823093339476
0.177	-0.999096131945776	0.0374035683635989
0.179	-0.999079123303732	0.0378248136772026
0.181	-0.999061943699947	0.0382460453149611
0.183	-0.99904459303557	0.0386672633140143
0.185	-0.999027071214598	0.0390884677085554
0.187	-0.999009378143753	0.0395096585299414
0.189	-0.998991513732407	0.0399308358067994
0.191	-0.998973477892463	0.0403519995651257
0.193	-0.99895527053827	0.0407731498283821
0.195	-0.998936891586534	0.0411942866175869
0.197	-0.998918340956239	0.0416154099514021
0.199	-0.998899618568557	0.0420365198462158
0.201	-0.998880724346777	0.0424576163162227
0.203	-0.998861658216238	0.0428786993734987
0.205	-0.998842420104245	0.0432997690280741
0.207	-0.998823009940015	0.0437208252880026
0.209	-0.998803427654606	0.0441418681594276
0.211	-0.998783673180857	0.0445628976466458
0.213	-0.998763746453334	0.0449839137521678
0.215	-0.998743647408269	0.0454049164767767
0.217	-0.998723375983504	0.045825905819583
0.219	-0.998702932118447	0.046246881778079
0.221	-0.998682315754019	0.0466678443481902
0.223	-0.998661526832605	0.0470887935243236
0.225	-0.99864056529801	0.0475097292994157
0.227	-0.998619431095419	0.0479306516649778
0.229	-0.998598124171343	0.0483515606111393
0.231	-0.998576644473599	0.0487724561266899
0.233	-0.998554991951251	0.0491933381991196
0.235	-0.998533166554586	0.0496142068146578
0.237	-0.998511168235071	0.0500350619583102
0.239	-0.998488996945325	0.0504559036138948
0.241	-0.99846665263908	0.0508767317640763
0.243	-0.998444135271153	0.0512975463903996
0.245	-0.998421444797411	0.0517183474733214
0.247	-0.99839858117475	0.0521391349922413
0.249	-0.998375544361056	0.0525599089255316
0.251	-0.998352334315186	0.0529806692505655
0.253	-0.998328950996938	0.0534014159437456
0.255	-0.998305394367023	0.0538221489805294
0.257	-0.998281664387045	0.0542428683354559
0.259	-0.998257761019478	0.0546635739821703
0.261	-0.998233684227635	0.0550842658934475
0.263	-0.998209433975658	0.0555049440412158
0.265	-0.998185010228485	0.0559256083965789
0.267	-0.998160412951837	0.0563462589298377
0.269	-0.998135642112199	0.0567668956105113
0.271	-0.998110697676787	0.0571875184073566
0.273	-0.998085579613553	0.0576081272883886
0.275	-0.998060287891145	0.0580287222208986
0.277	-0.998034822478901	0.0584493031714733
0.279	-0.998009183346831	0.0588698701060115
0.281	-0.997983370465599	0.0592904229897419
0.283	-0.997957383806506	0.0597109617872394
0.285	-0.997931223341478	0.0601314864624414
0.287	-0.997904889043047	0.0605519969786627
0.289	-0.997878380884344	0.0609724932986117
0.291	-0.997851698839078	0.0613929753844037
0.293	-0.997824842881522	0.0618134431975761
0.295	-0.997797812986508	0.0622338966991013
0.297	-0.99777060912941	0.0626543358494009
0.299	-0.997743231286124	0.0630747606083576
0.301	-0.99771567943307	0.0634951709353283
0.303	-0.997687953547171	0.0639155667891564
0.305	-0.99766005360585	0.0643359481281832
0.307	-0.997631979587003	0.0647563149102593
0.309	-0.99760373146901	0.0651766670927563
0.311	-0.997575309230708	0.0655970046325765
0.313	-0.997546712851389	0.0660173274861647
0.315	-0.997517942310789	0.0664376356095175
0.317	-0.99748899758908	0.0668579289581934
0.319	-0.997459878666858	0.0672782074873226
0.321	-0.997430585525131	0.0676984711516156
0.323	-0.997401118145319	0.0681187199053736
0.325	-0.997371476509242	0.0685389537024962
0.327	-0.997341660599112	0.0689591724964903
0.329	-0.99731167039752	0.0693793762404789
0.331	-0.99728150588744	0.0697995648872087
0.333	-0.997251167052205	0.0702197383890579
0.335	-0.997220653875518	0.0706398966980443
0.337	-0.997189966341433	0.0710600397658331
0.339	-0.997159104434347	0.0714801675437431
0.341	-0.997128068139004	0.071900279982755
0.343	-0.997096857440482	0.0723203770335173
0.345	-0.997065472324178	0.0727404586463539
0.347	-0.997033912775823	0.0731605247712701
0.349	-0.997002178781454	0.0735805753579591
0.351	-0.996970270327423	0.0740006103558084
0.353	-0.996938187400381	0.0744206297139058
0.355	-0.996905929987286	0.0748406333810454
0.357	-0.996873498075379	0.0752606213057324
0.359	-0.996840891652196	0.0756805934361911
0.361	-0.996808110705554	0.0761005497203676
0.363	-0.996775155223546	0.076520490105937
0.365	-0.99674202519454	0.0769404145403076
0.367	-0.99670872060717	0.0773603229706269
0.369	-0.996675241450334	0.0777802153437858
0.371	-0.99664158771319	0.0782000916064239
0.373	-0.99660775938515	0.078619951704934
0.375	-0.996573756455874	0.0790397955854667
0.377	-0.996539578915273	0.0794596231939351
0.379	-0.996505226753492	0.079879434476019
0.381	-0.996470699960925	0.0802992293771696
0.383	-0.996435998528186	0.0807190078426129
0.385	-0.996401122446133	0.0811387698173548
0.387	-0.996366071705838	0.0815585152461841
0.389	-0.996330846298605	0.0819782440736773
0.391	-0.996295446215953	0.082397956244202
0.393	-0.996259871449617	0.0828176517019204
0.395	-0.996224121991545	0.0832373303907936
0.397	-0.99618819783389	0.0836569922545842
0.399	-0.99615209896902	0.0840766372368612
0.401	-0.996115825389496	0.0844962652810018
0.403	-0.996079377088085	0.0849158763301962
0.405	-0.996042754057744	0.0853354703274496
0.407	-0.99600595629163	0.0857550472155864
0.409	-0.995968983783086	0.0861746069372527
0.411	-0.995931836525645	0.0865941494349195
0.413	-0.995894514513027	0.0870136746508862
0.415	-0.995857017739127	0.0874331825272824
0.417	-0.995819346198026	0.0878526730060715
0.419	-0.995781499883983	0.0882721460290541
0.421	-0.995743478791426	0.0886916015378695
0.423	-0.99570528291496	0.0891110394739987
0.425	-0.995666912249354	0.0895304597787678
0.427	-0.99562836678955	0.0899498623933499
0.429	-0.995589646530653	0.0903692472587675
0.431	-0.995550751467929	0.0907886143158955
0.433	-0.995511681596806	0.0912079635054632
0.435	-0.995472436912871	0.0916272947680567
0.437	-0.995433017411863	0.0920466080441214
0.439	-0.995393423089683	0.0924659032739645
0.441	-0.995353653942373	0.092885180397756
0.443	-0.995313709966135	0.0933044393555329
0.445	-0.995273591157313	0.0937236800871992
0.447	-0.995233297512398	0.0941429025325296
0.449	-0.99519282902803	0.0945621066311709
0.451	-0.995152185700982	0.0949812923226436
0.453	-0.995111367528176	0.0954004595463452
0.455	-0.995070374506668	0.0958196082415502
0.457	-0.995029206633653	0.0962387383474138
0.459	-0.994987863906465	0.096657849802973
0.461	-0.994946346322562	0.0970769425471479
0.463	-0.99490465387954	0.0974960165187443
0.465	-0.994862786575129	0.0979150716564554
0.467	-0.994820744407179	0.0983341078988629
0.469	-0.994778527373677	0.0987531251844393
0.471	-0.994736135472726	0.0991721234515493
0.473	-0.994693568702562	0.0995911026384514
0.475	-0.994650827061537	0.100010062683299
0.477	-0.994607910548128	0.100429003524144
0.479	-0.994564819160932	0.100847925098935
0.481	-0.994521552898665	0.101266827345522
0.483	-0.994478111760157	0.101685710201656
0.485	-0.994434495744358	0.102104573604991
0.487	-0.994390704850329	0.102523417493085
0.489	-0.994346739077249	0.102942241803402
0.491	-0.994302598424403	0.103361046473313
0.493	-0.994258282891194	0.103779831440099
0.495	-0.994213792477127	0.104198596640949
0.497	-0.994169127181823	0.104617342012964
0.499	-0.994124287005006	0.105036067493156
0.501	-0.994079271946506	0.105454773018453
0.503	-0.994034082006261	0.105873458525696
0.505	-0.99398871718431	0.106292123951643
0.507	-0.993943177480795	0.106710769232969
0.509	-0.993897462895964	0.107129394306268
0.511	-0.993851573430162	0.107547999108053
0.513	-0.993805509083835	0.107966583574757
0.515	-0.993759269857525	0.108385147642736
0.517	-0.993712855751879	0.108803691248269
0.519	-0.99366626676763	0.109222214327558
0.521	-0.99361950290562	0.109640716816731
0.523	-0.993572564166773	0.110059198651841
0.525	-0.993525450552118	0.110477659768871
0.527	-0.993478162062769	0.110896100103727
0.529	-0.993430698699938	0.111314519592249
0.531	-0.993383060464925	0.111732918170204
0.533	-0.99333524735912	0.112151295773291
0.535	-0.993287259384008	0.112569652337143
0.537	-0.993239096541155	0.112987987797321
0.539	-0.993190758832224	0.113406302089324
0.541	-0.993142246258954	0.113824595148584
0.543	-0.993093558823182	0.114242866910469
0.545	-0.993044696526824	0.114661117310283
0.547	-0.992995659371883	0.115079346283267
0.549	-0.992946447360444	0.115497553764601
0.551	-0.992897060494679	0.115915739689404
0.553	-0.992847498776839	0.116333903992732
0.555	-0.99279776220926	0.116752046609585
0.557	-0.99274785079436	0.117170167474902
0.559	-0.992697764534632	0.117588266523566
0.561	-0.992647503432656	0.1180063436904
0.563	-0.992597067491086	0.118424398910173
0.565	-0.992546456712658	0.118842432117598
0.567	-0.992495671100185	0.119260443247331
0.569	-0.992444710656555	0.119678432233977
0.571	-0.992393575384735	0.120096399012083
0.573	-0.992342265287771	0.120514343516148
0.575	-0.992290780368778	0.120932265680615
0.577	-0.992239120630951	0.121350165439877
0.579	-0.992187286077559	0.121768042728276
0.581	-0.992135276711937	0.122185897480104
0.583	-0.992083092537507	0.122603729629603
0.585	-0.992030733557753	0.123021539110965
0.587	-0.991978199776234	0.123439325858336
0.589	-0.99192549119658	0.123857089805813
0.591	-0.991872607822495	0.124274830887445
0.593	-0.991819549657748	0.124692549037234
0.595	-0.991766316706186	0.12511024418914
0.597	-0.991712908971717	0.125527916277073
0.599	-0.991659326458322	0.125945565234901
0.601	-0.99160556917005	0.126363190996445
0.603	-0.991551637111019	0.126780793495486
0.605	-0.991497530285414	0.127198372665758
0.607	-0.991443248697486	0.127615928440955
0.609	-0.99138879235155	0.128033460754728
0.611	-0.991334161251994	0.128450969540685
0.613	-0.991279355403267	0.128868454732397
0.615	-0.991224374809883	0.129285916263389
0.617	-0.991169219476424	0.129703354067149
0.619	-0.991113889407529	0.130120768077126
0.621	-0.991058384607913	0.130538158226728
0.623	-0.991002705082343	0.130955524449326
0.625	-0.990946850835654	0.13137286667825
0.627	-0.990890821872743	0.131790184846796
0.629	-0.990834618198572	0.13220747888822
0.631	-0.990778239818161	0.132624748735743
0.633	-0.990721686736593	0.133041994322548
0.635	-0.990664958959011	0.133459215581782
0.637	-0.990608056490621	0.13387641244656
0.639	-0.990550979336688	0.134293584849957
0.641	-0.990493727502536	0.134710732725015
0.643	-0.990436300993552	0.135127856004745
0.645	-0.990378699815177	0.135544954622119
0.647	-0.990320923972917	0.135962028510079
0.649	-0.990262973472332	0.136379077601534
0.651	-0.990204848319042	0.136796101829357
0.653	-0.990146548518723	0.137213101126393
0.655	-0.990088074077113	0.137630075425453
0.657	-0.990029425000003	0.138047024659316
0.659	-0.989970601293241	0.138463948760731
0.661	-0.989911602962737	0.138880847662417
0.663	-0.98985243001445	0.139297721297059
0.665	-0.989793082454398	0.139714569597317
0.667	-0.989733560288655	0.140131392495817
0.669	-0.989673863523353	0.140548189925157
0.671	-0.989613992164673	0.140964961817908
0.673	-0.989553946218855	0.14138170810661
0.675	-0.989493725692194	0.141798428723776
0.677	-0.989433330591036	0.142215123601889
0.679	-0.989372760921785	0.142631792673407
0.681	-0.989312016690893	0.14304843587076
0.683	-0.989251097904869	0.143465053126348
0.685	-0.989190004570278	0.143881644372549
0.687	-0.989128736693733	0.144298209541711
0.689	-0.9890672942819	0.144714748566158
0.691	-0.9890056773415	0.145131261378186
0.693	-0.988943885879303	0.145547747910069
0.695	-0.988881919902132	0.145964208094052
0.697	-0.988819779416867	0.146380641862358
0.699	-0.988757464430427	0.146797049147184
0.701	-0.988694974949794	0.147213429880702
0.703	-0.988632310981994	0.147629783995061
0.705	-0.988569472534106	0.148046111422386
0.707	-0.988506459613261	0.14846241209478
0.709	-0.988443272226634	0.148878685944319
0.711	-0.988379910381456	0.14929493290306
0.713	-0.988316374085006	0.149711152903035
0.715	-0.988252663344614	0.150127345876254
0.717	-0.988188778167654	0.150543511754706
0.719	-0.988124718561553	0.150959650470355
0.721	-0.988060484533788	0.151375761955147
0.723	-0.98799607609188	0.151791846141005
0.725	-0.987931493243401	0.15220790295983
0.727	-0.987866735995974	0.152623932343503
0.729	-0.987801804357266	0.153039934223885
0.731	-0.987736698334992	0.153455908532814
0.733	-0.987671417936917	0.153871855202111
0.735	-0.987605963170851	0.154287774163575
0.737	-0.987540334044651	0.154703665348985
0.739	-0.987474530566225	0.155119528690103
0.741	-0.987408552743521	0.155535364118667
0.743	-0.987342400584539	0.1559511715664
0.745	-0.987276074097327	0.156366950965006
0.747	-0.987209573289973	0.156782702246167
0.749	-0.987142898170614	0.157198425341551
0.751	-0.987076048747434	0.157614120182803
0.753	-0.987009025028661	0.158029786701555
0.755	-0.986941827022571	0.158445424829417
0.757	-0.98687445473748	0.158861034497983
0.759	-0.986806908181758	0.15927661563883
0.761	-0.986739187363812	0.159692168183518
0.763	-0.986671292292097	0.160107692063588
0.765	-0.986603222975113	0.160523187210565
0.767	-0.986534979421402	0.16093865355596
0.769	-0.986466561639556	0.161354091031265
0.771	-0.986397969638207	0.161769499567955
0.773	-0.986329203426028	0.16218487909749
0.775	-0.986260263011746	0.162600229551316
0.777	-0.986191148404118	0.163015550860859
0.779	-0.986121859611959	0.163430842957535
0.781	-0.986052396644116	0.163846105772739
0.783	-0.985982759509486	0.164261339237855
0.785	-0.985912948217006	0.164676543284249
0.787	-0.985842962775657	0.165091717843276
0.789	-0.985772803194465	0.165506862846272
0.791	-0.985702469482496	0.165921978224562
0.793	-0.985631961648857	0.166337063909453
0.795	-0.985561279702702	0.166752119832243
0.797	-0.985490423653225	0.167167145924211
0.799	-0.985419393509663	0.167582142116625
0.801	-0.985348189281292	0.167997108340739
0.803	-0.985276810977437	0.168412044527792
0.805	-0.985205258607454	0.168826950609012
0.807	-0.985133532180754	0.169241826515613
0.809	-0.985061631706776	0.169656672178793
0.811	-0.984989557195014	0.170071487529743
0.813	-0.98491730865499	0.170486272499636
0.815	-0.984844886096277	0.170901027019634
0.817	-0.984772289528484	0.171315751020888
0.819	-0.984699518961265	0.171730444434536
0.821	-0.984626574404308	0.172145107191702
0.823	-0.98455345586735	0.172559739223501
0.825	-0.984480163360164	0.172974340461034
0.827	-0.984406696892565	0.173388910835391
0.829	-0.984333056474406	0.173803450277651
0.831	-0.984259242115582	0.174217958718879
0.833	-0.98418525382603	0.174632436090133
0.835	-0.984111091615723	0.175046882322456
0.837	-0.984036755494677	0.175461297346881
0.839	-0.983962245472949	0.175875681094432
0.841	-0.983887561560631	0.17629003349612
0.843	-0.983812703767858	0.176704354482946
0.845	-0.983737672104804	0.177118643985901
0.847	-0.983662466581683	0.177532901935965
0.849	-0.983587087208747	0.177947128264107
0.851	-0.983511533996286	0.178361322901288
0.853	-0.983435806954635	0.178775485778458
0.855	-0.983359906094162	0.179189616826555
0.857	-0.983283831425275	0.179603715976511
0.859	-0.983207582958424	0.180017783159246
0.861	-0.983131160704094	0.18043181830567
0.863	-0.98305456467281	0.180845821346686
0.865	-0.982977794875137	0.181259792213185
0.867	-0.982900851321677	0.181673730836051
0.869	-0.98282373402307	0.182087637146157
0.871	-0.982746442989995	0.182501511074368
0.873	-0.98266897823317	0.182915352551541
0.875	-0.982591339763351	0.183329161508524
0.877	-0.982513527591327	0.183742937876153
0.879	-0.982435541727934	0.184156681585261
0.881	-0.982357382184039	0.184570392566669
0.883	-0.982279048970549	0.184984070751191
0.885	-0.982200542098408	0.185397716069631
0.887	-0.982121861578598	0.185811328452788
0.889	-0.982043007422142	0.186224907831451
0.891	-0.981963979640091	0.1866384541364
0.893	-0.981884778243544	0.18705196729841
0.895	-0.98180540324363	0.187465447248246
0.897	-0.981725854651523	0.187878893916668
0.899	-0.981646132478423	0.188292307234425
0.901	-0.981566236735577	0.188705687132263
0.903	-0.981486167434261	0.189119033540916
0.905	-0.981405924585796	0.189532346391113
0.907	-0.981325508201533	0.189945625613578
0.909	-0.981244918292867	0.190358871139025
0.911	-0.98116415487122	0.190772082898162
0.913	-0.981083217948059	0.19118526082169
0.915	-0.981002107534882	0.191598404840304
0.917	-0.980920823643229	0.192011514884692
0.919	-0.980839366284671	0.192424590885536
