# GHz S RI R 50
0.001	-0.999968296375278	0.000484031596654452
0.003	-0.999944294311727	0.00141201230789786
0.005	-0.999926650808733	0.00233276337809485
0.007	-0.999911148902219	0.0032505133978374
0.009	-0.9998965629952	0.00416649340603445
0.011	-0.999882332476214	0.00508126719235102
0.013	-0.999868145229095	0.00599514890910424
0.015	-0.999853806357108	0.00690833481588015
0.017	-0.99983918452682	0.00782095717221529
0.019	-0.999824186277107	0.00873311006289041
0.021	-0.999808742309044	0.00964486319079534
0.023	-0.999792799563214	0.0105562698538118
0.025	-0.999776316352525	0.0114673718491613
0.027	-0.999759259223192	0.0123782026388952
0.029	-0.999741600848456	0.0132887894756186
0.031	-0.999723318567909	0.0141991548777901
0.033	-0.999704393345963	0.0151093176825266
0.035	-0.99968480901123	0.0160192938150475
0.037	-0.999664551689434	0.0169290968627735
0.039	-0.999643609372945	0.0178387385115001
0.041	-0.999621971588675	0.0187482288821164
0.043	-0.999599629138265	0.0196575767942702
0.045	-0.999576573892181	0.0205667899754712
0.047	-0.999552798624668	0.0214758752288353
0.049	-0.999528296880075	0.0223848385690546
0.051	-0.999503062863557	0.0232936853336559
0.053	-0.999477091350931	0.0242024202748294
0.055	-0.999450377613748	0.025111047635821
0.057	-0.99942291735655	0.0260195712149497
0.059	-0.999394706663984	0.0269279944196156
0.061	-0.999365741955932	0.0278363203121486
0.063	-0.99933601994923	0.0287445516489574
0.065	-0.99930553762483	0.0296526909141378
0.067	-0.999274292199501	0.0305607403484718
0.069	-0.999242281101285	0.0314687019745655
0.071	-0.999209501948184	0.0323765776187393
0.073	-0.999175952529501	0.0332843689301672
0.075	-0.999141630789493	0.0341920773976783
0.077	-0.999106534812976	0.0350997043645594
0.079	-0.999070662812609	0.0360072510416428
0.081	-0.999034013117624	0.0369147185189165
0.083	-0.998996584163791	0.0378221077758548
0.085	-0.998958374484491	0.0387294196906389
0.087	-0.99891938270272	0.0396366550484097
0.089	-0.998879607523912	0.0405438145486735
0.091	-0.998839047729509	0.0414508988119665
0.093	-0.998797702171138	0.0423579083858641
0.095	-0.998755569765371	0.0432648437504147
0.097	-0.998712649488976	0.0441717053230631
0.099	-0.9986689403746	0.0450784934631205
0.101	-0.998624441506863	0.0459852084758319
0.103	-0.998579152018776	0.0468918506160836
0.105	-0.998533071088491	0.0477984200917906
0.107	-0.998486197936316	0.0487049170669945
0.109	-0.998438531822001	0.0496113416647049
0.111	-0.998390072042217	0.0505176939695065
0.113	-0.99834081792827	0.0514239740299574
0.115	-0.998290768843979	0.0523301818607986
0.117	-0.998239924183729	0.0532363174449905
0.119	-0.998188283370666	0.0541423807355957
0.121	-0.99813584585504	0.0550483716575195
0.123	-0.998082611112654	0.0559542901091227
0.125	-0.998028578643451	0.0568601359637172
0.127	-0.997973747970175	0.0577659090709547
0.129	-0.997918118637158	0.0586716092581184
0.131	-0.997861690209153	0.0595772363313243
0.133	-0.997804462270288	0.0604827900766419
0.135	-0.997746434423068	0.0613882702611392
0.137	-0.99768760628744	0.0622936766338586
0.139	-0.99762797749994	0.0631990089267291
0.141	-0.99756754771287	0.0641042668554205
0.143	-0.997506316593552	0.0650094501201433
0.145	-0.99744428382361	0.0659145584063984
0.147	-0.997381449098304	0.0668195913856813
0.149	-0.997317812125918	0.0677245487161433
0.151	-0.997253372627153	0.0686294300432129
0.153	-0.997188130334591	0.0695342350001807
0.155	-0.997122084992167	0.0704389632087506
0.157	-0.997055236354687	0.0713436142795588
0.159	-0.996987584187355	0.0722481878126635
0.161	-0.996919128265356	0.0731526833980068
0.163	-0.996849868373431	0.0740571006158524
0.165	-0.996779804305493	0.0749614390371969
0.167	-0.996708935864268	0.0758656982241619
0.169	-0.996637262860934	0.0767698777303622
0.171	-0.996564785114814	0.0776739771012576
0.173	-0.996491502453039	0.0785779958744829
0.175	-0.996417414710277	0.0794819335801644
0.177	-0.996342521728443	0.0803857897412186
0.179	-0.996266823356436	0.081289563873635
0.181	-0.996190319449884	0.0821932554867466
0.183	-0.996113009870909	0.0830968640834861
0.185	-0.996034894487909	0.0840003891606304
0.187	-0.995955973175317	0.0849038302090317
0.189	-0.995876245813418	0.0858071867138397
0.191	-0.995795712288149	0.0867104581547118
0.193	-0.995714372490904	0.0876136440060147
0.195	-0.995632226318367	0.0885167437370155
0.197	-0.995549273672334	0.0894197568120647
0.199	-0.995465514459555	0.0903226826907712
0.201	-0.995380948591579	0.091225520828169
0.203	-0.995295575984614	0.0921282706748772
0.205	-0.995209396559371	0.0930309316772513
0.207	-0.995122410240943	0.0939335032775307
0.209	-0.995034616958669	0.0948359849139771
0.211	-0.994946016646012	0.0957383760210089
0.213	-0.99485660924045	0.0966406760293296
0.215	-0.99476639468335	0.0975428843660497
0.217	-0.994675372919864	0.0984450004548047
0.219	-0.994583543898829	0.0993470237158681
0.221	-0.994490907572671	0.10024895356626
0.223	-0.994397463897301	0.101150789419852
0.225	-0.994303212832027	0.102052530687463
0.227	-0.994208154339472	0.10295417677696
0.229	-0.994112288385475	0.103855727093348
0.231	-0.994015614939034	0.104757181038858
0.233	-0.993918133972204	0.105658538013034
0.235	-0.993819845460038	0.106559797412813
0.237	-0.993720749380509	0.107460958632606
0.239	-0.993620845714445	0.108362021064371
0.241	-0.99352013444546	0.10926298409769
0.243	-0.993418615559887	0.110163847119836
0.245	-0.993316289046723	0.111064609515841
0.247	-0.993213154897566	0.111965270668566
0.249	-0.993109213106562	0.112865829958757
0.251	-0.993004463670343	0.113766286765111
0.253	-0.992898906587979	0.114666640464335
0.255	-0.992792541860929	0.115566890431197
0.257	-0.992685369492986	0.116467036038589
0.259	-0.992577389490234	0.117367076657572
0.261	-0.992468601860996	0.118267011657431
0.263	-0.992359006615805	0.119166840405725
0.265	-0.992248603767341	0.120066562268333
0.267	-0.992137393330405	0.120966176609499
0.269	-0.99202537532187	0.121865682791879
0.271	-0.991912549760649	0.122765080176584
0.273	-0.991798916667656	0.123664368123219
0.275	-0.991684476065764	0.124563545989925
0.277	-0.991569227979784	0.125462613133421
0.279	-0.991453172436416	0.126361568909035
0.281	-0.991336309464226	0.127260412670747
0.283	-0.991218639093612	0.128159143771222
0.285	-0.991100161356773	0.129057761561844
0.287	-0.990980876287679	0.129956265392748
0.289	-0.990860783922045	0.130854654612858
0.291	-0.990739884297302	0.131752928569911
0.293	-0.99061817745257	0.132651086610493
0.295	-0.990495663428629	0.133549128080063
0.297	-0.990372342267904	0.13444705232299
0.299	-0.990248214014423	0.135344858682572
0.301	-0.990123278713816	0.136242546501067
0.303	-0.989997536413268	0.137140115119719
0.305	-0.989870987161522	0.138037563878784
0.307	-0.98974363100883	0.138934892117554
0.309	-0.989615468006956	0.139832099174379
0.311	-0.989486498209143	0.140729184386694
0.313	-0.989356721670096	0.14162614709104
0.315	-0.989226138445963	0.142522986623085
0.317	-0.989094748594318	0.143419702317646
0.319	-0.98896255217414	0.144316293508712
0.321	-0.988829549245795	0.145212759529461
0.323	-0.988695739871024	0.146109099712281
0.325	-0.988561124112922	0.147005313388791
0.327	-0.988425702035923	0.147901399889855
0.329	-0.988289473705785	0.148797358545608
0.331	-0.988152439189574	0.149693188685464
0.333	-0.988014598555647	0.150588889638142
0.335	-0.987875951873645	0.151484460731677
0.337	-0.987736499214468	0.15237990129344
0.339	-0.987596240650274	0.15327521065015
0.341	-0.987455176254453	0.154170388127894
0.343	-0.987313306101623	0.15506543305214
0.345	-0.987170630267615	0.155960344747751
0.347	-0.987027148829459	0.156855122539
0.349	-0.986882861865375	0.157749765749587
0.351	-0.986737769454757	0.158644273702646
0.353	-0.986591871678167	0.159538645720765
0.355	-0.986445168617324	0.160432881125998
0.357	-0.986297660355081	0.161326979239871
0.359	-0.986149346975438	0.162220939383406
0.361	-0.986000228563504	0.163114760877121
0.363	-0.985850305205514	0.164008443041054
0.365	-0.985699576988797	0.164901985194761
0.367	-0.98554804400178	0.165795386657341
0.369	-0.985395706333973	0.166688646747436
0.371	-0.985242564075964	0.167581764783249
0.373	-0.985088617319409	0.168474740082552
0.375	-0.984933866157017	0.169367571962694
0.377	-0.98477831068255	0.170260259740616
0.379	-0.984621950990815	0.171152802732856
0.381	-0.98446478717765	0.172045200255563
0.383	-0.984306819339917	0.172937451624501
0.385	-0.984148047575501	0.173829556155066
0.387	-0.983988471983294	0.174721513162285
0.389	-0.983828092663196	0.175613321960836
0.391	-0.983666909716103	0.176504981865046
0.393	-0.983504923243899	0.177396492188907
0.395	-0.983342133349451	0.178287852246081
0.397	-0.983178540136605	0.179179061349909
0.399	-0.983014143710179	0.180070118813419
0.401	-0.982848944175949	0.180961023949331
0.403	-0.982682941640653	0.18185177607007
0.405	-0.982516136211978	0.182742374487768
0.407	-0.982348527998563	0.183632818514276
0.409	-0.982180117109981	0.184523107461166
0.411	-0.982010903656737	0.185413240639744
0.413	-0.981840887750278	0.186303217361051
0.415	-0.98167006950296	0.187193036935875
0.417	-0.981498449028065	0.188082698674751
0.419	-0.981326026439789	0.188972201887977
0.421	-0.981152801853232	0.189861545885609
0.423	-0.980978775384401	0.190750729977478
0.425	-0.980803947150198	0.191639753473187
0.427	-0.980628317268424	0.192528615682124
0.429	-0.98045188585776	0.193417315913463
0.431	-0.980274653037785	0.194305853476174
0.433	-0.980096618928947	0.195194227679023
0.435	-0.979917783652574	0.196082437830583
0.437	-0.979738147330865	0.196970483239237
0.439	-0.979557710086889	0.197858363213185
0.441	-0.979376472044573	0.198746077060444
0.443	-0.979194433328709	0.19963362408886
0.445	-0.979011594064942	0.200521003606111
0.447	-0.978827954379767	0.201408214919707
0.449	-0.978643514400531	0.202295257337003
0.451	-0.97845827425542	0.203182130165196
0.453	-0.978272234073467	0.204068832711338
0.455	-0.978085393984536	0.204955364282331
0.457	-0.977897754119329	0.205841724184939
0.459	-0.977709314609375	0.20672791172579
0.461	-0.977520075587034	0.20761392621138
0.463	-0.977330037185482	0.208499766948077
0.465	-0.977139199538728	0.209385433242128
0.467	-0.976947562781583	0.210270924399658
0.469	-0.976755127049684	0.21115623972668
0.471	-0.976561892479475	0.212041378529095
0.473	-0.976367859208209	0.212926340112697
0.475	-0.976173027373941	0.213811123783176
0.477	-0.975977397115533	0.214695728846125
0.479	-0.975780968572642	0.21558015460704
0.481	-0.975583741885731	0.216464400371328
0.483	-0.975385717196044	0.217348465444304
0.485	-0.975186894645627	0.218232349131201
0.487	-0.974987274377308	0.219116050737171
0.489	-0.974786856534708	0.219999569567289
0.491	-0.974585641262227	0.220882904926556
0.493	-0.974383628705048	0.2217660561199
0.495	-0.974180819009132	0.222649022452186
0.497	-0.973977212321217	0.223531803228211
0.499	-0.97377280878882	0.224414397752714
0.501	-0.97356760856022	0.225296805330375
0.503	-0.973361611784476	0.226179025265821
0.505	-0.973154818611405	0.227061056863626
0.507	-0.972947229191598	0.227942899428317
0.509	-0.972738843676404	0.228824552264375
0.511	-0.972529662217935	0.229706014676238
0.513	-0.972319684969063	0.230587285968307
0.515	-0.972108912083411	0.231468365444943
0.517	-0.971897343715366	0.232349252410477
0.519	-0.97168498002006	0.233229946169205
0.521	-0.971471821153382	0.234110446025399
0.523	-0.971257867271966	0.234990751283302
0.525	-0.971043118533197	0.235870861247137
0.527	-0.970827575095201	0.236750775221104
0.529	-0.970611237116854	0.237630492509388
0.531	-0.970394104757768	0.238510012416157
0.533	-0.970176178178296	0.239389334245568
0.535	-0.969957457539533	0.240268457301768
0.537	-0.969737943003308	0.241147380888895
0.539	-0.969517634732186	0.242026104311083
0.541	-0.969296532889463	0.242904626872462
0.543	-0.969074637639172	0.243782947877165
0.545	-0.968851949146073	0.244661066629324
0.547	-0.968628467575653	0.245538982433077
0.549	-0.96840419309413	0.246416694592566
0.551	-0.968179125868445	0.247294202411945
0.553	-0.967953266066263	0.248171505195378
0.555	-0.967726613855974	0.249048602247042
0.557	-0.967499169406688	0.24992549287113
0.559	-0.967270932888232	0.250802176371851
0.561	-0.967041904471158	0.251678652053437
0.563	-0.966812084326728	0.252554919220138
0.565	-0.966581472626928	0.253430977176231
0.567	-0.966350069544446	0.254306825226017
0.569	-0.966117875252696	0.255182462673826
0.571	-0.965884889925795	0.256057888824018
0.573	-0.965651113738575	0.256933102980985
0.575	-0.965416546866576	0.257808104449151
0.577	-0.965181189486043	0.258682892532978
0.579	-0.964945041773934	0.259557466536966
0.581	-0.964708103907905	0.260431825765652
0.583	-0.964470376066323	0.261305969523618
0.585	-0.964231858428256	0.262179897115486
0.587	-0.963992551173471	0.263053607845925
0.589	-0.963752454482438	0.263927101019651
0.591	-0.963511568536328	0.264800375941428
0.593	-0.963269893517009	0.26567343191607
0.595	-0.963027429607049	0.266546268248447
0.597	-0.962784176989709	0.267418884243476
0.599	-0.962540135848946	0.268291279206137
0.601	-0.962295306369414	0.269163452441462
0.603	-0.962049688736456	0.270035403254546
0.605	-0.961803283136113	0.270907130950541
0.607	-0.961556089755114	0.271778634834665
0.609	-0.961308108780874	0.272649914212197
0.611	-0.961059340401505	0.273520968388484
0.613	-0.960809784805804	0.274391796668938
0.615	-0.960559442183253	0.27526239835904
0.617	-0.960308312724027	0.276132772764345
0.619	-0.960056396618977	0.277002919190474
0.621	-0.959803694059648	0.277872836943126
0.623	-0.959550205238261	0.278742525328073
0.625	-0.959295930347727	0.279611983651163
0.627	-0.959040869581631	0.280481211218324
0.629	-0.958785023134246	0.281350207335561
0.631	-0.958528391200521	0.282218971308961
0.633	-0.958270973976086	0.283087502444694
0.635	-0.958012771657249	0.283955800049013
0.637	-0.957753784440995	0.284823863428254
0.639	-0.957494012524987	0.285691691888844
0.641	-0.957233456107563	0.286559284737294
0.643	-0.956972115387737	0.287426641280207
0.645	-0.956709990565194	0.288293760824276
0.647	-0.956447081840302	0.289160642676285
0.649	-0.956183389414088	0.290027286143111
0.651	-0.955918913488263	0.290893690531729
0.653	-0.955653654265203	0.291759855149208
0.655	-0.955387611947957	0.292625779302714
0.657	-0.955120786740242	0.293491462299512
0.659	-0.954853178846447	0.294356903446966
0.661	-0.954584788471626	0.295222102052545
0.663	-0.954315615821503	0.296087057423817
0.665	-0.954045661102467	0.296951768868454
0.667	-0.953774924521576	0.297816235694235
0.669	-0.953503406286552	0.298680457209045
0.671	-0.953231106605778	0.299544432720874
0.673	-0.952958025688309	0.300408161537824
0.675	-0.952684163743862	0.301271642968106
0.677	-0.952409520982808	0.302134876320041
0.679	-0.95213409761619	0.302997860902063
0.681	-0.95185789385571	0.303860596022721
0.683	-0.951580909913728	0.304723080990676
0.685	-0.951303146003269	0.305585315114708
0.687	-0.951024602338011	0.306447297703713
0.689	-0.9507452791323	0.307309028066703
0.691	-0.950465176601133	0.308170505512814
0.693	-0.950184294960166	0.309031729351297
0.695	-0.949902634425717	0.309892698891529
0.697	-0.949620195214757	0.310753413443008
0.699	-0.949336977544909	0.311613872315356
0.701	-0.949052981634462	0.312474074818321
0.703	-0.948768207702349	0.313334020261776
0.705	-0.948482655968162	0.31419370795572
0.707	-0.94819632665215	0.315053137210284
0.709	-0.947909219975208	0.315912307335724
0.711	-0.947621336158891	0.316771217642429
0.713	-0.9473326754254	0.31762986744092
0.715	-0.947043237997592	0.318488256041848
0.717	-0.946753024098971	0.319346382756
0.719	-0.946462033953694	0.320204246894296
0.721	-0.946170267786567	0.321061847767793
0.723	-0.945877725823048	0.321919184687684
0.725	-0.94558440828924	0.322776256965299
0.727	-0.945290315411894	0.323633063912107
0.729	-0.944995447418413	0.324489604839718
0.731	-0.944699804536846	0.325345879059882
0.733	-0.944403386995888	0.32620188588449
0.735	-0.944106195024876	0.327057624625576
0.737	-0.943808228853801	0.327913094595319
0.739	-0.943509488713295	0.328768295106041
0.741	-0.943209974834635	0.329623225470211
0.743	-0.94290968744974	0.330477885000442
0.745	-0.942608626791178	0.331332273009498
0.747	-0.942306793092159	0.33218638881029
0.749	-0.942004186586532	0.333040231715879
0.751	-0.941700807508793	0.333893801039475
0.753	-0.941396656094079	0.334747096094442
0.755	-0.941091732578166	0.335600116194293
0.757	-0.940786037197471	0.336452860652696
0.759	-0.940479570189059	0.337305328783474
0.761	-0.940172331790626	0.338157519900605
0.763	-0.939864322240513	0.33900943331822
0.765	-0.939555541777698	0.339861068350611
0.767	-0.939245990641798	0.340712424312226
0.769	-0.938935669073071	0.34156350051767
0.771	-0.938624577312411	0.342414296281712
0.773	-0.938312715601347	0.343264810919277
0.775	-0.938000084182051	0.344115043745455
0.777	-0.937686683297325	0.344964994075495
0.779	-0.937372513190616	0.345814661224812
0.781	-0.937057574105996	0.346664044508984
0.783	-0.936741866288182	0.347513143243753
0.785	-0.936425389982521	0.348361956745028
0.787	-0.936108145434995	0.349210484328885
0.789	-0.935790132892222	0.350058725311566
0.791	-0.935471352601454	0.350906679009484
0.793	-0.935151804810574	0.351754344739217
0.795	-0.934831489768099	0.352601721817518
0.797	-0.93451040772318	0.353448809561306
0.799	-0.9341885589256	0.354295607287677
0.801	-0.933865943625771	0.355142114313895
0.803	-0.93354256207474	0.3559883299574
0.805	-0.933218414524184	0.356834253535806
0.807	-0.932893501226412	0.357679884366902
0.809	-0.932567822434357	0.35852522176865
0.811	-0.932241378401592	0.359370265059195
0.813	-0.931914169382309	0.360215013556854
0.815	-0.931586195631341	0.361059466580125
0.817	-0.931257457404136	0.361903623447683
0.819	-0.930927954956783	0.362747483478387
0.821	-0.930597688545994	0.363591045991272
0.823	-0.930266658429106	0.364434310305559
0.825	-0.929934864864085	0.365277275740646
0.827	-0.929602308109531	0.366119941616121
0.829	-0.929268988424658	0.36696230725175
0.831	-0.928934906069316	0.367804371967486
0.833	-0.928600061303977	0.36864613508347
0.835	-0.928264454389741	0.369487595920024
0.837	-0.927928085588328	0.370328753797662
0.839	-0.927590955162092	0.371169608037083
0.841	-0.927253063374001	0.372010157959175
0.843	-0.926914410487656	0.372850402885019
0.845	-0.926574996767276	0.373690342135879
0.847	-0.926234822477706	0.374529975033217
0.849	-0.925893887884414	0.375369300898682
0.851	-0.925552193253489	0.376208319054118
0.853	-0.925209738851647	0.377047028821562
0.855	-0.92486652494622	0.377885429523242
0.857	-0.924522551805169	0.378723520481586
0.859	-0.92417781969707	0.379561301019214
0.861	-0.923832328891123	0.380398770458942
0.863	-0.923486079657147	0.381235928123784
0.865	-0.923139072265586	0.382072773336951
0.867	-0.922791306987498	0.382909305421853
0.869	-0.922442784094569	0.383745523702101
0.871	-0.922093503859093	0.3845814275015
0.873	-0.921743466553994	0.385417016144063
0.875	-0.92139267245281	0.386252288954
0.877	-0.921041121829697	0.387087245255723
0.879	-0.920688814959431	0.387921884373849
0.881	-0.920335752117408	0.388756205633197
0.883	-0.919981933579634	0.38959020835879
0.885	-0.91962735962274	0.390423891875858
0.887	-0.919272030523971	0.391257255509833
0.889	-0.918915946561189	0.392090298586358
0.891	-0.918559108012873	0.392923020431279
0.893	-0.918201515158115	0.393755420370653
0.895	-0.917843168276625	0.394587497730743
0.897	-0.917484067648732	0.395419251838023
0.899	-0.917124213555374	0.396250682019175
0.901	-0.916763606278107	0.397081787601096
0.903	-0.916402246099098	0.397912567910887
0.905	-0.916040133301137	0.398743022275869
0.907	-0.915677268167617	0.399573150023569
0.909	-0.915313650982554	0.400402950481734
0.911	-0.914949282030569	0.401232422978318
0.913	-0.9145841615969	0.402061566841493
0.915	-0.914218289967401	0.40289038139965
0.917	-0.913851667428532	0.403718865981392
0.919	-0.913484294267373	0.404547019915539
0.921	-0.913116170771604	0.405374842531128
0.923	-0.912747297229529	0.406202333157418
0.925	-0.912377673930055	0.407029491123884
0.927	-0.912007301162705	0.40785631576022
