# GHz S RI R 50
0.001	-0.999872378202801	0.000882972617582607
0.003	-0.999776544017619	0.00248737050356503
0.005	-0.999707268893454	0.00406257519892079
0.007	-0.999647582776099	0.00562563649634447
0.009	-0.999592557174963	0.00718152100909166
0.011	-0.999539939244679	0.00873250447363479
0.013	-0.999488475583468	0.0102798554991333
0.015	-0.999437384059224	0.01182436689568
0.017	-0.999386137991535	0.0133665730839963
0.019	-0.999334362845203	0.0149068543056357
0.021	-0.999281781115578	0.016445492294531
0.023	-0.999228180488054	0.0179827024820781
0.025	-0.99917339428279	0.0195186538025461
0.027	-0.999117288846266	0.0210534814796427
0.029	-0.99905975509332	0.0225872956152533
0.031	-0.999000702643349	0.0241201871517166
0.033	-0.998940055640215	0.0256522321276874
0.035	-0.998877749700462	0.0271834947893148
0.037	-0.998813729638708	0.0287140299121346
0.039	-0.998747947741352	0.0302438845655635
0.041	-0.998680362435294	0.0317730994753991
0.043	-0.998610937246611	0.0333017100909711
0.045	-0.998539639975589	0.0348297474316678
0.047	-0.998466442035615	0.0363572387661907
0.049	-0.998391317917892	0.0378842081632742
0.051	-0.998314244753872	0.0394106769424294
0.053	-0.998235201954517	0.0409366640460556
0.055	-0.998154170910495	0.0424621863490784
0.057	-0.998071134741224	0.0439872589184871
0.059	-0.997986078083378	0.0455118952323447
0.061	-0.997898986911527	0.047036107365758
0.063	-0.997809848385155	0.0485599061497069
0.065	-0.99771865071747	0.0500833013074295
0.067	-0.997625383062335	0.0516063015721263
0.069	-0.997530035416337	0.0531289147890217
0.071	-0.997432598533617	0.0546511480042557
0.073	-0.997333063851486	0.0561730075426268
0.075	-0.997231423425179	0.0576944990758515
0.077	-0.997127669870451	0.0592156276827199
0.079	-0.997021796312861	0.0607363979022931
0.081	-0.996913796342852	0.0622568137811056
0.083	-0.996803663975798	0.0637768789151775
0.085	-0.996691393616407	0.0652965964875188
0.087	-0.996576980026873	0.066815969301706
0.089	-0.996460418298352	0.0683349998120215
0.091	-0.996341703825294	0.0698536901505767
0.093	-0.996220832282342	0.0713720421517826
0.095	-0.996097799603466	0.0728900573744774
0.097	-0.99597260196306	0.0744077371219791
0.099	-0.995845235758822	0.0759250824602994
0.101	-0.995715697596175	0.0774420942347187
0.103	-0.995583984274087	0.0789587730849001
0.105	-0.99545009277214	0.0804751194586981
0.107	-0.995314020238691	0.0819911336247965
0.109	-0.99517576398006	0.0835068156842943
0.111	-0.995035321450591	0.0850221655813476
0.113	-0.994892690243533	0.0865371831129559
0.115	-0.994747868082644	0.08805186793798
0.117	-0.994600852814465	0.0895662195854611
0.119	-0.994451642401179	0.0910802374623081
0.121	-0.994300234914023	0.0925939208604094
0.123	-0.994146628527187	0.0941072689632237
0.125	-0.993990821512155	0.0956202808518908
0.127	-0.993832812232476	0.0971329555109131
0.129	-0.993672599138888	0.0986452918334344
0.131	-0.993510180764786	0.100157288626157
0.133	-0.993345555722027	0.101668944613927
0.135	-0.993178722696977	0.103180258444008
0.137	-0.993009680446872	0.104691228690081
0.139	-0.992838427796378	0.106201853855979
0.141	-0.992664963634405	0.107712132379182
0.143	-0.992489286911111	0.109222062634101
0.145	-0.992311396635097	0.110731642935146
0.147	-0.992131291870782	0.112240871539616
0.149	-0.99194897173594	0.113749746650407
0.151	-0.991764435399381	0.115258266418568
0.153	-0.991577682078773	0.116766428945693
0.155	-0.991388711038603	0.118274232286189
0.157	-0.991197521588243	0.119781674449407
0.159	-0.991004113080135	0.12128875340165
0.161	-0.990808484908087	0.122795467068076
0.163	-0.990610636505642	0.124301813334491
0.165	-0.990410567344571	0.125807790049046
0.167	-0.990208276933417	0.127313395023846
0.169	-0.990003764816141	0.128818626036466
0.171	-0.989797030570827	0.130323480831399
0.173	-0.989588073808465	0.131827957121417
0.175	-0.989376894171791	0.133332052588871
0.177	-0.98916349133419	0.134835764886921
0.179	-0.988947864998663	0.13633909164071
0.181	-0.988730014896826	0.137842030448468
0.183	-0.988509940787987	0.139344578882579
0.185	-0.98828764245824	0.140846734490582
0.187	-0.98806311971963	0.142348494796132
0.189	-0.987836372409339	0.143849857299913
0.191	-0.987607400388928	0.145350819480512
0.193	-0.987376203543591	0.146851378795242
0.195	-0.987142781781469	0.148351532680946
0.197	-0.98690713503299	0.149851278554743
0.199	-0.986669263250224	0.151350613814761
0.201	-0.986429166406289	0.152849535840821
0.203	-0.986186844494769	0.154348041995102
0.205	-0.985942297529166	0.155846129622771
0.207	-0.985695525542368	0.157343796052591
0.209	-0.985446528586154	0.158841038597499
0.211	-0.985195306730711	0.160337854555161
0.213	-0.984941860064162	0.161834241208507
0.215	-0.984686188692144	0.163330195826236
0.217	-0.984428292737371	0.164825715663312
0.219	-0.984168172339235	0.166320797961429
0.221	-0.983905827653421	0.167815439949464
0.223	-0.983641258851528	0.16930963884391
0.225	-0.98337446612072	0.170803391849293
0.227	-0.983105449663386	0.172296696158571
0.229	-0.982834209696797	0.173789548953519
0.231	-0.982560746452806	0.175281947405099
0.233	-0.982285060177542	0.176773888673816
0.235	-0.982007151131114	0.178265369910064
0.237	-0.981727019587335	0.179756388254449
0.239	-0.981444665833458	0.181246940838117
0.241	-0.981160090169902	0.182737024783049
0.243	-0.980873292910023	0.184226637202367
0.245	-0.980584274379858	0.185715775200613
0.247	-0.980293034917906	0.187204435874024
0.249	-0.9799995748749	0.188692616310803
0.251	-0.97970389461359	0.190180313591365
0.253	-0.979405994508549	0.191667524788593
0.255	-0.979105874945959	0.193154246968076
0.257	-0.978803536323427	0.194640477188333
0.259	-0.978498979049806	0.196126212501043
0.261	-0.978192203545003	0.197611449951259
0.263	-0.977883210239821	0.199096186577616
0.265	-0.977571999575776	0.200580419412529
0.267	-0.97725857200496	0.202064145482397
0.269	-0.976942927989858	0.203547361807783
0.271	-0.976625068003226	0.205030065403604
0.273	-0.976304992527922	0.206512253279303
0.275	-0.975982702056781	0.207993922439022
0.277	-0.975658197092479	0.209475069881772
0.279	-0.975331478147392	0.210955692601589
0.281	-0.975002545743482	0.212435787587696
0.283	-0.974671400412166	0.213915351824647
0.285	-0.974338042694199	0.215394382292483
0.287	-0.97400247313956	0.216872875966868
0.289	-0.973664692307342	0.218350829819231
0.291	-0.973324700765645	0.2198282408169
0.293	-0.972982499091468	0.221305105923231
0.295	-0.972638087870605	0.222781422097737
0.297	-0.972291467697562	0.224257186296211
0.299	-0.971942639175443	0.225732395470844
0.301	-0.971591602915867	0.227207046570344
0.303	-0.971238359538885	0.228681136540049
0.305	-0.970882909672878	0.230154662322034
0.307	-0.970525253954486	0.231627620855223
0.309	-0.970165393028519	0.233100009075487
0.311	-0.969803327547882	0.234571823915753
0.313	-0.969439058173494	0.236043062306098
0.315	-0.969072585574218	0.237513721173845
0.317	-0.968703910426783	0.238983797443659
0.319	-0.968333033415719	0.240453288037637
0.321	-0.967959955233279	0.241922189875396
0.323	-0.967584676579389	0.243390499874162
0.325	-0.967207198161562	0.244858214948853
0.327	-0.966827520694856	0.246325332012161
0.329	-0.966445644901794	0.247791847974632
0.331	-0.966061571512316	0.249257759744747
0.333	-0.965675301263719	0.250723064228995
0.335	-0.965286834900598	0.25218775833195
0.337	-0.964896173174795	0.253651838956342
0.339	-0.964503316845336	0.25511530300313
0.341	-0.964108266678394	0.25657814737157
0.343	-0.963711023447224	0.258040368959282
0.345	-0.96331158793212	0.259501964662318
0.347	-0.962909960920371	0.260962931375227
0.349	-0.962506143206203	0.262423265991115
0.351	-0.962100135590743	0.263882965401709
0.353	-0.96169193888197	0.26534202649742
0.355	-0.961281553894671	0.266800446167395
0.357	-0.960868981450404	0.268258221299584
0.359	-0.960454222377449	0.269715348780785
0.361	-0.960037277510773	0.271171825496712
0.363	-0.959618147691988	0.272627648332039
0.365	-0.959196833769313	0.274082814170457
0.367	-0.958773336597537	0.275537319894725
0.369	-0.958347657037985	0.276991162386725
0.371	-0.957919795958475	0.278444338527502
0.373	-0.957489754233293	0.279896845197322
0.375	-0.957057532743148	0.281348679275715
0.377	-0.956623132375147	0.282799837641523
0.379	-0.956186554022762	0.284250317172946
0.381	-0.955747798585792	0.285700114747584
0.383	-0.955306866970337	0.287149227242486
0.385	-0.954863760088767	0.288597651534188
0.387	-0.954418478859694	0.290045384498761
0.389	-0.953971024207933	0.291492423011843
0.391	-0.95352139706449	0.292938763948692
0.393	-0.953069598366522	0.294384404184216
0.395	-0.952615629057313	0.295829340593018
0.397	-0.952159490086245	0.297273570049428
0.399	-0.951701182408782	0.29871708942755
0.401	-0.951240706986429	0.30015989560129
0.403	-0.950778064786722	0.3016019854444
0.405	-0.950313256783192	0.303043355830506
0.407	-0.949846283955349	0.30448400363315
0.409	-0.949377147288651	0.305923925725819
0.411	-0.94890584777449	0.307363118981983
0.413	-0.948432386410164	0.308801580275127
0.415	-0.947956764198855	0.310239306478783
0.417	-0.947478982149609	0.311676294466562
0.419	-0.946999041277313	0.313112541112188
0.421	-0.946516942602678	0.314548043289525
0.423	-0.946032687152212	0.315982797872611
0.425	-0.94554627595821	0.317416801735687
0.427	-0.94505771005872	0.318850051753226
0.429	-0.944566990497541	0.320282544799964
0.431	-0.944074118324191	0.321714277750927
0.433	-0.943579094593894	0.323145247481459
0.435	-0.943081920367558	0.32457545086725
0.437	-0.942582596711767	0.326004884784366
0.439	-0.942081124698748	0.327433546109271
0.441	-0.941577505406371	0.328861431718859
0.443	-0.941071739918113	0.330288538490473
0.445	-0.940563829323063	0.331714863301941
0.447	-0.940053774715888	0.333140403031592
0.449	-0.939541577196825	0.334565154558284
0.451	-0.939027237871663	0.33598911476143
0.453	-0.938510757851732	0.337412280521023
0.455	-0.937992138253882	0.338834648717656
0.457	-0.937471380200468	0.34025621623255
0.459	-0.936948484819341	0.341676979947572
0.461	-0.936423453243829	0.343096936745265
0.463	-0.935896286612728	0.344516083508865
0.465	-0.935366986070278	0.345934417122327
0.467	-0.934835552766156	0.347351934470341
0.469	-0.934301987855467	0.348768632438362
0.471	-0.933766292498721	0.350184507912627
0.473	-0.933228467861827	0.351599557780175
0.475	-0.932688515116077	0.353013778928872
0.477	-0.932146435438131	0.354427168247426
0.479	-0.931602230010014	0.355839722625413
0.481	-0.931055900019089	0.357251438953295
0.483	-0.93050744665806	0.35866231412244
0.485	-0.929956871124948	0.360072345025138
0.487	-0.929404174623088	0.361481528554628
0.489	-0.928849358361108	0.36288986160511
0.491	-0.928292423552934	0.364297341071769
0.493	-0.927733371417756	0.365703963850791
0.495	-0.927172203180034	0.367109726839381
0.497	-0.926608920069484	0.368514626935783
0.499	-0.926043523321062	0.369918661039299
0.501	-0.925476014174958	0.371321826050305
0.503	-0.92490639387658	0.372724118870266
0.505	-0.924334663676554	0.374125536401761
0.507	-0.923760824830704	0.375526075548495
0.509	-0.923184878600045	0.376925733215316
0.511	-0.922606826250771	0.378324506308231
0.513	-0.922026669054252	0.379722391734431
0.515	-0.921444408287017	0.381119386402295
0.517	-0.920860045230746	0.382515487221415
0.519	-0.920273581172266	0.383910691102613
0.521	-0.919685017403532	0.385304994957949
0.523	-0.919094355221627	0.386698395700746
0.525	-0.918501595928744	0.3880908902456
0.527	-0.917906740832188	0.389482475508398
0.529	-0.917309791244357	0.390873148406334
0.531	-0.916710748482735	0.392262905857919
0.533	-0.916109613869893	0.393651744783006
0.535	-0.915506388733462	0.395039662102794
0.537	-0.914901074406143	0.396426654739853
0.539	-0.914293672225692	0.397812719618132
0.541	-0.913684183534903	0.399197853662974
0.543	-0.913072609681611	0.400582053801133
0.545	-0.912458952018683	0.40196531696079
0.547	-0.911843211904002	0.403347640071562
0.549	-0.911225390700466	0.404729020064518
0.551	-0.910605489775979	0.406109453872196
0.553	-0.909983510503441	0.407488938428613
0.555	-0.909359454260738	0.40886747066928
0.557	-0.908733322430744	0.410245047531218
0.559	-0.908105116401302	0.411621665952967
0.561	-0.907474837565231	0.412997322874605
0.563	-0.906842487320291	0.414372015237751
0.565	-0.906208067069214	0.415745739985596
0.567	-0.90557157821966	0.417118494062894
0.569	-0.904933022184237	0.418490274415996
0.571	-0.904292400380476	0.419861077992847
0.573	-0.903649714230839	0.421230901743007
0.575	-0.903004965162692	0.422599742617662
0.577	-0.902358154608321	0.423967597569634
0.579	-0.901709284004908	0.4253344635534
0.581	-0.901058354794528	0.426700337525096
0.583	-0.900405368424149	0.428065216442534
0.585	-0.899750326345621	0.429429097265216
0.587	-0.899093230015662	0.430791976954341
0.589	-0.898434080895862	0.43215385247282
0.591	-0.897772880452672	0.43351472078529
0.593	-0.8971096301574	0.434874578858122
0.595	-0.896444331486196	0.436233423659434
0.597	-0.895776985920056	0.437591252159103
0.599	-0.895107594944813	0.438948061328778
0.601	-0.894436160051123	0.440303848141889
0.603	-0.893762682734471	0.441658609573661
0.605	-0.893087164495152	0.443012342601122
0.607	-0.892409606838278	0.444365044203119
0.609	-0.891730011273759	0.445716711360326
0.611	-0.891048379316303	0.447067341055254
0.613	-0.890364712485412	0.448416930272266
0.615	-0.889679012305374	0.449765475997586
0.617	-0.888991280305252	0.451112975219309
0.619	-0.888301518018885	0.452459424927414
0.621	-0.887609726984884	0.453804822113774
0.623	-0.88691590874661	0.455149163772165
0.625	-0.886220064852193	0.456492446898282
0.627	-0.8855221968545	0.457834668489739
0.629	-0.884822306311151	0.459175825546094
0.631	-0.884120394784501	0.46051591506885
0.633	-0.883416463841634	0.461854934061465
0.635	-0.882710515054364	0.463192879529367
0.637	-0.882002549999227	0.464529748479963
0.639	-0.881292570257472	0.465865537922648
0.641	-0.880580577415059	0.467200244868817
0.643	-0.879866573062645	0.468533866331869
0.645	-0.879150558795595	0.469866399327231
0.647	-0.87843253621396	0.471197840872354
0.649	-0.877712506922483	0.472528187986727
0.651	-0.876990472530582	0.473857437691893
0.653	-0.876266434652357	0.475185587011453
0.655	-0.875540394906576	0.476512632971073
0.657	-0.874812354916672	0.477838572598504
0.659	-0.87408231631074	0.479163402923583
0.661	-0.873350280721526	0.480487120978247
0.663	-0.872616249786425	0.481809723796538
0.665	-0.871880225147481	0.483131208414621
0.667	-0.87114220845137	0.484451571870784
0.669	-0.870402201349403	0.485770811205457
0.671	-0.869660205497519	0.48708892346121
0.673	-0.86891622255628	0.488405905682776
0.675	-0.868170254190862	0.48972175491705
0.677	-0.867422302071057	0.491036468213101
0.679	-0.866672367871262	0.492350042622186
0.681	-0.865920453270473	0.49366247519775
0.683	-0.865166559952287	0.494973762995449
0.685	-0.864410689604888	0.496283903073144
0.687	-0.863652843921045	0.497592892490918
0.689	-0.862893024598116	0.49890072831109
0.691	-0.862131233338024	0.500207407598212
0.693	-0.86136747184727	0.501512927419089
0.695	-0.860601741836915	0.50281728484278
0.697	-0.859834045022587	0.504120476940615
0.699	-0.859064383124461	0.505422500786195
0.701	-0.85829275786727	0.50672335345541
0.703	-0.857519170980288	0.508023032026438
0.705	-0.856743624197331	0.509321533579766
0.707	-0.855966119256749	0.510618855198187
0.709	-0.855186657901422	0.511914993966816
0.711	-0.854405241878757	0.513209946973095
0.713	-0.853621872940679	0.514503711306806
0.715	-0.852836552843631	0.515796284060075
0.717	-0.852049283348561	0.517087662327382
0.719	-0.85126006622093	0.518377843205572
0.721	-0.850468903230694	0.519666823793863
0.723	-0.849675796152308	0.520954601193852
0.725	-0.848880746764711	0.522241172509522
0.727	-0.848083756851336	0.523526534847259
0.729	-0.847284828200093	0.524810685315852
0.731	-0.846483962603368	0.526093621026506
0.733	-0.845681161858017	0.527375339092847
0.735	-0.844876427765363	0.528655836630932
0.737	-0.844069762131193	0.52993511075926
0.739	-0.843261166765747	0.531213158598776
0.741	-0.842450643483715	0.53248997727288
0.743	-0.841638194104242	0.533765563907443
0.745	-0.840823820450903	0.535039915630799
0.747	-0.840007524351721	0.536313029573771
0.749	-0.839189307639146	0.537584902869667
0.751	-0.838369172150055	0.538855532654295
0.753	-0.837547119725751	0.540124916065965
0.755	-0.83672315221195	0.541393050245503
0.757	-0.835897271458787	0.542659932336256
0.759	-0.835069479320799	0.543925559484103
0.761	-0.834239777656932	0.545189928837456
0.763	-0.833408168330527	0.546453037547277
0.765	-0.832574653209321	0.54771488276708
0.767	-0.83173923416544	0.548975461652942
0.769	-0.830901913075391	0.550234771363507
0.771	-0.83006269182007	0.551492809060002
0.773	-0.829221572284732	0.552749571906232
0.775	-0.828378556359019	0.554005057068603
0.777	-0.827533645936929	0.555259261716117
0.779	-0.82668684291682	0.556512183020386
0.781	-0.825838149201411	0.557763818155643
0.783	-0.824987566697767	0.55901416429874
0.785	-0.824135097317305	0.560263218629165
0.787	-0.823280742975775	0.561510978329044
0.789	-0.822424505593275	0.562757440583155
0.791	-0.821566387094225	0.564002602578927
0.793	-0.820706389407381	0.565246461506456
0.795	-0.819844514465816	0.566489014558507
0.797	-0.81898076420692	0.567730258930522
0.799	-0.818115140572402	0.568970191820634
0.801	-0.817247645508275	0.570208810429667
0.803	-0.816378280964857	0.571446111961146
0.805	-0.815507048896766	0.572682093621306
0.807	-0.814633951262912	0.573916752619098
0.809	-0.813758990026498	0.575150086166199
0.811	-0.812882167155007	0.576382091477015
0.813	-0.81200348462021	0.577612765768694
0.815	-0.811122944398142	0.578842106261126
0.817	-0.810240548469124	0.580070110176963
0.819	-0.809356298817727	0.581296774741609
0.821	-0.808470197432796	0.582522097183245
0.823	-0.807582246307422	0.583746074732821
0.825	-0.806692447438959	0.584968704624079
0.827	-0.805800802828997	0.586189984093543
0.829	-0.804907314483379	0.587409910380544
0.831	-0.804011984412177	0.588628480727213
0.833	-0.803114814629702	0.589845692378497
0.835	-0.802215807154488	0.59106154258216
0.837	-0.801314964009297	0.592276028588799
0.839	-0.800412287221108	0.59348914765184
0.841	-0.799507778821115	0.594700897027555
0.843	-0.798601440844721	0.595911273975066
0.845	-0.79769327533153	0.597120275756347
0.847	-0.796783284325354	0.598327899636241
0.849	-0.795871469874192	0.599534142882459
0.851	-0.794957834030237	0.60073900276559
0.853	-0.794042378849869	0.601942476559111
0.855	-0.793125106393647	0.603144561539386
0.857	-0.792206018726309	0.604345254985688
0.859	-0.791285117916758	0.605544554180186
0.861	-0.790362406038073	0.606742456407971
0.863	-0.789437885167485	0.607938958957047
0.865	-0.788511557386393	0.609134059118356
0.867	-0.78758342478034	0.610327754185766
0.869	-0.78665348943902	0.61152004145609
0.871	-0.785721753456269	0.61271091822909
0.873	-0.784788218930063	0.613900381807487
0.875	-0.783852887962512	0.615088429496959
0.877	-0.782915762659851	0.61627505860616
0.879	-0.781976845132444	0.617460266446717
0.881	-0.78103613749477	0.618644050333242
0.883	-0.780093641865424	0.619826407583337
0.885	-0.779149360367112	0.621007335517604
0.887	-0.778203295126643	0.622186831459647
0.889	-0.777255448274926	0.623364892736082
0.891	-0.776305821946968	0.624541516676545
0.893	-0.775354418281863	0.625716700613696
0.895	-0.774401239422794	0.62689044188323
0.897	-0.773446287517022	0.628062737823873
0.899	-0.772489564715889	0.629233585777407
0.901	-0.771531073174802	0.630402983088658
0.903	-0.770570815053239	0.631570927105517
0.905	-0.769608792514737	0.632737415178938
0.907	-0.768645007726894	0.633902444662951
0.909	-0.767679462861357	0.635066012914662
0.911	-0.766712160093819	0.636228117294266
0.913	-0.765743101604021	0.63738875516505
0.915	-0.764772289575736	0.638547923893403
0.917	-0.763799726196772	0.639705620848816
0.919	-0.762825413658967	0.640861843403899
0.921	-0.761849354158178	0.642016588934377
0.923	-0.760871549894283	0.643169854819105
0.925	-0.759892003071175	0.64432163844007
0.927	-0.758910715896753	0.645471937182398
0.929	-0.757927690582921	0.646620748434366
