# GHz S RI R 50
0.001	-0.999947898834185	0.000805091267565811
0.003	-0.999907560826798	0.00234953383620067
0.005	-0.999876690584357	0.00388209391028685
0.007	-0.999848382349379	0.00540970759035002
0.009	-0.999820630527503	0.00693439393746779
0.011	-0.999792518350948	0.00845707701121428
0.013	-0.999763535768522	0.00997827104102989
0.015	-0.999733364511122	0.0114982966401274
0.017	-0.999701790266788	0.0130173692760301
0.019	-0.999668660641087	0.0145356416767448
0.021	-0.999633862728648	0.016053226485093
0.023	-0.999597310155919	0.017570209363847
0.025	-0.999558935123256	0.0190866570550819
0.027	-0.999518683273991	0.0206026225833621
0.029	-0.999476510252503	0.0221181487507175
0.031	-0.999432379317971	0.0236332705628412
0.033	-0.999386259643287	0.0251480169609034
0.035	-0.99933812507315	0.0266624120875636
0.037	-0.9992879531984	0.0281764762318031
0.039	-0.99923572465352	0.0296902265469388
0.041	-0.999181422574856	0.0312036776050556
0.043	-0.99912503217686	0.0327168418312554
0.045	-0.999066540416357	0.0342297298481281
0.047	-0.999005935723507	0.0357423507521564
0.049	-0.998943207783974	0.0372547123378177
0.051	-0.998878347360852	0.0387668212810027
0.053	-0.998811346147851	0.0402786832904376
0.055	-0.998742196647304	0.0417903032336843
0.057	-0.998670892068026	0.0433016852427542
0.059	-0.998597426239252	0.0448128328032305
0.061	-0.998521793537643	0.0463237488299455
0.063	-0.998443988825026	0.0478344357316144
0.065	-0.998364007395002	0.0493448954663361
0.067	-0.998281844926937	0.0508551295894924
0.069	-0.998197497446104	0.0523651392952819
0.071	-0.998110961289025	0.0538749254528949
0.073	-0.99802223307319	0.0553844886381519
0.075	-0.997931309670512	0.0568938291612828
0.077	-0.997838188183967	0.0584029470914091
0.079	-0.997742865926944	0.059911842278194
0.081	-0.997645340404977	0.0614205143710541
0.083	-0.997545609299467	0.0629289628362573
0.085	-0.997443670453217	0.0644371869721891
0.087	-0.997339521857452	0.0659451859230182
0.089	-0.997233161640217	0.0674529586909644
0.091	-0.997124588055935	0.06896050414734
0.093	-0.997013799475998	0.0704678210425102
0.095	-0.996900794380276	0.0719749080149011
0.097	-0.996785571349431	0.0734817635991643
0.099	-0.996668129057938	0.0749883862335906
0.101	-0.996548466267751	0.0764947742668597
0.103	-0.996426581822533	0.0780009259641939
0.105	-0.996302474642389	0.0795068395129811
0.107	-0.996176143719048	0.0810125130279204
0.109	-0.99604758811147	0.0825179445557423
0.111	-0.995916806941783	0.0840231320795408
0.113	-0.995783799391592	0.0855280735227614
0.115	-0.995648564698548	0.0870327667528734
0.117	-0.99551110215321	0.08853720958476
0.119	-0.995371411096134	0.0900413997838492
0.121	-0.995229490915194	0.0915453350690128
0.123	-0.995085341043096	0.0930490131152511
0.125	-0.994938960955082	0.0945524315561855
0.127	-0.99479035016679	0.0960555879863717
0.129	-0.99463950823228	0.0975584799634543
0.131	-0.99448643474218	0.0990611050101693
0.133	-0.994331129321984	0.100563460616216
0.135	-0.994173591630445	0.10206554424
0.137	-0.994013821358082	0.103567353310262
0.139	-0.993851818225796	0.105068885227604
0.141	-0.99368758198356	0.106570137365917
0.143	-0.993521112409206	0.108071107073719
0.145	-0.993352409307278	0.109571791675406
0.147	-0.993181472507966	0.111072188472436
0.149	-0.993008301866107	0.112572294744432
0.151	-0.992832897260232	0.114072107750227
0.153	-0.992655258591687	0.115571624728843
0.155	-0.992475385783799	0.117070842900414
0.157	-0.992293278781087	0.118569759467063
0.159	-0.992108937548529	0.120068371613716
0.161	-0.99192236207086	0.121566676508888
0.163	-0.991733552351917	0.123064671305411
0.165	-0.991542508414012	0.12456235314113
0.167	-0.991349230297355	0.126059719139565
0.169	-0.991153718059487	0.127556766410527
0.171	-0.990955971774768	0.129053492050715
0.173	-0.990755991533867	0.130549893144272
0.175	-0.990553777443295	0.132045966763319
0.177	-0.990349329624962	0.13354170996846
0.179	-0.990142648215752	0.135037119809261
0.181	-0.989933733367114	0.136532193324708
0.183	-0.989722585244685	0.138026927543642
0.185	-0.989509204027936	0.13952131948517
0.187	-0.9892935899098	0.141015366159062
0.189	-0.98907574309637	0.142509064566128
0.191	-0.98885566380658	0.144002411698571
0.193	-0.988633352271895	0.145495404540336
0.195	-0.988408808736041	0.146988040067432
0.197	-0.988182033454728	0.148480315248247
0.199	-0.987953026695388	0.149972227043842
0.201	-0.987721788736938	0.151463772408244
0.203	-0.987488319869542	0.152954948288712
0.205	-0.987252620394376	0.154445751626001
0.207	-0.987014690623429	0.155936179354614
0.209	-0.986774530879286	0.15742622840304
0.211	-0.986532141494932	0.158915895693983
0.213	-0.986287522813577	0.160405178144589
0.215	-0.98604067518846	0.161894072666647
0.217	-0.985791598982682	0.163382576166803
0.219	-0.985540294569043	0.164870685546749
0.221	-0.985286762329886	0.166358397703414
0.223	-0.985031002656937	0.167845709529139
0.225	-0.984773015951166	0.169332617911859
0.227	-0.984512802622647	0.170819119735262
0.229	-0.984250363090418	0.172305211878955
0.231	-0.98398569778236	0.173790891218616
0.233	-0.983718807135065	0.175276154626142
0.235	-0.983449691593725	0.176760998969797
0.237	-0.983178351612015	0.178245421114347
0.239	-0.982904787651975	0.179729417921193
0.241	-0.982629000183918	0.181212986248502
0.243	-0.982350989686318	0.182696122951332
0.245	-0.982070756645714	0.184178824881748
0.247	-0.981788301556619	0.185661088888942
0.249	-0.981503624921421	0.187142911819344
0.251	-0.981216727250307	0.188624290516728
0.253	-0.980927609061169	0.190105221822322
0.255	-0.980636270879522	0.191585702574901
0.257	-0.980342713238435	0.193065729610896
0.259	-0.980046936678445	0.194545299764479
0.261	-0.979748941747485	0.196024409867658
0.263	-0.979448729000821	0.19750305675037
0.265	-0.979146299000976	0.198981237240562
0.267	-0.978841652317663	0.200458948164276
0.269	-0.978534789527731	0.20193618634573
0.271	-0.97822571121509	0.2034129486074
0.273	-0.977914417970663	0.204889231770092
0.275	-0.977600910392317	0.206365032653014
0.277	-0.977285189084824	0.207840348073856
0.279	-0.976967254659787	0.209315174848851
0.281	-0.976647107735602	0.21078950979285
0.283	-0.9763247489374	0.212263349719381
0.285	-0.976000178897005	0.21373669144072
0.287	-0.975673398252873	0.215209531767944
0.289	-0.975344407650066	0.216681867511004
0.291	-0.975013207740193	0.218153695478773
0.293	-0.974679799181366	0.219625012479106
0.295	-0.974344182638163	0.2210958153189
0.297	-0.974006358781595	0.222566100804144
0.299	-0.973666328289044	0.224035865739973
0.301	-0.973324091844252	0.225505106930718
0.303	-0.972979650137263	0.226973821179962
0.305	-0.9726330038644	0.228442005290582
0.307	-0.972284153728217	0.229909656064797
0.309	-0.971933100437479	0.231376770304223
0.311	-0.971579844707116	0.232843344809907
0.313	-0.971224387258204	0.234309376382379
0.315	-0.970866728817922	0.235774861821693
0.317	-0.970506870119531	0.237239797927469
0.319	-0.970144811902334	0.238704181498934
0.321	-0.969780554911655	0.240168009334961
0.323	-0.969414099898809	0.241631278234114
0.325	-0.969045447621076	0.243093984994678
0.327	-0.968674598841677	0.244556126414706
0.329	-0.968301554329734	0.246017699292045
0.331	-0.967926314860264	0.247478700424383
0.333	-0.967548881214142	0.248939126609276
0.335	-0.967169254178081	0.250398974644185
0.337	-0.966787434544612	0.251858241326512
0.339	-0.966403423112053	0.253316923453632
0.341	-0.966017220684495	0.254775017822921
0.343	-0.965628828071776	0.256232521231793
0.345	-0.965238246089459	0.25768943047773
0.347	-0.964845475558818	0.259145742358309
0.349	-0.964450517306812	0.260601453671238
0.351	-0.964053372166065	0.262056561214377
0.353	-0.963654040974849	0.263511061785774
0.355	-0.96325252457707	0.264964952183691
0.357	-0.962848823822238	0.266418229206629
0.359	-0.962442939565463	0.267870889653356
0.361	-0.962034872667425	0.269322930322939
0.363	-0.961624623994368	0.270774348014759
0.365	-0.961212194418076	0.27222513952855
0.367	-0.960797584815857	0.273675301664411
0.369	-0.960380796070533	0.275124831222841
0.371	-0.959961829070414	0.276573725004758
0.373	-0.959540684709303	0.278021979811526
0.375	-0.959117363886451	0.279469592444972
0.377	-0.958691867506569	0.280916559707419
0.379	-0.958264196479803	0.2823628784017
0.381	-0.957834351721719	0.283808545331185
0.383	-0.95740233415329	0.285253557299802
0.385	-0.956968144700887	0.286697911112056
0.387	-0.95653178429626	0.288141603573055
0.389	-0.956093253876527	0.289584631488528
0.391	-0.955652554384166	0.291026991664844
0.393	-0.955209686766996	0.292468680909038
0.395	-0.954764651978168	0.293909696028824
0.397	-0.954317450976153	0.295350033832619
0.399	-0.953868084724732	0.296789691129563
0.401	-0.953416554192977	0.298228664729535
0.403	-0.952962860355255	0.299666951443174
0.405	-0.952507004191197	0.301104548081896
0.407	-0.952048986685706	0.302541451457916
0.409	-0.951588808828933	0.303977658384261
0.411	-0.951126471616274	0.305413165674791
0.413	-0.950661976048358	0.306847970144217
0.415	-0.950195323131033	0.308282068608116
0.417	-0.949726513875361	0.309715457882948
0.419	-0.94925554929761	0.311148134786079
0.421	-0.948782430419237	0.312580096135789
0.423	-0.948307158266883	0.314011338751295
0.425	-0.947829733872364	0.315441859452762
0.427	-0.947350158272664	0.316871655061325
0.429	-0.946868432509918	0.318300722399099
0.431	-0.946384557631414	0.319729058289202
0.433	-0.945898534689577	0.321156659555761
0.435	-0.94541036474196	0.322583523023936
0.437	-0.944920048851241	0.324009645519931
0.439	-0.944427588085212	0.325435023871008
0.441	-0.943932983516767	0.326859654905505
0.443	-0.9434362362239	0.328283535452849
0.445	-0.942937347289696	0.329706662343571
0.447	-0.942436317802317	0.331129032409319
0.449	-0.941933148855005	0.332550642482874
0.451	-0.941427841546061	0.333971489398163
0.453	-0.940920396978854	0.335391569990275
0.455	-0.940410816261798	0.336810881095469
0.457	-0.939899100508351	0.338229419551196
0.459	-0.939385250837015	0.339647182196107
0.461	-0.938869268371314	0.341064165870065
0.463	-0.938351154239796	0.342480367414163
0.465	-0.937830909576033	0.343895783670736
0.467	-0.937308535518597	0.345310411483372
0.469	-0.936784033211065	0.346724247696923
0.471	-0.936257403802015	0.348137289157526
0.473	-0.935728648445006	0.349549532712604
0.475	-0.935197768298585	0.35096097521089
0.477	-0.934664764526275	0.352371613502432
0.479	-0.934129638296567	0.353781444438606
0.481	-0.933592390782918	0.355190464872134
0.483	-0.933053023163742	0.356598671657088
0.485	-0.932511536622399	0.358006061648907
0.487	-0.931967932347202	0.359412631704408
0.489	-0.931422211531401	0.360818378681797
0.491	-0.930874375373173	0.362223299440682
0.493	-0.930324425075633	0.363627390842084
0.495	-0.929772361846809	0.365030649748448
0.497	-0.929218186899646	0.366433073023655
0.499	-0.928661901452005	0.367834657533034
0.501	-0.928103506726641	0.369235400143371
0.503	-0.927543003951218	0.370635297722925
0.505	-0.926980394358286	0.372034347141432
0.507	-0.926415679185285	0.373432545270122
0.509	-0.925848859674541	0.37482988898173
0.511	-0.92527993707325	0.376226375150501
0.513	-0.924708912633483	0.377622000652206
0.515	-0.924135787612174	0.379016762364153
0.517	-0.923560563271125	0.380410657165195
0.519	-0.922983240876984	0.381803681935741
0.521	-0.922403821701258	0.383195833557769
0.523	-0.92182230702029	0.384587108914833
0.525	-0.921238698115274	0.385977504892075
0.527	-0.920652996272229	0.387367018376238
0.529	-0.920065202782011	0.388755646255671
0.531	-0.919475318940294	0.390143385420344
0.533	-0.918883346047579	0.391530232761854
0.535	-0.91828928540918	0.392916185173439
0.537	-0.917693138335218	0.394301239549985
0.539	-0.91709490614062	0.395685392788039
0.541	-0.916494590145116	0.397068641785815
0.543	-0.915892191673231	0.398450983443206
0.545	-0.91528771205428	0.399832414661799
0.547	-0.914681152622364	0.401212932344871
0.549	-0.914072514716364	0.402592533397413
0.551	-0.913461799679942	0.403971214726135
0.553	-0.912849008861526	0.405348973239469
0.555	-0.912234143614318	0.40672580584759
0.557	-0.911617205296279	0.408101709462417
0.559	-0.910998195270126	0.409476680997623
0.561	-0.910377114903336	0.410850717368651
0.563	-0.909753965568127	0.412223815492716
0.565	-0.90912874864147	0.413595972288818
0.567	-0.908501465505069	0.41496718467775
0.569	-0.90787211754537	0.41633744958211
0.571	-0.907240706153543	0.417706763926302
0.573	-0.906607232725491	0.419075124636559
0.575	-0.905971698661839	0.420442528640939
0.577	-0.905334105367923	0.421808972869341
0.579	-0.904694454253802	0.423174454253512
0.581	-0.904052746734235	0.424538969727054
0.583	-0.903408984228693	0.425902516225441
0.585	-0.902763168161347	0.427265090686018
0.587	-0.902115299961062	0.428626690048013
0.589	-0.90146538106139	0.42998731125255
0.591	-0.900813412900583	0.431346951242653
0.593	-0.900159396921564	0.432705606963256
0.595	-0.899503334571947	0.434063275361215
0.597	-0.898845227304009	0.435419953385311
0.599	-0.898185076574706	0.436775637986263
0.601	-0.897522883845658	0.438130326116733
0.603	-0.896858650583147	0.439484014731341
0.605	-0.896192378258115	0.440836700786667
0.607	-0.895524068346155	0.442188381241259
0.609	-0.894853722327511	0.44353905305565
0.611	-0.894181341687076	0.444888713192358
0.613	-0.893506927914381	0.446237358615898
0.615	-0.892830482503594	0.447584986292789
0.617	-0.892152006953522	0.448931593191565
0.619	-0.891471502767591	0.450277176282777
0.621	-0.890788971453865	0.451621732539013
0.623	-0.890104414525016	0.452965258934893
0.625	-0.889417833498347	0.454307752447088
0.627	-0.888729229895759	0.455649210054319
0.629	-0.888038605243777	0.456989628737374
0.631	-0.887345961073519	0.458329005479112
0.633	-0.88665129892071	0.459667337264468
0.635	-0.88595462032567	0.461004621080467
0.637	-0.88525592683331	0.46234085391623
0.639	-0.884555219993135	0.463676032762979
0.641	-0.88385250135923	0.465010154614052
0.643	-0.883147772490263	0.466343216464902
0.645	-0.882441034949476	0.467675215313114
0.647	-0.881732290304691	0.469006148158407
0.649	-0.881021540128288	0.470336012002643
0.651	-0.880308785997221	0.471664803849837
0.653	-0.879594029492999	0.472992520706164
0.655	-0.878877272201694	0.474319159579966
0.657	-0.878158515713921	0.475644717481759
0.659	-0.877437761624857	0.476969191424246
0.661	-0.876715011534213	0.478292578422319
0.663	-0.875990267046243	0.479614875493069
0.665	-0.875263529769745	0.480936079655793
0.667	-0.874534801318041	0.482256187932006
0.669	-0.873804083308987	0.483575197345443
0.671	-0.873071377364964	0.484893104922067
0.673	-0.872336685112873	0.486209907690085
0.675	-0.871600008184135	0.487525602679943
0.677	-0.870861348214677	0.488840186924345
0.679	-0.870120706844946	0.490153657458254
0.681	-0.869378085719888	0.491466011318903
0.683	-0.868633486488947	0.492777245545798
0.685	-0.867886910806077	0.494087357180733
0.687	-0.867138360329709	0.49539634326779
0.689	-0.86638783672278	0.496704200853353
0.691	-0.865635341652702	0.498010926986112
0.693	-0.864880876791373	0.499316518717067
0.695	-0.864124443815167	0.500620973099547
0.697	-0.863366044404936	0.501924287189205
0.699	-0.862605680245996	0.503226458044031
0.701	-0.861843353028138	0.504527482724362
0.703	-0.861079064445602	0.505827358292884
0.705	-0.8603128161971	0.507126081814641
0.707	-0.859544609985791	0.50842365035705
0.709	-0.858774447519285	0.509720060989894
0.711	-0.85800233050964	0.511015310785341
0.713	-0.857228260673355	0.512309396817949
0.715	-0.856452239731372	0.51360231616467
0.717	-0.855674269409062	0.51489406590486
0.719	-0.854894351436227	0.516184643120285
0.721	-0.854112487547101	0.51747404489513
0.723	-0.853328679480338	0.518762268316006
0.725	-0.85254292897901	0.520049310471956
0.727	-0.851755237790604	0.521335168454463
0.729	-0.85096560766702	0.522619839357456
0.731	-0.850174040364564	0.523903320277321
0.733	-0.849380537643948	0.525185608312906
0.735	-0.848585101270277	0.526466700565524
0.737	-0.847787733013056	0.527746594138965
0.739	-0.846988434646181	0.529025286139509
0.741	-0.846187207947934	0.530302773675918
0.743	-0.845384054700982	0.531579053859456
0.745	-0.844578976692368	0.53285412380389
0.747	-0.843771975713517	0.534127980625504
0.749	-0.84296305356022	0.535400621443094
0.751	-0.842152212032637	0.536672043377987
0.753	-0.841339452935293	0.537942243554043
0.755	-0.840524778077069	0.539211219097659
0.757	-0.839708189271206	0.540478967137783
0.759	-0.838889688335296	0.541745484805919
0.761	-0.838069277091275	0.543010769236128
0.763	-0.837246957365428	0.544274817565043
0.765	-0.836422730988375	0.545537626931872
0.767	-0.835596599795072	0.546799194478406
0.769	-0.834768565624813	0.548059517349025
0.771	-0.833938630321214	0.549318592690708
0.773	-0.833106795732212	0.550576417653035
0.775	-0.832273063710071	0.551832989388199
0.777	-0.831437436111368	0.553088305051008
0.779	-0.830599914796988	0.554342361798898
0.781	-0.829760501632129	0.555595156791935
0.783	-0.828919198486286	0.556846687192823
0.785	-0.828076007233265	0.558096950166913
0.787	-0.827230929751153	0.559345942882206
0.789	-0.826383967922341	0.560593662509367
0.791	-0.8255351236335	0.561840106221721
0.793	-0.824684398775586	0.563085271195271
0.795	-0.823831795243836	0.564329154608696
0.797	-0.822977314937762	0.565571753643366
0.799	-0.822120959761146	0.566813065483342
0.801	-0.821262731622037	0.568053087315384
0.803	-0.82040263243275	0.569291816328965
0.805	-0.819540664109853	0.570529249716265
0.807	-0.818676828574178	0.571765384672191
0.809	-0.817811127750798	0.573000218394373
0.811	-0.81694356356904	0.574233748083178
0.813	-0.816074137962469	0.575465970941714
0.815	-0.815202852868894	0.576696884175836
0.817	-0.814329710230352	0.577926484994157
0.819	-0.813454711993115	0.579154770608046
0.821	-0.81257786010768	0.580381738231646
0.823	-0.811699156528763	0.58160738508187
0.825	-0.810818603215303	0.582831708378417
0.827	-0.809936202130451	0.584054705343773
0.829	-0.809051955241564	0.585276373203216
0.831	-0.808165864520211	0.586496709184832
0.833	-0.807277931942157	0.587715710519509
0.835	-0.806388159487366	0.588933374440955
0.837	-0.805496549139997	0.590149698185697
0.839	-0.804603102888396	0.591364678993092
0.841	-0.803707822725094	0.592578314105331
0.843	-0.802810710646799	0.593790600767448
0.845	-0.801911768654403	0.595001536227324
0.847	-0.801010998752965	0.596211117735697
0.849	-0.800108402951711	0.597419342546165
0.851	-0.799203983264032	0.598626207915191
0.853	-0.798297741707483	0.599831711102121
0.855	-0.797389680303768	0.601035849369176
0.857	-0.796479801078742	0.602238619981465
0.859	-0.795568106062413	0.603440020206995
0.861	-0.794654597288928	0.604640047316673
0.863	-0.793739276796569	0.60583869858431
0.865	-0.792822146627758	0.607035971286634
0.867	-0.791903208829042	0.608231862703295
0.869	-0.790982465451099	0.609426370116869
0.871	-0.790059918548721	0.610619490812864
0.873	-0.789135570180825	0.61181122207973
0.875	-0.788209422410436	0.613001561208863
0.877	-0.787281477304687	0.614190505494613
0.879	-0.786351736934817	0.615378052234289
0.881	-0.785420203376167	0.616564198728166
0.883	-0.784486878708167	0.617748942279492
0.885	-0.783551765014346	0.618932280194494
0.887	-0.782614864382313	0.620114209782383
0.889	-0.781676178903766	0.621294728355365
0.891	-0.780735710674478	0.622473833228642
0.893	-0.779793461794293	0.62365152172042
0.895	-0.778849434367128	0.624827791151918
0.897	-0.777903630500969	0.626002638847374
0.899	-0.776956052307855	0.627176062134046
0.901	-0.776006701903889	0.628348058342226
0.903	-0.775055581409216	0.629518624805239
0.905	-0.774102692948041	0.630687758859457
0.907	-0.773148038648604	0.631855457844299
0.909	-0.772191620643189	0.633021719102242
0.911	-0.77123344106811	0.634186539978822
0.913	-0.770273502063711	0.635349917822646
0.915	-0.769311805774367	0.636511849985395
0.917	-0.76834835434847	0.637672333821832
0.919	-0.767383149938431	0.638831366689807
0.921	-0.76641619470067	0.639988945950261
0.923	-0.76544749079562	0.641145068967242
0.925	-0.764477040387713	0.642299733107898
0.927	-0.763504845645385	0.643452935742492
0.929	-0.76253090874106	0.644604674244405
