# GHz S RI R 50
0.001	-0.999785953330586	0.00148998047724069
0.003	-0.999622392193533	0.00419931184598422
0.005	-0.999500386022919	0.0068595649270287
0.007	-0.999391581478618	0.00949931177867483
0.009	-0.999287754756023	0.0121268772515376
0.011	-0.999185151351811	0.0147460738473418
0.013	-0.999081685032824	0.0173590240978045
0.015	-0.99897605568294	0.0199670516391164
0.017	-0.998867389024075	0.022571045992693
0.019	-0.998755064244142	0.025171637493093
0.021	-0.998638622080053	0.0277692907799494
0.023	-0.998517711741686	0.0303643589050817
0.025	-0.998392058330272	0.0329571166214792
0.027	-0.998261441841289	0.0355477818841447
0.029	-0.998125683086076	0.0381365302983111
0.031	-0.997984633936239	0.0407235051535466
0.033	-0.99783817037263	0.0433088245890626
0.035	-0.997686187413056	0.0458925868339566
0.037	-0.997528595333607	0.0484748741196477
0.039	-0.997365316802255	0.0510557556542994
0.041	-0.99719628466949	0.053635289920535
0.043	-0.99702144024097	0.0562135264758064
0.045	-0.996840731909795	0.0587905073811312
0.047	-0.996654114060985	0.0613662683479768
0.049	-0.996461546184893	0.0639408396684972
0.051	-0.996262992152862	0.0665142469772033
0.053	-0.996058419620344	0.069086511880016
0.055	-0.995847799531107	0.0716576524779185
0.057	-0.995631105702443	0.0742276838060591
0.059	-0.995408314475755	0.0767966182044384
0.061	-0.995179404420422	0.0793644656328019
0.063	-0.994944356081321	0.0819312339396898
0.065	-0.994703151762434	0.0844969290935621
0.067	-0.994455775340437	0.0870615553823503
0.069	-0.994202212103348	0.089625115586562
0.071	-0.993942448610259	0.0921876111301139
0.073	-0.99367647256888	0.0947490422123033
0.075	-0.99340427272823	0.0973094079237338
0.077	-0.99312583878422	0.0998687063485218
0.079	-0.992841161296327	0.102426934654724
0.081	-0.99255023161379	0.10498408917461
0.083	-0.992253041810039	0.107540165476143
0.085	-0.991949584624267	0.110095158426819
0.087	-0.991639853409218	0.112649062250854
0.089	-0.991323842084411	0.115201870580534
0.091	-0.991001545094113	0.11775357650246
0.093	-0.990672957369492	0.120304172599287
0.095	-0.990338074294477	0.122853650987482
0.097	-0.989996891674842	0.125402003351573
0.099	-0.989649405710207	0.127949220975264
0.101	-0.989295612968584	0.130495294769773
0.103	-0.988935510363227	0.133040215299687
0.105	-0.988569095131499	0.135583972806594
0.107	-0.988196364815589	0.138126557230735
0.109	-0.98781731724485	0.140667958230855
0.111	-0.987431950519609	0.143208165202462
0.113	-0.987040262996312	0.145747167294619
0.115	-0.986642253273854	0.148284953425432
0.117	-0.986237920180995	0.150821512296355
0.119	-0.985827262764745	0.153356832405411
0.121	-0.985410280279649	0.155890902059436
0.123	-0.984986972177871	0.158423709385435
0.125	-0.984557338100005	0.160955242341126
0.127	-0.984121377866573	0.163485488724742
0.129	-0.98367909147011	0.166014436184155
0.131	-0.983230479067818	0.168542072225378
0.133	-0.98277554097474	0.171068384220504
0.135	-0.982314277657384	0.173593359415119
0.137	-0.981846689727788	0.17611698493523
0.139	-0.98137277793797	0.178639247793761
0.141	-0.980892543174757	0.181160134896632
0.143	-0.98040598645493	0.183679633048464
0.145	-0.979913108920692	0.186197728957946
0.147	-0.979413911835413	0.188714409242863
0.149	-0.978908396579642	0.191229660434842
0.151	-0.978396564647363	0.193743468983813
0.153	-0.977878417642469	0.196255821262218
0.155	-0.977353957275458	0.198766703568981
0.157	-0.976823185360318	0.201276102133254
0.159	-0.976286103811583	0.203784003117961
0.161	-0.975742714641575	0.206290392623152
0.163	-0.975193019957789	0.208795256689168
0.165	-0.974637021960429	0.211298581299651
0.167	-0.974074722940071	0.21380035238439
0.169	-0.973506125275475	0.216300555822027
0.171	-0.972931231431482	0.218799177442618
0.173	-0.972350043957058	0.221296203030077
0.175	-0.971762565483406	0.223791618324491
0.177	-0.971168798722209	0.226285409024329
0.179	-0.970568746463934	0.228777560788543
0.181	-0.969962411576242	0.231268059238566
0.183	-0.969349797002466	0.233756889960226
0.185	-0.968730905760173	0.236244038505563
0.187	-0.968105740939785	0.238729490394571
0.189	-0.967474305703274	0.241213231116855
0.191	-0.966836603282928	0.243695246133226
0.193	-0.96619263698015	0.24617552087721
0.195	-0.965542410164338	0.248654040756509
0.197	-0.964885926271805	0.251130791154391
0.199	-0.96422318880475	0.253605757431023
0.201	-0.963554201330273	0.25607892492475
0.203	-0.962878967479436	0.258550278953323
0.205	-0.962197490946375	0.261019804815076
0.207	-0.961509775487427	0.263487487790057
0.209	-0.960815824920314	0.265953313141112
0.211	-0.960115643123364	0.268417266114938
0.213	-0.959409234034745	0.270879331943077
0.215	-0.958696601651751	0.273339495842893
0.217	-0.957977750030106	0.275797743018499
0.219	-0.957252683283299	0.278254058661652
0.221	-0.956521405581951	0.280708427952626
0.223	-0.955783921153194	0.283160836061037
0.225	-0.95504023428009	0.285611268146656
0.227	-0.954290349301066	0.288059709360183
0.229	-0.953534270609358	0.290506144843995
0.231	-0.952772002652504	0.292950559732875
0.233	-0.952003549931827	0.295392939154714
0.235	-0.95122891700196	0.297833268231185
0.237	-0.950448108470372	0.300271532078405
0.239	-0.949661128996918	0.302707715807564
0.241	-0.948867983293409	0.305141804525546
0.243	-0.948068676123185	0.307573783335522
0.245	-0.947263212300721	0.310003637337529
0.247	-0.946451596691226	0.312431351629032
0.249	-0.945633834210275	0.314856911305468
0.251	-0.944809929823432	0.317280301460769
0.253	-0.943979888545917	0.319701507187884
0.255	-0.943143715442243	0.322120513579267
0.257	-0.942301415625901	0.324537305727368
0.259	-0.941452994259037	0.326951868725104
0.261	-0.940598456552138	0.329364187666311
0.263	-0.939737807763738	0.331774247646197
0.265	-0.938871053200124	0.334182033761769
0.267	-0.937998198215061	0.336587531112262
0.269	-0.937119248209503	0.338990724799542
0.271	-0.936234208631349	0.341391599928518
0.273	-0.935343084975166	0.343790141607524
0.275	-0.934445882781952	0.346186334948704
0.277	-0.933542607638885	0.348580165068383
0.279	-0.932633265179095	0.350971617087434
0.281	-0.931717861081423	0.353360676131627
0.283	-0.930796401070208	0.355747327331981
0.285	-0.929868890915061	0.358131555825097
0.287	-0.92893533643066	0.360513346753494
0.289	-0.927995743476537	0.362892685265927
0.291	-0.927050117956887	0.365269556517712
0.293	-0.926098465820356	0.367643945671027
0.295	-0.925140793059864	0.370015837895219
0.297	-0.924177105712413	0.372385218367102
0.299	-0.923207409858906	0.374752072271244
0.301	-0.922231711623963	0.377116384800257
0.303	-0.921250017175759	0.37947814115507
0.305	-0.920262332725844	0.381837326545208
0.307	-0.919268664528982	0.384193926189059
0.309	-0.918269018882981	0.386547925314133
0.311	-0.91726340212855	0.38889930915733
0.313	-0.91625182064913	0.391248062965181
0.315	-0.915234280870742	0.393594171994109
0.317	-0.914210789261846	0.395937621510666
0.319	-0.913181352333192	0.398278396791777
0.321	-0.912145976637667	0.40061648312497
0.323	-0.911104668770171	0.40295186580862
0.325	-0.910057435367468	0.405284530152165
0.327	-0.909004283108056	0.40761446147634
0.329	-0.907945218712026	0.409941645113388
0.331	-0.906880248940945	0.412266066407287
0.333	-0.905809380597718	0.414587710713961
0.335	-0.904732620526463	0.416906563401484
0.337	-0.903649975612391	0.419222609850298
0.339	-0.902561452781682	0.421535835453409
0.341	-0.901467059001369	0.423846225616595
0.343	-0.90036680127921	0.426153765758597
0.345	-0.899260686663586	0.428458441311323
0.347	-0.898148722243376	0.430760237720033
0.349	-0.897030915147848	0.433059140443532
0.351	-0.89590727254655	0.435355134954362
0.353	-0.894777801649198	0.437648206738982
0.355	-0.893642509705571	0.43993834129795
0.357	-0.892501404005399	0.442225524146108
0.359	-0.891354491878269	0.444509740812758
0.361	-0.890201780693502	0.446790976841834
0.363	-0.889043277860077	0.449069217792083
0.365	-0.887878990826506	0.45134444923723
0.367	-0.88670892708075	0.453616656766149
0.369	-0.885533094150109	0.455885825983036
0.371	-0.884351499601134	0.458151942507567
0.373	-0.883164151039526	0.460414991975066
0.375	-0.881971056110039	0.462674960036664
0.377	-0.88077222249639	0.464931832359466
0.379	-0.879567657921163	0.467185594626698
0.381	-0.878357370145714	0.469436232537876
0.383	-0.877141366970084	0.471683731808951
0.385	-0.875919656232906	0.473928078172468
0.387	-0.874692245811317	0.476169257377718
0.389	-0.873459143620865	0.478407255190885
0.391	-0.872220357615423	0.480642057395199
0.393	-0.870975895787101	0.48287364979108
0.395	-0.869725766166162	0.485102018196285
0.397	-0.868469976820933	0.487327148446056
0.399	-0.867208535857716	0.489549026393258
0.401	-0.865941451420709	0.491767637908524
0.403	-0.864668731691924	0.493982968880399
0.405	-0.863390384891091	0.49619500521547
0.407	-0.862106419275589	0.498403732838517
0.409	-0.86081684314035	0.500609137692638
0.411	-0.859521664817793	0.502811205739395
0.413	-0.858220892677728	0.505009922958942
0.415	-0.856914535127282	0.507205275350164
0.417	-0.855602600610816	0.509397248930804
0.419	-0.854285097609848	0.511585829737601
0.421	-0.852962034642969	0.513771003826414
0.423	-0.851633420265766	0.51595275727236
0.425	-0.850299263070743	0.518131076169933
0.427	-0.848959571687243	0.520305946633139
0.429	-0.847614354781368	0.52247735479562
0.431	-0.846263621055903	0.524645286810779
0.433	-0.844907379250239	0.526809728851909
0.435	-0.84354563814029	0.52897066711231
0.437	-0.842178406538426	0.531128087805421
0.439	-0.840805693293389	0.533281977164933
0.441	-0.83942750729022	0.535432321444918
0.443	-0.838043857450179	0.537579106919948
0.445	-0.836654752730676	0.539722319885211
0.447	-0.835260202125188	0.541861946656636
0.449	-0.83386021466319	0.543997973571005
0.451	-0.832454799410075	0.546130386986077
0.453	-0.831043965467081	0.548259173280701
0.455	-0.829627721971222	0.550384318854933
0.457	-0.828206078095199	0.552505810130153
0.459	-0.826779043047342	0.554623633549175
0.461	-0.825346626071526	0.55673777557637
0.463	-0.823908836447099	0.558848222697768
0.465	-0.822465683488813	0.560954961421182
0.467	-0.821017176546738	0.563057978276312
0.469	-0.819563325006204	0.565157259814858
0.471	-0.818104138287718	0.567252792610638
0.473	-0.816639625846892	0.569344563259687
0.475	-0.815169797174371	0.571432558380377
0.477	-0.813694661795759	0.573516764613515
0.479	-0.812214229271547	0.575597168622465
0.481	-0.81072850919704	0.577673757093245
0.483	-0.809237511202283	0.579746516734639
0.485	-0.807741244951991	0.581815434278304
0.487	-0.806239720145469	0.583880496478876
0.489	-0.80473294651655	0.58594169011407
0.491	-0.803220933833517	0.587999001984798
0.493	-0.801703691899027	0.590052418915263
0.495	-0.800181230550041	0.592101927753063
0.497	-0.798653559657761	0.594147515369305
0.499	-0.79712068912754	0.596189168658695
0.501	-0.795582628898823	0.598226874539651
0.503	-0.794039388945067	0.600260619954398
0.505	-0.792490979273679	0.602290391869077
0.507	-0.79093740992593	0.60431617727384
0.509	-0.789378690976893	0.606337963182956
0.511	-0.787814832535364	0.608355736634902
0.513	-0.786245844743797	0.610369484692479
0.515	-0.784671737778223	0.612379194442896
0.517	-0.783092521848183	0.614384852997875
0.519	-0.781508207196659	0.616386447493755
0.521	-0.779918804099991	0.61838396509158
0.523	-0.778324322867816	0.620377392977204
0.525	-0.776724773842987	0.622366718361387
0.527	-0.775120167401507	0.624351928479892
0.529	-0.77351051395245	0.626333010593578
0.531	-0.771895823937894	0.628309951988501
0.533	-0.770276107832849	0.630282739976011
0.535	-0.768651376145178	0.632251361892839
0.537	-0.767021639415528	0.634215805101199
0.539	-0.765386908217263	0.636176056988886
0.541	-0.763747193156379	0.638132104969359
0.543	-0.762102504871441	0.640083936481844
0.545	-0.76045285403351	0.642031538991426
0.547	-0.758798251346061	0.64397489998914
0.549	-0.757138707544919	0.645914006992062
0.551	-0.75547423339819	0.647848847543411
0.553	-0.753804839706169	0.649779409212629
0.555	-0.752130537301285	0.651705679595478
0.557	-0.750451337048024	0.653627646314136
0.559	-0.748767249842848	0.655545297017278
0.561	-0.747078286614134	0.65745861938018
0.563	-0.745384458322083	0.659367601104793
0.565	-0.743685775958667	0.661272229919849
0.567	-0.741982250547538	0.663172493580939
0.569	-0.740273893143966	0.665068379870611
0.571	-0.738560714834758	0.666959876598451
0.573	-0.73684272673819	0.668846971601181
0.575	-0.735119940003924	0.670729652742737
0.577	-0.733392365812943	0.672607907914367
0.579	-0.731660015377473	0.674481725034711
0.581	-0.72992289994091	0.676351092049894
0.583	-0.728181030777742	0.678215996933609
0.585	-0.726434419193482	0.68007642768721
0.587	-0.724683076524582	0.681932372339791
0.589	-0.722927014138369	0.683783818948275
0.591	-0.721166243432965	0.685630755597505
0.593	-0.719400775837214	0.687473170400324
0.595	-0.717630622810604	0.68931105149766
0.597	-0.715855795843195	0.691144387058614
0.599	-0.714076306455545	0.692973165280546
0.601	-0.712292166198627	0.694797374389154
0.603	-0.710503386653764	0.696617002638567
0.605	-0.708709979432545	0.698432038311417
0.607	-0.706911956176757	0.700242469718936
0.609	-0.705109328558298	0.702048285201028
0.611	-0.703302108279112	0.703849473126356
0.613	-0.701490307071109	0.705646021892433
0.615	-0.699673936696089	0.707437919925691
0.617	-0.697853008945662	0.70922515568157
0.619	-0.696027535641178	0.711007717644601
0.621	-0.694197528633648	0.712785594328489
0.623	-0.692362999803662	0.714558774276186
0.625	-0.690523961061321	0.716327246059983
0.627	-0.688680424346156	0.718090998281582
0.629	-0.68683240162705	0.719850019572187
0.631	-0.68497990490216	0.721604298592571
0.633	-0.683122946198847	0.723353824033168
0.635	-0.681261537573585	0.725098584614143
0.637	-0.679395691111899	0.726838569085485
0.639	-0.677525418928275	0.72857376622707
0.641	-0.675650733166091	0.730304164848753
0.643	-0.673771645997531	0.73202975379044
0.645	-0.671888169623513	0.733750521922168
0.647	-0.670000316273609	0.735466458144187
0.649	-0.668108098205968	0.737177551387031
0.651	-0.666211527707232	0.738883790611603
0.653	-0.664310617092463	0.740585164809248
0.655	-0.662405378705066	0.742281663001832
0.657	-0.660495824916703	0.74397327424182
0.659	-0.658581968127218	0.745659987612349
0.661	-0.656663820764561	0.747341792227309
0.663	-0.654741395284697	0.749018677231414
0.665	-0.652814704171546	0.750690631800288
0.667	-0.650883759936884	0.75235764514053
0.669	-0.648948575120276	0.754019706489794
0.671	-0.647009162288989	0.755676805116864
0.673	-0.645065534037917	0.757328930321732
0.675	-0.643117702989497	0.758976071435666
0.677	-0.641165681793629	0.760618217821292
0.679	-0.639209483127601	0.762255358872663
0.681	-0.637249119696003	0.763887484015337
0.683	-0.635284604230645	0.765514582706446
0.685	-0.633315949490483	0.767136644434775
0.687	-0.631343168261528	0.768753658720833
0.689	-0.629366273356779	0.770365615116925
0.691	-0.627385277616128	0.771972503207228
0.693	-0.625400193906285	0.773574312607858
0.695	-0.623411035120694	0.775171032966947
0.697	-0.621417814179458	0.776762653964718
0.699	-0.619420544029248	0.778349165313549
0.701	-0.617419237643227	0.779930556758049
0.703	-0.615413908020963	0.781506818075132
0.705	-0.613404568188354	0.783077939074083
0.707	-0.611391231197541	0.784643909596634
0.709	-0.60937391012682	0.786204719517028
0.711	-0.607352618080573	0.787760358742096
0.713	-0.605327368189172	0.789310817211328
0.715	-0.603298173608905	0.790856084896935
0.717	-0.601265047521885	0.792396151803927
0.719	-0.599228003135973	0.793931007970176
0.721	-0.597187053684697	0.795460643466496
0.723	-0.595142212427157	0.796985048396696
0.725	-0.59309349264795	0.79850421289766
0.727	-0.591040907657088	0.80001812713942
0.729	-0.588984470789906	0.801526781325209
0.731	-0.586924195406988	0.803030165691544
0.733	-0.584860094894069	0.804528270508281
0.735	-0.582792182661964	0.806021086078694
0.737	-0.58072047214648	0.807508602739543
0.739	-0.578644976808324	0.808990810861124
0.741	-0.576565710133026	0.810467700847359
0.743	-0.574482685630854	0.811939263135847
0.745	-0.572395916836719	0.813405488197932
0.747	-0.570305417310105	0.814866366538781
0.749	-0.568211200634975	0.816321888697437
0.751	-0.566113280419678	0.817772045246889
0.753	-0.56401167029688	0.81921682679414
0.755	-0.561906383923466	0.820656223980267
0.757	-0.559797434980455	0.822090227480495
0.759	-0.557684837172922	0.823518828004255
0.761	-0.555568604229901	0.824942016295247
0.763	-0.553448749904304	0.826359783131511
0.765	-0.551325287972837	0.827772119325486
0.767	-0.549198232235908	0.829179015724078
0.769	-0.547067596517542	0.83058046320872
0.771	-0.544933394665294	0.831976452695437
0.773	-0.542795640550163	0.833366975134911
0.775	-0.540654348066503	0.834752021512539
0.777	-0.538509531131939	0.836131582848503
0.779	-0.536361203687271	0.837505650197828
0.781	-0.534209379696397	0.838874214650444
0.783	-0.532054073146218	0.840237267331249
0.785	-0.529895298046552	0.841594799400174
0.787	-0.527733068430045	0.842946802052235
0.789	-0.525567398352088	0.844293266517614
0.791	-0.523398301890718	0.845634184061694
0.793	-0.521225793146537	0.846969545985142
0.795	-0.519049886242626	0.848299343623957
0.797	-0.516870595324446	0.849623568349535
0.799	-0.514687934559759	0.850942211568731
0.801	-0.512501918138531	0.852255264723916
0.803	-0.51031256027285	0.853562719293037
0.805	-0.50811987519683	0.854864566789678
0.807	-0.505923877166526	0.856160798763118
0.809	-0.503724580459841	0.857451406798393
0.811	-0.501521999376437	0.858736382516348
0.813	-0.499316148237652	0.860015717573707
0.815	-0.497107041386391	0.861289403663116
0.817	-0.494894693187063	0.862557432513219
0.819	-0.492679118025463	0.863819795888701
0.821	-0.490460330308703	0.865076485590351
0.823	-0.488238344465105	0.866327493455124
0.825	-0.486013174944125	0.86757281135619
0.827	-0.483784836216249	0.868812431203
0.829	-0.481553342772911	0.870046344941334
0.831	-0.479318709126394	0.87127454455336
0.833	-0.477080949809748	0.872497022057697
0.835	-0.47484007937669	0.873713769509463
0.837	-0.472596112401514	0.874924779000333
0.839	-0.470349063479005	0.876130042658598
0.841	-0.468098947224341	0.877329552649213
0.843	-0.465845778273	0.878523301173864
0.845	-0.463589571280674	0.879711280471005
0.847	-0.461330340923172	0.880893482815936
0.849	-0.459068101896329	0.882069900520834
0.851	-0.45680286891591	0.883240525934823
0.853	-0.454534656717526	0.884405351444025
0.855	-0.452263480056529	0.885564369471605
0.857	-0.449989353707928	0.886717572477837
0.859	-0.447712292466294	0.887864952960148
0.861	-0.445432311145665	0.889006503453178
0.863	-0.443149424579452	0.890142216528821
0.865	-0.440863647620349	0.891272084796298
0.867	-0.438574995140237	0.892396100902187
0.869	-0.436283482030087	0.893514257530486
0.871	-0.433989123199871	0.894626547402669
0.873	-0.431691933578468	0.895732963277727
0.875	-0.429391928113566	0.896833497952227
0.877	-0.42708912177157	0.897928144260362
0.879	-0.424783529537507	0.899016895074001
0.881	-0.422475166414933	0.900099743302734
0.883	-0.420164047425832	0.901176681893933
0.885	-0.417850187610531	0.902247703832797
0.887	-0.415533602027598	0.903312802142396
0.889	-0.413214305753746	0.904371969883734
0.891	-0.410892313883745	0.905425200155784
0.893	-0.408567641530319	0.90647248609555
0.895	-0.406240303824054	0.907513820878108
0.897	-0.403910315913303	0.908549197716651
0.899	-0.401577692964087	0.909578609862555
0.901	-0.399242450160002	0.910602050605403
0.903	-0.396904602702124	0.911619513273053
0.905	-0.394564165808907	0.912630991231676
0.907	-0.392221154716094	0.913636477885805
0.909	-0.389875584676616	0.914635966678384
0.911	-0.387527470960497	0.915629451090812
0.913	-0.385176828854758	0.916616924642994
0.915	-0.382823673663316	0.917598380893385
0.917	-0.380468020706895	0.918573813439034
0.919	-0.37810988532292	0.919543215915635
0.921	-0.375749282865428	0.920506581997568
0.923	-0.373386228704966	0.921463905397949
0.925	-0.371020738228492	0.922415179868674
0.927	-0.368652826839283	0.923360399200459
0.929	-0.366282509956834	0.924299557222896
0.931	-0.36390980301676	0.925232647804482
