# GHz S RI R 50
0.001	-0.999912421740129	0.001359667244355
0.003	-0.999842038912574	0.00396887276183044
0.005	-0.999784738505816	0.00655809341891831
0.007	-0.99972898283	0.00913894595780211
0.009	-0.999671425435091	0.0117148081791632
0.011	-0.999610538578308	0.0142872217414604
0.013	-0.999545473410589	0.0168570406328814
0.015	-0.999475701003666	0.0194247937626866
0.017	-0.999400865741837	0.0219908333953606
0.019	-0.999320715178368	0.0245554063308902
0.021	-0.999235062631425	0.0271186919476523
0.023	-0.999143765585625	0.0296808242191384
0.025	-0.999046712433368	0.0322419052595512
0.027	-0.998943813930343	0.0348020140726891
0.029	-0.998834997466464	0.0373612124310552
0.031	-0.998720203095919	0.0399195489588285
0.033	-0.998599380708504	0.0424770620475034
0.035	-0.998472487965483	0.0450337819882078
0.037	-0.998339488761855	0.0475897325637313
0.039	-0.998200352059902	0.0501449322588728
0.041	-0.998055050990065	0.0526993951954331
0.043	-0.99790356214801	0.0552531318648373
0.045	-0.997745865038011	0.0578061497095396
0.047	-0.997581941627131	0.0603584535897421
0.049	-0.997411775984417	0.0629100461619611
0.051	-0.997235353986115	0.065460928189003
0.053	-0.997052663072757	0.0680110987959788
0.055	-0.9968636920474	0.0705605556834325
0.057	-0.996668430906807	0.0731092953060653
0.059	-0.996466870699249	0.0756573130236231
0.061	-0.996259003403984	0.0782046032290815
0.063	-0.996044821828508	0.0807511594581768
0.065	-0.995824319520467	0.0832969744835062
0.067	-0.995597490691816	0.0858420403957826
0.069	-0.995364330153119	0.0883863486743247
0.071	-0.995124833256485	0.0909298902484901
0.073	-0.994878995845713	0.0934726555514293
0.075	-0.99462681421261	0.0960146345673127
0.077	-0.994368285058575	0.0985558168729772
0.079	-0.994103405460668	0.101096191674776
0.081	-0.99383217284158	0.103635747841302
0.083	-0.993554584942921	0.106174473932527
0.085	-0.993270639801462	0.108712358225838
0.087	-0.992980335727857	0.111249388739364
0.089	-0.992683671287613	0.113785553252931
0.091	-0.992380645283975	0.11632083932693
0.093	-0.992071256742511	0.118855234319365
0.095	-0.991755504897219	0.121388725401273
0.097	-0.991433389177938	0.123921299570718
0.099	-0.991104909198934	0.126452943665509
0.101	-0.990770064748553	0.128983644374791
0.103	-0.99042885577977	0.131513388249623
0.105	-0.990081282401601	0.134042161712651
0.107	-0.989727344871232	0.136569951066979
0.109	-0.989367043586835	0.139096742504303
0.111	-0.98900037908096	0.141622522112399
0.113	-0.988627352014493	0.144147275882016
0.115	-0.988247963171072	0.146670989713237
0.117	-0.987862213451969	0.149193649421355
0.119	-0.987470103871346	0.151715240742313
0.121	-0.987071635551893	0.154235749337747
0.123	-0.986666809720775	0.156755160799661
0.125	-0.986255627705894	0.159273460654783
0.127	-0.985838090932407	0.161790634368601
0.129	-0.98541420091951	0.164306667349145
0.131	-0.984983959277429	0.166821544950502
0.133	-0.984547367704634	0.169335252476101
0.135	-0.984104427985244	0.171847775181792
0.137	-0.983655141986584	0.174359098278725
0.139	-0.983199511656936	0.176869206936047
0.141	-0.982737539023414	0.179378086283438
0.143	-0.982269226189981	0.181885721413492
0.145	-0.981794575335591	0.184392097383954
0.147	-0.981313588712453	0.18689719921983
0.149	-0.980826268644397	0.189401011915376
0.151	-0.98033261752533	0.191903520435969
0.153	-0.979832637817804	0.194404709719882
0.155	-0.979326332051658	0.196904564679955
0.157	-0.978813702822729	0.199403070205179
0.159	-0.978294752791657	0.201900211162198
0.161	-0.977769484682738	0.204395972396728
0.163	-0.977237901282865	0.206890338734912
0.165	-0.976700005440492	0.209383294984592
0.167	-0.976155800064697	0.211874825936537
0.169	-0.975605288124255	0.214364916365592
0.171	-0.975048472646793	0.216853551031788
0.173	-0.974485356717963	0.219340714681387
0.175	-0.973915943480674	0.221826392047891
0.177	-0.973340236134359	0.224310567852989
0.179	-0.97275823793428	0.226793226807481
0.181	-0.972169952190853	0.229274353612141
0.183	-0.971575382269034	0.231753932958558
0.185	-0.970974531587715	0.234231949529935
0.187	-0.970367403619142	0.236708388001854
0.189	-0.969754001888377	0.239183233043008
0.191	-0.96913432997279	0.241656469315911
0.193	-0.968508391501544	0.244128081477567
0.195	-0.967876190155136	0.246598054180126
0.197	-0.967237729664937	0.249066372071507
0.199	-0.966593013812764	0.251533019795996
0.201	-0.965942046430467	0.25399798199483
0.203	-0.965284831399527	0.256461243306748
0.205	-0.964621372650682	0.258922788368533
0.207	-0.963951674163565	0.261382601815531
0.209	-0.963275739966351	0.263840668282148
0.211	-0.962593574135422	0.266296972402332
0.213	-0.961905180795052	0.268751498810048
0.215	-0.961210564117094	0.271204232139721
0.217	-0.96050972832068	0.273655157026676
0.219	-0.959802677671939	0.276104258107563
0.221	-0.95908941648373	0.278551520020766
0.223	-0.958369949115364	0.280996927406798
0.225	-0.957644279972358	0.283440464908692
0.227	-0.956912413506186	0.285882117172369
0.229	-0.956174354214041	0.288321868847003
0.231	-0.955430106638615	0.290759704585378
0.233	-0.954679675367863	0.293195609044227
0.235	-0.953923065034805	0.295629566884565
0.237	-0.953160280317307	0.298061562772019
0.239	-0.95239132593789	0.300491581377137
0.241	-0.951616206663533	0.302919607375702
0.243	-0.950834927305492	0.305345625449032
0.245	-0.950047492719101	0.307769620284267
0.247	-0.949253907803624	0.310191576574663
0.249	-0.948454177502058	0.312611479019863
0.251	-0.947648306800984	0.315029312326174
0.253	-0.9468363007304	0.317445061206835
0.255	-0.946018164363567	0.31985871038227
0.257	-0.945193902816856	0.322270244580348
0.259	-0.9443635212496	0.324679648536634
0.261	-0.943527024863953	0.327086906994623
0.263	-0.942684418904747	0.32949200470599
0.265	-0.941835708659359	0.331894926430816
0.267	-0.940980899457572	0.33429565693782
0.269	-0.940119996671457	0.336694181004584
0.271	-0.939253005715233	0.339090483417772
0.273	-0.938379932045151	0.341484548973346
0.275	-0.937500781159378	0.343876362476781
0.277	-0.936615558597868	0.34626590874327
0.279	-0.935724269942256	0.348653172597932
0.281	-0.934826920815743	0.351038138876011
0.283	-0.933923516882981	0.353420792423072
0.285	-0.933014063849973	0.355801118095202
0.287	-0.932098567463962	0.358179100759196
0.289	-0.931177033513328	0.360554725292746
0.291	-0.930249467827488	0.362927976584629
0.293	-0.929315876276797	0.365298839534889
0.295	-0.928376264772446	0.367667299055015
0.297	-0.927430639266369	0.370033340068121
0.299	-0.926479005751149	0.372396947509118
0.301	-0.925521370259922	0.374758106324889
0.303	-0.924557738866292	0.377116801474459
0.305	-0.923588117684236	0.379473017929162
0.307	-0.922612512868011	0.381826740672805
0.309	-0.921630930612083	0.384177954701835
0.311	-0.92064337715102	0.386526645025498
0.313	-0.919649858759428	0.388872796665998
0.315	-0.91865038175185	0.391216394658659
0.317	-0.9176449524827	0.393557424052075
0.319	-0.916633577346169	0.395895869908266
0.321	-0.915616262776151	0.398231717302832
0.323	-0.91459301524616	0.400564951325103
0.325	-0.91356384126926	0.402895557078285
0.327	-0.912528747397979	0.405223519679609
0.329	-0.911487740224238	0.407548824260481
0.331	-0.910440826379272	0.409871455966619
0.333	-0.909388012533559	0.4121913999582
0.335	-0.908329305396741	0.414508641410002
0.337	-0.907264711717557	0.416823165511543
0.339	-0.906194238283767	0.419134957467219
0.341	-0.905117891922079	0.421444002496442
0.343	-0.904035679498082	0.42375028583378
0.345	-0.902947607916166	0.426053792729086
0.347	-0.90185368411947	0.428354508447635
0.349	-0.900753915089793	0.430652418270259
0.351	-0.899648307847536	0.432947507493475
0.353	-0.898536869451629	0.435239761429617
0.355	-0.897419606999471	0.437529165406967
0.357	-0.896296527626849	0.439815704769882
0.359	-0.895167638507885	0.442099364878923
0.361	-0.894032946854958	0.444380131110979
0.363	-0.892892459918647	0.446657988859397
0.365	-0.89174618498766	0.448932923534103
0.367	-0.890594129388767	0.451204920561729
0.369	-0.88943630048674	0.453473965385732
0.371	-0.888272705684285	0.455740043466523
0.373	-0.887103352421977	0.458003140281581
0.375	-0.885928248178199	0.460263241325577
0.377	-0.884747400469074	0.462520332110498
0.379	-0.883560816848403	0.464774398165758
0.381	-0.882368504907606	0.467025425038322
0.383	-0.881170472275649	0.469273398292822
0.385	-0.879966726618989	0.471518303511675
0.387	-0.878757275641511	0.473760126295198
0.389	-0.877542127084458	0.475998852261721
0.391	-0.87632128872638	0.478234467047713
0.393	-0.875094768383066	0.480466956307881
0.395	-0.873862573907474	0.482696305715293
0.397	-0.87262471318968	0.484922500961489
0.399	-0.871381194156821	0.487145527756596
0.401	-0.870132024773016	0.489365371829435
0.403	-0.868877213039316	0.491582018927636
0.405	-0.86761676699364	0.493795454817747
0.407	-0.866350694710718	0.496005665285345
0.409	-0.865079004302019	0.498212636135145
0.411	-0.863801703915705	0.50041635319111
0.413	-0.862518801736555	0.50261680229656
0.415	-0.861230305985911	0.504813969314279
0.417	-0.85993622492162	0.50700784012662
0.419	-0.858636566837969	0.509198400635622
0.421	-0.857331340065624	0.511385636763102
0.423	-0.856020552971568	0.513569534450774
0.425	-0.854704213959043	0.515750079660346
0.427	-0.853382331467494	0.517927258373634
0.429	-0.852054913972493	0.520101056592656
0.431	-0.850721969985698	0.522271460339746
0.433	-0.849383508054774	0.524438455657653
0.435	-0.848039536763346	0.526602028609646
0.437	-0.846690064730929	0.528762165279615
0.439	-0.845335100612875	0.53091885177218
0.441	-0.843974653100301	0.533072074212782
0.443	-0.842608730920046	0.535221818747798
0.445	-0.84123734283459	0.537368071544633
0.447	-0.839860497642007	0.539510818791827
0.449	-0.8384782041759	0.541650046699149
0.451	-0.837090471305337	0.543785741497705
0.453	-0.835697307934798	0.545917889440037
0.455	-0.834298723004104	0.548046476800214
0.457	-0.832894725488361	0.550171489873943
0.459	-0.831485324397904	0.552292914978662
0.461	-0.830070528778224	0.554410738453638
0.463	-0.828650347709916	0.556524946660067
0.465	-0.827224790308617	0.558635525981173
0.467	-0.825793865724935	0.560742462822303
0.469	-0.824357583144404	0.562845743611028
0.471	-0.822915951787408	0.564945354797236
0.473	-0.821468980909128	0.567041282853229
0.475	-0.820016679799471	0.569133514273823
0.477	-0.818559057783022	0.571222035576443
0.479	-0.817096124218969	0.573306833301217
0.481	-0.815627888501051	0.575387894011069
0.483	-0.814154360057483	0.577465204291822
0.485	-0.812675548350911	0.579538750752286
0.487	-0.811191462878335	0.581608520024354
0.489	-0.809702113171056	0.583674498763098
0.491	-0.808207508794607	0.585736673646865
0.493	-0.806707659348695	0.587795031377362
0.495	-0.805202574467136	0.589849558679761
0.497	-0.803692263817792	0.591900242302783
0.499	-0.80217673710251	0.593947069018797
0.501	-0.800656004057057	0.595990025623906
0.503	-0.799130074451058	0.598029098938049
0.505	-0.797598958087931	0.600064275805084
0.507	-0.796062664804825	0.602095543092883
0.509	-0.794521204472561	0.604122887693428
0.511	-0.792974586995555	0.606146296522894
0.513	-0.791422822311771	0.608165756521746
0.515	-0.789865920392642	0.610181254654829
0.517	-0.788303891243021	0.612192777911458
0.519	-0.786736744901096	0.614200313305503
0.521	-0.785164491438354	0.616203847875494
0.523	-0.783587140959486	0.618203368684692
0.525	-0.78200470360235	0.620198862821192
0.527	-0.780417189537885	0.622190317398006
0.529	-0.778824608970057	0.624177719553157
0.531	-0.777226972135793	0.626161056449761
0.533	-0.775624289304913	0.628140315276122
0.535	-0.774016570780067	0.630115483245817
0.537	-0.772403826896669	0.632086547597786
0.539	-0.770786068022831	0.634053495596418
0.541	-0.769163304559294	0.636016314531638
0.543	-0.767535546939373	0.637974991719001
0.545	-0.765902805628875	0.639929514499768
0.547	-0.76426509112605	0.641879870241005
0.549	-0.762622413961507	0.64382604633566
0.551	-0.760974784698166	0.645768030202658
0.553	-0.759322213931172	0.647705809286976
0.555	-0.757664712287847	0.649639371059743
0.557	-0.756002290427611	0.651568703018317
0.559	-0.754334959041915	0.653493792686369
0.561	-0.752662728854181	0.655414627613978
0.563	-0.750985610619727	0.657331195377703
0.565	-0.749303615125707	0.659243483580684
0.567	-0.747616753191036	0.661151479852712
0.569	-0.745925035666327	0.663055171850319
0.571	-0.744228473433819	0.664954547256867
0.573	-0.742527077407316	0.666849593782626
0.575	-0.740820858532107	0.66874029916486
0.577	-0.739109827784909	0.670626651167911
0.579	-0.737393996173793	0.672508637583283
0.581	-0.735673374738112	0.674386246229721
0.583	-0.733947974548441	0.676259464953305
0.585	-0.7322178067065	0.678128281627518
0.587	-0.730482882345088	0.67999268415334
0.589	-0.728743212628007	0.681852660459324
0.591	-0.726998808750007	0.683708198501687
0.593	-0.725249681936703	0.685559286264377
0.595	-0.723495843444509	0.687405911759172
0.597	-0.721737304560567	0.689248063025748
0.599	-0.719974076602681	0.691085728131768
0.601	-0.71820617091924	0.692918895172961
0.603	-0.716433598889152	0.694747552273202
0.605	-0.714656371921772	0.696571687584595
0.607	-0.712874501456832	0.698391289287551
0.609	-0.711087998964363	0.700206345590871
0.611	-0.709296875944638	0.702016844731826
0.613	-0.707501143928085	0.703822774976234
0.615	-0.705700814475224	0.705624124618542
0.617	-0.703895899176594	0.707420881981907
0.619	-0.70208640965268	0.709213035418268
0.621	-0.700272357553843	0.711000573308444
0.623	-0.698453754560238	0.712783484062184
0.625	-0.696630612381761	0.714561756118273
0.627	-0.694802942757955	0.716335377944593
0.629	-0.692970757457953	0.718104338038212
0.631	-0.691134068280394	0.719868624925456
0.633	-0.689292887053358	0.721628227161987
0.635	-0.687447225634288	0.723383133332886
0.637	-0.685597095909916	0.725133332052723
0.639	-0.683742509796192	0.726878811965642
0.641	-0.68188347923821	0.728619561745433
0.643	-0.680020016210133	0.730355570095611
0.645	-0.678152132715116	0.732086825749493
0.647	-0.676279840785238	0.733813317470272
0.649	-0.674403152481421	0.735535034051098
0.651	-0.67252207989336	0.737251964315149
0.653	-0.670636635139446	0.738964097115712
0.655	-0.668746830366689	0.740671421336253
0.657	-0.666852677750644	0.742373925890498
0.659	-0.664954189495344	0.744071599722507
0.661	-0.663051377833208	0.745764431806747
0.663	-0.661144255024978	0.747452411148168
0.665	-0.659232833359639	0.749135526782279
0.667	-0.65731712515434	0.75081376777522
0.669	-0.655397142754325	0.75248712322384
0.671	-0.653472898532851	0.754155582255768
0.673	-0.65154440489111	0.755819134029492
0.675	-0.649611674258159	0.757477767734421
0.677	-0.647674719090835	0.759131472590974
0.679	-0.645733551873683	0.760780237850642
0.681	-0.643788185118879	0.762424052796068
0.683	-0.641838631366148	0.764062906741113
0.685	-0.639884903182693	0.765696789030937
0.687	-0.637927013163108	0.767325689042065
0.689	-0.635964973929311	0.768949596182462
0.691	-0.633998798130455	0.770568499891607
0.693	-0.63202849844286	0.772182389640559
0.695	-0.630054087569925	0.773791254932036
0.697	-0.628075578242058	0.775395085300485
0.699	-0.626092983216589	0.776993870312145
0.701	-0.624106315277698	0.778587599565132
0.703	-0.622115587236326	0.780176262689498
0.705	-0.620120811930112	0.781759849347308
0.707	-0.618122002223296	0.783338349232711
0.709	-0.616119171006648	0.784911752072006
0.711	-0.614112331197393	0.786480047623718
0.713	-0.612101495739117	0.788043225678658
0.715	-0.610086677601701	0.789601276060008
0.717	-0.608067889781229	0.791154188623376
0.719	-0.606045145299919	0.792701953256872
0.721	-0.60401845720603	0.794244559881179
0.723	-0.601987838573791	0.795781998449618
0.725	-0.599953302503315	0.797314258948217
0.727	-0.597914862120518	0.798841331395782
0.729	-0.595872530577041	0.800363205843963
0.731	-0.593826321050164	0.801879872377326
0.733	-0.591776246742727	0.803391321113419
0.735	-0.589722320883046	0.804897542202828
0.737	-0.587664556724832	0.806398525829269
0.739	-0.585602967547114	0.807894262209636
0.741	-0.583537566654143	0.809384741594072
0.743	-0.581468367375324	0.810869954266039
0.745	-0.579395383065126	0.812349890542386
0.747	-0.577318627102999	0.81382454077341
0.749	-0.575238112893293	0.815293895342925
0.751	-0.573153853865175	0.816757944668331
0.753	-0.571065863472542	0.818216679200673
0.755	-0.568974155193943	0.819670089424716
0.757	-0.566878742532489	0.821118165859
0.759	-0.564779639015773	0.822560899055914
0.761	-0.562676858195788	0.823998279601756
0.763	-0.560570413648836	0.825430298116801
0.765	-0.558460318975452	0.826856945255361
0.767	-0.556346587800309	0.828278211705855
0.769	-0.554229233772145	0.829694088190871
0.771	-0.552108270563669	0.831104565467229
0.773	-0.549983711871481	0.832509634326043
0.775	-0.547855571415984	0.833909285592792
0.777	-0.545723862941297	0.835303510127371
0.779	-0.54358860021518	0.836692298824173
0.781	-0.54144979702893	0.838075642612127
0.783	-0.539307467197313	0.839453532454783
0.785	-0.537161624558469	0.840825959350365
0.787	-0.535012282973825	0.842192914331831
0.789	-0.532859456328014	0.843554388466942
0.791	-0.530703158528783	0.844910372858316
0.793	-0.528543403506908	0.846260858643498
0.795	-0.526380205216109	0.847605836995011
0.797	-0.524213577632964	0.84894529912043
0.799	-0.522043534756817	0.850279236262436
0.801	-0.519870090609693	0.851607639698871
0.803	-0.517693259236213	0.852930500742814
0.805	-0.515513054703501	0.854247810742623
0.807	-0.513329491101104	0.855559561082013
0.809	-0.511142582540894	0.8568657431801
0.811	-0.508952343156992	0.858166348491476
0.813	-0.506758787105665	0.859461368506253
0.815	-0.504561928565254	0.860750794750136
0.817	-0.502361781736069	0.862034618784473
0.819	-0.500158360840315	0.863312832206319
0.821	-0.497951680121994	0.864585426648488
0.823	-0.495741753846816	0.865852393779624
0.825	-0.493528596302114	0.867113725304244
0.827	-0.491312221796757	0.86836941296281
0.829	-0.489092644661048	0.869619448531773
0.831	-0.486869879246647	0.870863823823643
0.833	-0.484643939926478	0.872102530687041
0.835	-0.482414841094636	0.873335561006752
0.837	-0.480182597166298	0.87456290670379
0.839	-0.477947222577638	0.875784559735452
0.841	-0.475708731785724	0.877000512095367
0.843	-0.473467139268441	0.878210755813566
0.845	-0.471222459524395	0.879415282956524
0.847	-0.468974707072817	0.880614085627229
0.849	-0.466723896453481	0.881807155965223
0.851	-0.464470042226608	0.882994486146671
0.853	-0.462213158972773	0.884176068384411
0.855	-0.459953261292816	0.885351894928005
0.857	-0.457690363807753	0.886521958063796
0.859	-0.455424481158678	0.88768625011497
0.861	-0.453155628006675	0.888844763441595
0.863	-0.450883819032726	0.889997490440693
0.865	-0.448609068937617	0.891144423546273
0.867	-0.446331392441847	0.892285555229406
0.869	-0.444050804285535	0.893420877998265
0.871	-0.441767319228328	0.894550384398182
0.873	-0.439480952049307	0.895674067011698
0.875	-0.437191717546895	0.896791918458618
0.877	-0.434899630538761	0.897903931396068
0.879	-0.432604705861732	0.899010098518536
0.881	-0.430306958371699	0.900110412557938
0.883	-0.428006402943515	0.901204866283653
0.885	-0.42570305447091	0.902293452502593
0.887	-0.4233969278664	0.90337616405924
0.889	-0.421088038061182	0.904452993835702
0.891	-0.418776400005045	0.905523934751765
0.893	-0.416462028666281	0.906588979764942
0.895	-0.414144939031582	0.907648121870523
0.897	-0.411825146105954	0.908701354101629
0.899	-0.409502664912613	0.909748669529255
0.901	-0.407177510492898	0.910790061262326
0.903	-0.404849697906172	0.911825522447743
0.905	-0.402519242229727	0.91285504627043
0.907	-0.400186158558693	0.913878625953392
0.909	-0.397850462005938	0.914896254757755
0.911	-0.395512167701971	0.915907925982814
0.913	-0.393171290794853	0.916913632966088
0.915	-0.390827846450095	0.917913369083364
0.917	-0.388481849850568	0.918907127748744
0.919	-0.386133316196398	0.919894902414696
0.921	-0.38378226070488	0.920876686572092
0.923	-0.381428698610376	0.921852473750275
0.925	-0.379072645164217	0.922822257517079
0.927	-0.376714115634614	0.9237860314789
0.929	-0.374353125306552	0.924743789280725
