# GHZ S RI R 50.0
0.3 -0.6375168 -3.076086
0.3011484375 -2.159607 -2.623584
0.302296875 -3.317901 -1.299578
0.3034453125 -3.534444 0.5302836
0.30459375 -2.685226 2.106537
0.3057421875 -1.261015 2.858379
0.306890625 0.1069598 2.78535
0.3080390625 1.082388 2.212977
0.3091875 1.624279 1.454895
0.3103359375 1.811549 0.7068192
0.311484375 1.752332 0.05585079
0.3126328125 1.531554 -0.4647529
0.31378125 1.210163 -0.8492239
0.3149296875 0.8342359 -1.101997
0.316078125 0.4342259 -1.231969
0.3172265625 0.03931291 -1.244257
0.318375 -0.327373 -1.151804
0.3195234375 -0.6434596 -0.9636089
0.320671875 -0.8842306 -0.6956999
0.3218203125 -1.02826 -0.3722944
0.32296875 -1.062453 -0.02652635
0.3241171875 -0.9839455 0.3053123
0.325265625 -0.8058783 0.5825827
0.3264140625 -0.5575101 0.777479
0.3275625 -0.2720881 0.8749697
0.3287109375 0.01070825 0.8755457
0.329859375 0.2632354 0.7934784
0.3310078125 0.4657221 0.6492156
0.33215625 0.6071861 0.4643478
0.3333046875 0.6859771 0.2621045
0.334453125 0.7066026 0.05765963
0.3356015625 0.6751474 -0.1352739
0.33675 0.5989465 -0.3070676
0.3378984375 0.4855238 -0.4503866
0.339046875 0.3426196 -0.55967
0.3401953125 0.1779446 -0.6298699
0.34134375 -0.0004251441 -0.6574729
0.3424921875 -0.1827016 -0.6387708
0.343640625 -0.35897 -0.5714421
0.3447890625 -0.5166251 -0.4554331
0.3459375 -0.6406831 -0.2942623
0.3470859375 -0.7169513 -0.09596441
0.348234375 -0.7313241 0.1255303
0.3493828125 -0.674866 0.3506671
0.35053125 -0.5453316 0.553538
0.3516796875 -0.3523979 0.7078454
0.352828125 -0.1155275 0.7932441
0.3539765625 0.138203 0.797394
0.355125 0.3798551 0.7204472
0.3562734375 0.5841436 0.5731764
0.357421875 0.73335 0.3725262
0.3585703125 0.8168203 0.1389256
0.35971875 0.8310009 -0.107068
0.3608671875 0.7764628 -0.3481714
0.362015625 0.6578357 -0.5684954
0.3631640625 0.4834526 -0.7535785
0.3643125 0.2585865 -0.8924086
0.3654609375 -0.007289567 -0.9724652
0.366609375 -0.3020254 -0.9819663
0.3677578125 -0.6143057 -0.9073098
0.36890625 -0.9216742 -0.7374275
0.3700546875 -1.199371 -0.4591494
0.371203125 -1.409365 -0.0652467
0.3723515625 -1.501637 0.4412523
0.3735 -1.410839 1.037498
0.3746484375 -1.063629 1.663362
0.375796875 -0.3927637 2.201985
0.3769453125 0.6151557 2.456803
0.37809375 1.836889 2.170245
0.3792421875 2.908603 1.140147
0.380390625 3.258093 -0.5052454
0.3815390625 2.526715 -2.113888
0.3826875 1.03994 -2.929046
0.3838359375 -0.4484342 -2.769632
0.384984375 -1.439896 -2.005147
0.3861328125 -1.863778 -1.075173
0.38728125 -1.8615 -0.2420969
0.3884296875 -1.602314 0.3877952
0.389578125 -1.217539 0.8081299
0.3907265625 -0.7944666 1.040213
0.391875 -0.3848928 1.121039
0.3930234375 -0.01778328 1.08499
0.394171875 0.2880217 0.961484
0.3953203125 0.5255058 0.776535
0.39646875 0.6911291 0.5513871
0.3976171875 0.7836962 0.3053366
0.398765625 0.803629 0.05534635
0.3999140625 0.7550247 -0.1819139
0.4010625 0.6439829 -0.3898504
0.4022109375 0.4800031 -0.5533281
0.403359375 0.2773572 -0.6580179
0.4045078125 0.05559803 -0.6943563
0.40565625 -0.1635026 -0.659445
0.4068046875 -0.3548315 -0.5583508
0.407953125 -0.5000849 -0.4038148
0.4091015625 -0.5840852 -0.216764
0.41025 -0.602582 -0.01983464
0.4113984375 -0.5592474 0.165103
0.412546875 -0.4645607 0.3193478
0.4136953125 -0.3332917 0.4321083
0.41484375 -0.1810628 0.4979343
0.4159921875 -0.02317097 0.5156481
0.417140625 0.127904 0.4885572
0.4182890625 0.2619742 0.4224178
0.4194375 0.3706391 0.3237801
0.4205859375 0.4474369 0.2005169
0.421734375 0.4882008 0.06075401
0.4228828125 0.4895119 -0.08659799
0.42403125 0.449423 -0.2317156
0.4251796875 0.3681939 -0.3645374
0.426328125 0.2478346 -0.4733763
0.4274765625 0.09353341 -0.5468042
0.428625 -0.08598983 -0.5724227
0.4297734375 -0.277131 -0.5408562
0.430921875 -0.4613892 -0.444154
0.4320703125 -0.6166419 -0.2824667
0.43321875 -0.7185403 -0.06243555
0.4343671875 -0.7432477 0.2003351
0.435515625 -0.6728967 0.4775495
0.4366640625 -0.4972721 0.7379662
0.4378125 -0.2173941 0.9416744
0.4389609375 0.1554558 1.048099
0.440109375 0.5953885 1.01368
0.4412578125 1.061448 0.7908635
0.44240625 1.479457 0.3267758
0.4435546875 1.707223 -0.4233477
0.444703125 1.485173 -1.410971
0.4458515625 0.5116976 -2.259852
0.447 -0.9928268 -2.203496
0.4481484375 -1.978377 -1.09787
0.449296875 -1.960471 0.1379528
0.4504453125 -1.400549 0.9059694
0.45159375 -0.7434247 1.215342
0.4527421875 -0.1710203 1.227339
0.453890625 0.2695536 1.065079
0.4550390625 0.5753217 0.8071055
0.4561875 0.7547051 0.5046983
0.4573359375 0.8196236 0.1947305
0.458484375 0.7841921 -0.09436499
0.4596328125 0.6650735 -0.3378867
0.46078125 0.4843631 -0.517942
0.4619296875 0.266334 -0.6224464
0.463078125 0.03913344 -0.647131
0.4642265625 -0.1729382 -0.5979817
0.465375 -0.3481579 -0.4873386
0.4665234375 -0.4716362 -0.3334639
0.467671875 -0.5357687 -0.157801
0.4688203125 -0.5413798 0.02100157
0.46996875 -0.4936426 0.1852737
0.4711171875 -0.4024879 0.3219262
0.472265625 -0.2792607 0.4221646
0.4734140625 -0.1364015 0.4807209
0.4745625 0.01447666 0.4961995
0.4757109375 0.1618288 0.4691512
0.476859375 0.2949682 0.40205
0.4780078125 0.405333 0.3000397
0.47915625 0.4842137 0.1693572
0.4803046875 0.5244172 0.01822628
0.481453125 0.5199053 -0.1428902
0.4826015625 0.4680029 -0.3020266
0.48375 0.3676751 -0.445565
0.4848984375 0.2232778 -0.5581101
0.486046875 0.04206226 -0.6262832
0.4871953125 -0.161147 -0.636474
0.48834375 -0.3690307 -0.5807246
0.4894921875 -0.559683 -0.4566379
0.490640625 -0.709639 -0.269006
0.4917890625 -0.7981325 -0.03099668
0.4929375 -0.8081461 0.2369974
0.4940859375 -0.7293819 0.5099365
0.495234375 -0.559783 0.760383
0.4963828125 -0.3068657 0.9588334
0.49753125 0.01940574 1.079781
0.4986796875 0.3989906 1.096686
0.499828125 0.8044855 0.986007
0.5009765625 1.198753 0.7242086
0.502125 1.531145 0.2933538
0.5032734375 1.724934 -0.3167736
0.504421875 1.671096 -1.083072
0.5055703125 1.22609 -1.911808
0.50671875 0.2681435 -2.558559
0.5078671875 -1.118263 -2.607011
0.509015625 -2.413754 -1.736896
0.5101640625 -2.915593 -0.2269734
0.5113125 -2.461122 1.166327
0.5124609375 -1.483821 1.958583
0.513609375 -0.4496355 2.144204
0.5147578125 0.3952636 1.913589
0.51590625 0.9753422 1.454132
0.5170546875 1.294525 0.9045168
0.518203125 1.387535 0.3585475
0.5193515625 1.303642 -0.12217
0.5205 1.091921 -0.5027607
0.5216484375 0.8027223 -0.7658914
0.522796875 0.479768 -0.9104221
0.5239453125 0.1597769 -0.9456128
0.52509375 -0.1295552 -0.8884053
0.5262421875 -0.369285 -0.7598347
0.527390625 -0.5480697 -0.581853
0.5285390625 -0.6617217 -0.3742096
0.5296875 -0.7096478 -0.1578107
0.5308359375 -0.6965349 0.05274305
0.531984375 -0.6294531 0.2430779
0.5331328125 -0.5176608 0.4023098
0.53428125 -0.3709696 0.5212632
0.5354296875 -0.2011952 0.5938911
0.536578125 -0.02082184 0.6168995
0.5377265625 0.1568154 0.5892653
0.538875 0.3186668 0.5138045
0.5400234375 0.4523362 0.3954004
0.541171875 0.5461078 0.2436292
0.5423203125 0.5918836 0.07083504
0.54346875 0.5850912 -0.107834
0.5446171875 0.5252683 -0.2774591
0.545765625 0.4179894 -0.4205066
0.5469140625 0.2731083 -0.5254516
0.5480625 0.1038477 -0.5821836
0.5492109375 -0.07397999 -0.5865867
0.550359375 -0.2444746 -0.5388171
0.5515078125 -0.3930503 -0.4436512
0.55265625 -0.5076694 -0.3101802
0.5538046875 -0.5800591 -0.1495215
0.554953125 -0.6043791 0.02577724
0.5561015625 -0.5786732 0.2024263
0.55725 -0.5038218 0.3674132
0.5583984375 -0.3841956 0.5083713
0.559546875 -0.2261494 0.6136528
0.5606953125 -0.03879178 0.6733784
0.56184375 0.1657689 0.6787708
0.5629921875 0.3731096 0.6241018
0.564140625 0.5666101 0.5069768
0.5652890625 0.7284176 0.328435
0.5664375 0.8369541 0.09668417
0.5675859375 0.875118 -0.1763318
0.568734375 0.8255337 -0.4692755
0.5698828125 0.6766783 -0.7558983
0.57103125 0.4249932 -1.001395
0.5721796875 0.07736407 -1.169245
0.573328125 -0.3456669 -1.220117
0.5744765625 -0.8095144 -1.118045
0.575625 -1.261757 -0.8326303
0.5767734375 -1.629212 -0.3446409
0.577921875 -1.813861 0.3386283
0.5790703125 -1.6893 1.161277
0.58021875 -1.126467 1.967222
0.5813671875 -0.08691699 2.461714
0.582515625 1.195093 2.286762
0.5836640625 2.175674 1.357596
0.5848125 2.413826 0.09298997
0.5859609375 1.971422 -0.9502115
0.587109375 1.210112 -1.519773
0.5882578125 0.4363994 -1.661566
0.58940625 -0.2006082 -1.511091
0.5905546875 -0.6549385 -1.196662
0.591703125 -0.9300719 -0.8080589
0.5928515625 -1.046747 -0.4063281
0.594 -1.031255 -0.03361433
0.5951484375 -0.9121919 0.2823911
0.596296875 -0.7186556 0.5237511
0.5974453125 -0.4797007 0.6805247
0.59859375 -0.2229002 0.7504303
0.5997421875 0.02560532 0.7384855
0.600890625 0.2450259 0.6555865
0.6020390625 0.4164562 0.5174317
0.6031875 0.5308231 0.34258
0.6043359375 0.5831053 0.1531944
0.605484375 0.5755528 -0.0336261
0.6066328125 0.5152057 -0.2005747
0.60778125 0.4128453 -0.3357481
0.6089296875 0.2808367 -0.4299768
0.610078125 0.1326053 -0.4795364
0.6112265625 -0.0175593 -0.4838088
0.612375 -0.1589204 -0.4457964
0.6135234375 -0.2803555 -0.3703032
0.614671875 -0.3736175 -0.2651393
0.6158203125 -0.4323036 -0.1386332
0.61696875 -0.4517815 -0.001441801
0.6181171875 -0.4308842 0.1361144
0.619265625 -0.3699816 0.2625529
0.6204140625 -0.2735488 0.3669624
0.6215625 -0.1478055 0.4390317
0.6227109375 -0.003007555 0.4703962
0.623859375 0.1483626 0.4557106
0.6250078125 0.2922324 0.3934784
0.62615625 0.4129486 0.2858503
0.6273046875 0.4968641 0.1409357
0.628453125 0.5317048 -0.02926812
0.6296015625 0.5099748 -0.2079612
0.63075 0.4292189 -0.3777784
0.6318984375 0.2927091 -0.5193543
0.633046875 0.1092546 -0.6155699
0.6341953125 -0.1077636 -0.6508248
0.63534375 -0.3402926 -0.6134052
0.6364921875 -0.5669469 -0.4956315
0.637640625 -0.761808 -0.2928525
0.6387890625 -0.8958982 -0.006967115
0.6399375 -0.931901 0.3539536
0.6410859375 -0.8232183 0.7676278
0.642234375 -0.5108771 1.183771
0.6433828125 0.05822429 1.4921
0.64453125 0.8833601 1.486772
0.6456796875 1.733568 0.9013141
0.646828125 2.057575 -0.2597233
0.6479765625 1.492368 -1.358635
0.649125 0.469182 -1.767035
0.6502734375 -0.4034178 -1.547976
0.651421875 -0.9164084 -1.047121
0.6525703125 -1.110311 -0.5029649
0.65371875 -1.079773 -0.02738459
0.6548671875 -0.9081169 0.338647
0.656015625 -0.6580459 0.5826763
0.6571640625 -0.3774514 0.7110503
0.6583125 -0.102098 0.7371271
0.6594609375 0.1416758 0.6780591
0.660609375 0.3366244 0.5552959
0.6617578125 0.4712717 0.3917963
0.66290625 0.5433797 0.2076196
0.6640546875 0.5548272 0.02214667
0.665203125 0.5117661 -0.1480066
0.6663515625 0.4244386 -0.2903383
0.6675 0.3038957 -0.3958434
0.6686484375 0.1626609 -0.4586898
0.669796875 0.01374977 -0.4767393
0.6709453125 -0.1310604 -0.4511337
0.67209375 -0.259776 -0.3854786
0.6732421875 -0.3626609 -0.285886
0.674390625 -0.4316547 -0.1611654
0.6755390625 -0.4607166 -0.02161486
0.6766875 -0.4469616 0.1210213
0.6778359375 -0.3909088 0.2541375
0.678984375 -0.2963901 0.3653701
0.6801328125 -0.1713098 0.4437442
0.68128125 -0.02606119 0.4811057
0.6824296875 0.1255123 0.4719484
0.683578125 0.2693495 0.4164375
0.6847265625 0.3912056 0.3179352
0.685875 0.4787436 0.1850675
0.6870234375 0.5225999 0.02884647
0.688171875 0.5173413 -0.1356229
0.6893203125 0.4618254 -0.2946654
0.69046875 0.3589515 -0.4328333
0.6916171875 0.2160966 -0.5372781
0.692765625 0.04340397 -0.5972051
0.6939140625 -0.1455407 -0.6038547
0.6950625 -0.3366733 -0.5528705
0.6962109375 -0.5127113 -0.4432451
0.697359375 -0.6571539 -0.2780848
0.6985078125 -0.7524294 -0.06391785
0.69965625 -0.7818351 0.1861438
0.7008046875 -0.7304109 0.4543477
0.701953125 -0.5865495 0.7171932
0.7031015625 -0.3444389 0.9427783
0.70425 -0.007049702 1.093457
0.7053984375 0.4092464 1.126162
0.706546875 0.8639063 0.9951373
0.7076953125 1.295852 0.6621549
0.70884375 1.603253 0.1127257
0.7099921875 1.656173 -0.6140007
0.711140625 1.330133 -1.382138
0.7122890625 0.5895904 -1.949853
0.7134375 -0.4044356 -2.056147
0.7145859375 -1.314233 -1.607602
0.715734375 -1.825659 -0.7846072
0.7168828125 -1.848844 0.09708048
0.71803125 -1.501049 0.7918124
0.7191796875 -0.9676175 1.203456
0.720328125 -0.4026026 1.345741
0.7214765625 0.100141 1.277808
0.722625 0.4936565 1.066869
0.7237734375 0.7601379 0.7742725
0.724921875 0.9031012 0.447198
0.7260703125 0.9342738 0.1239377
0.72721875 0.8706651 -0.1683095
0.7283671875 0.7318407 -0.4098884
0.729515625 0.5407902 -0.5867203
0.7306640625 0.3183439 -0.6929564
0.7318125 0.0861609 -0.7270929
0.7329609375 -0.1359384 -0.6921903
0.734109375 -0.3299134 -0.5965716
0.7352578125 -0.4812449 -0.4527143
0.73640625 -0.5792915 -0.2759514
0.7375546875 -0.6185852 -0.08405381
0.738703125 -0.5992165 0.1053678
0.7398515625 -0.5261782 0.2757189
0.741 -0.4089296 0.4124675
0.7421484375 -0.2601339 0.5056852
0.743296875 -0.0944846 0.5496498
0.7444453125 0.07278331 0.543373
0.74559375 0.2274958 0.4896646
0.7467421875 0.3579543 0.3951432
0.747890625 0.4539319 0.2692498
0.7490390625 0.4895804 0.1178776
0.7501875 0.5007105 -0.03136129
0.7513359375 0.4695611 -0.1769357
0.752484375 0.3982239 -0.3080477
0.7536328125 0.2919209 -0.4141527
0.75478125 0.1584567 -0.4864731
0.7559296875 0.007564168 -0.5187309
0.757078125 -0.1492623 -0.5059037
0.7582265625 -0.2992261 -0.4471142
0.759375 -0.4293041 -0.3442119
0.7605234375 -0.526604 -0.2035436
0.761671875 -0.5796579 -0.03466532
0.7628203125 -0.5799013 0.1491809
0.76396875 -0.5222998 0.3316924
0.7651171875 -0.4078121 0.4953328
0.766265625 -0.2410723 0.6213682
0.7674140625 -0.03392597 0.6940609
0.7685625 0.1971029 0.6990067
0.7697109375 0.4316424 0.6284293
0.770859375 0.6448294 0.4785438
0.7720078125 0.8110182 0.2541379
0.77315625 0.9036309 -0.03323605
0.7743046875 0.8966045 -0.3623522
0.775453125 0.7676648 -0.7022043
0.7766015625 0.5001301 -1.00695
0.77775 0.09421078 -1.216642
0.7788984375 -0.4244495 -1.25546
0.780046875 -0.9777953 -1.048301
0.7811953125 -1.427498 -0.5557479
0.78234375 -1.594152 0.1583502
0.7834921875 -1.356079 0.8955977
0.784640625 -0.7653689 1.39645
0.7857890625 -0.04018054 1.512186
0.7869375 0.5845267 1.276713
0.7880859375 0.9773805 0.836744
0.789234375 1.120881 0.3405321
0.7903828125 1.060632 -0.1069419
0.79153125 0.8616224 -0.4498661
0.7926796875 0.5865563 -0.6685087
0.793828125 0.2881947 -0.7648692
0.7949765625 0.005932075 -0.7538483
0.796125 -0.2315561 -0.6592844
0.7972734375 -0.4080105 -0.5063615
0.798421875 -0.5161079 -0.3211959
0.7995703125 -0.5562482 -0.127178
0.80071875 -0.5352983 0.05552336
0.8018671875 -0.4634131 0.2116826
0.803015625 -0.3545028 0.3309828
0.8041640625 -0.2217323 0.4066303
0.8053125 -0.07973003 0.4376188
0.8064609375 0.05880867 0.4250383
0.807609375 0.182391 0.3735664
0.8087578125 0.2821136 0.2904206
0.80990625 0.350677 0.1841828
0.8110546875 0.383807 0.06425653
0.812203125 0.3795922 -0.05816853
0.8133515625 0.339003 -0.1727992
0.8145 0.2659325 -0.2693914
0.8156484375 0.1664939 -0.338883
0.816796875 0.05017627 -0.374946
0.8179453125 -0.07267898 -0.3732491
0.81909375 -0.1900532 -0.3326239
0.8202421875 -0.2901551 -0.2563551
0.821390625 -0.362384 -0.1507848
0.8225390625 -0.3981376 -0.02539111
0.8236875 -0.3925863 0.1074067
0.8248359375 -0.3440388 0.2350101
0.825984375 -0.2554534 0.3437694
0.8271328125 -0.1328805 0.4218052
0.82828125 0.01367796 0.459115
0.8294296875 0.1713864 0.448094
0.830578125 0.3263879 0.3845646
0.8317265625 0.4622506 0.2681633
0.832875 0.5614644 0.1024182
0.8340234375 0.60625 -0.1049737
0.835171875 0.577292 -0.3389981
0.8363203125 0.456661 -0.5767587
0.83746875 0.2291809 -0.7841115
0.8386171875 -0.1100804 -0.9079767
0.839765625 -0.5400152 -0.876488
0.8409140625 -0.9832484 -0.6077663
0.8420625 -1.275066 -0.06506902
0.8432109375 -1.202428 0.6354198
0.844359375 -0.6957694 1.186324
0.8455078125 0.01835364 1.316571
0.84665625 0.6106156 1.044721
0.8478046875 0.9185783 0.5816877
0.848953125 0.9630305 0.1173448
0.8501015625 0.8295457 -0.2512903
0.85125 0.601521 -0.4943937
0.8523984375 0.341321 -0.6161324
0.853546875 0.09090317 -0.6354188
0.8546953125 -0.1235782 -0.5761216
0.85584375 -0.2872269 -0.4625879
0.8569921875 -0.3949574 -0.3176235
0.858140625 -0.4467617 -0.1609952
0.8592890625 -0.4474367 -0.008827381
0.8604375 -0.4049912 0.1263735
0.8615859375 -0.3290896 0.2353356
0.862734375 -0.2297509 0.3124642
0.8638828125 -0.1178318 0.3549263
0.86503125 -0.003300243 0.3620024
0.8661796875 0.1045893 0.3363817
0.867328125 0.1975917 0.2820659
0.8684765625 0.2687716 0.2044186
0.869625 0.3133016 0.1112379
0.8707734375 0.328217 0.01049594
0.871921875 0.3127551 -0.08916406
0.8730703125 0.2688985 -0.1791073
0.87421875 0.2002698 -0.2512101
0.8753671875 0.1134968 -0.2993511
0.876515625 0.01648739 -0.3192618
0.8776640625 -0.08167834 -0.3087673
0.8788125 -0.1722534 -0.2692161
0.8799609375 -0.2464761 -0.2041834
0.881109375 -0.2977983 -0.1199765
0.8822578125 -0.3215943 -0.02414192
0.88340625 -0.3155284 0.07454427
0.8845546875 -0.2806779 0.1674301
0.885703125 -0.2196544 0.2465269
0.8868515625 -0.1377262 0.3047979
0.888 -0.04108414 0.3372216
0.8891484375 0.06247084 0.3404771
0.890296875 0.1644353 0.3133786
0.8914453125 0.2568215 0.2566222
0.89259375 0.3311772 0.1733878
0.8937421875 0.3803151 0.06861214
0.894890625 0.3978237 -0.05071663
0.8960390625 0.3792925 -0.1755859
0.8971875 0.3219396 -0.2955459
0.8983359375 0.2268406 -0.3989856
0.899484375 0.09715336 -0.4737914
0.9006328125 -0.05880514 -0.5082329
0.90178125 -0.2297644 -0.4921921
0.9029296875 -0.3997757 -0.4191084
0.904078125 -0.5500517 -0.2855248
0.9052265625 -0.6590952 -0.09522104
0.906375 -0.7044398 0.1414414
0.9075234375 -0.6649103 0.4055591
0.908671875 -0.5236523 0.6676733
0.9098203125 -0.2697683 0.8874027
0.91096875 0.0905433 1.013531
0.9121171875 0.5270438 0.9840168
0.913265625 0.9682281 0.7434789
0.9144140625 1.291017 0.2706461
0.9155625 1.346131 -0.3651826
0.9167109375 1.044456 -0.9752729
0.917859375 0.4579297 -1.334314
0.9190078125 -0.1955765 -1.331891
0.92015625 -0.708293 -1.032349
0.9213046875 -0.9844102 -0.5897524
0.922453125 -1.037082 -0.1394024
0.9236015625 -0.924406 0.2387178
0.92475 -0.7096748 0.5100309
0.9258984375 -0.4476264 0.6679437
0.927046875 -0.1786671 0.7222361
0.9281953125 0.06762913 0.689124
0.92934375 0.271744 0.5877743
0.9304921875 0.4207499 0.4396679
0.931640625 0.5095699 0.2655061
0.9327890625 0.5376718 0.0849088
0.9339375 0.5103598 -0.08475479
0.9350859375 0.4367702 -0.2292037
0.936234375 0.3286054 -0.3382049
0.9373828125 0.199417 -0.4058368
0.93853125 0.06249095 -0.4301274
0.9396796875 -0.06912592 -0.4131247
0.940828125 -0.1847655 -0.3602598
0.9419765625 -0.2761239 -0.2787378
0.943125 -0.3374405 -0.1778652
0.9442734375 -0.3662016 -0.06721405
0.945421875 -0.3614942 0.04396436
0.9465703125 -0.325969 0.1466193
0.94771875 -0.2636952 0.2332347
0.9488671875 -0.1805496 0.2973246
0.950015625 -0.08343361 0.3345839
0.9511640625 0.01958076 0.3421854
0.9523125 0.1201471 0.320006
0.9534609375 0.2101969 0.2695198
0.954609375 0.2819649 0.1946946
0.9557578125 0.3289917 0.1014184
0.95690625 0.3466155 -0.002400977
0.9580546875 0.3326276 -0.1081856
0.959203125 0.2870066 -0.2063503
0.9603515625 0.2131664 -0.2873086
0.9615 0.1169263 -0.3433296
0.9626484375 0.006306844 -0.3683553
0.963796875 -0.1085989 -0.3588653
0.9649453125 -0.2174433 -0.3143716
0.96609375 -0.3101995 -0.2374515
0.9672421875 -0.3771189 -0.1340486
0.968390625 -0.411152 -0.01192227
0.9695390625 -0.4074495 0.1188964
0.9706875 -0.3633008 0.2473014
0.9718359375 -0.2795928 0.3616301
0.972984375 -0.1598638 0.4504884
0.9741328125 -0.01090499 0.5022248
0.97528125 0.1572339 0.507488
0.9764296875 0.3322271 0.4580131
0.977578125 0.496659 0.3479685
0.9787265625 0.6308802 0.1756566
0.979875 0.7106009 -0.05457894
0.9810234375 0.7078586 -0.3303988
0.982171875 0.5933712 -0.625806
0.9833203125 0.3412367 -0.8945004
0.98446875 -0.05724334 -1.062999
0.9856171875 -0.5663453 -1.033151
0.986765625 -1.066786 -0.7140167
0.9879140625 -1.352401 -0.1101828
0.9890625 -1.241148 0.5884362
0.9902109375 -0.7571816 1.089106
0.991359375 -0.1324472 1.224762
0.9925078125 0.3949052 1.044356
0.99365625 0.7182416 0.6972268
0.9948046875 0.8390465 0.3138222
0.995953125 0.8037961 -0.02634424
0.9971015625 0.6665223 -0.2877649
0.99825 0.4744994 -0.4587229
0.9993984375 0.2636037 -0.5439175
