# GHZ S RI R 50.0
0.3 -0.9464183 0.1719872
0.3011484375 -0.7823648 0.4683649
0.302296875 -0.5415418 0.6676161
0.3034453125 -0.2711256 0.7612889
0.30459375 -0.01011213 0.7588721
0.3057421875 0.2150146 0.6806447
0.306890625 0.3896734 0.5493995
0.3080390625 0.5079012 0.3865695
0.3091875 0.5705911 0.2101307
0.3103359375 0.5817305 0.03449328
0.311484375 0.5473032 -0.1285797
0.3126328125 0.4737194 -0.2703803
0.31378125 0.3684545 -0.3850808
0.3149296875 0.2392788 -0.4658473
0.316078125 0.0943637 -0.5088817
0.3172265625 -0.0570216 -0.5104483
0.318375 -0.2038085 -0.469801
0.3195234375 -0.3345882 -0.3866957
0.320671875 -0.4359373 -0.2659456
0.3218203125 -0.4958529 -0.1171037
0.32296875 -0.504487 0.04396375
0.3241171875 -0.4596983 0.1994872
0.325265625 -0.3660066 0.3296882
0.3264140625 -0.237087 0.4191527
0.3275625 -0.09086579 0.4589312
0.3287109375 0.05454901 0.449311
0.329859375 0.1812147 0.3973624
0.3310078125 0.2818362 0.313717
0.33215625 0.3483052 0.2105671
0.3333046875 0.3809368 0.09880071
0.334453125 0.3822355 -0.01188193
0.3356015625 0.35526 -0.1146359
0.33675 0.3043366 -0.2038936
0.3378984375 0.2341032 -0.2755748
0.339046875 0.1490913 -0.3264285
0.3401953125 0.05423218 -0.3542444
0.34134375 -0.0452601 -0.3570934
0.3424921875 -0.1440621 -0.333569
0.343640625 -0.2353855 -0.283499
0.3447890625 -0.3117499 -0.2081961
0.3459375 -0.3658354 -0.1107248
0.3470859375 -0.3901933 0.003090489
0.348234375 -0.3782202 0.1229794
0.3493828125 -0.3276004 0.2376786
0.35053125 -0.2403046 0.3324356
0.3516796875 -0.1243552 0.3944705
0.352828125 0.006151166 0.4147014
0.3539765625 0.1358528 0.3906339
0.355125 0.2490996 0.3261821
0.3562734375 0.3340487 0.2311878
0.357421875 0.3841797 0.1166663
0.3585703125 0.3969011 -0.003706928
0.35971875 0.3742135 -0.1197908
0.3608671875 0.3204278 -0.2220772
0.362015625 0.2416463 -0.3040944
0.3631640625 0.1443954 -0.3607475
0.3643125 0.03558036 -0.3890368
0.3654609375 -0.07767065 -0.386829
0.366609375 -0.1880585 -0.3538316
0.3677578125 -0.2880329 -0.2904898
0.36890625 -0.3693273 -0.1986975
0.3700546875 -0.4238882 -0.08367661
0.371203125 -0.4435888 0.04886137
0.3723515625 -0.4224205 0.1888984
0.3735 -0.3547897 0.3227123
0.3746484375 -0.2419571 0.4345823
0.375796875 -0.09021765 0.5068728
0.3769453125 0.08523147 0.5242557
0.37809375 0.264267 0.4773566
0.3792421875 0.4191351 0.3658543
0.380390625 0.5260149 0.2025581
0.3815390625 0.56718 0.009017854
0.3826875 0.5356348 -0.1861018
0.3838359375 0.4373882 -0.3555347
0.384984375 0.2884836 -0.4772508
0.3861328125 0.1102385 -0.5387491
0.38728125 -0.07297945 -0.536492
0.3884296875 -0.2402552 -0.4746516
0.389578125 -0.3745229 -0.3646234
0.3907265625 -0.4637525 -0.2211737
0.391875 -0.5018878 -0.06077524
0.3930234375 -0.4879133 0.09998601
0.394171875 -0.4256966 0.2453653
0.3953203125 -0.3230556 0.3627552
0.39646875 -0.1903705 0.4418617
0.3976171875 -0.04100857 0.4756775
0.398765625 0.1109567 0.4610062
0.3999140625 0.2506032 0.3993506
0.4010625 0.363454 0.2961992
0.4022109375 0.4368031 0.161656
0.403359375 0.4618118 0.01042835
0.4045078125 0.4350579 -0.1403672
0.40565625 0.3591963 -0.2715121
0.4068046875 0.2446091 -0.3674495
0.407953125 0.1074533 -0.4171165
0.4091015625 -0.03389014 -0.4170371
0.41025 -0.161672 -0.370879
0.4113984375 -0.2615767 -0.2891527
0.412546875 -0.3262118 -0.1851613
0.4136953125 -0.3533193 -0.0721525
0.41484375 -0.3447469 0.03684312
0.4159921875 -0.3063608 0.1329708
0.417140625 -0.2449494 0.209842
0.4182890625 -0.1679375 0.2635722
0.4194375 -0.08289074 0.2922611
0.4205859375 0.003925919 0.2967715
0.421734375 0.08659156 0.278075
0.4228828125 0.159335 0.2384911
0.42403125 0.218219 0.1814242
0.4251796875 0.2593207 0.1109128
0.426328125 0.279265 0.03149954
0.4274765625 0.2762659 -0.05084864
0.428625 0.2496631 -0.1296066
0.4297734375 0.2003869 -0.198613
0.430921875 0.1321518 -0.2501082
0.4320703125 0.05006369 -0.2789551
0.43321875 -0.03738542 -0.280789
0.4343671875 -0.1213977 -0.2548396
0.435515625 -0.1929403 -0.2037976
0.4366640625 -0.2440058 -0.1332174
0.4378125 -0.269744 -0.0513699
0.4389609375 -0.2684846 0.03277051
0.440109375 -0.2420273 0.1102544
0.4412578125 -0.194849 0.1743632
0.44240625 -0.1325613 0.2203519
0.4435546875 -0.06167633 0.2455485
0.444703125 0.01173849 0.2493935
0.4458515625 0.08171266 0.2329966
0.447 0.14346 0.1987403
0.4481484375 0.1932791 0.1492246
0.449296875 0.2275644 0.08854176
0.4504453125 0.2443116 0.02058556
0.45159375 0.2418798 -0.05025761
0.4527421875 0.2197423 -0.1186224
0.453890625 0.1785147 -0.1794325
0.4550390625 0.1201983 -0.2273742
0.4561875 0.04858684 -0.2573628
0.4573359375 -0.03112643 -0.2649149
0.458484375 -0.111895 -0.2475004
0.4596328125 -0.1854521 -0.2047265
0.46078125 -0.2433791 -0.1395255
0.4619296875 -0.2781447 -0.05738352
0.463078125 -0.2847279 0.03262053
0.4642265625 -0.2616813 0.1210205
0.465375 -0.2112799 0.1974214
0.4665234375 -0.1393312 0.2534457
0.467671875 -0.05380484 0.283889
0.4688203125 0.0358657 0.2857815
0.46996875 0.1207124 0.2607476
0.4711171875 0.193628 0.2116069
0.472265625 0.2481234 0.1435435
0.4734140625 0.2802496 0.06301376
0.4745625 0.2873993 -0.02346746
0.4757109375 0.2692288 -0.1087541
0.476859375 0.2268097 -0.1858993
0.4780078125 0.1628229 -0.2483757
0.47915625 0.08179539 -0.2901843
0.4803046875 -0.010273 -0.3065965
0.481453125 -0.1055243 -0.2944461
0.4826015625 -0.194989 -0.2524213
0.48375 -0.2697354 -0.1824369
0.4848984375 -0.3198158 -0.08983735
0.486046875 -0.3380977 0.0173625
0.4871953125 -0.3196612 0.1280611
0.48834375 -0.2642581 0.2285292
0.4894921875 -0.1767922 0.3055068
0.490640625 -0.06657113 0.3491573
0.4917890625 0.052389 0.3527159
0.4929375 0.1656461 0.3151802
0.4940859375 0.2587126 0.2421857
0.495234375 0.3210302 0.1432913
0.4963828125 0.3469045 0.03068011
0.49753125 0.3341527 -0.08143292
0.4986796875 0.2868258 -0.1814313
0.499828125 0.2113296 -0.2597478
0.5009765625 0.1174908 -0.3087973
0.502125 0.01483162 -0.3256907
0.5032734375 -0.0862895 -0.3104436
0.504421875 -0.1766721 -0.2655987
0.5055703125 -0.2478771 -0.196003
0.50671875 -0.2940393 -0.1090167
0.5078671875 -0.3114036 -0.01290799
0.509015625 -0.2985068 0.08405137
0.5101640625 -0.2562418 0.1718395
0.5113125 -0.1890681 0.2418977
0.5124609375 -0.1028472 0.2877384
0.513609375 -0.007331532 0.3039717
0.5147578125 0.08852972 0.2887664
0.51590625 0.1738288 0.243827
0.5170546875 0.2397393 0.1742611
0.518203125 0.2789949 0.08832081
0.5193515625 0.2880744 -0.004103812
0.5205 0.26735 -0.09290213
0.5216484375 0.2207595 -0.1679663
0.522796875 0.1549452 -0.2233019
0.5239453125 0.07733089 -0.2544458
0.52509375 -0.003320384 -0.2603392
0.5262421875 -0.07973769 -0.2421856
0.527390625 -0.1453978 -0.2036228
0.5285390625 -0.1955665 -0.1489261
0.5296875 -0.2271762 -0.08370438
0.5308359375 -0.2386122 -0.01350585
0.531984375 -0.22971 0.05595607
0.5331328125 -0.2019242 0.1193874
0.53428125 -0.1577679 0.1721047
0.5354296875 -0.1004653 0.2099371
0.536578125 -0.03456904 0.2300576
0.5377265625 0.03431651 0.2303995
0.538875 0.1011078 0.210512
0.5400234375 0.1595204 0.1714954
0.541171875 0.2043587 0.1165298
0.5423203125 0.2307159 0.0502258
0.54346875 0.2357904 -0.02175169
0.5446171875 0.2185323 -0.09236185
0.545765625 0.1805189 -0.154177
0.5469140625 0.1253342 -0.201562
0.5480625 0.05848105 -0.2295979
0.5492109375 -0.01335922 -0.2358623
0.550359375 -0.08325437 -0.2204149
0.5515078125 -0.1449046 -0.1849817
0.55265625 -0.1927033 -0.133288
0.5538046875 -0.223105 -0.07023474
0.554953125 -0.2339017 -0.001475933
0.5561015625 -0.2246047 0.06730204
0.55725 -0.1958247 0.1305087
0.5583984375 -0.1501543 0.1831356
0.559546875 -0.09074569 0.2209945
0.5606953125 -0.02222095 0.2406138
0.56184375 0.05027945 0.2397889
0.5629921875 0.1208724 0.2175741
0.564140625 0.1833206 0.1747176
0.5652890625 0.2317642 0.1136233
0.5664375 0.2603295 0.03905749
0.5675859375 0.2648992 -0.04278437
0.568734375 0.2437 -0.1249714
0.5698828125 0.1965617 -0.1981223
0.57103125 0.1271374 -0.2541037
0.5721796875 0.04171164 -0.2857251
0.573328125 -0.05116744 -0.2886824
0.5744765625 -0.1415005 -0.2610944
0.575625 -0.2191359 -0.2052814
0.5767734375 -0.2753887 -0.1268893
0.577921875 -0.3040574 -0.03401889
0.5790703125 -0.3019026 0.06413838
0.58021875 -0.2687723 0.1567951
0.5813671875 -0.2073216 0.2353487
0.582515625 -0.1247807 0.2908064
0.5836640625 -0.02752476 0.3182853
0.5848125 0.07463552 0.3142688
0.5859609375 0.1716878 0.2781056
0.587109375 0.2538732 0.2122028
0.5882578125 0.3122198 0.1223798
0.58940625 0.3393688 0.01652422
0.5905546875 0.3311612 -0.09485394
0.591703125 0.2862291 -0.1992631
0.5928515625 0.2081053 -0.2853271
0.594 0.1039439 -0.3414283
0.5951484375 -0.01490246 -0.3597732
0.596296875 -0.1343832 -0.3364767
0.5974453125 -0.2399722 -0.2729822
0.59859375 -0.3173677 -0.1767925
0.5997421875 -0.3569263 -0.05982897
0.600890625 -0.3535863 0.06275713
0.6020390625 -0.3089063 0.1753316
0.6031875 -0.229496 0.2643147
0.6043359375 -0.1267048 0.3195074
0.605484375 -0.01461005 0.3365602
0.6066328125 0.09380776 0.3159682
0.60778125 0.1865389 0.2627023
0.6089296875 0.2542164 0.1848819
0.610078125 0.2925192 0.09258944
0.6112265625 0.2996598 -0.00402515
0.612375 0.2769594 -0.09487405
0.6135234375 0.2289021 -0.172314
0.614671875 0.1613083 -0.2296812
0.6158203125 0.08151398 -0.2631285
0.61696875 -0.002836324 -0.2705564
0.6181171875 -0.08411822 -0.25282
0.619265625 -0.1551081 -0.2119768
0.6204140625 -0.209722 -0.1523097
0.6215625 -0.2432469 -0.07971775
0.6227109375 -0.2529088 -0.001131285
0.623859375 -0.2380234 0.07582436
0.6250078125 -0.2005028 0.143679
0.62615625 -0.144364 0.1958876
0.6273046875 -0.0757241 0.2275293
0.628453125 -0.001826306 0.236072
0.6296015625 0.06973981 0.2214226
0.63075 0.1319664 0.186003
0.6318984375 0.1790668 0.1342805
0.633046875 0.2074531 0.07222112
0.6341953125 0.2152972 0.00609945
0.63534375 0.2031838 -0.05778576
0.6364921875 0.1735618 -0.1133056
0.637640625 0.1300217 -0.1568636
0.6387890625 0.07684439 -0.1851816
0.6399375 0.01894564 -0.196719
0.6410859375 -0.03882827 -0.1913825
0.642234375 -0.09193324 -0.1700281
0.6433828125 -0.1363147 -0.1348345
0.64453125 -0.1687174 -0.08871149
0.6456796875 -0.1864865 -0.03556808
0.646828125 -0.1883701 0.02050728
0.6479765625 -0.1740029 0.07472444
0.649125 -0.1441947 0.1229965
0.6502734375 -0.101622 0.1602338
0.651421875 -0.04942305 0.1834314
0.6525703125 0.007761595 0.1903275
0.65371875 0.06443746 0.1795466
0.6548671875 0.1156043 0.1520126
0.656015625 0.1560848 0.1099628
0.6571640625 0.1819624 0.05768347
0.6583125 0.1906541 2.820317E-05
0.6594609375 0.1813173 -0.05735701
0.660609375 0.1552512 -0.1090233
0.6617578125 0.1150137 -0.150135
0.66290625 0.06457615 -0.1772305
0.6640546875 0.008698258 -0.187875
0.665203125 -0.04754516 -0.1816222
0.6663515625 -0.09915979 -0.1590838
0.6675 -0.141954 -0.122541
0.6686484375 -0.1721088 -0.07504589
0.669796875 -0.1871422 -0.02069983
0.6709453125 -0.1856623 0.03605764
0.67209375 -0.1676027 0.09021748
0.6732421875 -0.1339406 0.1370275
0.674390625 -0.08739021 0.1722349
0.6755390625 -0.03170839 0.1922166
0.6766875 0.02830714 0.1945147
0.6778359375 0.08694407 0.1782005
0.678984375 0.1385171 0.1442631
0.6801328125 0.1776481 0.09547588
0.68128125 0.1996516 0.03619799
0.6824296875 0.2021575 -0.02734594
0.683578125 0.1844682 -0.08899725
0.6847265625 0.1482207 -0.142361
0.685875 0.09677047 -0.1816815
0.6870234375 0.03592001 -0.2028389
0.688171875 -0.02845089 -0.2037264
0.6893203125 -0.08981486 -0.1848224
0.69046875 -0.1420155 -0.1480856
0.6916171875 -0.1802922 -0.09721892
0.692765625 -0.2010331 -0.03750331
0.6939140625 -0.2026202 0.02541959
0.6950625 -0.1852099 0.08589653
0.6962109375 -0.150445 0.1381335
0.697359375 -0.1015647 0.1775405
0.6985078125 -0.04289288 0.2004583
0.69965625 0.02021195 0.2046774
0.7008046875 0.08202395 0.1895281
0.701953125 0.1368043 0.1560502
0.7031015625 0.1788532 0.1070853
0.70425 0.204134 0.0470549
0.7053984375 0.209796 -0.01844327
0.706546875 0.1945087 -0.0829041
0.7076953125 0.159573 -0.1397403
0.70884375 0.1082326 -0.1830164
0.7099921875 0.04558685 -0.2080051
0.711140625 -0.02170125 -0.2117428
0.7122890625 -0.08687977 -0.1939476
0.7134375 -0.1426251 -0.1568057
0.7145859375 -0.1836365 -0.104119
0.715734375 -0.2058723 -0.0416861
0.7168828125 -0.2074826 0.02400248
0.71803125 -0.1888002 0.0863754
0.7191796875 -0.1522546 0.1394166
0.720328125 -0.1015989 0.1782477
0.7214765625 -0.04210318 0.1996538
0.722625 0.0206912 0.2020856
0.7237734375 0.08074112 0.1854761
0.724921875 0.132848 0.1517905
0.7260703125 0.1723225 0.1040994
0.72721875 0.1955087 0.04689326
0.7283671875 0.2004128 -0.01487079
0.729515625 0.1864 -0.07510012
0.7306640625 0.1546174 -0.1286476
0.7318125 0.108223 -0.1698302
0.7329609375 0.05093208 -0.1949236
0.734109375 -0.01151523 -0.2013242
0.7352578125 -0.07289954 -0.1878471
0.73640625 -0.1271733 -0.1561348
0.7375546875 -0.1688306 -0.1090702
0.738703125 -0.1936323 -0.05142337
0.7398515625 -0.1992392 0.01057867
0.741 -0.1854405 0.07098411
0.7421484375 -0.1539089 0.1236691
0.743296875 -0.1081918 0.1638478
0.7444453125 -0.05297271 0.187716
0.74559375 0.006271793 0.193908
0.7467421875 0.06407852 0.1819088
0.747890625 0.1152346 0.1534646
0.7490390625 0.1492668 0.1071938
0.7501875 0.1740619 0.05764619
0.7513359375 0.1832705 0.003100741
0.752484375 0.1760521 -0.0516961
0.7536328125 0.1530432 -0.1018768
0.75478125 0.1161844 -0.1436056
0.7559296875 0.06849566 -0.1726755
0.757078125 0.01369938 -0.1865567
0.7582265625 -0.04331524 -0.1833876
0.759375 -0.0973417 -0.1630582
0.7605234375 -0.1434964 -0.1271873
0.761671875 -0.1769994 -0.0782269
0.7628203125 -0.1943039 -0.02070408
0.76396875 -0.1931599 0.04005113
0.7651171875 -0.1730524 0.09837507
0.766265625 -0.1354646 0.1479675
0.7674140625 -0.08382989 0.1839571
0.7685625 -0.02333012 0.202385
0.7697109375 0.04050672 0.2011054
0.770859375 0.1010077 0.1801291
0.7720078125 0.1526619 0.1412013
0.77315625 0.1899959 0.08800135
0.7743046875 0.2094408 0.02575093
0.775453125 0.2089878 -0.04024118
0.7766015625 0.1883233 -0.1034863
0.77775 0.1489818 -0.1581147
0.7788984375 0.09399299 -0.1985754
0.780046875 0.02839383 -0.2206588
0.7811953125 -0.04205033 -0.2217537
0.78234375 -0.1107884 -0.2006138
0.7834921875 -0.1708895 -0.158256
0.784640625 -0.2153471 -0.09791587
0.7857890625 -0.2393746 -0.02459661
0.7869375 -0.2383476 0.05403097
0.7880859375 -0.2116155 0.1301582
0.789234375 -0.1598477 0.1944985
0.7903828125 -0.08861294 0.2390626
0.79153125 -0.004977216 0.2576982
0.7926796875 0.08108594 0.2467987
0.793828125 0.1593798 0.2070379
0.7949765625 0.219979 0.142515
0.796125 0.2548806 0.06117576
0.7972734375 0.259961 -0.02730514
0.798421875 0.2349484 -0.1117387
0.7995703125 0.1830266 -0.1819049
0.80071875 0.1115387 -0.2300295
0.8018671875 0.02909406 -0.2509466
0.803015625 -0.05456957 -0.2433032
0.8041640625 -0.1290705 -0.2090333
0.8053125 -0.1871723 -0.1532132
0.8064609375 -0.2232654 -0.08294065
0.807609375 -0.2341463 -0.006077883
0.8087578125 -0.2197343 0.06839661
0.80990625 -0.1831788 0.1332396
0.8110546875 -0.1286182 0.1816698
0.812203125 -0.06258933 0.2096043
0.8133515625 0.0075739 0.2148851
0.8145 0.07435962 0.197612
0.8156484375 0.1309214 0.16066
0.816796875 0.172004 0.1084579
0.8179453125 0.1937311 0.04717976
0.81909375 0.1946499 -0.01652411
0.8202421875 0.1754195 -0.07578233
0.821390625 0.1392993 -0.1245198
0.8225390625 0.09067278 -0.1582768
0.8236875 0.03565757 -0.174317
0.8248359375 -0.02008505 -0.1724215
0.825984375 -0.07075107 -0.1536226
0.8271328125 -0.1116177 -0.1210064
0.82828125 -0.1397344 -0.07879347
0.8294296875 -0.1531274 -0.03155743
0.830578125 -0.151643 0.0159616
0.8317265625 -0.1364201 0.0594327
0.832875 -0.1098299 0.09546602
0.8340234375 -0.07458698 0.1213666
0.835171875 -0.03431309 0.1354186
0.8363203125 0.007355122 0.1368254
0.83746875 0.04691719 0.1264546
0.8386171875 0.08121648 0.1052635
0.839765625 0.1072945 0.07520631
0.8409140625 0.1233365 0.03929694
0.8420625 0.1279644 0.0005911588
0.8432109375 0.1209959 -0.03741218
0.844359375 0.1030131 -0.07124654
0.8455078125 0.07593838 -0.09798838
0.84665625 0.04234168 -0.1151323
0.8478046875 0.00535577 -0.1211859
0.848953125 -0.03124671 -0.1155118
0.8501015625 -0.06397573 -0.09951448
0.85125 -0.08985278 -0.07433795
0.8523984375 -0.1065651 -0.04308784
0.853546875 -0.1128704 -0.00877783
0.8546953125 -0.108568 0.02518655
0.85584375 -0.09457693 0.05561636
0.8569921875 -0.07262371 0.08004191
0.858140625 -0.04483454 0.09649269
0.8592890625 -0.0140459 0.103879
0.8604375 0.01697734 0.1020852
0.8615859375 0.04568836 0.09139444
0.862734375 0.06971609 0.07309217
0.8638828125 0.08714541 0.04900619
0.86503125 0.09685528 0.02106506
0.8661796875 0.09806663 -0.008135803
0.867328125 0.09081717 -0.03645981
0.8684765625 0.07567352 -0.06136214
0.869625 0.05397082 -0.0805912
0.8707734375 0.02756498 -0.09253171
0.871921875 -0.001184058 -0.09626055
0.8730703125 -0.02968763 -0.09123457
0.87421875 -0.05538201 -0.07790066
0.8753671875 -0.07589423 -0.05763364
0.876515625 -0.08921004 -0.0319648
0.8776640625 -0.09417886 -0.003796644
0.8788125 -0.09037098 0.02451335
0.8799609375 -0.07836708 0.05002442
0.881109375 -0.05945689 0.07059083
0.8822578125 -0.03536012 0.08443321
0.88340625 -0.008633809 0.09035392
0.8845546875 0.01820422 0.08820274
0.885703125 0.04302782 0.07831522
0.8868515625 0.06368358 0.06193496
0.888 0.07860114 0.04035992
0.8891484375 0.08658354 0.01563122
0.890296875 0.08723949 -0.01010983
0.8914453125 0.0803862 -0.03492954
0.89259375 0.06681252 -0.05675543
0.8937421875 0.0475928 -0.07390361
0.894890625 0.02408632 -0.08488822
0.8960390625 -0.00173196 -0.08876492
0.8971875 -0.027746 -0.08497521
0.8983359375 -0.05195638 -0.07358207
0.899484375 -0.07214598 -0.05535161
0.9006328125 -0.08618886 -0.03177934
0.90178125 -0.09258655 -0.004584804
0.9029296875 -0.09055606 0.02358509
0.904078125 -0.08014092 0.05022797
0.9052265625 -0.06180496 0.07265449
0.906375 -0.03712923 0.08875996
0.9075234375 -0.00854823 0.09660684
0.908671875 0.02137069 0.09537021
0.9098203125 0.04971206 0.08489381
0.91096875 0.07361365 0.06622763
0.9121171875 0.09076132 0.04095165
0.913265625 0.09957463 0.01148656
0.9144140625 0.09890366 -0.01941624
0.9155625 0.08895371 -0.04889265
0.9167109375 0.0705317 -0.07408833
0.917859375 0.04495358 -0.09264458
0.9190078125 0.0146534 -0.1028107
0.92015625 -0.01747623 -0.1033643
0.9213046875 -0.0486455 -0.09393871
0.922453125 -0.07588582 -0.07528588
0.9236015625 -0.09634458 -0.04882587
0.92475 -0.1079358 -0.01681275
0.9258984375 -0.1090187 0.01763539
0.927046875 -0.09901606 0.05122822
0.9281953125 -0.07889797 0.08046409
0.92934375 -0.05009684 0.1020175
0.9304921875 -0.01547598 0.1134155
0.931640625 0.02131507 0.1132043
0.9327890625 0.05623897 0.1011334
0.9339375 0.08570094 0.07843195
0.9350859375 0.1063682 0.04738894
0.936234375 0.1158571 0.01136765
0.9373828125 0.1133837 -0.02590205
0.93853125 0.09928979 -0.06014464
0.9396796875 0.07513501 -0.0881016
0.940828125 0.04375957 -0.1067477
0.9419765625 0.008265973 -0.1146664
0.943125 -0.02773342 -0.1111272
0.9442734375 -0.06048793 -0.09673338
0.945421875 -0.0871907 -0.07297597
0.9465703125 -0.1052634 -0.04254377
0.94771875 -0.113051 -0.008139692
0.9488671875 -0.1099499 0.02699542
0.950015625 -0.09643071 0.05955532
0.9511640625 -0.07348257 0.08632306
0.9523125 -0.04337031 0.1049343
0.9534609375 -0.008919066 0.1134496
0.954609375 0.02657418 0.1111128
0.9557578125 0.05988771 0.09767317
0.95690625 0.08746801 0.07458188
0.9580546875 0.1065653 0.04376191
0.959203125 0.1151641 0.008407159
0.9603515625 0.1122137 -0.02798783
0.9615 0.09802534 -0.0616497
0.9626484375 0.07399847 -0.08925211
0.963796875 0.04252699 -0.107883
0.9649453125 0.006853512 -0.1156715
0.96609375 -0.02937059 -0.1121528
0.9672421875 -0.06263545 -0.09742393
0.968390625 -0.08969193 -0.07339418
0.9695390625 -0.1080008 -0.04210088
0.9706875 -0.1157453 -0.006919109
0.9718359375 -0.1125556 0.02910987
0.972984375 -0.09845307 0.06230138
0.9741328125 -0.07486351 0.08983397
0.97528125 -0.04405901 0.109085
0.9764296875 -0.008389461 0.1181069
0.977578125 0.0285258 0.1159877
0.9787265625 0.06359483 0.1025033
0.979875 0.09319129 0.07857833
0.9810234375 0.1143222 0.04619223
0.982171875 0.1246766 0.008242998
