# GHZ S RI R 50.0
0.3 -0.6643622 1.575678
0.3011484375 -0.08344726 1.548669
0.302296875 0.3921489 1.354584
0.3034453125 0.7325111 1.057291
0.30459375 0.9389178 0.7128506
0.3057421875 1.02362 0.3661675
0.306890625 1.009245 0.04494834
0.3080390625 0.9167784 -0.2334165
0.3091875 0.7676765 -0.4581811
0.3103359375 0.5789012 -0.6256268
0.311484375 0.3654411 -0.7340821
0.3126328125 0.1399113 -0.7837435
0.31378125 -0.08473241 -0.7749339
0.3149296875 -0.297926 -0.7097634
0.316078125 -0.4868002 -0.5909963
0.3172265625 -0.639549 -0.4232961
0.318375 -0.7427655 -0.2143607
0.3195234375 -0.7822505 0.02318633
0.320671875 -0.7470323 0.2708753
0.3218203125 -0.631412 0.5032714
0.32296875 -0.4395129 0.6919157
0.3241171875 -0.1884884 0.8082857
0.325265625 0.09350792 0.8328855
0.3264140625 0.3697378 0.7579623
0.3275625 0.6046297 0.593177
0.3287109375 0.7707061 0.3601908
0.329859375 0.8509153 0.08713287
0.3310078125 0.8409926 -0.1967942
0.33215625 0.744883 -0.4662471
0.3333046875 0.5685167 -0.6995959
0.334453125 0.3248461 -0.8767039
0.3356015625 0.02563493 -0.9827104
0.33675 -0.3183025 -1.000237
0.3378984375 -0.6907567 -0.9082273
0.339046875 -1.068407 -0.6785072
0.3401953125 -1.408258 -0.2765756
0.34134375 -1.631387 0.3420878
0.3424921875 -1.577437 1.198262
0.343640625 -0.9616812 2.18364
0.3447890625 0.5029776 2.778368
0.3459375 2.335261 2.020332
0.3470859375 2.970529 0.05227894
0.348234375 2.120228 -1.496208
0.3493828125 0.8586265 -2.014068
0.35053125 -0.1663636 -1.84293
0.3516796875 -0.8174448 -1.355675
0.352828125 -1.131069 -0.7784203
0.3539765625 -1.182669 -0.2365067
0.355125 -1.051609 0.2040509
0.3562734375 -0.8108348 0.5160735
0.357421875 -0.52112 0.6991256
0.3585703125 -0.2267848 0.7658888
0.35971875 0.04035991 0.7383099
0.3608671875 0.2624299 0.6402594
0.362015625 0.4284697 0.4941897
0.3631640625 0.5368351 0.3196217
0.3643125 0.5882317 0.1329213
0.3654609375 0.5859155 -0.05202383
0.366609375 0.5343187 -0.2240064
0.3677578125 0.4391187 -0.3727058
0.36890625 0.3070867 -0.4895221
0.3700546875 0.1458973 -0.5663322
0.371203125 -0.03419926 -0.5948184
0.3723515625 -0.2209965 -0.5695261
0.3735 -0.3990828 -0.4873501
0.3746484375 -0.5507571 -0.3483383
0.375796875 -0.656058 -0.1604345
0.3769453125 -0.6982725 0.06166771
0.37809375 -0.6636997 0.2961653
0.3792421875 -0.5496323 0.5148627
0.380390625 -0.3627509 0.6894153
0.3815390625 -0.1213955 0.7951771
0.3826875 0.1478538 0.8165254
0.3838359375 0.4155834 0.7497797
0.384984375 0.6541767 0.5989819
0.3861328125 0.841378 0.3764417
0.38728125 0.9583054 0.09977549
0.3884296875 0.991913 -0.2114414
0.389578125 0.9328685 -0.5396558
0.3907265625 0.7716176 -0.8616229
0.391875 0.5024145 -1.15182
0.3930234375 0.1178087 -1.378642
0.394171875 -0.384224 -1.496094
0.3953203125 -0.9933425 -1.440536
0.39646875 -1.66934 -1.123112
0.3976171875 -2.299246 -0.4301292
0.398765625 -2.629287 0.7189838
0.3999140625 -2.238758 2.177387
0.4010625 -0.8191301 3.316158
0.4022109375 1.145773 3.272566
0.403359375 2.558726 2.035246
0.4045078125 2.903383 0.4498105
0.40565625 2.458593 -0.8054944
0.4068046875 1.660789 -1.544167
0.407953125 0.8095655 -1.821698
0.4091015625 0.06459921 -1.760553
0.41025 -0.5034482 -1.483176
0.4113984375 -0.8785748 -1.091891
0.412546875 -1.071177 -0.6667438
0.4136953125 -1.11308 -0.261325
0.41484375 -1.039689 0.09017785
0.4159921875 -0.8850869 0.3692965
0.417140625 -0.680708 0.5703393
0.4182890625 -0.4519867 0.6945151
0.4194375 -0.219097 0.7477639
0.4205859375 0.003062969 0.738318
0.421734375 0.2026439 0.6751199
0.4228828125 0.369406 0.5678557
0.42403125 0.4981101 0.4266026
0.4251796875 0.5827674 0.2612564
0.426328125 0.6196256 0.08307136
0.4274765625 0.607432 -0.09651645
0.428625 0.5462735 -0.2656077
0.4297734375 0.4403504 -0.4092686
0.430921875 0.2969219 -0.5167748
0.4320703125 0.1276457 -0.5773172
0.43321875 -0.05190378 -0.5836049
0.4343671875 -0.2243682 -0.5348324
0.435515625 -0.3717285 -0.4358247
0.4366640625 -0.47966 -0.2979671
0.4378125 -0.5385183 -0.1364862
0.4389609375 -0.5448401 0.03071244
0.440109375 -0.5016972 0.1877148
0.4412578125 -0.416936 0.3209238
0.44240625 -0.3005917 0.4208913
0.4435546875 -0.1647821 0.4825343
0.444703125 -0.02044146 0.5035667
0.4458515625 0.1209714 0.4854322
0.447 0.2511184 0.4306135
0.4481484375 0.3619822 0.3439466
0.449296875 0.4457753 0.2313718
0.4504453125 0.4981262 0.09867503
0.45159375 0.5137509 -0.04485786
0.4527421875 0.4903401 -0.1915171
0.453890625 0.4264847 -0.3309934
0.4550390625 0.3225802 -0.4518563
0.4561875 0.1833248 -0.5428916
0.4573359375 0.01606062 -0.5926135
0.458484375 -0.1669856 -0.5907282
0.4596328125 -0.3492321 -0.5315001
0.46078125 -0.5122706 -0.414204
0.4619296875 -0.6365097 -0.245393
0.463078125 -0.7046829 -0.03851283
0.4642265625 -0.7050427 0.1880535
0.465375 -0.632727 0.4087779
0.4665234375 -0.4919836 0.6034262
0.467671875 -0.2929798 0.7507033
0.4688203125 -0.05139752 0.8345202
0.46996875 0.213405 0.844475
0.4711171875 0.4811306 0.7748441
0.472265625 0.7307976 0.6245279
0.4734140625 0.9417198 0.395661
0.4745625 1.090833 0.09356476
0.4757109375 1.154225 -0.2717911
0.476859375 1.103312 -0.6845849
0.4780078125 0.9068279 -1.117872
0.47915625 0.5284252 -1.526966
0.4803046875 -0.06476876 -1.835191
0.481453125 -0.8833135 -1.914704
0.4826015625 -1.851931 -1.57728
0.48375 -2.711908 -0.6166774
0.4848984375 -2.930465 0.9336785
0.486046875 -2.046594 2.459021
0.4871953125 -0.3934988 3.064994
0.48834375 1.110601 2.588179
0.4894921875 1.936722 1.56242
0.490640625 2.116998 0.5050242
0.4917890625 1.876583 -0.336411
0.4929375 1.420326 -0.8989519
0.4940859375 0.8901505 -1.199322
0.495234375 0.3758651 -1.283615
0.4963828125 -0.06903142 -1.206313
0.49753125 -0.4183246 -1.017199
0.4986796875 -0.662591 -0.7615244
0.499828125 -0.8027807 -0.4769795
0.5009765625 -0.8482555 -0.1915324
0.502125 -0.8133127 0.07196779
0.5032734375 -0.7118905 0.2981655
0.504421875 -0.5615675 0.4748207
0.5055703125 -0.3768762 0.5959899
0.50671875 -0.174361 0.6576946
0.5078671875 0.0308644 0.6596825
0.509015625 0.2233792 0.604845
0.5101640625 0.389349 0.498824
0.5113125 0.5156638 0.3504284
0.5124609375 0.5918283 0.1721263
0.513609375 0.610791 -0.02039734
0.5147578125 0.5702893 -0.2099068
0.51590625 0.472402 -0.3780775
0.5170546875 0.3273608 -0.5068339
0.518203125 0.1482506 -0.5835859
0.5193515625 -0.04597799 -0.6000315
0.5205 -0.2354934 -0.5544423
0.5216484375 -0.4009209 -0.4514071
0.522796875 -0.5267679 -0.3014909
0.5239453125 -0.6000252 -0.1203771
0.52509375 -0.6150311 0.07653525
0.5262421875 -0.5700608 0.2715751
0.527390625 -0.466636 0.4480595
0.5285390625 -0.3113017 0.5906125
0.5296875 -0.1131163 0.6851475
0.5308359375 0.1162076 0.7199835
0.531984375 0.3614995 0.6830701
0.5331328125 0.6037002 0.567325
0.53428125 0.8214601 0.3648285
0.5354296875 0.9847845 0.07316212
0.536578125 1.058096 -0.3051718
0.5377265625 0.9936373 -0.7556869
0.538875 0.7285871 -1.241682
0.5400234375 0.1864553 -1.67976
0.541171875 -0.6971368 -1.888029
0.5423203125 -1.852191 -1.525861
0.54346875 -2.752221 -0.2224827
0.5446171875 -2.408254 1.609662
0.545765625 -0.851595 2.558934
0.5469140625 0.616363 2.237815
0.5480625 1.372933 1.383502
0.5492109375 1.553633 0.5394686
0.550359375 1.404016 -0.1136242
0.5515078125 1.094449 -0.5543884
0.55265625 0.7262165 -0.8063598
0.5538046875 0.3597436 -0.9055476
0.554953125 0.02980854 -0.8859363
0.5561015625 -0.2431127 -0.7788624
0.55725 -0.4491559 -0.6122687
0.5583984375 -0.5840058 -0.4103424
0.559546875 -0.648599 -0.1940143
0.5606953125 -0.6473143 0.01897481
0.56184375 -0.5873803 0.2121969
0.5629921875 -0.4776013 0.3732914
0.564140625 -0.329888 0.4915021
0.5652890625 -0.15716 0.5594935
0.5664375 0.02440734 0.5730025
0.5675859375 0.2004601 0.5312503
0.568734375 0.3543428 0.4387167
0.5698828125 0.4722671 0.3042396
0.57103125 0.5423896 0.1399594
0.5721796875 0.5583283 -0.03734396
0.573328125 0.518342 -0.2107312
0.5744765625 0.42684 -0.3631858
0.575625 0.2934954 -0.4787165
0.5767734375 0.1314988 -0.548272
0.577921875 -0.04375719 -0.5654346
0.5790703125 -0.2162624 -0.5296721
0.58021875 -0.3710343 -0.4437273
0.5813671875 -0.4946665 -0.3162792
0.582515625 -0.5776938 -0.1564015
0.5836640625 -0.6125135 0.02362113
0.5848125 -0.5945478 0.2108484
0.5859609375 -0.5222664 0.3915265
0.587109375 -0.3973407 0.5508522
0.5882578125 -0.2253324 0.6748455
0.58940625 -0.01247588 0.7493697
0.5905546875 0.228237 0.7609823
0.591703125 0.4804406 0.6984103
0.5928515625 0.7235531 0.5532722
0.594 0.9315426 0.3212159
0.5951484375 1.073626 0.005631173
0.596296875 1.114973 -0.3805841
0.5974453125 1.019473 -0.8120777
0.59859375 0.7513559 -1.244345
0.5997421875 0.2819645 -1.61031
0.600890625 -0.3988399 -1.811775
0.6020390625 -1.25285 -1.706211
0.6031875 -2.137685 -1.124768
0.6043359375 -2.71532 0.03907859
0.605484375 -2.490118 1.554671
0.6066328125 -1.273017 2.683667
0.60778125 0.3196344 2.777195
0.6089296875 1.470495 2.017671
0.610078125 1.935388 0.997032
0.6112265625 1.889715 0.1026825
0.612375 1.564561 -0.5432399
0.6135234375 1.121399 -0.942173
0.614671875 0.6559203 -1.134765
0.6158203125 0.2235779 -1.165313
0.61696875 -0.1480515 -1.075188
0.6181171875 -0.4423701 -0.8991467
0.619265625 -0.6518919 -0.6677607
0.6204140625 -0.7750483 -0.4067183
0.6215625 -0.8136159 -0.1415443
0.6227109375 -0.7759361 0.1079183
0.623859375 -0.672567 0.3234768
0.6250078125 -0.5180697 0.490581
0.62615625 -0.3298677 0.5993469
0.6273046875 -0.1269503 0.6447637
0.628453125 0.07210731 0.6280313
0.6296015625 0.2497141 0.5553185
0.63075 0.3906912 0.4384663
0.6318984375 0.4869577 0.290541
0.633046875 0.5333123 0.127997
0.6341953125 0.5300063 -0.03457726
0.63534375 0.4818725 -0.1833504
0.6364921875 0.396129 -0.307454
0.637640625 0.2825987 -0.3991836
0.6387890625 0.1518223 -0.4537446
0.6399375 0.0147058 -0.4693544
0.6410859375 -0.1187273 -0.4469097
0.642234375 -0.238752 -0.3893468
0.6433828125 -0.3368996 -0.3025023
0.64453125 -0.4072127 -0.1922381
0.6456796875 -0.4443247 -0.06762508
0.646828125 -0.4454623 0.06320439
0.6479765625 -0.4096089 0.1900188
0.649125 -0.3393396 0.3022306
0.6502734375 -0.2385054 0.3912871
0.651421875 -0.1143581 0.4484917
0.6525703125 0.02309147 0.4674028
0.65371875 0.1624915 0.4452019
0.6548671875 0.2914669 0.3820619
0.656015625 0.3975599 0.2819274
0.6571640625 0.4705812 0.1526072
0.6583125 0.5025743 0.004939058
0.6594609375 0.4892422 -0.1479198
0.660609375 0.4304169 -0.2926128
0.6617578125 0.329953 -0.4155308
0.66290625 0.1955171 -0.5059308
0.6640546875 0.03696421 -0.5546265
0.665203125 -0.1332387 -0.555518
0.6663515625 -0.3017934 -0.5065165
0.6675 -0.4546093 -0.4076263
0.6686484375 -0.5785299 -0.2629173
0.669796875 -0.6594199 -0.0813246
0.6709453125 -0.6863603 0.1282015
0.67209375 -0.6495264 0.3500913
0.6732421875 -0.5422816 0.5673381
0.674390625 -0.3611622 0.7579955
0.6755390625 -0.1090509 0.8973309
0.6766875 0.2038272 0.9579476
0.6778359375 0.5572522 0.9119756
0.678984375 0.9179782 0.7322158
0.6801328125 1.236563 0.3985864
0.68128125 1.444617 -0.09509429
0.6824296875 1.450716 -0.7254319
0.683578125 1.14779 -1.412374
0.6847265625 0.4526981 -1.980929
0.685875 -0.5946367 -2.144787
0.6870234375 -1.682339 -1.637829
0.688171875 -2.284988 -0.531339
0.6893203125 -2.116323 0.6642613
0.69046875 -1.394741 1.45038
0.6916171875 -0.5343068 1.704617
0.692765625 0.194146 1.565143
0.6939140625 0.6966458 1.209974
0.6950625 0.9751188 0.7741849
0.6962109375 1.067089 0.3413452
0.697359375 1.017091 -0.04080831
0.6985078125 0.8658977 -0.3473146
0.69965625 0.6504931 -0.5672178
0.7008046875 0.4025342 -0.6965426
0.701953125 0.1474066 -0.7410183
0.7031015625 -0.09225588 -0.7083909
0.70425 -0.2981392 -0.6103762
0.7053984375 -0.4558765 -0.4623435
0.706546875 -0.5566846 -0.2814032
0.7076953125 -0.5950381 -0.08630908
0.70884375 -0.5723908 0.1046942
0.7099921875 -0.4945438 0.2733335
0.711140625 -0.3717099 0.4058854
0.7122890625 -0.2176415 0.491632
0.7134375 -0.04839136 0.5243602
0.7145859375 0.1192547 0.5034108
0.715734375 0.2689278 0.4332908
0.7168828125 0.3884722 0.3221206
0.71803125 0.4673219 0.1811661
0.7191796875 0.4990471 0.02397525
0.720328125 0.4818079 -0.1353075
0.7214765625 0.4169028 -0.282889
0.722625 0.3099711 -0.4049751
0.7237734375 0.1681032 -0.4909148
0.724921875 0.002734604 -0.5311525
0.7260703125 -0.1717912 -0.519355
0.72721875 -0.3418509 -0.4524436
0.7283671875 -0.4906543 -0.3305711
0.729515625 -0.6010489 -0.1590737
0.7306640625 -0.6558979 0.05195637
0.7318125 -0.639379 0.2871574
0.7329609375 -0.5402189 0.5242416
0.734109375 -0.3507067 0.7347656
0.7352578125 -0.07222307 0.8853369
0.73640625 0.2829565 0.9353569
0.7375546875 0.6831226 0.8414519
0.738703125 1.072231 0.5644972
0.7398515625 1.360487 0.07670504
0.741 1.410791 -0.5996895
0.7421484375 1.06593 -1.333339
0.743296875 0.2616087 -1.829264
0.7444453125 -0.7702304 -1.743831
0.74559375 -1.534239 -1.041023
0.7467421875 -1.711545 -0.1116391
0.747890625 -1.402852 0.6374694
0.7490390625 -0.8396788 1.013936
0.7501875 -0.3147107 1.128168
0.7513359375 0.1285532 1.042164
0.752484375 0.4536418 0.8354856
0.7536328125 0.6582184 0.5679506
0.75478125 0.7511646 0.2836174
0.7559296875 0.7484645 0.01355345
0.757078125 0.6679773 -0.220531
0.7582265625 0.5295801 -0.4043339
0.759375 0.3526709 -0.528182
0.7605234375 0.1576104 -0.588057
0.761671875 -0.03729966 -0.5855387
0.7628203125 -0.2146061 -0.5255452
0.76396875 -0.3595091 -0.4181558
0.7651171875 -0.4609643 -0.2758341
0.766265625 -0.5123983 -0.1144594
0.7674140625 -0.5120469 0.05097552
0.7685625 -0.4623724 0.2040684
0.7697109375 -0.3704748 0.332514
0.770859375 -0.2465361 0.4252985
0.7720078125 -0.1032005 0.4754973
0.77315625 0.04656545 0.4809047
0.7743046875 0.1896891 0.4423278
0.775453125 0.3143818 0.3638874
0.7766015625 0.4105296 0.2528707
0.77775 0.4706166 0.1184018
0.7788984375 0.4894666 -0.02851429
0.780046875 0.4649471 -0.1764427
0.7811953125 0.3976815 -0.3133583
0.78234375 0.2916344 -0.4280031
0.7834921875 0.1527769 -0.509159
0.784640625 -0.008886138 -0.5478612
0.7857890625 -0.181411 -0.5368473
0.7869375 -0.3504238 -0.4727237
0.7880859375 -0.4991947 -0.3557172
0.789234375 -0.6118457 -0.1909076
0.7903828125 -0.6718401 0.01115283
0.79153125 -0.6669219 0.2351592
0.7926796875 -0.5877026 0.4606376
0.793828125 -0.431605 0.6630836
0.7949765625 -0.2032306 0.8169967
0.796125 0.0845639 0.895815
0.7972734375 0.4100939 0.8746289
0.798421875 0.7401441 0.7338134
0.7995703125 1.03268 0.4609338
0.80071875 1.230953 0.05745168
0.8018671875 1.268743 -0.453029
0.803015625 1.075792 -1.00725
0.8041640625 0.6010783 -1.48513
0.8053125 -0.1273988 -1.710698
0.8064609375 -0.9431323 -1.518674
0.807609375 -1.556697 -0.8976535
0.8087578125 -1.736481 -0.06119971
0.80990625 -1.47623 0.6857364
0.8110546875 -0.9522172 1.150024
0.812203125 -0.3649435 1.306594
0.8133515625 0.1523183 1.2205
0.8145 0.5380411 0.9788703
0.8156484375 0.7767629 0.6598876
0.816796875 0.8770999 0.3215449
0.8179453125 0.8613018 0.006162343
0.81909375 0.7550253 -0.2589743
0.8202421875 0.5856152 -0.4569732
0.821390625 0.3808939 -0.5805708
0.8225390625 0.1655802 -0.6297502
0.8236875 -0.03860236 -0.6116936
0.8248359375 -0.2147201 -0.5374202
0.825984375 -0.3503042 -0.4211805
0.8271328125 -0.439427 -0.2793107
0.82828125 -0.4794477 -0.1266408
0.8294296875 -0.4734288 0.02260808
0.830578125 -0.4269725 0.1563305
0.8317265625 -0.3476215 0.2656346
0.832875 -0.2448129 0.3441666
0.8340234375 -0.1288808 0.388623
0.835171875 -0.008877226 0.3981213
0.8363203125 0.1053023 0.3740301
0.83746875 0.2058273 0.3200391
0.8386171875 0.2853096 0.2414739
0.839765625 0.33864 0.1450084
0.8409140625 0.3618494 0.0386418
0.8420625 0.3539003 -0.06888121
0.8432109375 0.3154228 -0.1692715
0.844359375 0.249592 -0.2541344
0.8455078125 0.1618772 -0.3156205
0.84665625 0.0599569 -0.3487144
0.8478046875 -0.04727009 -0.350111
0.848953125 -0.1501015 -0.3195683
0.8501015625 -0.239357 -0.2595924
0.85125 -0.3065088 -0.1757449
0.8523984375 -0.3460414 -0.07559092
0.853546875 -0.3536315 0.03208057
0.8546953125 -0.3293022 0.1372501
0.85584375 -0.2749629 0.2307912
0.8569921875 -0.1952034 0.3048562
0.858140625 -0.09651183 0.353032
0.8592890625 0.01321661 0.3708324
0.8604375 0.1248944 0.3562019
0.8615859375 0.2298887 0.3092417
0.862734375 0.3194598 0.2322527
0.8638828125 0.3851769 0.1298913
0.86503125 0.420285 0.008686486
0.8661796875 0.4188954 -0.1231874
0.867328125 0.3774994 -0.2555376
0.8684765625 0.294475 -0.3766177
0.869625 0.1722739 -0.4739807
0.8707734375 0.01575059 -0.5344436
0.871921875 -0.1656755 -0.5456147
0.8730703125 -0.3572285 -0.4959055
0.87421875 -0.5404166 -0.3776112
0.8753671875 -0.6912126 -0.1881892
0.876515625 -0.7809457 0.06889167
0.8776640625 -0.7760763 0.3790661
0.8788125 -0.6426473 0.7115204
0.8799609375 -0.3491121 1.012687
0.881109375 0.1174468 1.19399
0.8822578125 0.7124698 1.130909
0.88340625 1.276918 0.7068374
0.8845546875 1.530439 -0.04782968
0.885703125 1.268092 -0.8338717
0.8868515625 0.6221582 -1.277352
0.888 -0.06041612 -1.277447
0.8891484375 -0.5500077 -0.9871608
0.890296875 -0.7999461 -0.5917624
0.8914453125 -0.8560531 -0.2079028
0.89259375 -0.778478 0.1092328
0.8937421875 -0.6207218 0.3417944
0.894890625 -0.4228458 0.4871379
0.8960390625 -0.2141999 0.5524467
0.8971875 -0.01651407 0.5487415
0.8983359375 0.1540629 0.4885818
0.899484375 0.2870051 0.3865919
0.9006328125 0.3753765 0.2571844
0.90178125 0.4166773 0.1156449
0.9029296875 0.4121844 -0.02417343
0.904078125 0.3664817 -0.1493719
0.9052265625 0.2873464 -0.2494891
0.906375 0.1851911 -0.3170802
0.9075234375 0.071454 -0.3483939
0.908671875 -0.04251943 -0.3424584
0.9098203125 -0.1455883 -0.3030777
0.91096875 -0.228887 -0.2353564
0.9121171875 -0.2857788 -0.1478813
0.913265625 -0.3124563 -0.04917905
0.9144140625 -0.307957 0.05120757
0.9155625 -0.2737099 0.1438664
0.9167109375 -0.2137776 0.2212885
0.917859375 -0.1337782 0.2767744
0.9190078125 -0.04058225 0.3057663
0.92015625 0.0575471 0.3055303
0.9213046875 0.1521674 0.2754417
0.922453125 0.2350218 0.2172413
0.9236015625 0.2977626 0.1349203
0.92475 0.333753 0.03486872
0.9258984375 0.3375882 -0.07550281
0.927046875 0.3060597 -0.1859302
0.9281953125 0.2390305 -0.2856812
0.92934375 0.1392334 -0.3629391
0.9304921875 0.01360328 -0.4072805
0.931640625 -0.1278266 -0.4094711
0.9327890625 -0.2715839 -0.363337
0.9339375 -0.4011809 -0.2666942
0.9350859375 -0.4995661 -0.1221457
0.936234375 -0.5482222 0.06123487
0.9373828125 -0.5308682 0.2690853
0.93853125 -0.4341956 0.478515
0.9396796875 -0.2494601 0.6598243
0.940828125 0.02053262 0.7746853
0.9419765625 0.3567099 0.7758432
0.943125 0.7114863 0.6168208
0.9442734375 0.9959911 0.2691452
0.945421875 1.086776 -0.2346875
0.9465703125 0.8830177 -0.7603832
0.94771875 0.4048709 -1.104088
0.9488671875 -0.1710835 -1.128059
0.950015625 -0.6340262 -0.8658683
0.9511640625 -0.8764445 -0.4598582
0.9523125 -0.9035144 -0.04871299
0.9534609375 -0.7753267 0.2849596
0.954609375 -0.5586789 0.5100083
0.9557578125 -0.3078283 0.624455
0.95690625 -0.0619821 0.6416254
0.9580546875 0.15231 0.5805945
0.959203125 0.3185942 0.4629675
0.9603515625 0.4280187 0.3104314
0.9615 0.4786811 0.1437695
0.9626484375 0.4742071 -0.01862828
0.963796875 0.422165 -0.1625521
0.9649453125 0.3330362 -0.2760709
0.96609375 0.2194687 -0.3523554
0.9672421875 0.09445324 -0.3885641
0.968390625 -0.02999786 -0.3852265
0.9695390625 -0.1427195 -0.3462073
0.9706875 -0.2357164 -0.2780433
0.9718359375 -0.3017361 -0.1884969
0.972984375 -0.3376409 -0.08647719
0.9741328125 -0.342343 0.01890591
0.97528125 -0.3167997 0.1194796
0.9764296875 -0.2637731 0.2070925
0.977578125 -0.1884415 0.2749119
0.9787265625 -0.09727073 0.3179598
0.979875 0.002461648 0.3329211
0.9810234375 0.1027219 0.3178184
0.982171875 0.1949355 0.2742441
0.9833203125 0.2710655 0.2046362
0.98446875 0.3242221 0.1143623
0.9856171875 0.3485125 0.01087017
0.986765625 0.3406686 -0.09718892
0.9879140625 0.300013 -0.200128
0.9890625 0.2290891 -0.2878686
0.9902109375 0.1326715 -0.3515256
0.991359375 0.0187358 -0.3842131
0.9925078125 -0.1028208 -0.3811134
0.99365625 -0.2211402 -0.340208
0.9948046875 -0.3244553 -0.2634409
0.995953125 -0.4029089 -0.1557004
0.9971015625 -0.4471762 -0.02474821
0.99825 -0.4504244 0.1194947
0.9993984375 -0.408918 0.2647895
1.000546875 -0.3209668 0.3981743
