# GHZ S RI R 50.0
0.3 -0.6616141 1.560594
0.3011484375 -0.08422385 1.537693
0.302296875 0.3864039 1.345974
0.3034453125 0.7265072 1.051767
0.30459375 0.9330536 0.7108709
0.3057421875 1.019314 0.3647829
0.306890625 1.005745 0.04441797
0.3080390625 0.9142258 -0.2321232
0.3091875 0.7659826 -0.4570183
0.3103359375 0.5775145 -0.6243567
0.311484375 0.3640821 -0.73329
0.3126328125 0.1400063 -0.7826965
0.31378125 -0.08490192 -0.7743319
0.3149296875 -0.2979841 -0.7093306
0.316078125 -0.4877444 -0.5899341
0.3172265625 -0.64047 -0.4222452
0.318375 -0.7436796 -0.2133449
0.3195234375 -0.783153 0.02530056
0.320671875 -0.7473942 0.2727508
0.3218203125 -0.6308323 0.5054366
0.32296875 -0.4385023 0.6939501
0.3241171875 -0.1865051 0.8102642
0.325265625 0.09616848 0.834025
0.3264140625 0.3733021 0.7583027
0.3275625 0.6084529 0.593015
0.3287109375 0.774588 0.3577504
0.329859375 0.8541427 0.08338424
0.3310078125 0.8430299 -0.2019316
0.33215625 0.7444479 -0.4730869
0.3333046875 0.5666131 -0.7059172
0.334453125 0.3205799 -0.8823451
0.3356015625 0.01723449 -0.9877596
0.33675 -0.3299083 -1.002402
0.3378984375 -0.7037568 -0.9061037
0.339046875 -1.082133 -0.6702435
0.3401953125 -1.419967 -0.2581393
0.34134375 -1.63346 0.3726038
0.3424921875 -1.557973 1.234369
0.343640625 -0.9054385 2.20579
0.3447890625 0.575378 2.741574
0.3459375 2.342113 1.929572
0.3470859375 2.905945 0.005353468
0.348234375 2.064394 -1.479455
0.3493828125 0.8370537 -1.981883
0.35053125 -0.1641475 -1.81657
0.3516796875 -0.8068863 -1.340191
0.352828125 -1.119365 -0.772238
0.3539765625 -1.173548 -0.2353958
0.355125 -1.045007 0.2023928
0.3562734375 -0.8068559 0.5130911
0.357421875 -0.5191275 0.6957797
0.3585703125 -0.2261466 0.7635041
0.35971875 0.04061535 0.7365819
0.3608671875 0.2619842 0.6388528
0.362015625 0.4279336 0.4932125
0.3631640625 0.5366572 0.31837
0.3643125 0.5879335 0.1323006
0.3654609375 0.5856451 -0.05276637
0.366609375 0.5340701 -0.2248368
0.3677578125 0.438616 -0.3737578
0.36890625 0.3062328 -0.4904569
0.3700546875 0.1447831 -0.5671782
0.371203125 -0.03585999 -0.5955167
0.3723515625 -0.2228796 -0.5697233
0.3735 -0.4012564 -0.4866111
0.3746484375 -0.5528809 -0.3468667
0.375796875 -0.65807 -0.1583598
0.3769453125 -0.6995164 0.06488922
0.37809375 -0.6643131 0.2997368
0.3792421875 -0.5487083 0.5194508
0.380390625 -0.3603384 0.6935438
0.3815390625 -0.1175305 0.7984756
0.3826875 0.1533498 0.8188976
0.3838359375 0.4218417 0.7498297
0.384984375 0.6613899 0.5971409
0.3861328125 0.8476754 0.3724695
0.38728125 0.9638011 0.09305298
0.3884296875 0.9951298 -0.2220048
0.389578125 0.9321447 -0.5521183
0.3907265625 0.7662768 -0.8751127
0.391875 0.4898162 -1.166197
0.3930234375 0.09845027 -1.388503
0.394171875 -0.4116208 -1.498708
0.3953203125 -1.026898 -1.430008
0.39646875 -1.701859 -1.090706
0.3976171875 -2.314829 -0.371201
0.398765625 -2.601473 0.7927195
0.3999140625 -2.149592 2.22701
0.4010625 -0.7103414 3.27927
0.4022109375 1.193251 3.166637
0.403359375 2.522034 1.943162
0.4045078125 2.834452 0.415961
0.40565625 2.400527 -0.797205
0.4068046875 1.626539 -1.516481
0.407953125 0.7967285 -1.791046
0.4091015625 0.06620449 -1.735108
0.41025 -0.4952829 -1.465767
0.4113984375 -0.8666547 -1.082071
0.412546875 -1.059831 -0.6619411
0.4136953125 -1.103735 -0.2606328
0.41484375 -1.032243 0.0882873
0.4159921875 -0.8798909 0.3661648
0.417140625 -0.6773104 0.5667192
0.4182890625 -0.4502447 0.6910309
0.4194375 -0.218206 0.7444985
0.4205859375 0.002904924 0.7353632
0.421734375 0.2014561 0.6729932
0.4228828125 0.3687075 0.5659329
0.42403125 0.4973435 0.4247197
0.4251796875 0.5815001 0.2601831
0.426328125 0.618638 0.08249086
0.4274765625 0.6062345 -0.09763456
0.428625 0.5453663 -0.2652702
0.4297734375 0.4395015 -0.4095318
0.430921875 0.2957967 -0.5172243
0.4320703125 0.1265677 -0.5771477
0.43321875 -0.05363409 -0.5835204
0.4343671875 -0.225512 -0.5343673
0.435515625 -0.3728737 -0.4349137
0.4366640625 -0.4807582 -0.2966873
0.4378125 -0.5393233 -0.1351993
0.4389609375 -0.5454745 0.03245761
0.440109375 -0.5016501 0.1899126
0.4412578125 -0.4164748 0.3229761
0.44240625 -0.2995148 0.4229347
0.4435546875 -0.1632067 0.4838389
0.444703125 -0.01883024 0.5046802
0.4458515625 0.1235323 0.4857787
0.447 0.2536156 0.4306453
0.4481484375 0.3641219 0.3433411
0.449296875 0.4483278 0.2298738
0.4504453125 0.5000349 0.09672502
0.45159375 0.5154393 -0.04769743
0.4527421875 0.491218 -0.1948982
0.453890625 0.4261082 -0.3346041
0.4550390625 0.3212083 -0.4556202
0.4561875 0.1805129 -0.546319
0.4573359375 0.01208144 -0.5951115
0.458484375 -0.1719288 -0.5922557
0.4596328125 -0.3553337 -0.5310645
0.46078125 -0.5179372 -0.4122488
0.4619296875 -0.6417429 -0.2415209
0.463078125 -0.708666 -0.03269343
0.4642265625 -0.7071012 0.1947658
0.465375 -0.6324625 0.4173632
0.4665234375 -0.4890517 0.6124614
0.467671875 -0.28672 0.7588482
0.4688203125 -0.04229002 0.8410555
0.46996875 0.2252355 0.8477943
0.4711171875 0.4950715 0.7741737
0.472265625 0.7456465 0.6189095
0.4734140625 0.9551017 0.3841352
0.4745625 1.101571 0.07566168
0.4757109375 1.158719 -0.296077
0.476859375 1.098307 -0.7128656
0.4780078125 0.8873869 -1.148606
0.47915625 0.4920847 -1.55182
0.4803046875 -0.1204031 -1.843816
0.481453125 -0.9495609 -1.891117
0.4826015625 -1.908675 -1.503129
0.48375 -2.709823 -0.5004771
0.4848984375 -2.834738 1.031422
0.486046875 -1.905092 2.456374
0.4871953125 -0.3090293 2.970251
0.48834375 1.109686 2.48692
0.4894921875 1.889207 1.501479
0.490640625 2.063755 0.4854783
0.4917890625 1.835133 -0.3305275
0.4929375 1.393215 -0.8822454
0.4940859375 0.8771067 -1.17941
0.495234375 0.3722975 -1.266216
0.4963828125 -0.06804211 -1.192411
0.49753125 -0.4131621 -1.007411
0.4986796875 -0.6568765 -0.7555659
0.499828125 -0.7966344 -0.4736859
0.5009765625 -0.84293 -0.1902034
0.502125 -0.8087453 0.07200927
0.5032734375 -0.7087653 0.2970181
0.504421875 -0.5587081 0.4736964
0.5055703125 -0.3745568 0.5945339
0.50671875 -0.1722598 0.6563733
0.5078671875 0.03284344 0.6586477
0.509015625 0.2248248 0.6033506
0.5101640625 0.3903526 0.4969467
0.5113125 0.5163794 0.348336
0.5124609375 0.5923119 0.1697816
0.513609375 0.6110116 -0.02320219
0.5147578125 0.5697507 -0.2132653
0.51590625 0.4713775 -0.3806111
0.5170546875 0.3250625 -0.5095945
0.518203125 0.1451168 -0.5856182
0.5193515625 -0.05036484 -0.6013273
0.5205 -0.2399026 -0.5542938
0.5216484375 -0.4056348 -0.4499366
0.522796875 -0.5312735 -0.2985723
0.5239453125 -0.6035267 -0.1158088
0.52509375 -0.617549 0.08263263
0.5262421875 -0.5700496 0.2786607
0.527390625 -0.4638453 0.456073
0.5285390625 -0.3063024 0.5975872
0.5296875 -0.1051861 0.69095
0.5308359375 0.127056 0.7232052
0.531984375 0.3741435 0.6830128
0.5331328125 0.618104 0.5616098
0.53428125 0.8350052 0.3523341
0.5354296875 0.9951438 0.05268697
0.536578125 1.060374 -0.3337166
0.5377265625 0.9813351 -0.7896361
0.538875 0.6927449 -1.275694
0.5400234375 0.122499 -1.695955
0.541171875 -0.7829883 -1.855714
0.5423203125 -1.910224 -1.413118
0.54346875 -2.687864 -0.07424415
0.5446171875 -2.240528 1.638001
0.545765625 -0.7524845 2.456324
0.5469140625 0.6099135 2.134633
0.5480625 1.324283 1.330584
0.5492109375 1.505866 0.5275493
0.550359375 1.370133 -0.1054597
0.5515078125 1.074373 -0.5382527
0.55265625 0.7170545 -0.7895598
0.5538046875 0.3580802 -0.8912026
0.554953125 0.03246699 -0.8749715
0.5561015625 -0.2385695 -0.7714756
0.55725 -0.4438486 -0.6077942
0.5583984375 -0.5788186 -0.4081218
0.559546875 -0.6443761 -0.1934519
0.5606953125 -0.6439318 0.01826916
0.56184375 -0.5845692 0.2110863
0.5629921875 -0.4755821 0.3720547
0.564140625 -0.3278313 0.4905353
0.5652890625 -0.1562935 0.5584269
0.5664375 0.02554795 0.5717752
0.5675859375 0.2014913 0.5300923
0.568734375 0.3552204 0.4373569
0.5698828125 0.472937 0.3022452
0.57103125 0.5429556 0.1378677
0.5721796875 0.5585109 -0.03987732
0.573328125 0.5180961 -0.2134747
0.5744765625 0.425699 -0.3655217
0.575625 0.2912205 -0.4813784
0.5767734375 0.1281429 -0.5504272
0.577921875 -0.04789114 -0.5666748
0.5790703125 -0.2214837 -0.5294546
0.58021875 -0.3759088 -0.4424483
0.5813671875 -0.4995644 -0.3131
0.582515625 -0.5818712 -0.151651
0.5836640625 -0.6153381 0.03018857
0.5848125 -0.5953281 0.2186231
0.5859609375 -0.5205097 0.3998178
0.587109375 -0.3928843 0.5594403
0.5882578125 -0.2169381 0.6824299
0.58940625 -0.0008153728 0.7548971
0.5905546875 0.2423953 0.7631516
0.591703125 0.4970509 0.6953778
0.5928515625 0.7409603 0.5437298
0.594 0.9466377 0.303443
0.5951484375 1.083275 -0.02071726
0.596296875 1.114888 -0.414721
0.5974453125 1.003451 -0.8501405
0.59859375 0.7141525 -1.280346
0.5997421875 0.2185635 -1.63182
0.600890625 -0.4818494 -1.798584
0.6020390625 -1.338372 -1.637298
0.6031875 -2.177591 -0.9892932
0.6043359375 -2.645072 0.1994745
0.605484375 -2.301593 1.629107
0.6066328125 -1.089044 2.595199
0.60778125 0.3788124 2.60714
0.6089296875 1.416213 1.88557
0.610078125 1.84414 0.9407548
0.6112265625 1.808723 0.1012836
0.612375 1.509354 -0.5157653
0.6135234375 1.091796 -0.9051824
0.614671875 0.6466538 -1.098487
0.6158203125 0.2265245 -1.135509
0.61696875 -0.1375417 -1.05275
0.6181171875 -0.4283471 -0.884983
0.619265625 -0.636623 -0.6604403
0.6204140625 -0.7606605 -0.4056947
0.6215625 -0.8020095 -0.1439526
0.6227109375 -0.7671804 0.1037711
0.623859375 -0.6664739 0.3173676
0.6250078125 -0.5147545 0.483981
0.62615625 -0.3287263 0.5928351
0.6273046875 -0.1273553 0.6391326
0.628453125 0.07038745 0.6235207
0.6296015625 0.2467568 0.5522724
0.63075 0.3878873 0.4363472
0.6318984375 0.4840687 0.2896003
0.633046875 0.5308195 0.1276975
0.6341953125 0.5278754 -0.03489788
0.63534375 0.4799256 -0.1829679
0.6364921875 0.3946504 -0.3068769
0.637640625 0.2810577 -0.3986943
0.6387890625 0.1508484 -0.4530002
0.6399375 0.01369518 -0.4685716
0.6410859375 -0.1194893 -0.4459542
0.642234375 -0.2393073 -0.3884928
0.6433828125 -0.3380316 -0.3010824
0.64453125 -0.407801 -0.1909724
0.6456796875 -0.4447498 -0.06575099
0.646828125 -0.4456899 0.06524903
0.6479765625 -0.4093024 0.1918779
0.649125 -0.337978 0.3044489
0.6502734375 -0.2363171 0.393244
0.651421875 -0.1116965 0.4501497
0.6525703125 0.02644174 0.4684159
0.65371875 0.1662375 0.4454042
0.6548671875 0.295161 0.3808701
0.656015625 0.4011281 0.2793584
0.6571640625 0.4736589 0.1487795
0.6583125 0.5046169 0.0002030501
0.6594609375 0.4897248 -0.1536608
0.660609375 0.4289595 -0.2983445
0.6617578125 0.3267677 -0.421507
0.66290625 0.1899842 -0.5111094
0.6640546875 0.02975185 -0.5582009
0.665203125 -0.1417911 -0.557211
0.6663515625 -0.3113432 -0.505089
0.6675 -0.464445 -0.403169
0.6686484375 -0.5868247 -0.2550919
0.669796875 -0.665849 -0.06956692
0.6709453125 -0.6891252 0.1432798
0.67209375 -0.6472976 0.3674274
0.6732421875 -0.5332171 0.5850767
0.674390625 -0.3443416 0.7736059
0.6755390625 -0.08428249 0.9076581
0.6766875 0.235446 0.9594963
0.6778359375 0.5927499 0.8993474
0.678984375 0.9520775 0.701969
0.6801328125 1.259542 0.3474568
0.68128125 1.44245 -0.1639767
0.6824296875 1.406819 -0.7999876
0.683578125 1.05282 -1.464128
0.6847265625 0.3206788 -1.965722
0.685875 -0.7044603 -2.033645
0.6870234375 -1.688688 -1.467677
0.688171875 -2.174339 -0.4062105
0.6893203125 -1.969266 0.6786528
0.69046875 -1.294114 1.383986
0.6916171875 -0.4993379 1.617381
0.692765625 0.1827766 1.493014
0.6939140625 0.6624395 1.164934
0.6950625 0.9360952 0.7537924
0.6962109375 1.03206 0.3388405
0.697359375 0.9906859 -0.03225286
0.6985078125 0.848555 -0.3328699
0.69965625 0.6417806 -0.5509846
0.7008046875 0.3997191 -0.68192
0.701953125 0.1492158 -0.7287638
0.7031015625 -0.08759736 -0.6988593
0.70425 -0.2919756 -0.6041367
0.7053984375 -0.4494977 -0.4590096
0.706546875 -0.5505297 -0.2801861
0.7076953125 -0.5901078 -0.08687302
0.70884375 -0.5685374 0.1035244
0.7099921875 -0.4914955 0.2716421
0.711140625 -0.3690876 0.4043196
0.7122890625 -0.2159537 0.4897881
0.7134375 -0.04728953 0.522751
0.7145859375 0.1199842 0.5020536
0.715734375 0.2699803 0.4316667
0.7168828125 0.3894675 0.3201818
0.71803125 0.4679886 0.1786165
0.7191796875 0.4994133 0.02079419
0.720328125 0.4813063 -0.1390295
0.7214765625 0.415444 -0.2865012
0.722625 0.3067418 -0.4089439
0.7237734375 0.1634691 -0.4942282
0.724921875 -0.003046232 -0.5331103
0.7260703125 -0.179556 -0.5193549
0.72721875 -0.3505053 -0.4493223
0.7283671875 -0.499126 -0.3242127
0.729515625 -0.6077966 -0.1486121
0.7306640625 -0.6587854 0.06608772
0.7318125 -0.637012 0.3039778
0.7329609375 -0.5297388 0.5418833
0.734109375 -0.3307055 0.7504238
0.7352578125 -0.04222988 0.8934978
0.73640625 0.3204611 0.9289448
0.7375546875 0.7222111 0.8138195
0.738703125 1.100091 0.5087116
0.7398515625 1.354333 -0.003086865
0.741 1.347074 -0.679432
0.7421484375 0.9424228 -1.361502
0.743296875 0.1333735 -1.756844
0.7444453125 -0.8121871 -1.593781
0.74559375 -1.46259 -0.9132602
0.7467421875 -1.592996 -0.07015677
0.747890625 -1.305774 0.6057515
0.7490390625 -0.7907411 0.9530753
0.7501875 -0.3052526 1.067484
0.7513359375 0.1126134 0.9959415
0.752484375 0.4263968 0.8066406
0.7536328125 0.6280579 0.5553876
0.75478125 0.7241175 0.2835768
0.7559296875 0.7268404 0.02178125
0.757078125 0.6531118 -0.2075963
0.7582265625 0.5214518 -0.3891344
0.759375 0.3505812 -0.5132771
0.7605234375 0.1598167 -0.5751643
0.761671875 -0.03156813 -0.5752808
0.7628203125 -0.2068919 -0.5187944
0.76396875 -0.3511956 -0.4147872
0.7651171875 -0.452947 -0.2753379
0.766265625 -0.5055101 -0.1160552
0.7674140625 -0.5065622 0.0476097
0.7685625 -0.4585465 0.1999738
0.7697109375 -0.3682864 0.3278898
0.770859375 -0.2458881 0.4206634
0.7720078125 -0.1038283 0.4716749
0.77315625 0.04530922 0.4775697
0.7743046875 0.1879353 0.43955
0.775453125 0.3122956 0.361868
0.7766015625 0.4083714 0.2515467
0.77775 0.4683663 0.1175235
0.7788984375 0.4874581 -0.02897014
0.780046875 0.4630122 -0.1771319
0.7811953125 0.3958563 -0.3140762
0.78234375 0.2891762 -0.4284589
0.7834921875 0.1498299 -0.5093026
0.784640625 -0.01237673 -0.5473862
0.7857890625 -0.1853686 -0.5355589
0.7869375 -0.3544487 -0.4698691
0.7880859375 -0.5031452 -0.3512466
0.789234375 -0.6147452 -0.1841515
0.7903828125 -0.6733581 0.02022031
0.79153125 -0.6649281 0.2454606
0.7926796875 -0.5814266 0.4718264
0.793828125 -0.4203703 0.6733966
0.7949765625 -0.1861677 0.824224
0.796125 0.1071714 0.8959718
0.7972734375 0.4358139 0.8649592
0.798421875 0.7648997 0.711014
0.7995703125 1.048567 0.4227937
0.80071875 1.229077 0.005842063
0.8018671875 1.237451 -0.508653
0.803015625 1.007337 -1.046853
0.8041640625 0.5054652 -1.480626
0.8053125 -0.2158994 -1.642092
0.8064609375 -0.9735212 -1.399308
0.807609375 -1.504 -0.7826563
0.8087578125 -1.628851 -0.006537496
0.80990625 -1.370257 0.6685455
0.8110546875 -0.8841602 1.088342
0.812203125 -0.3425417 1.232787
0.8133515625 0.1398797 1.15685
0.8145 0.5053222 0.9360384
0.8156484375 0.7366839 0.6382742
0.816796875 0.83914 0.3179346
0.8179453125 0.8301697 0.01589729
0.81909375 0.7331105 -0.2412059
0.8202421875 0.5733266 -0.4358402
0.821390625 0.3771383 -0.5592445
0.8225390625 0.1686163 -0.6109512
0.8236875 -0.03071034 -0.5970502
0.8248359375 -0.2035791 -0.5274278
0.825984375 -0.3381099 -0.4159729
0.8271328125 -0.4271935 -0.2779607
0.82828125 -0.4687077 -0.129207
0.8294296875 -0.4649868 0.01720236
0.830578125 -0.4210816 0.1495648
0.8317265625 -0.3442377 0.2578945
0.832875 -0.2442362 0.3365993
0.8340234375 -0.1302485 0.3816774
0.835171875 -0.01217267 0.392376
0.8363203125 0.1008842 0.3698528
0.83746875 0.2007106 0.3175179
0.8386171875 0.2802078 0.2405819
0.839765625 0.3336877 0.145613
0.8409140625 0.357688 0.0407283
0.8420625 0.3505582 -0.0661155
0.8432109375 0.3133537 -0.1658092
0.844359375 0.2486259 -0.2501396
0.8455078125 0.1620591 -0.3119511
0.84665625 0.06119727 -0.3453321
0.8478046875 -0.04528221 -0.3475445
0.848953125 -0.1477246 -0.3177452
0.8501015625 -0.2366865 -0.2585886
0.85125 -0.303989 -0.1755545
0.8523984375 -0.3436434 -0.07618117
0.853546875 -0.3517621 0.03088616
0.8546953125 -0.3276954 0.1357828
0.85584375 -0.273867 0.229098
0.8569921875 -0.1944229 0.3032427
0.858140625 -0.09628978 0.3514646
0.8592890625 0.01297 0.3692214
0.8604375 0.1246646 0.3545952
0.8615859375 0.2294291 0.3078546
0.862734375 0.3187268 0.2312404
0.8638828125 0.3844349 0.1288462
0.86503125 0.4192113 0.007456432
0.8661796875 0.4177522 -0.1245945
0.867328125 0.375708 -0.256867
0.8684765625 0.292375 -0.377991
0.869625 0.1688722 -0.4749592
0.8707734375 0.01144323 -0.5345161
0.871921875 -0.1707112 -0.5439744
0.8730703125 -0.3629605 -0.4922377
0.87421875 -0.5459043 -0.3710469
0.8753671875 -0.6948088 -0.1775982
0.876515625 -0.7800429 0.08304179
0.8776640625 -0.7679418 0.3952962
0.8788125 -0.623907 0.726751
0.8799609375 -0.3183709 1.018201
0.881109375 0.1558564 1.179714
0.8822578125 0.742523 1.086851
0.88340625 1.271585 0.6416826
0.8845546875 1.474757 -0.0979697
0.885703125 1.192614 -0.831041
0.8868515625 0.5742264 -1.229203
0.888 -0.06638967 -1.221145
0.8891484375 -0.527941 -0.9475484
0.890296875 -0.7688518 -0.573233
0.8914453125 -0.8272493 -0.2063688
0.89259375 -0.7568686 0.1004567
0.8937421875 -0.607324 0.3275745
0.894890625 -0.4167827 0.4720759
0.8960390625 -0.2143473 0.5387287
0.8971875 -0.02081205 0.5377236
0.8983359375 0.147388 0.4810529
0.899484375 0.2791352 0.3823622
0.9006328125 0.3675539 0.2559894
0.90178125 0.4097584 0.1169228
0.9029296875 0.4067105 -0.02105623
0.904078125 0.3626685 -0.1451689
0.9052265625 0.2854964 -0.2448204
0.906375 0.1849817 -0.3125348
0.9075234375 0.07246268 -0.3443042
0.908671875 -0.04050739 -0.3392549
0.9098203125 -0.142975 -0.300827
0.91096875 -0.2258124 -0.2342197
0.9121171875 -0.2828082 -0.1475106
0.913265625 -0.3098153 -0.04967569
0.9144140625 -0.3058482 0.0498756
0.9155625 -0.2722386 0.1421558
0.9167109375 -0.2128511 0.2195017
0.917859375 -0.1332755 0.275073
0.9190078125 -0.04059503 0.3039774
0.92015625 0.05720919 0.3040304
0.9213046875 0.1515644 0.2741546
0.922453125 0.234338 0.2163651
0.9236015625 0.2969545 0.1342148
0.92475 0.3328428 0.03393882
0.9258984375 0.3365298 -0.07633174
0.927046875 0.3047669 -0.1864601
0.9281953125 0.2374057 -0.2859785
0.92934375 0.1373592 -0.3629376
0.9304921875 0.01125916 -0.4068031
0.931640625 -0.1304251 -0.4082114
0.9327890625 -0.2740813 -0.3610196
0.9339375 -0.4033885 -0.2627811
0.9350859375 -0.5005453 -0.1170431
0.936234375 -0.5471685 0.06821286
0.9373828125 -0.5266923 0.2766912
0.93853125 -0.4254446 0.4852775
0.9396796875 -0.2360859 0.6632933
0.940828125 0.03766997 0.7709789
0.9419765625 0.3740557 0.7614829
0.943125 0.7215229 0.5901603
0.9442734375 0.988651 0.2346042
0.945421875 1.05556 -0.2625366
0.9465703125 0.8358423 -0.763108
0.94771875 0.3659451 -1.074862
0.9488671875 -0.1828549 -1.082786
0.950015625 -0.6184118 -0.8269128
0.9511640625 -0.8462458 -0.4395044
0.9523125 -0.8728001 -0.04752133
0.9534609375 -0.7521257 0.2737269
0.954609375 -0.5452876 0.4928238
0.9557578125 -0.3035313 0.6065529
0.95690625 -0.06465591 0.6260856
0.9580546875 0.1451511 0.5690709
0.959203125 0.3090112 0.4560594
0.9603515625 0.417946 0.3077827
0.9615 0.4696388 0.1447756
0.9626484375 0.4669261 -0.01523759
0.963796875 0.4170447 -0.1573444
0.9649453125 0.3301981 -0.2700538
0.96609375 0.2187097 -0.3465849
0.9672421875 0.09544107 -0.3833325
0.968390625 -0.02767796 -0.3807752
0.9695390625 -0.139586 -0.3430507
0.9706875 -0.2316694 -0.2761963
0.9718359375 -0.2979591 -0.1880681
0.972984375 -0.3342193 -0.08708669
0.9741328125 -0.3394731 0.01769297
0.97528125 -0.3144565 0.1174978
0.9764296875 -0.2623409 0.2045075
0.977578125 -0.187723 0.2724606
0.9787265625 -0.09729548 0.315287
0.979875 0.001960572 0.3305726
0.9810234375 0.101538 0.3160511
0.982171875 0.19347 0.272792
0.9833203125 0.269377 0.2036403
0.98446875 0.3224016 0.1139626
0.9856171875 0.3466469 0.01073174
0.986765625 0.3389652 -0.09699211
0.9879140625 0.2987199 -0.199525
0.9890625 0.2279529 -0.2871266
0.9902109375 0.1315708 -0.3507376
0.991359375 0.01782166 -0.3831156
0.9925078125 -0.1035931 -0.3796598
0.99365625 -0.2216813 -0.3386976
0.9948046875 -0.3248982 -0.2614952
0.995953125 -0.4029252 -0.1534106
0.9971015625 -0.4465354 -0.02198304
0.99825 -0.4490425 0.122471
0.9993984375 -0.4062763 0.2678373
1.000546875 -0.3172736 0.4004816
