# GHZ S RI R 50.0
0.3 -0.1573439 1.334857
0.3011484375 0.2781593 1.204676
0.302296875 0.6086345 0.9624178
0.3034453125 0.8176346 0.6612623
0.30459375 0.9128615 0.3432241
0.3057421875 0.9091448 0.04277827
0.306890625 0.8269947 -0.2204487
0.3080390625 0.6859283 -0.4334185
0.3091875 0.504023 -0.5900832
0.3103359375 0.297699 -0.6877029
0.311484375 0.07986185 -0.7266111
0.3126328125 -0.1367331 -0.7066725
0.31378125 -0.3391549 -0.6306545
0.3149296875 -0.516113 -0.5007253
0.316078125 -0.6545659 -0.321732
0.3172265625 -0.7397358 -0.1018766
0.318375 -0.7571176 0.1459665
0.3195234375 -0.6929055 0.4039631
0.320671875 -0.5385121 0.6446368
0.3218203125 -0.2940758 0.8336211
0.32296875 0.02604157 0.9337903
0.3241171875 0.3899678 0.9105583
0.325265625 0.747396 0.7441145
0.3264140625 1.041752 0.4316245
0.3275625 1.215288 -0.006412034
0.3287109375 1.213093 -0.5280905
0.329859375 0.9889229 -1.074167
0.3310078125 0.5024455 -1.562938
0.33215625 -0.2932786 -1.859428
0.3333046875 -1.359318 -1.706426
0.334453125 -2.372078 -0.7636984
0.3356015625 -2.50576 0.9007667
0.33675 -1.343088 2.159935
0.3378984375 0.1205175 2.217295
0.339046875 1.031208 1.568906
0.3401953125 1.380864 0.8028099
0.34134375 1.379082 0.1483811
0.3424921875 1.182862 -0.3466919
0.343640625 0.8837996 -0.6844751
0.3447890625 0.5378623 -0.8819718
0.3459375 0.1818263 -0.9516911
0.3470859375 -0.1532781 -0.9065057
0.348234375 -0.4376582 -0.7630477
0.3493828125 -0.649951 -0.5420691
0.35053125 -0.7688501 -0.2743751
0.3516796875 -0.7883881 0.007223753
0.352828125 -0.7126782 0.2671139
0.3539765625 -0.5604227 0.4751428
0.355125 -0.356705 0.6119939
0.3562734375 -0.1331877 0.6703687
0.357421875 0.08551826 0.6552315
0.3585703125 0.2783491 0.5775692
0.35971875 0.4301003 0.4522883
0.3608671875 0.5346859 0.2957717
0.362015625 0.5890697 0.1227265
0.3631640625 0.594197 -0.05432672
0.3643125 0.5525488 -0.2225781
0.3654609375 0.468376 -0.3739431
0.366609375 0.347061 -0.498417
0.3677578125 0.1943978 -0.588794
0.36890625 0.01771249 -0.6374681
0.3700546875 -0.1724832 -0.6372082
0.371203125 -0.3655738 -0.582293
0.3723515625 -0.5463131 -0.4693221
0.3735 -0.6964875 -0.2981356
0.3746484375 -0.7964674 -0.07451633
0.375796875 -0.8254851 0.1873094
0.3769453125 -0.7661682 0.4642625
0.37809375 -0.6104774 0.7259072
0.3792421875 -0.3617607 0.9355543
0.380390625 -0.0377595 1.058835
0.3815390625 0.3287932 1.069854
0.3826875 0.6995384 0.9541349
0.3838359375 1.031977 0.7111918
0.384984375 1.285758 0.3540357
0.3861328125 1.424191 -0.09709807
0.38728125 1.414246 -0.6120391
0.3884296875 1.222164 -1.15382
0.389578125 0.8150381 -1.663222
0.3907265625 0.1619405 -2.056399
0.391875 -0.7381195 -2.193427
0.3930234375 -1.790177 -1.876307
0.394171875 -2.70323 -0.9287702
0.3953203125 -2.981467 0.5499803
0.39646875 -2.305963 1.984234
0.3976171875 -0.9803495 2.717887
0.398765625 0.3531831 2.620746
0.3999140625 1.299518 1.994675
0.4010625 1.787244 1.174155
0.4022109375 1.893388 0.3670177
0.403359375 1.722028 -0.3167145
0.4045078125 1.368045 -0.8255814
0.40565625 0.9148864 -1.145669
0.4068046875 0.4323892 -1.278479
0.407953125 -0.01951185 -1.24509
0.4091015625 -0.396203 -1.080603
0.41025 -0.6706024 -0.8270982
0.4113984375 -0.8330261 -0.5294136
0.412546875 -0.8883927 -0.2265145
0.4136953125 -0.852983 0.0518565
0.41484375 -0.7465599 0.2856341
0.4159921875 -0.5919458 0.4621299
0.417140625 -0.4091124 0.5796846
0.4182890625 -0.2153987 0.6388956
0.4194375 -0.02509592 0.6439121
0.4205859375 0.1504057 0.6014311
0.421734375 0.3020916 0.518393
0.4228828125 0.423115 0.4027103
0.42403125 0.5084513 0.2632078
0.4251796875 0.553397 0.1082793
0.426328125 0.5557576 -0.05204283
0.4274765625 0.5144104 -0.2070564
0.428625 0.4315079 -0.3458256
0.4297734375 0.3112589 -0.456462
0.430921875 0.1625669 -0.5282091
0.4320703125 -0.002967553 -0.5528566
0.43321875 -0.169712 -0.5258356
0.4343671875 -0.3208709 -0.4481868
0.435515625 -0.4402742 -0.3278326
0.4366640625 -0.5159711 -0.1769868
0.4378125 -0.5407965 -0.01190695
0.4389609375 -0.5140377 0.1501971
0.440109375 -0.4410508 0.293929
0.4412578125 -0.3311324 0.4072902
0.44240625 -0.1958215 0.4819364
0.4435546875 -0.047526 0.5147367
0.444703125 0.1015507 0.5053301
0.4458515625 0.2412979 0.4558787
0.447 0.362637 0.371104
0.4481484375 0.4572006 0.2563117
0.449296875 0.5190411 0.1189492
0.4504453125 0.5433257 -0.03352574
0.45159375 0.5248294 -0.1920595
0.4527421875 0.4624491 -0.345279
0.453890625 0.3558555 -0.4815514
0.4550390625 0.2069838 -0.5886451
0.4561875 0.02364443 -0.6522613
0.4573359375 -0.1823362 -0.6608984
0.458484375 -0.3959776 -0.6033959
0.4596328125 -0.5945686 -0.4749809
0.46078125 -0.7539423 -0.2781089
0.4619296875 -0.8496968 -0.02433567
0.463078125 -0.8600874 0.2658326
0.4642265625 -0.7714087 0.5632039
0.465375 -0.578671 0.8346859
0.4665234375 -0.2889371 1.044736
0.467671875 0.08158256 1.160621
0.4688203125 0.5071934 1.151207
0.46996875 0.9522966 0.9878724
0.4711171875 1.368118 0.6453996
0.472265625 1.684147 0.1039979
0.4734140625 1.792513 -0.6385604
0.4745625 1.532215 -1.518307
0.4757109375 0.729908 -2.31475
0.476859375 -0.5987275 -2.57326
0.4780078125 -1.932321 -1.894915
0.47915625 -2.51846 -0.5463451
0.4803046875 -2.213324 0.7099232
0.481453125 -1.444786 1.446997
0.4826015625 -0.6138097 1.684582
0.48375 0.08767001 1.579874
0.4848984375 0.6011639 1.276445
0.486046875 0.920085 0.8764037
0.4871953125 1.064706 0.4506253
0.48834375 1.059024 0.04874412
0.4894921875 0.9339749 -0.2925363
0.490640625 0.7233844 -0.5496991
0.4917890625 0.4631011 -0.7092782
0.4929375 0.1877957 -0.7709381
0.4940859375 -0.07245701 -0.7425305
0.495234375 -0.2938466 -0.6400689
0.4963828125 -0.4605637 -0.4838934
0.49753125 -0.5635894 -0.2961247
0.4986796875 -0.6022575 -0.09710941
0.499828125 -0.5802139 0.09484477
0.5009765625 -0.5049672 0.2639391
0.502125 -0.3872772 0.3989842
0.5032734375 -0.2389398 0.4911076
0.504421875 -0.07275593 0.5355434
0.5055703125 0.09813283 0.529424
0.50671875 0.260442 0.4734688
0.5078671875 0.4008261 0.3705708
0.509015625 0.5065467 0.2276601
0.5101640625 0.5661831 0.0542191
0.5113125 0.569483 -0.1361822
0.5124609375 0.5114869 -0.3263961
0.513609375 0.3899845 -0.4970208
0.5147578125 0.2106927 -0.6269799
0.51590625 -0.01430712 -0.6957911
0.5170546875 -0.2653988 -0.686182
0.518203125 -0.5152684 -0.5881023
0.5193515625 -0.7347626 -0.3982332
0.5205 -0.8908151 -0.1247246
0.5216484375 -0.9516143 0.215689
0.522796875 -0.8883671 0.5956479
0.5239453125 -0.6728905 0.9763924
0.52509375 -0.2843565 1.302179
0.5262421875 0.2899711 1.491464
0.527390625 1.034154 1.417862
0.5285390625 1.826576 0.9061899
0.5296875 2.326666 -0.1814454
0.5308359375 1.982364 -1.582358
0.531984375 0.6954544 -2.428806
0.5331328125 -0.7004816 -2.205654
0.53428125 -1.49779 -1.364627
0.5354296875 -1.690507 -0.4723198
0.536578125 -1.514143 0.2302863
0.5377265625 -1.158482 0.7022102
0.538875 -0.7377167 0.9650709
0.5400234375 -0.3186764 1.057445
0.541171875 0.05948338 1.013682
0.5423203125 0.3690264 0.8672355
0.54346875 0.5948408 0.6504225
0.5446171875 0.7301498 0.394056
0.545765625 0.7744756 0.1279257
0.5469140625 0.7358956 -0.1219871
0.5480625 0.6280876 -0.334128
0.5492109375 0.4695032 -0.4931766
0.550359375 0.2802941 -0.5911175
0.5515078125 0.08067881 -0.6252473
0.55265625 -0.1108391 -0.5998122
0.5538046875 -0.27943 -0.5228183
0.554953125 -0.4133442 -0.4044525
0.5561015625 -0.5046633 -0.25747
0.55725 -0.5498873 -0.09447918
0.5583984375 -0.5472296 0.07122202
0.559546875 -0.4986867 0.2278774
0.5606953125 -0.4088641 0.3637344
0.56184375 -0.2841924 0.4692328
0.5629921875 -0.1340055 0.5354535
0.564140625 0.03098818 0.5567576
0.5652890625 0.1981586 0.529342
0.5664375 0.3527799 0.4530391
0.5675859375 0.4814882 0.33219
0.568734375 0.5712562 0.1741516
0.5698828125 0.6101784 -0.007937543
0.57103125 0.5915549 -0.198949
0.5721796875 0.5142328 -0.378949
0.573328125 0.3822282 -0.5312184
0.5744765625 0.2051012 -0.6387367
0.575625 -6.560414E-05 -0.6883746
0.5767734375 -0.2166371 -0.6738608
0.577921875 -0.424424 -0.5929639
0.5790703125 -0.6047123 -0.4496402
0.58021875 -0.7392306 -0.2546019
0.5813671875 -0.8143098 -0.01923191
0.582515625 -0.8191705 0.2402171
0.5836640625 -0.7453059 0.5041846
0.5848125 -0.5887554 0.7524388
0.5859609375 -0.3491635 0.9607002
0.587109375 -0.03174787 1.102179
0.5882578125 0.3525645 1.147003
0.58940625 0.7816222 1.061699
0.5905546875 1.216888 0.810129
0.591703125 1.596105 0.3601374
0.5928515625 1.819756 -0.3048503
0.594 1.742296 -1.14739
0.5951484375 1.199536 -2.0161
0.596296875 0.1180883 -2.581526
0.5974453125 -1.259075 -2.425076
0.59859375 -2.32616 -1.438701
0.5997421875 -2.58862 -0.0742814
0.600890625 -2.105647 1.055612
0.6020390625 -1.270426 1.669309
0.6031875 -0.4207048 1.806579
0.6043359375 0.2705227 1.620662
0.605484375 0.7510359 1.255727
0.6066328125 1.02192 0.8215078
0.60778125 1.119523 0.388557
0.6089296875 1.078791 0.003175332
0.610078125 0.9388972 -0.3125813
0.6112265625 0.7346922 -0.5446469
0.612375 0.4951895 -0.6921858
0.6135234375 0.2457035 -0.7588828
0.614671875 0.006173512 -0.7522423
0.6158203125 -0.2073294 -0.6830568
0.61696875 -0.3822818 -0.5634928
0.6181171875 -0.5101754 -0.4073757
0.619265625 -0.5859383 -0.2293133
0.6204140625 -0.607053 -0.04362942
0.6215625 -0.5751263 0.1348943
0.6227109375 -0.4952523 0.2923475
0.623859375 -0.3755122 0.4169327
0.6250078125 -0.2276517 0.4987829
0.62615625 -0.06539111 0.5323993
0.6273046875 0.09633593 0.5165297
0.628453125 0.2427185 0.4538201
0.6296015625 0.3609354 0.3523884
0.63075 0.441624 0.2226627
0.6318984375 0.4788539 0.07830749
0.633046875 0.4717516 -0.06734232
0.6341953125 0.423144 -0.2012131
0.63534375 0.3392731 -0.3126817
0.6364921875 0.2290809 -0.3935561
0.637640625 0.1025308 -0.4386363
0.6387890625 -0.03007 -0.4459896
0.6399375 -0.1579157 -0.4159665
0.6410859375 -0.2717007 -0.3515334
0.642234375 -0.363222 -0.2579562
0.6433828125 -0.4252676 -0.1419228
0.64453125 -0.4526633 -0.01163364
0.6456796875 -0.4421463 0.1232487
0.646828125 -0.3928858 0.2523575
0.6479765625 -0.3063244 0.365048
0.649125 -0.1877971 0.4504449
0.6502734375 -0.04521693 0.4992194
0.651421875 0.1114574 0.503929
0.6525703125 0.268801 0.4604463
0.65371875 0.4116631 0.3678705
0.6548671875 0.5245893 0.2302219
0.656015625 0.5934035 0.0569171
0.6571640625 0.6063915 -0.1386405
0.6583125 0.5559584 -0.3389419
0.6594609375 0.4398873 -0.5238509
0.660609375 0.2612443 -0.6725815
0.6617578125 0.03024616 -0.7647882
0.66290625 -0.2380111 -0.781352
0.6640546875 -0.521707 -0.7066652
0.665203125 -0.7930561 -0.5280522
0.6663515625 -1.014795 -0.2379445
0.6675 -1.140438 0.161419
0.6686484375 -1.109112 0.6496153
0.669796875 -0.8473222 1.170974
0.6709453125 -0.2879157 1.602041
0.67209375 0.5537553 1.728088
0.6732421875 1.461394 1.30786
0.674390625 1.981596 0.3431338
0.6755390625 1.796117 -0.7301684
0.6766875 1.083778 -1.410496
0.6778359375 0.2608276 -1.56649
0.678984375 -0.3988491 -1.34657
0.6801328125 -0.8125062 -0.9426373
0.68128125 -0.9955497 -0.4902277
0.6824296875 -0.9950379 -0.07175119
0.683578125 -0.8639433 0.2686674
0.6847265625 -0.6501128 0.5106987
0.685875 -0.3962939 0.6498063
0.6870234375 -0.1372054 0.6922296
0.688171875 0.09867227 0.6513876
0.6893203125 0.292464 0.5455278
0.69046875 0.431925 0.3945122
0.6916171875 0.5113827 0.2190199
0.692765625 0.5308895 0.03821683
0.6939140625 0.4955213 -0.1310091
0.6950625 0.4132612 -0.2751196
0.6962109375 0.2953407 -0.3835499
0.697359375 0.1537135 -0.4492554
0.6985078125 0.001512481 -0.468439
0.69965625 -0.1473718 -0.4411494
0.7008046875 -0.2802326 -0.3698567
0.701953125 -0.3855518 -0.2612594
0.7031015625 -0.4528441 -0.1245027
0.70425 -0.4750499 0.02874648
0.7053984375 -0.4480194 0.1843224
0.706546875 -0.371958 0.3270748
0.7076953125 -0.2512371 0.441983
0.70884375 -0.09535359 0.515085
0.7099921875 0.08174568 0.535502
0.711140625 0.2636326 0.496823
0.7122890625 0.4306431 0.3976468
0.7134375 0.5633649 0.2428881
0.7145859375 0.6434761 0.04358715
0.715734375 0.6559143 -0.1842434
0.7168828125 0.590365 -0.4191718
0.71803125 0.4414349 -0.6355462
0.7191796875 0.2104023 -0.805754
0.720328125 -0.09097513 -0.8980832
0.7214765625 -0.4427304 -0.8806904
0.722625 -0.8094386 -0.7220165
0.7237734375 -1.133684 -0.3969058
0.724921875 -1.331108 0.09914766
0.7260703125 -1.293303 0.7233244
0.72721875 -0.9151388 1.345519
0.7283671875 -0.1858956 1.737373
0.729515625 0.7095558 1.666915
0.7306640625 1.426483 1.098923
0.7318125 1.701077 0.2720297
0.7329609375 1.525196 -0.4956618
0.734109375 1.067239 -1.012923
0.7352578125 0.5128303 -1.241189
0.73640625 -0.007636311 -1.225396
0.7375546875 -0.4236081 -1.039531
0.738703125 -0.7081251 -0.7523229
0.7398515625 -0.8563827 -0.4245494
0.741 -0.8836457 -0.1000932
0.7421484375 -0.8096793 0.1869584
0.743296875 -0.6613988 0.4148434
0.7444453125 -0.4646102 0.5717148
0.74559375 -0.2460465 0.6540373
0.7467421875 -0.02727776 0.6654946
0.747890625 0.1724187 0.613438
0.7490390625 0.3259194 0.4906755
0.7501875 0.4444621 0.3555095
0.7513359375 0.5155315 0.1983413
0.752484375 0.5375877 0.0330215
0.7536328125 0.5118242 -0.1268487
0.75478125 0.4425342 -0.269758
0.7559296875 0.3369947 -0.3845244
0.757078125 0.2045083 -0.4629437
0.7582265625 0.05619878 -0.499652
0.759375 -0.09598842 -0.4914159
0.7605234375 -0.2391048 -0.4393376
0.761671875 -0.360532 -0.3470516
0.7628203125 -0.4499368 -0.2226617
0.76396875 -0.4983991 -0.07633551
0.7651171875 -0.5010673 0.07866339
0.766265625 -0.4568737 0.2285901
0.7674140625 -0.3688285 0.3596611
0.7685625 -0.2451029 0.4593553
0.7697109375 -0.09554886 0.5178202
0.770859375 0.06679723 0.5300149
0.7720078125 0.2275026 0.492926
0.77315625 0.3723306 0.4085564
0.7743046875 0.4887606 0.2832976
0.775453125 0.5655344 0.1255964
0.7766015625 0.5936604 -0.05254496
0.77775 0.5682157 -0.2377418
0.7788984375 0.4869055 -0.4146345
0.780046875 0.3509655 -0.5671834
0.7811953125 0.1661998 -0.6789228
0.78234375 -0.05655987 -0.7342861
0.7834921875 -0.3026219 -0.7189718
0.784640625 -0.5514544 -0.6212231
0.7857890625 -0.7752032 -0.4352232
0.7869375 -0.9427812 -0.1613108
0.7880859375 -1.01651 0.1865768
0.789234375 -0.9592205 0.5813957
0.7903828125 -0.7371808 0.9723029
0.79153125 -0.33482 1.285039
0.7926796875 0.2269292 1.421762
0.793828125 0.8643107 1.28251
0.7949765625 1.415804 0.8152959
0.796125 1.680383 0.08604752
0.7972734375 1.528654 -0.69722
0.798421875 1.005965 -1.275136
0.7995703125 0.3153851 -1.494532
0.80071875 -0.3234387 -1.370375
0.8018671875 -0.7762846 -1.022965
0.803015625 -1.008675 -0.585418
0.8041640625 -1.048586 -0.1553771
0.8053125 -0.9440009 0.2074636
0.8064609375 -0.7466144 0.4759249
0.807609375 -0.5008278 0.6438923
0.8087578125 -0.2425871 0.7163179
0.80990625 0.001568473 0.7048072
0.8110546875 0.2120436 0.6256612
0.812203125 0.3760372 0.4967083
0.8133515625 0.4856612 0.3349024
0.8145 0.5383595 0.1583526
0.8156484375 0.5355105 -0.01604217
0.816796875 0.4827527 -0.1738988
0.8179453125 0.3890239 -0.3026717
0.81909375 0.2658934 -0.3928818
0.8202421875 0.1267404 -0.4397962
0.821390625 -0.01469152 -0.441982
0.8225390625 -0.1453789 -0.4027117
0.8236875 -0.2543142 -0.3283162
0.8248359375 -0.3326675 -0.2277586
0.825984375 -0.3759123 -0.1120471
0.8271328125 -0.382448 0.007442389
0.82828125 -0.3537675 0.1200624
0.8294296875 -0.2945858 0.2167403
0.830578125 -0.2118254 0.2899346
0.8317265625 -0.1131953 0.3350705
0.832875 -0.007588945 0.3492659
0.8340234375 0.09654754 0.3325712
0.835171875 0.1908305 0.2869826
0.8363203125 0.2676212 0.216319
0.83746875 0.3209859 0.1260609
0.8386171875 0.346098 0.02353414
0.839765625 0.3402536 -0.08323533
0.8409140625 0.3026399 -0.1855221
0.8420625 0.2350878 -0.2739887
0.8432109375 0.1417431 -0.3398783
0.844359375 0.02973164 -0.3756087
0.8455078125 -0.09205823 -0.3755404
0.84665625 -0.2118794 -0.3369594
0.8478046875 -0.3181459 -0.2600212
0.848953125 -0.3986685 -0.1495157
0.8501015625 -0.4422366 -0.01288088
0.85125 -0.4405936 0.1376319
0.8523984375 -0.3885726 0.2876001
0.853546875 -0.2857862 0.4210993
0.8546953125 -0.13545 0.5215636
0.85584375 0.05316847 0.5718128
0.8569921875 0.2662101 0.5562918
0.858140625 0.4827195 0.4613831
0.8592890625 0.6754441 0.277109
0.8604375 0.8046532 0.0003689855
0.8615859375 0.819984 -0.3566047
0.862734375 0.6581994 -0.7479501
0.8638828125 0.2707091 -1.070792
0.86503125 -0.3129558 -1.156339
0.8661796875 -0.9005288 -0.8626341
0.867328125 -1.200858 -0.2594595
0.8684765625 -1.092421 0.3639999
0.869625 -0.7100335 0.7643788
0.8707734375 -0.2606459 0.8937379
0.871921875 0.1236284 0.8196635
0.8730703125 0.3930749 0.6283553
0.87421875 0.5435194 0.3883075
0.8753671875 0.5888831 0.1458267
0.876515625 0.5514379 -0.06917384
0.8776640625 0.4536155 -0.2387255
0.8788125 0.318795 -0.3536758
0.8799609375 0.1673034 -0.4123024
0.881109375 0.01772577 -0.4179748
0.8822578125 -0.1155177 -0.3781942
0.88340625 -0.22204 -0.303097
0.8845546875 -0.2948164 -0.2046152
0.885703125 -0.3312511 -0.09445582
0.8868515625 -0.3319796 0.01597991
0.888 -0.3000724 0.1170389
0.8891484375 -0.2413363 0.2006726
0.890296875 -0.1624254 0.2608672
0.8914453125 -0.07133102 0.2936241
0.89259375 0.02360751 0.2979393
0.8937421875 0.114449 0.2737319
0.894890625 0.1937582 0.2239004
0.8960390625 0.2541898 0.1525308
0.8971875 0.2904908 0.06608342
0.8983359375 0.2994086 -0.02830787
0.899484375 0.2788893 -0.1221475
0.9006328125 0.2298962 -0.206743
0.90178125 0.155759 -0.2734274
0.9029296875 0.06283213 -0.3151043
0.904078125 -0.04092396 -0.3259524
0.9052265625 -0.1456347 -0.3036697
0.906375 -0.240906 -0.2483348
0.9075234375 -0.3162102 -0.1636969
0.908671875 -0.3632392 -0.05637691
0.9098203125 -0.3748362 0.06409745
0.91096875 -0.3475978 0.1866852
0.9121171875 -0.2812085 0.2996582
0.913265625 -0.1785732 0.3905501
0.9144140625 -0.04667871 0.4483335
0.9155625 0.1056019 0.4634592
0.9167109375 0.2648003 0.4285665
0.917859375 0.4163399 0.3396355
0.9190078125 0.5417064 0.1959029
0.92015625 0.6220376 0.002154652
0.9213046875 0.6354235 -0.2305899
0.922453125 0.5601446 -0.481355
0.9236015625 0.3792781 -0.7170548
0.92475 0.08524187 -0.890104
0.9258984375 -0.3048864 -0.936689
0.927046875 -0.7336729 -0.79044
0.9281953125 -1.087979 -0.4168126
0.92934375 -1.220958 0.1371694
0.9304921875 -1.034904 0.7106463
0.931640625 -0.5717376 1.098498
0.9327890625 -0.00368121 1.182841
0.9339375 0.4825907 0.9934983
0.9350859375 0.7872013 0.6444522
0.936234375 0.8965344 0.2535544
0.9373828125 0.846514 -0.09834162
0.93853125 0.6891215 -0.3678997
0.9396796875 0.473332 -0.5408962
0.940828125 0.2392355 -0.6199911
0.9419765625 0.0164733 -0.6172416
0.943125 -0.1746695 -0.5500758
0.9442734375 -0.322094 -0.4363544
0.945421875 -0.4192771 -0.2942776
0.9465703125 -0.4660915 -0.1404206
0.94771875 -0.4644931 0.01086732
0.9488671875 -0.4205695 0.147217
0.950015625 -0.3419813 0.2592151
0.9511640625 -0.2384453 0.3398722
0.9523125 -0.1201622 0.3847125
0.9534609375 0.002565381 0.3929213
0.954609375 0.1190441 0.365145
0.9557578125 0.2201713 0.3057488
0.95690625 0.2973387 0.2204374
0.9580546875 0.3450312 0.1178772
0.959203125 0.359773 0.007299625
0.9603515625 0.3407717 -0.101422
0.9615 0.2909332 -0.1981511
0.9626484375 0.2150261 -0.2747014
0.963796875 0.1206726 -0.324573
0.9649453125 0.01674008 -0.3438257
0.96609375 -0.08756624 -0.3312443
0.9672421875 -0.1826597 -0.2887827
0.968390625 -0.2606725 -0.2204657
0.9695390625 -0.3154294 -0.1326036
0.9706875 -0.3420268 -0.03243826
0.9718359375 -0.3385711 0.07152244
0.972984375 -0.304718 0.1706011
0.9741328125 -0.2434428 0.2570328
0.97528125 -0.158475 0.3230908
0.9764296875 -0.05622915 0.3629158
0.977578125 0.05637634 0.3719356
0.9787265625 0.169827 0.3476115
0.979875 0.2752266 0.2888819
0.9810234375 0.3624586 0.1987588
0.982171875 0.4217039 0.08189569
0.9833203125 0.4451993 -0.05429211
0.98446875 0.4256412 -0.1986373
0.9856171875 0.3595488 -0.3386702
0.986765625 0.2469415 -0.4591051
0.9879140625 0.09184779 -0.5446575
0.9890625 -0.09532635 -0.5801501
0.9902109375 -0.3007771 -0.5517806
0.991359375 -0.5028077 -0.4503759
0.9925078125 -0.6763409 -0.2713438
0.99365625 -0.7910722 -0.01876662
0.9948046875 -0.8122159 0.2926364
0.995953125 -0.7054331 0.6311415
0.9971015625 -0.4412375 0.9416066
0.99825 -0.01397192 1.140432
0.9993984375 0.5274616 1.119442
