# GHZ S RI R 50.0
0.3 -3.090195 0.7239369
0.3011484375 -2.211155 1.734497
0.302296875 -1.188555 2.168972
0.3034453125 -0.2675233 2.162889
0.30459375 0.4456473 1.877396
0.3057421875 0.9290938 1.44812
0.306890625 1.206514 0.9698508
0.3080390625 1.314051 0.5036635
0.3091875 1.288988 0.08257864
0.3103359375 1.16657 -0.274403
0.311484375 0.974138 -0.5601598
0.3126328125 0.7349819 -0.7693263
0.31378125 0.4657582 -0.9042829
0.3149296875 0.1853029 -0.9630842
0.316078125 -0.09369919 -0.948648
0.3172265625 -0.3547453 -0.8635644
0.318375 -0.5823423 -0.7117808
0.3195234375 -0.758756 -0.5011198
0.320671875 -0.8672455 -0.2462765
0.3218203125 -0.8928846 0.03171051
0.32296875 -0.8292245 0.3053948
0.3241171875 -0.6808947 0.5434235
0.325265625 -0.4650236 0.7170773
0.3264140625 -0.2093227 0.807509
0.3275625 0.05356877 0.809339
0.3287109375 0.2910073 0.7303907
0.329859375 0.4826316 0.5874845
0.3310078125 0.6157314 0.4033102
0.33215625 0.6854233 0.2002489
0.3333046875 0.6947618 -0.005328978
0.334453125 0.6504728 -0.196418
0.3356015625 0.5607435 -0.3642557
0.33675 0.4337768 -0.5009095
0.3378984375 0.2786247 -0.5992987
0.339046875 0.103378 -0.6559194
0.3401953125 -0.08369348 -0.6669633
0.34134375 -0.2709822 -0.6291265
0.3424921875 -0.4498028 -0.5408234
0.343640625 -0.6052026 -0.4019129
0.3447890625 -0.7227936 -0.2151547
0.3459375 -0.7869678 0.01045026
0.3470859375 -0.7808163 0.2619144
0.348234375 -0.6917191 0.5171945
0.3493828125 -0.514919 0.744721
0.35053125 -0.2564965 0.9138159
0.3516796875 0.06240425 0.9917289
0.352828125 0.4064859 0.955384
0.3539765625 0.7344492 0.7968738
0.355125 1.003113 0.5241511
0.3562734375 1.173637 0.1611447
0.357421875 1.219361 -0.260713
0.3585703125 1.118059 -0.7044126
0.35971875 0.8562689 -1.124391
0.3608671875 0.4246758 -1.467383
0.362015625 -0.1735683 -1.659829
0.3631640625 -0.9038665 -1.599322
0.3643125 -1.658206 -1.163154
0.3654609375 -2.184833 -0.2808851
0.366609375 -2.136617 0.8916748
0.3677578125 -1.365974 1.857057
0.36890625 -0.2215483 2.161021
0.3700546875 0.7641478 1.813015
0.371203125 1.331998 1.137755
0.3723515625 1.497688 0.4191538
0.3735 1.375632 -0.1898699
0.3746484375 1.075637 -0.6362528
0.375796875 0.6867466 -0.9028054
0.3769453125 0.2748014 -0.999496
0.37809375 -0.1039435 -0.9460088
0.3792421875 -0.4076574 -0.7770328
0.380390625 -0.6118696 -0.5324302
0.3815390625 -0.7070277 -0.255561
0.3826875 -0.6988302 0.01124396
0.3838359375 -0.6059936 0.2393543
0.384984375 -0.454861 0.4071867
0.3861328125 -0.2720626 0.506929
0.38728125 -0.08069146 0.5402983
0.3884296875 0.09962582 0.5130944
0.389578125 0.2543623 0.4361771
0.3907265625 0.3735537 0.3205876
0.391875 0.4508894 0.1786369
0.3930234375 0.4825942 0.02255625
0.394171875 0.4672482 -0.1361435
0.3953203125 0.4048765 -0.2858543
0.39646875 0.2979847 -0.4139508
0.3976171875 0.1512472 -0.5088324
0.398765625 -0.02789479 -0.5572852
0.3999140625 -0.2263349 -0.5475463
0.4010625 -0.4279663 -0.4684315
0.4022109375 -0.6079165 -0.3150093
0.403359375 -0.7391976 -0.08826622
0.4045078125 -0.7894875 0.1992562
0.40565625 -0.7296813 0.5209645
0.4068046875 -0.5352992 0.8360581
0.407953125 -0.1995273 1.087588
0.4091015625 0.2673569 1.211036
0.41025 0.82653 1.133738
0.4113984375 1.396759 0.7791331
0.412546875 1.831374 0.08790015
0.4136953125 1.881299 -0.9186098
0.41484375 1.247506 -1.966613
0.4159921875 -0.06537439 -2.440382
0.417140625 -1.373951 -1.917691
0.4182890625 -1.966767 -0.8195649
0.4194375 -1.851146 0.187182
0.4205859375 -1.382372 0.8354957
0.421734375 -0.8277096 1.147829
0.4228828125 -0.3107671 1.218012
0.42403125 0.1204537 1.127426
0.4251796875 0.4503004 0.934371
0.426328125 0.6787605 0.6809971
0.4274765625 0.8076227 0.3985772
0.428625 0.844316 0.1119162
0.4297734375 0.7960002 -0.1561083
0.430921875 0.6747881 -0.3854802
0.4320703125 0.4963338 -0.5586496
0.43321875 0.2804081 -0.663198
0.4343671875 0.05211754 -0.6923077
0.435515625 -0.1653541 -0.6493435
0.4366640625 -0.3499995 -0.5434092
0.4378125 -0.4850901 -0.3915294
0.4389609375 -0.5623585 -0.2132674
0.440109375 -0.579775 -0.02927372
0.4412578125 -0.5423732 0.1430305
0.44240625 -0.459838 0.2889769
0.4435546875 -0.3440352 0.3999191
0.444703125 -0.2074886 0.4706386
0.4458515625 -0.06185521 0.5000221
0.447 0.0820415 0.4888713
0.4481484375 0.2151605 0.4405509
0.449296875 0.3290467 0.3593675
0.4504453125 0.417004 0.2514528
0.45159375 0.4730906 0.1233337
0.4527421875 0.4930485 -0.01680327
0.453890625 0.4738301 -0.1596296
0.4550390625 0.413889 -0.2951332
0.4561875 0.3157288 -0.4113383
0.4573359375 0.1843757 -0.4970785
0.458484375 0.02792605 -0.5416673
0.4596328125 -0.1403174 -0.5369803
0.46078125 -0.3041147 -0.4793091
0.4619296875 -0.445984 -0.370796
0.463078125 -0.5490625 -0.2198383
0.4642265625 -0.6011283 -0.04105485
0.465375 -0.5948285 0.1479629
0.4665234375 -0.5297411 0.3277857
0.467671875 -0.412401 0.4809812
0.4688203125 -0.2530304 0.5930891
0.46996875 -0.06602375 0.6544346
0.4711171875 0.1333315 0.6596894
0.472265625 0.3310359 0.6075271
0.4734140625 0.5103987 0.5006497
0.4745625 0.6595631 0.3428052
0.4757109375 0.7650532 0.1410241
0.476859375 0.8145065 -0.09498824
0.4780078125 0.7961411 -0.3526176
0.47915625 0.6997769 -0.6156541
0.4803046875 0.5166885 -0.8625395
0.481453125 0.242376 -1.067135
0.4826015625 -0.1217958 -1.194688
0.48375 -0.5623925 -1.204295
0.4848984375 -1.04924 -1.048697
0.486046875 -1.523348 -0.6809432
0.4871953125 -1.887665 -0.06284574
0.48834375 -1.993539 0.79379
0.4894921875 -1.647979 1.783056
0.490640625 -0.6987221 2.614554
0.4917890625 0.7532138 2.814833
0.4929375 2.147813 2.057596
0.4940859375 2.787797 0.6295201
0.495234375 2.503452 -0.7485491
0.4963828125 1.678694 -1.60437
0.49753125 0.7474925 -1.898627
0.4986796875 -0.04625373 -1.794908
0.499828125 -0.6204098 -1.463729
0.5009765625 -0.9762849 -1.03293
0.502125 -1.143118 -0.582737
0.5032734375 -1.158575 -0.163557
0.504421875 -1.059666 0.1970205
0.5055703125 -0.8781342 0.4820879
0.50671875 -0.642884 0.6843087
0.5078671875 -0.3791783 0.8018087
0.509015625 -0.1096318 0.8363517
0.5101640625 0.1459434 0.7937351
0.5113125 0.3677521 0.6836952
0.5124609375 0.5410649 0.5191394
0.513609375 0.6545842 0.3162014
0.5147578125 0.6998588 0.094221
0.51590625 0.6756924 -0.1258716
0.5170546875 0.5869964 -0.3224258
0.518203125 0.4451757 -0.4782097
0.5193515625 0.2663326 -0.5790846
0.5205 0.07014278 -0.6183694
0.5216484375 -0.1230801 -0.5958042
0.522796875 -0.2952862 -0.5169473
0.5239453125 -0.43177 -0.3934128
0.52509375 -0.5224828 -0.2380803
0.5262421875 -0.562539 -0.06652527
0.527390625 -0.550979 0.1062481
0.5285390625 -0.490558 0.2667223
0.5296875 -0.3872159 0.4025203
0.5308359375 -0.248899 0.5039224
0.531984375 -0.08538632 0.5619974
0.5331328125 0.09149045 0.5715202
0.53428125 0.2686614 0.5285509
0.5354296875 0.4321192 0.4325944
0.536578125 0.566662 0.2856249
0.5377265625 0.6560654 0.09605476
0.538875 0.6858705 -0.1263013
0.5400234375 0.6424932 -0.364028
0.541171875 0.5166484 -0.5945445
0.5423203125 0.3048623 -0.7898758
0.54346875 0.01140581 -0.9173406
0.5446171875 -0.3473221 -0.9409329
0.545765625 -0.7412645 -0.8230783
0.5469140625 -1.11579 -0.5304972
0.5480625 -1.394061 -0.03727429
0.5492109375 -1.449723 0.6501276
0.550359375 -1.110001 1.435327
0.5515078125 -0.2267073 2.024419
0.55265625 1.017441 1.924663
0.5538046875 1.919775 0.9585338
0.554953125 1.937943 -0.2549093
0.5561015625 1.333683 -1.054106
0.55725 0.5945265 -1.333089
0.5583984375 -0.02449819 -1.260863
0.559546875 -0.4584722 -1.005657
0.5606953125 -0.7155477 -0.6742592
0.56184375 -0.8234093 -0.3316632
0.5629921875 -0.8126503 -0.01648773
0.564140625 -0.711507 0.2484761
0.5652890625 -0.5461492 0.4481847
0.5664375 -0.3410716 0.5751795
0.5675859375 -0.119763 0.6265457
0.568734375 0.09493502 0.6051542
0.5698828125 0.2830341 0.5195981
0.57103125 0.4278719 0.382915
0.5721796875 0.5177192 0.2124469
0.573328125 0.5464079 0.02753222
0.5744765625 0.5145926 -0.1517115
0.575625 0.4290376 -0.3067713
0.5767734375 0.3016877 -0.4244378
0.577921875 0.1475414 -0.4936124
0.5790703125 -0.0178768 -0.5113033
0.58021875 -0.1782771 -0.4779784
0.5813671875 -0.3198114 -0.398638
0.582515625 -0.4308786 -0.2810287
0.5836640625 -0.502363 -0.135528
0.5848125 -0.5285589 0.02608451
0.5859609375 -0.5063076 0.1912427
0.587109375 -0.4356397 0.346921
0.5882578125 -0.3190798 0.4801581
0.58940625 -0.1629423 0.57752
0.5905546875 0.02415951 0.6277906
0.591703125 0.2294267 0.620803
0.5928515625 0.4367861 0.5487542
0.594 0.6264516 0.4075661
0.5951484375 0.7758153 0.1991969
0.596296875 0.8606742 -0.06770617
0.5974453125 0.8569516 -0.3763048
0.59859375 0.7436013 -0.6997046
0.5997421875 0.504952 -1.001128
0.600890625 0.1351619 -1.233133
0.6020390625 -0.3559079 -1.335618
0.6031875 -0.9350376 -1.23985
0.6043359375 -1.526777 -0.8688403
0.605484375 -1.985955 -0.1603031
0.6066328125 -2.070428 0.862506
0.60778125 -1.5063 1.94705
0.6089296875 -0.274442 2.553623
0.610078125 1.09112 2.25783
0.6112265625 1.916965 1.286923
0.612375 2.042171 0.2176333
0.6135234375 1.704807 -0.5931681
0.614671875 1.173364 -1.071679
0.6158203125 0.6165089 -1.269656
0.61696875 0.1160086 -1.261885
0.6181171875 -0.2884202 -1.112396
0.619265625 -0.5865967 -0.874881
0.6204140625 -0.7751307 -0.5896631
0.6215625 -0.8599865 -0.2897502
0.6227109375 -0.8511487 -0.002492805
0.623859375 -0.7627554 0.2504261
0.6250078125 -0.6122329 0.4516476
0.62615625 -0.4194835 0.5894645
0.6273046875 -0.205699 0.6587123
0.628453125 0.007635861 0.6597459
0.6296015625 0.201895 0.5986126
0.63075 0.3600161 0.4875889
0.6318984375 0.47206 0.3414909
0.633046875 0.5326104 0.1759141
0.6341953125 0.5410546 0.007877165
0.63534375 0.5018402 -0.1485237
0.6364921875 0.4222935 -0.2812403
0.637640625 0.3123066 -0.3820935
0.6387890625 0.1827976 -0.4453519
0.6399375 0.0445721 -0.4691546
0.6410859375 -0.09181565 -0.4537692
0.642234375 -0.2155702 -0.4021035
0.6433828125 -0.3187891 -0.3194423
0.64453125 -0.3944765 -0.2124345
0.6456796875 -0.4373838 -0.08911565
0.646828125 -0.4440835 0.04163104
0.6479765625 -0.4137677 0.1693591
0.649125 -0.347865 0.2844431
0.6502734375 -0.2506673 0.3764844
0.651421875 -0.1292994 0.4374608
0.6525703125 0.006445569 0.4611603
0.65371875 0.145184 0.4433393
0.6548671875 0.2748847 0.3840559
0.656015625 0.3824875 0.2877107
0.6571640625 0.4576506 0.1619311
0.6583125 0.4924876 0.01668681
0.6594609375 0.4822212 -0.1346065
0.660609375 0.4268098 -0.2782894
0.6617578125 0.329556 -0.4015236
0.66290625 0.1979362 -0.4923145
0.6640546875 0.04208265 -0.5418049
0.665203125 -0.1258505 -0.5440806
0.6663515625 -0.2923126 -0.4963947
0.6675 -0.4435855 -0.3989951
0.6686484375 -0.5654985 -0.2563467
0.669796875 -0.6448935 -0.07584698
0.6709453125 -0.6697394 0.1318799
0.67209375 -0.6305918 0.3516089
0.6732421875 -0.5199737 0.5650587
0.674390625 -0.3353657 0.7506767
0.6755390625 -0.07993996 0.8819102
0.6766875 0.234989 0.9311879
0.6778359375 0.5873873 0.8690355
0.678984375 0.9397608 0.667834
0.6801328125 1.237272 0.3089694
0.68128125 1.402683 -0.2069555
0.6824296875 1.338643 -0.8414526
0.683578125 0.9441085 -1.483166
0.6847265625 0.1736455 -1.922775
0.685875 -0.8397288 -1.882807
0.6870234375 -1.715118 -1.223559
0.688171875 -2.036783 -0.1770709
0.6893203125 -1.726844 0.7843233
0.69046875 -1.054679 1.343658
0.6916171875 -0.3313623 1.481592
0.692765625 0.2620561 1.321118
0.6939140625 0.6659215 0.9992204
0.6950625 0.884789 0.6159598
0.6962109375 0.9465429 0.2392025
0.697359375 0.8874795 -0.09222052
0.6985078125 0.7414905 -0.3557551
0.69965625 0.5402834 -0.5406976
0.7008046875 0.3113056 -0.6445875
0.701953125 0.07916176 -0.6702998
0.7031015625 -0.1361194 -0.6261462
0.70425 -0.3170896 -0.5234265
0.7053984375 -0.4509633 -0.3763743
0.706546875 -0.529249 -0.2019971
0.7076953125 -0.5484937 -0.01812894
0.70884375 -0.5098819 0.157217
0.7099921875 -0.4203007 0.3076325
0.711140625 -0.2905196 0.4193553
0.7122890625 -0.134966 0.4828813
0.7134375 0.03012345 0.4934638
0.7145859375 0.187885 0.451666
0.715734375 0.3233971 0.3630884
0.7168828125 0.4232218 0.2368463
0.71803125 0.4786258 0.08552187
0.7191796875 0.4840449 -0.076169
0.720328125 0.438194 -0.2332294
0.7214765625 0.3440181 -0.371031
0.722625 0.2083185 -0.4757283
0.7237734375 0.04116771 -0.5345845
0.724921875 -0.1442576 -0.5388958
0.7260703125 -0.331523 -0.4819543
0.72721875 -0.5017776 -0.3612345
0.7283671875 -0.6341645 -0.1788556
0.729515625 -0.7059398 0.05683681
0.7306640625 -0.6939086 0.3287959
0.7318125 -0.5767649 0.6105627
0.7329609375 -0.3381011 0.863485
0.734109375 0.02617477 1.032119
0.7352578125 0.4963198 1.044173
0.73640625 1.006351 0.8200377
0.7375546875 1.419253 0.3020698
0.738703125 1.522853 -0.4688198
0.7398515625 1.133362 -1.254816
0.741 0.3118425 -1.681151
0.7421484375 -0.5746865 -1.539137
0.743296875 -1.160286 -0.9785382
0.7444453125 -1.338792 -0.3047031
0.74559375 -1.202746 0.2675299
0.7467421875 -0.8928313 0.6548582
0.747890625 -0.5206039 0.8552359
0.7490390625 -0.1502915 0.8641482
0.7501875 0.151306 0.7928717
0.7513359375 0.3840356 0.642965
0.752484375 0.5405631 0.4465456
0.7536328125 0.6203747 0.2296344
0.75478125 0.6285775 0.01487065
0.7559296875 0.5741456 -0.1798588
0.757078125 0.4685232 -0.3404064
0.7582265625 0.3256592 -0.456229
0.759375 0.1602601 -0.5207964
0.7605234375 -0.01156673 -0.5322292
0.761671875 -0.1743935 -0.4916592
0.7628203125 -0.3143609 -0.4055255
0.76396875 -0.41974 -0.2828585
0.7651171875 -0.4812231 -0.1360387
0.766265625 -0.4949946 0.02039917
0.7674140625 -0.4609037 0.1717891
0.7685625 -0.3827858 0.3044138
0.7697109375 -0.2692728 0.4064294
0.770859375 -0.1313201 0.4687345
0.7720078125 0.01847734 0.4871016
0.77315625 0.1666929 0.4600155
0.7743046875 0.3006234 0.390147
0.775453125 0.4084846 0.2837081
0.7766015625 0.4817974 0.1490514
0.77775 0.5132185 -0.003314815
0.7788984375 0.4986893 -0.1612916
0.780046875 0.4378867 -0.3126709
0.7811953125 0.3320608 -0.4434183
0.78234375 0.188118 -0.5417998
0.7834921875 0.01368898 -0.5957924
0.784640625 -0.1779816 -0.5959237
0.7857890625 -0.3717224 -0.5359433
0.7869375 -0.5490589 -0.4126264
0.7880859375 -0.689254 -0.2290148
0.789234375 -0.7710127 0.006074024
0.7903828125 -0.774917 0.2755446
0.79153125 -0.6844278 0.5550603
0.7926796875 -0.4892402 0.8122114
0.793828125 -0.1894387 1.006116
0.7949765625 0.1989641 1.091953
0.796125 0.6407881 1.023004
0.7972734375 1.072235 0.7592461
0.798421875 1.39767 0.2852941
0.7995703125 1.494567 -0.3570809
0.80071875 1.252437 -1.040052
0.8018671875 0.6566441 -1.548282
0.803015625 -0.1395852 -1.674045
0.8041640625 -0.8651559 -1.371361
0.8053125 -1.299815 -0.787723
0.8064609375 -1.389902 -0.1460121
0.807609375 -1.211517 0.3899435
0.8087578125 -0.8792174 0.7500887
0.80990625 -0.492817 0.9293308
0.8110546875 -0.1200485 0.9537925
0.812203125 0.1986599 0.8607206
0.8133515625 0.4401143 0.6874241
0.8145 0.5975734 0.4678371
0.8156484375 0.6701195 0.2315384
0.816796875 0.6656655 0.003155549
0.8179453125 0.5955687 -0.1976316
0.81909375 0.4749485 -0.3557743
0.8202421875 0.3213359 -0.4625562
0.821390625 0.1523511 -0.5138202
0.8225390625 -0.01458265 -0.5109903
0.8236875 -0.1647373 -0.4598485
0.8248359375 -0.2858509 -0.3705923
0.825984375 -0.3699732 -0.2545343
0.8271328125 -0.413883 -0.1248129
0.82828125 -0.416977 0.006084937
0.8294296875 -0.38285 0.1270915
0.830578125 -0.3171645 0.2288229
0.8317265625 -0.228101 0.3046513
0.832875 -0.1243081 0.3501777
0.8340234375 -0.01460653 0.363603
0.835171875 0.09225567 0.3453817
0.8363203125 0.1877959 0.2985452
0.83746875 0.265025 0.227075
0.8386171875 0.31812 0.1371147
0.839765625 0.3431801 0.03598511
0.8409140625 0.3380259 -0.06833763
0.8420625 0.302436 -0.1669798
0.8432109375 0.2387876 -0.2516001
0.844359375 0.1522184 -0.3142715
0.8455078125 0.04940749 -0.3487886
0.84665625 -0.06052683 -0.350821
0.8478046875 -0.1677898 -0.3189034
0.848953125 -0.2618384 -0.2548738
0.8501015625 -0.3331141 -0.1634264
0.85125 -0.3739605 -0.05239896
0.8523984375 -0.3788387 0.06838556
0.853546875 -0.3460283 0.1873142
0.8546953125 -0.2765974 0.2935208
0.85584375 -0.175286 0.3761625
0.8569921875 -0.04949041 0.4257146
0.858140625 0.09088854 0.435233
0.8592890625 0.2346289 0.400562
0.8604375 0.3680528 0.319208
0.8615859375 0.4777254 0.1931566
0.862734375 0.5482584 0.02715898
0.8638828125 0.5647376 -0.1695851
0.86503125 0.5125338 -0.3827517
0.8661796875 0.3766962 -0.590266
0.867328125 0.1476889 -0.760505
0.8684765625 -0.1753767 -0.8467221
0.869625 -0.5692675 -0.7856865
0.8707734375 -0.9623944 -0.5101494
0.871921875 -1.206663 0.01174883
0.8730703125 -1.105879 0.6721387
0.87421875 -0.5886334 1.177761
0.8753671875 0.118386 1.257056
0.876515625 0.6736581 0.9369487
0.8776640625 0.9225454 0.4526806
0.8788125 0.9063264 0.001392838
0.8799609375 0.7296684 -0.3287277
0.881109375 0.4821669 -0.5222494
0.8822578125 0.2249002 -0.5959398
0.88340625 -0.005829465 -0.5754915
0.8845546875 -0.1902164 -0.4888467
0.885703125 -0.3194865 -0.3613736
0.8868515625 -0.3922437 -0.214623
0.888 -0.4123387 -0.06630661
0.8891484375 -0.386874 0.06929141
0.890296875 -0.3250865 0.1821813
0.8914453125 -0.2369679 0.2653892
0.89259375 -0.1330266 0.3149503
0.8937421875 -0.02379587 0.3296796
0.894890625 0.08110817 0.3110454
0.8960390625 0.1726523 0.2627702
0.8971875 0.2435643 0.1903398
0.8983359375 0.2881272 0.1006918
0.899484375 0.3028166 0.002699747
0.9006328125 0.2862795 -0.09446894
0.90178125 0.240537 -0.1813793
0.9029296875 0.1696318 -0.2497843
0.904078125 0.08033152 -0.2926883
0.9052265625 -0.01871975 -0.3054268
0.906375 -0.1175038 -0.2859266
0.9075234375 -0.206193 -0.2358532
0.908671875 -0.2753316 -0.1592534
0.9098203125 -0.317849 -0.06343447
0.91096875 -0.3284133 0.04293578
0.9121171875 -0.3047244 0.149476
0.913265625 -0.2476898 0.245986
0.9144140625 -0.1610954 0.3225468
0.9155625 -0.05139388 0.3705474
0.9167109375 0.07291505 0.3833089
0.917859375 0.2013228 0.3557245
0.9190078125 0.3218102 0.2864319
0.92015625 0.4211591 0.1761796
0.9213046875 0.4857792 0.02999778
0.922453125 0.5022203 -0.1427894
0.9236015625 0.4586192 -0.3285405
0.92475 0.3446851 -0.5072881
0.9258984375 0.1563854 -0.6523336
0.927046875 -0.102033 -0.7312075
0.9281953125 -0.4100987 -0.7050866
0.92934375 -0.7257067 -0.537011
0.9304921875 -0.9750429 -0.205934
0.931640625 -1.056446 0.2643279
0.9327890625 -0.8759884 0.7729477
0.9339375 -0.4195947 1.141126
0.9350859375 0.1817556 1.205227
0.936234375 0.7076135 0.9426606
0.9373828125 0.994918 0.4840538
0.93853125 1.019344 0.004040363
0.9396796875 0.8499016 -0.3790944
0.940828125 0.57804 -0.6204292
0.9419765625 0.2784066 -0.7223457
0.943125 0.0005712086 -0.7105955
0.9442734375 -0.2272386 -0.6147201
0.945421875 -0.3915088 -0.4657311
0.9465703125 -0.4890431 -0.2896795
0.94771875 -0.5234095 -0.1080674
0.9488671875 -0.5019236 0.06174558
0.950015625 -0.4339412 0.2069589
0.9511640625 -0.3316562 0.3181823
0.9523125 -0.2072669 0.3898789
0.9534609375 -0.07310745 0.4197687
0.954609375 0.05856962 0.4085963
0.9557578125 0.1768712 0.3599375
0.95690625 0.2724303 0.2805297
0.9580546875 0.3377577 0.1788295
0.959203125 0.3689758 0.06490997
0.9603515625 0.364158 -0.0508928
0.9615 0.325542 -0.1576385
0.9626484375 0.2576132 -0.2460087
0.963796875 0.1678386 -0.3087506
0.9649453125 0.06492203 -0.3412709
0.96609375 -0.04148847 -0.3413832
0.9672421875 -0.141775 -0.3103164
0.968390625 -0.2275982 -0.25167
0.9695390625 -0.2917426 -0.1709661
0.9706875 -0.3292571 -0.07560113
0.9718359375 -0.3374708 0.02645367
0.972984375 -0.3157967 0.1264527
0.9741328125 -0.265887 0.2167877
0.97528125 -0.1914151 0.2893971
0.9764296875 -0.09791001 0.3384882
0.977578125 0.00784434 0.3589756
0.9787265625 0.1177432 0.3476924
0.979875 0.2227515 0.3039805
0.9810234375 0.3131022 0.2290519
0.982171875 0.3801899 0.1272715
0.9833203125 0.4161113 0.00503938
0.98446875 0.413553 -0.1284917
0.9856171875 0.368752 -0.2616443
0.986765625 0.2812826 -0.3812353
0.9879140625 0.1539296 -0.4737495
0.9890625 -0.00558261 -0.5257435
0.9902109375 -0.1852 -0.5252891
0.991359375 -0.3682885 -0.464289
0.9925078125 -0.5359348 -0.3383201
0.99365625 -0.6647468 -0.1486378
0.9948046875 -0.7301155 0.09568762
0.995953125 -0.7065709 0.3765007
0.9971015625 -0.5705273 0.6645336
0.99825 -0.3041511 0.9139531
0.9993984375 0.09194484 1.057047
1.000546875 0.5791485 1.011577
