# GHZ S RI R 50.0
0.3 -3.44782 -0.2323844
0.3011484375 -2.868386 1.224251
0.302296875 -1.843191 2.062339
0.3034453125 -0.7782947 2.311326
0.30459375 0.1144643 2.148394
0.3057421875 0.758554 1.7511
0.306890625 1.157396 1.254235
0.3080390625 1.349918 0.7431657
0.3091875 1.380876 0.2683449
0.3103359375 1.2888 -0.143058
0.311484375 1.110525 -0.4765942
0.3126328125 0.8721099 -0.7318742
0.31378125 0.5960954 -0.9035059
0.3149296875 0.3007457 -0.9944064
0.316078125 0.003743319 -1.005374
0.3172265625 -0.280069 -0.9392639
0.318375 -0.5336452 -0.8001598
0.3195234375 -0.7363842 -0.5962359
0.320671875 -0.8710344 -0.3410563
0.3218203125 -0.9223838 -0.0555119
0.32296875 -0.8807458 0.2318818
0.3241171875 -0.7495671 0.4888955
0.325265625 -0.5443153 0.6853183
0.3264140625 -0.2925293 0.799895
0.3275625 -0.02669872 0.8245094
0.3287109375 0.2205257 0.7654218
0.329859375 0.4261786 0.6391882
0.3310078125 0.576215 0.4672931
0.33215625 0.6642227 0.2700311
0.3333046875 0.6922426 0.06726912
0.334453125 0.6660492 -0.1263492
0.3356015625 0.5929344 -0.2996718
0.33675 0.4814149 -0.4451126
0.3378984375 0.3390914 -0.5558665
0.339046875 0.1747074 -0.6274933
0.3401953125 -0.00396258 -0.656028
0.34134375 -0.1870497 -0.638613
0.3424921875 -0.3650274 -0.5727239
0.343640625 -0.525864 -0.4580376
0.3447890625 -0.655614 -0.2964719
0.3459375 -0.7391675 -0.09416117
0.3470859375 -0.7613925 0.1368442
0.348234375 -0.709473 0.3787037
0.3493828125 -0.5783671 0.6029893
0.35053125 -0.3699826 0.7832707
0.3516796875 -0.1029269 0.8900388
0.352828125 0.1959564 0.9026824
0.3539765625 0.4909311 0.8128248
0.355125 0.7464524 0.6273845
0.3562734375 0.9325545 0.3640749
0.357421875 1.029738 0.04809558
0.3585703125 1.025416 -0.2920364
0.35971875 0.9154913 -0.6268904
0.3608671875 0.7003943 -0.9292421
0.362015625 0.3850659 -1.170456
0.3631640625 -0.0204869 -1.318474
0.3643125 -0.5023442 -1.335711
0.3654609375 -1.029935 -1.176301
0.366609375 -1.538121 -0.7875326
0.3677578125 -1.916743 -0.1264718
0.36890625 -1.979374 0.7808702
0.3700546875 -1.520764 1.747857
0.371203125 -0.4954114 2.382872
0.3723515625 0.7676891 2.312134
0.3735 1.726522 1.556675
0.3746484375 2.079165 0.5090394
0.375796875 1.886298 -0.4288887
0.3769453125 1.369038 -1.064596
0.37809375 0.7336761 -1.367336
0.3792421875 0.1263785 -1.384222
0.380390625 -0.3649196 -1.193049
0.3815390625 -0.7008773 -0.8764122
0.3826875 -0.8738187 -0.511826
0.3838359375 -0.9035175 -0.1572062
0.384984375 -0.820825 0.147032
0.3861328125 -0.662108 0.377972
0.38728125 -0.4611098 0.5288273
0.3884296875 -0.2459635 0.6017931
0.389578125 -0.03833698 0.6060427
0.3907265625 0.1461613 0.5530149
0.391875 0.2971577 0.4552905
0.3930234375 0.4070001 0.3256198
0.394171875 0.472942 0.175716
0.3953203125 0.492385 0.01724344
0.39646875 0.4659804 -0.1372442
0.3976171875 0.39526 -0.2780667
0.398765625 0.2846785 -0.3923665
0.3999140625 0.1417192 -0.4689605
0.4010625 -0.02347398 -0.4983758
0.4022109375 -0.1963849 -0.4717194
0.403359375 -0.3568788 -0.3862066
0.4045078125 -0.4855199 -0.244596
0.40565625 -0.5610813 -0.0580199
0.4068046875 -0.5659811 0.152441
0.407953125 -0.4926163 0.3617531
0.4091015625 -0.3432671 0.5391496
0.41025 -0.1301436 0.6578387
0.4113984375 0.1236177 0.6967179
0.412546875 0.3911115 0.6419913
0.4136953125 0.6410014 0.4884515
0.41484375 0.840822 0.2375542
0.4159921875 0.953976 -0.1017964
0.417140625 0.937888 -0.5107664
0.4182890625 0.7417351 -0.9507694
0.4194375 0.3082348 -1.342282
0.4205859375 -0.3863288 -1.529969
0.421734375 -1.238168 -1.281273
0.4228828125 -1.87338 -0.456108
0.42403125 -1.836741 0.6554171
0.4251796875 -1.143102 1.45028
0.426328125 -0.2534862 1.658737
0.4274765625 0.4692882 1.427744
0.428625 0.9188135 0.9864225
0.4297734375 1.114475 0.4918024
0.430921875 1.111609 0.0315785
0.4320703125 0.9631124 -0.3474532
0.43321875 0.7192742 -0.6198706
0.4343671875 0.4256508 -0.7766319
0.435515625 0.1237307 -0.8202194
0.4366640625 -0.1526859 -0.7644044
0.4378125 -0.375552 -0.6310537
0.4389609375 -0.5298763 -0.4468235
0.440109375 -0.6114182 -0.2392792
0.4412578125 -0.6228696 -0.03233721
0.44240625 -0.5742096 0.1549295
0.4435546875 -0.4784505 0.3093809
0.444703125 -0.3497681 0.4223174
0.4458515625 -0.2019389 0.4906242
0.447 -0.04776576 0.5142114
0.4481484375 0.1016981 0.4951673
0.449296875 0.2369851 0.4377406
0.4504453125 0.3499201 0.3472078
0.45159375 0.4332682 0.2304416
0.4527421875 0.4818756 0.09494635
0.453890625 0.4912894 -0.04984253
0.4550390625 0.4593448 -0.1934404
0.4561875 0.3862874 -0.3247881
0.4573359375 0.2753761 -0.4316656
0.458484375 0.1343025 -0.5026839
0.4596328125 -0.0258514 -0.5280038
0.46078125 -0.1895843 -0.5023215
0.4619296875 -0.3401916 -0.425418
0.463078125 -0.4608404 -0.3032215
0.4642265625 -0.5378972 -0.1475519
0.465375 -0.562699 0.02550346
0.4665234375 -0.5326495 0.1979548
0.467671875 -0.4512843 0.3534634
0.4688203125 -0.3273079 0.4772051
0.46996875 -0.1725438 0.5594183
0.4711171875 4.907882E-05 0.5938072
0.472265625 0.1768243 0.5781474
0.4734140625 0.3446522 0.5131089
0.4745625 0.4916701 0.4024341
0.4757109375 0.6072958 0.251603
0.476859375 0.6805084 0.06763691
0.4780078125 0.7021003 -0.1396503
0.47915625 0.6640024 -0.3567141
0.4803046875 0.5611206 -0.5692372
0.481453125 0.3892366 -0.7588675
0.4826015625 0.1503222 -0.903456
0.48375 -0.1482461 -0.9783458
0.4848984375 -0.4898483 -0.9582021
0.486046875 -0.846512 -0.8168626
0.4871953125 -1.176901 -0.5366095
0.48834375 -1.425159 -0.1094136
0.4894921875 -1.522545 0.4502353
0.490640625 -1.39007 1.096091
0.4917890625 -0.9533765 1.735005
0.4929375 -0.1689171 2.204581
0.4940859375 0.9027027 2.274979
0.495234375 2.019838 1.719247
0.4963828125 2.717131 0.5244424
0.49753125 2.59626 -0.8971813
0.4986796875 1.725173 -1.935859
0.499828125 0.5819034 -2.290277
0.5009765625 -0.4077407 -2.07292
0.502125 -1.067727 -1.547276
0.5032734375 -1.401096 -0.9242011
0.504421875 -1.474407 -0.3309673
0.5055703125 -1.361273 0.1736559
0.50671875 -1.124813 0.5628943
0.5078671875 -0.8160186 0.8290659
0.509015625 -0.4756185 0.9753827
0.5101640625 -0.1348448 1.011005
0.5113125 0.1787139 0.9480419
0.5124609375 0.4429303 0.8032295
0.513609375 0.6416816 0.5966007
0.5147578125 0.7627871 0.351025
0.51590625 0.8012393 0.09129243
0.5170546875 0.7596158 -0.1571818
0.518203125 0.6478473 -0.3719798
0.5193515625 0.4819055 -0.5348273
0.5205 0.2826262 -0.634352
0.5216484375 0.07134173 -0.6668325
0.522796875 -0.1311331 -0.6349578
0.5239453125 -0.3072327 -0.5477273
0.52509375 -0.4440036 -0.4176146
0.5262421875 -0.5338777 -0.2592283
0.527390625 -0.5731366 -0.08757386
0.5285390625 -0.5622013 0.08312073
0.5296875 -0.5055 0.2407337
0.5308359375 -0.4081908 0.3739176
0.531984375 -0.279897 0.4739625
0.5331328125 -0.1286452 0.5344543
0.53428125 0.03390193 0.5503955
0.5354296875 0.1964983 0.5199571
0.536578125 0.3465507 0.4434151
0.5377265625 0.4705562 0.3248819
0.538875 0.5577132 0.1707899
0.5400234375 0.5970789 -0.007849631
0.541171875 0.5808376 -0.1968427
0.5423203125 0.5053696 -0.3786234
0.54346875 0.3721569 -0.5350438
0.5446171875 0.1892399 -0.6473737
0.545765625 -0.02878635 -0.6992261
0.5469140625 -0.2639233 -0.678436
0.5480625 -0.4909796 -0.5801263
0.5492109375 -0.6855898 -0.4059939
0.550359375 -0.8234726 -0.1635765
0.5515078125 -0.8810232 0.1286033
0.55265625 -0.8383616 0.4504215
0.5538046875 -0.6790169 0.7704412
0.554953125 -0.3898283 1.047934
0.5561015625 0.03156516 1.23005
0.55725 0.5676885 1.243645
0.5583984375 1.158169 0.9981743
0.559546875 1.655347 0.4097567
0.5606953125 1.800915 -0.4961232
0.56184375 1.343237 -1.433202
0.5629921875 0.3636846 -1.913476
0.564140625 -0.6445256 -1.707402
0.5652890625 -1.264126 -1.052003
0.5664375 -1.423218 -0.3161226
0.5675859375 -1.255877 0.2877741
0.568734375 -0.9152541 0.6868663
0.5698828125 -0.5141821 0.8861148
0.57103125 -0.1280982 0.9161966
0.5721796875 0.1988052 0.8183328
0.573328125 0.4415508 0.6340241
0.5744765625 0.5893763 0.4024455
0.575625 0.6443541 0.1584228
0.5767734375 0.6167432 -0.06941639
0.577921875 0.5233398 -0.2592569
0.5790703125 0.383555 -0.3987652
0.58021875 0.2179751 -0.479878
0.5813671875 0.04543191 -0.5035421
0.582515625 -0.1175786 -0.4739653
0.5836640625 -0.2576415 -0.3988535
0.5848125 -0.3647415 -0.2882373
0.5859609375 -0.4319038 -0.153939
0.587109375 -0.4550837 -0.007783246
0.5882578125 -0.4335505 0.1377967
0.58940625 -0.3693379 0.2703584
0.5905546875 -0.2666129 0.3788322
0.591703125 -0.1343035 0.4523999
0.5928515625 0.0183205 0.4828486
0.594 0.1781608 0.4643738
0.5951484375 0.3296378 0.3948629
0.596296875 0.4572554 0.2765915
0.5974453125 0.5449844 0.1169862
0.59859375 0.5789018 -0.07171887
0.5997421875 0.5493987 -0.2717007
0.600890625 0.4519288 -0.4621926
0.6020390625 0.2884789 -0.6206313
0.6031875 0.06883858 -0.7245991
0.6043359375 -0.1908683 -0.7545349
0.605484375 -0.4678044 -0.6944161
0.6066328125 -0.7334608 -0.5338404
0.60778125 -0.9539774 -0.2689602
0.6089296875 -1.088485 0.09617141
0.610078125 -1.088426 0.5432416
0.6112265625 -0.8982096 1.031384
0.612375 -0.4580749 1.478824
0.6135234375 0.2596151 1.734734
0.614671875 1.164542 1.577733
0.6158203125 1.947342 0.8420821
0.61696875 2.152099 -0.3049187
0.6181171875 1.625521 -1.32354
0.619265625 0.7099151 -1.795505
0.6204140625 -0.1621083 -1.728634
0.6215625 -0.7799705 -1.339117
0.6227109375 -1.114809 -0.825907
0.623859375 -1.209272 -0.3152868
0.6250078125 -1.128128 0.1276241
0.62615625 -0.9264107 0.4694095
0.6273046875 -0.6550603 0.6967463
0.628453125 -0.3567893 0.8112791
0.6296015625 -0.0659648 0.8223636
0.63075 0.1903181 0.7479367
0.6318984375 0.3933973 0.6089399
0.633046875 0.5328426 0.4282021
0.6341953125 0.6053311 0.2285784
0.63534375 0.6137673 0.03007707
0.6364921875 0.5666605 -0.1504689
0.637640625 0.4741332 -0.3007297
0.6387890625 0.3490335 -0.4118329
0.6399375 0.2044273 -0.4797465
0.6410859375 0.05236461 -0.5030095
0.642234375 -0.09441753 -0.4834611
0.6433828125 -0.226561 -0.4251169
0.64453125 -0.33457 -0.3345395
0.6456796875 -0.4114959 -0.2191653
0.646828125 -0.4526361 -0.08840589
0.6479765625 -0.4549941 0.04761679
0.649125 -0.4188168 0.178224
0.6502734375 -0.3467743 0.2928685
0.651421875 -0.2442224 0.3821398
0.6525703125 -0.1197453 0.4379356
0.65371875 0.01616603 0.4544238
0.6548671875 0.151694 0.4299054
0.656015625 0.2745236 0.3658938
0.6571640625 0.3728324 0.2679395
0.6583125 0.437987 0.1446944
0.6594609375 0.4634876 0.007034707
0.660609375 0.4471697 -0.1328937
0.6617578125 0.3905036 -0.2616851
0.66290625 0.2976795 -0.3690373
0.6640546875 0.1771243 -0.4454853
0.665203125 0.03817419 -0.4842196
0.6663515625 -0.1080905 -0.4818313
0.6675 -0.2498896 -0.4369439
0.6686484375 -0.3761155 -0.3516927
0.669796875 -0.4753735 -0.2312856
0.6709453125 -0.5386716 -0.0824834
0.67209375 -0.5574374 0.08419763
0.6732421875 -0.5265208 0.256644
0.674390625 -0.4427582 0.4204804
0.6755390625 -0.3077452 0.5601608
0.6766875 -0.1268515 0.6590288
0.6778359375 0.08852088 0.7020212
0.678984375 0.3219352 0.6757408
0.6801328125 0.5520919 0.5713334
0.68128125 0.752735 0.3864113
0.6824296875 0.8956795 0.1269976
0.683578125 0.951972 -0.1913278
0.6847265625 0.8954828 -0.5420752
0.685875 0.7052866 -0.8870789
0.6870234375 0.3719443 -1.17441
0.688171875 -0.09561618 -1.341143
0.6893203125 -0.6603761 -1.31241
0.69046875 -1.236855 -1.022777
0.6916171875 -1.684904 -0.4350373
0.692765625 -1.814433 0.3858721
0.6939140625 -1.482275 1.228711
0.6950625 -0.7275999 1.786031
0.6962109375 0.1849308 1.851833
0.697359375 0.9384629 1.469675
0.6985078125 1.358372 0.8483969
0.69965625 1.444509 0.2014649
0.7008046875 1.281887 -0.3402757
0.701953125 0.9696837 -0.7222883
0.7031015625 0.5914571 -0.9366596
0.70425 0.2098038 -0.9986778
0.7053984375 -0.1339967 -0.936437
0.706546875 -0.4112706 -0.7799497
0.7076953125 -0.6061357 -0.5610278
0.70884375 -0.7122223 -0.3108759
0.7099921875 -0.7320451 -0.0577333
0.711140625 -0.6745136 0.1733843
0.7122890625 -0.5542935 0.363205
0.7134375 -0.3903008 0.4982728
0.7145859375 -0.2021123 0.571583
0.715734375 -0.009989876 0.5824879
0.7168828125 0.1681564 0.5360149
0.71803125 0.317582 0.4409894
0.7191796875 0.4269836 0.3099619
0.720328125 0.4899304 0.1570241
0.7214765625 0.5036823 -0.00353362
0.722625 0.4693891 -0.1575776
0.7237734375 0.3919792 -0.2925363
0.724921875 0.2789464 -0.3972924
0.7260703125 0.140092 -0.4631065
0.72721875 -0.01293599 -0.4843645
0.7283671875 -0.1666125 -0.4584494
0.729515625 -0.3073634 -0.3857794
0.7306640625 -0.421524 -0.2708658
0.7318125 -0.4966358 -0.1224733
0.7329609375 -0.5223465 0.04798895
0.734109375 -0.4914865 0.2240091
0.7352578125 -0.4021397 0.3881701
0.73640625 -0.2574086 0.5206731
0.7375546875 -0.06704733 0.6026943
0.738703125 0.1526788 0.6179339
0.7398515625 0.3794853 0.5544358
0.741 0.5862719 0.4066554
0.7421484375 0.7417135 0.1777877
0.743296875 0.8126776 -0.1192029
0.7444453125 0.7649812 -0.4553477
0.74559375 0.5699058 -0.7866157
0.7467421875 0.2121316 -1.042886
0.747890625 -0.2880872 -1.129864
0.7490390625 -0.8100055 -0.9081278
0.7501875 -1.221789 -0.428071
0.7513359375 -1.308127 0.2494165
0.752484375 -0.9909047 0.8639505
0.7536328125 -0.4156687 1.178569
0.75478125 0.1730163 1.143852
0.7559296875 0.6056646 0.8662503
0.757078125 0.8318201 0.4841622
0.7582265625 0.8726175 0.1011465
0.759375 0.7756374 -0.2223928
0.7605234375 0.5892985 -0.4580441
0.761671875 0.3566948 -0.5967163
0.7628203125 0.1138966 -0.6423373
0.76396875 -0.1111346 -0.6055785
0.7651171875 -0.2968482 -0.5037519
0.766265625 -0.4300685 -0.3556527
0.7674140625 -0.5032985 -0.1827089
0.7685625 -0.5155785 -0.004728782
0.7697109375 -0.4724777 0.1598604
0.770859375 -0.3834355 0.2962913
0.7720078125 -0.2603641 0.3942277
0.77315625 -0.1179283 0.447431
0.7743046875 0.02976879 0.4539538
0.775453125 0.1691928 0.4158671
0.7766015625 0.2884798 0.3390793
0.77775 0.3782544 0.2312676
0.7788984375 0.431463 0.1024378
0.780046875 0.4441598 -0.03632244
0.7811953125 0.414835 -0.1734175
0.78234375 0.3456288 -0.2970774
0.7834921875 0.2409728 -0.3963934
0.784640625 0.108376 -0.4611243
0.7857890625 -0.04146605 -0.4839794
0.7869375 -0.1961838 -0.4601754
0.7880859375 -0.3413956 -0.387563
0.789234375 -0.4620443 -0.2695062
0.7903828125 -0.5441788 -0.1132864
0.79153125 -0.5752087 0.06935046
0.7926796875 -0.5459919 0.2617235
0.793828125 -0.4529561 0.444766
0.7949765625 -0.2981116 0.5971798
0.796125 -0.09047814 0.69855
0.7972734375 0.1546805 0.7294471
0.798421875 0.4148062 0.6758855
0.7995703125 0.6624244 0.5288541
0.80071875 0.8640598 0.2862391
0.8018671875 0.9815694 -0.04157841
0.803015625 0.9746584 -0.4298962
0.8041640625 0.8044434 -0.8339038
0.8053125 0.4458192 -1.178246
0.8064609375 -0.08848517 -1.359759
0.807609375 -0.7157776 -1.267154
0.8087578125 -1.263857 -0.8428851
0.80990625 -1.529917 -0.1664832
0.8110546875 -1.405327 0.5459834
0.812203125 -0.9604276 1.065158
0.8133515625 -0.3783738 1.281054
0.8145 0.1682666 1.217807
0.8156484375 0.5799959 0.9639345
0.816796875 0.8240989 0.6171095
0.8179453125 0.9096425 0.2524719
0.81909375 0.8648505 -0.07843342
0.8202421875 0.7254538 -0.3429524
0.821390625 0.5261783 -0.5259736
0.8225390625 0.3001809 -0.6240301
0.8236875 0.07524578 -0.643082
0.8248359375 -0.1268506 -0.5937609
0.825984375 -0.2904018 -0.4921704
0.8271328125 -0.4058868 -0.3554918
0.82828125 -0.4698692 -0.2010477
0.8294296875 -0.4840249 -0.04479511
0.830578125 -0.4531798 0.09981646
0.8317265625 -0.3849178 0.222122
0.832875 -0.2891064 0.3146229
0.8340234375 -0.1759668 0.3730177
0.835171875 -0.05534415 0.3957379
0.8363203125 0.06256302 0.3836043
0.83746875 0.1690197 0.3396342
0.8386171875 0.25636 0.2687584
0.839765625 0.3187507 0.1776275
0.8409140625 0.3519737 0.07394221
0.8420625 0.353541 -0.03349556
0.8432109375 0.3242652 -0.1360978
0.844359375 0.2665658 -0.2251503
0.8455078125 0.1854585 -0.2928182
0.84665625 0.08826585 -0.3334562
0.8478046875 -0.01651962 -0.3430428
0.848953125 -0.1192308 -0.3211831
0.8501015625 -0.2103394 -0.2693216
0.85125 -0.2815246 -0.1926913
0.8523984375 -0.3265148 -0.09838313
0.853546875 -0.3412144 0.004867112
0.8546953125 -0.3244756 0.1077204
0.85584375 -0.2780091 0.2010943
0.8569921875 -0.2058049 0.2768747
0.858140625 -0.1143462 0.3287463
0.8592890625 -0.01075078 0.3517782
0.8604375 0.09634825 0.3438544
0.8615859375 0.1983079 0.30463
0.862734375 0.2865639 0.2362189
0.8638828125 0.353461 0.1426814
0.86503125 0.3914675 0.03014489
0.8661796875 0.3957456 -0.09331876
0.867328125 0.3620457 -0.2182197
0.8684765625 0.2893054 -0.3337331
0.869625 0.1792719 -0.4278425
0.8707734375 0.03694683 -0.4879935
0.871921875 -0.1286428 -0.5026941
0.8730703125 -0.3040073 -0.4619698
0.87421875 -0.4712372 -0.3590168
0.8753671875 -0.6088909 -0.1920073
0.876515625 -0.6912192 0.0336093
0.8776640625 -0.6910728 0.3035763
0.8788125 -0.5810064 0.589732
0.8799609375 -0.3394043 0.8463513
0.881109375 0.03741172 1.006309
0.8822578125 0.5142292 0.9805305
0.88340625 0.9845338 0.6893796
0.8845546875 1.261093 0.1322442
0.885703125 1.171905 -0.523836
0.8868515625 0.7272964 -1.003541
0.888 0.1424969 -1.14026
0.8891484375 -0.3547809 -0.9762896
0.890296875 -0.6590534 -0.6536183
0.8914453125 -0.7733669 -0.2976992
0.89259375 -0.7432359 0.01865455
0.8937421875 -0.6182742 0.2620076
0.894890625 -0.4409593 0.4237616
0.8960390625 -0.2444365 0.5059333
0.8971875 -0.05266995 0.5172927
0.8983359375 0.116662 0.470749
0.899484375 0.2509167 0.3795705
0.9006328125 0.3427498 0.2595139
0.90178125 0.3883727 0.1248149
0.9029296875 0.3888983 -0.009789159
0.904078125 0.3487707 -0.1315246
0.9052265625 0.2751844 -0.2293965
0.906375 0.1783353 -0.2960505
0.9075234375 0.06954397 -0.3272423
0.908671875 -0.03956461 -0.3223978
0.9098203125 -0.1387962 -0.2844325
0.91096875 -0.2183649 -0.2190623
0.9121171875 -0.2720241 -0.1343246
0.913265625 -0.2963157 -0.03888937
0.9144140625 -0.2895849 0.05759453
0.9155625 -0.2542547 0.1461172
0.9167109375 -0.1935665 0.2191937
0.917859375 -0.1137297 0.2698551
0.9190078125 -0.02164204 0.2939107
0.92015625 0.07425185 0.2887
0.9213046875 0.1653792 0.2538778
0.922453125 0.2430005 0.1914974
0.9236015625 0.2995531 0.10552
0.92475 0.3274843 0.003070879
0.9258984375 0.3219778 -0.1076236
0.927046875 0.280259 -0.2158832
0.9281953125 0.2021963 -0.3100611
0.92934375 0.09185635 -0.3780106
0.9304921875 -0.0430942 -0.4083439
0.931640625 -0.1903291 -0.3918314
0.9327890625 -0.3340428 -0.3223493
0.9339375 -0.4561322 -0.1987713
0.9350859375 -0.5346586 -0.02602115
0.936234375 -0.5493885 0.182761
0.9373828125 -0.4810621 0.4056033
0.93853125 -0.3164268 0.6096619
0.9396796875 -0.05534701 0.7495847
0.940828125 0.2817492 0.772612
0.9419765625 0.6375424 0.6263223
0.943125 0.9127814 0.2929043
0.9442734375 0.9894735 -0.1740011
0.945421875 0.800936 -0.6329657
0.9465703125 0.3999313 -0.9200992
0.94771875 -0.06485841 -0.9553291
0.9488671875 -0.4478059 -0.7753915
0.950015625 -0.6768593 -0.4769015
0.9511640625 -0.7472479 -0.1534415
0.9523125 -0.6908 0.1331676
0.9534609375 -0.5484588 0.3506179
0.954609375 -0.3596744 0.4871344
0.9557578125 -0.1558043 0.5446566
0.95690625 0.03777952 0.5312587
0.9580546875 0.2031452 0.4602626
0.959203125 0.3272036 0.3480097
0.9603515625 0.4035839 0.2103847
0.9615 0.4302028 0.06431748
0.9626484375 0.4107921 -0.07498039
0.963796875 0.3515682 -0.1949892
0.9649453125 0.2620933 -0.2863208
0.96609375 0.1531714 -0.3429544
0.9672421875 0.0371553 -0.3629801
0.968390625 -0.07545031 -0.3472616
0.9695390625 -0.1746948 -0.2998982
0.9706875 -0.2532321 -0.2272555
0.9718359375 -0.3050921 -0.1367988
0.972984375 -0.3277978 -0.03720041
0.9741328125 -0.3205846 0.06300908
0.97528125 -0.284789 0.1558139
0.9764296875 -0.2239667 0.2335286
0.977578125 -0.1433505 0.290291
0.9787265625 -0.04946878 0.3211544
0.979875 0.04993541 0.3235569
0.9810234375 0.1468694 0.2963876
0.982171875 0.2326708 0.2412917
0.9833203125 0.2997067 0.1616186
0.98446875 0.341275 0.06388739
0.9856171875 0.3516005 -0.04451039
0.986765625 0.3283077 -0.153884
0.9879140625 0.2717571 -0.2538818
0.9890625 0.1849843 -0.3344583
0.9902109375 0.0743224 -0.3865397
0.991359375 -0.05141391 -0.4030161
0.9925078125 -0.1807333 -0.3793925
0.99365625 -0.3013133 -0.315362
0.9948046875 -0.4004065 -0.2130364
0.995953125 -0.4670727 -0.07923529
0.9971015625 -0.4906887 0.07643716
0.99825 -0.4639313 0.2410801
