# GHZ S RI R 50.0
0.3 -3.497316 -0.2700131
0.3011484375 -2.919411 1.224102
0.302296875 -1.879566 2.082544
0.3034453125 -0.7923563 2.33831
0.30459375 0.1137034 2.172066
0.3057421875 0.7644587 1.768122
0.306890625 1.167234 1.264033
0.3080390625 1.360469 0.7479456
0.3091875 1.390039 0.269416
0.3103359375 1.296211 -0.1435039
0.311484375 1.115837 -0.4798598
0.3126328125 0.8753409 -0.7355364
0.31378125 0.5978292 -0.9073169
0.3149296875 0.3020448 -0.9978697
0.316078125 0.003341607 -1.008746
0.3172265625 -0.2812074 -0.9417847
0.318375 -0.534981 -0.8022966
0.3195234375 -0.7384339 -0.5977622
0.320671875 -0.8728484 -0.3422577
0.3218203125 -0.9238843 -0.05549021
0.32296875 -0.8822241 0.232126
0.3241171875 -0.7506648 0.4894298
0.325265625 -0.5452361 0.6853408
0.3264140625 -0.2929254 0.8002351
0.3275625 -0.02703658 0.8250005
0.3287109375 0.2202098 0.7661418
0.329859375 0.4263731 0.6395267
0.3310078125 0.5754743 0.4675796
0.33215625 0.6636759 0.270665
0.3333046875 0.6916086 0.06833786
0.334453125 0.6655694 -0.125382
0.3356015625 0.5928956 -0.298654
0.33675 0.4816421 -0.4439922
0.3378984375 0.339704 -0.5545341
0.339046875 0.1756836 -0.626183
0.3401953125 -0.002735235 -0.6549786
0.34134375 -0.1853554 -0.6380247
0.3424921875 -0.3636938 -0.5724989
0.343640625 -0.5239944 -0.4581845
0.3447890625 -0.6535887 -0.2974159
0.3459375 -0.7373831 -0.09582116
0.3470859375 -0.7603941 0.134644
0.348234375 -0.7089335 0.3753346
0.3493828125 -0.5784879 0.5993632
0.35053125 -0.371616 0.7795945
0.3516796875 -0.1059207 0.8866434
0.352828125 0.191919 0.9000885
0.3539765625 0.4858087 0.8120654
0.355125 0.7406612 0.6282367
0.3562734375 0.9268721 0.3671926
0.357421875 1.025119 0.05353019
0.3585703125 1.022296 -0.2844135
0.35971875 0.914831 -0.6181345
0.3608671875 0.703395 -0.9198379
0.362015625 0.3924724 -1.161394
0.3631640625 -0.01021752 -1.311768
0.3643125 -0.4879085 -1.333788
0.3654609375 -1.011421 -1.181321
0.366609375 -1.521392 -0.8028034
0.3677578125 -1.908179 -0.1530473
0.36890625 -1.987991 0.7497141
0.3700546875 -1.550243 1.725696
0.371203125 -0.5370877 2.385253
0.3723515625 0.7391293 2.341183
0.3735 1.72498 1.590781
0.3746484375 2.095128 0.5352808
0.375796875 1.906224 -0.4201291
0.3769453125 1.38495 -1.067303
0.37809375 0.7442729 -1.374308
0.3792421875 0.1318259 -1.391875
0.380390625 -0.3638133 -1.200043
0.3815390625 -0.7011032 -0.8823768
0.3826875 -0.8756377 -0.5152913
0.3838359375 -0.9054295 -0.1593631
0.384984375 -0.8227212 0.1455824
0.3861328125 -0.6638352 0.3772156
0.38728125 -0.4625835 0.5284746
0.3884296875 -0.2472117 0.6016695
0.389578125 -0.03950159 0.6060744
0.3907265625 0.1449718 0.5531901
0.391875 0.295571 0.4555159
0.3930234375 0.4059003 0.3260818
0.394171875 0.4716215 0.176388
0.3953203125 0.4914527 0.01834357
0.39646875 0.4651181 -0.136293
0.3976171875 0.3950347 -0.2763525
0.398765625 0.2850202 -0.3903749
0.3999140625 0.1423341 -0.4671603
0.4010625 -0.02230488 -0.496617
0.4022109375 -0.1940643 -0.47046
0.403359375 -0.3546237 -0.3854208
0.4045078125 -0.4827144 -0.2446374
0.40565625 -0.5580955 -0.05879672
0.4068046875 -0.5634928 0.1504342
0.407953125 -0.4912109 0.3581955
0.4091015625 -0.3427864 0.5350813
0.41025 -0.1313366 0.6535277
0.4113984375 0.1210172 0.692766
0.412546875 0.387221 0.638593
0.4136953125 0.6352361 0.4875998
0.41484375 0.8342332 0.2391508
0.4159921875 0.9474221 -0.09663237
0.417140625 0.9335591 -0.5015645
0.4182890625 0.7427182 -0.9387777
0.4194375 0.3177967 -1.329488
0.4205859375 -0.3685291 -1.523966
0.421734375 -1.21775 -1.290614
0.4228828125 -1.865428 -0.4779892
0.42403125 -1.848274 0.6343969
0.4251796875 -1.162674 1.445089
0.426328125 -0.2667568 1.666089
0.4274765625 0.4633265 1.437666
0.428625 0.9181893 0.9949356
0.4297734375 1.1172 0.4976789
0.430921875 1.114747 0.03453637
0.4320703125 0.9667748 -0.3462038
0.43321875 0.721851 -0.6196568
0.4343671875 0.4279985 -0.7770157
0.435515625 0.1253665 -0.8208745
0.4366640625 -0.1508944 -0.7653384
0.4378125 -0.3742542 -0.6322405
0.4389609375 -0.5293968 -0.4482575
0.440109375 -0.6109028 -0.2405191
0.4412578125 -0.6230181 -0.0333384
0.44240625 -0.5746764 0.1544991
0.4435546875 -0.478795 0.3082877
0.444703125 -0.3502483 0.4216326
0.4458515625 -0.2028255 0.489805
0.447 -0.04897296 0.513627
0.4481484375 0.1002416 0.4947312
0.449296875 0.2356173 0.4378446
0.4504453125 0.3487451 0.3472936
0.45159375 0.4322516 0.2308514
0.4527421875 0.4806906 0.09620234
0.453890625 0.4903744 -0.04817357
0.4550390625 0.4588945 -0.191778
0.4561875 0.3863722 -0.3227257
0.4573359375 0.2761514 -0.4296567
0.458484375 0.1356957 -0.5008951
0.4596328125 -0.02380479 -0.526737
0.46078125 -0.1872123 -0.5016903
0.4619296875 -0.3374277 -0.4255095
0.463078125 -0.45829 -0.3042745
0.4642265625 -0.5356262 -0.1494673
0.465375 -0.5609951 0.02270325
0.4665234375 -0.5317371 0.1947328
0.467671875 -0.4515474 0.3498769
0.4688203125 -0.3286723 0.4736795
0.46996875 -0.1747297 0.5562774
0.4711171875 -0.00312615 0.591436
0.472265625 0.1726028 0.5765209
0.4734140625 0.339907 0.5131289
0.4745625 0.4869506 0.4039701
0.4757109375 0.6024988 0.2542213
0.476859375 0.6762638 0.07218235
0.4780078125 0.6992402 -0.1329852
0.47915625 0.6633515 -0.3490277
0.4803046875 0.5627686 -0.56118
0.481453125 0.3943644 -0.7506776
0.4826015625 0.1584049 -0.8963115
0.48375 -0.1364588 -0.9735935
0.4848984375 -0.4747747 -0.9572692
0.486046875 -0.8297494 -0.8221723
0.4871953125 -1.160437 -0.549701
0.48834375 -1.413295 -0.1317318
0.4894921875 -1.519788 0.4195073
0.490640625 -1.402875 1.062719
0.4917890625 -0.9894578 1.705166
0.4929375 -0.2268293 2.195018
0.4940859375 0.8404503 2.30413
0.495234375 1.983039 1.790505
0.4963828125 2.738779 0.6090328
0.49753125 2.666786 -0.8519733
0.4986796875 1.798758 -1.947239
0.499828125 0.6231687 -2.33291
0.5009765625 -0.3994383 -2.118415
0.502125 -1.079192 -1.5803
0.5032734375 -1.419948 -0.9437424
0.504421875 -1.493049 -0.3377309
0.5055703125 -1.37657 0.1742485
0.50671875 -1.136224 0.5677899
0.5078671875 -0.8236319 0.8357764
0.509015625 -0.4794357 0.9830602
0.5101640625 -0.1362626 1.017866
0.5113125 0.1791189 0.953665
0.5124609375 0.4444588 0.8074766
0.513609375 0.6436073 0.5995999
0.5147578125 0.7652173 0.3531756
0.51590625 0.8036112 0.09270933
0.5170546875 0.7619318 -0.1566897
0.518203125 0.6498861 -0.3715285
0.5193515625 0.4838226 -0.5350242
0.5205 0.2843442 -0.6347823
0.5216484375 0.07277489 -0.6673551
0.522796875 -0.1296169 -0.6356401
0.5239453125 -0.3056591 -0.5485144
0.52509375 -0.4427533 -0.418697
0.5262421875 -0.5326636 -0.2607521
0.527390625 -0.5722577 -0.08891265
0.5285390625 -0.562151 0.08117829
0.5296875 -0.5057487 0.2383224
0.5308359375 -0.4094386 0.3716185
0.531984375 -0.2814574 0.471819
0.5331328125 -0.1307709 0.5326676
0.53428125 0.03109161 0.5492921
0.5354296875 0.1929771 0.5194601
0.536578125 0.3432413 0.4436885
0.5377265625 0.4671451 0.3264732
0.538875 0.5545155 0.1734485
0.5400234375 0.5945456 -0.003849142
0.541171875 0.5793441 -0.1915261
0.5423203125 0.505349 -0.3730032
0.54346875 0.3740136 -0.5296482
0.5446171875 0.1936544 -0.6420675
0.545765625 -0.02253789 -0.695402
0.5469140625 -0.2558149 -0.6769129
0.5480625 -0.4815586 -0.5816495
0.5492109375 -0.6764657 -0.410554
0.550359375 -0.8154833 -0.1728309
0.5515078125 -0.8765554 0.1164871
0.55265625 -0.838544 0.4349462
0.5538046875 -0.685674 0.7535478
0.554953125 -0.4054632 1.033282
0.5561015625 0.006466984 1.221838
0.55725 0.5356029 1.248825
0.5583984375 1.1271 1.023761
0.559546875 1.642578 0.4575855
0.5606953125 1.825142 -0.4430181
0.56184375 1.402037 -1.410946
0.5629921875 0.4195946 -1.939742
0.564140625 -0.6282408 -1.754877
0.5652890625 -1.27733 -1.089339
0.5664375 -1.447068 -0.3319791
0.5675859375 -1.276395 0.2867159
0.568734375 -0.9287016 0.6936052
0.5698828125 -0.5215464 0.8948274
0.57103125 -0.1301616 0.9244502
0.5721796875 0.1999014 0.8248275
0.573328125 0.4438867 0.638315
0.5744765625 0.5918164 0.4047908
0.575625 0.6467016 0.1595382
0.5767734375 0.6187886 -0.06893715
0.577921875 0.5248698 -0.2594681
0.5790703125 0.3847114 -0.3989785
0.58021875 0.2190635 -0.4801165
0.5813671875 0.04647563 -0.503926
0.582515625 -0.1165187 -0.4742818
0.5836640625 -0.2567904 -0.3993851
0.5848125 -0.363788 -0.2889637
0.5859609375 -0.4310125 -0.1548157
0.587109375 -0.4542165 -0.009078587
0.5882578125 -0.4330679 0.136071
0.58940625 -0.3694319 0.2683966
0.5905546875 -0.2677114 0.3766073
0.591703125 -0.1358481 0.4503882
0.5928515625 0.01612495 0.4811113
0.594 0.1750506 0.4636171
0.5951484375 0.3261642 0.3951599
0.596296875 0.4535714 0.2782102
0.5974453125 0.5417194 0.1200301
0.59859375 0.576586 -0.06706042
0.5997421875 0.5486506 -0.2658927
0.600890625 0.4532557 -0.4557085
0.6020390625 0.2927316 -0.6142806
0.6031875 0.07594966 -0.7192841
0.6043359375 -0.1807511 -0.7516637
0.605484375 -0.4557425 -0.695635
0.6066328125 -0.720677 -0.5406706
0.60778125 -0.9427802 -0.2823713
0.6089296875 -1.082729 0.07518318
0.610078125 -1.09321 0.5167134
0.6112265625 -0.9189264 1.004229
0.612375 -0.4988137 1.461686
0.6135234375 0.2029813 1.745186
0.614671875 1.118341 1.631224
0.6158203125 1.950635 0.924071
0.61696875 2.216325 -0.2489884
0.6181171875 1.703493 -1.329255
0.619265625 0.7548885 -1.841604
0.6204140625 -0.1556705 -1.778132
0.6215625 -0.7964754 -1.375017
0.6227109375 -1.138061 -0.844866
0.623859375 -1.233078 -0.3196109
0.6250078125 -1.14616 0.1325647
0.62615625 -0.937755 0.4789858
0.6273046875 -0.6613688 0.7073103
0.628453125 -0.3584357 0.8208235
0.6296015625 -0.06463891 0.8304368
0.63075 0.1940583 0.7538403
0.6318984375 0.3975101 0.6127566
0.633046875 0.5370481 0.4301657
0.6341953125 0.6090527 0.2291598
0.63534375 0.6169827 0.02974047
0.6364921875 0.568965 -0.1515941
0.637640625 0.4758387 -0.3018002
0.6387890625 0.349999 -0.4134324
0.6399375 0.2050831 -0.4811536
0.6410859375 0.05288699 -0.5042233
0.642234375 -0.09427614 -0.4845721
0.6433828125 -0.2263424 -0.4262119
0.64453125 -0.3343503 -0.3354403
0.6456796875 -0.4117233 -0.2201238
0.646828125 -0.4526735 -0.08942474
0.6479765625 -0.4552229 0.0465112
0.649125 -0.4192334 0.1770434
0.6502734375 -0.3474182 0.2917498
0.651421875 -0.2454732 0.3811305
0.6525703125 -0.1211611 0.436855
0.65371875 0.01438626 0.4538771
0.6548671875 0.149629 0.4298423
0.656015625 0.2722452 0.3664537
0.6571640625 0.3706768 0.2691712
0.6583125 0.4361544 0.1465324
0.6594609375 0.4623649 0.009435065
0.660609375 0.4467566 -0.1296059
0.6617578125 0.3906913 -0.2583289
0.66290625 0.2991548 -0.3657379
0.6640546875 0.17958 -0.442511
0.665203125 0.04168859 -0.4823535
0.6663515625 -0.1036648 -0.4808574
0.6675 -0.2452883 -0.4372509
0.6686484375 -0.3713898 -0.3536435
0.669796875 -0.471095 -0.2346804
0.6709453125 -0.5352217 -0.08761255
0.67209375 -0.5556787 0.07772698
0.6732421875 -0.5264677 0.249262
0.674390625 -0.4453169 0.4126295
0.6755390625 -0.3130172 0.5524396
0.6766875 -0.1353309 0.6531366
0.6778359375 0.07727778 0.6986119
0.678984375 0.3088745 0.6763212
0.6801328125 0.538237 0.5768415
0.68128125 0.7396916 0.397666
0.6824296875 0.8865514 0.144763
0.683578125 0.9494311 -0.1685275
0.6847265625 0.9024151 -0.5159512
0.685875 0.7244495 -0.8624855
0.6870234375 0.406033 -1.156929
0.688171875 -0.05084429 -1.340075
0.6893203125 -0.6105735 -1.337853
0.69046875 -1.200585 -1.077094
0.6916171875 -1.683187 -0.5127901
0.692765625 -1.865613 0.3129086
0.6939140625 -1.573788 1.20102
0.6950625 -0.8156249 1.822657
0.6962109375 0.1437916 1.930275
0.697359375 0.9503132 1.544984
0.6985078125 1.402182 0.8944829
0.69965625 1.493794 0.2150591
0.7008046875 1.321757 -0.3494058
0.701953125 0.9949933 -0.7427928
0.7031015625 0.6028795 -0.9602775
0.70425 0.2107864 -1.020236
0.7053984375 -0.1403162 -0.9529611
0.706546875 -0.4205253 -0.7908908
0.7076953125 -0.6169077 -0.5663589
0.70884375 -0.722083 -0.3124633
0.7099921875 -0.7402065 -0.05617413
0.711140625 -0.6806148 0.1767014
0.7122890625 -0.5585245 0.3673091
0.7134375 -0.3924526 0.50242
0.7145859375 -0.2028325 0.575354
0.715734375 -0.009532773 0.5856339
0.7168828125 0.1690615 0.5383144
0.71803125 0.3185846 0.442769
0.7191796875 0.428332 0.3108157
0.720328125 0.4907313 0.157958
0.7214765625 0.5042663 -0.002640733
0.722625 0.4701049 -0.1565991
0.7237734375 0.3926055 -0.2918102
0.724921875 0.2800195 -0.3962002
0.7260703125 0.141699 -0.4622235
0.72721875 -0.01079358 -0.4839332
0.7283671875 -0.1640344 -0.4585009
0.729515625 -0.3043969 -0.3867707
0.7306640625 -0.4185239 -0.2730595
0.7318125 -0.4941653 -0.1256611
0.7329609375 -0.520713 0.04314081
0.734109375 -0.4915594 0.2185323
0.7352578125 -0.4041901 0.3822256
0.73640625 -0.2619703 0.5151597
0.7375546875 -0.07435069 0.5987623
0.738703125 0.1430668 0.6166855
0.7398515625 0.3682896 0.5571127
0.741 0.5751911 0.414753
0.7421484375 0.7335826 0.1920053
0.743296875 0.8107256 -0.09991188
0.7444453125 0.7737265 -0.4330326
0.74559375 0.5921809 -0.7673989
0.7467421875 0.2479642 -1.035934
0.747890625 -0.246396 -1.146363
0.7490390625 -0.7827072 -0.9533092
0.7501875 -1.230455 -0.487883
0.7513359375 -1.358485 0.2076758
0.752484375 -1.05477 0.8675443
0.7536328125 -0.456829 1.219229
0.75478125 0.1664198 1.192172
0.7559296875 0.6241681 0.9017436
0.757078125 0.85961 0.500656
0.7582265625 0.8991773 0.1017978
0.759375 0.7950613 -0.2318792
0.7605234375 0.6005804 -0.4719967
0.761671875 0.3604874 -0.6112503
0.7628203125 0.1116573 -0.6548518
0.76396875 -0.1166612 -0.6150109
0.7651171875 -0.3043131 -0.5093027
0.766265625 -0.4377421 -0.3579247
0.7674140625 -0.5102217 -0.1822658
0.7685625 -0.5210349 -0.002426416
0.7697109375 -0.4760353 0.1635673
0.770859375 -0.385244 0.3004465
0.7720078125 -0.2608298 0.3980564
0.77315625 -0.1171363 0.4508344
0.7743046875 0.03144892 0.4566681
0.775453125 0.1712569 0.4178211
0.7766015625 0.2905634 0.3400826
0.77775 0.3803438 0.2317546
0.7788984375 0.4333483 0.1025064
0.780046875 0.4455368 -0.03663278
0.7811953125 0.4159893 -0.1737576
0.78234375 0.3464986 -0.2975812
0.7834921875 0.2418001 -0.3967291
0.784640625 0.1094208 -0.4617596
0.7857890625 -0.04021322 -0.4847094
0.7869375 -0.1947202 -0.4608601
0.7880859375 -0.3397363 -0.3890184
0.789234375 -0.4608607 -0.2714437
0.7903828125 -0.5433354 -0.1160935
0.79153125 -0.5747818 0.06562511
0.7926796875 -0.5468926 0.2571124
0.793828125 -0.455685 0.4398436
0.7949765625 -0.3033396 0.5925402
0.796125 -0.09811866 0.6949306
0.7972734375 0.1446057 0.7289411
0.798421875 0.4033225 0.6799481
0.7995703125 0.6513276 0.538482
0.80071875 0.8562698 0.3028198
0.8018671875 0.9809076 -0.01888063
0.803015625 0.9853876 -0.4046654
0.8041640625 0.8305345 -0.8120375
0.8053125 0.4872232 -1.170237
0.8064609375 -0.04075768 -1.378209
0.807609375 -0.6806645 -1.316884
0.8087578125 -1.266413 -0.9114091
0.80990625 -1.576986 -0.2219727
0.8110546875 -1.475751 0.5316283
0.812203125 -1.020846 1.093615
0.8133515625 -0.4080486 1.331505
0.8145 0.1696318 1.267538
0.8156484375 0.6011471 1.000088
0.816796875 0.8539729 0.6356623
0.8179453125 0.9390756 0.2556581
0.81909375 0.8889243 -0.08586252
0.8202421875 0.7416763 -0.357045
0.821390625 0.534648 -0.5423636
0.8225390625 0.3019961 -0.6404238
0.8236875 0.07168295 -0.6565864
0.8248359375 -0.1339021 -0.6036595
0.825984375 -0.2990445 -0.4982901
0.8271328125 -0.4150673 -0.3579399
0.82828125 -0.4786648 -0.2005503
0.8294296875 -0.4911439 -0.04189717
0.830578125 -0.4583533 0.1041063
0.8317265625 -0.3883043 0.2277184
0.832875 -0.2905171 0.3202484
0.8340234375 -0.1755505 0.378484
0.835171875 -0.05375219 0.4005139
0.8363203125 0.06537745 0.3870761
0.83746875 0.1724119 0.3419389
0.8386171875 0.26015 0.2697985
0.839765625 0.3223885 0.1776928
0.8409140625 0.3550927 0.07290525
0.8420625 0.3562209 -0.03534649
0.8432109375 0.3260686 -0.1385389
0.844359375 0.2674737 -0.2276584
0.8455078125 0.1855206 -0.2954886
0.84665625 0.08755807 -0.3358229
0.8478046875 -0.0177414 -0.3450026
0.848953125 -0.1206959 -0.3225343
0.8501015625 -0.2120974 -0.2701785
0.85125 -0.2833094 -0.1929676
0.8523984375 -0.3280417 -0.09820621
0.853546875 -0.3426586 0.005392903
0.8546953125 -0.32569 0.1086956
0.85584375 -0.2789283 0.2023168
0.8569921875 -0.2064989 0.2780407
0.858140625 -0.1144488 0.3298243
0.8592890625 -0.01079267 0.3528028
0.8604375 0.0963736 0.3445755
0.8615859375 0.1985953 0.3053678
0.862734375 0.2868868 0.2368715
0.8638828125 0.3537296 0.1434414
0.86503125 0.3917827 0.03088923
0.8661796875 0.3963293 -0.09249316
0.867328125 0.362915 -0.2173515
0.8684765625 0.2904991 -0.3329134
0.869625 0.1810267 -0.4268107
0.8707734375 0.0395139 -0.4874867
0.871921875 -0.1254317 -0.5028601
0.8730703125 -0.3005151 -0.4633378
0.87421875 -0.4675295 -0.3623437
0.8753671875 -0.6060428 -0.1977265
0.876515625 -0.6907009 0.026008
0.8776640625 -0.6940877 0.294055
0.8788125 -0.5895009 0.5806712
0.8799609375 -0.3545463 0.8408084
0.881109375 0.01694062 1.009064
0.8822578125 0.4947611 0.9981308
0.88340625 0.9774448 0.7209072
0.8845546875 1.279096 0.1661185
0.885703125 1.210409 -0.5094728
0.8868515625 0.7636705 -1.01808
0.888 0.1586067 -1.171866
0.8891484375 -0.3593095 -1.005222
0.890296875 -0.6748008 -0.6716218
0.8914453125 -0.7918268 -0.3039699
0.89259375 -0.7585871 0.02076855
0.8937421875 -0.6288766 0.2692981
0.894890625 -0.4467954 0.4323498
0.8960390625 -0.2458967 0.5144378
0.8971875 -0.05103178 0.5246848
0.8983359375 0.12013 0.4760284
0.899484375 0.2552763 0.3828795
0.9006328125 0.347253 0.2606558
0.90178125 0.3925478 0.1243422
0.9029296875 0.3923268 -0.01124539
0.904078125 0.3510225 -0.13376
0.9052265625 0.2764606 -0.2321945
0.906375 0.17863 -0.2987127
0.9075234375 0.0690422 -0.3294621
0.908671875 -0.0408969 -0.3241481
0.9098203125 -0.1402087 -0.2856633
0.91096875 -0.219953 -0.2198983
0.9121171875 -0.2735659 -0.1344026
0.913265625 -0.2975219 -0.03868777
0.9144140625 -0.2907322 0.05803846
0.9155625 -0.2548863 0.1469963
0.9167109375 -0.1940996 0.2198593
0.917859375 -0.1139 0.2707455
0.9190078125 -0.02174154 0.2947786
0.92015625 0.07437179 0.2894633
0.9213046875 0.1654633 0.2545724
0.922453125 0.2432259 0.1919932
0.9236015625 0.2996803 0.1060507
0.92475 0.3278747 0.003724683
0.9258984375 0.3225445 -0.1068332
0.927046875 0.2809705 -0.2151424
0.9281953125 0.2033686 -0.3093325
0.92934375 0.0932013 -0.3774479
0.9304921875 -0.04096596 -0.408483
0.931640625 -0.1876387 -0.3926806
0.9327890625 -0.3316611 -0.3245519
0.9339375 -0.4539323 -0.2023207
0.9350859375 -0.5340531 -0.03100096
0.936234375 -0.5511113 0.1768707
0.9373828125 -0.4863429 0.3998339
0.93853125 -0.3259023 0.60565
0.9396796875 -0.06784409 0.7502674
0.940828125 0.2684616 0.7808037
0.9419765625 0.629671 0.6443267
0.943125 0.9169587 0.315856
0.9442734375 1.009411 -0.1561469
0.945421875 0.8294579 -0.6312761
0.9465703125 0.4228709 -0.936275
0.94771875 -0.05681366 -0.979856
0.9488671875 -0.4548028 -0.7972164
0.950015625 -0.6916618 -0.4900958
0.9511640625 -0.7636475 -0.1570968
0.9523125 -0.7047828 0.1368198
0.9534609375 -0.5579845 0.3587073
0.954609375 -0.3642772 0.4968238
0.9557578125 -0.1561769 0.5539067
0.95690625 0.04062356 0.5386581
0.9580546875 0.2076882 0.4655479
0.959203125 0.3326949 0.3506522
0.9603515625 0.4087461 0.2108936
0.9615 0.4350501 0.06335109
0.9626484375 0.4146145 -0.0771545
0.963796875 0.3541025 -0.1979941
0.9649453125 0.2632432 -0.2896155
0.96609375 0.1533162 -0.3460354
0.9672421875 0.03638784 -0.3659391
0.968390625 -0.07692371 -0.349541
0.9695390625 -0.1767651 -0.301532
0.9706875 -0.2553575 -0.2281681
0.9718359375 -0.3075023 -0.1370246
0.972984375 -0.3298102 -0.03678781
0.9741328125 -0.3223069 0.06389849
0.97528125 -0.285991 0.1571319
0.9764296875 -0.2247061 0.235079
0.977578125 -0.1438021 0.2918687
0.9787265625 -0.04949788 0.3227696
0.979875 0.05016609 0.324764
0.9810234375 0.1473899 0.2974962
0.982171875 0.2334097 0.2420382
0.9833203125 0.3006853 0.1624267
0.98446875 0.3419967 0.06424822
0.9856171875 0.3526001 -0.04414406
0.986765625 0.3294688 -0.1537155
0.9879140625 0.2728333 -0.25374
0.9890625 0.1859734 -0.3345082
0.9902109375 0.07541484 -0.3872441
0.991359375 -0.04997896 -0.4035185
0.9925078125 -0.17933 -0.3806571
0.99365625 -0.3000801 -0.3168294
0.9948046875 -0.3996252 -0.2150156
0.995953125 -0.4667638 -0.08191345
0.9971015625 -0.4913175 0.07304776
0.99825 -0.4658834 0.2372635
0.9993984375 -0.386386 0.396116
