# GHZ S RI R 50.0
0.3 -3.300792 0.3256257
0.3011484375 -2.522062 1.542338
0.302296875 -1.477365 2.149163
0.3034453125 -0.487358 2.245025
0.30459375 0.306625 2.005829
0.3057421875 0.8603492 1.587065
0.306890625 1.191069 1.098553
0.3080390625 1.335092 0.6112056
0.3091875 1.334213 0.1661717
0.3103359375 1.225614 -0.2161812
0.311484375 1.038884 -0.5235407
0.3126328125 0.7991942 -0.7544917
0.31378125 0.526751 -0.9060726
0.3149296875 0.2392876 -0.979287
0.316078125 -0.04906514 -0.9773318
0.3172265625 -0.3205086 -0.9005634
0.318375 -0.5603386 -0.754852
0.3195234375 -0.7495098 -0.5473911
0.320671875 -0.8707265 -0.2913336
0.3218203125 -0.908172 -0.01010172
0.32296875 -0.8553898 0.2700987
0.3241171875 -0.7151098 0.5178458
0.325265625 -0.5042877 0.7031466
0.3264140625 -0.2501914 0.8052399
0.3275625 0.01406141 0.8181022
0.3287109375 0.257426 0.7488792
0.329859375 0.4566263 0.6143829
0.3310078125 0.5975778 0.4358104
0.33215625 0.6761168 0.2351342
0.3333046875 0.6949022 0.03127697
0.334453125 0.6597156 -0.1619125
0.3356015625 0.5783524 -0.3328198
0.33675 0.4591086 -0.4737889
0.3378984375 0.3101322 -0.5788702
0.339046875 0.1399913 -0.6432226
0.3401953125 -0.04261653 -0.6635532
0.34134375 -0.2286452 -0.6360385
0.3424921875 -0.4075085 -0.5589697
0.343640625 -0.5654613 -0.4326164
0.3447890625 -0.6901424 -0.2587665
0.3459375 -0.7647447 -0.04416034
0.3470859375 -0.7732351 0.1966027
0.348234375 -0.704595 0.4442687
0.3493828125 -0.5517029 0.6712389
0.35053125 -0.3204371 0.8470603
0.3516796875 -0.02825619 0.9415043
0.352828125 0.2919898 0.9320795
0.3539765625 0.6024369 0.8119549
0.355125 0.8646622 0.5891515
0.3562734375 1.045599 0.2820235
0.357421875 1.123405 -0.07888383
0.3585703125 1.081747 -0.4647636
0.35971875 0.9137229 -0.8384429
0.3608671875 0.6172071 -1.165097
0.362015625 0.1963064 -1.403368
0.3631640625 -0.3400562 -1.502274
0.3643125 -0.9599714 -1.393722
0.3654609375 -1.586828 -0.9944099
0.366609375 -2.055345 -0.2480444
0.3677578125 -2.10975 0.7947685
0.36890625 -1.519196 1.821057
0.3700546875 -0.3853326 2.338925
0.371203125 0.7921378 2.106533
0.3723515625 1.554617 1.351526
0.3735 1.793008 0.462285
0.3746484375 1.628031 -0.3027024
0.375796875 1.225314 -0.8375931
0.3769453125 0.7218097 -1.123772
0.37809375 0.2179958 -1.18731
0.3792421875 -0.2181272 -1.073285
0.380390625 -0.5426425 -0.8359907
0.3815390625 -0.7364486 -0.532755
0.3826875 -0.8028371 -0.2165464
0.3838359375 -0.7599114 0.0705262
0.384984375 -0.6356735 0.3011595
0.3861328125 -0.4605534 0.4617598
0.38728125 -0.2621756 0.5490239
0.3884296875 -0.06349916 0.5681093
0.389578125 0.1178201 0.5288148
0.3907265625 0.2698382 0.442571
0.391875 0.3840591 0.3210635
0.3930234375 0.4547348 0.1771338
0.394171875 0.4804455 0.02180611
0.3953203125 0.4596174 -0.1335283
0.39646875 0.3940997 -0.2765583
0.3976171875 0.2865644 -0.3957741
0.398765625 0.1428955 -0.4805942
0.3999140625 -0.02697229 -0.5181373
0.4010625 -0.2095409 -0.4991914
0.4022109375 -0.3875012 -0.416747
0.403359375 -0.5380255 -0.2695437
0.4045078125 -0.6365526 -0.06497328
0.40565625 -0.6593889 0.1797884
0.4068046875 -0.5887675 0.4367256
0.407953125 -0.4171697 0.6703071
0.4091015625 -0.1509354 0.8408725
0.41025 0.1894832 0.910473
0.4113984375 0.5697093 0.8465088
0.412546875 0.943539 0.6226463
0.4136953125 1.245911 0.2247003
0.41484375 1.391974 -0.3499736
0.4159921875 1.254458 -1.056278
0.417140625 0.6867589 -1.74117
0.4182890625 -0.3481045 -2.053614
0.4194375 -1.495362 -1.598746
0.4205859375 -2.072077 -0.4927736
0.421734375 -1.849753 0.6023543
0.4228828125 -1.190705 1.243409
0.42403125 -0.4769252 1.439837
0.4251796875 0.1178608 1.341236
0.426328125 0.5484045 1.079967
0.4274765625 0.8187962 0.7410651
0.428625 0.9459497 0.3789592
0.4297734375 0.9491221 0.03204778
0.430921875 0.8507308 -0.2720998
0.4320703125 0.6727712 -0.5107287
0.43321875 0.4418975 -0.6697862
0.4343671875 0.1870597 -0.7410072
0.435515625 -0.06291663 -0.7264643
0.4366640625 -0.2819739 -0.6367747
0.4378125 -0.4505651 -0.489865
0.4389609375 -0.5574265 -0.3079191
0.440109375 -0.5994222 -0.1133017
0.4412578125 -0.5808967 0.07339437
0.44240625 -0.5113533 0.2367612
0.4435546875 -0.4032044 0.3657391
0.444703125 -0.2691977 0.4540876
0.4458515625 -0.1220377 0.499785
0.447 0.02679207 0.5034493
0.4481484375 0.1672625 0.4672623
0.449296875 0.2906615 0.3958066
0.4504453125 0.3897666 0.2952162
0.45159375 0.4580317 0.1717785
0.4527421875 0.4908411 0.03325195
0.453890625 0.484322 -0.1108515
0.4550390625 0.4369348 -0.2500621
0.4561875 0.3497527 -0.3735642
0.4573359375 0.2275672 -0.4692857
0.458484375 0.07753617 -0.525934
0.4596328125 -0.08712909 -0.5352378
0.46078125 -0.2515496 -0.4923258
0.4619296875 -0.397791 -0.3983559
0.463078125 -0.5097255 -0.2603513
0.4642265625 -0.5736159 -0.09258621
0.465375 -0.581958 0.08902523
0.4665234375 -0.5337899 0.2659653
0.467671875 -0.4335741 0.4205354
0.4688203125 -0.2912201 0.5386051
0.46996875 -0.119511 0.6102005
0.4711171875 0.06694128 0.6299661
0.472265625 0.2543749 0.5963081
0.4734140625 0.4287479 0.5101315
0.4745625 0.5772987 0.3758942
0.4757109375 0.6880404 0.1999691
0.476859375 0.7501243 -0.01040214
0.4780078125 0.7528253 -0.2412826
0.47915625 0.6874185 -0.4809732
0.4803046875 0.5473686 -0.7105474
0.481453125 0.3287084 -0.9080343
0.4826015625 0.03320073 -1.047242
0.48375 -0.329369 -1.096324
0.4848984375 -0.7367784 -1.021728
0.486046875 -1.150297 -0.7901045
0.4871953125 -1.51081 -0.374618
0.48834375 -1.730732 0.2280936
0.4894921875 -1.698855 0.9889066
0.490640625 -1.288505 1.800778
0.4917890625 -0.4095753 2.440428
0.4929375 0.8626922 2.570689
0.4940859375 2.139237 1.900363
0.495234375 2.811403 0.5441743
0.4963828125 2.565676 -0.8859753
0.49753125 1.675838 -1.814246
0.4986796875 0.6322776 -2.104768
0.499828125 -0.2453998 -1.927444
0.5009765625 -0.8493477 -1.498058
0.502125 -1.187654 -0.9768503
0.5032734375 -1.308269 -0.4592901
0.504421875 -1.262139 -0.0007370046
0.5055703125 -1.098214 0.3739765
0.50671875 -0.856782 0.6523411
0.5078671875 -0.5704402 0.8306994
0.509015625 -0.2679625 0.9113276
0.5101640625 0.02532795 0.9010735
0.5113125 0.2888221 0.8103983
0.5124609375 0.503801 0.6535203
0.513609375 0.6562117 0.4477463
0.5147578125 0.7363743 0.2140306
0.51590625 0.741375 -0.02529904
0.5170546875 0.6742898 -0.2470758
0.518203125 0.5462242 -0.4315213
0.5193515625 0.3730561 -0.5626553
0.5205 0.1748226 -0.6312304
0.5216484375 -0.02777512 -0.6355692
0.522796875 -0.2153627 -0.5802298
0.5239453125 -0.3722306 -0.474427
0.52509375 -0.4866678 -0.3314902
0.5262421875 -0.5523449 -0.1664993
0.527390625 -0.5673008 0.005914442
0.5285390625 -0.532436 0.1722878
0.5296875 -0.4537602 0.319837
0.5308359375 -0.3374907 0.4386944
0.531984375 -0.1924888 0.519644
0.5331328125 -0.02931374 0.5571094
0.53428125 0.1402922 0.5468067
0.5354296875 0.3033495 0.4875346
0.536578125 0.4467094 0.3809997
0.5377265625 0.5569545 0.2318206
0.538875 0.6209891 0.04955517
0.5400234375 0.6276615 -0.1534543
0.541171875 0.5693598 -0.3594839
0.5423203125 0.4421814 -0.548251
0.54346875 0.2515076 -0.69654
0.5446171875 0.006678772 -0.7823164
0.545765625 -0.2727704 -0.7841349
0.5469140625 -0.5599662 -0.6867834
0.5480625 -0.8220148 -0.48129
0.5492109375 -1.018431 -0.1706214
0.550359375 -1.104895 0.2354602
0.5515078125 -1.029459 0.70618
0.55265625 -0.7361931 1.183604
0.5538046875 -0.1779803 1.558802
0.554953125 0.6374726 1.643707
0.5561015625 1.523614 1.204917
0.55725 2.032642 0.1916713
0.5583984375 1.760901 -0.9507037
0.559546875 0.8978264 -1.60385
0.5606953125 -0.01462338 -1.62471
0.56184375 -0.6581737 -1.257016
0.5629921875 -0.9881658 -0.7543121
0.564140625 -1.068751 -0.26346
0.5652890625 -0.9754789 0.1479483
0.5664375 -0.7725959 0.4535956
0.5675859375 -0.5091467 0.6448007
0.568734375 -0.2282059 0.7259909
0.5698828125 0.03982698 0.7100576
0.57103125 0.2687079 0.6129686
0.5721796875 0.4398006 0.4560382
0.573328125 0.5425075 0.2636447
0.5744765625 0.5738593 0.05996352
0.575625 0.5382268 -0.1323648
0.5767734375 0.4470702 -0.2944465
0.577921875 0.3140838 -0.4130912
0.5790703125 0.1567918 -0.4808009
0.58021875 -0.007748898 -0.4953603
0.5813671875 -0.1642744 -0.4590544
0.582515625 -0.2992386 -0.3787621
0.5836640625 -0.4021275 -0.2634048
0.5848125 -0.4653575 -0.1235981
0.5859609375 -0.4845118 0.02867633
0.587109375 -0.4576522 0.1810004
0.5882578125 -0.3860437 0.3210036
0.58940625 -0.2738372 0.4368057
0.5905546875 -0.1274769 0.5166423
0.591703125 0.04299515 0.5506036
0.5928515625 0.2234662 0.5313899
0.594 0.3993789 0.4543228
0.5951484375 0.5518634 0.319354
0.596296875 0.6624024 0.1316054
0.5974453125 0.7118714 -0.09644182
0.59859375 0.6854091 -0.3473846
0.5997421875 0.5707404 -0.5954414
0.600890625 0.3650204 -0.8120937
0.6020390625 0.07335022 -0.963957
0.6031875 -0.2886283 -1.016201
0.6043359375 -0.6920051 -0.9348286
0.605484375 -1.091648 -0.688376
0.6066328125 -1.422272 -0.25344
0.60778125 -1.585862 0.3725884
0.6089296875 -1.448524 1.139138
0.610078125 -0.8644684 1.879419
0.6112265625 0.190146 2.257941
0.612375 1.391453 1.909036
0.6135234375 2.138028 0.8828341
0.614671875 2.124848 -0.283673
0.6158203125 1.571772 -1.107615
0.61696875 0.8413219 -1.483503
0.6181171875 0.1642239 -1.505649
0.619265625 -0.3680464 -1.305189
0.6204140625 -0.7299075 -0.9827706
0.6215625 -0.9335476 -0.6115813
0.6227109375 -0.9976702 -0.2410681
0.623859375 -0.9464704 0.09444803
0.6250078125 -0.8057989 0.3709608
0.62615625 -0.6030615 0.5727078
0.6273046875 -0.3662238 0.6921826
0.628453125 -0.1209443 0.7301852
0.6296015625 0.1088369 0.6930795
0.63075 0.3030884 0.5938331
0.6318984375 0.4495704 0.4489275
0.633046875 0.54005 0.2769586
0.6341953125 0.5733617 0.09569389
0.63534375 0.5526553 -0.07797991
0.6364921875 0.4858054 -0.2304878
0.637640625 0.3825306 -0.3517263
0.6387890625 0.254357 -0.4349375
0.6399375 0.1130831 -0.477388
0.6410859375 -0.02993125 -0.4782919
0.642234375 -0.1640555 -0.4406061
0.6433828125 -0.2802186 -0.3684573
0.64453125 -0.3703908 -0.2684889
0.6456796875 -0.4286865 -0.1483104
0.646828125 -0.4508482 -0.01726023
0.6479765625 -0.4353379 0.1145066
0.649125 -0.3827918 0.236831
0.6502734375 -0.2971925 0.3395509
0.651421875 -0.1843262 0.4139628
0.6525703125 -0.05364367 0.4526853
0.65371875 0.08413546 0.4512203
0.6548671875 0.216711 0.4085709
0.656015625 0.3317826 0.3276644
0.6571640625 0.4184532 0.2149472
0.6583125 0.4683701 0.08025693
0.6594609375 0.4759108 -0.06441253
0.660609375 0.4398448 -0.2063494
0.6617578125 0.3625257 -0.3329486
0.66290625 0.2509291 -0.4322733
0.6640546875 0.1128751 -0.4956894
0.665203125 -0.0402282 -0.5169619
0.6663515625 -0.1964991 -0.4929847
0.6675 -0.343146 -0.4232286
0.6686484375 -0.467315 -0.3114868
0.669796875 -0.5579758 -0.163325
0.6709453125 -0.6042323 0.01221201
0.67209375 -0.597906 0.2024629
0.6732421875 -0.5326791 0.3935736
0.674390625 -0.4067917 0.5674894
0.6755390625 -0.2221457 0.7054979
0.6766875 0.01265768 0.7873163
0.6778359375 0.2829847 0.7932319
0.678984375 0.5661252 0.7062885
0.6801328125 0.8306693 0.515093
0.68128125 1.038893 0.21678
0.6824296875 1.14359 -0.1755534
0.683578125 1.098473 -0.6341274
0.6847265625 0.8561375 -1.102136
0.685875 0.3860762 -1.488237
0.6870234375 -0.2968528 -1.66262
0.688171875 -1.08887 -1.479278
0.6893203125 -1.757539 -0.8510382
0.69046875 -2.000839 0.1079449
0.6916171875 -1.665783 1.053524
0.692765625 -0.9105504 1.625631
0.6939140625 -0.06713016 1.708824
0.6950625 0.6063417 1.421638
0.6962109375 1.014323 0.9493681
0.697359375 1.171263 0.440242
0.6985078125 1.132522 -0.01826256
0.69965625 0.960164 -0.38127
0.7008046875 0.7063529 -0.6338003
0.701953125 0.4175569 -0.772744
0.7031015625 0.1265761 -0.8091395
0.70425 -0.1385402 -0.755608
0.7053984375 -0.356986 -0.6305186
0.706546875 -0.5150853 -0.4547986
0.7076953125 -0.6049591 -0.250043
0.70884375 -0.624847 -0.03863563
0.7099921875 -0.5796497 0.1593984
0.711140625 -0.478664 0.3257827
0.7122890625 -0.3360178 0.4472589
0.7134375 -0.1683925 0.5153127
0.7145859375 0.006348849 0.5269737
0.715734375 0.1710021 0.4850481
0.7168828125 0.3108518 0.3960234
0.71803125 0.4139514 0.2706883
0.7191796875 0.472647 0.1227188
0.720328125 0.4827086 -0.03436329
0.7214765625 0.4446304 -0.1862678
0.722625 0.3621145 -0.3192708
0.7237734375 0.2421555 -0.4212438
0.724921875 0.0942131 -0.4828698
0.7260703125 -0.06831355 -0.4965331
0.72721875 -0.2316988 -0.4583874
0.7283671875 -0.3810175 -0.3679612
0.729515625 -0.4999431 -0.22913
0.7306640625 -0.5724589 -0.05027791
0.7318125 -0.5843236 0.1548258
0.7329609375 -0.5244577 0.3673256
0.734109375 -0.3865003 0.5627898
0.7352578125 -0.1717367 0.7130598
0.73640625 0.1088706 0.7863644
0.7375546875 0.4315925 0.7500526
0.738703125 0.7553607 0.5756349
0.7398515625 1.01915 0.246093
0.741 1.139285 -0.2287006
0.7421484375 1.015682 -0.7870983
0.743296875 0.5732291 -1.282395
0.7444453125 -0.148528 -1.490182
0.74559375 -0.9138365 -1.232792
0.7467421875 -1.385888 -0.5772276
0.747890625 -1.399563 0.1730769
0.7490390625 -1.016051 0.710701
0.7501875 -0.544361 0.9811485
0.7513359375 -0.0823849 1.010434
0.752484375 0.2902212 0.8737407
0.7536328125 0.5450599 0.6416495
0.75478125 0.6832271 0.370242
0.7559296875 0.7164369 0.09893915
0.757078125 0.663223 -0.1446095
0.7582265625 0.5437404 -0.3413826
0.759375 0.3793581 -0.4791368
0.7605234375 0.1910054 -0.5537038
0.761671875 -0.001274274 -0.5640222
0.7628203125 -0.1792989 -0.5150898
0.76396875 -0.3271629 -0.4171343
0.7651171875 -0.4327638 -0.2820916
0.766265625 -0.4893202 -0.1255849
0.7674140625 -0.4939529 0.03647593
0.7685625 -0.4493027 0.1879688
0.7697109375 -0.3618706 0.3156592
0.770859375 -0.2417099 0.4085116
0.7720078125 -0.1015599 0.4597256
0.77315625 0.0456656 0.4656953
0.7743046875 0.1868944 0.4281389
0.775453125 0.3095693 0.350726
0.7766015625 0.4038397 0.2404343
0.77775 0.4618013 0.106848
0.7788984375 0.4781954 -0.03923067
0.780046875 0.4513268 -0.1856988
0.7811953125 0.38135 -0.3209672
0.78234375 0.2718921 -0.43271
0.7834921875 0.1302299 -0.5098487
0.784640625 -0.03400031 -0.5426158
0.7857890625 -0.2076681 -0.5246249
0.7869375 -0.3758363 -0.4521691
0.7880859375 -0.521654 -0.325378
0.789234375 -0.6272158 -0.1501476
0.7903828125 -0.6762664 0.06148
0.79153125 -0.6553183 0.2929323
0.7926796875 -0.55469 0.5209789
0.793828125 -0.3726408 0.7191202
0.7949765625 -0.1160458 0.8576892
0.796125 0.199293 0.9068857
0.7972734375 0.5440698 0.8394047
0.798421875 0.8758038 0.6351928
0.7995703125 1.137725 0.2850455
0.80071875 1.259437 -0.1922537
0.8018671875 1.161786 -0.7413296
0.803015625 0.7923603 -1.248093
0.8041640625 0.1663527 -1.54874
0.8053125 -0.5730597 -1.493322
0.8064609375 -1.190311 -1.053912
0.807609375 -1.481557 -0.3812995
0.8087578125 -1.405851 0.2899814
0.80990625 -1.064728 0.7876378
0.8110546875 -0.6041924 1.049909
0.812203125 -0.1437187 1.096587
0.8133515625 0.2463002 0.9818045
0.8145 0.5310346 0.7627643
0.8156484375 0.7026892 0.4907948
0.816796875 0.7669039 0.2079138
0.8179453125 0.737922 -0.05471151
0.81909375 0.6351327 -0.2742245
0.8202421875 0.480679 -0.4362406
0.821390625 0.2971102 -0.5343298
0.8225390625 0.10603 -0.5675238
0.8236875 -0.07369523 -0.5420169
0.8248359375 -0.2272419 -0.467265
0.825984375 -0.3434061 -0.3562028
0.8271328125 -0.4164611 -0.2233224
0.82828125 -0.4449353 -0.08198596
0.8294296875 -0.4311113 0.05421169
0.830578125 -0.3804223 0.1746741
0.8317265625 -0.300593 0.2710434
0.832875 -0.2001222 0.3374822
0.8340234375 -0.08874363 0.3713547
0.835171875 0.02454403 0.3720348
0.8363203125 0.1304006 0.3411914
0.83746875 0.2214934 0.2825902
0.8386171875 0.2911615 0.2016254
0.839765625 0.3343081 0.1054569
0.8409140625 0.3478693 0.0012739
0.8420625 0.3307279 -0.1018386
0.8432109375 0.2841831 -0.195631
0.844359375 0.2121277 -0.2716441
0.8455078125 0.1203835 -0.3231858
0.84665625 0.01675529 -0.3453583
0.8478046875 -0.08932755 -0.3352093
0.848953125 -0.1881406 -0.293312
0.8501015625 -0.2703383 -0.2231497
0.85125 -0.3277767 -0.1305036
0.8523984375 -0.3549185 -0.02417544
0.853546875 -0.3487476 0.08656313
0.8546953125 -0.3090354 0.1913902
0.85584375 -0.2389405 0.2805285
0.8569921875 -0.1441647 0.3458467
0.858140625 -0.03222025 0.3809708
0.8592890625 0.08789625 0.3816365
0.8604375 0.2065347 0.3455277
0.8615859375 0.3125445 0.2741299
0.862734375 0.3967864 0.1703805
0.8638828125 0.449336 0.03985801
0.86503125 0.4612534 -0.1086916
0.8661796875 0.4258726 -0.2641885
0.867328125 0.3381072 -0.4123015
0.8684765625 0.197006 -0.536804
0.869625 0.005291168 -0.6175508
0.8707734375 -0.22692 -0.6329646
0.871921875 -0.4810149 -0.5601023
0.8730703125 -0.7238227 -0.3772082
0.87421875 -0.9051329 -0.07174841
0.8753671875 -0.9524021 0.3457991
0.876515625 -0.7785013 0.8140591
0.8776640625 -0.3254778 1.187658
0.8788125 0.3367743 1.257586
0.8799609375 0.9475645 0.9042819
0.881109375 1.218674 0.2735886
0.8822578125 1.092314 -0.3303815
0.88340625 0.7288606 -0.7101182
0.8845546875 0.3119282 -0.8440445
0.885703125 -0.04933063 -0.7949618
0.8868515625 -0.3120885 -0.6367653
0.888 -0.470808 -0.428496
0.8891484375 -0.5369779 -0.2107612
0.890296875 -0.5272645 -0.01011077
0.8914453125 -0.4607369 0.1569902
0.89259375 -0.354773 0.2813855
0.8937421875 -0.2263958 0.3594523
0.894890625 -0.09014089 0.3909773
0.8960390625 0.0409411 0.3795224
0.8971875 0.155814 0.3307371
0.8983359375 0.2454308 0.2522779
0.899484375 0.3042884 0.1533982
0.9006328125 0.3281352 0.04472095
0.90178125 0.3172098 -0.0631719
0.9029296875 0.2736631 -0.1598193
0.904078125 0.2030574 -0.2364301
0.9052265625 0.1133371 -0.2860458
0.906375 0.01371985 -0.3040727
0.9075234375 -0.08528062 -0.289735
0.908671875 -0.1739805 -0.2450619
0.9098203125 -0.2437151 -0.1750231
0.91096875 -0.287746 -0.08697189
0.9121171875 -0.3017082 0.01054056
0.913265625 -0.28483 0.1080741
0.9144140625 -0.2379172 0.196188
0.9155625 -0.1653464 0.2662248
0.9167109375 -0.07291732 0.311795
0.917859375 0.03153071 0.3270699
0.9190078125 0.1388876 0.3091998
0.92015625 0.2393448 0.2575386
0.9213046875 0.3225746 0.1736881
0.922453125 0.3787579 0.0628904
0.9236015625 0.398977 -0.06787363
0.92475 0.3756278 -0.2070595
0.9258984375 0.3038621 -0.3413267
0.927046875 0.1832267 -0.4546342
0.9281953125 0.01727955 -0.5281571
0.92934375 -0.1828261 -0.5427825
0.9304921875 -0.3978125 -0.4808617
0.931640625 -0.5991597 -0.3290347
0.9327890625 -0.7467436 -0.08390751
0.9339375 -0.7912935 0.2404601
0.9350859375 -0.6825077 0.6001894
0.936234375 -0.3866437 0.9125579
0.9373828125 0.07516573 1.061205
0.93853125 0.5909184 0.9424118
0.9396796875 0.9798371 0.5511619
0.940828125 1.09587 0.02006004
0.9419765625 0.9308463 -0.4597885
0.943125 0.5891466 -0.7618301
0.9442734375 0.2012926 -0.8611385
0.945421875 -0.1416541 -0.7965934
0.9465703125 -0.3959388 -0.6275937
0.94771875 -0.549195 -0.4058006
0.9488671875 -0.6082978 -0.1734922
0.950015625 -0.5881143 0.04207673
0.9511640625 -0.506157 0.2220965
0.9523125 -0.3816994 0.3553392
0.9534609375 -0.2325569 0.4369334
0.954609375 -0.07555223 0.4658823
0.9557578125 0.07435058 0.4460549
0.95690625 0.2041195 0.3839663
0.9580546875 0.3042743 0.2890441
0.959203125 0.3677769 0.1729648
0.9603515625 0.3916992 0.04725838
0.9615 0.3764293 -0.07548217
0.9626484375 0.3257754 -0.1841546
0.963796875 0.2469323 -0.2697746
0.9649453125 0.1483167 -0.3261054
0.96609375 0.04019853 -0.3491732
0.9672421875 -0.06743549 -0.339072
0.968390625 -0.1651111 -0.2983117
0.9695390625 -0.244845 -0.2314465
0.9706875 -0.3004821 -0.1454697
0.9718359375 -0.3284136 -0.04829061
0.972984375 -0.3266831 0.05217739
0.9741328125 -0.2959972 0.1475799
0.97528125 -0.2394359 0.2300626
0.9764296875 -0.160716 0.292894
0.977578125 -0.06661186 0.3309368
0.9787265625 0.03584209 0.340423
0.979875 0.138594 0.3192452
0.9810234375 0.2329003 0.2679701
0.982171875 0.3101909 0.1895308
0.9833203125 0.3623937 0.08866543
0.98446875 0.383186 -0.02688594
0.9856171875 0.3679033 -0.1476703
0.986765625 0.3149432 -0.2629512
0.9879140625 0.2258641 -0.3608012
0.9890625 0.1062693 -0.4299728
0.9902109375 -0.03560208 -0.4607542
0.991359375 -0.1877569 -0.4455152
0.9925078125 -0.3357102 -0.3809917
0.99365625 -0.4636634 -0.2667063
0.9948046875 -0.5554926 -0.1085479
0.995953125 -0.596303 0.0840161
0.9971015625 -0.5716602 0.296022
0.99825 -0.4715909 0.506866
0.9993984375 -0.2897643 0.6902852
