# GHZ S RI R 50.0
0.3 -1.32506 -0.06105961
0.3011484375 -1.186419 0.4213164
0.302296875 -0.8918337 0.7787127
0.3034453125 -0.5201644 0.9760938
0.30459375 -0.1434618 1.020807
0.3057421875 0.1908167 0.9410414
0.306890625 0.4502411 0.7751422
0.3080390625 0.6273906 0.5582925
0.3091875 0.7236013 0.3198232
0.3103359375 0.744396 0.08521611
0.311484375 0.7022581 -0.1310981
0.3126328125 0.6081819 -0.3166671
0.31378125 0.4738109 -0.463012
0.3149296875 0.3109311 -0.5642272
0.316078125 0.1305981 -0.6164876
0.3172265625 -0.05545502 -0.6170962
0.318375 -0.2328184 -0.5658491
0.3195234375 -0.3889672 -0.465009
0.320671875 -0.5073258 -0.3209223
0.3218203125 -0.5759951 -0.1457216
0.32296875 -0.584723 0.04224381
0.3241171875 -0.5314804 0.2214543
0.325265625 -0.4238778 0.3697662
0.3264140625 -0.2767175 0.4707482
0.3275625 -0.111471 0.5156595
0.3287109375 0.05108367 0.5047835
0.329859375 0.1934447 0.4471886
0.3310078125 0.3044857 0.3547062
0.33215625 0.3790815 0.2406905
0.3333046875 0.4158525 0.1189517
0.334453125 0.4182657 -0.001762794
0.3356015625 0.3902606 -0.1139172
0.33675 0.3367768 -0.2106157
0.3378984375 0.2627565 -0.2890183
0.339046875 0.1729295 -0.345218
0.3401953125 0.07267324 -0.3772264
0.34134375 -0.03262392 -0.3830489
0.3424921875 -0.1376406 -0.3615062
0.343640625 -0.2352352 -0.3121757
0.3447890625 -0.3181997 -0.2363651
0.3459375 -0.3791034 -0.1369842
0.3470859375 -0.4098521 -0.01971337
0.348234375 -0.4037476 0.1058743
0.3493828125 -0.3577449 0.2272046
0.35053125 -0.2735868 0.3293285
0.3516796875 -0.1584897 0.4004034
0.352828125 -0.02532191 0.4304025
0.3539765625 0.108576 0.4152415
0.355125 0.2291123 0.3580151
0.3562734375 0.3234865 0.2678418
0.357421875 0.3838373 0.1566407
0.3585703125 0.4079889 0.03570484
0.35971875 0.3961504 -0.08397147
0.3608671875 0.352452 -0.1925719
0.362015625 0.2820781 -0.2833476
0.3631640625 0.1909099 -0.3514506
0.3643125 0.08540139 -0.3930646
0.3654609375 -0.02849614 -0.405656
0.366609375 -0.1430287 -0.3879734
0.3677578125 -0.2522528 -0.3392271
0.36890625 -0.3481012 -0.260015
0.3700546875 -0.4215001 -0.1529276
0.371203125 -0.4645317 -0.02319134
0.3723515625 -0.4681772 0.1212773
0.3735 -0.4259542 0.2693619
0.3746484375 -0.3341357 0.4058263
0.375796875 -0.1948248 0.5116294
0.3769453125 -0.01790676 0.5686706
0.37809375 0.1772017 0.5615144
0.3792421875 0.3661035 0.4831729
0.380390625 0.5202652 0.3382404
0.3815390625 0.6150234 0.1431273
0.3826875 0.63414 -0.07582434
0.3838359375 0.5744383 -0.2887902
0.384984375 0.4440192 -0.4670174
0.3861328125 0.2609622 -0.5891152
0.38728125 0.04846599 -0.6410696
0.3884296875 -0.1666879 -0.6182664
0.389578125 -0.3599235 -0.5257374
0.3907265625 -0.5107171 -0.3754929
0.391875 -0.6023734 -0.1853558
0.3930234375 -0.6263524 0.02202792
0.394171875 -0.5810575 0.2249597
0.3953203125 -0.4724723 0.4002788
0.39646875 -0.3130574 0.5301914
0.3976171875 -0.1204274 0.6002017
0.398765625 0.08352005 0.6025998
0.3999140625 0.2764141 0.5374481
0.4010625 0.4359136 0.4114212
0.4022109375 0.5429989 0.2394179
0.403359375 0.5841046 0.0429165
0.4045078125 0.5552865 -0.1537633
0.40565625 0.4611178 -0.3252779
0.4068046875 0.3161728 -0.4497536
0.407953125 0.1425214 -0.5137326
0.4091015625 -0.03513597 -0.5131522
0.41025 -0.1937038 -0.454328
0.4113984375 -0.3161603 -0.3519479
0.412546875 -0.3931431 -0.2229787
0.4136953125 -0.4229813 -0.08515113
0.41484375 -0.4097545 0.04624669
0.4159921875 -0.3607578 0.1603056
0.417140625 -0.2851512 0.2494101
0.4182890625 -0.192817 0.3098841
0.4194375 -0.09186596 0.3408747
0.4205859375 0.009166321 0.3426678
0.421734375 0.1037842 0.3181471
0.4228828125 0.185943 0.2702107
0.42403125 0.2512406 0.2029238
0.4251796875 0.2953651 0.1214193
0.426328125 0.3153451 0.03122787
0.4274765625 0.3093549 -0.06110495
0.428625 0.2772711 -0.1484549
0.4297734375 0.2204828 -0.2237262
0.430921875 0.1434818 -0.2787894
0.4320703125 0.05248811 -0.3085667
0.43321875 -0.04377313 -0.3086131
0.4343671875 -0.1353361 -0.2786062
0.435515625 -0.2124065 -0.221555
0.4366640625 -0.2666343 -0.1437953
0.4378125 -0.2931508 -0.05478841
0.4389609375 -0.2907993 0.03584011
0.440109375 -0.261283 0.1193279
0.4412578125 -0.210136 0.187458
0.44240625 -0.1430947 0.2361622
0.4435546875 -0.06722956 0.2626764
0.444703125 0.0105339 0.266684
0.4458515625 0.08486677 0.2493021
0.447 0.1503113 0.2131037
0.4481484375 0.2029304 0.161372
0.449296875 0.2395242 0.09756828
0.4504453125 0.2576988 0.02639825
0.45159375 0.2560537 -0.04769879
0.4527421875 0.2340952 -0.1196874
0.453890625 0.1920786 -0.1840144
0.4550390625 0.1327515 -0.2351169
0.4561875 0.05899547 -0.268053
0.4573359375 -0.02343397 -0.2780235
0.458484375 -0.1076929 -0.2626179
0.4596328125 -0.1852758 -0.2209926
0.46078125 -0.2474048 -0.1556571
0.4619296875 -0.2868026 -0.07263615
0.463078125 -0.2974935 0.01997446
0.4642265625 -0.2782441 0.1119366
0.465375 -0.2304165 0.193072
0.4665234375 -0.1594629 0.2547482
0.467671875 -0.07390859 0.2909994
0.4688203125 0.01799937 0.2988713
0.46996875 0.1070077 0.2789633
0.4711171875 0.1851809 0.2338488
0.472265625 0.2463033 0.1683709
0.4734140625 0.2858041 0.08825015
0.4745625 0.3006499 5.102173E-05
0.4757109375 0.2898206 -0.08925403
0.476859375 0.2535825 -0.1727098
0.4780078125 0.1938982 -0.2435468
0.47915625 0.1146257 -0.2953113
0.4803046875 0.02122267 -0.3223
0.481453125 -0.07896227 -0.3206359
0.4826015625 -0.1776668 -0.2876115
0.48375 -0.2641119 -0.2240575
0.4848984375 -0.3290386 -0.1329814
0.486046875 -0.3624749 -0.02210901
0.4871953125 -0.3577817 0.09748533
0.48834375 -0.3128383 0.2124989
0.4894921875 -0.229672 0.3077802
0.490640625 -0.1170531 0.3704889
0.4917890625 0.01193367 0.391636
0.4929375 0.1411322 0.3672894
0.4940859375 0.2543292 0.3004184
0.495234375 0.3380174 0.1994811
0.4963828125 0.3824668 0.07775992
0.49753125 0.3841043 -0.05025543
0.4986796875 0.3443273 -0.1700665
0.499828125 0.269062 -0.2685516
0.5009765625 0.1678147 -0.3369936
0.502125 0.05182085 -0.3691978
0.5032734375 -0.06648584 -0.3634585
0.504421875 -0.1761664 -0.321125
0.5055703125 -0.2659816 -0.2477311
0.50671875 -0.3279384 -0.1512629
0.5078671875 -0.3567195 -0.04018859
0.509015625 -0.3494766 0.07333228
0.5101640625 -0.3072451 0.1786489
0.5113125 -0.2335905 0.265251
0.5124609375 -0.1366459 0.3237604
0.513609375 -0.02641126 0.3482059
0.5147578125 0.08550045 0.3355578
0.51590625 0.1865706 0.2874579
0.5170546875 0.2650814 0.2104074
0.518203125 0.313624 0.112651
0.5193515625 0.3271356 0.006987868
0.5205 0.3065064 -0.09492334
0.5216484375 0.2554979 -0.1821681
0.522796875 0.1819578 -0.2467555
0.5239453125 0.09496833 -0.2839079
0.52509375 0.003837961 -0.2921456
0.5262421875 -0.08245573 -0.2733276
0.527390625 -0.1568861 -0.2311443
0.5285390625 -0.2140164 -0.1708012
0.5296875 -0.2501651 -0.09851829
0.5308359375 -0.2639674 -0.02064633
0.531984375 -0.2551107 0.0563754
0.5331328125 -0.2252846 0.1270427
0.53428125 -0.1774066 0.1854286
0.5354296875 -0.1150483 0.2278725
0.536578125 -0.04333683 0.2508705
0.5377265625 0.03201565 0.2521969
0.538875 0.1049095 0.2316172
0.5400234375 0.1689935 0.1903436
0.541171875 0.2182751 0.1316457
0.5423203125 0.2482035 0.06034934
0.54346875 0.2548722 -0.01701045
0.5446171875 0.2379052 -0.09299046
0.545765625 0.1986239 -0.1602383
0.5469140625 0.1406364 -0.2121537
0.5480625 0.07002336 -0.2436874
0.5492109375 -0.006265106 -0.2524314
0.550359375 -0.08094016 -0.2378346
0.5515078125 -0.1470981 -0.2021507
0.55265625 -0.1995308 -0.1490588
0.5538046875 -0.2337584 -0.08363671
0.554953125 -0.2476212 -0.01169103
0.5561015625 -0.2404856 0.06102166
0.55725 -0.2129788 0.1284569
0.5583984375 -0.1674877 0.185728
0.559546875 -0.1071598 0.2281429
0.5606953125 -0.03653625 0.251869
0.56184375 0.03910527 0.2549026
0.5629921875 0.1138967 0.2357045
0.564140625 0.181335 0.1947653
0.5652890625 0.2353955 0.1344961
0.5664375 0.270068 0.05890305
0.5675859375 0.2806758 -0.02590995
0.568734375 0.2646089 -0.1125123
0.5698828125 0.2215256 -0.1918636
0.57103125 0.154228 -0.2555393
0.5721796875 0.06840137 -0.2956635
0.573328125 -0.02742342 -0.3069777
0.5744765625 -0.1236059 -0.2873739
0.575625 -0.2098756 -0.2371668
0.5767734375 -0.2768479 -0.1617709
0.577921875 -0.3168794 -0.06834164
0.5790703125 -0.3258881 0.03439081
0.58021875 -0.3025136 0.1351658
0.5813671875 -0.2484459 0.2251472
0.582515625 -0.1685981 0.2946893
0.5836640625 -0.06983165 0.337241
0.5848125 0.03909883 0.3474582
0.5859609375 0.1482942 0.3230945
0.587109375 0.2467905 0.2647252
0.5882578125 0.3237372 0.1766729
0.58940625 0.3704609 0.06557378
0.5905546875 0.3794271 -0.05789017
0.591703125 0.3469196 -0.1812934
0.5928515625 0.273601 -0.2904656
0.594 0.1650668 -0.3708387
0.5951484375 0.03252334 -0.4108917
0.596296875 -0.1089312 -0.4026058
0.5974453125 -0.2407244 -0.34515
0.59859375 -0.3456232 -0.24375
0.5997421875 -0.4082527 -0.1114141
0.600890625 -0.4201508 0.03431445
0.6020390625 -0.3800297 0.1738727
0.6031875 -0.2945376 0.2886698
0.6043359375 -0.1770538 0.3649147
0.605484375 -0.0437455 0.3953173
0.6066328125 0.08792231 0.378718
0.60778125 0.20284 0.3208083
0.6089296875 0.2880756 0.2313438
0.610078125 0.3383863 0.1229679
0.6112265625 0.3506337 0.008409361
0.612375 0.3265484 -0.1001886
0.6135234375 0.2718278 -0.1926295
0.614671875 0.1934274 -0.261672
0.6158203125 0.1004721 -0.3015624
0.61696875 0.002598038 -0.311327
0.6181171875 -0.09188673 -0.291086
0.619265625 -0.1736101 -0.2442468
0.6204140625 -0.236169 -0.1759672
0.6215625 -0.2743945 -0.09301003
0.6227109375 -0.2849126 -0.003893249
0.623859375 -0.2680298 0.08297122
0.6250078125 -0.225372 0.1592841
0.62615625 -0.1625693 0.2171917
0.6273046875 -0.08612411 0.2522569
0.628453125 -0.003875187 0.2613556
0.6296015625 0.07524412 0.2448434
0.63075 0.1435342 0.2056414
0.6318984375 0.1950606 0.1486838
0.633046875 0.2258439 0.0808201
0.6341953125 0.234318 0.008991032
0.63534375 0.2212714 -0.06014611
0.6364921875 0.1894729 -0.1204682
0.637640625 0.1426074 -0.1675021
0.6387890625 0.0855941 -0.1982299
0.6399375 0.02367914 -0.21092
0.6410859375 -0.03808648 -0.2057529
0.642234375 -0.09483453 -0.1835173
0.6433828125 -0.1424252 -0.1467641
0.64453125 -0.1773987 -0.09847257
0.6456796875 -0.1970101 -0.04257761
0.646828125 -0.2001593 0.01655196
0.6479765625 -0.186087 0.07418136
0.649125 -0.156008 0.1250401
0.6502734375 -0.1123879 0.1653254
0.651421875 -0.0584435 0.1911751
0.6525703125 0.001040512 0.1999519
0.65371875 0.06051972 0.1906048
0.6548671875 0.1146118 0.1638235
0.656015625 0.1581755 0.1218419
0.6571640625 0.1871153 0.06871697
0.6583125 0.1985329 0.009411297
0.6594609375 0.1916015 -0.05022972
0.660609375 0.1671865 -0.1048761
0.6617578125 0.1279351 -0.1493328
0.66290625 0.0774987 -0.1797597
0.6640546875 0.02074222 -0.1940621
0.665203125 -0.03739357 -0.1909724
0.6663515625 -0.09181377 -0.1712247
0.6675 -0.1381077 -0.1366172
0.6686484375 -0.1722128 -0.09019138
0.669796875 -0.1916618 -0.03560485
0.6709453125 -0.1945481 0.02244292
0.67209375 -0.1801219 0.07912897
0.6732421875 -0.1497479 0.1298861
0.674390625 -0.1052483 0.1699136
0.6755390625 -0.05020879 0.1951522
0.6766875 0.01079028 0.2032246
0.6778359375 0.07228985 0.1923174
0.678984375 0.1282837 0.1628497
0.6801328125 0.1735534 0.1169661
0.68128125 0.2025083 0.05885417
0.6824296875 0.2121626 -0.006051849
0.683578125 0.2010912 -0.07141102
0.6847265625 0.1700723 -0.1303682
0.685875 0.1222039 -0.1768488
0.6870234375 0.06201373 -0.2061644
0.688171875 -0.004141859 -0.2155757
0.6893203125 -0.06982198 -0.2041092
0.69046875 -0.1288495 -0.1730894
0.6916171875 -0.175317 -0.125888
0.692765625 -0.2054213 -0.06672708
0.6939140625 -0.2162736 -0.001483906
0.6950625 -0.2070062 0.06392089
0.6962109375 -0.1785892 0.1238629
0.697359375 -0.1333784 0.1727371
0.6985078125 -0.07551453 0.2060042
0.69965625 -0.009635014 0.2204865
0.7008046875 0.05830683 0.2145201
0.701953125 0.1216896 0.188053
0.7031015625 0.174755 0.1430037
0.70425 0.2119244 0.08308471
0.7053984375 0.2290854 0.01389424
0.706546875 0.2237607 -0.0583308
0.7076953125 0.1959702 -0.1257648
0.70884375 0.1477782 -0.1816397
0.7099921875 0.08392275 -0.219812
0.711140625 0.01100798 -0.2359344
0.7122890625 -0.06349459 -0.2278024
0.7134375 -0.1316739 -0.1964639
0.7145859375 -0.1864778 -0.1454633
0.715734375 -0.2220223 -0.07988796
0.7168828125 -0.2353132 -0.006821717
0.71803125 -0.2252148 0.06629329
0.7191796875 -0.1930781 0.1321328
0.720328125 -0.1423189 0.1846167
0.7214765625 -0.07846692 0.2187805
0.722625 -0.00751248 0.2315252
0.7237734375 0.06362414 0.2222596
0.724921875 0.1283649 0.1919132
0.7260703125 0.1807321 0.1433284
0.72721875 0.2160016 0.08108813
0.7283671875 0.230662 0.01103316
0.729515625 0.2229974 -0.06029514
0.7306640625 0.1938707 -0.1261059
0.7318125 0.1456878 -0.1798764
0.7329609375 0.08305228 -0.2162111
0.734109375 0.01203878 -0.2313889
0.7352578125 -0.06028122 -0.223323
0.73640625 -0.126397 -0.193314
0.7375546875 -0.1797156 -0.1441336
0.738703125 -0.2146175 -0.08096758
0.7398515625 -0.2278503 -0.01045495
0.741 -0.2185688 0.05999054
0.7421484375 -0.1881837 0.1234316
0.743296875 -0.1402651 0.1736848
0.7444453125 -0.07989888 0.2066737
0.74559375 -0.01350817 0.2193449
0.7467421875 0.05271703 0.2115743
0.747890625 0.1133253 0.1846969
0.7490390625 0.1561272 0.1358352
0.7501875 0.1888879 0.08281256
0.7513359375 0.2045096 0.02272143
0.752484375 0.2018111 -0.03903038
0.7536328125 0.1810955 -0.09713754
0.75478125 0.1442668 -0.1469087
0.7559296875 0.09448618 -0.1837316
0.757078125 0.0355992 -0.204496
0.7582265625 -0.02718871 -0.2070045
0.759375 -0.08864621 -0.1906955
0.7605234375 -0.1429539 -0.1563438
0.761671875 -0.1848648 -0.1068808
0.7628203125 -0.2103293 -0.04621737
0.76396875 -0.2160665 0.02005947
0.7651171875 -0.2013015 0.08542655
0.766265625 -0.1669606 0.1438199
0.7674140625 -0.1159761 0.189112
0.7685625 -0.05316634 0.2170202
0.7697109375 0.0156324 0.2244384
0.770859375 0.08365941 0.2105688
0.7720078125 0.144839 0.1763256
0.77315625 0.1928518 0.1250564
0.7743046875 0.2235791 0.06119732
0.775453125 0.2339487 -0.009612492
0.7766015625 0.2226202 -0.08073497
0.77775 0.1899353 -0.146207
0.7788984375 0.1386912 -0.1995851
0.780046875 0.07239705 -0.2360616
0.7811953125 -0.003424272 -0.251333
0.78234375 -0.08189399 -0.2427247
0.7834921875 -0.1561006 -0.2097147
0.784640625 -0.218244 -0.1540076
0.7857890625 -0.2613049 -0.07932638
0.7869375 -0.2792585 0.00770267
0.7880859375 -0.2681688 0.09874177
0.789234375 -0.2269211 0.1838723
0.7903828125 -0.1582788 0.2529295
0.79153125 -0.06797972 0.2964427
0.7926796875 0.03435574 0.3076682
0.793828125 0.1367107 0.2832144
0.7949765625 0.2263401 0.2242714
0.796125 0.2914653 0.1367202
0.7972734375 0.3228088 0.0309171
0.798421875 0.3157082 -0.08018304
0.7995703125 0.270558 -0.1823687
0.80071875 0.1930141 -0.26284
0.8018671875 0.09261647 -0.3116203
0.803015625 -0.01766204 -0.3225618
0.8041640625 -0.1240146 -0.2952581
0.8053125 -0.2137113 -0.2339567
0.8064609375 -0.2761571 -0.1474693
0.807609375 -0.3053437 -0.04603801
0.8087578125 -0.2984938 0.0570076
0.80990625 -0.258398 0.1501624
0.8110546875 -0.1905943 0.2229173
0.812203125 -0.1045437 0.2680941
0.8133515625 -0.01062368 0.2817957
0.8145 0.08052996 0.2640242
0.8156484375 0.1586661 0.2182802
0.816796875 0.2158643 0.1509326
0.8179453125 0.2471214 0.07100059
0.81909375 0.2502286 -0.0124655
0.8202421875 0.2266206 -0.08984122
0.821390625 0.1805098 -0.1534387
0.8225390625 0.1184163 -0.1971508
0.8236875 0.04828544 -0.2178238
0.8248359375 -0.02210403 -0.2151646
0.825984375 -0.08560898 -0.1912245
0.8271328125 -0.1364822 -0.1503306
0.82828125 -0.1705743 -0.09773841
0.8294296875 -0.1864895 -0.03947173
0.830578125 -0.1839415 0.01854667
0.8317265625 -0.164928 0.07129773
0.832875 -0.1321631 0.1143548
0.8340234375 -0.08950368 0.1447613
0.835171875 -0.04128453 0.1608713
0.8363203125 0.008230331 0.1622816
0.83746875 0.0549008 0.1493669
0.8386171875 0.09502354 0.1239281
0.839765625 0.125327 0.0886116
0.8409140625 0.1435708 0.04644893
0.8420625 0.1486993 0.001589675
0.8432109375 0.1403796 -0.04245724
0.844359375 0.119511 -0.0814022
0.8455078125 0.08830883 -0.1119656
0.84665625 0.04985167 -0.1314021
0.8478046875 0.007755514 -0.138377
0.848953125 -0.03386226 -0.1322902
0.8501015625 -0.07111109 -0.1140557
0.85125 -0.1005104 -0.08584283
0.8523984375 -0.1196133 -0.05078838
0.853546875 -0.1271521 -0.01233482
0.8546953125 -0.1228575 0.02585245
0.85584375 -0.1076601 0.06025638
0.8569921875 -0.08353555 0.0878924
0.858140625 -0.05289831 0.1066257
0.8592890625 -0.01876775 0.1156603
0.8604375 0.01575935 0.1142626
0.8615859375 0.04781672 0.103216
0.862734375 0.07495052 0.08364478
0.8638828125 0.09495956 0.0574617
0.86503125 0.1065296 0.02700163
0.8661796875 0.108854 -0.005199956
0.867328125 0.1017858 -0.03651891
0.8684765625 0.08603694 -0.06438233
0.869625 0.06303912 -0.08630533
0.8707734375 0.03469965 -0.1006388
0.871921875 0.003382773 -0.1058269
0.8730703125 -0.02809294 -0.1016114
0.87421875 -0.05669951 -0.08819994
0.8753671875 -0.08002885 -0.06688646
0.876515625 -0.09569243 -0.03982878
0.8776640625 -0.1025966 -0.009345425
0.8788125 -0.1000086 0.0215155
0.8799609375 -0.08832122 0.04986882
0.881109375 -0.06889547 0.07318987
0.8822578125 -0.04373081 0.08957001
0.88340625 -0.01518517 0.0975227
0.8845546875 0.013963 0.09676466
0.885703125 0.04130366 0.08778074
0.8868515625 0.06460526 0.07128648
0.888 0.08194321 0.04933195
0.8891484375 0.09224225 0.02319165
0.890296875 0.09469758 -0.004282872
0.8914453125 0.08926974 -0.03133281
0.89259375 0.07647531 -0.05573409
0.8937421875 0.05722953 -0.07543377
0.894890625 0.0331672 -0.08920375
0.8960390625 0.00592507 -0.0954308
0.8971875 -0.02220125 -0.09357809
0.8983359375 -0.04898534 -0.08372436
0.899484375 -0.07197104 -0.06639683
0.9006328125 -0.08916842 -0.04262644
0.90178125 -0.09880886 -0.01451381
0.9029296875 -0.0995691 0.01574627
0.904078125 -0.09128787 0.04512957
0.9052265625 -0.07428846 0.07111997
0.906375 -0.05003438 0.09112519
0.9075234375 -0.02048343 0.1027843
0.908671875 0.0115619 0.1050057
0.9098203125 0.04313517 0.09740171
0.91096875 0.07114052 0.08050577
0.9121171875 0.09293266 0.05583616
0.913265625 0.1062222 0.02533163
0.9144140625 0.1098473 -0.007945593
0.9155625 0.1031888 -0.04114221
0.9167109375 0.08671578 -0.07104974
0.917859375 0.06189047 -0.09515178
0.9190078125 0.03038753 -0.1103746
0.92015625 -0.004726932 -0.1157356
0.9213046875 -0.04030232 -0.1101975
0.922453125 -0.07300873 -0.09381106
0.9236015625 -0.09982191 -0.06774374
0.92475 -0.1173464 -0.03396732
0.9258984375 -0.1236253 0.00422663
0.927046875 -0.1176337 0.04308401
0.9281953125 -0.09928155 0.07878889
0.92934375 -0.07017794 0.1072608
0.9304921875 -0.03291261 0.1252633
0.931640625 0.008599851 0.1302489
0.9327890625 0.04984645 0.1215385
0.9339375 0.08645184 0.09971731
0.9350859375 0.1140864 0.06721791
0.936234375 0.1296896 0.02739825
0.9373828125 0.1315755 -0.01519532
0.93853125 0.1196535 -0.05606835
0.9396796875 0.09560789 -0.09071834
0.940828125 0.06194035 -0.1158559
0.9419765625 0.022268 -0.1289449
0.943125 -0.01902484 -0.1287328
0.9442734375 -0.05792024 -0.1159844
0.945421875 -0.09070753 -0.0918365
0.9465703125 -0.1141622 -0.05904339
0.94771875 -0.1266062 -0.02051844
0.9488671875 -0.1263793 0.01932159
0.950015625 -0.1141264 0.05726946
0.9511640625 -0.09072852 0.08960757
0.9523125 -0.05868552 0.1132081
0.9534609375 -0.02075931 0.1258115
0.954609375 0.01913478 0.1261671
0.9557578125 0.05732599 0.1141049
0.95690625 0.08993165 0.09082308
0.9580546875 0.1137393 0.05836667
0.959203125 0.1262463 0.02002552
0.9603515625 0.1261799 -0.02023659
0.9615 0.1136091 -0.05840558
0.9626484375 0.08960318 -0.09061319
0.963796875 0.05690948 -0.1137662
0.9649453125 0.01869096 -0.1255204
0.96609375 -0.02094087 -0.1248112
0.9672421875 -0.05824167 -0.1121151
0.968390625 -0.08966671 -0.08859893
0.9695390625 -0.1123113 -0.05676256
0.9706875 -0.1241795 -0.01959817
0.9718359375 -0.1242623 0.01926594
0.972984375 -0.1126988 0.05631306
0.9741328125 -0.09047695 0.08813932
0.97528125 -0.05958458 0.1120196
0.9764296875 -0.0229174 0.1255651
0.977578125 0.01677258 0.1275647
0.9787265625 0.0553734 0.1173074
0.979875 0.08972824 0.09565002
0.9810234375 0.1161274 0.064059
0.982171875 0.132007 0.02534071
0.9833203125 0.1350264 -0.01736119
