# GHZ S RI R 50.0
0.3 -0.4836419 2.392711
0.3011484375 0.2791554 2.09346
0.302296875 0.8119088 1.660294
0.3034453125 1.130972 1.17635
0.30459375 1.276927 0.7011093
0.3057421875 1.285107 0.2694995
0.306890625 1.19157 -0.09807833
0.3080390625 1.027644 -0.3932692
0.3091875 0.8176258 -0.6154743
0.3103359375 0.5803798 -0.7670425
0.311484375 0.3315037 -0.8517156
0.3126328125 0.08333882 -0.8727744
0.31378125 -0.1540061 -0.8352809
0.3149296875 -0.3714388 -0.7427073
0.316078125 -0.5562227 -0.6000798
0.3172265625 -0.6999112 -0.4128247
0.318375 -0.7896297 -0.1906142
0.3195234375 -0.8141193 0.05419669
0.320671875 -0.7638301 0.3026978
0.3218203125 -0.6367331 0.5302212
0.32296875 -0.4371786 0.7108168
0.3241171875 -0.1860479 0.8180617
0.325265625 0.09075814 0.8360246
0.3264140625 0.3585034 0.7599521
0.3275625 0.5844956 0.6001932
0.3287109375 0.7447091 0.3778088
0.329859375 0.8243029 0.1211385
0.3310078125 0.8221946 -0.1439599
0.33215625 0.7431879 -0.3950758
0.3333046875 0.5957341 -0.6138938
0.334453125 0.391489 -0.786898
0.3356015625 0.1396976 -0.9041659
0.33675 -0.1476296 -0.9552948
0.3378984375 -0.4639043 -0.9291173
0.339046875 -0.7963943 -0.8130733
0.3401953125 -1.134316 -0.5868692
0.34134375 -1.456896 -0.2200898
0.3424921875 -1.728794 0.3366719
0.343640625 -1.873272 1.162234
0.3447890625 -1.689813 2.411964
0.3459375 -0.5054107 4.305691
0.3470859375 4.204341 5.762685
0.348234375 8.189942 -2.622763
0.3493828125 1.524753 -5.287898
0.35053125 -1.102037 -3.444731
0.3516796875 -1.845856 -1.893475
0.352828125 -1.918201 -0.7811787
0.3539765625 -1.695598 0.001516184
0.355125 -1.333537 0.5183211
0.3562734375 -0.9213201 0.8216929
0.357421875 -0.5152984 0.9552322
0.3585703125 -0.1516128 0.9576627
0.35971875 0.150388 0.8656136
0.3608671875 0.38212 0.7106507
0.362015625 0.5423942 0.5186678
0.3631640625 0.635042 0.3099502
0.3643125 0.6657335 0.1000297
0.3654609375 0.6414893 -0.09867374
0.366609375 0.5686767 -0.2759261
0.3677578125 0.4549339 -0.4242106
0.36890625 0.3081444 -0.5359747
0.3700546875 0.1364035 -0.6046457
0.371203125 -0.04992338 -0.6238207
0.3723515625 -0.2394378 -0.5896106
0.3735 -0.4155092 -0.4999733
0.3746484375 -0.5634077 -0.356291
0.375796875 -0.6646811 -0.1687284
0.3769453125 -0.704203 0.05068235
0.37809375 -0.6707999 0.279337
0.3792421875 -0.56141 0.4922376
0.380390625 -0.3852526 0.6615782
0.3815390625 -0.158963 0.7671837
0.3826875 0.09247451 0.7959947
0.3838359375 0.3425451 0.7447053
0.384984375 0.5681289 0.6195065
0.3861328125 0.749106 0.4316345
0.38728125 0.8721738 0.1964361
0.3884296875 0.9279435 -0.07030866
0.389578125 0.9113398 -0.3530134
0.3907265625 0.8184552 -0.6363091
0.391875 0.6454505 -0.9050686
0.3930234375 0.3886141 -1.143178
0.394171875 0.04747175 -1.329641
0.3953203125 -0.3853169 -1.439979
0.39646875 -0.911845 -1.438644
0.3976171875 -1.532215 -1.27053
0.398765625 -2.236222 -0.8493096
0.3999140625 -2.977514 -0.02646666
0.4010625 -3.589487 1.472679
0.4022109375 -3.440235 4.09089
0.403359375 -0.290186 7.588716
0.4045078125 7.025356 5.672763
0.40565625 7.138769 -1.519185
0.4068046875 3.526841 -3.892633
0.407953125 1.014868 -3.79891
0.4091015625 -0.4451566 -3.061016
0.41025 -1.239388 -2.197604
0.4113984375 -1.603166 -1.381828
0.412546875 -1.682251 -0.6739973
0.4136953125 -1.574332 -0.09897897
0.41484375 -1.351526 0.3389652
0.4159921875 -1.065187 0.6479914
0.417140625 -0.7526675 0.8407179
0.4182890625 -0.4409317 0.9336804
0.4194375 -0.1484664 0.9426568
0.4205859375 0.1119901 0.8838471
0.421734375 0.3326059 0.770641
0.4228828125 0.5050629 0.616623
0.42403125 0.6282515 0.4335627
0.4251796875 0.6980584 0.2336058
0.426328125 0.7137943 0.02835404
0.4274765625 0.675928 -0.1700993
0.428625 0.5868698 -0.3491711
0.4297734375 0.4536971 -0.4946113
0.430921875 0.285181 -0.5964288
0.4320703125 0.09457093 -0.6447954
0.43321875 -0.09979823 -0.6343203
0.4343671875 -0.2813905 -0.5658467
0.435515625 -0.4305143 -0.4476847
0.4366640625 -0.5346739 -0.2920764
0.4378125 -0.5850601 -0.1161981
0.4389609375 -0.5798888 0.06108812
0.440109375 -0.5243981 0.2234625
0.4412578125 -0.4270419 0.3580776
0.44240625 -0.2998981 0.4559231
0.4435546875 -0.155126 0.5127038
0.444703125 -0.005420472 0.5271194
0.4458515625 0.1398283 0.5021363
0.447 0.2708675 0.4407492
0.4481484375 0.3812066 0.3477769
0.449296875 0.4628175 0.2308107
0.4504453125 0.5119101 0.09528366
0.45159375 0.5246624 -0.05022306
0.4527421875 0.4983023 -0.1971653
0.453890625 0.432182 -0.3355713
0.4550390625 0.3274143 -0.4549371
0.4561875 0.1888215 -0.5444485
0.4573359375 0.02380954 -0.5929051
0.458484375 -0.1557447 -0.5918742
0.4596328125 -0.3347585 -0.5353962
0.46078125 -0.4944197 -0.4239148
0.4619296875 -0.6178453 -0.2634062
0.463078125 -0.6882829 -0.06622811
0.4642265625 -0.6955056 0.1493171
0.465375 -0.6354411 0.3622907
0.4665234375 -0.5113488 0.5514398
0.467671875 -0.3332752 0.6991068
0.4688203125 -0.1149043 0.7908977
0.46996875 0.1267004 0.817646
0.4711171875 0.3741165 0.7760308
0.472265625 0.6102962 0.6642595
0.4734140625 0.8188404 0.4853609
0.4745625 0.9841158 0.2432961
0.4757109375 1.088912 -0.05593342
0.476859375 1.115279 -0.4031535
0.4780078125 1.043815 -0.7879092
0.47915625 0.8489175 -1.192178
0.4803046875 0.4996387 -1.590688
0.481453125 -0.04156381 -1.938951
0.4826015625 -0.828725 -2.160524
0.48375 -1.923694 -2.103132
0.4848984375 -3.352046 -1.432534
0.486046875 -4.795905 0.5664284
0.4871953125 -4.340075 4.513361
0.48834375 0.5440111 6.637929
0.4894921875 4.100128 3.608452
0.490640625 4.10566 0.5728723
0.4917890625 3.045531 -1.035148
0.4929375 1.925143 -1.729703
0.4940859375 0.9707878 -1.916248
0.495234375 0.2187997 -1.814424
0.4963828125 -0.3374954 -1.548973
0.49753125 -0.717092 -1.200125
0.4986796875 -0.9427639 -0.8197922
0.499828125 -1.039112 -0.445681
0.5009765625 -1.029197 -0.1026607
0.502125 -0.936814 0.1931479
0.5032734375 -0.7812803 0.4312269
0.504421875 -0.5837033 0.6032544
0.5055703125 -0.361005 0.7098617
0.50671875 -0.1303628 0.7498437
0.5078671875 0.09288109 0.7266408
0.509015625 0.2941757 0.645326
0.5101640625 0.4610107 0.5143288
0.5113125 0.581241 0.3447127
0.5124609375 0.6468809 0.1493803
0.513609375 0.6519521 -0.05463112
0.5147578125 0.5961935 -0.2499136
0.51590625 0.4845411 -0.4186881
0.5170546875 0.3267511 -0.5443373
0.518203125 0.1390371 -0.6147485
0.5193515625 -0.06043471 -0.6234277
0.5205 -0.2523635 -0.5706071
0.5216484375 -0.4163588 -0.4620931
0.522796875 -0.5392918 -0.3093845
0.5239453125 -0.610508 -0.1272508
0.52509375 -0.624359 0.0677103
0.5262421875 -0.5804493 0.2594855
0.527390625 -0.4818467 0.4323623
0.5285390625 -0.3350322 0.5731399
0.5296875 -0.1490559 0.6694105
0.5308359375 0.06522036 0.7117276
0.531984375 0.2946898 0.691443
0.5331328125 0.5246516 0.6026381
0.53428125 0.7376665 0.4406886
0.5354296875 0.913372 0.2030597
0.536578125 1.027619 -0.1103137
0.5377265625 1.050764 -0.4915239
0.538875 0.9465433 -0.9321977
0.5400234375 0.663888 -1.409574
0.541171875 0.1283551 -1.880377
0.5423203125 -0.7829805 -2.24332
0.54346875 -2.270682 -2.199374
0.5446171875 -4.379782 -0.7626436
0.545765625 -4.548791 3.748395
0.5469140625 0.5890427 5.336236
0.5480625 2.85759 2.542434
0.5492109375 2.72074 0.5523392
0.550359375 2.08237 -0.4924598
0.5515078125 1.410016 -1.003152
0.55265625 0.8095806 -1.204807
0.5538046875 0.3060482 -1.214081
0.554953125 -0.09593864 -1.099977
0.5561015625 -0.3980832 -0.9078718
0.55725 -0.6054389 -0.6708463
0.5583984375 -0.7245272 -0.4147992
0.559546875 -0.7636795 -0.1599415
0.5606953125 -0.732533 0.07749406
0.56184375 -0.6419688 0.2837679
0.5629921875 -0.5044178 0.4478931
0.564140625 -0.3323922 0.5613174
0.5652890625 -0.1406549 0.619436
0.5664375 0.05432047 0.6193619
0.5675859375 0.2379273 0.5629323
0.568734375 0.3945722 0.456067
0.5698828125 0.5106876 0.3079952
0.57103125 0.575715 0.1342577
0.5721796875 0.5847769 -0.05003886
0.573328125 0.5377143 -0.227068
0.5744765625 0.4397765 -0.3800016
0.575625 0.3011368 -0.4948054
0.5767734375 0.1359299 -0.5621054
0.577921875 -0.04043959 -0.577053
0.5790703125 -0.2126229 -0.5400102
0.58021875 -0.366106 -0.4549966
0.5813671875 -0.4892263 -0.3290956
0.582515625 -0.5720175 -0.1736522
0.5836640625 -0.6088454 0.001183167
0.5848125 -0.5959924 0.1826926
0.5859609375 -0.5322462 0.3576391
0.587109375 -0.4195416 0.5140277
0.5882578125 -0.2623665 0.6386384
0.58940625 -0.06810049 0.7197514
0.5905546875 0.1530984 0.7458564
0.591703125 0.3880252 0.7077963
0.5928515625 0.6195871 0.5979834
0.594 0.8273042 0.4132105
0.5951484375 0.9875289 0.1545402
0.596296875 1.076004 -0.1694038
0.5974453125 1.065526 -0.5441958
0.59859375 0.929252 -0.9458837
0.5997421875 0.645807 -1.339349
0.600890625 0.1909508 -1.679721
0.6020390625 -0.4546921 -1.901942
0.6031875 -1.308266 -1.906859
0.6043359375 -2.363278 -1.522042
0.605484375 -3.501349 -0.425674
0.6066328125 -4.099566 1.87756
0.60778125 -2.304559 4.935508
0.6089296875 1.875625 5.022038
0.610078125 3.760568 2.176917
0.6112265625 3.360009 -0.03433061
0.612375 2.397045 -1.148259
0.6135234375 1.468682 -1.603394
0.614671875 0.6973752 -1.695832
0.6158203125 0.09098738 -1.582625
0.61696875 -0.3648252 -1.350733
0.6181171875 -0.6852003 -1.050905
0.619265625 -0.8844658 -0.7207676
0.6204140625 -0.9753688 -0.3864344
0.6215625 -0.9714023 -0.07006179
0.6227109375 -0.8860904 0.2096612
0.623859375 -0.7366673 0.4379221
0.6250078125 -0.5403712 0.603326
0.62615625 -0.3178766 0.7000909
0.6273046875 -0.08936937 0.7263541
0.628453125 0.1256085 0.68699
0.6296015625 0.3106585 0.5914875
0.63075 0.4524035 0.4527923
0.6318984375 0.543148 0.286646
0.633046875 0.5801423 0.1098288
0.6341953125 0.5656728 -0.06215127
0.63534375 0.5050195 -0.2163879
0.6364921875 0.4076238 -0.3410988
0.637640625 0.2843255 -0.4306498
0.6387890625 0.1455229 -0.4812635
0.6399375 0.003276834 -0.4910077
0.6410859375 -0.1331748 -0.4626969
0.642234375 -0.2544196 -0.4000983
0.6433828125 -0.3523767 -0.3080093
0.64453125 -0.4211263 -0.1941334
0.6456796875 -0.4563777 -0.06676405
0.646828125 -0.4552999 0.06549915
0.6479765625 -0.4176785 0.1925698
0.649125 -0.3460223 0.3049547
0.6502734375 -0.2449385 0.3935445
0.651421875 -0.1214105 0.4504665
0.6525703125 0.01486972 0.4701543
0.65371875 0.1528036 0.4493876
0.6548671875 0.2807486 0.3887083
0.656015625 0.3866229 0.2924124
0.6571640625 0.4606871 0.1676273
0.6583125 0.4956603 0.02498643
0.6594609375 0.4874544 -0.123449
0.660609375 0.4361918 -0.2649401
0.6617578125 0.344987 -0.3869848
0.66290625 0.2208643 -0.4794295
0.6640546875 0.07300929 -0.5338005
0.665203125 -0.08722196 -0.5446482
0.6663515625 -0.2483364 -0.509698
0.6675 -0.3975771 -0.4287494
0.6686484375 -0.5232505 -0.3057731
0.669796875 -0.6135745 -0.1460404
0.6709453125 -0.6587861 0.04125899
0.67209375 -0.6498379 0.2448052
0.6732421875 -0.5806696 0.4505361
0.674390625 -0.4473724 0.6420039
0.6755390625 -0.2503941 0.8007874
0.6766875 0.005588113 0.9056032
0.6778359375 0.3098496 0.9349463
0.678984375 0.6441571 0.8675502
0.6801328125 0.9836643 0.6830353
0.68128125 1.292291 0.3628157
0.6824296875 1.52311 -0.1069608
0.683578125 1.605891 -0.7365482
0.6847265625 1.438686 -1.514354
0.685875 0.845255 -2.386243
0.6870234375 -0.4430259 -3.10958
0.688171875 -2.580004 -2.899055
0.6893203125 -4.349318 -0.5742213
0.69046875 -3.35658 2.368627
0.6916171875 -1.046821 3.1822
0.692765625 0.5223448 2.598975
0.6939140625 1.266241 1.719528
0.6950625 1.512662 0.9178096
0.6962109375 1.478565 0.2765823
0.697359375 1.289903 -0.2075831
0.6985078125 1.01885 -0.5466748
0.69965625 0.7101783 -0.7587891
0.7008046875 0.3954144 -0.8595714
0.701953125 0.09740985 -0.8654473
0.7031015625 -0.1638241 -0.7923114
0.70425 -0.3763711 -0.6578234
0.7053984375 -0.5304862 -0.4790907
0.706546875 -0.6195477 -0.27644
0.7076953125 -0.6435348 -0.06695899
0.70884375 -0.6058781 0.1307818
0.7099921875 -0.5147163 0.3011916
0.711140625 -0.3812951 0.4317112
0.7122890625 -0.2211162 0.5124783
0.7134375 -0.04920337 0.5404019
0.7145859375 0.1182538 0.5157749
0.715734375 0.2667717 0.4440356
0.7168828125 0.3843538 0.3334187
0.71803125 0.4619678 0.1956642
0.7191796875 0.4951136 0.04289122
0.720328125 0.4817784 -0.1107009
0.7214765625 0.4244304 -0.2536174
0.722625 0.3275699 -0.373434
0.7237734375 0.1990278 -0.4608409
0.724921875 0.04817545 -0.5078503
0.7260703125 -0.1132685 -0.5090467
0.72721875 -0.2727484 -0.4619318
0.7283671875 -0.4169098 -0.3666905
0.729515625 -0.5321501 -0.2272719
0.7306640625 -0.6047515 -0.05052356
0.7318125 -0.6228822 0.1510641
0.7329609375 -0.5766764 0.3636962
0.734109375 -0.4602876 0.5682465
0.7352578125 -0.2715632 0.7428693
0.73640625 -0.01426846 0.8639028
0.7375546875 0.3018693 0.9052327
0.738703125 0.6598284 0.8400778
0.7398515625 1.034019 0.6393737
0.741 1.386841 0.2682736
0.7421484375 1.655622 -0.3173404
0.743296875 1.716847 -1.178167
0.7444453125 1.280457 -2.353659
0.74559375 -0.3154637 -3.536428
0.7467421875 -3.348844 -2.840236
0.747890625 -4.111229 0.6843907
0.7490390625 -1.994964 2.368644
0.7501875 -0.3926388 2.317973
0.7513359375 0.4942636 1.789956
0.752484375 0.9344733 1.210055
0.7536328125 1.106708 0.6821844
0.75478125 1.110493 0.2344766
0.7559296875 1.003925 -0.1265539
0.757078125 0.8244971 -0.4014117
0.7582265625 0.6014899 -0.5896148
0.759375 0.3585349 -0.6958198
0.7605234375 0.1157443 -0.7252384
0.761671875 -0.1090468 -0.6859736
0.7628203125 -0.3009588 -0.588565
0.76396875 -0.4477455 -0.4468702
0.7651171875 -0.5419046 -0.2762785
0.766265625 -0.5797134 -0.09337924
0.7674140625 -0.5626238 0.08567923
0.7685625 -0.4958839 0.2459263
0.7697109375 -0.3881322 0.3750763
0.770859375 -0.2514365 0.4644078
0.7720078125 -0.09867958 0.5087
0.77315625 0.05665112 0.5072265
0.7743046875 0.2022028 0.4618576
0.775453125 0.3268442 0.3782465
0.7766015625 0.4216878 0.263988
0.77775 0.4800545 0.1286573
0.7788984375 0.4983811 -0.01736384
0.780046875 0.4748272 -0.1632448
0.7811953125 0.4112673 -0.2982374
0.78234375 0.3106859 -0.4113929
0.7834921875 0.1802653 -0.4938968
0.784640625 0.02797139 -0.5373005
0.7857890625 -0.1351289 -0.5356388
0.7869375 -0.2962552 -0.4863251
0.7880859375 -0.441908 -0.3891587
0.789234375 -0.5578901 -0.2485679
0.7903828125 -0.6314217 -0.07269882
0.79153125 -0.6517537 0.1260886
0.7926796875 -0.6112471 0.3322617
0.793828125 -0.5062194 0.5276723
0.7949765625 -0.3398024 0.6933946
0.796125 -0.1185679 0.8104326
0.7972734375 0.1444366 0.8617473
0.798421875 0.4322602 0.83289
0.7995703125 0.7241978 0.7120625
0.80071875 0.9963747 0.4916906
0.8018671875 1.217823 0.1661033
0.803015625 1.355505 -0.2678003
0.8041640625 1.358225 -0.8082216
0.8053125 1.153519 -1.444797
0.8064609375 0.6200285 -2.131279
0.807609375 -0.4354286 -2.703239
0.8087578125 -2.178587 -2.636994
0.80990625 -3.969768 -0.8953735
0.8110546875 -3.575029 2.051213
0.812203125 -1.278941 3.268516
0.8133515625 0.4920661 2.760273
0.8145 1.333521 1.821265
0.8156484375 1.59934 0.9565449
0.816796875 1.555175 0.2686705
0.8179453125 1.343548 -0.2405029
0.81909375 1.046711 -0.5897833
0.8202421875 0.7156581 -0.7984053
0.821390625 0.3849426 -0.8873678
0.8225390625 0.08165029 -0.8770077
0.8236875 -0.1762773 -0.7887773
0.8248359375 -0.3769883 -0.6442421
0.825984375 -0.514429 -0.4649169
0.8271328125 -0.5885388 -0.2707167
0.82828125 -0.6027356 -0.07863307
0.8294296875 -0.5647146 0.09651379
0.830578125 -0.4850066 0.2439422
0.8317265625 -0.3740025 0.3566069
0.832875 -0.2433716 0.4295635
0.8340234375 -0.1046564 0.4622894
0.835171875 0.03165074 0.4559154
0.8363203125 0.156238 0.4136724
0.83746875 0.2608711 0.3414607
0.8386171875 0.3396174 0.2457772
0.839765625 0.3875966 0.1345078
0.8409140625 0.4025118 0.01642609
0.8420625 0.3838847 -0.09962054
0.8432109375 0.3338067 -0.2043606
0.844359375 0.2566534 -0.2896762
0.8455078125 0.1589637 -0.3489804
0.84665625 0.04861972 -0.3774729
0.8478046875 -0.06454209 -0.3724971
0.848953125 -0.1708443 -0.3348507
0.8501015625 -0.2610855 -0.2680835
0.85125 -0.327516 -0.1780343
0.8523984375 -0.3643247 -0.072831
0.853546875 -0.3690934 0.03810554
0.8546953125 -0.3410544 0.1451552
0.85584375 -0.2837195 0.2394607
0.8569921875 -0.2017961 0.3132524
0.858140625 -0.1019478 0.3605886
0.8592890625 0.00775063 0.3781948
0.8604375 0.1191695 0.3639835
0.8615859375 0.2234386 0.3187567
0.862734375 0.3126557 0.2445772
0.8638828125 0.379431 0.1462025
0.86503125 0.4172164 0.0298065
0.8661796875 0.4212655 -0.09708066
0.867328125 0.3882261 -0.2249938
0.8684765625 0.317165 -0.3444521
0.869625 0.2094849 -0.4438754
0.8707734375 0.0697875 -0.5129352
0.871921875 -0.09465288 -0.5407865
0.8730703125 -0.2732029 -0.5175428
0.87421875 -0.4513502 -0.4371842
0.8753671875 -0.6115908 -0.2954709
0.876515625 -0.7349464 -0.09259835
0.8776640625 -0.79849 0.1662402
0.8788125 -0.7776273 0.4699608
0.8799609375 -0.6448599 0.799605
0.881109375 -0.3664865 1.124559
0.8822578125 0.1004768 1.387966
0.88340625 0.8013199 1.475063
0.8845546875 1.727087 1.137131
0.885703125 2.521286 -0.03062398
0.8868515625 2.091973 -1.849422
0.888 0.3001747 -2.564427
0.8891484375 -1.025803 -1.8424
0.890296875 -1.430084 -0.8825848
0.8914453125 -1.354893 -0.158695
0.89259375 -1.094316 0.3089435
0.8937421875 -0.7791871 0.5808905
0.894890625 -0.4656173 0.7091281
0.8960390625 -0.1804449 0.731421
0.8971875 0.06133718 0.676226
0.8983359375 0.2518365 0.5660759
0.899484375 0.3869992 0.4199725
0.9006328125 0.4654624 0.2559716
0.90178125 0.4895257 0.08916284
0.9029296875 0.4643489 -0.06639993
0.904078125 0.3976246 -0.1989353
0.9052265625 0.2994764 -0.299169
0.906375 0.1814526 -0.3616758
0.9075234375 0.05606965 -0.3844453
0.908671875 -0.06502967 -0.3685866
0.9098203125 -0.1712631 -0.3187283
0.91096875 -0.2543431 -0.2416917
0.9121171875 -0.3086259 -0.146719
0.913265625 -0.3311129 -0.04272752
0.9144140625 -0.3218473 0.06046837
0.9155625 -0.2832184 0.1544812
0.9167109375 -0.2196902 0.2316228
0.917859375 -0.1371616 0.2859889
0.9190078125 -0.04271407 0.313528
0.92015625 0.05559578 0.3123715
0.9213046875 0.1497805 0.2820218
0.922453125 0.2319515 0.2249907
0.9236015625 0.294762 0.1449934
0.92475 0.3319018 0.04786371
0.9258984375 0.3387611 -0.05909765
0.927046875 0.3123633 -0.1663127
0.9281953125 0.2530387 -0.2643033
0.92934375 0.1630088 -0.3431143
0.9304921875 0.04828067 -0.3931519
0.931640625 -0.08258177 -0.4061331
0.9327890625 -0.2185909 -0.3767436
0.9339375 -0.3463495 -0.3028832
0.9350859375 -0.4517182 -0.1859753
0.936234375 -0.5206996 -0.03133807
0.9373828125 -0.5396191 0.1508956
0.93853125 -0.4975159 0.3469605
0.9396796875 -0.3858226 0.5390819
0.940828125 -0.1981772 0.7044532
0.9419765625 0.06671683 0.8152295
0.943125 0.4037507 0.8337678
0.9442734375 0.7928168 0.7105508
0.945421875 1.180974 0.3812331
0.9465703125 1.442774 -0.2164649
0.94771875 1.332224 -1.055996
0.9488671875 0.5837349 -1.798508
0.950015625 -0.5869107 -1.833192
0.9511640625 -1.407875 -1.092621
0.9523125 -1.545139 -0.1898023
0.9534609375 -1.255192 0.4622505
0.954609375 -0.8206684 0.8123886
0.9557578125 -0.3889028 0.9311067
0.95690625 -0.02049254 0.8938918
0.9580546875 0.2637722 0.7585454
0.959203125 0.4592136 0.5665013
0.9603515625 0.5695195 0.3499863
0.9615 0.6034728 0.1342285
0.9626484375 0.5722448 -0.06261689
0.963796875 0.4898823 -0.2260544
0.9649453125 0.3711878 -0.3474571
0.96609375 0.2314597 -0.4221835
0.9672421875 0.08566651 -0.4500962
0.968390625 -0.05367443 -0.4346592
0.9695390625 -0.1759351 -0.3818209
0.9706875 -0.2727292 -0.2996691
0.9718359375 -0.3387716 -0.1977148
0.972984375 -0.3716745 -0.08516901
0.9741328125 -0.3712894 0.02833077
0.97528125 -0.3392535 0.1341699
0.9764296875 -0.2799138 0.2248425
0.977578125 -0.198742 0.2937785
0.9787265625 -0.1024856 0.3366202
0.979875 0.001407431 0.3500026
0.9810234375 0.104483 0.3334494
0.982171875 0.1986365 0.2878491
0.9833203125 0.2761065 0.2169811
0.98446875 0.330341 0.1257926
0.9856171875 0.3560514 0.02166612
0.986765625 0.3500696 -0.08651353
0.9879140625 0.3120565 -0.1897382
0.9890625 0.2443012 -0.2785075
0.9902109375 0.1518702 -0.3445403
0.991359375 0.04221907 -0.3812455
0.9925078125 -0.07580446 -0.3839972
0.99365625 -0.1917907 -0.3513805
0.9948046875 -0.2954285 -0.2846444
0.995953125 -0.3773215 -0.1881958
0.9971015625 -0.4294836 -0.06876111
0.99825 -0.4453236 0.06492648
0.9993984375 -0.4216318 0.2027845
1.000546875 -0.3568879 0.3337959
