# GHZ S RI R 50.0
0.3 0.05353773 1.686386
0.3011484375 0.5352516 1.409901
0.302296875 0.8586982 1.04808
0.3034453125 1.032464 0.6589165
0.30459375 1.078016 0.2858931
0.3057421875 1.022863 -0.04439933
0.306890625 0.8937318 -0.3167812
0.3080390625 0.7143223 -0.5248843
0.3091875 0.5044543 -0.6680998
0.3103359375 0.279509 -0.7486178
0.311484375 0.05259153 -0.7689719
0.3126328125 -0.1662228 -0.7329661
0.31378125 -0.3645903 -0.6438428
0.3149296875 -0.5346446 -0.5062633
0.316078125 -0.6647549 -0.3254654
0.3172265625 -0.7422307 -0.1095669
0.318375 -0.7570279 0.1289253
0.3195234375 -0.69691 0.3747957
0.320671875 -0.5561605 0.6037427
0.3218203125 -0.335268 0.7866365
0.32296875 -0.04738759 0.8929649
0.3241171875 0.2788033 0.8950165
0.325265625 0.6061499 0.7777305
0.3264140625 0.8901305 0.5410242
0.3275625 1.089044 0.2015673
0.3287109375 1.170246 -0.2125753
0.329859375 1.110783 -0.6679989
0.3310078125 0.8934748 -1.132988
0.33215625 0.490598 -1.579871
0.3333046875 -0.1482993 -1.970527
0.334453125 -1.146029 -2.223382
0.3356015625 -2.788914 -2.031775
0.33675 -5.294977 0.0744172
0.3378984375 -3.335021 6.376866
0.339046875 2.854607 4.367823
0.3401953125 3.184176 1.20324
0.34134375 2.463053 -0.2313095
0.3424921875 1.731334 -0.9069931
0.343640625 1.086845 -1.221777
0.3447890625 0.5264863 -1.323682
0.3459375 0.04619928 -1.276619
0.3470859375 -0.3519604 -1.115283
0.348234375 -0.6546077 -0.8682476
0.3493828125 -0.8525191 -0.5624386
0.35053125 -0.937337 -0.2315128
0.3516796875 -0.9113604 0.09079388
0.352828125 -0.7882976 0.3699996
0.3539765625 -0.5923796 0.5792126
0.355125 -0.3543061 0.7050735
0.3562734375 -0.1066547 0.7447334
0.357421875 0.1262865 0.7085959
0.3585703125 0.3236694 0.6108437
0.35971875 0.4749844 0.4681874
0.3608671875 0.5733868 0.2990728
0.362015625 0.620547 0.1179948
0.3631640625 0.617877 -0.06276876
0.3643125 0.56977 -0.2318973
0.3654609375 0.4813645 -0.381118
0.366609375 0.3582216 -0.502949
0.3677578125 0.2071874 -0.5904602
0.36890625 0.03402972 -0.6378151
0.3700546875 -0.1506035 -0.6390549
0.371203125 -0.3367963 -0.5889168
0.3723515625 -0.5113735 -0.4852667
0.3735 -0.6586221 -0.3285342
0.3746484375 -0.7606296 -0.1238713
0.375796875 -0.7998878 0.1167274
0.3769453125 -0.7624613 0.3734106
0.37809375 -0.6394709 0.6196075
0.3792421875 -0.4345272 0.8259994
0.380390625 -0.1619824 0.9630308
0.3815390625 0.1528181 1.009551
0.3826875 0.4787435 0.9540713
0.3838359375 0.7850574 0.7971496
0.384984375 1.040383 0.5491254
0.3861328125 1.22431 0.2241497
0.38728125 1.318949 -0.1603912
0.3884296875 1.308608 -0.5866218
0.389578125 1.178652 -1.036501
0.3907265625 0.9093946 -1.492153
0.391875 0.4718966 -1.930824
0.3930234375 -0.1823446 -2.315256
0.394171875 -1.133653 -2.565649
0.3953203125 -2.508149 -2.492583
0.39646875 -4.424993 -1.572405
0.3976171875 -6.296092 1.548303
0.398765625 -3.97254 7.072056
0.3999140625 2.620238 6.796501
0.4010625 4.667215 2.817429
0.4022109375 4.132586 0.2122713
0.403359375 3.082487 -1.165492
0.4045078125 2.026199 -1.829481
0.40565625 1.079081 -2.060975
0.4068046875 0.2806041 -2.003497
0.407953125 -0.3443204 -1.749681
0.4091015625 -0.7916639 -1.376517
0.41025 -1.064181 -0.9474658
0.4113984375 -1.17909 -0.5158324
0.412546875 -1.16357 -0.1201313
0.4136953125 -1.048012 0.2115064
0.41484375 -0.8649243 0.467695
0.4159921875 -0.6424425 0.6448534
0.417140625 -0.4044544 0.7461349
0.4182890625 -0.1686912 0.7787083
0.4194375 0.05031237 0.7517138
0.4205859375 0.2435667 0.6753048
0.421734375 0.4014644 0.5589935
0.4228828125 0.5209703 0.4127453
0.42403125 0.5969307 0.2472106
0.4251796875 0.627669 0.0712892
0.426328125 0.6120228 -0.104547
0.4274765625 0.5507543 -0.269406
0.428625 0.4474729 -0.4106371
0.4297734375 0.3079232 -0.5186975
0.430921875 0.1424827 -0.5830645
0.4320703125 -0.03572704 -0.5960254
0.43321875 -0.2106106 -0.5551302
0.4343671875 -0.3650789 -0.4631451
0.435515625 -0.4831292 -0.3288353
0.4366640625 -0.5535089 -0.1663228
0.4378125 -0.5701835 0.007184409
0.4389609375 -0.5346513 0.1742847
0.440109375 -0.4526823 0.3195591
0.4412578125 -0.3348707 0.4314464
0.44240625 -0.1933462 0.5032209
0.4435546875 -0.0415391 0.5319372
0.444703125 0.1100957 0.518157
0.4458515625 0.2497388 0.4651163
0.447 0.3699417 0.3776306
0.4481484375 0.4631165 0.2618276
0.449296875 0.5235615 0.1245217
0.4504453125 0.547136 -0.02658626
0.45159375 0.5296398 -0.1822122
0.4527421875 0.4697053 -0.3327647
0.453890625 0.3677705 -0.4671711
0.4550390625 0.2262361 -0.5737588
0.4561875 0.05181857 -0.6402696
0.4573359375 -0.1450507 -0.6552567
0.458484375 -0.3496401 -0.6094834
0.4596328125 -0.543175 -0.4983447
0.46078125 -0.7031353 -0.3242435
0.4619296875 -0.8084559 -0.09557762
0.463078125 -0.840277 0.1676749
0.4642265625 -0.786874 0.4438554
0.465375 -0.6435479 0.7049647
0.4665234375 -0.4150377 0.9233111
0.467671875 -0.1127104 1.07426
0.4688203125 0.2437298 1.134008
0.46996875 0.6363087 1.086735
0.4711171875 1.04101 0.9144572
0.472265625 1.430428 0.5971122
0.4734140625 1.769471 0.106438
0.4745625 1.996725 -0.5966036
0.4757109375 1.987355 -1.576366
0.476859375 1.444205 -2.87439
0.4780078125 -0.3085112 -4.209418
0.47915625 -3.769726 -3.735145
0.4803046875 -5.301998 0.3226002
0.481453125 -3.005716 2.979392
0.4826015625 -0.7780455 3.136088
0.48375 0.5128561 2.495805
0.4848984375 1.176425 1.726574
0.486046875 1.454425 1.0056
0.4871953125 1.485667 0.38135
0.48834375 1.349833 -0.1272373
0.4894921875 1.102803 -0.5105969
0.490640625 0.7904471 -0.7663766
0.4917890625 0.4536202 -0.8983078
0.4929375 0.126795 -0.917847
0.4940859375 -0.1619954 -0.8429286
0.495234375 -0.3935995 -0.6962797
0.4963828125 -0.5564025 -0.5027309
0.49753125 -0.6468531 -0.2858045
0.4986796875 -0.6673862 -0.0668307
0.499828125 -0.6261081 0.1361878
0.5009765625 -0.5324708 0.3095672
0.502125 -0.3992073 0.4430835
0.5032734375 -0.2390214 0.5301694
0.504421875 -0.06454254 0.5675805
0.5055703125 0.1111475 0.5539957
0.50671875 0.2744125 0.491416
0.5078671875 0.4138451 0.3842903
0.509015625 0.5177788 0.2392878
0.5101640625 0.576111 0.06658733
0.5113125 0.5804925 -0.1207957
0.5124609375 0.5263652 -0.3077821
0.513609375 0.4131684 -0.4756396
0.5147578125 0.2462778 -0.606437
0.51590625 0.03677106 -0.682157
0.5170546875 -0.1977069 -0.6877419
0.518203125 -0.4347317 -0.6153463
0.5193515625 -0.6493019 -0.4632535
0.5205 -0.8154736 -0.2372565
0.5216484375 -0.9104223 0.04868195
0.522796875 -0.9137386 0.3760257
0.5239453125 -0.8084923 0.7213322
0.52509375 -0.5805099 1.057562
0.5262421875 -0.2146316 1.3527
0.527390625 0.3104638 1.562999
0.5285390625 1.027683 1.615453
0.5296875 1.976092 1.360387
0.5308359375 3.137976 0.4341622
0.531984375 3.912437 -1.959588
0.5331328125 1.444001 -5.335218
0.53428125 -3.001559 -3.938373
0.5354296875 -3.553992 -0.8548185
0.536578125 -2.646726 0.7268142
0.5377265625 -1.681903 1.379047
0.538875 -0.8747547 1.575756
0.5400234375 -0.2328773 1.527009
0.541171875 0.258037 1.332577
0.5423203125 0.6112662 1.051143
0.54346875 0.8347815 0.7245768
0.5446171875 0.9402763 0.3849785
0.545765625 0.9402303 0.06196869
0.5469140625 0.8519652 -0.2211349
0.5480625 0.6958876 -0.447293
0.5492109375 0.4946689 -0.6049633
0.550359375 0.2712289 -0.6905628
0.5515078125 0.04678668 -0.706012
0.55265625 -0.1605175 -0.6589402
0.5538046875 -0.3370137 -0.559799
0.554953125 -0.4711641 -0.4213547
0.5561015625 -0.5583399 -0.2573829
0.55725 -0.5953848 -0.08160923
0.5583984375 -0.5831332 0.09309203
0.559546875 -0.5243195 0.2545
0.5606953125 -0.4248316 0.3923219
0.56184375 -0.2918546 0.4967045
0.5629921875 -0.1352984 0.5604613
0.564140625 0.03408762 0.5782293
0.5652890625 0.2033513 0.5471199
0.5664375 0.3590338 0.4680986
0.5675859375 0.4879495 0.3454483
0.568734375 0.577005 0.1875117
0.5698828125 0.6169348 0.006703578
0.57103125 0.6006542 -0.1815565
0.5721796875 0.5280235 -0.3602782
0.573328125 0.4027136 -0.5118995
0.5744765625 0.2349187 -0.6209749
0.575625 0.03880141 -0.676973
0.5767734375 -0.1687927 -0.671739
0.577921875 -0.3690341 -0.6062462
0.5790703125 -0.5464435 -0.4829204
0.58021875 -0.6845039 -0.3107834
0.5813671875 -0.7721628 -0.100676
0.582515625 -0.7993921 0.1340282
0.5836640625 -0.7603298 0.3776965
0.5848125 -0.6514587 0.613789
0.5859609375 -0.4719889 0.8257946
0.587109375 -0.2241773 0.9941905
0.5882578125 0.0859852 1.099266
0.58940625 0.4492557 1.118158
0.5905546875 0.8507917 1.026803
0.591703125 1.264181 0.7981943
0.5928515625 1.656253 0.3988899
0.594 1.966345 -0.207408
0.5951484375 2.094115 -1.058297
0.596296875 1.854267 -2.174485
0.5974453125 0.8950775 -3.461664
0.59859375 -1.316821 -4.320074
0.5997421875 -4.467381 -2.990327
0.600890625 -5.267051 0.920404
0.6020390625 -2.933154 3.360939
0.6031875 -0.601729 3.465908
0.6043359375 0.774296 2.697605
0.605484375 1.437541 1.792917
0.6066328125 1.664157 0.9793923
0.60778125 1.627486 0.3127353
0.6089296875 1.434735 -0.1988685
0.610078125 1.154496 -0.5652505
0.6112265625 0.8337583 -0.8011603
0.612375 0.5050547 -0.9228359
0.6135234375 0.1922625 -0.9478629
0.614671875 -0.08743227 -0.8928015
0.6158203125 -0.3219251 -0.774543
0.61696875 -0.5027779 -0.6098212
0.6181171875 -0.6233858 -0.4150106
0.619265625 -0.6838502 -0.2059757
0.6204140625 -0.6844578 0.002139037
0.6215625 -0.6295765 0.1943321
0.6227109375 -0.5261328 0.3578619
0.623859375 -0.3849899 0.4812924
0.6250078125 -0.2185476 0.5569147
0.62615625 -0.04246183 0.5801435
0.6273046875 0.1285232 0.5515675
0.628453125 0.2794829 0.4756714
0.6296015625 0.3978488 0.3618908
0.63075 0.4755137 0.2217689
0.6318984375 0.5075179 0.06942038
0.633046875 0.4940845 -0.08140603
0.6341953125 0.4388765 -0.2180473
0.63534375 0.3489498 -0.3304549
0.6364921875 0.2341236 -0.410135
0.637640625 0.1041044 -0.4534748
0.6387890625 -0.03043602 -0.458595
0.6399375 -0.1593511 -0.4269898
0.6410859375 -0.2736366 -0.3617131
0.642234375 -0.3650299 -0.2678019
0.6433828125 -0.4274645 -0.1524433
0.64453125 -0.4559837 -0.02358196
0.6456796875 -0.4477956 0.1102823
0.646828125 -0.4020576 0.2378322
0.6479765625 -0.3209376 0.3503409
0.649125 -0.2084264 0.4372549
0.6502734375 -0.07165962 0.4903215
0.651421875 0.07846869 0.5024096
0.6525703125 0.2313319 0.4690667
0.65371875 0.3726636 0.3894702
0.6548671875 0.4889528 0.2669899
0.656015625 0.5666258 0.1099796
0.6571640625 0.5952736 -0.07075015
0.6583125 0.567677 -0.2598148
0.6594609375 0.4816191 -0.4409449
0.660609375 0.3384735 -0.5962565
0.6617578125 0.1446761 -0.7093009
0.66290625 -0.08703643 -0.7644312
0.6640546875 -0.3441243 -0.748786
0.665203125 -0.6083041 -0.6513128
0.6663515625 -0.8575722 -0.4632046
0.6675 -1.065892 -0.1766496
0.6686484375 -1.199511 0.213392
0.669796875 -1.208978 0.7078792
0.6709453125 -1.019512 1.298497
0.67209375 -0.5027202 1.937486
0.6732421875 0.5380843 2.437968
0.674390625 2.231217 2.204997
0.6755390625 3.657545 0.2480851
0.6766875 2.705251 -2.294126
0.6778359375 0.5640085 -2.873401
0.678984375 -0.7985112 -2.18039
0.6801328125 -1.358597 -1.287727
0.68128125 -1.459022 -0.5268148
0.6824296875 -1.317256 0.04940777
0.683578125 -1.051513 0.4497305
0.6847265625 -0.7323253 0.6947591
0.685875 -0.4049275 0.8075438
0.6870234375 -0.1012773 0.8120116
0.688171875 0.1581976 0.7321658
0.6893203125 0.3581077 0.5920008
0.69046875 0.4936033 0.41407
0.6916171875 0.5634271 0.2198639
0.692765625 0.5713239 0.02792511
0.6939140625 0.5245942 -0.1465116
0.6950625 0.4332812 -0.2915482
0.6962109375 0.3092185 -0.3984796
0.697359375 0.1645141 -0.4617898
0.6985078125 0.01165435 -0.4795187
0.69965625 -0.1357913 -0.452089
0.7008046875 -0.2674391 -0.3833242
0.701953125 -0.3721686 -0.2794519
0.7031015625 -0.4412379 -0.1491872
0.70425 -0.4684609 -0.003267432
0.7053984375 -0.4504288 0.145688
0.706546875 -0.3868859 0.284149
0.7076953125 -0.2825075 0.3991656
0.70884375 -0.1447401 0.4785631
0.7099921875 0.01443002 0.5130365
0.711140625 0.1814515 0.4962404
0.7122890625 0.340432 0.4271399
0.7134375 0.475944 0.3083819
0.7145859375 0.5718822 0.1488376
0.715734375 0.6178345 -0.04096413
0.7168828125 0.6043307 -0.2458456
0.71803125 0.5264981 -0.4489048
0.7191796875 0.3827437 -0.6318766
0.720328125 0.1769296 -0.7755687
0.7214765625 -0.08423823 -0.861375
0.722625 -0.3899728 -0.8687494
0.7237734375 -0.7237908 -0.7768639
0.724921875 -1.063362 -0.5611349
0.7260703125 -1.374244 -0.1943806
0.72721875 -1.598279 0.3591928
0.7283671875 -1.633086 1.135374
0.729515625 -1.260579 2.149983
0.7306640625 -0.06451064 3.204424
0.7318125 2.368012 3.290763
0.7329609375 4.386125 0.7494438
0.734109375 3.276182 -2.159924
0.7352578125 1.165174 -2.896637
0.73640625 -0.2620245 -2.471397
0.7375546875 -1.021744 -1.760006
0.738703125 -1.351754 -1.055274
0.7398515625 -1.411323 -0.4431203
0.741 -1.300688 0.05144801
0.7421484375 -1.083009 0.4229668
0.743296875 -0.8063114 0.6753038
0.7444453125 -0.5067322 0.8176848
0.74559375 -0.2120592 0.862366
0.7467421875 0.05641134 0.8246928
0.747890625 0.2835357 0.7218592
0.7490390625 0.4414732 0.5480992
0.7501875 0.5551485 0.373452
0.7513359375 0.612971 0.1848593
0.752484375 0.6155336 -0.002865707
0.7536328125 0.5686318 -0.176866
0.75478125 0.4783064 -0.3258627
0.7559296875 0.3539176 -0.4407487
0.757078125 0.205648 -0.5143359
0.7582265625 0.04583065 -0.5432598
0.759375 -0.1138555 -0.5260909
0.7605234375 -0.2605978 -0.464912
0.761671875 -0.383185 -0.3650011
0.7628203125 -0.4711948 -0.2346614
0.76396875 -0.5178676 -0.08482306
0.7651171875 -0.5188993 0.07180798
0.766265625 -0.4744397 0.2221298
0.7674140625 -0.3882625 0.3528825
0.7685625 -0.2677815 0.4532276
0.7697109375 -0.1229198 0.5141844
0.770859375 0.03374733 0.5312132
0.7720078125 0.18957 0.5024775
0.77315625 0.3318725 0.4303296
0.7743046875 0.4492542 0.3197424
0.775453125 0.531966 0.1786563
0.7766015625 0.5729668 0.01725024
0.77775 0.567809 -0.153284
0.7788984375 0.5140776 -0.3207031
0.780046875 0.4132184 -0.4720526
0.7811953125 0.2685188 -0.5948067
0.78234375 0.08695214 -0.6768437
0.7834921875 -0.1212601 -0.7072758
0.784640625 -0.3435889 -0.6767275
0.7857890625 -0.563813 -0.5783052
0.7869375 -0.7617687 -0.409109
0.7880859375 -0.9170166 -0.1701369
0.789234375 -1.005293 0.1316412
0.7903828125 -1.001716 0.4824579
0.79153125 -0.8806663 0.8609758
0.7926796875 -0.6173027 1.235643
0.793828125 -0.1860882 1.561451
0.7949765625 0.4389296 1.769352
0.796125 1.273971 1.744179
0.7972734375 2.286427 1.280074
0.798421875 3.234147 0.02925785
0.7995703125 3.214533 -2.212283
0.80071875 1.026801 -4.057456
0.8018671875 -1.66539 -3.356509
0.803015625 -2.628215 -1.495731
0.8041640625 -2.40734 -0.07954925
0.8053125 -1.816672 0.733133
0.8064609375 -1.185827 1.125952
0.807609375 -0.6212558 1.252326
0.8087578125 -0.1522795 1.209419
0.80990625 0.2143884 1.059801
0.8110546875 0.4812301 0.8445569
0.812203125 0.654147 0.5962371
0.8133515625 0.7397912 0.3375846
0.8145 0.748018 0.0893598
0.8156484375 0.6909745 -0.132503
0.816796875 0.5804954 -0.3147108
0.8179453125 0.4321972 -0.448697
0.81909375 0.2617831 -0.5290587
0.8202421875 0.08540548 -0.5548444
0.821390625 -0.08215079 -0.529072
0.8225390625 -0.2274304 -0.4587789
0.8236875 -0.3402874 -0.3541082
0.8248359375 -0.4140728 -0.2263508
0.825984375 -0.4459363 -0.08874167
0.8271328125 -0.4368181 0.04653224
0.82828125 -0.3904909 0.1688049
0.8294296875 -0.3137496 0.2689461
0.830578125 -0.2147937 0.3404473
0.8317265625 -0.1026442 0.3799019
0.832875 0.01313927 0.3857819
0.8340234375 0.1238457 0.3593923
0.835171875 0.2213942 0.3037606
0.8363203125 0.2984517 0.2234498
0.83746875 0.3495782 0.1252274
0.8386171875 0.3707819 0.01632805
0.839765625 0.3605967 -0.09490851
0.8409140625 0.3180701 -0.1993141
0.8420625 0.2462067 -0.2885422
0.8432109375 0.1498163 -0.3542333
0.844359375 0.03592761 -0.3896412
0.8455078125 -0.08639091 -0.3896173
0.84665625 -0.2065918 -0.3521275
0.8478046875 -0.3132511 -0.2782437
0.848953125 -0.3953272 -0.1720927
0.8501015625 -0.44344 -0.0414589
0.85125 -0.4498594 0.1030995
0.8523984375 -0.4106824 0.2492973
0.853546875 -0.3253867 0.3829769
0.8546953125 -0.1968536 0.4907036
0.85584375 -0.03189872 0.5593339
0.8569921875 0.1595957 0.5771419
0.858140625 0.365177 0.533212
0.8592890625 0.5679708 0.4185878
0.8604375 0.7487544 0.2254526
0.8615859375 0.8794203 -0.05356203
0.862734375 0.9212747 -0.4234599
0.8638828125 0.8089978 -0.8784271
0.86503125 0.4361288 -1.37634
0.8661796875 -0.3541794 -1.741611
0.867328125 -1.56117 -1.473954
0.8684765625 -2.329684 -0.08822235
0.869625 -1.658863 1.343795
0.8707734375 -0.4780394 1.693027
0.871921875 0.3341051 1.383724
0.8730703125 0.7381002 0.9094968
0.87421875 0.8739216 0.4603619
0.8753671875 0.8474446 0.08906086
0.876515625 0.7235461 -0.1923244
0.8776640625 0.546386 -0.3845097
0.8788125 0.3465752 -0.494116
0.8799609375 0.1479152 -0.5309346
0.881109375 -0.03234635 -0.5071646
0.8822578125 -0.1817047 -0.4358657
0.88340625 -0.2924729 -0.3316249
0.8845546875 -0.3606688 -0.2083969
0.885703125 -0.3872169 -0.07940782
0.8868515625 -0.374633 0.04400378
0.888 -0.3285631 0.152182
0.8891484375 -0.2562266 0.2378727
0.890296875 -0.1653087 0.2962057
0.8914453125 -0.06474051 0.3247831
0.89259375 0.03706579 0.3228186
0.8937421875 0.1321033 0.2918108
0.894890625 0.2128977 0.2353027
0.8960390625 0.2730801 0.1582011
0.8971875 0.3082349 0.06700112
0.8983359375 0.3147126 -0.03072298
0.899484375 0.2918638 -0.1265454
0.9006328125 0.2411302 -0.2122071
0.90178125 0.1659581 -0.2796175
0.9029296875 0.07263665 -0.3217611
0.904078125 -0.03083849 -0.3339957
0.9052265625 -0.1352927 -0.3139195
0.906375 -0.2305714 -0.2621515
0.9075234375 -0.3072772 -0.1822314
0.908671875 -0.3576048 -0.08040176
0.9098203125 -0.3753572 0.03481919
0.91096875 -0.3572437 0.1532513
0.9121171875 -0.3030403 0.2646848
0.913265625 -0.2152354 0.3582858
0.9144140625 -0.09920112 0.4246092
0.9155625 0.03741583 0.4556955
0.9167109375 0.1846513 0.4448649
0.917859375 0.3316259 0.3886989
0.9190078125 0.4651618 0.2850946
0.92015625 0.5708819 0.1354805
0.9213046875 0.6340202 -0.05535815
0.922453125 0.6381517 -0.2792839
0.9236015625 0.5664402 -0.5215302
0.92475 0.4024857 -0.7615095
0.9258984375 0.1292586 -0.9664423
0.927046875 -0.2625551 -1.087811
0.9281953125 -0.7685686 -1.050602
0.92934375 -1.338203 -0.7463351
0.9304921875 -1.806219 -0.05056426
0.931640625 -1.809639 1.032138
0.9327890625 -0.9712145 2.029685
0.9339375 0.3842179 2.168682
0.9350859375 1.353944 1.440705
0.936234375 1.622879 0.5086815
0.9373828125 1.435007 -0.2161307
0.93853125 1.057027 -0.6632843
0.9396796875 0.6400555 -0.8781317
0.940828125 0.2559996 -0.924298
0.9419765625 -0.06412662 -0.854838
0.943125 -0.3077862 -0.7112669
0.9442734375 -0.474591 -0.5259473
0.945421875 -0.567659 -0.3231217
0.9465703125 -0.5949429 -0.1224169
0.94771875 -0.5656962 0.06146487
0.9488671875 -0.4910708 0.2172004
0.950015625 -0.3825698 0.3372338
0.9511640625 -0.2516694 0.4167608
0.9523125 -0.1107853 0.4540613
0.9534609375 0.02887406 0.4496311
0.954609375 0.1566056 0.4068862
0.9557578125 0.2633302 0.3318037
0.95690625 0.3415152 0.2318025
0.9580546875 0.3860905 0.1163324
0.959203125 0.3947734 -0.00440597
0.9603515625 0.3684867 -0.1200652
0.9615 0.3102786 -0.220934
0.9626484375 0.2265704 -0.2989019
0.963796875 0.1253703 -0.347784
0.9649453125 0.01593382 -0.3650176
0.96609375 -0.09223151 -0.3496479
0.9672421875 -0.189844 -0.3040119
0.968390625 -0.2693196 -0.2330393
0.9695390625 -0.3246893 -0.1429559
0.9706875 -0.3517358 -0.04153519
0.9718359375 -0.349038 0.06326086
0.972984375 -0.3169822 0.1627936
0.9741328125 -0.2578196 0.2502563
0.97528125 -0.1757112 0.3178329
0.9764296875 -0.07661545 0.3604523
0.977578125 0.03245549 0.374106
0.9787265625 0.1434949 0.3559698
0.979875 0.2477506 0.306237
0.9810234375 0.336991 0.2263689
0.982171875 0.4017907 0.1205212
0.9833203125 0.4349059 -0.004454801
0.98446875 0.4310703 -0.1397015
0.9856171875 0.3858804 -0.27471
0.986765625 0.2985994 -0.3970797
0.9879140625 0.1725417 -0.494087
0.9890625 0.01367763 -0.553723
0.9902109375 -0.1676258 -0.5645583
0.991359375 -0.357848 -0.5181148
0.9925078125 -0.5403814 -0.4090353
0.99365625 -0.696223 -0.2352685
0.9948046875 -0.8047265 0.000500655
0.995953125 -0.8419538 0.291298
0.9971015625 -0.7806297 0.6245763
0.99825 -0.5873109 0.9767311
0.9993984375 -0.2202456 1.306821
1.000546875 0.3748189 1.529111
1.0016953125 1.225495 1.458598
1.00284375 2.176068 0.7520307
