# GHZ S RI R 50.0
0.3 0.05374644 1.685859
0.3011484375 0.5353431 1.40917
0.302296875 0.8585881 1.047936
0.3034453125 1.032245 0.6590546
0.30459375 1.078085 0.2848912
0.3057421875 1.022737 -0.04511593
0.306890625 0.8932867 -0.3163511
0.3080390625 0.7143279 -0.5249414
0.3091875 0.50403 -0.6688889
0.3103359375 0.2796855 -0.7486595
0.311484375 0.05266034 -0.7689818
0.3126328125 -0.1659931 -0.7328018
0.31378125 -0.364595 -0.6439537
0.3149296875 -0.53478 -0.5059333
0.316078125 -0.6642746 -0.3258952
0.3172265625 -0.7419931 -0.1100068
0.318375 -0.7568669 0.1290752
0.3195234375 -0.6970273 0.374792
0.320671875 -0.55537 0.6037766
0.3218203125 -0.335154 0.7866593
0.32296875 -0.04796682 0.8927621
0.3241171875 0.2787135 0.894996
0.325265625 0.6063497 0.7777449
0.3264140625 0.8902918 0.5411339
0.3275625 1.089196 0.2002701
0.3287109375 1.169672 -0.2123338
0.329859375 1.110526 -0.6684213
0.3310078125 0.8931198 -1.132902
0.33215625 0.4919646 -1.579881
0.3333046875 -0.1469356 -1.971084
0.334453125 -1.150037 -2.223547
0.3356015625 -2.790647 -2.030717
0.33675 -5.296932 0.07700823
0.3378984375 -3.334953 6.376555
0.339046875 2.855862 4.366088
0.3401953125 3.183213 1.202045
0.34134375 2.46249 -0.2300854
0.3424921875 1.7308 -0.9066032
0.343640625 1.086866 -1.22191
0.3447890625 0.5259161 -1.324134
0.3459375 0.04571171 -1.2767
0.3470859375 -0.3513558 -1.116251
0.348234375 -0.6550987 -0.8681552
0.3493828125 -0.8525636 -0.5625474
0.35053125 -0.9372981 -0.2310458
0.3516796875 -0.9119674 0.09097171
0.352828125 -0.7888765 0.3699778
0.3539765625 -0.5925446 0.5792898
0.355125 -0.3544588 0.704559
0.3562734375 -0.1065143 0.7447127
0.357421875 0.1259991 0.7086911
0.3585703125 0.323506 0.6104687
0.35971875 0.4747124 0.4681245
0.3608671875 0.5736232 0.2991636
0.362015625 0.6207558 0.1171438
0.3631640625 0.6179222 -0.06298435
0.3643125 0.5698866 -0.2318997
0.3654609375 0.4811207 -0.3815913
0.366609375 0.3581827 -0.5027795
0.3677578125 0.2067462 -0.5904423
0.36890625 0.03430745 -0.6376906
0.3700546875 -0.1506406 -0.638671
0.371203125 -0.3369258 -0.5886769
0.3723515625 -0.5118945 -0.484996
0.3735 -0.6586721 -0.3284818
0.3746484375 -0.760576 -0.1236993
0.375796875 -0.7997864 0.116591
0.3769453125 -0.7619014 0.3742474
0.37809375 -0.6389962 0.6203732
0.3792421875 -0.4340666 0.8261619
0.380390625 -0.1614077 0.9633192
0.3815390625 0.1529233 1.009599
0.3826875 0.4788007 0.9542618
0.3838359375 0.7840238 0.797565
0.384984375 1.040263 0.5489907
0.3861328125 1.22449 0.2238987
0.38728125 1.318467 -0.1605994
0.3884296875 1.308176 -0.5862657
0.389578125 1.178239 -1.036452
0.3907265625 0.9090564 -1.492257
0.391875 0.4711149 -1.931149
0.3930234375 -0.1834263 -2.314933
0.394171875 -1.134534 -2.564843
0.3953203125 -2.507385 -2.491159
0.39646875 -4.426378 -1.570781
0.3976171875 -6.295465 1.552075
0.398765625 -3.964302 7.077896
0.3999140625 2.62237 6.792837
0.4010625 4.666833 2.815009
0.4022109375 4.130901 0.2109997
0.403359375 3.082205 -1.162153
0.4045078125 2.025502 -1.828968
0.40565625 1.078459 -2.06031
0.4068046875 0.2822052 -2.00264
0.407953125 -0.3445651 -1.749138
0.4091015625 -0.7917408 -1.375894
0.41025 -1.064147 -0.9472834
0.4113984375 -1.178586 -0.5155976
0.412546875 -1.162665 -0.1209372
0.4136953125 -1.047748 0.2114447
0.41484375 -0.8647977 0.4677843
0.4159921875 -0.6423221 0.644613
0.417140625 -0.404156 0.746069
0.4182890625 -0.1686787 0.7787428
0.4194375 0.05084176 0.7515682
0.4205859375 0.2429909 0.6752001
0.421734375 0.4014723 0.5588267
0.4228828125 0.5206972 0.412758
0.42403125 0.5967499 0.2471608
0.4251796875 0.6276021 0.07114162
0.426328125 0.6117342 -0.1045713
0.4274765625 0.550545 -0.2689659
0.428625 0.4467665 -0.4110413
0.4297734375 0.3079821 -0.5186492
0.430921875 0.1424335 -0.5828908
0.4320703125 -0.0357997 -0.5957682
0.43321875 -0.2107431 -0.5550871
0.4343671875 -0.364822 -0.4629263
0.435515625 -0.4830319 -0.3286279
0.4366640625 -0.5534306 -0.1662289
0.4378125 -0.5702541 0.007176454
0.4389609375 -0.5345746 0.1742048
0.440109375 -0.4524406 0.3193643
0.4412578125 -0.3347681 0.4313781
0.44240625 -0.1937197 0.5032614
0.4435546875 -0.04153501 0.5317788
0.444703125 0.1099148 0.5182123
0.4458515625 0.2497168 0.4650868
0.447 0.3701051 0.377699
0.4481484375 0.4633118 0.2617459
0.449296875 0.5238259 0.1244295
0.4504453125 0.5469064 -0.02645391
0.45159375 0.5293799 -0.182208
0.4527421875 0.4696769 -0.3328108
0.453890625 0.3673061 -0.4674412
0.4550390625 0.2261884 -0.5737226
0.4561875 0.05186868 -0.6401142
0.4573359375 -0.1452361 -0.6551207
0.458484375 -0.3498619 -0.6091945
0.4596328125 -0.543135 -0.4983981
0.46078125 -0.7030517 -0.323922
0.4619296875 -0.8083243 -0.09620199
0.463078125 -0.8402665 0.1685652
0.4642265625 -0.7867467 0.444012
0.465375 -0.6434053 0.705147
0.4665234375 -0.4148158 0.9234614
0.467671875 -0.1133234 1.073295
0.4688203125 0.244092 1.13388
0.46996875 0.6364051 1.086476
0.4711171875 1.040937 0.9140754
0.472265625 1.4307 0.5966353
0.4734140625 1.769443 0.1073468
0.4745625 1.99632 -0.5988684
0.4757109375 1.986392 -1.577061
0.476859375 1.441155 -2.876106
0.4780078125 -0.3109419 -4.207536
0.47915625 -3.771352 -3.732261
0.4803046875 -5.296979 0.3263875
0.481453125 -3.001439 2.978333
0.4826015625 -0.7767995 3.133477
0.48375 0.5127957 2.493999
0.4848984375 1.174927 1.725943
0.486046875 1.454229 1.004995
0.4871953125 1.485194 0.3809368
0.48834375 1.349115 -0.1271225
0.4894921875 1.101889 -0.5116957
0.490640625 0.7902168 -0.7664025
0.4917890625 0.453479 -0.8981864
0.4929375 0.1267133 -0.9172911
0.4940859375 -0.1620322 -0.8426471
0.495234375 -0.3942129 -0.6956858
0.4963828125 -0.5562295 -0.5019171
0.49753125 -0.6465727 -0.2855878
0.4986796875 -0.667343 -0.0667212
0.499828125 -0.6257913 0.1360165
0.5009765625 -0.5323712 0.3095227
0.502125 -0.3990657 0.4428629
0.5032734375 -0.2385365 0.5304062
0.504421875 -0.06463099 0.5672711
0.5055703125 0.1108373 0.5538535
0.50671875 0.2742984 0.4914103
0.5078671875 0.4137137 0.384165
0.509015625 0.517854 0.2392691
0.5101640625 0.5759521 0.06655783
0.5113125 0.5803403 -0.121034
0.5124609375 0.5263736 -0.3079182
0.513609375 0.4129935 -0.4758511
0.5147578125 0.2461057 -0.606281
0.51590625 0.03669762 -0.6815363
0.5170546875 -0.1977657 -0.6876449
0.518203125 -0.4347679 -0.6150556
0.5193515625 -0.6491046 -0.4630045
0.5205 -0.8153217 -0.2368253
0.5216484375 -0.9100547 0.04887143
0.522796875 -0.9134587 0.3762684
0.5239453125 -0.8085194 0.7215955
0.52509375 -0.5803315 1.057699
0.5262421875 -0.2144622 1.353075
0.527390625 0.3110489 1.56238
0.5285390625 1.027908 1.615333
0.5296875 1.976637 1.360148
0.5308359375 3.138878 0.4335017
0.531984375 3.909436 -1.960953
0.5331328125 1.436943 -5.333962
0.53428125 -3.00543 -3.934131
0.5354296875 -3.551336 -0.8515816
0.536578125 -2.644869 0.7278877
0.5377265625 -1.679908 1.378565
0.538875 -0.874307 1.575667
0.5400234375 -0.2319064 1.526735
0.541171875 0.2578446 1.332186
0.5423203125 0.610876 1.051209
0.54346875 0.834388 0.724129
0.5446171875 0.9399634 0.384905
0.545765625 0.9400407 0.06186078
0.5469140625 0.8519045 -0.2214199
0.5480625 0.6956404 -0.4472906
0.5492109375 0.4944545 -0.6051212
0.550359375 0.2710257 -0.6905384
0.5515078125 0.04672992 -0.7061549
0.55265625 -0.1610423 -0.658654
0.5538046875 -0.3366464 -0.5596182
0.554953125 -0.4711972 -0.4213052
0.5561015625 -0.5582043 -0.2573014
0.55725 -0.595205 -0.08155105
0.5583984375 -0.5826586 0.09317673
0.559546875 -0.524089 0.2546137
0.5606953125 -0.4246742 0.3922109
0.56184375 -0.2918321 0.4965337
0.5629921875 -0.1350839 0.5601601
0.564140625 0.03411791 0.5777428
0.5652890625 0.2034181 0.5468271
0.5664375 0.3591362 0.4677822
0.5675859375 0.4879224 0.345425
0.568734375 0.5770461 0.1873793
0.5698828125 0.6166713 0.006535829
0.57103125 0.6005847 -0.181794
0.5721796875 0.5276886 -0.3603679
0.573328125 0.4025145 -0.5118098
0.5744765625 0.2342296 -0.621168
0.575625 0.03872777 -0.6766915
0.5767734375 -0.1683958 -0.6719104
0.577921875 -0.3691518 -0.6062806
0.5790703125 -0.5466807 -0.4824144
0.58021875 -0.6845124 -0.3106477
0.5813671875 -0.7721946 -0.1004166
0.582515625 -0.7992486 0.134181
0.5836640625 -0.7599679 0.3778615
0.5848125 -0.6511254 0.6140585
0.5859609375 -0.471654 0.8257528
0.587109375 -0.2240919 0.9941865
0.5882578125 0.08628171 1.098885
0.58940625 0.4496074 1.11825
0.5905546875 0.850152 1.027351
0.591703125 1.264747 0.7978316
0.5928515625 1.656766 0.3984374
0.594 1.96634 -0.2079219
0.5951484375 2.094068 -1.059078
0.596296875 1.85395 -2.175796
0.5974453125 0.8933688 -3.461684
0.59859375 -1.318762 -4.318662
0.5997421875 -4.465255 -2.989651
0.600890625 -5.265014 0.924778
0.6020390625 -2.929775 3.361872
0.6031875 -0.6010496 3.465476
0.6043359375 0.7751229 2.696464
0.605484375 1.439182 1.791283
0.6066328125 1.663202 0.9780935
0.60778125 1.626658 0.3126249
0.6089296875 1.434452 -0.1991622
0.610078125 1.154269 -0.5653696
0.6112265625 0.8334634 -0.8010669
0.612375 0.5047867 -0.9227507
0.6135234375 0.1913241 -0.9475296
0.614671875 -0.08766264 -0.8920612
0.6158203125 -0.3218961 -0.7742326
0.61696875 -0.502222 -0.6097534
0.6181171875 -0.6236475 -0.4149021
0.619265625 -0.6837544 -0.2055936
0.6204140625 -0.6843609 0.0023359
0.6215625 -0.6293488 0.1946519
0.6227109375 -0.5256618 0.3585725
0.623859375 -0.3845706 0.4815399
0.6250078125 -0.2181517 0.5569752
0.62615625 -0.0422068 0.5800397
0.6273046875 0.128474 0.5513049
0.628453125 0.2793348 0.475614
0.6296015625 0.3980451 0.3617162
0.63075 0.4753028 0.2216704
0.6318984375 0.5073823 0.0692921
0.633046875 0.4938562 -0.08140852
0.6341953125 0.4387252 -0.2181629
0.63534375 0.3490287 -0.3301902
0.6364921875 0.2339652 -0.4100062
0.637640625 0.1040348 -0.4533609
0.6387890625 -0.03057531 -0.4585932
0.6399375 -0.1594869 -0.4269804
0.6410859375 -0.2736064 -0.3615897
0.642234375 -0.3650176 -0.2677543
0.6433828125 -0.427498 -0.1522751
0.64453125 -0.4559309 -0.02317707
0.6456796875 -0.4477679 0.1100365
0.646828125 -0.4020934 0.2379228
0.6479765625 -0.3207658 0.3502562
0.649125 -0.2083153 0.4372543
0.6502734375 -0.07150918 0.490274
0.651421875 0.07864079 0.5021812
0.6525703125 0.2315071 0.4688666
0.65371875 0.372916 0.3894612
0.6548671875 0.4888464 0.2672101
0.656015625 0.5664281 0.1097935
0.6571640625 0.5951172 -0.07075527
0.6583125 0.5675313 -0.259987
0.6594609375 0.4814671 -0.4410675
0.660609375 0.3383743 -0.5963128
0.6617578125 0.1452898 -0.7091434
0.66290625 -0.08717681 -0.7644211
0.6640546875 -0.3443225 -0.7489327
0.665203125 -0.6083307 -0.6510062
0.6663515625 -0.8582829 -0.4618476
0.6675 -1.066703 -0.1760586
0.6686484375 -1.199465 0.2135312
0.669796875 -1.209096 0.7083418
0.6709453125 -1.018768 1.299068
0.67209375 -0.5033204 1.938002
0.6732421875 0.5392255 2.439004
0.674390625 2.234153 2.204604
0.6755390625 3.657578 0.2450281
0.6766875 2.702915 -2.295075
0.6778359375 0.5622447 -2.873272
0.678984375 -0.7997702 -2.17923
0.6801328125 -1.358855 -1.286965
0.68128125 -1.459127 -0.5264471
0.6824296875 -1.316641 0.05003759
0.683578125 -1.051023 0.4498949
0.6847265625 -0.7320194 0.6951837
0.685875 -0.404114 0.808258
0.6870234375 -0.1009368 0.8123271
0.688171875 0.1578756 0.7322946
0.6893203125 0.3579556 0.5917866
0.69046875 0.4940878 0.4136449
0.6916171875 0.5633925 0.2197816
0.692765625 0.5709869 0.02796461
0.6939140625 0.524386 -0.14666
0.6950625 0.4332898 -0.2916701
0.6962109375 0.3090752 -0.3985118
0.697359375 0.1640129 -0.4618616
0.6985078125 0.01194298 -0.4793864
0.69965625 -0.1358966 -0.4519968
0.7008046875 -0.26737 -0.3832546
0.701953125 -0.3720364 -0.2792481
0.7031015625 -0.4412125 -0.1489745
0.70425 -0.4682864 -0.003117023
0.7053984375 -0.450162 0.145879
0.706546875 -0.3868766 0.2843378
0.7076953125 -0.2823077 0.3995132
0.70884375 -0.1448068 0.4785889
0.7099921875 0.01475213 0.5129336
0.711140625 0.1817615 0.4962579
0.7122890625 0.3406735 0.4271206
0.7134375 0.4756438 0.3086612
0.7145859375 0.5720903 0.148757
0.715734375 0.6181749 -0.04112091
0.7168828125 0.6040975 -0.2465687
0.71803125 0.5262116 -0.4492283
0.7191796875 0.3827669 -0.6322761
0.720328125 0.1768785 -0.7761043
0.7214765625 -0.0853061 -0.8616425
0.722625 -0.3902326 -0.8688586
0.7237734375 -0.7243595 -0.7764879
0.724921875 -1.063705 -0.5607728
0.7260703125 -1.374115 -0.1937186
0.72721875 -1.59913 0.3591129
0.7283671875 -1.632941 1.136974
0.729515625 -1.261501 2.150174
0.7306640625 -0.06075901 3.206919
0.7318125 2.372705 3.289461
0.7329609375 4.38533 0.7420287
0.734109375 3.271599 -2.162529
0.7352578125 1.162954 -2.894859
0.73640625 -0.263086 -2.470025
0.7375546875 -1.021439 -1.758615
0.738703125 -1.351005 -1.054219
0.7398515625 -1.41083 -0.4423913
0.741 -1.299644 0.05179321
0.7421484375 -1.082524 0.4226751
0.743296875 -0.8059524 0.6754547
0.7444453125 -0.5064334 0.8177634
0.74559375 -0.2120016 0.8624098
0.7467421875 0.05649042 0.8244624
0.747890625 0.2836074 0.7214396
0.7490390625 0.4413867 0.5479503
0.7501875 0.5552156 0.373057
0.7513359375 0.6128171 0.1845876
0.752484375 0.6157474 -0.003128061
0.7536328125 0.5687873 -0.1771004
0.75478125 0.4784556 -0.3259519
0.7559296875 0.3540387 -0.4405975
0.757078125 0.2057653 -0.5144062
0.7582265625 0.04563482 -0.5433285
0.759375 -0.1139283 -0.5260109
0.7605234375 -0.2606881 -0.4647169
0.761671875 -0.3830501 -0.3648457
0.7628203125 -0.4713976 -0.2346667
0.76396875 -0.5178072 -0.08465236
0.7651171875 -0.5188951 0.07197192
0.766265625 -0.4743149 0.2223213
0.7674140625 -0.3883138 0.3531306
0.7685625 -0.267683 0.4532654
0.7697109375 -0.1228012 0.5144001
0.770859375 0.03391014 0.531152
0.7720078125 0.1895934 0.5026687
0.77315625 0.3320362 0.4303573
0.7743046875 0.4492519 0.3195657
0.775453125 0.5322239 0.1784713
0.7766015625 0.5730661 0.01705142
0.77775 0.5678777 -0.1536764
0.7788984375 0.5141093 -0.3208636
0.780046875 0.4131045 -0.4722154
0.7811953125 0.268366 -0.5950078
0.78234375 0.08680566 -0.6771058
0.7834921875 -0.1216624 -0.7074408
0.784640625 -0.3438776 -0.6765429
0.7857890625 -0.563612 -0.5781062
0.7869375 -0.7621906 -0.4087921
0.7880859375 -0.9171758 -0.1700235
0.789234375 -1.005451 0.1319216
0.7903828125 -1.001898 0.4830737
0.79153125 -0.8807507 0.8617014
0.7926796875 -0.6173807 1.236402
0.793828125 -0.1849529 1.562169
0.7949765625 0.4399662 1.769433
0.796125 1.275072 1.744426
0.7972734375 2.288406 1.278848
0.798421875 3.235086 0.0247585
0.7995703125 3.212336 -2.216593
0.80071875 1.023003 -4.056123
0.8018671875 -1.667478 -3.351423
0.803015625 -2.626714 -1.492852
0.8041640625 -2.405378 -0.0780854
0.8053125 -1.815658 0.7329479
0.8064609375 -1.185549 1.125888
0.807609375 -0.6210613 1.25202
0.8087578125 -0.1517694 1.20926
0.80990625 0.214676 1.059077
0.8110546875 0.4814524 0.8440843
0.812203125 0.6540669 0.5958
0.8133515625 0.7397645 0.3372732
0.8145 0.7479962 0.08907802
0.8156484375 0.6907073 -0.1326476
0.816796875 0.5801938 -0.3147384
0.8179453125 0.4320986 -0.4487359
0.81909375 0.2617523 -0.5290794
0.8202421875 0.08519916 -0.5547907
0.821390625 -0.08226547 -0.5291379
0.8225390625 -0.2277703 -0.4588687
0.8236875 -0.3406233 -0.3539549
0.8248359375 -0.4142159 -0.2263099
0.825984375 -0.4460199 -0.08863654
0.8271328125 -0.4366949 0.04669599
0.82828125 -0.3905066 0.1687368
0.8294296875 -0.3137752 0.2689669
0.830578125 -0.2146208 0.3404617
0.8317265625 -0.1026808 0.3800759
0.832875 0.01329114 0.3858991
0.8340234375 0.1239667 0.3592845
0.835171875 0.221333 0.3035494
0.8363203125 0.2984586 0.2233847
0.83746875 0.3496127 0.1251439
0.8386171875 0.3708008 0.01616919
0.839765625 0.360146 -0.09487341
0.8409140625 0.3179966 -0.1994067
0.8420625 0.2462775 -0.2884707
0.8432109375 0.1497712 -0.3542062
0.844359375 0.03581325 -0.3896203
0.8455078125 -0.08653332 -0.3895471
0.84665625 -0.2067862 -0.3520236
0.8478046875 -0.3132868 -0.2781102
0.848953125 -0.3955224 -0.1720158
0.8501015625 -0.4433936 -0.04136341
0.85125 -0.4497982 0.1032594
0.8523984375 -0.4106683 0.2493377
0.853546875 -0.3254205 0.3830994
0.8546953125 -0.1967893 0.4908459
0.85584375 -0.03187687 0.5597389
0.8569921875 0.1598725 0.5769577
0.858140625 0.3653165 0.533248
0.8592890625 0.5684863 0.4186015
0.8604375 0.7486083 0.2249559
0.8615859375 0.8797638 -0.053834
0.862734375 0.9209535 -0.4238247
0.8638828125 0.8090089 -0.8793059
0.86503125 0.4357091 -1.377177
0.8661796875 -0.3551778 -1.741663
0.867328125 -1.564039 -1.472054
0.8684765625 -2.329048 -0.08569099
0.869625 -1.656945 1.344445
0.8707734375 -0.4764957 1.692845
0.871921875 0.333974 1.382356
0.8730703125 0.7383428 0.909367
0.87421875 0.8740703 0.4601422
0.8753671875 0.8474008 0.08870134
0.876515625 0.7232294 -0.192387
0.8776640625 0.545997 -0.3843609
0.8788125 0.3462649 -0.494164
0.8799609375 0.1476657 -0.5310289
0.881109375 -0.03251255 -0.5068419
0.8822578125 -0.1817793 -0.4358145
0.88340625 -0.2923871 -0.3313893
0.8845546875 -0.3606951 -0.2082897
0.885703125 -0.3872426 -0.07919552
0.8868515625 -0.3744915 0.04409375
0.888 -0.3286056 0.1523672
0.8891484375 -0.2560523 0.2380269
0.890296875 -0.1651898 0.2962576
0.8914453125 -0.06472902 0.3247723
0.89259375 0.03714119 0.3226522
0.8937421875 0.1322232 0.2917143
0.894890625 0.212952 0.2352961
0.8960390625 0.2732787 0.1580907
0.8971875 0.3081769 0.06695768
0.8983359375 0.3146744 -0.03075972
0.899484375 0.291981 -0.1266903
0.9006328125 0.2411225 -0.2122187
0.90178125 0.1658623 -0.2796183
0.9029296875 0.07260074 -0.3217645
0.904078125 -0.03086729 -0.3340832
0.9052265625 -0.1354017 -0.3138209
0.906375 -0.2306284 -0.2621137
0.9075234375 -0.3073497 -0.1820983
0.908671875 -0.357729 -0.08027694
0.9098203125 -0.3752377 0.03477843
0.91096875 -0.3572612 0.153537
0.9121171875 -0.3032109 0.2646563
0.913265625 -0.2152844 0.3582205
0.9144140625 -0.09911764 0.4246882
0.9155625 0.03742594 0.4555553
0.9167109375 0.1849844 0.4448635
0.917859375 0.3319026 0.388625
0.9190078125 0.4652415 0.2851851
0.92015625 0.5711502 0.1353733
0.9213046875 0.6340439 -0.05550716
0.922453125 0.6383359 -0.2795971
0.9236015625 0.566664 -0.5220596
0.92475 0.4023903 -0.761551
0.9258984375 0.1290753 -0.9669104
0.927046875 -0.2635309 -1.088355
0.9281953125 -0.7700092 -1.050691
0.92934375 -1.339293 -0.7459891
0.9304921875 -1.806939 -0.04894443
0.931640625 -1.808382 1.034666
0.9327890625 -0.9688816 2.030113
0.9339375 0.3861639 2.165916
0.9350859375 1.354582 1.438433
0.936234375 1.622479 0.5077016
0.9373828125 1.434344 -0.2170729
0.93853125 1.056461 -0.6633028
0.9396796875 0.639701 -0.8779953
0.940828125 0.2556378 -0.9239415
0.9419765625 -0.06431739 -0.8546089
0.943125 -0.3082204 -0.7114298
0.9442734375 -0.4747588 -0.5256436
0.945421875 -0.5676917 -0.3229787
0.9465703125 -0.5948827 -0.1221467
0.94771875 -0.565909 0.06161279
0.9488671875 -0.4911535 0.2173056
0.950015625 -0.3823301 0.3373234
0.9511640625 -0.2515509 0.416633
0.9523125 -0.1106702 0.4538597
0.9534609375 0.02897401 0.4494027
0.954609375 0.1566888 0.40693
0.9557578125 0.2633558 0.331744
0.95690625 0.3415276 0.2318065
0.9580546875 0.3861167 0.1162321
0.959203125 0.3947248 -0.004534737
0.9603515625 0.3682371 -0.1201265
0.9615 0.310079 -0.2210213
0.9626484375 0.2264141 -0.2989025
0.963796875 0.1252929 -0.348097
0.9649453125 0.01594633 -0.3650939
0.96609375 -0.09228683 -0.3496904
0.9672421875 -0.1900586 -0.3040627
0.968390625 -0.2695041 -0.2330237
0.9695390625 -0.3246745 -0.1428817
0.9706875 -0.3519177 -0.04152943
0.9718359375 -0.3491798 0.06319275
0.972984375 -0.3169933 0.163088
0.9741328125 -0.2576589 0.2501314
0.97528125 -0.1756846 0.3179814
0.9764296875 -0.07653606 0.36072
0.977578125 0.03252587 0.3742986
0.9787265625 0.1436921 0.3561528
0.979875 0.2480356 0.3062091
0.9810234375 0.3369669 0.2261071
0.982171875 0.4019385 0.1205271
0.9833203125 0.4351614 -0.004588454
0.98446875 0.4310049 -0.1400363
0.9856171875 0.3857745 -0.2748918
0.986765625 0.2985283 -0.3970661
0.9879140625 0.1724108 -0.4943217
0.9890625 0.01363048 -0.5538834
0.9902109375 -0.1680365 -0.564568
0.991359375 -0.3579989 -0.5181609
0.9925078125 -0.5405508 -0.4087788
0.99365625 -0.6963478 -0.2350494
0.9948046875 -0.804919 0.0009020437
0.995953125 -0.8421226 0.2917128
0.9971015625 -0.7803856 0.6248515
0.99825 -0.5868234 0.977692
0.9993984375 -0.219094 1.307953
1.000546875 0.3760932 1.530013
1.0016953125 1.227909 1.457488
1.00284375 2.179334 0.7488679
1.0039921875 2.505243 -0.8005638
