# GHZ S RI R 50.0
0.3 -4.460735 -7.157064
0.3011484375 -9.487513 -1.992031
0.302296875 -6.890413 4.916206
0.3034453125 -1.916449 6.034148
0.30459375 0.8582908 4.654538
0.3057421875 2.028251 3.063897
0.306890625 2.395279 1.749125
0.3080390625 2.35907 0.7417218
0.3091875 2.117085 -0.003891825
0.3103359375 1.773893 -0.5446754
0.311484375 1.383065 -0.9155293
0.3126328125 0.9753074 -1.150257
0.31378125 0.5711395 -1.27024
0.3149296875 0.1837335 -1.290471
0.316078125 -0.1724435 -1.222365
0.3172265625 -0.487597 -1.075025
0.318375 -0.7462034 -0.8601118
0.3195234375 -0.9352932 -0.5881014
0.320671875 -1.039722 -0.2774667
0.3218203125 -1.048583 0.0474295
0.32296875 -0.9591849 0.3566958
0.3241171875 -0.7795665 0.6180481
0.325265625 -0.5319397 0.8037189
0.3264140625 -0.2476158 0.8958994
0.3275625 0.03828795 0.8923103
0.3287109375 0.2941158 0.8038508
0.329859375 0.4978069 0.6512609
0.3310078125 0.6382692 0.4576644
0.33215625 0.7130619 0.2459065
0.3333046875 0.7263066 0.03458609
0.334453125 0.6855205 -0.1622975
0.3356015625 0.599695 -0.3341106
0.33675 0.4784912 -0.4738124
0.3378984375 0.3298053 -0.5779642
0.339046875 0.1621344 -0.64179
0.3401953125 -0.01669196 -0.6631866
0.34134375 -0.1972272 -0.639687
0.3424921875 -0.3703507 -0.5700668
0.343640625 -0.5252321 -0.4544395
0.3447890625 -0.6491513 -0.2952595
0.3459375 -0.7285653 -0.09826142
0.3470859375 -0.7492825 0.1236705
0.348234375 -0.7009013 0.3547427
0.3493828125 -0.5773817 0.5702118
0.35053125 -0.3848445 0.7439622
0.3516796875 -0.1359094 0.8511159
0.352828125 0.1423432 0.8729083
0.3539765625 0.4196475 0.8020206
0.355125 0.663141 0.6441762
0.3562734375 0.8478959 0.4167721
0.357421875 0.9582394 0.1400147
0.3585703125 0.9842185 -0.1625281
0.35971875 0.922237 -0.4675915
0.3608671875 0.7744175 -0.7553899
0.362015625 0.5430092 -1.006744
0.3631640625 0.2312022 -1.203304
0.3643125 -0.1583967 -1.323652
0.3654609375 -0.6235219 -1.338225
0.366609375 -1.154704 -1.204945
0.3677578125 -1.731862 -0.8577728
0.36890625 -2.291449 -0.190549
0.3700546875 -2.647389 0.9465599
0.371203125 -2.315357 2.62564
0.3723515625 -0.4227805 4.206094
0.3735 2.638892 3.663933
0.3746484375 3.933622 0.9666859
0.375796875 3.110696 -1.157468
0.3769453125 1.757574 -2.034677
0.37809375 0.5850415 -2.134524
0.3792421875 -0.2619407 -1.838528
0.380390625 -0.8004208 -1.368094
0.3815390625 -1.076477 -0.849647
0.3826875 -1.142909 -0.3620966
0.3838359375 -1.057258 0.0492618
0.384984375 -0.8726197 0.3575138
0.3861328125 -0.6340224 0.5624934
0.38728125 -0.3786345 0.669191
0.3884296875 -0.1327 0.6915146
0.389578125 0.08615462 0.6455281
0.3907265625 0.2646396 0.5478119
0.391875 0.3987017 0.4131266
0.3930234375 0.4835187 0.2567128
0.394171875 0.5198646 0.09026086
0.3953203125 0.5081171 -0.0745647
0.39646875 0.4515789 -0.2271374
0.3976171875 0.3535743 -0.3568181
0.398765625 0.2209362 -0.4528354
0.3999140625 0.06173852 -0.5057596
0.4010625 -0.1112699 -0.5072609
0.4022109375 -0.2823576 -0.4518935
0.403359375 -0.4328797 -0.339249
0.4045078125 -0.5429589 -0.1749364
0.40565625 -0.5931085 0.02684071
0.4068046875 -0.569684 0.2445165
0.407953125 -0.4669741 0.450617
0.4091015625 -0.2918587 0.6165334
0.41025 -0.05805619 0.7171865
0.4113984375 0.2100643 0.7344984
0.412546875 0.486089 0.6572211
0.4136953125 0.741037 0.4817413
0.41484375 0.9448709 0.2095938
0.4159921875 1.065823 -0.1551686
0.417140625 1.064002 -0.6010659
0.4182890625 0.8799734 -1.110883
0.4194375 0.4277278 -1.631068
0.4205859375 -0.4175585 -2.005081
0.421734375 -1.691272 -1.84788
0.4228828125 -2.857538 -0.5641043
0.42403125 -2.632046 1.434942
0.4251796875 -1.105322 2.456995
0.426328125 0.295548 2.258711
0.4274765625 1.088426 1.581827
0.428625 1.406742 0.8582675
0.4297734375 1.426247 0.2275406
0.430921875 1.259628 -0.2712631
0.4320703125 0.9818425 -0.6313258
0.43321875 0.6457449 -0.8513818
0.4343671875 0.294862 -0.941889
0.435515625 -0.03302841 -0.9161012
0.4366640625 -0.3104676 -0.7969905
0.4378125 -0.5169963 -0.6117351
0.4389609375 -0.643972 -0.3889838
0.440109375 -0.6910253 -0.1582413
0.4412578125 -0.668043 0.05928609
0.44240625 -0.5873922 0.246811
0.4435546875 -0.4649753 0.3916033
0.444703125 -0.3155596 0.4902727
0.4458515625 -0.1538183 0.54093
0.447 0.007993604 0.5455707
0.4481484375 0.1595013 0.5078438
0.449296875 0.2920267 0.4333691
0.4504453125 0.3977537 0.3285426
0.45159375 0.4713368 0.2005496
0.4527421875 0.5076833 0.05790807
0.453890625 0.5043341 -0.09026217
0.4550390625 0.4594486 -0.233938
0.4561875 0.3751235 -0.3610499
0.4573359375 0.254732 -0.4609546
0.458484375 0.1079832 -0.5223595
0.4596328125 -0.05465943 -0.5380248
0.46078125 -0.2177581 -0.5025353
0.4619296875 -0.364297 -0.4172707
0.463078125 -0.4791569 -0.2893929
0.4642265625 -0.5489901 -0.1310558
0.465375 -0.566726 0.04182026
0.4665234375 -0.5308692 0.2118392
0.467671875 -0.4462697 0.3628487
0.4688203125 -0.3212996 0.4814893
0.46996875 -0.1681189 0.5590765
0.4711171875 0.0009952836 0.5903956
0.472265625 0.1726242 0.5741599
0.4734140625 0.335402 0.5110619
0.4745625 0.4778785 0.4049658
0.4757109375 0.5899615 0.2621869
0.476859375 0.6636344 0.08825311
0.4780078125 0.6902018 -0.106388
0.47915625 0.6633799 -0.3125643
0.4803046875 0.57771 -0.5165564
0.481453125 0.4300305 -0.703081
0.4826015625 0.2213741 -0.8547944
0.48375 -0.04416583 -0.9501916
0.4848984375 -0.354847 -0.9687293
0.486046875 -0.6917386 -0.8888562
0.4871953125 -1.026077 -0.6930037
0.48834375 -1.320582 -0.3672823
0.4894921875 -1.528185 0.08941393
0.490640625 -1.5936 0.6681415
0.4917890625 -1.4481 1.342936
0.4929375 -1.01025 2.058889
0.4940859375 -0.1714866 2.710401
0.495234375 1.191077 3.061646
0.4963828125 3.083115 2.577668
0.49753125 4.771481 0.4343022
0.4986796875 4.167593 -2.913086
0.499828125 1.247801 -4.403325
0.5009765625 -1.114054 -3.578049
0.502125 -2.124377 -2.154592
0.5032734375 -2.311666 -0.9271795
0.504421875 -2.101732 -0.02273972
0.5055703125 -1.713721 0.5983067
0.50671875 -1.257677 0.9898647
0.5078671875 -0.7892796 1.199404
0.509015625 -0.3432652 1.260062
0.5101640625 0.0562099 1.201104
0.5113125 0.3913307 1.046827
0.5124609375 0.6491576 0.8220806
0.513609375 0.8196687 0.5509588
0.5147578125 0.9000905 0.2583346
0.51590625 0.890424 -0.02803177
0.5170546875 0.8003229 -0.2861584
0.518203125 0.6441315 -0.4951872
0.5193515625 0.4420629 -0.6396446
0.5205 0.216518 -0.7137524
0.5216484375 -0.009658013 -0.7158294
0.522796875 -0.2163156 -0.654003
0.5239453125 -0.3875255 -0.5392952
0.52509375 -0.5122454 -0.3866791
0.5262421875 -0.5852821 -0.2120168
0.527390625 -0.6050296 -0.03071666
0.5285390625 -0.5747043 0.1435939
0.5296875 -0.4992473 0.2983673
0.5308359375 -0.3864942 0.4245667
0.531984375 -0.2450792 0.5136759
0.5331328125 -0.08549948 0.560628
0.53428125 0.08109333 0.5617511
0.5354296875 0.2431937 0.5167116
0.536578125 0.3886867 0.4266379
0.5377265625 0.5053199 0.2969003
0.538875 0.5820034 0.1348496
0.5400234375 0.6093138 -0.04850172
0.541171875 0.5807804 -0.2382079
0.5423203125 0.4933866 -0.4176483
0.54346875 0.3503327 -0.5687265
0.5446171875 0.1600881 -0.6735969
0.545765625 -0.06352607 -0.7172131
0.5469140625 -0.3010736 -0.6887233
0.5480625 -0.5304472 -0.582842
0.5492109375 -0.727535 -0.4014621
0.550359375 -0.8690899 -0.1517586
0.5515078125 -0.9332974 0.1518415
0.55265625 -0.8979334 0.4917297
0.5538046875 -0.7438681 0.8427125
0.554953125 -0.4482091 1.170457
0.5561015625 0.01104518 1.42485
0.55725 0.654874 1.520405
0.5583984375 1.47338 1.303545
0.559546875 2.313514 0.5165302
0.5606953125 2.599113 -1.035158
0.56184375 1.452455 -2.639463
0.5629921875 -0.532463 -2.750816
0.564140625 -1.701471 -1.638641
0.5652890625 -1.881555 -0.4753954
0.5664375 -1.579594 0.3359759
0.5675859375 -1.110195 0.8034452
0.568734375 -0.6219134 1.012079
0.5698828125 -0.1801664 1.03231
0.57103125 0.1817506 0.9203056
0.5721796875 0.448954 0.7222931
0.573328125 0.6153437 0.4767995
0.5744765625 0.6854416 0.2181446
0.575625 0.6692113 -0.0260089
0.5767734375 0.5829596 -0.2333525
0.577921875 0.4454819 -0.3910045
0.5790703125 0.2780966 -0.4898065
0.58021875 0.09879611 -0.5297168
0.5813671875 -0.07399747 -0.5135193
0.582515625 -0.2269441 -0.449183
0.5836640625 -0.3490353 -0.3459766
0.5848125 -0.4326188 -0.2148818
0.5859609375 -0.4730308 -0.06824237
0.587109375 -0.4693434 0.08234024
0.5882578125 -0.4217144 0.2247457
0.58940625 -0.3345217 0.3480949
0.5905546875 -0.2132009 0.4414315
0.591703125 -0.06634553 0.4965709
0.5928515625 0.0942471 0.5059536
0.594 0.2556597 0.4656692
0.5951484375 0.4036964 0.3751771
0.596296875 0.5224735 0.2381641
0.5974453125 0.5974226 0.06311207
0.59859375 0.6157784 -0.1365834
0.5997421875 0.5692838 -0.3436302
0.600890625 0.4543061 -0.5370837
0.6020390625 0.2740885 -0.6955552
0.6031875 0.03844943 -0.7980758
0.6043359375 -0.2375196 -0.8261324
0.605484375 -0.5332077 -0.7634018
0.6066328125 -0.8238794 -0.5996669
0.60778125 -1.07864 -0.3248037
0.6089296875 -1.261707 0.06201809
0.610078125 -1.325199 0.5634912
0.6112265625 -1.199897 1.167631
0.612375 -0.7786291 1.831742
0.6135234375 0.09853493 2.414366
0.614671875 1.5656 2.513232
0.6158203125 3.217017 1.347758
0.61696875 3.490525 -1.063127
0.6181171875 1.889001 -2.691553
0.619265625 0.1295756 -2.743024
0.6204140625 -0.9431112 -2.064967
0.6215625 -1.428956 -1.263165
0.6227109375 -1.542718 -0.5468715
0.623859375 -1.431496 0.03070056
0.6250078125 -1.187226 0.4580103
0.62615625 -0.8722929 0.7432485
0.6273046875 -0.5307808 0.8978214
0.628453125 -0.1979866 0.9364908
0.6296015625 0.09995656 0.8789776
0.63075 0.3428431 0.7469478
0.6318984375 0.5203899 0.5649201
0.633046875 0.6268237 0.3556858
0.6341953125 0.6647273 0.1410088
0.63534375 0.6404372 -0.06088347
0.6364921875 0.5642215 -0.2359163
0.637640625 0.4488856 -0.3737498
0.6387890625 0.3070791 -0.468242
0.6399375 0.1525339 -0.5173284
0.6410859375 -0.002931605 -0.5219646
0.642234375 -0.1485503 -0.4849752
0.6433828125 -0.2744153 -0.4118787
0.64453125 -0.3733734 -0.3096592
0.6456796875 -0.4391595 -0.1862753
0.646828125 -0.468102 -0.05175831
0.6479765625 -0.4586581 0.08460384
0.649125 -0.4117091 0.2120838
0.6502734375 -0.330824 0.3209909
0.651421875 -0.2223995 0.4023457
0.6525703125 -0.09463378 0.4492136
0.65371875 0.04143989 0.4573845
0.6548671875 0.1745473 0.4251895
0.656015625 0.2927529 0.3554821
0.6571640625 0.3855684 0.2537388
0.6583125 0.4446218 0.1288732
0.6594609375 0.4645171 -0.007949407
0.660609375 0.4437955 -0.1447328
0.6617578125 0.3842032 -0.2700671
0.66290625 0.2906564 -0.3734218
0.6640546875 0.1709714 -0.4461229
0.665203125 0.03456863 -0.4824477
0.6663515625 -0.1082042 -0.4788712
0.6675 -0.2468951 -0.4347161
0.6686484375 -0.369518 -0.3527446
0.669796875 -0.4675304 -0.2366503
0.6709453125 -0.5313664 -0.09380984
0.67209375 -0.5542225 0.06694907
0.6732421875 -0.5300354 0.2345194
0.674390625 -0.4562868 0.3956538
0.6755390625 -0.3338514 0.5370215
0.6766875 -0.166739 0.6431139
0.6778359375 0.03604738 0.7005301
0.678984375 0.2615091 0.6957456
0.6801328125 0.4915771 0.6200858
0.68128125 0.7048978 0.4681543
0.6824296875 0.8774322 0.2414921
0.683578125 0.9830706 -0.05193635
0.6847265625 0.9965702 -0.3967254
0.685875 0.8934738 -0.7690292
0.6870234375 0.6511044 -1.135509
0.688171875 0.2501 -1.451386
0.6893203125 -0.3258687 -1.650396
0.69046875 -1.080218 -1.630262
0.6916171875 -1.958018 -1.226341
0.692765625 -2.746315 -0.2068439
0.6939140625 -2.835056 1.511945
0.6950625 -1.470268 3.135013
0.6962109375 0.7054365 3.207969
0.697359375 2.036279 1.961199
0.6985078125 2.2718 0.6127329
0.69965625 1.935535 -0.3432202
0.7008046875 1.404131 -0.9047088
0.701953125 0.8497114 -1.169871
0.7031015625 0.3457841 -1.225373
0.70425 -0.07626051 -1.135376
0.7053984375 -0.4036438 -0.9473969
0.706546875 -0.6291559 -0.7003478
0.7076953125 -0.7570016 -0.4258393
0.70884375 -0.7929423 -0.1506343
0.7099921875 -0.7480389 0.1014916
0.711140625 -0.637176 0.312772
0.7122890625 -0.478379 0.4698521
0.7134375 -0.2913747 0.5659137
0.7145859375 -0.09531236 0.5988577
0.715734375 0.09174734 0.5728952
0.7168828125 0.2549735 0.4955369
0.71803125 0.3815003 0.378848
0.7191796875 0.4650354 0.2347892
0.720328125 0.5007628 0.07842202
0.7214765625 0.4896027 -0.0776001
0.722625 0.4343808 -0.2202939
0.7237734375 0.3413528 -0.3391336
0.724921875 0.2185951 -0.4245761
0.7260703125 0.07665965 -0.4704991
0.72721875 -0.07367907 -0.4724933
0.7283671875 -0.2187344 -0.429916
0.729515625 -0.3474583 -0.344559
0.7306640625 -0.4470315 -0.2217043
0.7318125 -0.5067165 -0.06984159
0.7329609375 -0.518075 0.09886794
0.734109375 -0.4752628 0.2703035
0.7352578125 -0.3767528 0.4275914
0.73640625 -0.2263334 0.5531499
0.7375546875 -0.03243841 0.6302313
0.738703125 0.1902631 0.6435949
0.7398515625 0.4238339 0.5809559
0.741 0.6453905 0.4356636
0.7421484375 0.8283327 0.2045633
0.743296875 0.9404975 -0.1089656
0.7444453125 0.9463676 -0.4958334
0.74559375 0.7976741 -0.936014
0.7467421875 0.4295678 -1.385224
0.747890625 -0.2521423 -1.736035
0.7490390625 -1.265683 -1.653881
0.7501875 -2.422197 -0.7628536
0.7513359375 -2.567779 1.134495
0.752484375 -1.075289 2.385235
0.7536328125 0.437904 2.127902
0.75478125 1.167978 1.325753
0.7559296875 1.347826 0.5712453
0.757078125 1.243811 -0.003993826
0.7582265625 1.004917 -0.4027633
0.759375 0.7082729 -0.6505252
0.7605234375 0.3991196 -0.7718278
0.761671875 0.1068417 -0.7885876
0.7628203125 -0.1487345 -0.7221241
0.76396875 -0.3526786 -0.5927765
0.7651171875 -0.4957345 -0.4211356
0.766265625 -0.5738035 -0.2273601
0.7674140625 -0.5885209 -0.03119844
0.7685625 -0.5451517 0.1502158
0.7697109375 -0.4535311 0.3025999
0.770859375 -0.3262003 0.4152085
0.7720078125 -0.176891 0.4822863
0.77315625 -0.01983342 0.5010999
0.7743046875 0.1313821 0.4742579
0.775453125 0.2650683 0.4059953
0.7766015625 0.3709587 0.3041033
0.77775 0.4423283 0.1777046
0.7788984375 0.4746215 0.03762818
0.780046875 0.4653997 -0.1060634
0.7811953125 0.4157082 -0.2412571
0.78234375 0.3286754 -0.3581876
0.7834921875 0.2103401 -0.4466235
0.784640625 0.06887184 -0.4988692
0.7857890625 -0.08542687 -0.5082486
0.7869375 -0.2405344 -0.4716966
0.7880859375 -0.3827316 -0.3888119
0.789234375 -0.4988943 -0.2638123
0.7903828125 -0.5765342 -0.1034491
0.79153125 -0.6042687 0.0802132
0.7926796875 -0.5748355 0.2726573
0.793828125 -0.4855278 0.4564923
0.7949765625 -0.3383615 0.6140013
0.796125 -0.1397525 0.7269483
0.7972734375 0.09774821 0.7799037
0.798421875 0.3576398 0.7589481
0.7995703125 0.6208046 0.6556159
0.80071875 0.8633385 0.4629858
0.8018671875 1.059 0.1790607
0.803015625 1.176818 -0.1937208
0.8041640625 1.177239 -0.6486152
0.8053125 1.00837 -1.166903
0.8064609375 0.5931269 -1.706613
0.807609375 -0.1754471 -2.157172
0.8087578125 -1.388851 -2.235788
0.80990625 -2.847589 -1.374971
0.8110546875 -3.420079 0.7397664
0.812203125 -2.080431 2.61775
0.8133515625 -0.1759612 2.839077
0.8145 1.013706 2.103059
0.8156484375 1.498631 1.215906
0.816796875 1.559965 0.4584199
0.8179453125 1.392818 -0.1143963
0.81909375 1.109957 -0.512401
0.8202421875 0.7783291 -0.756364
0.821390625 0.4407257 -0.8687341
0.8225390625 0.1286681 -0.8741465
0.8236875 -0.1390391 -0.795622
0.8248359375 -0.3484645 -0.6568965
0.825984375 -0.4938163 -0.4805828
0.8271328125 -0.5740813 -0.2870061
0.82828125 -0.5936295 -0.09502532
0.8294296875 -0.5600177 0.08099321
0.830578125 -0.4833353 0.2299933
0.8317265625 -0.3748607 0.3437348
0.832875 -0.2460586 0.4186106
0.8340234375 -0.1088838 0.452648
0.835171875 0.02616087 0.4474812
0.8363203125 0.1500645 0.4070364
0.83746875 0.2539748 0.3361257
0.8386171875 0.3319627 0.2416986
0.839765625 0.3795205 0.1318304
0.8409140625 0.3940616 0.01517189
0.8420625 0.3751898 -0.09906927
0.8432109375 0.3251889 -0.2021395
0.844359375 0.2486718 -0.2859245
0.8455078125 0.1514616 -0.3434055
0.84665625 0.04232099 -0.3699998
0.8478046875 -0.06924736 -0.3635673
0.848953125 -0.1739322 -0.3246754
0.8501015625 -0.2617103 -0.2568399
0.85125 -0.325694 -0.166365
0.8523984375 -0.3596035 -0.06136131
0.853546875 -0.3613642 0.04885801
0.8546953125 -0.3308485 0.1543524
0.85584375 -0.2708059 0.2464017
0.8569921875 -0.1866067 0.3174775
0.858140625 -0.08487151 0.3612736
0.8592890625 0.02587753 0.3745319
0.8604375 0.1373241 0.3554722
0.8615859375 0.2405165 0.3045655
0.862734375 0.327292 0.225179
0.8638828125 0.3900255 0.1213788
0.86503125 0.4219463 -0.000118902
0.8661796875 0.4181862 -0.1310189
0.867328125 0.3752531 -0.2618712
0.8684765625 0.2919688 -0.38148
0.869625 0.1704829 -0.4782186
0.8707734375 0.01502775 -0.539544
0.871921875 -0.1659419 -0.553497
0.8730703125 -0.3596358 -0.5092642
0.87421875 -0.5500257 -0.3974938
0.8753671875 -0.7145749 -0.2124434
0.876515625 -0.8269982 0.04735123
0.8776640625 -0.8533036 0.3768665
0.8788125 -0.7494633 0.7587983
0.8799609375 -0.4578125 1.154179
0.881109375 0.09194589 1.467909
0.8822578125 0.9397589 1.485737
0.88340625 1.876552 0.8364288
0.8845546875 2.13288 -0.5454802
0.885703125 1.231865 -1.64502
0.8868515625 0.07102486 -1.735739
0.888 -0.6475502 -1.269965
0.8891484375 -0.9355015 -0.7157466
0.890296875 -0.9615985 -0.245214
0.8914453125 -0.8465083 0.108185
0.89259375 -0.6605945 0.3495632
0.8937421875 -0.4469459 0.4930477
0.894890625 -0.2321074 0.5544306
0.8960390625 -0.03350758 0.5483223
0.8971875 0.1356992 0.4889447
0.8983359375 0.2671794 0.3901221
0.899484375 0.3560144 0.265889
0.9006328125 0.3998972 0.1297156
0.90178125 0.400202 -0.005629145
0.9029296875 0.3609726 -0.1282306
0.904078125 0.288876 -0.2281354
0.9052265625 0.1933979 -0.2982259
0.906375 0.08460038 -0.3338267
0.9075234375 -0.0261948 -0.3338693
0.908671875 -0.1284967 -0.3006714
0.9098203125 -0.2133184 -0.2389473
0.91096875 -0.2734915 -0.1558527
0.9121171875 -0.3047421 -0.06041758
0.913265625 -0.3051594 0.03859074
0.9144140625 -0.2761008 0.1321342
0.9155625 -0.2201823 0.2119345
0.9167109375 -0.1433355 0.271051
0.917859375 -0.05175472 0.3048583
0.9190078125 0.04662867 0.3097255
0.92015625 0.1435488 0.2848884
0.9213046875 0.2308196 0.2310966
0.922453125 0.300061 0.1515406
0.9236015625 0.3437536 0.05142254
0.92475 0.3561214 -0.06198091
0.9258984375 0.332658 -0.1791596
0.927046875 0.2713918 -0.2895254
0.9281953125 0.1733125 -0.3815204
0.92934375 0.04361106 -0.4430845
0.9304921875 -0.110167 -0.4624544
0.931640625 -0.2749558 -0.4303343
0.9327890625 -0.4351869 -0.3403457
0.9339375 -0.5714129 -0.1894798
0.9350859375 -0.6606384 0.01903412
0.936234375 -0.6785737 0.2759885
0.9373828125 -0.5985045 0.5623779
0.93853125 -0.3906613 0.844277
0.9396796875 -0.03004475 1.066793
0.940828125 0.4902394 1.132726
0.9419765625 1.107211 0.8987703
0.943125 1.595594 0.2375744
0.9442734375 1.565165 -0.7275905
0.945421875 0.8738951 -1.461168
0.9465703125 -0.0389329 -1.558446
0.94771875 -0.6970177 -1.179855
0.9488671875 -0.9962252 -0.6541725
0.950015625 -1.026581 -0.1717262
0.9511640625 -0.8977168 0.2020183
0.9523125 -0.6848109 0.4568495
0.9534609375 -0.4389695 0.6025842
0.954609375 -0.1925072 0.6545408
0.9557578125 0.03133937 0.6300291
0.95690625 0.2180886 0.545595
0.9580546875 0.3580589 0.4191427
0.959203125 0.4462848 0.2676145
0.9603515625 0.4817941 0.1073779
0.9615 0.4680418 -0.04676004
0.9626484375 0.4116721 -0.1818394
0.963796875 0.3219848 -0.2884419
0.9649453125 0.2097708 -0.3598588
0.96609375 0.08673359 -0.3931659
0.9672421875 -0.0357343 -0.3886292
0.968390625 -0.1472339 -0.3498588
0.9695390625 -0.2396418 -0.2824012
0.9706875 -0.3064173 -0.1937496
0.9718359375 -0.3439176 -0.09207611
0.972984375 -0.3506438 0.01375415
0.9741328125 -0.3273595 0.1153727
0.97528125 -0.2769403 0.2051192
0.9764296875 -0.2032527 0.2764665
0.977578125 -0.1129953 0.3240729
0.9787265625 -0.0126188 0.3440624
0.979875 0.08968613 0.3346075
0.9810234375 0.1865401 0.2961442
0.982171875 0.2692998 0.230612
0.9833203125 0.3307142 0.142355
0.98446875 0.3646167 0.0378783
0.9856171875 0.3671211 -0.07429998
0.986765625 0.3355807 -0.1853802
0.9879140625 0.2711836 -0.2848786
0.9890625 0.177271 -0.3634056
0.9902109375 0.06089869 -0.4122374
0.991359375 -0.0692376 -0.4248267
0.9925078125 -0.2018904 -0.3978587
0.99365625 -0.3255781 -0.330214
0.9948046875 -0.4284515 -0.2246647
0.995953125 -0.4989533 -0.08725563
0.9971015625 -0.5283835 0.07295612
0.99825 -0.5087413 0.2449323
0.9993984375 -0.4351777 0.4151965
1.000546875 -0.3058115 0.5685864
