# GHZ S RI R 50.0
0.3 -3.233958 -6.723021
0.3011484375 -8.281564 -3.365062
0.302296875 -7.74655 3.615695
0.3034453125 -2.843413 6.041033
0.30459375 0.4491259 4.997424
0.3057421875 1.914333 3.366742
0.306890625 2.402522 1.96564
0.3080390625 2.414606 0.8839108
0.3091875 2.188941 0.08221131
0.3103359375 1.846333 -0.495489
0.311484375 1.448202 -0.895623
0.3126328125 1.032256 -1.147481
0.31378125 0.6187752 -1.279787
0.3149296875 0.2223318 -1.308845
0.316078125 -0.1446728 -1.246184
0.3172265625 -0.4681683 -1.102263
0.318375 -0.7349414 -0.888095
0.3195234375 -0.932999 -0.6157983
0.320671875 -1.044338 -0.3032953
0.3218203125 -1.059332 0.02441496
0.32296875 -0.9744028 0.338681
0.3241171875 -0.7980129 0.6062097
0.325265625 -0.5522022 0.7972171
0.3264140625 -0.26697 0.8956029
0.3275625 0.01971224 0.8971792
0.3287109375 0.2783443 0.8129106
0.329859375 0.4857795 0.6632456
0.3310078125 0.62983 0.4716257
0.33215625 0.7084336 0.2609814
0.3333046875 0.7256756 0.04999033
0.334453125 0.6883808 -0.1471989
0.3356015625 0.605818 -0.3207591
0.33675 0.4873947 -0.4626078
0.3378984375 0.3411343 -0.5689254
0.339046875 0.1751686 -0.6357079
0.3401953125 -0.002327075 -0.6602419
0.34134375 -0.1816168 -0.6400113
0.3424921875 -0.3547955 -0.5740472
0.343640625 -0.5099996 -0.4626031
0.3447890625 -0.6354055 -0.307417
0.3459375 -0.7177252 -0.1150037
0.3470859375 -0.7423504 0.1046586
0.348234375 -0.6994437 0.3317771
0.3493828125 -0.5829157 0.5458989
0.35053125 -0.3972857 0.7203959
0.3516796875 -0.1563721 0.8301511
0.352828125 0.1148836 0.8567177
0.3539765625 0.3859867 0.7933453
0.355125 0.6250208 0.6461418
0.3562734375 0.8089423 0.4295021
0.357421875 0.9203041 0.1657066
0.3585703125 0.9505735 -0.1231622
0.35971875 0.8976955 -0.4151599
0.3608671875 0.7635443 -0.6885665
0.362015625 0.5517998 -0.9280574
0.3631640625 0.2680825 -1.115717
0.3643125 -0.08461392 -1.232674
0.3654609375 -0.4984676 -1.256098
0.366609375 -0.9653504 -1.15392
0.3677578125 -1.465095 -0.8810642
0.36890625 -1.952758 -0.3686053
0.3700546875 -2.31922 0.4711321
0.371203125 -2.313984 1.722144
0.3723515625 -1.413474 3.244848
0.3735 0.9015107 4.068568
0.3746484375 3.435844 2.607351
0.375796875 3.856855 -0.09999413
0.3769453125 2.627632 -1.813041
0.37809375 1.184948 -2.329595
0.3792421875 0.06139147 -2.163025
0.380390625 -0.6750283 -1.690391
0.3815390625 -1.07718 -1.119879
0.3826875 -1.217565 -0.5663304
0.3838359375 -1.170076 -0.09104794
0.384984375 -0.9984711 0.2739762
0.3861328125 -0.758503 0.5257595
0.38728125 -0.4917207 0.6689929
0.3884296875 -0.2302485 0.7183422
0.389578125 0.006879721 0.6923263
0.3907265625 0.2059554 0.6078152
0.391875 0.3594935 0.4816436
0.3930234375 0.4641526 0.3284692
0.394171875 0.5191124 0.1618234
0.3953203125 0.5245435 -0.00704575
0.39646875 0.4839168 -0.1663927
0.3976171875 0.400208 -0.3057723
0.398765625 0.2789861 -0.4150169
0.3999140625 0.1298833 -0.4834467
0.4010625 -0.03688049 -0.5037204
0.4022109375 -0.206492 -0.4690638
0.403359375 -0.3610567 -0.3782301
0.4045078125 -0.4812999 -0.2354452
0.40565625 -0.5479116 -0.05427608
0.4068046875 -0.5482157 0.1470382
0.407953125 -0.4757516 0.3425641
0.4091015625 -0.3347178 0.5067554
0.41025 -0.1387848 0.6158434
0.4113984375 0.09096374 0.6537126
0.412546875 0.3311343 0.6100432
0.4136953125 0.5553414 0.4836537
0.41484375 0.7390373 0.2792003
0.4159921875 0.8583122 0.003893286
0.417140625 0.8877944 -0.3296085
0.4182890625 0.7968078 -0.7038704
0.4194375 0.5472252 -1.088425
0.4205859375 0.08671454 -1.422596
0.421734375 -0.6321666 -1.579904
0.4228828125 -1.578129 -1.301945
0.42403125 -2.392552 -0.2718733
0.4251796875 -2.248537 1.322964
0.426328125 -0.9607428 2.331126
0.4274765625 0.4316275 2.195255
0.428625 1.247718 1.471608
0.4297734375 1.526878 0.6741753
0.430921875 1.463441 0.002681969
0.4320703125 1.206391 -0.4929826
0.43321875 0.8503236 -0.8105343
0.4343671875 0.4623124 -0.9655099
0.435515625 0.09140009 -0.9785427
0.4366640625 -0.2277997 -0.8791268
0.4378125 -0.4706417 -0.699197
0.4389609375 -0.6278878 -0.4731214
0.440109375 -0.6987948 -0.2315925
0.4412578125 -0.6922 -0.0005275439
0.44240625 -0.6225393 0.2010637
0.4435546875 -0.5057434 0.3608492
0.444703125 -0.3579996 0.4738126
0.4458515625 -0.1956266 0.5358018
0.447 -0.03034701 0.5509288
0.4481484375 0.1261307 0.5217922
0.449296875 0.2647876 0.4537978
0.4504453125 0.3775639 0.3534705
0.45159375 0.45863 0.228557
0.4527421875 0.5027237 0.08698955
0.453890625 0.5066803 -0.06161753
0.4550390625 0.4689583 -0.2070669
0.4561875 0.3906588 -0.3379502
0.4573359375 0.275531 -0.4430094
0.458484375 0.1323602 -0.5107919
0.4596328125 -0.02841203 -0.5332043
0.46078125 -0.190546 -0.5051306
0.4619296875 -0.338966 -0.4271376
0.463078125 -0.4572508 -0.3055269
0.4642265625 -0.5321535 -0.1524966
0.465375 -0.5564489 0.01675336
0.4665234375 -0.5276633 0.1844
0.467671875 -0.4501848 0.3350883
0.4688203125 -0.332716 0.4557288
0.46996875 -0.185739 0.5367987
0.4711171875 -0.02281591 0.5729361
0.472265625 0.144447 0.562824
0.4734140625 0.3038817 0.50691
0.4745625 0.4447158 0.4094189
0.4757109375 0.5573319 0.2748161
0.476859375 0.6331961 0.1104468
0.4780078125 0.6647109 -0.0756361
0.47915625 0.6446943 -0.2729599
0.4803046875 0.5687093 -0.4693119
0.481453125 0.4341919 -0.6499453
0.4826015625 0.2414764 -0.7977242
0.48375 -0.004798945 -0.8939716
0.4848984375 -0.2930211 -0.9190505
0.486046875 -0.6059533 -0.8534623
0.4871953125 -0.9164579 -0.6816198
0.48834375 -1.191504 -0.3941849
0.4894921875 -1.388023 0.008776122
0.490640625 -1.4594 0.5155469
0.4917890625 -1.354019 1.098584
0.4929375 -1.014303 1.710894
0.4940859375 -0.3763108 2.27435
0.495234375 0.6313562 2.648157
0.4963828125 2.049197 2.551341
0.49753125 3.673971 1.474198
0.4986796875 4.481986 -1.040958
0.499828125 2.91672 -3.761229
0.5009765625 0.02390885 -4.248245
0.502125 -1.838553 -2.995036
0.5032734375 -2.442007 -1.516531
0.504421875 -2.36662 -0.3581293
0.5055703125 -1.990057 0.4431656
0.50671875 -1.498732 0.9509298
0.5078671875 -0.9813106 1.231881
0.509015625 -0.4857533 1.333007
0.5101640625 -0.04060817 1.295283
0.5113125 0.3349206 1.14841
0.5124609375 0.6268951 0.9212301
0.513609375 0.8252383 0.6409918
0.5147578125 0.92658 0.3355338
0.51590625 0.9328575 0.03222348
0.5170546875 0.8529266 -0.243522
0.518203125 0.701605 -0.4703336
0.5193515625 0.4995127 -0.6320345
0.5205 0.2702451 -0.7206282
0.5216484375 0.03741628 -0.7357042
0.522796875 -0.178157 -0.6837927
0.5239453125 -0.359352 -0.5761155
0.52509375 -0.4958094 -0.4274745
0.5262421875 -0.5797936 -0.2546783
0.527390625 -0.610046 -0.07211986
0.5285390625 -0.5895205 0.1051589
0.5296875 -0.5223507 0.2653097
0.5308359375 -0.417172 0.3978603
0.531984375 -0.2817076 0.4952086
0.5331328125 -0.1259478 0.5513543
0.53428125 0.03865252 0.5629994
0.5354296875 0.2009028 0.5284468
0.536578125 0.3489691 0.4498237
0.5377265625 0.4710956 0.3306992
0.538875 0.5559198 0.1784456
0.5400234375 0.5942816 0.002906415
0.541171875 0.5795985 -0.1800005
0.5423203125 0.5087139 -0.3565935
0.54346875 0.3840454 -0.508913
0.5446171875 0.2131262 -0.6200492
0.545765625 0.009255072 -0.6758453
0.5469140625 -0.2101997 -0.6661672
0.5480625 -0.4248751 -0.5866665
0.5492109375 -0.6131881 -0.439431
0.550359375 -0.754934 -0.231376
0.5515078125 -0.8316243 0.02351587
0.55265625 -0.827185 0.3083791
0.5538046875 -0.7305351 0.601744
0.554953125 -0.5298296 0.8780549
0.5561015625 -0.2202077 1.105311
0.55725 0.2033939 1.240923
0.5583984375 0.7345656 1.225009
0.559546875 1.341289 0.9677855
0.5606953125 1.916456 0.3414572
0.56184375 2.173438 -0.7576956
0.5629921875 1.576636 -2.110546
0.564140625 -0.05037254 -2.762066
0.5652890625 -1.598639 -2.00599
0.5664375 -2.09787 -0.6735322
0.5675859375 -1.808597 0.3686281
0.568734375 -1.230665 0.9505588
0.5698828125 -0.6291315 1.172231
0.57103125 -0.110358 1.151326
0.5721796875 0.2886819 0.9795864
0.573328125 0.5568032 0.7229283
0.5744765625 0.7020215 0.4324696
0.575625 0.7380151 0.1462905
0.5767734375 0.6844572 -0.1058869
0.577921875 0.5641752 -0.3072098
0.5790703125 0.4015008 -0.447244
0.58021875 0.2179915 -0.5228398
0.5813671875 0.03310844 -0.5368353
0.582515625 -0.1360582 -0.4964001
0.5836640625 -0.2777056 -0.4110656
0.5848125 -0.3828855 -0.2926022
0.5859609375 -0.4461289 -0.1525799
0.587109375 -0.464848 -0.003789248
0.5882578125 -0.4390974 0.1417975
0.58940625 -0.3719958 0.2727574
0.5905546875 -0.2688308 0.3778316
0.591703125 -0.1376644 0.4487046
0.5928515625 0.01162972 0.4776673
0.594 0.1661772 0.459693
0.5951484375 0.312369 0.3937133
0.596296875 0.4352849 0.2822104
0.5974453125 0.521225 0.1324929
0.59859375 0.5574583 -0.04359523
0.5997421875 0.5366894 -0.2306658
0.600890625 0.4543127 -0.4099664
0.6020390625 0.3132262 -0.5623754
0.6031875 0.1212694 -0.6688386
0.6043359375 -0.1074374 -0.7139378
0.605484375 -0.3550302 -0.6844854
0.6066328125 -0.5996376 -0.5729057
0.60778125 -0.8172966 -0.3760037
0.6089296875 -0.9818848 -0.09534964
0.610078125 -1.062874 0.2628079
0.6112265625 -1.023855 0.6861845
0.612375 -0.8198208 1.149672
0.6135234375 -0.3883295 1.601172
0.614671875 0.3433434 1.931243
0.6158203125 1.416718 1.895747
0.61696875 2.624541 1.071757
0.6181171875 3.104764 -0.7592441
0.619265625 1.972328 -2.515092
0.6204140625 0.1314388 -2.846167
0.6215625 -1.124488 -2.133596
0.6227109375 -1.649183 -1.186367
0.623859375 -1.695214 -0.3631528
0.6250078125 -1.483208 0.2579334
0.62615625 -1.141538 0.6771993
0.6273046875 -0.7514653 0.9183825
0.628453125 -0.3637365 1.008505
0.6296015625 -0.01357747 0.9777801
0.63075 0.2763095 0.8548934
0.6318984375 0.4921113 0.6697772
0.633046875 0.6290275 0.4496675
0.6341953125 0.689211 0.2197661
0.63534375 0.6799548 0.0003089173
0.6364921875 0.6129116 -0.192549
0.637640625 0.5016789 -0.3475344
0.6387890625 0.359821 -0.4578117
0.6399375 0.2017246 -0.5206335
0.6410859375 0.04014811 -0.5364642
0.642234375 -0.1129751 -0.5082454
0.6433828125 -0.2479946 -0.4412752
0.64453125 -0.355831 -0.3432022
0.6456796875 -0.431133 -0.2217711
0.646828125 -0.4690264 -0.08655332
0.6479765625 -0.4681213 0.05251433
0.649125 -0.428416 0.1838451
0.6502734375 -0.353907 0.2985151
0.651421875 -0.2498623 0.3868482
0.6525703125 -0.1248067 0.4415439
0.65371875 0.01114397 0.4576548
0.6548671875 0.1450274 0.4336037
0.656015625 0.2663888 0.3709872
0.6571640625 0.3642846 0.2755252
0.6583125 0.4296762 0.1556882
0.6594609375 0.4568833 0.02207195
0.660609375 0.4442743 -0.1135671
0.6617578125 0.3928726 -0.2396131
0.66290625 0.3072991 -0.3457627
0.6640546875 0.1946075 -0.4231492
0.665203125 0.06405248 -0.4657293
0.6663515625 -0.07437553 -0.4699675
0.6675 -0.2100378 -0.4350483
0.6686484375 -0.3326015 -0.3625858
0.669796875 -0.4325626 -0.2565777
0.6709453125 -0.5008842 -0.1237593
0.67209375 -0.5306493 0.0274863
0.6732421875 -0.5165724 0.1869081
0.674390625 -0.4556839 0.3422117
0.6755390625 -0.3488456 0.4805817
0.6766875 -0.1991041 0.5877249
0.6778359375 -0.01551818 0.6507909
0.678984375 0.190632 0.6578333
0.6801328125 0.4025724 0.600917
0.68128125 0.6011972 0.4760316
0.6824296875 0.7649895 0.2846127
0.683578125 0.8720278 0.0347518
0.6847265625 0.9016898 -0.2587734
0.685875 0.8361471 -0.5752398
0.6870234375 0.6608821 -0.8869019
0.688171875 0.3672873 -1.160415
0.6893203125 -0.0478338 -1.353374
0.69046875 -0.5796389 -1.412807
0.6916171875 -1.206315 -1.263501
0.692765625 -1.865555 -0.8067197
0.6939140625 -2.391507 0.08188231
0.6950625 -2.415184 1.440666
0.6962109375 -1.39219 2.861442
0.697359375 0.5900869 3.228268
0.6985078125 2.171456 2.112431
0.69965625 2.540258 0.573873
0.7008046875 2.124119 -0.5552745
0.701953125 1.446954 -1.170431
0.7031015625 0.7697855 -1.405315
0.70425 0.188166 -1.388779
0.7053984375 -0.2683129 -1.215282
0.706546875 -0.5935218 -0.9490544
0.7076953125 -0.7929848 -0.6372833
0.70884375 -0.877174 -0.3169045
0.7099921875 -0.8617617 -0.01743839
0.711140625 -0.7651061 0.2395318
0.7122890625 -0.6084414 0.4387886
0.7134375 -0.4134247 0.571318
0.7145859375 -0.2025229 0.6346753
0.715734375 0.004417864 0.6320075
0.7168828125 0.1900648 0.5713093
0.71803125 0.3412017 0.4641236
0.7191796875 0.4490042 0.3242151
0.720328125 0.508358 0.1654569
0.7214765625 0.5183337 0.002431567
0.722625 0.4818515 -0.1516208
0.7237734375 0.4043228 -0.2849803
0.724921875 0.293331 -0.3883712
0.7260703125 0.158811 -0.4542323
0.72721875 0.01178547 -0.4779779
0.7283671875 -0.136169 -0.4576788
0.729515625 -0.271721 -0.3944237
0.7306640625 -0.3838391 -0.2923438
0.7318125 -0.4618452 -0.1589597
0.7329609375 -0.4967063 -0.005041651
0.734109375 -0.4826432 0.1566504
0.7352578125 -0.4176662 0.310639
0.73640625 -0.3039095 0.4419715
0.7375546875 -0.1488861 0.5349975
0.738703125 0.03579632 0.5769108
0.7398515625 0.2344026 0.5580761
0.741 0.4279434 0.4728114
0.7421484375 0.5960586 0.3214938
0.743296875 0.7171897 0.1088269
0.7444453125 0.7704684 -0.1542457
0.74559375 0.7338151 -0.4524274
0.7467421875 0.5856163 -0.7596001
0.747890625 0.3015333 -1.043382
0.7490390625 -0.1372128 -1.198846
0.7501875 -0.7328436 -1.223571
0.7513359375 -1.460161 -0.9090295
0.752484375 -2.077446 -0.01400152
0.7536328125 -1.916998 1.428402
0.75478125 -0.546515 2.370118
0.7559296875 0.9169628 1.966746
0.757078125 1.532354 0.9750466
0.7582265625 1.508427 0.1202994
0.759375 1.203141 -0.4449762
0.7605234375 0.8092224 -0.7597814
0.761671875 0.4158021 -0.8868527
0.7628203125 0.06507669 -0.8768544
0.76396875 -0.2211964 -0.7691092
0.7651171875 -0.4320868 -0.5964442
0.766265625 -0.5640611 -0.3882375
0.7674140625 -0.619397 -0.1690077
0.7685625 -0.6049631 0.0397042
0.7697109375 -0.532068 0.2209239
0.770859375 -0.4147451 0.3627866
0.7720078125 -0.2679325 0.4569381
0.77315625 -0.1074459 0.5007647
0.7743046875 0.05198388 0.494944
0.775453125 0.1973043 0.4440318
0.7766015625 0.3176496 0.3554012
0.77775 0.405167 0.2384994
0.7788984375 0.4541845 0.1034743
0.780046875 0.4621456 -0.03829437
0.7811953125 0.4292144 -0.1760561
0.78234375 0.3581255 -0.2986685
0.7834921875 0.253978 -0.3962237
0.784640625 0.12457 -0.4606072
0.7857890625 -0.02066833 -0.4849807
0.7869375 -0.1701036 -0.4657085
0.7880859375 -0.3110119 -0.4017194
0.789234375 -0.4301173 -0.295963
0.7903828125 -0.5153043 -0.1551034
0.79153125 -0.5562372 0.01054382
0.7926796875 -0.5453618 0.1873568
0.793828125 -0.4798626 0.3598401
0.7949765625 -0.3604022 0.5111081
0.796125 -0.1936765 0.6252939
0.7972734375 0.009122541 0.6880841
0.798421875 0.2340413 0.6879311
0.7995703125 0.4629266 0.6177109
0.80071875 0.6761253 0.4734719
0.8018671875 0.8525397 0.2565124
0.803015625 0.9684485 -0.02891402
0.8041640625 0.9996929 -0.3729118
0.8053125 0.9165187 -0.7592912
0.8064609375 0.6841441 -1.161712
0.807609375 0.2606504 -1.532799
0.8087578125 -0.4036561 -1.78339
0.80990625 -1.337282 -1.733165
0.8110546875 -2.415856 -1.055486
0.812203125 -3.02924 0.5415549
0.8133515625 -2.168043 2.415758
0.8145 -0.2364327 2.985708
0.8156484375 1.201087 2.239738
0.816796875 1.751288 1.176235
0.8179453125 1.743246 0.2868125
0.81909375 1.466325 -0.3394217
0.8202421875 1.081369 -0.728788
0.821390625 0.6740112 -0.9281816
0.8225390625 0.2926184 -0.9794343
0.8236875 -0.0361681 -0.9197085
0.8248359375 -0.2964402 -0.7824386
0.825984375 -0.4814202 -0.5960433
0.8271328125 -0.5920042 -0.3863948
0.82828125 -0.6326544 -0.174442
0.8294296875 -0.6122973 0.0224942
0.830578125 -0.5426672 0.1917836
0.8317265625 -0.4357156 0.3245828
0.832875 -0.3045405 0.4159622
0.8340234375 -0.1616381 0.4644512
0.835171875 -0.01832624 0.4709177
0.8363203125 0.1149855 0.4387759
0.83746875 0.2296331 0.3734917
0.8386171875 0.3186317 0.2821909
0.839765625 0.3768777 0.1727168
0.8409140625 0.4017331 0.05388919
0.8420625 0.3921886 -0.06466265
0.8432109375 0.3498945 -0.1737366
0.844359375 0.2790615 -0.2651714
0.8455078125 0.1858043 -0.3315867
0.84665625 0.07824213 -0.3674936
0.8478046875 -0.03421477 -0.3703832
0.848953125 -0.141608 -0.3401121
0.8501015625 -0.2347689 -0.2803284
0.85125 -0.3054164 -0.1963116
0.8523984375 -0.347912 -0.09593319
0.853546875 -0.3589218 0.011863
0.8546953125 -0.3379214 0.1174812
0.85584375 -0.2876283 0.2118467
0.8569921875 -0.2125097 0.28732
0.858140625 -0.1188687 0.3381692
0.8592890625 -0.01431557 0.3601505
0.8604375 0.09269834 0.3516845
0.8615859375 0.1940942 0.3129867
0.862734375 0.2818463 0.2464191
0.8638828125 0.3488402 0.1560147
0.86503125 0.3887065 0.04763972
0.8661796875 0.396667 -0.07143796
0.867328125 0.3696408 -0.1924379
0.8684765625 0.306629 -0.3054332
0.869625 0.2092084 -0.4003786
0.8707734375 0.08156169 -0.4665008
0.871921875 -0.06883348 -0.4942954
0.8730703125 -0.2314004 -0.4754699
0.87421875 -0.3933426 -0.4037511
0.8753671875 -0.5375582 -0.2768381
0.876515625 -0.6456662 -0.09587947
0.8776640625 -0.6983904 0.1318509
0.8788125 -0.6745017 0.3935713
0.8799609375 -0.5535771 0.6682786
0.881109375 -0.3145922 0.92543
0.8822578125 0.06272298 1.11532
0.88340625 0.585906 1.158973
0.8845546875 1.220323 0.919879
0.885703125 1.780445 0.2228977
0.8868515625 1.795997 -0.9272611
0.888 0.8757519 -1.864283
0.8891484375 -0.3601995 -1.833468
0.890296875 -1.079913 -1.155952
0.8914453125 -1.243948 -0.4342776
0.89259375 -1.102693 0.1030703
0.8937421875 -0.8366609 0.4436951
0.894890625 -0.5384431 0.624609
0.8960390625 -0.2534533 0.6843997
0.8971875 -0.005027719 0.6552676
0.8983359375 0.194777 0.5628918
0.899484375 0.339514 0.4289814
0.9006328125 0.4273149 0.2726111
0.90178125 0.4602686 0.1107277
0.9029296875 0.4430843 -0.04206832
0.904078125 0.3834708 -0.1731738
0.9052265625 0.2916397 -0.2734012
0.906375 0.1794458 -0.3368591
0.9075234375 0.05918295 -0.3611055
0.908671875 -0.05727075 -0.3473569
0.9098203125 -0.1598231 -0.3003391
0.91096875 -0.2398076 -0.2265159
0.9121171875 -0.291443 -0.1351414
0.913265625 -0.3120637 -0.03517982
0.9144140625 -0.301813 0.06382496
0.9155625 -0.2626298 0.1534089
0.9167109375 -0.1994076 0.2258806
0.917859375 -0.1180923 0.2756395
0.9190078125 -0.02566927 0.2990372
0.92015625 0.06942837 0.2934907
0.9213046875 0.1595046 0.2597649
0.922453125 0.236558 0.1996131
0.9236015625 0.2932312 0.1174974
0.92475 0.3233561 0.0193751
0.9258984375 0.3223724 -0.0865605
0.927046875 0.2877922 -0.1909549
0.9281953125 0.2200879 -0.2839421
0.92934375 0.1224779 -0.3550257
0.9304921875 0.001038765 -0.394069
0.931640625 -0.1343339 -0.3935709
0.9327890625 -0.2710313 -0.3474546
0.9339375 -0.3950935 -0.254516
0.9350859375 -0.4903383 -0.1165466
0.936234375 -0.5408021 0.05972236
0.9373828125 -0.530809 0.2613566
0.93853125 -0.4471528 0.4705704
0.9396796875 -0.2789349 0.6632733
0.940828125 -0.01916878 0.8054877
0.9419765625 0.3274899 0.8515449
0.943125 0.7360493 0.7407542
0.9442734375 1.13322 0.399581
0.945421875 1.355653 -0.2124255
0.9465703125 1.162135 -0.9783964
0.94771875 0.454225 -1.515625
0.9488671875 -0.4315891 -1.464817
0.950015625 -1.022144 -0.9413032
0.9511640625 -1.188707 -0.3102206
0.9523125 -1.059581 0.2018854
0.9534609375 -0.7877138 0.5364563
0.954609375 -0.4717931 0.7073311
0.9557578125 -0.1680975 0.748123
0.95690625 0.09320144 0.6926771
0.9580546875 0.2965236 0.5701001
0.959203125 0.4353642 0.407388
0.9603515625 0.5087109 0.2267055
0.9615 0.5212521 0.04711157
0.9626484375 0.4807091 -0.1152903
0.963796875 0.3983638 -0.2482064
0.9649453125 0.2862072 -0.3436904
0.96609375 0.1580516 -0.3978645
0.9672421875 0.02644978 -0.4106441
0.968390625 -0.09699364 -0.3848162
0.9695390625 -0.2028311 -0.3265213
0.9706875 -0.2836047 -0.2428469
0.9718359375 -0.3353169 -0.1427426
0.972984375 -0.3549951 -0.03532368
0.9741328125 -0.3435735 0.07092611
0.97528125 -0.3031515 0.1675
0.9764296875 -0.2374099 0.2473537
0.977578125 -0.1527105 0.304758
0.9787265625 -0.05554906 0.3355704
0.979875 0.04639398 0.3372346
0.9810234375 0.1450148 0.3096115
0.982171875 0.2323582 0.2545499
0.9833203125 0.3007147 0.1755178
0.98446875 0.3438224 0.07866712
0.9856171875 0.3570769 -0.02853608
0.986765625 0.337862 -0.1369623
0.9879140625 0.2865006 -0.2370555
0.9890625 0.2058794 -0.3193949
0.9902109375 0.1019972 -0.3755206
0.991359375 -0.01687057 -0.3989438
0.9925078125 -0.1409971 -0.385766
0.99365625 -0.259118 -0.3351358
0.9948046875 -0.3605655 -0.2491384
0.995953125 -0.4349391 -0.1327761
0.9971015625 -0.4741773 0.005765155
0.99825 -0.4711932 0.1566059
0.9993984375 -0.4220075 0.3081455
1.000546875 -0.3255967 0.4474339
