# GHZ S RI R 50.0
0.3 -0.9386306 0.1763579
0.3011484375 -0.7743984 0.469718
0.302296875 -0.5340384 0.6670865
0.3034453125 -0.2657833 0.7573912
0.30459375 -0.00645577 0.7541049
0.3057421875 0.2165237 0.6757448
0.306890625 0.3893508 0.5445607
0.3080390625 0.5066608 0.3826752
0.3091875 0.5683029 0.2070837
0.3103359375 0.5789754 0.03267441
0.311484375 0.544198 -0.1294725
0.3126328125 0.4707318 -0.2705146
0.31378125 0.3660834 -0.3840488
0.3149296875 0.2374374 -0.464308
0.316078125 0.09310219 -0.5068811
0.3172265625 -0.05777068 -0.5083261
0.318375 -0.2042367 -0.467315
0.3195234375 -0.3345738 -0.3846191
0.320671875 -0.435259 -0.264259
0.3218203125 -0.4947375 -0.1160847
0.32296875 -0.5031965 0.04501286
0.3241171875 -0.4581165 0.200157
0.325265625 -0.3643602 0.3298489
0.3264140625 -0.2353011 0.4185877
0.3275625 -0.08930013 0.4581603
0.3287109375 0.05556315 0.4484376
0.329859375 0.1819191 0.3962497
0.3310078125 0.2818983 0.3126021
0.33215625 0.3483125 0.2090367
0.3333046875 0.3809789 0.0975823
0.334453125 0.3816849 -0.01325309
0.3356015625 0.3544869 -0.115652
0.33675 0.3033902 -0.2046123
0.3378984375 0.2330194 -0.2760126
0.339046875 0.1478689 -0.3265737
0.3401953125 0.05308255 -0.3541119
0.34134375 -0.04636132 -0.356659
0.3424921875 -0.1451911 -0.3327707
0.343640625 -0.2359173 -0.2825359
0.3447890625 -0.312328 -0.2069283
0.3459375 -0.366203 -0.1089889
0.3470859375 -0.3899889 0.004544779
0.348234375 -0.3774882 0.1252115
0.3493828125 -0.3262743 0.2393544
0.35053125 -0.2386184 0.333558
0.3516796875 -0.1228784 0.3948652
0.352828125 0.008108725 0.4147343
0.3539765625 0.1378133 0.3899034
0.355125 0.2509373 0.3249475
0.3562734375 0.3351941 0.2293177
0.357421875 0.3848937 0.1146017
0.3585703125 0.3968583 -0.005966983
0.35971875 0.3735039 -0.1219073
0.3608671875 0.3190841 -0.2242871
0.362015625 0.2399851 -0.3050886
0.3631640625 0.1422176 -0.3616397
0.3643125 0.03305811 -0.3890151
0.3654609375 -0.08025125 -0.3862381
0.366609375 -0.1903975 -0.3524304
0.3677578125 -0.289709 -0.2887527
0.36890625 -0.3704279 -0.1962407
0.3700546875 -0.4240791 -0.08077145
0.371203125 -0.4430513 0.05214654
0.3723515625 -0.4205723 0.1921337
0.3735 -0.3520397 0.3251798
0.3746484375 -0.2384209 0.436047
0.375796875 -0.08627085 0.5069047
0.3769453125 0.08944809 0.5226417
0.37809375 0.267397 0.4740356
0.3792421875 0.4212925 0.361493
0.380390625 0.5264894 0.1973725
0.3815390625 0.5659102 0.003544581
0.3826875 0.5324499 -0.1902618
0.3838359375 0.4323893 -0.3583186
0.384984375 0.2832125 -0.4780559
0.3861328125 0.1054728 -0.5374604
0.38728125 -0.07704237 -0.5334543
0.3884296875 -0.2429943 -0.4705426
0.389578125 -0.3754742 -0.3599206
0.3907265625 -0.463305 -0.2160459
0.391875 -0.499505 -0.05661408
0.3930234375 -0.4843586 0.1026095
0.394171875 -0.4216273 0.2465822
0.3953203125 -0.318806 0.3626577
0.39646875 -0.1868447 0.4404619
0.3976171875 -0.03810828 0.4731703
0.398765625 0.1127942 0.4580497
0.3999140625 0.2513205 0.3961372
0.4010625 0.3631645 0.2930487
0.4022109375 0.4355159 0.1588114
0.403359375 0.4595701 0.008346205
0.4045078125 0.4321844 -0.1412316
0.40565625 0.356364 -0.2719305
0.4068046875 0.2421897 -0.3668994
0.407953125 0.1054826 -0.4157948
0.4091015625 -0.03514813 -0.4151732
0.41025 -0.1623736 -0.3688877
0.4113984375 -0.2615159 -0.2872744
0.412546875 -0.3258316 -0.1832364
0.4136953125 -0.3523871 -0.07082324
0.41484375 -0.3434315 0.03795305
0.4159921875 -0.3049643 0.1337175
0.417140625 -0.2434138 0.2101849
0.4182890625 -0.1668672 0.2631619
0.4194375 -0.0816742 0.2918288
0.4205859375 0.004840885 0.2959512
0.421734375 0.08711986 0.2770678
0.4228828125 0.1597873 0.2373817
0.42403125 0.218435 0.1803592
0.4251796875 0.2590964 0.1097578
0.426328125 0.2789913 0.03063875
0.4274765625 0.2757872 -0.05162652
0.428625 0.2488579 -0.1305077
0.4297734375 0.1995136 -0.1989525
0.430921875 0.1310963 -0.2503785
0.4320703125 0.04919068 -0.2787855
0.43321875 -0.0384777 -0.2803697
0.4343671875 -0.1224391 -0.2541651
0.435515625 -0.1938131 -0.2027164
0.4366640625 -0.2444261 -0.1321433
0.4378125 -0.2698253 -0.05022446
0.4389609375 -0.2682416 0.0340556
0.440109375 -0.2416151 0.1114245
0.4412578125 -0.1939889 0.1753219
0.44240625 -0.1315041 0.220959
0.4435546875 -0.06042959 0.2459471
0.444703125 0.01298512 0.2494799
0.4458515625 0.08296324 0.2327711
0.447 0.1446031 0.1980856
0.4481484375 0.1941836 0.1484626
0.449296875 0.2281134 0.08738156
0.4504453125 0.244518 0.01913302
0.45159375 0.2416849 -0.05151321
0.4527421875 0.2190355 -0.1198883
0.453890625 0.1775007 -0.1805867
0.4550390625 0.1189373 -0.2283023
0.4561875 0.0470649 -0.2578814
0.4573359375 -0.03296456 -0.2649532
0.458484375 -0.1137234 -0.2470453
0.4596328125 -0.1871489 -0.2036876
0.46078125 -0.2447921 -0.1378139
0.4619296875 -0.2788645 -0.05535025
0.463078125 -0.2847978 0.03512474
0.4642265625 -0.261052 0.12327
0.465375 -0.2099634 0.1994094
0.4665234375 -0.1374281 0.254977
0.467671875 -0.05166452 0.2845803
0.4688203125 0.0381898 0.285963
0.46996875 0.1235588 0.2598291
0.4711171875 0.1957364 0.2100986
0.472265625 0.2496567 0.1414226
0.4734140625 0.2811275 0.06027753
0.4745625 0.2875607 -0.02637513
0.4757109375 0.268516 -0.1116994
0.476859375 0.2249907 -0.1884021
0.4780078125 0.1602372 -0.2502697
0.47915625 0.07857096 -0.2911573
0.4803046875 -0.01365982 -0.3065435
0.481453125 -0.1087947 -0.2930496
0.4826015625 -0.1979387 -0.2499247
0.48375 -0.2715662 -0.1790128
0.4848984375 -0.3205857 -0.08566079
0.486046875 -0.3374738 0.02177901
0.4871953125 -0.3175422 0.1314638
0.48834375 -0.2608092 0.2314076
0.4894921875 -0.1726592 0.3071585
0.490640625 -0.06213127 0.3490765
0.4917890625 0.05678533 0.3508461
0.4929375 0.1689009 0.3121304
0.4940859375 0.2608479 0.2381451
0.495234375 0.3216702 0.1385275
0.4963828125 0.3455885 0.02658504
0.49753125 0.3315138 -0.08508419
0.4986796875 0.2833638 -0.1841229
0.499828125 0.2072881 -0.2608512
0.5009765625 0.1132516 -0.308416
0.502125 0.0108883 -0.3241566
0.5032734375 -0.08940256 -0.3077601
0.504421875 -0.1783112 -0.2620478
0.5055703125 -0.2484661 -0.1923313
0.50671875 -0.2933418 -0.1053207
0.5078671875 -0.3096969 -0.009478026
0.509015625 -0.2956825 0.08633806
0.5101640625 -0.2528288 0.1733145
0.5113125 -0.1856368 0.2423787
0.5124609375 -0.09993304 0.2868349
0.513609375 -0.00453413 0.302111
0.5147578125 0.09048411 0.2861928
0.51590625 0.1748598 0.2408042
0.5170546875 0.2394086 0.171498
0.518203125 0.2779406 0.08563842
0.5193515625 0.2861642 -0.006365984
0.5205 0.2650034 -0.09420592
0.5216484375 0.2182933 -0.1687455
0.522796875 0.1523213 -0.2231978
0.5239453125 0.07492141 -0.2536399
0.52509375 -0.005345222 -0.2589864
0.5262421875 -0.0810714 -0.2403949
0.527390625 -0.1461548 -0.2014832
0.5285390625 -0.1957898 -0.1467024
0.5296875 -0.2266838 -0.08158659
0.5308359375 -0.2374766 -0.01167612
0.531984375 -0.2281342 0.057332
0.5331328125 -0.2002186 0.1202677
0.53428125 -0.1557586 0.1724898
0.5354296875 -0.09853394 0.2097394
0.536578125 -0.03297691 0.2292789
0.5377265625 0.0358486 0.2292569
0.538875 0.1021757 0.2089593
0.5400234375 0.16018 0.1698704
0.541171875 0.204451 0.1147147
0.5423203125 0.2302159 0.04830117
0.54346875 0.2347635 -0.02349101
0.5446171875 0.2171383 -0.09347793
0.545765625 0.1787593 -0.1550492
0.5469140625 0.123355 -0.2018882
0.5480625 0.05643135 -0.229327
0.5492109375 -0.01523736 -0.2350616
0.550359375 -0.0849184 -0.2191467
0.5515078125 -0.1459092 -0.1831989
0.55265625 -0.1933826 -0.1312676
0.5538046875 -0.2233544 -0.06813065
0.554953125 -0.2334045 0.0004839312
0.5561015625 -0.2234877 0.06914338
0.55725 -0.1942173 0.1320082
0.5583984375 -0.1480916 0.1841892
0.559546875 -0.0884655 0.2214732
0.5606953125 -0.01984978 0.240314
0.56184375 0.05252257 0.2387952
0.5629921875 0.1228247 0.2158562
0.564140625 0.1848224 0.1724315
0.5652890625 0.2323614 0.1110489
0.5664375 0.260059 0.03599072
0.5675859375 0.2638879 -0.04589553
0.568734375 0.2417593 -0.1275199
0.5698828125 0.193949 -0.1999847
0.57103125 0.1240647 -0.2549493
0.5721796875 0.0382121 -0.2856308
0.573328125 -0.0546124 -0.2871935
0.5744765625 -0.1442708 -0.2585288
0.575625 -0.2209267 -0.2019875
0.5767734375 -0.2761512 -0.1230557
0.577921875 -0.3035937 -0.02972057
0.5790703125 -0.2997457 0.06772255
0.58021875 -0.2655522 0.159891
0.5813671875 -0.2032395 0.2373478
0.582515625 -0.1198713 0.2914357
0.5836640625 -0.0228822 0.3172742
0.5848125 0.07880538 0.3114654
0.5859609375 0.1746241 0.2738088
0.587109375 0.2556997 0.2069446
0.5882578125 0.311614 0.1169907
0.58940625 0.3371254 0.01146938
0.5905546875 0.3271951 -0.09893478
0.591703125 0.2811803 -0.2017671
0.5928515625 0.202416 -0.2857273
0.594 0.09821987 -0.3398063
0.5951484375 -0.01954036 -0.3562259
0.596296875 -0.1374553 -0.3312294
0.5974453125 -0.2407192 -0.2670565
0.59859375 -0.3159615 -0.171114
0.5997421875 -0.353723 -0.0551068
0.600890625 -0.3491454 0.06628916
0.6020390625 -0.3035131 0.1766662
0.6031875 -0.2242291 0.2636251
0.6043359375 -0.1223266 0.3171575
0.605484375 -0.01134067 0.3328982
0.6066328125 0.09538522 0.3115498
0.60778125 0.1862954 0.2581462
0.6089296875 0.2529741 0.1806627
0.610078125 0.2900458 0.08935361
0.6112265625 0.2963923 -0.00592785
0.612375 0.2734453 -0.09598801
0.6135234375 0.2254974 -0.1721428
0.614671875 0.158297 -0.2285418
0.6158203125 0.07919673 -0.2612225
0.61696875 -0.004481266 -0.268258
0.6181171875 -0.08490752 -0.2501796
0.619265625 -0.1549348 -0.2095396
0.6204140625 -0.2089386 -0.1499868
0.6215625 -0.2418266 -0.07776352
0.6227109375 -0.250983 0.0001785588
0.623859375 -0.2358848 0.07647165
0.6250078125 -0.1984514 0.1437033
0.62615625 -0.1424073 0.1953875
0.6273046875 -0.07402419 0.2264828
0.628453125 -0.0005723865 0.2347269
0.6296015625 0.07059921 0.2198155
0.63075 0.1321902 0.184248
0.6318984375 0.1788064 0.1326017
0.633046875 0.2067245 0.07065316
0.6341953125 0.214235 0.004969948
0.63534375 0.2019121 -0.05846417
0.6364921875 0.1722103 -0.1139318
0.637640625 0.1285016 -0.1569651
0.6387890625 0.07538451 -0.1848447
0.6399375 0.01760682 -0.196073
0.6410859375 -0.03995129 -0.1903691
0.642234375 -0.09272072 -0.1687642
0.6433828125 -0.1367818 -0.1334424
0.64453125 -0.168668 -0.08732797
0.6456796875 -0.1861803 -0.03413729
0.646828125 -0.1877206 0.02176543
0.6479765625 -0.1728813 0.07586177
0.649125 -0.1429155 0.123485
0.6502734375 -0.100049 0.1604683
0.651421875 -0.04782009 0.1833684
0.6525703125 0.00918258 0.1895985
0.65371875 0.06576677 0.1783882
0.6548671875 0.1167771 0.150484
0.656015625 0.156727 0.1082728
0.6571640625 0.1820606 0.05585345
0.6583125 0.1901423 -0.001922875
0.6594609375 0.1803768 -0.05896283
0.660609375 0.1537627 -0.1102656
0.6617578125 0.1131461 -0.1508964
0.66290625 0.06250215 -0.1773506
0.6640546875 0.006594108 -0.1875003
0.665203125 -0.04948949 -0.1805978
0.6663515625 -0.1007959 -0.1575275
0.6675 -0.1430678 -0.1205479
0.6686484375 -0.1725275 -0.07277174
0.669796875 -0.186864 -0.0183353
0.6709453125 -0.1847024 0.03816925
0.67209375 -0.1658516 0.09198052
0.6732421875 -0.1316535 0.1383508
0.674390625 -0.08478281 0.172827
0.6755390625 -0.02897658 0.1920208
0.6766875 0.03095506 0.1934049
0.6778359375 0.08921233 0.1763576
0.678984375 0.1400846 0.1416782
0.6801328125 0.1781894 0.09240704
0.68128125 0.1992989 0.0330251
0.6824296875 0.2009026 -0.03037034
0.683578125 0.182137 -0.0915409
0.6847265625 0.1452049 -0.1439278
0.685875 0.09348584 -0.1820692
0.6870234375 0.03249227 -0.2020876
0.688171875 -0.03172418 -0.2020451
0.6893203125 -0.09233547 -0.1821635
0.69046875 -0.1435775 -0.1447018
0.6916171875 -0.1806919 -0.093395
0.692765625 -0.200105 -0.03386711
0.6939140625 -0.2006001 0.02867668
0.6950625 -0.1822154 0.08833844
0.6962109375 -0.1467825 0.139557
0.697359375 -0.09766546 0.1775767
0.6985078125 -0.03898862 0.1993353
0.69965625 0.023684 0.2023089
0.7008046875 0.08433493 0.1860577
0.701953125 0.1377886 0.1521303
0.7031015625 0.1786241 0.1029079
0.70425 0.2025388 0.04310362
0.7053984375 0.2068556 -0.02159993
0.706546875 0.1906962 -0.08491959
0.7076953125 0.1552849 -0.1405568
0.70884375 0.1039911 -0.1822693
0.7099921875 0.04189204 -0.2057506
0.711140625 -0.02457912 -0.2084344
0.7122890625 -0.0882415 -0.1900462
0.7134375 -0.1426098 -0.1524539
0.7145859375 -0.1824282 -0.1000737
0.715734375 -0.2034161 -0.03826673
0.7168828125 -0.2041323 0.0263977
0.71803125 -0.1848036 0.08743438
0.7191796875 -0.1481373 0.1391829
0.720328125 -0.0980219 0.1766834
0.7214765625 -0.03912305 0.1971164
0.722625 0.02259405 0.1987055
0.7237734375 0.08150883 0.1817733
0.724921875 0.13249 0.148016
0.7260703125 0.1707118 0.1007349
0.72721875 0.1930068 0.04415069
0.7283671875 0.1971698 -0.01640714
0.729515625 0.1828786 -0.07564659
0.7306640625 0.1512048 -0.1278942
0.7318125 0.1050863 -0.1682079
0.7329609375 0.04851834 -0.1924935
0.734109375 -0.01298538 -0.1981592
0.7352578125 -0.07327238 -0.1845385
0.73640625 -0.1266325 -0.1527462
0.7375546875 -0.1671798 -0.106201
0.738703125 -0.1912766 -0.04930356
0.7398515625 -0.1964178 0.01180545
0.741 -0.1824279 0.07134586
0.7421484375 -0.1510458 0.1230634
0.743296875 -0.105606 0.1624468
0.7444453125 -0.05101047 0.1858013
0.74559375 0.007505365 0.1913466
0.7467421875 0.06446067 0.1792089
0.747890625 0.1147433 0.150886
0.7490390625 0.1481734 0.104934
0.7501875 0.1724783 0.05577023
0.7513359375 0.1811966 0.001763535
0.752484375 0.1736858 -0.05222552
0.7536328125 0.1507525 -0.1018281
0.75478125 0.113958 -0.1428261
0.7559296875 0.06644853 -0.1711424
0.757078125 0.01222949 -0.1845738
0.7582265625 -0.04411067 -0.181018
0.759375 -0.09760254 -0.1607239
0.7605234375 -0.1429176 -0.1247581
0.761671875 -0.1758242 -0.07613262
0.7628203125 -0.192489 -0.0190237
0.76396875 -0.190844 0.04126493
0.7651171875 -0.1704874 0.09876262
0.766265625 -0.1328981 0.1476792
0.7674140625 -0.08147676 0.1829321
0.7685625 -0.02134437 0.2005617
0.7697109375 0.04186714 0.1987682
0.770859375 0.1018367 0.1774333
0.7720078125 0.1524498 0.1383627
0.77315625 0.1889284 0.0852308
0.7743046875 0.2076725 0.02320803
0.775453125 0.2063885 -0.04196114
0.7766015625 0.185221 -0.104451
0.77775 0.1456201 -0.1579956
0.7788984375 0.09075499 -0.1974443
0.780046875 0.02568835 -0.218631
0.7811953125 -0.0441987 -0.2187307
0.78234375 -0.1118236 -0.1969033
0.7834921875 -0.1706295 -0.1540714
0.784640625 -0.2139355 -0.09395149
0.7857890625 -0.236515 -0.02126834
0.7869375 -0.2344543 0.05616707
0.7880859375 -0.2067652 0.1310385
0.789234375 -0.1550975 0.1936941
0.7903828125 -0.08419587 0.2365734
0.79153125 -0.001651836 0.2536363
0.7926796875 0.08302286 0.2418645
0.793828125 0.1592126 0.2015415
0.7949765625 0.2179465 0.1375275
0.796125 0.2511735 0.05714784
0.7972734375 0.254966 -0.0296172
0.798421875 0.2293198 -0.11217
0.7995703125 0.177711 -0.1802297
0.80071875 0.106958 -0.2264939
0.8018671875 0.02602649 -0.2461767
0.803015625 -0.05537998 -0.2379459
0.8041640625 -0.1282028 -0.2038405
0.8053125 -0.1845378 -0.1487716
0.8064609375 -0.2191949 -0.07967325
0.807609375 -0.2292924 -0.00455714
0.8087578125 -0.2150503 0.06812163
0.80990625 -0.1787705 0.131379
0.8110546875 -0.1252532 0.1786638
0.812203125 -0.06065351 0.2057451
0.8133515625 0.008002756 0.2105573
0.8145 0.0734155 0.1936943
0.8156484375 0.1289193 0.1572883
0.816796875 0.1691239 0.1061852
0.8179453125 0.190366 0.0459559
0.81909375 0.1912111 -0.01652082
0.8202421875 0.17242 -0.07464225
0.821390625 0.1368742 -0.1224957
0.8225390625 0.08921907 -0.1556264
0.8236875 0.03508331 -0.1714891
0.8248359375 -0.01980491 -0.1695855
0.825984375 -0.06963156 -0.1511602
0.8271328125 -0.1100362 -0.1191636
0.82828125 -0.137636 -0.07762133
0.8294296875 -0.1507902 -0.0311782
0.830578125 -0.1494963 0.01565608
0.8317265625 -0.134614 0.05856589
0.832875 -0.1084141 0.09413961
0.8340234375 -0.07365422 0.1197727
0.835171875 -0.03400736 0.1336658
0.8363203125 0.007161604 0.13522
0.83746875 0.04625063 0.1249389
0.8386171875 0.08019016 0.103999
0.839765625 0.1061182 0.07442357
0.8409140625 0.1220229 0.03885713
0.8420625 0.1265497 0.0005778285
0.8432109375 0.1196928 -0.03697871
0.844359375 0.1018621 -0.07050016
0.8455078125 0.075134 -0.09702438
0.84665625 0.04179756 -0.1139215
0.8478046875 0.005254243 -0.1199019
0.848953125 -0.03093037 -0.1144924
0.8501015625 -0.06338674 -0.09840732
0.85125 -0.08903763 -0.07361893
0.8523984375 -0.1055882 -0.04256276
0.853546875 -0.1117795 -0.00857946
0.8546953125 -0.1075023 0.02496171
0.85584375 -0.09361542 0.05517633
0.8569921875 -0.0717507 0.07943384
0.858140625 -0.04426907 0.09577052
0.8592890625 -0.01375387 0.1029274
0.8604375 0.01703639 0.1011405
0.8615859375 0.04551322 0.09051565
0.862734375 0.06925309 0.07231307
0.8638828125 0.08657919 0.04836747
0.86503125 0.09611639 0.02063718
0.8661796875 0.0972179 -0.008434717
0.867328125 0.08991159 -0.03635073
0.8684765625 0.07489298 -0.06098861
0.869625 0.05321658 -0.08007064
0.8707734375 0.0270745 -0.09186573
0.871921875 -0.001456361 -0.09541117
0.8730703125 -0.02964265 -0.0903867
0.87421875 -0.05518708 -0.0771656
0.8753671875 -0.07531732 -0.0567979
0.876515625 -0.08856592 -0.03146281
0.8776640625 -0.09341764 -0.003374303
0.8788125 -0.08955584 0.02467136
0.8799609375 -0.0774902 0.04995248
0.881109375 -0.05857784 0.07019789
0.8822578125 -0.03472413 0.08375892
0.88340625 -0.008187662 0.08965366
0.8845546875 0.01845688 0.08731282
0.885703125 0.04298959 0.07746176
0.8868515625 0.06342813 0.06107742
0.888 0.07808104 0.03965015
0.8891484375 0.08574367 0.01511019
0.890296875 0.08622491 -0.01046415
0.8914453125 0.0794247 -0.03500433
0.89259375 0.06580359 -0.05663586
0.8937421875 0.04675637 -0.07344188
0.894890625 0.02340181 -0.08421157
0.8960390625 -0.002223078 -0.08783493
0.8971875 -0.0280336 -0.08400141
0.8983359375 -0.05192103 -0.07254852
0.899484375 -0.0716731 -0.05445519
0.9006328125 -0.08542547 -0.03098597
0.90178125 -0.09170676 -0.004139599
0.9029296875 -0.0895685 0.02381591
0.904078125 -0.07905369 0.05004753
0.9052265625 -0.06078041 0.07221413
0.906375 -0.03632808 0.08799381
0.9075234375 -0.00797622 0.09567157
0.908671875 0.02162712 0.0941259
0.9098203125 0.04960711 0.08369789
0.91096875 0.07324533 0.06508798
0.9121171875 0.09000389 0.03999913
0.913265625 0.09847379 0.01087022
0.9144140625 0.09768292 -0.01974075
0.9155625 0.08764093 -0.04873373
0.9167109375 0.0693021 -0.07358485
0.917859375 0.04399588 -0.09186956
0.9190078125 0.01406555 -0.1016669
0.92015625 -0.01770467 -0.1019648
0.9213046875 -0.04851422 -0.09267613
0.922453125 -0.07537669 -0.07403548
0.9236015625 -0.09545909 -0.04785592
0.92475 -0.1066759 -0.0162644
0.9258984375 -0.1075986 0.01795842
0.927046875 -0.09762811 0.0509468
0.9281953125 -0.07764871 0.07976428
0.92934375 -0.04898144 0.1009159
0.9304921875 -0.01486965 0.1121912
0.931640625 0.02136432 0.1118012
0.9327890625 0.05599553 0.09983647
0.9339375 0.08493546 0.0773334
0.9350859375 0.1052108 0.04642776
0.936234375 0.1146071 0.01079572
0.9373828125 0.1119849 -0.02580133
0.93853125 0.09794336 -0.05969296
0.9396796875 0.07411881 -0.08712939
0.940828125 0.0428849 -0.1056832
0.9419765625 0.00784331 -0.1133982
0.943125 -0.02759751 -0.1098792
0.9442734375 -0.06010014 -0.09546921
0.945421875 -0.08632129 -0.07218184
0.9465703125 -0.1041746 -0.04188756
0.94771875 -0.1118243 -0.007837132
0.9488671875 -0.1088359 0.02689851
0.950015625 -0.09528734 0.05910173
0.9511640625 -0.07257 0.08556235
0.9523125 -0.04282818 0.1040494
0.9534609375 -0.008660781 0.1123853
0.954609375 0.02649684 0.1098843
0.9557578125 0.05946119 0.09654654
0.95690625 0.08667482 0.07358998
0.9580546875 0.1055704 0.04315746
0.959203125 0.1140743 0.008014776
0.9603515625 0.1111682 -0.02787093
0.9615 0.09709119 -0.06117323
0.9626484375 0.07318787 -0.08860049
0.963796875 0.04197545 -0.1069693
0.9649453125 0.006517513 -0.1147357
0.96609375 -0.0293066 -0.1111272
0.9672421875 -0.06240997 -0.09638855
0.968390625 -0.08904785 -0.07247665
0.9695390625 -0.1071648 -0.04144331
0.9706875 -0.1148139 -0.006515506
0.9718359375 -0.1114185 0.02913819
0.972984375 -0.09737258 0.06208503
0.9741328125 -0.07396492 0.08940075
0.97528125 -0.04327149 0.1084118
0.9764296875 -0.007946724 0.1172745
0.977578125 0.0287996 0.1148482
0.9787265625 0.06349823 0.1014182
0.979875 0.09274111 0.0775969
0.9810234375 0.113684 0.04539273
0.982171875 0.12374 0.007641106
