# GHZ S RI R 50.0
0.3 -0.5453418 -3.094468
0.3011484375 -2.08543 -2.706183
0.302296875 -3.315123 -1.423088
0.3034453125 -3.61786 0.4363463
0.30459375 -2.798186 2.096702
0.3057421875 -1.341344 2.913678
0.306890625 0.08152816 2.857888
0.3080390625 1.098171 2.269935
0.3091875 1.652241 1.489688
0.3103359375 1.843258 0.7204027
0.311484375 1.779599 0.05611743
0.3126328125 1.551191 -0.4726619
0.31378125 1.223106 -0.861098
0.3149296875 0.8405157 -1.115794
0.316078125 0.4369139 -1.243134
0.3172265625 0.03806711 -1.254866
0.318375 -0.3316079 -1.159489
0.3195234375 -0.6485798 -0.9684563
0.320671875 -0.8897022 -0.6982052
0.3218203125 -1.033876 -0.3729423
0.32296875 -1.066671 -0.02544501
0.3241171875 -0.987782 0.3059836
0.325265625 -0.8087325 0.5842687
0.3264140625 -0.5587415 0.7795285
0.3275625 -0.2731129 0.877187
0.3287109375 0.01082323 0.8773388
0.329859375 0.2633356 0.7946341
0.3310078125 0.4661771 0.6501647
0.33215625 0.6068218 0.465342
0.3333046875 0.6860918 0.2630275
0.334453125 0.7071085 0.05859006
0.3356015625 0.6753995 -0.1347336
0.33675 0.5992369 -0.3060792
0.3378984375 0.4860988 -0.4495946
0.339046875 0.343183 -0.5586858
0.3401953125 0.1786624 -0.6293178
0.34134375 0.00110941 -0.6565464
0.3424921875 -0.181372 -0.6380589
0.343640625 -0.3566732 -0.5715315
0.3447890625 -0.5138423 -0.4564782
0.3459375 -0.6381342 -0.2960571
0.3470859375 -0.7145303 -0.09824985
0.348234375 -0.7298187 0.1228896
0.3493828125 -0.6738406 0.3469411
0.35053125 -0.5454288 0.5493801
0.3516796875 -0.353675 0.7044331
0.352828125 -0.11858 0.7894355
0.3539765625 0.1336921 0.7949184
0.355125 0.374385 0.7192203
0.3562734375 0.5786309 0.5731721
0.357421875 0.7276087 0.3749737
0.3585703125 0.8121064 0.1435077
0.35971875 0.826853 -0.1011074
0.3608671875 0.7744733 -0.3406905
0.362015625 0.6588775 -0.559719
0.3631640625 0.4862087 -0.7456107
0.3643125 0.264172 -0.8847176
0.3654609375 0.002603929 -0.9660333
0.366609375 -0.2898138 -0.9779522
0.3677578125 -0.5991158 -0.9079955
0.36890625 -0.9055467 -0.7430907
0.3700546875 -1.183928 -0.4710953
0.371203125 -1.397014 -0.08583456
0.3723515625 -1.496593 0.4125975
0.3735 -1.418547 1.003945
0.3746484375 -1.091288 1.628157
0.375796875 -0.4437188 2.177696
0.3769453125 0.544275 2.46398
0.37809375 1.770677 2.227244
0.3792421875 2.889529 1.241239
0.380390625 3.318644 -0.4058675
0.3815390625 2.637312 -2.088248
0.3826875 1.130342 -2.978929
0.3838359375 -0.4185365 -2.84599
0.384984375 -1.455406 -2.066255
0.3861328125 -1.898461 -1.10864
0.38728125 -1.895678 -0.2539137
0.3884296875 -1.62943 0.3928459
0.389578125 -1.235529 0.8186598
0.3907265625 -0.803914 1.052935
0.391875 -0.3873422 1.133461
0.3930234375 -0.01790637 1.094503
0.394171875 0.2904143 0.968995
0.3953203125 0.5297483 0.7811363
0.39646875 0.6951112 0.5544716
0.3976171875 0.7871642 0.3066621
0.398765625 0.8071684 0.0549542
0.3999140625 0.7577413 -0.1823872
0.4010625 0.6461807 -0.390763
0.4022109375 0.4813091 -0.5542751
0.403359375 0.2784344 -0.659016
0.4045078125 0.05641526 -0.6954221
0.40565625 -0.1627548 -0.6603399
0.4068046875 -0.3543855 -0.5590355
0.407953125 -0.4996207 -0.4049585
0.4091015625 -0.5839496 -0.2178376
0.41025 -0.6025389 -0.0207568
0.4113984375 -0.5591704 0.1637736
0.412546875 -0.4648966 0.3179498
0.4136953125 -0.3338244 0.4306996
0.41484375 -0.1824504 0.4966279
0.4159921875 -0.02444297 0.5144292
0.417140625 0.1266708 0.4880457
0.4182890625 0.2600333 0.4222578
0.4194375 0.3684331 0.3242896
0.4205859375 0.4453846 0.2015974
0.421734375 0.4864358 0.0621061
0.4228828125 0.4879512 -0.08418389
0.42403125 0.4488832 -0.2292382
0.4251796875 0.3683863 -0.3609549
0.426328125 0.2489579 -0.4698978
0.4274765625 0.09559942 -0.5434131
0.428625 -0.0822762 -0.5697244
0.4297734375 -0.2722668 -0.5391362
0.430921875 -0.4560736 -0.4442924
0.4320703125 -0.6106888 -0.2851901
0.43321875 -0.71339 -0.06662807
0.4343671875 -0.7394176 0.192333
0.435515625 -0.6717188 0.4682076
0.4366640625 -0.4994471 0.7273342
0.4378125 -0.2253054 0.9313561
0.4389609375 0.1413787 1.040546
0.440109375 0.575593 1.011942
0.4412578125 1.038193 0.7994374
0.44240625 1.458821 0.350797
0.4435546875 1.701765 -0.3818231
0.444703125 1.514782 -1.363585
0.4458515625 0.5792319 -2.247384
0.447 -0.9425102 -2.254506
0.4481484375 -1.988991 -1.154551
0.449296875 -1.994684 0.1154866
0.4504453125 -1.427245 0.9070936
0.45159375 -0.7580702 1.225571
0.4527421875 -0.1770181 1.237599
0.453890625 0.2681992 1.072428
0.4550390625 0.5761338 0.8124498
0.4561875 0.7564051 0.5085441
0.4573359375 0.8215988 0.1973924
0.458484375 0.7859899 -0.09259499
0.4596328125 0.6667736 -0.3372292
0.46078125 0.4859844 -0.5168704
0.4619296875 0.268694 -0.6214454
0.463078125 0.04132565 -0.6467115
0.4642265625 -0.1707522 -0.5980542
0.465375 -0.3459165 -0.4880041
0.4665234375 -0.4693063 -0.3351614
0.467671875 -0.5339504 -0.1596665
0.4688203125 -0.5400021 0.01850794
0.46996875 -0.4929494 0.1824327
0.4711171875 -0.4025576 0.3188905
0.472265625 -0.2802373 0.4194192
0.4734140625 -0.1385905 0.4780519
0.4745625 0.01122208 0.4941497
0.4757109375 0.1578091 0.4679139
0.476859375 0.2909144 0.4021591
0.4780078125 0.4013625 0.3011604
0.47915625 0.4803315 0.1718314
0.4803046875 0.5212343 0.02209972
0.481453125 0.5178677 -0.137979
0.4826015625 0.4678083 -0.2960967
0.48375 0.3694328 -0.4391084
0.4848984375 0.2270035 -0.5520455
0.486046875 0.04790615 -0.620972
0.4871953125 -0.1531128 -0.6331952
0.48834375 -0.3595189 -0.5801526
0.4894921875 -0.5493509 -0.4591908
0.490640625 -0.7000598 -0.2757225
0.4917890625 -0.7902533 -0.0407677
0.4929375 -0.8033566 0.222602
0.4940859375 -0.7302257 0.4930128
0.495234375 -0.5669095 0.7427139
0.4963828125 -0.3212959 0.9425994
0.49753125 -0.002726097 1.067679
0.4986796875 0.3692021 1.092396
0.499828125 0.7703272 0.9936711
0.5009765625 1.16348 0.7491429
0.502125 1.503883 0.338416
0.5032734375 1.718781 -0.249935
0.504421875 1.704496 -1.005321
0.5055703125 1.314051 -1.850636
0.50671875 0.4062822 -2.562574
0.5078671875 -0.9968851 -2.720433
0.509015625 -2.408882 -1.915359
0.5101640625 -3.034187 -0.3443022
0.5113125 -2.602281 1.160543
0.5124609375 -1.572574 2.023381
0.513609375 -0.4779065 2.223707
0.5147578125 0.4055386 1.976236
0.51590625 1.003924 1.493408
0.5170546875 1.3272 0.9235638
0.518203125 1.41714 0.3626249
0.5193515625 1.326139 -0.1279109
0.5205 1.106777 -0.5137801
0.5216484375 0.8117003 -0.7778728
0.522796875 0.4832777 -0.9215387
0.5239453125 0.1595213 -0.9549555
0.52509375 -0.132127 -0.8961048
0.5262421875 -0.3728665 -0.7654423
0.527390625 -0.5520986 -0.5853988
0.5285390625 -0.665209 -0.3768169
0.5296875 -0.7128436 -0.1589052
0.5308359375 -0.6995223 0.05246317
0.531984375 -0.6320435 0.2432496
0.5331328125 -0.519771 0.402438
0.53428125 -0.3727492 0.5217008
0.5354296875 -0.2027947 0.5946847
0.536578125 -0.02264422 0.6178516
0.5377265625 0.1550038 0.5904547
0.538875 0.3169073 0.5149407
0.5400234375 0.4505382 0.3969844
0.541171875 0.5446889 0.2456412
0.5423203125 0.5909221 0.07361177
0.54346875 0.5846004 -0.1048133
0.5446171875 0.5257438 -0.2735451
0.545765625 0.4194735 -0.4171476
0.5469140625 0.2754024 -0.5223598
0.5480625 0.1073841 -0.5799874
0.5492109375 -0.06999479 -0.5850191
0.550359375 -0.2393773 -0.538335
0.5515078125 -0.3881885 -0.4444793
0.55265625 -0.5026309 -0.3129127
0.5538046875 -0.5756422 -0.153683
0.554953125 -0.6012948 0.02008914
0.5561015625 -0.577209 0.1955606
0.55725 -0.5045246 0.3598167
0.5583984375 -0.3873397 0.5006744
0.559546875 -0.2318008 0.6066707
0.5606953125 -0.04705908 0.6676244
0.56184375 0.1552173 0.6756556
0.5629921875 0.360932 0.6242518
0.564140625 0.5540765 0.5111985
0.5652890625 0.7156186 0.3378157
0.5664375 0.8273373 0.110722
0.5675859375 0.8695623 -0.1574822
0.568734375 0.8262951 -0.4473153
0.5698828125 0.6860313 -0.7320912
0.57103125 0.4445674 -0.9794017
0.5721796875 0.1082316 -1.153211
0.573328125 -0.3051289 -1.216425
0.5744765625 -0.7625654 -1.131878
0.575625 -1.216442 -0.8705788
0.5767734375 -1.59891 -0.4108428
0.577921875 -1.818614 0.2488055
0.5790703125 -1.750885 1.066842
0.58021875 -1.254603 1.913219
0.5813671875 -0.2476074 2.505744
0.582515625 1.09667 2.443852
0.5836640625 2.215934 1.538731
0.5848125 2.548906 0.1849721
0.5859609375 2.101845 -0.9630652
0.587109375 1.286985 -1.58728
0.5882578125 0.4600965 -1.735274
0.58940625 -0.21069 -1.569655
0.5905546875 -0.6812081 -1.234317
0.591703125 -0.9605566 -0.8266044
0.5928515625 -1.074568 -0.4111255
0.594 -1.053419 -0.02902371
0.5951484375 -0.9278976 0.2923369
0.596296875 -0.7285324 0.5356986
0.5974453125 -0.4841617 0.692684
0.59859375 -0.2231286 0.7611936
0.5997421875 0.0284036 0.7466732
0.600890625 0.2487122 0.6614985
0.6020390625 0.4211693 0.520898
0.6031875 0.5352887 0.3448967
0.6043359375 0.5869811 0.1536198
0.605484375 0.5787802 -0.03406899
0.6066328125 0.5177162 -0.2016139
0.60778125 0.4146631 -0.3368725
0.6089296875 0.2821786 -0.4312789
0.610078125 0.1340195 -0.4807532
0.6112265625 -0.0167202 -0.4850698
0.612375 -0.1580211 -0.4469863
0.6135234375 -0.279711 -0.3717636
0.614671875 -0.3728272 -0.2664595
0.6158203125 -0.4316214 -0.1403846
0.61696875 -0.4514872 -0.003350965
0.6181171875 -0.4308081 0.1338727
0.619265625 -0.3707844 0.259967
0.6204140625 -0.2750083 0.3644305
0.6215625 -0.150172 0.4367909
0.6227109375 -0.006182743 0.4689067
0.623859375 0.1444017 0.4551466
0.6250078125 0.2876878 0.3941256
0.62615625 0.4084328 0.2881067
0.6273046875 0.4925877 0.1449315
0.628453125 0.5287255 -0.02316755
0.6296015625 0.5089542 -0.200765
0.63075 0.4308361 -0.3694718
0.6318984375 0.2975065 -0.5114965
0.633046875 0.1177257 -0.6087726
0.6341953125 -0.09612285 -0.6470048
0.63534375 -0.3257512 -0.6137982
0.6364921875 -0.5508841 -0.5019047
0.637640625 -0.7469529 -0.3072206
0.6387890625 -0.8858637 -0.03028767
0.6399375 -0.9322485 0.3222119
0.6410859375 -0.8415658 0.7309067
0.642234375 -0.5559438 1.152714
0.6433828125 -0.01359834 1.489737
0.64453125 0.805294 1.544845
0.6456796875 1.716033 1.022424
0.646828125 2.151653 -0.1605286
0.6479765625 1.618976 -1.372328
0.649125 0.5275805 -1.848425
0.6502734375 -0.4112511 -1.622035
0.651421875 -0.9513898 -1.08712
0.6525703125 -1.146813 -0.5154465
0.65371875 -1.10816 -0.02321053
0.6548671875 -0.9259292 0.3496228
0.656015625 -0.6671813 0.5960703
0.6571640625 -0.3803815 0.7235515
0.6583125 -0.1007511 0.7467087
0.6594609375 0.1452579 0.6846426
0.660609375 0.34055 0.5597434
0.6617578125 0.4754778 0.3939823
0.66290625 0.547025 0.2082338
0.6640546875 0.5577898 0.02195628
0.665203125 0.5142262 -0.1487908
0.6663515625 0.4263909 -0.2912601
0.6675 0.3052676 -0.3965942
0.6686484375 0.163955 -0.4594676
0.669796875 0.01487475 -0.4774241
0.6709453125 -0.1295915 -0.4519509
0.67209375 -0.2583242 -0.3865232
0.6732421875 -0.3612992 -0.2874827
0.674390625 -0.4303548 -0.163179
0.6755390625 -0.4598993 -0.02385373
0.6766875 -0.4467068 0.118156
0.6778359375 -0.3917097 0.250836
0.678984375 -0.2982742 0.3619841
0.6801328125 -0.1740323 0.4407703
0.68128125 -0.03024337 0.4786947
0.6824296875 0.1205017 0.4711646
0.683578125 0.263611 0.4169647
0.6847265625 0.3854091 0.3205265
0.685875 0.4735976 0.1896511
0.6870234375 0.5189623 0.03564482
0.688171875 0.5154921 -0.1273256
0.6893203125 0.4626476 -0.2853313
0.69046875 0.3631949 -0.4234206
0.6916171875 0.2235488 -0.5287712
0.692765625 0.05424419 -0.5907614
0.6939140625 -0.1320385 -0.6007555
0.6950625 -0.3211976 -0.5547211
0.6962109375 -0.4968382 -0.450691
0.697359375 -0.6429949 -0.2918821
0.6985078125 -0.7424662 -0.08432101
0.69965625 -0.778517 0.1603175
0.7008046875 -0.7370746 0.4249121
0.701953125 -0.6057872 0.6872693
0.7031015625 -0.3785979 0.9181099
0.70425 -0.05604606 1.081751
0.7053984375 0.3483774 1.136111
0.706546875 0.8030928 1.037076
0.7076953125 1.251545 0.7415321
0.70884375 1.601638 0.2244866
0.7099921875 1.725138 -0.496472
0.711140625 1.475764 -1.313297
0.7122890625 0.7719454 -1.986588
0.7134375 -0.2785303 -2.209604
0.7145859375 -1.3163 -1.805269
0.715734375 -1.939423 -0.9243886
0.7168828125 -1.998659 0.05865012
0.71803125 -1.622276 0.8338388
0.7191796875 -1.036222 1.282932
0.720328125 -0.4214809 1.428898
0.7214765625 0.1154465 1.345819
0.722625 0.5270254 1.112949
0.7237734375 0.8009361 0.7984791
0.724921875 0.9426049 0.4536408
0.7260703125 0.9670328 0.1173303
0.72721875 0.8947918 -0.1831862
0.7283671875 0.7473942 -0.4284628
0.729515625 0.5478801 -0.6067574
0.7306640625 0.3184806 -0.7117538
0.7318125 0.08101778 -0.7425306
0.7329609375 -0.1450612 -0.7038498
0.734109375 -0.3403306 -0.6040797
0.7352578125 -0.491909 -0.4561621
0.73640625 -0.5893155 -0.2758934
0.7375546875 -0.6270931 -0.08090049
0.738703125 -0.6057355 0.1099683
0.7398515625 -0.5305969 0.2810704
0.741 -0.4111462 0.4180507
0.7421484375 -0.2606149 0.5109469
0.743296875 -0.09387986 0.5543529
0.7444453125 0.0745699 0.5472345
0.74559375 0.2296219 0.4924702
0.7467421875 0.3598789 0.3972132
0.747890625 0.456046 0.270634
0.7490390625 0.4915901 0.1187397
0.7501875 0.5023673 -0.03067199
0.7513359375 0.4710065 -0.1762056
0.752484375 0.3998935 -0.3071988
0.7536328125 0.2937675 -0.4131816
0.75478125 0.1609104 -0.4859608
0.7559296875 0.01079271 -0.5183684
0.757078125 -0.1455186 -0.5063341
0.7582265625 -0.2952862 -0.4487047
0.759375 -0.4253306 -0.3470626
0.7605234375 -0.5228211 -0.2079821
0.761671875 -0.5771228 -0.04094703
0.7628203125 -0.5792695 0.1413853
0.76396875 -0.5248734 0.3232567
0.7651171875 -0.4134525 0.4867797
0.766265625 -0.2504902 0.6139621
0.7674140625 -0.04696397 0.6891499
0.7685625 0.180941 0.6988369
0.7697109375 0.4136055 0.6343488
0.770859375 0.6272778 0.492234
0.7720078125 0.7974537 0.2766596
0.77315625 0.8983775 -0.002788909
0.7743046875 0.9044858 -0.3264112
0.775453125 0.793874 -0.6659412
0.7766015625 0.547762 -0.9801276
0.77775 0.1610038 -1.213109
0.7788984375 -0.3504366 -1.291518
0.780046875 -0.9239352 -1.131207
0.7811953125 -1.429862 -0.6730374
0.78234375 -1.676096 0.05506281
0.7834921875 -1.492813 0.8645742
0.784640625 -0.888844 1.458339
0.7857890625 -0.09410314 1.626139
0.7869375 0.6040204 1.384606
0.7880859375 1.040556 0.9038789
0.789234375 1.194239 0.3621985
0.7903828125 1.122486 -0.1193755
0.79153125 0.9028309 -0.4820397
0.7926796875 0.6064441 -0.7070287
0.793828125 0.2906179 -0.8010588
0.7949765625 -0.003879028 -0.7831725
0.796125 -0.2486755 -0.6790509
0.7972734375 -0.4280344 -0.5170344
0.798421875 -0.5353742 -0.3237613
0.7995703125 -0.572919 -0.1235154
0.80071875 -0.5476344 0.06358944
0.8018671875 -0.4715069 0.2220247
0.803015625 -0.357939 0.3417213
0.8041640625 -0.221704 0.4170332
0.8053125 -0.07668451 0.4462093
0.8064609375 0.06403842 0.431548
0.807609375 0.1887243 0.3777479
0.8087578125 0.2888976 0.2920935
0.80990625 0.3568404 0.1835893
0.8110546875 0.3891126 0.0621363
0.812203125 0.3834118 -0.06164064
0.8133515625 0.3414237 -0.1768437
0.8145 0.2667996 -0.2736628
0.8156484375 0.1661697 -0.3429962
0.816796875 0.04857911 -0.3784753
0.8179453125 -0.07487228 -0.3757479
0.81909375 -0.1924171 -0.3342514
0.8202421875 -0.2926237 -0.2570757
0.821390625 -0.3646065 -0.1507611
0.8225390625 -0.4000687 -0.02515213
0.8236875 -0.3941168 0.1079578
0.8248359375 -0.3452519 0.2356034
0.825984375 -0.2564111 0.3442847
0.8271328125 -0.1341091 0.4224081
0.82828125 0.01179837 0.4596932
0.8294296875 0.169168 0.4488879
0.830578125 0.3237511 0.3865386
0.8317265625 0.4595013 0.2716003
0.832875 0.5593826 0.1077081
0.8340234375 0.6060233 -0.09694539
0.835171875 0.5811029 -0.3291374
0.8363203125 0.4665284 -0.5668356
0.83746875 0.2468685 -0.777433
0.8386171875 -0.08471766 -0.911518
0.839765625 -0.5128518 -0.8977523
0.8409140625 -0.9685391 -0.6517764
0.8420625 -1.296718 -0.1202982
0.8432109375 -1.26759 0.6051376
0.844359375 -0.768251 1.213418
0.8455078125 -0.01224302 1.383514
0.84665625 0.6287125 1.106029
0.8478046875 0.9607035 0.6131995
0.848953125 1.005247 0.1203235
0.8501015625 0.8602052 -0.2662504
0.85125 0.6186035 -0.5170985
0.8523984375 0.3460878 -0.6387456
0.853546875 0.08685257 -0.6545622
0.8546953125 -0.1327961 -0.5897263
0.85584375 -0.2992808 -0.4705798
0.8569921875 -0.4069226 -0.3207184
0.858140625 -0.4574271 -0.1598041
0.8592890625 -0.4560921 -0.004416918
0.8604375 -0.4109275 0.13254
0.8615859375 -0.3323716 0.2424486
0.862734375 -0.2305693 0.3194699
0.8638828125 -0.1163744 0.3609854
0.86503125 -0.0003192752 0.3669309
0.8661796875 0.1087055 0.3400193
0.867328125 0.2020512 0.2837216
0.8684765625 0.2733471 0.204941
0.869625 0.3175376 0.1103895
0.8707734375 0.3317235 0.008588714
0.871921875 0.3152075 -0.09191383
0.8730703125 0.2704247 -0.182158
0.87421875 0.2006366 -0.2546069
0.8753671875 0.1129358 -0.3024639
0.876515625 0.01521158 -0.3217597
0.8776640625 -0.08367847 -0.3105496
0.8788125 -0.1744033 -0.2701684
0.8799609375 -0.2485478 -0.2046506
0.881109375 -0.2997791 -0.1196411
0.8822578125 -0.3232063 -0.02334883
0.88340625 -0.316954 0.0756197
0.8845546875 -0.2817409 0.1686333
0.885703125 -0.2203812 0.2477272
0.8868515625 -0.1379479 0.3060119
0.888 -0.04112371 0.3383671
0.8891484375 0.06237781 0.3414817
0.890296875 0.1646173 0.3142987
0.8914453125 0.2570264 0.2575563
0.89259375 0.3316046 0.1742199
0.8937421875 0.3807673 0.06968736
0.894890625 0.3986425 -0.04953841
0.8960390625 0.3803035 -0.1741684
0.8971875 0.3236957 -0.2940672
0.8983359375 0.2291112 -0.3976399
0.899484375 0.1005658 -0.4728723
0.9006328125 -0.05455979 -0.5082269
0.90178125 -0.2248728 -0.4939364
0.9029296875 -0.3946519 -0.4227303
0.904078125 -0.5452893 -0.2919024
0.9052265625 -0.6562164 -0.1045491
0.906375 -0.7055084 0.1294685
0.9075234375 -0.6718875 0.392061
0.908671875 -0.53752 0.6549447
0.9098203125 -0.2923034 0.880154
0.91096875 0.06089783 1.017816
0.9121171875 0.4970655 1.007406
0.913265625 0.9505399 0.7871376
0.9144140625 1.30301 0.3265206
0.9155625 1.397252 -0.3215188
0.9167109375 1.117401 -0.9734291
0.917859375 0.5166638 -1.379523
0.9190078125 -0.1791386 -1.398269
0.92015625 -0.7302867 -1.08907
0.9213046875 -1.02642 -0.6200631
0.922453125 -1.080105 -0.1440361
0.9236015625 -0.9578755 0.2513219
0.92475 -0.7304676 0.5317858
0.9258984375 -0.4560468 0.6920958
0.927046875 -0.1774302 0.7438333
0.9281953125 0.07584921 0.7060689
0.92934375 0.2838039 0.5991645
0.9304921875 0.4340014 0.4451222
0.931640625 0.5219558 0.2661669
0.9327890625 0.5482973 0.08175384
0.9339375 0.5183976 -0.09050322
0.9350859375 0.4420756 -0.2364987
0.936234375 0.3309129 -0.3461044
0.9373828125 0.1991522 -0.4131535
0.93853125 0.0603533 -0.4362407
0.9396796875 -0.07277209 -0.4178658
0.940828125 -0.1894177 -0.3632962
0.9419765625 -0.2811457 -0.2802969
0.943125 -0.3422098 -0.1778983
0.9442734375 -0.3699997 -0.06588445
0.945421875 -0.3644751 0.04630515
0.9465703125 -0.328055 0.1496014
0.94771875 -0.2648078 0.2362331
0.9488671875 -0.1806393 0.3002594
0.950015625 -0.08270919 0.3371049
0.9511640625 0.02100502 0.3442411
0.9523125 0.1220289 0.3215869
0.9534609375 0.2122285 0.2706158
0.954609375 0.2840445 0.1952029
0.9557578125 0.3308009 0.101435
0.95690625 0.3482401 -0.002990266
0.9580546875 0.3338899 -0.1089358
0.959203125 0.2880069 -0.2071367
0.9603515625 0.2139886 -0.2883075
0.9615 0.1174576 -0.3444808
0.9626484375 0.006746103 -0.3694766
0.963796875 -0.1083992 -0.3598036
0.9649453125 -0.2172045 -0.315341
0.96609375 -0.3099115 -0.2386756
0.9672421875 -0.3771667 -0.1354138
0.968390625 -0.4114585 -0.01353343
0.9695390625 -0.4081666 0.1169773
0.9706875 -0.3645546 0.2452928
0.9718359375 -0.2818798 0.3596926
0.972984375 -0.1632345 0.4489875
0.9741328125 -0.01547954 0.5016555
0.97528125 0.1518965 0.5084068
0.9764296875 0.325985 0.4610472
0.977578125 0.4909794 0.3542005
0.9787265625 0.6268973 0.185475
0.979875 0.7102813 -0.04139794
0.9810234375 0.7140177 -0.3147553
0.982171875 0.6091939 -0.6110138
0.9833203125 0.3679748 -0.8864769
0.98446875 -0.02240801 -1.071013
0.9856171875 -0.534119 -1.065737
0.986765625 -1.05939 -0.7701917
0.9879140625 -1.38819 -0.166378
0.9890625 -1.308626 0.5696861
0.9902109375 -0.8162439 1.119523
0.991359375 -0.1559731 1.279171
0.9925078125 0.4059217 1.092633
0.99365625 0.7470448 0.7256045
0.9948046875 0.8705217 0.322354
0.995953125 0.8291955 -0.03212357
0.9971015625 0.6836532 -0.3008265
0.99825 0.4831053 -0.4745027
0.9993984375 0.2655545 -0.5588359
1.000546875 0.05709551 -0.5668572
