# GHZ S RI R 50.0
0.3 -3.401216 0.02397141
0.3011484375 -2.721048 1.379657
0.302296875 -1.681158 2.110832
0.3034453125 -0.6444036 2.287717
0.30459375 0.2047824 2.088359
0.3057421875 0.8091419 1.678614
0.306890625 1.174802 1.184324
0.3080390625 1.345722 0.6838626
0.3091875 1.361068 0.2223798
0.3103359375 1.261547 -0.1753288
0.311484375 1.079216 -0.4983731
0.3126328125 0.839919 -0.7423385
0.31378125 0.5663505 -0.9050735
0.3149296875 0.2734346 -0.9888368
0.316078125 -0.01963568 -0.9935356
0.3172265625 -0.2986905 -0.9226906
0.318375 -0.5451726 -0.7807869
0.3195234375 -0.74316 -0.5745893
0.320671875 -0.8715211 -0.3191448
0.3218203125 -0.9169245 -0.03563031
0.32296875 -0.8703889 0.2487871
0.3241171875 -0.7350644 0.5016449
0.325265625 -0.5270522 0.6932101
0.3264140625 -0.2742005 0.8025386
0.3275625 -0.008957137 0.8224217
0.3287109375 0.2367356 0.7588181
0.329859375 0.4399613 0.6291388
0.3310078125 0.5858493 0.4540573
0.33215625 0.6698065 0.2550304
0.3333046875 0.693944 0.05185109
0.334453125 0.6639665 -0.1417161
0.3356015625 0.5869005 -0.3146873
0.33675 0.4719975 -0.4575329
0.3378984375 0.3270663 -0.5658312
0.339046875 0.1595771 -0.6347446
0.3401953125 -0.02020329 -0.6594911
0.34134375 -0.204621 -0.6378525
0.3424921875 -0.3830316 -0.5674349
0.343640625 -0.5427759 -0.4477098
0.3447890625 -0.6705801 -0.2809514
0.3459375 -0.7504167 -0.07337179
0.3470859375 -0.7667677 0.1615959
0.348234375 -0.7082404 0.4055142
0.3493828125 -0.5678369 0.6316296
0.35053125 -0.3501582 0.8101826
0.3516796875 -0.07283391 0.9119577
0.352828125 0.2350282 0.9157135
0.3539765625 0.5370262 0.8136041
0.355125 0.7946243 0.6127292
0.3562734375 0.9787817 0.3327771
0.357421875 1.068658 -0.00115344
0.3585703125 1.050407 -0.3590031
0.35971875 0.9186279 -0.7094081
0.3608671875 0.6734861 -1.022427
0.362015625 0.3191558 -1.264479
0.3631640625 -0.1359458 -1.398004
0.3643125 -0.6714646 -1.375344
0.3654609375 -1.24378 -1.136787
0.366609375 -1.762529 -0.6205353
0.3677578125 -2.061885 0.2008811
0.36890625 -1.904437 1.223523
0.3700546875 -1.129572 2.110814
0.371203125 0.0859607 2.41152
0.3723515625 1.223834 1.963604
0.3735 1.858321 1.052763
0.3746484375 1.928038 0.09180631
0.375796875 1.598953 -0.6630703
0.3769453125 1.065911 -1.125713
0.37809375 0.4831187 -1.304833
0.3792421875 -0.04560132 -1.251476
0.380390625 -0.458521 -1.032993
0.3815390625 -0.7273812 -0.7193624
0.3826875 -0.8486289 -0.3753355
0.3838359375 -0.8431761 -0.05049585
0.384984375 -0.740548 0.2203295
0.3861328125 -0.5734562 0.4189978
0.38728125 -0.3729844 0.5414234
0.3884296875 -0.1646646 0.5902873
0.389578125 0.03155758 0.5746958
0.3907265625 0.2019696 0.5066953
0.391875 0.3367574 0.3983222
0.3930234375 0.4298096 0.2620389
0.394171875 0.4782506 0.1095613
0.3953203125 0.4804198 -0.04737214
0.39646875 0.4372275 -0.1973379
0.3976171875 0.3508887 -0.3291901
0.398765625 0.2266709 -0.4313621
0.3999140625 0.07226358 -0.4917194
0.4010625 -0.1004602 -0.501348
0.4022109375 -0.2755103 -0.4520842
0.403359375 -0.4327568 -0.3416659
0.4045078125 -0.5496889 -0.174108
0.40565625 -0.6046051 0.0350477
0.4068046875 -0.5805637 0.264699
0.407953125 -0.4703031 0.4836282
0.4091015625 -0.2768843 0.6600044
0.41025 -0.01655155 0.7627335
0.4113984375 0.2848138 0.7671298
0.412546875 0.5926143 0.657319
0.4136953125 0.8689148 0.4244252
0.41484375 1.066882 0.0685519
0.4159921875 1.129945 -0.3985353
0.417140625 0.9831885 -0.9398055
0.4182890625 0.537899 -1.460751
0.4194375 -0.2568824 -1.755713
0.4205859375 -1.255016 -1.512992
0.421734375 -1.963277 -0.6011652
0.4228828125 -1.913117 0.5523136
0.42403125 -1.245274 1.334575
0.4251796875 -0.4225308 1.573411
0.426328125 0.2594157 1.424998
0.4274765625 0.7228233 1.078093
0.428625 0.9755501 0.6572598
0.4297734375 1.051924 0.2353702
0.430921875 0.9877771 -0.1415378
0.4320703125 0.8180046 -0.4442928
0.43321875 0.5779465 -0.6549846
0.4343671875 0.3027746 -0.7654933
0.435515625 0.02682384 -0.7777897
0.4366640625 -0.2199972 -0.703677
0.4378125 -0.4156492 -0.5626121
0.4389609375 -0.5463048 -0.3788773
0.440109375 -0.6077849 -0.1773553
0.4412578125 -0.6041947 0.01991252
0.44240625 -0.5451764 0.1956005
0.4435546875 -0.4429944 0.3377064
0.444703125 -0.31172 0.438908
0.4458515625 -0.1640064 0.4962985
0.447 -0.01225653 0.5102506
0.4481484375 0.1330786 0.4830611
0.449296875 0.2633048 0.4188229
0.4504453125 0.369422 0.3234736
0.45159375 0.4457162 0.203219
0.4527421875 0.4868412 0.06649271
0.453890625 0.4889719 -0.07826013
0.4550390625 0.4494148 -0.2200025
0.4561875 0.3699529 -0.3477536
0.4573359375 0.2535031 -0.4498659
0.458484375 0.10844 -0.5139354
0.4596328125 -0.05384907 -0.531956
0.46078125 -0.2177771 -0.4985115
0.4619296875 -0.3666278 -0.4139085
0.463078125 -0.4832012 -0.2845607
0.4642265625 -0.5544161 -0.1231391
0.465375 -0.5721265 0.05404387
0.4665234375 -0.5338382 0.2286472
0.467671875 -0.4440239 0.3837694
0.4688203125 -0.3118504 0.5051606
0.46996875 -0.1494992 0.5826853
0.4711171875 0.02935959 0.6105819
0.472265625 0.210632 0.5869784
0.4734140625 0.3815847 0.5127582
0.4745625 0.530054 0.3912986
0.4757109375 0.6430725 0.2297313
0.476859375 0.7115201 0.03496835
0.4780078125 0.7252989 -0.1826165
0.47915625 0.6758822 -0.4094962
0.4803046875 0.5571093 -0.6295599
0.481453125 0.3658829 -0.8232195
0.4826015625 0.1032729 -0.9659692
0.48375 -0.2217121 -1.031061
0.4848984375 -0.5908377 -0.989462
0.486046875 -0.9725044 -0.8132143
0.4871953125 -1.316863 -0.4805441
0.48834375 -1.559344 0.01648242
0.4894921875 -1.614381 0.6575647
0.490640625 -1.385277 1.379343
0.4917890625 -0.7828779 2.048164
0.4929375 0.2097418 2.432005
0.4940859375 1.442381 2.241741
0.495234375 2.485306 1.305998
0.4963828125 2.808682 -0.1263852
0.49753125 2.258132 -1.426819
0.4986796875 1.20886 -2.117756
0.499828125 0.145723 -2.172835
0.5009765625 -0.6616236 -1.814541
0.502125 -1.155756 -1.271195
0.5032734375 -1.373666 -0.692481
0.504421875 -1.381723 -0.1624097
0.5055703125 -1.239573 0.2785899
0.50671875 -0.9979742 0.6126933
0.5078671875 -0.6980942 0.8359481
0.509015625 -0.3761177 0.9492801
0.5101640625 -0.05659493 0.9622968
0.5113125 0.2324515 0.8856989
0.5124609375 0.4736391 0.7346608
0.513609375 0.6507388 0.5280206
0.5147578125 0.7525837 0.2876371
0.51590625 0.7753308 0.03713028
0.5170546875 0.722464 -0.1993274
0.518203125 0.6028697 -0.4006192
0.5193515625 0.4333349 -0.5490626
0.5205 0.2342147 -0.6345845
0.5216484375 0.02667948 -0.6540958
0.522796875 -0.1694349 -0.6114311
0.5239453125 -0.3368583 -0.5158288
0.52509375 -0.4638341 -0.3801044
0.5262421875 -0.5430731 -0.2185842
0.527390625 -0.5714018 -0.04648419
0.5285390625 -0.5503237 0.1222303
0.5296875 -0.4840771 0.2754074
0.5308359375 -0.3785862 0.4026207
0.531984375 -0.2428547 0.4947047
0.5331328125 -0.08665653 0.5454077
0.53428125 0.07899657 0.550339
0.5354296875 0.2418082 0.5076829
0.536578125 0.3888775 0.4183842
0.5377265625 0.5074992 0.2873255
0.538875 0.5854915 0.1217263
0.5400234375 0.6117535 -0.06680137
0.541171875 0.5786297 -0.2628413
0.5423203125 0.483025 -0.4477184
0.54346875 0.3272794 -0.6013495
0.5446171875 0.1206702 -0.7037057
0.545765625 -0.12146 -0.73735
0.5469140625 -0.3757063 -0.689244
0.5480625 -0.6169076 -0.5535136
0.5492109375 -0.8152547 -0.3317312
0.550359375 -0.9405172 -0.03356444
0.5515078125 -0.9617136 0.3214361
0.55265625 -0.8502211 0.7029427
0.5538046875 -0.5789914 1.066274
0.554953125 -0.1274261 1.341632
0.5561015625 0.4955608 1.425309
0.55725 1.214011 1.176493
0.5583984375 1.804887 0.4769512
0.559546875 1.896693 -0.5778851
0.5606953125 1.276304 -1.516212
0.56184375 0.2547893 -1.841729
0.5629921875 -0.6310597 -1.545952
0.564140625 -1.126173 -0.9496047
0.5652890625 -1.25417 -0.3260228
0.5664375 -1.132851 0.1884251
0.5675859375 -0.8678182 0.5499646
0.568734375 -0.5387815 0.7565197
0.5698828125 -0.2030442 0.8232377
0.57103125 0.09955643 0.7738278
0.5721796875 0.3421249 0.6376545
0.573328125 0.5084478 0.444615
0.5744765625 0.5934681 0.225291
0.575625 0.5994397 0.006929543
0.5767734375 0.537585 -0.1878771
0.577921875 0.4226466 -0.3420316
0.5790703125 0.2731245 -0.4451295
0.58021875 0.1074602 -0.4928023
0.5813671875 -0.05765931 -0.4865053
0.582515625 -0.20734 -0.4317829
0.5836640625 -0.330238 -0.3366679
0.5848125 -0.4160292 -0.2118959
0.5859609375 -0.4602577 -0.06852413
0.587109375 -0.4599588 0.08071764
0.5882578125 -0.414989 0.2240033
0.58940625 -0.3283262 0.3491352
0.5905546875 -0.2052232 0.4447099
0.591703125 -0.05558938 0.5004908
0.5928515625 0.1104545 0.5087664
0.594 0.2775487 0.4643939
0.5951484375 0.4299397 0.3660237
0.596296875 0.5505885 0.2173859
0.5974453125 0.6226839 0.02744463
0.59859375 0.6315411 -0.1876734
0.5997421875 0.567266 -0.4090356
0.600890625 0.4258271 -0.6117489
0.6020390625 0.2105238 -0.769957
0.6031875 -0.06612393 -0.8568743
0.6043359375 -0.3838603 -0.8482293
0.605484375 -0.7132022 -0.723277
0.6066328125 -1.015178 -0.4674013
0.60778125 -1.238503 -0.07446928
0.6089296875 -1.316635 0.4477711
0.610078125 -1.163694 1.053323
0.6112265625 -0.6861809 1.640181
0.612375 0.1613812 1.989608
0.6135234375 1.229193 1.802116
0.614671875 2.064206 0.9351647
0.6158203125 2.194771 -0.2708795
0.61696875 1.639287 -1.228088
0.6181171875 0.7994874 -1.659168
0.619265625 0.01553246 -1.639812
0.6204140625 -0.5669972 -1.347169
0.6215625 -0.9253969 -0.9303845
0.6227109375 -1.084884 -0.4854519
0.623859375 -1.08349 -0.07074309
0.6250078125 -0.960439 0.2772131
0.62615625 -0.753495 0.5388213
0.6273046875 -0.4984883 0.7043417
0.628453125 -0.2279347 0.7749406
0.6296015625 0.03080818 0.758561
0.63075 0.2534538 0.6695837
0.6318984375 0.4261022 0.5264724
0.633046875 0.539684 0.3498226
0.6341953125 0.5914795 0.159508
0.63534375 0.5845627 -0.02630061
0.6364921875 0.5267904 -0.1925059
0.637640625 0.428725 -0.3278908
0.6387890625 0.30178 -0.424888
0.6399375 0.1584972 -0.4798608
0.6410859375 0.010885 -0.4917277
0.642234375 -0.1294572 -0.4628405
0.6433828125 -0.2536601 -0.3977258
0.64453125 -0.3529076 -0.302381
0.6456796875 -0.4206322 -0.1845676
0.646828125 -0.4525098 -0.05385531
0.6479765625 -0.4459533 0.08023193
0.649125 -0.4018405 0.206706
0.6502734375 -0.3231281 0.3158162
0.651421875 -0.2158131 0.3978599
0.6525703125 -0.08800566 0.4457187
0.65371875 0.0485644 0.4534421
0.6548671875 0.182695 0.4201504
0.656015625 0.3018011 0.348487
0.6571640625 0.3947444 0.2434859
0.6583125 0.4526994 0.114827
0.6594609375 0.4696783 -0.02624662
0.660609375 0.4444269 -0.1666402
0.6617578125 0.3781742 -0.2944289
0.66290625 0.276793 -0.3983034
0.6640546875 0.1483102 -0.4690072
0.665203125 0.002874827 -0.5000116
0.6663515625 -0.1478294 -0.4878686
0.6675 -0.2919801 -0.4319438
0.6686484375 -0.417407 -0.334868
0.669796875 -0.5132186 -0.2020423
0.6709453125 -0.5690299 -0.04154721
0.67209375 -0.5769277 0.1358317
0.6732421875 -0.5313143 0.316348
0.674390625 -0.4296744 0.4848291
0.6755390625 -0.2737091 0.6241869
0.6766875 -0.0693484 0.7169241
0.6778359375 0.1683493 0.7450888
0.678984375 0.4231333 0.6947505
0.6801328125 0.668413 0.5560086
0.68128125 0.8750515 0.326664
0.6824296875 1.007294 0.01502599
0.683578125 1.030276 -0.3600605
0.6847265625 0.9103921 -0.762345
0.685875 0.6228037 -1.139153
0.6870234375 0.1579325 -1.414099
0.688171875 -0.4570571 -1.492437
0.6893203125 -1.135411 -1.271139
0.69046875 -1.705385 -0.6876031
0.6916171875 -1.92648 0.1892923
0.692765625 -1.629412 1.104526
0.6939140625 -0.8812609 1.71111
0.6950625 0.01362309 1.814861
0.6962109375 0.7514517 1.490711
0.697359375 1.187343 0.9429247
0.6985078125 1.323498 0.3555873
0.69965625 1.23208 -0.1541371
0.7008046875 0.9943273 -0.5386682
0.701953125 0.6791304 -0.7831597
0.7031015625 0.3400105 -0.8940835
0.70425 0.01661767 -0.8880945
0.7053984375 -0.2621173 -0.7877091
0.706546875 -0.4770114 -0.6173245
0.7076953125 -0.6164544 -0.4032812
0.70884375 -0.6772396 -0.1710351
0.7099921875 -0.6625303 0.055272
0.711140625 -0.5819501 0.2543218
0.7122890625 -0.4493986 0.4103994
0.7134375 -0.2826086 0.512324
0.7145859375 -0.1001926 0.5551724
0.715734375 0.07933107 0.5398182
0.7168828125 0.2393403 0.4724799
0.71803125 0.3670773 0.362608
0.7191796875 0.4526054 0.2230742
0.720328125 0.4907728 0.06750202
0.7214765625 0.480338 -0.08961764
0.722625 0.4237182 -0.2341884
0.7237734375 0.3268426 -0.3546132
0.724921875 0.1978234 -0.4401771
0.7260703125 0.04749666 -0.483083
0.72721875 -0.1103874 -0.4784688
0.7283671875 -0.2629381 -0.4247081
0.729515625 -0.39513 -0.3233854
0.7306640625 -0.4926866 -0.1811889
0.7318125 -0.5429216 -0.008163205
0.7329609375 -0.5346227 0.1807343
0.734109375 -0.4615777 0.3675008
0.7352578125 -0.3234048 0.5291634
0.73640625 -0.1257568 0.6436962
0.7375546875 0.1174283 0.6880741
0.738703125 0.3836238 0.6420023
0.7398515625 0.639962 0.4909567
0.741 0.8452119 0.2301433
0.7421484375 0.9492319 -0.1308985
0.743296875 0.8946507 -0.5558896
0.7444453125 0.6292198 -0.974717
0.74559375 0.1324499 -1.265694
0.7467421875 -0.5275576 -1.270015
0.747890625 -1.144894 -0.876687
0.7490390625 -1.386454 -0.1631212
0.7501875 -1.233008 0.5377043
0.7513359375 -0.7632009 0.994164
0.752484375 -0.206286 1.126327
0.7536328125 0.2696446 1.003377
0.75478125 0.5936828 0.7330942
0.7559296875 0.7592897 0.4068517
0.757078125 0.7880844 0.08680464
0.7582265625 0.7109135 -0.1900151
0.759375 0.55899 -0.4016059
0.7605234375 0.3627815 -0.5376343
0.761671875 0.1488033 -0.5967194
0.7628203125 -0.05888991 -0.5839579
0.76396875 -0.2406117 -0.5088982
0.7651171875 -0.381243 -0.3856106
0.766265625 -0.4711926 -0.2311392
0.7674140625 -0.5055071 -0.06279059
0.7685625 -0.4857783 0.1017012
0.7697109375 -0.4178367 0.2467733
0.770859375 -0.3110784 0.360115
0.7720078125 -0.1781389 0.4331585
0.77315625 -0.0325404 0.4614595
0.7743046875 0.1122903 0.4442957
0.775453125 0.2435682 0.3856
0.7766015625 0.3500697 0.290969
0.77775 0.4238659 0.1696715
0.7788984375 0.4584638 0.03166998
0.780046875 0.45114 -0.11151
0.7811953125 0.4014498 -0.2480865
0.78234375 0.3120898 -0.3660685
0.7834921875 0.1888463 -0.4548421
0.784640625 0.04032755 -0.5044658
0.7857890625 -0.1212552 -0.5080863
0.7869375 -0.2833177 -0.4608005
0.7880859375 -0.429602 -0.3624477
0.789234375 -0.5441378 -0.2172369
0.7903828125 -0.6116854 -0.03450393
0.79153125 -0.6197374 0.1714458
0.7926796875 -0.5589948 0.3817218
0.793828125 -0.4260363 0.5737528
0.7949765625 -0.2256922 0.7228415
0.796125 0.03069474 0.805188
0.7972734375 0.3225499 0.7981305
0.798421875 0.6204751 0.6845046
0.7995703125 0.885973 0.4546445
0.80071875 1.072449 0.1109624
0.8018671875 1.123928 -0.32528
0.803015625 0.985954 -0.8026601
0.8041640625 0.617502 -1.228715
0.8053125 0.03299613 -1.471174
0.8064609375 -0.6595298 -1.395879
0.807609375 -1.250499 -0.9545816
0.8087578125 -1.528417 -0.2665502
0.80990625 -1.418309 0.4332148
0.8110546875 -1.016338 0.9415745
0.812203125 -0.4912343 1.177614
0.8133515625 0.01399287 1.167811
0.8145 0.4160699 0.9830115
0.8156484375 0.6833858 0.6996053
0.816796875 0.8151737 0.3789641
0.8179453125 0.827895 0.06918954
0.81909375 0.7441776 -0.198583
0.8202421875 0.5922853 -0.4045316
0.821390625 0.3996517 -0.5388455
0.8225390625 0.1915254 -0.5994244
0.8236875 -0.008973664 -0.5921912
0.8248359375 -0.1847141 -0.528031
0.825984375 -0.3221728 -0.4205711
0.8271328125 -0.4144935 -0.2850606
0.82828125 -0.4592743 -0.1371962
0.8294296875 -0.4580273 0.008438931
0.830578125 -0.4162286 0.1402782
0.8317265625 -0.3416754 0.2490658
0.832875 -0.2433587 0.3279855
0.8340234375 -0.1308363 0.3737238
0.835171875 -0.01406784 0.3847914
0.8363203125 0.09785934 0.3630297
0.83746875 0.1965887 0.3114439
0.8386171875 0.2749436 0.2353702
0.839765625 0.3276138 0.1415487
0.8409140625 0.3508303 0.03748154
0.8420625 0.3429472 -0.06789117
0.8432109375 0.3051399 -0.1661901
0.844359375 0.2401328 -0.2488584
0.8455078125 0.1537083 -0.3086233
0.84665625 0.05344042 -0.3401364
0.8478046875 -0.05199436 -0.3402759
0.848953125 -0.1529917 -0.3087337
0.8501015625 -0.2399188 -0.2480824
0.85125 -0.3047543 -0.1637152
0.8523984375 -0.3412707 -0.06339098
0.853546875 -0.3462058 0.04339273
0.8546953125 -0.3187389 0.1473946
0.85584375 -0.261196 0.2390142
0.8569921875 -0.1785537 0.3101685
0.858140625 -0.0774899 0.354384
0.8592890625 0.03378655 0.3673812
0.8604375 0.1462884 0.346944
0.8615859375 0.2503671 0.2934506
0.862734375 0.3372952 0.2095492
0.8638828125 0.3981461 0.09981555
0.86503125 0.4256103 -0.02822832
0.8661796875 0.413864 -0.165799
0.867328125 0.3585062 -0.3013361
0.8684765625 0.2583764 -0.421733
0.869625 0.1160114 -0.5127847
0.8707734375 -0.06186072 -0.5587143
0.871921875 -0.2634246 -0.5449085
0.8730703125 -0.4699502 -0.4571958
0.87421875 -0.6555517 -0.2865342
0.8753671875 -0.7851511 -0.030867
0.876515625 -0.8158685 0.298028
0.8776640625 -0.6977937 0.6652495
0.8788125 -0.3881111 0.9960923
0.8799609375 0.1156826 1.169842
0.881109375 0.7167801 1.041157
0.8822578125 1.182968 0.5539317
0.88340625 1.277592 -0.1291359
0.8845546875 0.9757245 -0.7031679
0.885703125 0.4767269 -0.9793457
0.8868515625 -0.005490937 -0.969995
0.888 -0.3612305 -0.7806919
0.8891484375 -0.5682079 -0.5133241
0.890296875 -0.6443778 -0.2360001
0.8914453125 -0.6201922 0.01117613
0.89259375 -0.5262744 0.2078343
0.8937421875 -0.3891291 0.3460592
0.894890625 -0.2311073 0.4243963
0.8960390625 -0.07095095 0.4463875
0.8971875 0.07610086 0.419042
0.8983359375 0.1992279 0.3511759
0.899484375 0.289747 0.2538935
0.9006328125 0.3420855 0.1387871
0.90178125 0.3552093 0.01824528
0.9029296875 0.3303633 -0.09593888
0.904078125 0.2724901 -0.1928916
0.9052265625 0.1893654 -0.2644272
0.906375 0.09043168 -0.3048042
0.9075234375 -0.01385273 -0.3113866
0.908671875 -0.1124779 -0.2850938
0.9098203125 -0.1964185 -0.2299634
0.91096875 -0.2576383 -0.1523476
0.9121171875 -0.2910028 -0.06030921
0.913265625 -0.2939084 0.03658399
0.9144140625 -0.266883 0.1291609
0.9155625 -0.2124308 0.208989
0.9167109375 -0.1356817 0.2685202
0.917859375 -0.04322807 0.3020477
0.9190078125 0.05670349 0.3058288
0.92015625 0.1554772 0.2781503
0.9213046875 0.2434757 0.219846
0.922453125 0.3119817 0.1342424
0.9236015625 0.3522391 0.02707276
0.92475 0.357632 -0.09345083
0.9258984375 0.3227327 -0.2163874
0.927046875 0.2460859 -0.3286934
0.9281953125 0.1292341 -0.4168828
0.92934375 -0.02138971 -0.4653539
0.9304921875 -0.1935251 -0.4610712
0.931640625 -0.3698305 -0.3927903
0.9327890625 -0.5267189 -0.254306
0.9339375 -0.635695 -0.04744927
0.9350859375 -0.6638348 0.2139411
0.936234375 -0.5790091 0.5006241
0.9373828125 -0.3575911 0.7596709
0.93853125 -0.0008689289 0.9172171
0.9396796875 0.4399182 0.8877949
0.940828125 0.8473157 0.6161378
0.9419765625 1.064942 0.1431744
0.943125 0.9957319 -0.3777426
0.9442734375 0.676549 -0.7650987
0.945421875 0.2462461 -0.9243847
0.9465703125 -0.1569859 -0.8694939
0.94771875 -0.4545867 -0.6720369
0.9488671875 -0.6228893 -0.4089774
0.950015625 -0.6726848 -0.1375787
0.9511640625 -0.6274908 0.1041763
0.9523125 -0.5144071 0.2947044
0.9534609375 -0.3590315 0.4239572
0.954609375 -0.1851153 0.4901048
0.9557578125 -0.01189803 0.4963688
0.95690625 0.1439759 0.4506065
0.9580546875 0.2698732 0.36311
0.959203125 0.3574613 0.2465576
0.9603515625 0.402209 0.1150763
0.9615 0.403638 -0.01815477
0.9626484375 0.3653289 -0.1399752
0.963796875 0.2940858 -0.2404004
0.9649453125 0.1988854 -0.3117888
0.96609375 0.08992276 -0.3493482
0.9672421875 -0.02165702 -0.3521645
0.968390625 -0.1261992 -0.3221375
0.9695390625 -0.2148397 -0.2637528
0.9706875 -0.2808259 -0.1834567
0.9718359375 -0.3196113 -0.08901322
0.972984375 -0.3289158 0.01135389
0.9741328125 -0.309141 0.1091453
0.97528125 -0.2618884 0.1963435
0.9764296875 -0.1914642 0.2663783
0.977578125 -0.1035358 0.3132734
0.9787265625 -0.004746261 0.3330269
0.979875 0.09649725 0.3229416
0.9810234375 0.1922244 0.2831973
0.982171875 0.2736726 0.2157727
0.9833203125 0.3335038 0.1254108
0.98446875 0.3644699 0.01812364
0.9856171875 0.3618475 -0.09661019
0.986765625 0.3237106 -0.2091976
0.9879140625 0.2510817 -0.3086251
0.9890625 0.1478131 -0.3839411
0.9902109375 0.02143146 -0.4257765
0.991359375 -0.1173292 -0.4273017
0.9925078125 -0.2560313 -0.3842846
0.99365625 -0.3809777 -0.2965665
0.9948046875 -0.4777385 -0.1679742
0.995953125 -0.5336208 -0.006369916
0.9971015625 -0.5366291 0.1757834
0.99825 -0.4785829 0.3631903
0.9993984375 -0.3546679 0.5362123
