# GHZ S RI R 50.0
0.3 -0.1568448 1.338276
0.3011484375 0.2790565 1.206628
0.302296875 0.6083382 0.9641455
0.3034453125 0.818325 0.6621512
0.30459375 0.9133621 0.3442128
0.3057421875 0.9101883 0.04309899
0.306890625 0.8275717 -0.2203967
0.3080390625 0.6864493 -0.4334698
0.3091875 0.5039944 -0.590246
0.3103359375 0.298045 -0.6875627
0.311484375 0.08018953 -0.726334
0.3126328125 -0.1359556 -0.7063923
0.31378125 -0.338538 -0.6306435
0.3149296875 -0.5155622 -0.5010098
0.316078125 -0.6538119 -0.32269
0.3172265625 -0.7389935 -0.1033298
0.318375 -0.7567572 0.1446425
0.3195234375 -0.6930406 0.4023988
0.320671875 -0.5384887 0.6433597
0.3218203125 -0.2948954 0.8316751
0.32296875 0.02382069 0.9321465
0.3241171875 0.3855948 0.9098613
0.325265625 0.743322 0.7443221
0.3264140625 1.03784 0.4334285
0.3275625 1.21239 -0.001154318
0.3287109375 1.212316 -0.5206677
0.329859375 0.9924672 -1.065731
0.3310078125 0.5114075 -1.555601
0.33215625 -0.2774655 -1.858979
0.3333046875 -1.343212 -1.719552
0.334453125 -2.3704 -0.7907275
0.3356015625 -2.529834 0.8815022
0.33675 -1.367435 2.170307
0.3378984375 0.1123864 2.236816
0.339046875 1.036633 1.581465
0.3401953125 1.389562 0.8069322
0.34134375 1.385429 0.1488008
0.3424921875 1.186964 -0.3474343
0.343640625 0.886314 -0.6876293
0.3447890625 0.5391425 -0.8848094
0.3459375 0.1821581 -0.9536424
0.3470859375 -0.1528541 -0.9081394
0.348234375 -0.4381264 -0.7638824
0.3493828125 -0.6502444 -0.5432885
0.35053125 -0.7699866 -0.2738271
0.3516796875 -0.7890002 0.007628629
0.352828125 -0.7132342 0.2676265
0.3539765625 -0.5607331 0.4750426
0.355125 -0.3576263 0.6116796
0.3562734375 -0.1335342 0.6700593
0.357421875 0.08490777 0.6551601
0.3585703125 0.2772156 0.5774637
0.35971875 0.4300544 0.4523226
0.3608671875 0.5342052 0.2960975
0.362015625 0.5888318 0.1232277
0.3631640625 0.593992 -0.05367659
0.3643125 0.5523897 -0.2217861
0.3654609375 0.4687883 -0.3725169
0.366609375 0.3476451 -0.49747
0.3677578125 0.1954974 -0.5878584
0.36890625 0.01921212 -0.636716
0.3700546875 -0.17173 -0.6367309
0.371203125 -0.3645792 -0.5823354
0.3723515625 -0.5446696 -0.4699215
0.3735 -0.6950964 -0.2993823
0.3746484375 -0.7951282 -0.07635646
0.375796875 -0.8244842 0.1847898
0.3769453125 -0.7663291 0.461525
0.37809375 -0.6109121 0.723011
0.3792421875 -0.3636565 0.9329325
0.380390625 -0.04222918 1.056764
0.3815390625 0.3237494 1.068977
0.3826875 0.6936994 0.9548069
0.3838359375 1.026002 0.7145481
0.384984375 1.280457 0.3594958
0.3861328125 1.420973 -0.08857547
0.38728125 1.414101 -0.6011935
0.3884296875 1.227658 -1.140275
0.389578125 0.8269209 -1.651903
0.3907265625 0.1808729 -2.050357
0.391875 -0.7133403 -2.199647
0.3930234375 -1.76938 -1.900594
0.394171875 -2.702477 -0.9676264
0.3953203125 -3.009691 0.5204824
0.39646875 -2.348233 1.980636
0.3976171875 -1.009465 2.740567
0.398765625 0.3462102 2.649449
0.3999140625 1.307774 2.016561
0.4010625 1.80046 1.184998
0.4022109375 1.906053 0.3713583
0.403359375 1.731666 -0.3171808
0.4045078125 1.374728 -0.8304938
0.40565625 0.9183059 -1.150945
0.4068046875 0.4337167 -1.283823
0.407953125 -0.02081943 -1.249375
0.4091015625 -0.3978097 -1.0834
0.41025 -0.6725073 -0.8289554
0.4113984375 -0.8354082 -0.5296986
0.412546875 -0.8906398 -0.2262536
0.4136953125 -0.8542085 0.05212389
0.41484375 -0.7480785 0.2856496
0.4159921875 -0.5929268 0.4633721
0.417140625 -0.4097585 0.5803743
0.4182890625 -0.2157253 0.6394754
0.4194375 -0.02476412 0.6446284
0.4205859375 0.1501828 0.6016397
0.421734375 0.3019564 0.5187649
0.4228828125 0.4231388 0.4031808
0.42403125 0.5082788 0.2633997
0.4251796875 0.553183 0.1087197
0.426328125 0.5555581 -0.05151444
0.4274765625 0.5144981 -0.2065523
0.428625 0.431734 -0.345178
0.4297734375 0.3116871 -0.4559382
0.430921875 0.1631727 -0.5275447
0.4320703125 -0.002367327 -0.552412
0.43321875 -0.1687936 -0.5256417
0.4343671875 -0.3197469 -0.4486369
0.435515625 -0.439461 -0.328365
0.4366640625 -0.5151273 -0.1776243
0.4378125 -0.5403532 -0.01267693
0.4389609375 -0.5136403 0.149838
0.440109375 -0.4411181 0.2928344
0.4412578125 -0.3316357 0.405975
0.44240625 -0.1966205 0.4810503
0.4435546875 -0.04878741 0.5139637
0.444703125 0.100369 0.5046791
0.4458515625 0.2400019 0.4558186
0.447 0.3610604 0.3713771
0.4481484375 0.4561091 0.2570517
0.449296875 0.5180367 0.1199169
0.4504453125 0.5421943 -0.03209025
0.45159375 0.5245343 -0.1898291
0.4527421875 0.4623994 -0.343127
0.453890625 0.3565207 -0.4791908
0.4550390625 0.2088369 -0.5862639
0.4561875 0.02650235 -0.6508803
0.4573359375 -0.1794511 -0.6596876
0.458484375 -0.3925309 -0.6032851
0.4596328125 -0.5912154 -0.4763044
0.46078125 -0.7508253 -0.2806972
0.4619296875 -0.8470581 -0.0284642
0.463078125 -0.8586408 0.2603914
0.4642265625 -0.7717919 0.5571111
0.465375 -0.581467 0.828279
0.4665234375 -0.2943078 1.03932
0.467671875 0.07428913 1.157788
0.4688203125 0.4965947 1.151177
0.46996875 0.9405773 0.992915
0.4711171875 1.358075 0.6569329
0.472265625 1.678834 0.1221273
0.4734140625 1.797585 -0.6152372
0.4745625 1.55339 -1.49871
0.4757109375 0.7674783 -2.310865
0.476859375 -0.5634467 -2.600574
0.4780078125 -1.928322 -1.938479
0.47915625 -2.544907 -0.574823
0.4803046875 -2.243819 0.7074068
0.481453125 -1.463451 1.459366
0.4826015625 -0.6206608 1.698948
0.48375 0.08886566 1.591033
0.4848984375 0.6038694 1.28395
0.486046875 0.9248602 0.8806238
0.4871953125 1.068914 0.4522299
0.48834375 1.062627 0.04899276
0.4894921875 0.936434 -0.2935237
0.490640625 0.7253633 -0.5507612
0.4917890625 0.4644079 -0.7105707
0.4929375 0.1884895 -0.7721201
0.4940859375 -0.07193872 -0.7435619
0.495234375 -0.2935801 -0.6410745
0.4963828125 -0.4602029 -0.4850253
0.49753125 -0.5634899 -0.297065
0.4986796875 -0.6021137 -0.09805033
0.499828125 -0.5800303 0.09380552
0.5009765625 -0.505386 0.2628975
0.502125 -0.3879356 0.3982743
0.5032734375 -0.2399442 0.4902218
0.504421875 -0.07377135 0.5347282
0.5055703125 0.09660153 0.5291099
0.50671875 0.2588125 0.4738055
0.5078671875 0.3991387 0.3713081
0.509015625 0.5051097 0.2289616
0.5101640625 0.5646856 0.05614206
0.5113125 0.5690128 -0.1337449
0.5124609375 0.5115719 -0.3236906
0.513609375 0.391328 -0.4942845
0.5147578125 0.2133396 -0.6245545
0.51590625 -0.01062249 -0.694153
0.5170546875 -0.260584 -0.6858374
0.518203125 -0.5100455 -0.5892571
0.5193515625 -0.7295529 -0.4020134
0.5205 -0.8868675 -0.130773
0.5216484375 -0.9503952 0.2069509
0.522796875 -0.8909672 0.58513
0.5239453125 -0.6818326 0.965037
0.52509375 -0.3003567 1.293464
0.5262421875 0.2687436 1.490792
0.527390625 1.008019 1.43422
0.5285390625 1.811085 0.9432038
0.5296875 2.346952 -0.1351773
0.5308359375 2.038898 -1.564056
0.531984375 0.743352 -2.46209
0.5331328125 -0.6948653 -2.252937
0.53428125 -1.517965 -1.392471
0.5354296875 -1.713082 -0.4798293
0.536578125 -1.531462 0.233681
0.5377265625 -1.168976 0.7097498
0.538875 -0.7427807 0.9744004
0.5400234375 -0.3195466 1.065206
0.541171875 0.06050699 1.019616
0.5423203125 0.3716393 0.8712244
0.54346875 0.5978594 0.6525329
0.5446171875 0.7330257 0.3952611
0.545765625 0.7769158 0.1279808
0.5469140625 0.7375208 -0.1222673
0.5480625 0.629433 -0.3349023
0.5492109375 0.4704538 -0.4940173
0.550359375 0.2809423 -0.5917361
0.5515078125 0.08120849 -0.6260419
0.55265625 -0.110608 -0.6007374
0.5538046875 -0.2795627 -0.5234045
0.554953125 -0.4131494 -0.4051915
0.5561015625 -0.5048153 -0.2581696
0.55725 -0.549762 -0.09544338
0.5583984375 -0.5473694 0.07035473
0.559546875 -0.4990204 0.2268714
0.5606953125 -0.4094976 0.3627959
0.56184375 -0.285197 0.468258
0.5629921875 -0.1351112 0.5347379
0.564140625 0.02949961 0.5562946
0.5652890625 0.1961871 0.5294991
0.5664375 0.3508435 0.4535653
0.5675859375 0.4798551 0.3330339
0.568734375 0.5695844 0.1758458
0.5698828125 0.6090555 -0.005775983
0.57103125 0.5913884 -0.1957473
0.5721796875 0.5148278 -0.376213
0.573328125 0.3835994 -0.5283402
0.5744765625 0.2082117 -0.6358979
0.575625 0.003362125 -0.6866493
0.5767734375 -0.2123466 -0.6730946
0.577921875 -0.4197836 -0.593609
0.5790703125 -0.5998006 -0.4525776
0.58021875 -0.7347643 -0.2586548
0.5813671875 -0.811443 -0.02438197
0.582515625 -0.8178038 0.2327281
0.5836640625 -0.7464621 0.4958315
0.5848125 -0.593595 0.7435701
0.5859609375 -0.3573612 0.9528006
0.587109375 -0.04393372 1.096666
0.5882578125 0.3367511 1.146102
0.58940625 0.7634502 1.067832
0.5905546875 1.19996 0.8260619
0.591703125 1.585271 0.3868593
0.5928515625 1.822765 -0.2682852
0.594 1.77027 -1.109681
0.5951484375 1.25441 -1.996919
0.596296875 0.1828772 -2.605407
0.5974453125 -1.225464 -2.494962
0.59859375 -2.350257 -1.510717
0.5997421875 -2.648513 -0.106378
0.600890625 -2.159933 1.066498
0.6020390625 -1.299823 1.700724
0.6031875 -0.4277787 1.83918
0.6043359375 0.2771486 1.644994
0.605484375 0.7619367 1.270882
0.6066328125 1.035723 0.8283091
0.60778125 1.131222 0.390141
0.6089296875 1.088375 9.490705E-05
0.610078125 0.9456306 -0.3170677
0.6112265625 0.7384963 -0.5502214
0.612375 0.496631 -0.6977666
0.6135234375 0.245061 -0.7638235
0.614671875 0.004761476 -0.7561097
0.6158203125 -0.2091055 -0.6855962
0.61696875 -0.3845277 -0.5650951
0.6181171875 -0.5124315 -0.4083691
0.619265625 -0.5879999 -0.2295708
0.6204140625 -0.608626 -0.04331072
0.6215625 -0.5765277 0.1354504
0.6227109375 -0.4962168 0.2933151
0.623859375 -0.3762935 0.4177591
0.6250078125 -0.227938 0.4995771
0.62615625 -0.06541625 0.5331447
0.6273046875 0.09628315 0.516818
0.628453125 0.2427331 0.4541602
0.6296015625 0.3610131 0.3525305
0.63075 0.4415224 0.2231936
0.6318984375 0.4789325 0.07886288
0.633046875 0.471931 -0.06655382
0.6341953125 0.4232928 -0.2006528
0.63534375 0.3398601 -0.3121015
0.6364921875 0.229721 -0.3930403
0.637640625 0.1031892 -0.4382713
0.6387890625 -0.02907952 -0.4458768
0.6399375 -0.1567737 -0.4160298
0.6410859375 -0.2704354 -0.3519892
0.642234375 -0.3621624 -0.258759
0.6433828125 -0.4244754 -0.1426082
0.64453125 -0.4519454 -0.01308807
0.6456796875 -0.4420626 0.1214197
0.646828125 -0.3932831 0.2504767
0.6479765625 -0.3075415 0.3629481
0.649125 -0.1897556 0.4485558
0.6502734375 -0.04740479 0.4980773
0.651421875 0.1089049 0.5036533
0.6525703125 0.2656462 0.4610826
0.65371875 0.4086304 0.3694212
0.6548671875 0.5220216 0.2329552
0.656015625 0.5913827 0.06060989
0.6571640625 0.6055148 -0.1340884
0.6583125 0.5566069 -0.3335921
0.6594609375 0.4426672 -0.5186691
0.660609375 0.2663272 -0.6682436
0.6617578125 0.03768572 -0.7621247
0.66290625 -0.2289611 -0.7815485
0.6640546875 -0.5118343 -0.7106732
0.665203125 -0.7831329 -0.5364891
0.6663515625 -1.008132 -0.2517871
0.6675 -1.140331 0.1423317
0.6686484375 -1.119421 0.6281524
0.669796875 -0.8723474 1.153649
0.6709453125 -0.3274197 1.601273
0.67209375 0.5166858 1.756244
0.6732421875 1.452777 1.360818
0.674390625 2.015194 0.3875866
0.6755390625 1.846773 -0.7238665
0.6766875 1.117813 -1.434871
0.6778359375 0.2682546 -1.597045
0.678984375 -0.4060577 -1.369405
0.6801328125 -0.8254958 -0.9544992
0.68128125 -1.008516 -0.4941047
0.6824296875 -1.005546 -0.07016919
0.683578125 -0.8709964 0.2727151
0.6847265625 -0.6538799 0.515798
0.685875 -0.3978184 0.654792
0.6870234375 -0.1374481 0.6960953
0.688171875 0.09962129 0.653936
0.6893203125 0.2940111 0.547131
0.69046875 0.433367 0.3954283
0.6916171875 0.5127468 0.2194958
0.692765625 0.532116 0.03848195
0.6939140625 0.4965721 -0.1311132
0.6950625 0.414274 -0.2752381
0.6962109375 0.2961628 -0.383702
0.697359375 0.1545477 -0.4492357
0.6985078125 0.002609807 -0.468627
0.69965625 -0.1461944 -0.441465
0.7008046875 -0.2791207 -0.3705652
0.701953125 -0.3843058 -0.2622363
0.7031015625 -0.4520394 -0.1258531
0.70425 -0.4745882 0.02677294
0.7053984375 -0.4483609 0.1820424
0.706546875 -0.3730019 0.324886
0.7076953125 -0.2531777 0.4399935
0.70884375 -0.09827087 0.5135781
0.7099921875 0.07833747 0.534949
0.711140625 0.2594906 0.4975993
0.7122890625 0.4263181 0.3998716
0.7134375 0.5594763 0.2469602
0.7145859375 0.641126 0.04958117
0.715734375 0.6559544 -0.1767248
0.7168828125 0.5930178 -0.4109745
0.71803125 0.4479052 -0.6274548
0.7191796875 0.2217801 -0.7997857
0.720328125 -0.07641732 -0.8967103
0.7214765625 -0.4262807 -0.8867801
0.722625 -0.7938714 -0.7373101
0.7237734375 -1.125038 -0.4228874
0.724921875 -1.337451 0.06545027
0.7260703125 -1.322125 0.6922304
0.72721875 -0.9657601 1.335307
0.7283671875 -0.2390825 1.76419
0.729515625 0.6853242 1.725626
0.7306640625 1.446867 1.157873
0.7318125 1.748944 0.3015864
0.7329609375 1.573204 -0.5007057
0.734109375 1.098077 -1.038132
0.7352578125 0.5242385 -1.271274
0.73640625 -0.01094286 -1.251874
0.7375546875 -0.4357611 -1.057414
0.738703125 -0.7232023 -0.7618696
0.7398515625 -0.8713662 -0.4263298
0.741 -0.8957545 -0.09732873
0.7421484375 -0.8185603 0.192777
0.743296875 -0.6666762 0.422275
0.7444453125 -0.4670868 0.5792899
0.74559375 -0.2455953 0.6607271
0.7467421875 -0.02509508 0.6706502
0.747890625 0.1757057 0.6175028
0.7490390625 0.3296728 0.4927231
0.7501875 0.4480889 0.3563795
0.7513359375 0.5189419 0.1980933
0.752484375 0.5403258 0.03203299
0.7536328125 0.5138372 -0.1286711
0.75478125 0.4438607 -0.2716535
0.7559296875 0.3378271 -0.3864996
0.757078125 0.2045322 -0.4647218
0.7582265625 0.05570365 -0.5012606
0.759375 -0.09657221 -0.4927414
0.7605234375 -0.2398671 -0.4403749
0.761671875 -0.3612699 -0.3477661
0.7628203125 -0.4506764 -0.223194
0.76396875 -0.4992048 -0.07689371
0.7651171875 -0.5016801 0.07840455
0.766265625 -0.4577624 0.228288
0.7674140625 -0.3701208 0.3593197
0.7685625 -0.2462293 0.4589777
0.7697109375 -0.09660167 0.5181528
0.770859375 0.06537779 0.5301874
0.7720078125 0.2258536 0.4934718
0.77315625 0.3708616 0.4098269
0.7743046875 0.4873658 0.2850478
0.775453125 0.564554 0.1279383
0.7766015625 0.5932239 -0.04967065
0.77775 0.5687036 -0.2342978
0.7788984375 0.4886973 -0.4108894
0.780046875 0.3544797 -0.5636492
0.7811953125 0.1714785 -0.6766252
0.78234375 -0.05025731 -0.7335745
0.7834921875 -0.2952205 -0.7204317
0.784640625 -0.5430886 -0.6261197
0.7857890625 -0.7683449 -0.4436736
0.7869375 -0.9385836 -0.1741151
0.7880859375 -1.018849 0.1709305
0.789234375 -0.9690699 0.5646719
0.7903828125 -0.757146 0.9591029
0.79153125 -0.3635632 1.282261
0.7926796875 0.1949327 1.436261
0.793828125 0.8413472 1.317908
0.7949765625 1.417287 0.8633681
0.796125 1.713182 0.1270795
0.7972734375 1.580796 -0.6839138
0.798421875 1.053589 -1.29502
0.7995703125 0.3386826 -1.533793
0.80071875 -0.3246937 -1.41037
0.8018671875 -0.7943872 -1.051807
0.803015625 -1.03383 -0.5987134
0.8041640625 -1.072181 -0.1562449
0.8053125 -0.962345 0.2151454
0.8064609375 -0.7579891 0.4878482
0.807609375 -0.5060577 0.6569707
0.8087578125 -0.2425888 0.7286028
0.80990625 0.005279221 0.7150539
0.8110546875 0.2182131 0.6329271
0.812203125 0.3831033 0.5005271
0.8133515625 0.4927782 0.3360368
0.8145 0.5446728 0.157382
0.8156484375 0.5405864 -0.01881222
0.816796875 0.4862835 -0.177674
0.8179453125 0.3908728 -0.306765
0.81909375 0.2663872 -0.3972135
0.8202421875 0.1258274 -0.4436505
0.821390625 -0.01665742 -0.4452682
0.8225390625 -0.147876 -0.404835
0.8236875 -0.2570383 -0.3294035
0.8248359375 -0.3355635 -0.2278573
0.825984375 -0.3784455 -0.1116673
0.8271328125 -0.3842898 0.008566479
0.82828125 -0.3551323 0.1216896
0.8294296875 -0.2954237 0.2183946
0.830578125 -0.2120018 0.2917058
0.8317265625 -0.1128702 0.3366573
0.832875 -0.006870964 0.3507078
0.8340234375 0.09741403 0.3336299
0.835171875 0.191943 0.2877065
0.8363203125 0.2688829 0.2165626
0.83746875 0.3221903 0.1260278
0.8386171875 0.3471535 0.02313381
0.839765625 0.3410543 -0.08377735
0.8409140625 0.3032793 -0.186153
0.8420625 0.2355271 -0.2744329
0.8432109375 0.1418273 -0.3404444
0.844359375 0.02980407 -0.3763128
0.8455078125 -0.09203613 -0.3763584
0.84665625 -0.2120545 -0.3375153
0.8478046875 -0.3182448 -0.2607244
0.848953125 -0.3988106 -0.1501508
0.8501015625 -0.4424116 -0.01380768
0.85125 -0.4412131 0.1365636
0.8523984375 -0.3895374 0.2865418
0.853546875 -0.2870834 0.4203756
0.8546953125 -0.1375571 0.5210643
0.85584375 0.05034639 0.5720944
0.8569921875 0.2627209 0.5578259
0.858140625 0.4794239 0.4650052
0.8592890625 0.6728511 0.2831751
0.8604375 0.8055175 0.008310957
0.8615859375 0.8259602 -0.3478376
0.862734375 0.6712056 -0.7419808
0.8638828125 0.2889427 -1.073864
0.86503125 -0.2982302 -1.173811
0.8661796875 -0.901751 -0.8887187
0.867328125 -1.220384 -0.2767701
0.8684765625 -1.115859 0.363973
0.869625 -0.7250903 0.7768427
0.8707734375 -0.2648842 0.9091595
0.871921875 0.1269235 0.8317721
0.8730703125 0.4001487 0.6355188
0.87421875 0.551156 0.3910881
0.8753671875 0.59588 0.1451566
0.876515625 0.5566822 -0.07201913
0.8776640625 0.4569301 -0.2423599
0.8788125 0.3200998 -0.3577437
0.8799609375 0.1672204 -0.4160492
0.881109375 0.01641359 -0.4210818
0.8822578125 -0.1174966 -0.3801528
0.88340625 -0.2243319 -0.3044018
0.8845546875 -0.2970478 -0.2049255
0.885703125 -0.3333164 -0.09408647
0.8868515625 -0.3335878 0.01686552
0.888 -0.3012657 0.1183152
0.8891484375 -0.2420605 0.2019041
0.890296875 -0.1626142 0.2621464
0.8914453125 -0.07122359 0.2949411
0.89259375 0.02424273 0.298855
0.8937421875 0.115254 0.2744738
0.894890625 0.194427 0.2242483
0.8960390625 0.2549738 0.1527386
0.8971875 0.2912956 0.06607509
0.8983359375 0.3000865 -0.02848565
0.899484375 0.2794379 -0.1225486
0.9006328125 0.2303365 -0.2070387
0.90178125 0.1562289 -0.273867
0.9029296875 0.06306183 -0.3153529
0.904078125 -0.04069998 -0.3265026
0.9052265625 -0.1454485 -0.3040941
0.906375 -0.2406855 -0.2488895
0.9075234375 -0.3161838 -0.1643388
0.908671875 -0.3631889 -0.05725785
0.9098203125 -0.3752616 0.06330916
0.91096875 -0.348124 0.185833
0.9121171875 -0.2820534 0.2988161
0.913265625 -0.18004 0.3899257
0.9144140625 -0.04825177 0.4481596
0.9155625 0.10342 0.4637311
0.9167109375 0.26275 0.4298843
0.917859375 0.4141517 0.3418091
0.9190078125 0.5406538 0.1993357
0.92015625 0.6219112 0.006688957
0.9213046875 0.6373863 -0.2251576
0.922453125 0.565274 -0.4759717
0.9236015625 0.3878491 -0.7137977
0.92475 0.09681739 -0.8907236
0.9258984375 -0.2933396 -0.9447407
0.927046875 -0.7264659 -0.8068489
0.9281953125 -1.092106 -0.4372455
0.92934375 -1.238843 0.1211173
0.9304921875 -1.060151 0.7086329
0.931640625 -0.5920373 1.111982
0.9327890625 -0.01166301 1.204714
0.9339375 0.4881283 1.013334
0.9350859375 0.8003596 0.6563129
0.936234375 0.9111129 0.2571545
0.9373828125 0.8584854 -0.1013076
0.93853125 0.6971095 -0.3745735
0.9396796875 0.4774448 -0.5487404
0.940828125 0.239924 -0.627689
0.9419765625 0.01467196 -0.6239524
0.943125 -0.1782928 -0.5547233
0.9442734375 -0.3261349 -0.4393255
0.945421875 -0.4237996 -0.2954145
0.9465703125 -0.4697399 -0.1400167
0.94771875 -0.4676957 0.01236051
0.9488671875 -0.4227158 0.1494303
0.950015625 -0.3433168 0.261651
0.9511640625 -0.2388232 0.3423057
0.9523125 -0.1197406 0.3871027
0.9534609375 0.003494605 0.394865
0.954609375 0.1204507 0.3666079
0.9557578125 0.2215867 0.3065925
0.95690625 0.2989426 0.2207338
0.9580546875 0.3465294 0.1174911
0.959203125 0.3609411 0.006635193
0.9603515625 0.3417631 -0.1021409
0.9615 0.2913792 -0.199066
0.9626484375 0.2151836 -0.2756419
0.963796875 0.1207808 -0.3255094
0.9649453125 0.0164419 -0.3446423
0.96609375 -0.08781124 -0.3320014
0.9672421875 -0.1832133 -0.2893381
0.968390625 -0.2613249 -0.2210642
0.9695390625 -0.3159493 -0.1327857
0.9706875 -0.3424394 -0.03265053
0.9718359375 -0.3389608 0.07140546
0.972984375 -0.3053437 0.170615
0.9741328125 -0.2440189 0.2571732
0.97528125 -0.1589291 0.323288
0.9764296875 -0.05662678 0.3631556
0.977578125 0.05568188 0.3722901
0.9787265625 0.1694943 0.3480493
0.979875 0.2745612 0.2896726
0.9810234375 0.3620934 0.1998845
0.982171875 0.4220015 0.08309954
0.9833203125 0.4454115 -0.05277567
0.98446875 0.4262589 -0.1970721
0.9856171875 0.3608162 -0.3369402
0.986765625 0.2490198 -0.4579033
0.9879140625 0.09491371 -0.5440419
0.9890625 -0.09210605 -0.5804422
0.9902109375 -0.2965094 -0.55369
0.991359375 -0.4991 -0.4542407
0.9925078125 -0.674065 -0.2777227
0.99365625 -0.7909228 -0.02710407
0.9948046875 -0.8163903 0.2830769
0.995953125 -0.7153539 0.6228539
0.9971015625 -0.4566078 0.9388571
0.99825 -0.03249093 1.14712
0.9993984375 0.5133253 1.139437
1.000546875 1.047135 0.8269471
