# GHZ S RI R 50.0
0.3 -3.444277 -0.002607514
0.3011484375 -2.761287 1.379769
0.302296875 -1.70824 2.127174
0.3034453125 -0.6537482 2.308529
0.30459375 0.2030965 2.105145
0.3057421875 0.8117661 1.692135
0.306890625 1.181868 1.192815
0.3080390625 1.352539 0.6876997
0.3091875 1.367302 0.2232693
0.3103359375 1.26664 -0.1769487
0.311484375 1.08296 -0.500034
0.3126328125 0.8425369 -0.7448534
0.31378125 0.5675108 -0.907268
0.3149296875 0.2744813 -0.9909756
0.316078125 -0.02036672 -0.9957411
0.3172265625 -0.2986687 -0.9245709
0.318375 -0.5458252 -0.7819636
0.3195234375 -0.7437454 -0.5752929
0.320671875 -0.8720132 -0.320438
0.3218203125 -0.9173687 -0.03607825
0.32296875 -0.8708858 0.248293
0.3241171875 -0.735622 0.5014535
0.325265625 -0.5274243 0.6932487
0.3264140625 -0.274769 0.801886
0.3275625 -0.009789599 0.821707
0.3287109375 0.2355623 0.7586645
0.329859375 0.4385584 0.6286998
0.3310078125 0.5846701 0.4543674
0.33215625 0.6686668 0.2557609
0.3333046875 0.6927509 0.05244679
0.334453125 0.6630439 -0.1405423
0.3356015625 0.586694 -0.3128038
0.33675 0.4716133 -0.4562321
0.3378984375 0.327455 -0.5643539
0.339046875 0.1610136 -0.6328325
0.3401953125 -0.01900572 -0.658246
0.34134375 -0.2028609 -0.6368061
0.3424921875 -0.3808574 -0.5670192
0.343640625 -0.5406328 -0.4475358
0.3447890625 -0.6678922 -0.2817573
0.3459375 -0.747932 -0.07535473
0.3470859375 -0.7650911 0.1592742
0.348234375 -0.7070442 0.4026882
0.3493828125 -0.5678269 0.627606
0.35053125 -0.350693 0.8063084
0.3516796875 -0.07597288 0.9082468
0.352828125 0.2303778 0.9126912
0.3539765625 0.5306696 0.8125172
0.355125 0.7883401 0.6138663
0.3562734375 0.9728032 0.335657
0.357421875 1.063158 0.003083732
0.3585703125 1.046697 -0.3515193
0.35971875 0.9176634 -0.7003332
0.3608671875 0.6759402 -1.011917
0.362015625 0.3257259 -1.254398
0.3631640625 -0.1244291 -1.390162
0.3643125 -0.6558521 -1.372221
0.3654609375 -1.224176 -1.142698
0.366609375 -1.745672 -0.6379798
0.3677578125 -2.054431 0.1727923
0.36890625 -1.917056 1.19195
0.3700546875 -1.16206 2.094377
0.371203125 0.05255719 2.421478
0.3723515625 1.208082 1.987877
0.3735 1.859605 1.075665
0.3746484375 1.938506 0.1064411
0.375796875 1.61097 -0.6566349
0.3769453125 1.075346 -1.125735
0.37809375 0.4890325 -1.307514
0.3792421875 -0.04145016 -1.255082
0.380390625 -0.4557826 -1.0366
0.3815390625 -0.7248986 -0.7226402
0.3826875 -0.8478367 -0.3778423
0.3838359375 -0.8432597 -0.05233521
0.384984375 -0.7407236 0.2179013
0.3861328125 -0.5741501 0.417338
0.38728125 -0.3736539 0.539831
0.3884296875 -0.1658491 0.5885376
0.389578125 0.03007759 0.5734799
0.3907265625 0.2002281 0.505831
0.391875 0.3346933 0.3978713
0.3930234375 0.4277124 0.2620085
0.394171875 0.4762174 0.1102112
0.3953203125 0.4787641 -0.04601179
0.39646875 0.4355197 -0.1955617
0.3976171875 0.3500617 -0.3270534
0.398765625 0.2264746 -0.4287774
0.3999140625 0.07272654 -0.4892595
0.4010625 -0.09898143 -0.4990024
0.4022109375 -0.2731223 -0.4500591
0.403359375 -0.4294961 -0.3401552
0.4045078125 -0.5458704 -0.1744472
0.40565625 -0.6008573 0.03382091
0.4068046875 -0.5772093 0.2616178
0.407953125 -0.467797 0.4794549
0.4091015625 -0.2758723 0.6546986
0.41025 -0.01784948 0.7569087
0.4113984375 0.280625 0.7618102
0.412546875 0.5862356 0.6531427
0.4136953125 0.8605352 0.4230654
0.41484375 1.057636 0.07113297
0.4159921875 1.121435 -0.3900641
0.417140625 0.9786703 -0.9258645
0.4182890625 0.5428503 -1.443613
0.4194375 -0.2392141 -1.742687
0.4205859375 -1.229902 -1.517137
0.421734375 -1.948599 -0.6224863
0.4228828125 -1.918582 0.5305686
0.42403125 -1.258889 1.324286
0.4251796875 -0.4362534 1.572768
0.426328125 0.2517889 1.429384
0.4274765625 0.7189937 1.083519
0.428625 0.9747776 0.6619437
0.4297734375 1.052121 0.2389986
0.430921875 0.9886755 -0.1387772
0.4320703125 0.8195246 -0.4425663
0.43321875 0.5794233 -0.6537975
0.4343671875 0.3044131 -0.7647304
0.435515625 0.02847467 -0.7773523
0.4366640625 -0.2186358 -0.7034498
0.4378125 -0.4141639 -0.5626858
0.4389609375 -0.5448967 -0.3796626
0.440109375 -0.6070784 -0.1777359
0.4412578125 -0.603414 0.01945537
0.44240625 -0.5448165 0.1940781
0.4435546875 -0.4431215 0.33626
0.444703125 -0.3120095 0.4374405
0.4458515625 -0.164861 0.4950516
0.447 -0.0135098 0.508952
0.4481484375 0.1315175 0.481991
0.449296875 0.2612022 0.4183815
0.4504453125 0.3674306 0.3235345
0.45159375 0.4441293 0.2040496
0.4527421875 0.4856342 0.06713998
0.453890625 0.4874603 -0.07644057
0.4550390625 0.4488573 -0.21801
0.4561875 0.3696835 -0.3457831
0.4573359375 0.2542412 -0.4473415
0.458484375 0.1098926 -0.5120857
0.4596328125 -0.05179357 -0.5302713
0.46078125 -0.2153021 -0.4974193
0.4619296875 -0.3637885 -0.4136218
0.463078125 -0.4804747 -0.2851846
0.4642265625 -0.5519907 -0.1247017
0.465375 -0.5700409 0.05138376
0.4665234375 -0.5325664 0.225311
0.467671875 -0.4439243 0.3800465
0.4688203125 -0.3129067 0.5013093
0.46996875 -0.1511423 0.5793288
0.4711171875 0.02614137 0.6076612
0.472265625 0.2069339 0.5847458
0.4734140625 0.3765905 0.512285
0.4745625 0.5243204 0.39286
0.4757109375 0.6378406 0.2327486
0.476859375 0.7069831 0.03956245
0.4780078125 0.7219827 -0.176908
0.47915625 0.6748064 -0.401819
0.4803046875 0.5585981 -0.6211925
0.481453125 0.3704375 -0.8144593
0.4826015625 0.1115419 -0.9582767
0.48375 -0.2096513 -1.025873
0.4848984375 -0.5751967 -0.9886292
0.486046875 -0.9543479 -0.8188058
0.4871953125 -1.300102 -0.4946293
0.48834375 -1.548015 -0.008027155
0.4894921875 -1.614863 0.6252359
0.490640625 -1.404612 1.344669
0.4917890625 -0.8254067 2.022405
0.4929375 0.1501028 2.434521
0.4940859375 1.388449 2.286562
0.495234375 2.474097 1.381279
0.4963828125 2.851504 -0.06551147
0.49753125 2.322463 -1.412139
0.4986796875 1.255808 -2.141101
0.499828125 0.166039 -2.208155
0.5009765625 -0.6622964 -1.845587
0.502125 -1.166228 -1.291543
0.5032734375 -1.388161 -0.703537
0.504421875 -1.394843 -0.1661138
0.5055703125 -1.25001 0.2791112
0.50671875 -1.005261 0.6158198
0.5078671875 -0.703757 0.8394223
0.509015625 -0.3783947 0.9534142
0.5101640625 -0.05850779 0.9659393
0.5113125 0.2323404 0.8888245
0.5124609375 0.4739668 0.7369162
0.513609375 0.6511439 0.5299243
0.5147578125 0.7535152 0.2885817
0.51590625 0.7760701 0.03860771
0.5170546875 0.7226685 -0.1981631
0.518203125 0.6034538 -0.3993447
0.5193515625 0.4344007 -0.5478331
0.5205 0.2353219 -0.6335579
0.5216484375 0.02815998 -0.6533597
0.522796875 -0.1676746 -0.6113685
0.5239453125 -0.3348255 -0.5161662
0.52509375 -0.4618486 -0.3807497
0.5262421875 -0.5411779 -0.219969
0.527390625 -0.5699916 -0.04834526
0.5285390625 -0.5495563 0.1201332
0.5296875 -0.4838215 0.2730412
0.5308359375 -0.3792016 0.3998454
0.531984375 -0.2441258 0.4918757
0.5331328125 -0.08869924 0.5428501
0.53428125 0.07605989 0.5482015
0.5354296875 0.2382834 0.5065151
0.536578125 0.3851192 0.4187722
0.5377265625 0.5033323 0.2886675
0.538875 0.5816758 0.1245033
0.5400234375 0.6088552 -0.06265222
0.541171875 0.5769801 -0.2573248
0.5423203125 0.4831094 -0.4413164
0.54346875 0.3295178 -0.5949331
0.5446171875 0.1254099 -0.6978797
0.545765625 -0.1140437 -0.7330129
0.5469140625 -0.3666216 -0.6875899
0.5480625 -0.6065 -0.5553783
0.5492109375 -0.8049544 -0.3376281
0.550359375 -0.9320239 -0.04444988
0.5515078125 -0.9572718 0.3060046
0.55265625 -0.8532478 0.6842431
0.5538046875 -0.5918306 1.04728
0.554953125 -0.1523978 1.328428
0.5561015625 0.4612333 1.426988
0.55725 1.180842 1.202286
0.5583984375 1.793777 0.5257999
0.559546875 1.926054 -0.5311833
0.5606953125 1.32832 -1.50578
0.56184375 0.2910474 -1.867226
0.5629921875 -0.6230901 -1.578757
0.564140625 -1.134554 -0.9718314
0.5652890625 -1.268474 -0.336628
0.5664375 -1.144608 0.1874633
0.5675859375 -0.876141 0.5525277
0.568734375 -0.5440008 0.7605025
0.5698828125 -0.2053795 0.8269019
0.57103125 0.09946038 0.777104
0.5721796875 0.3422496 0.6399938
0.573328125 0.5088464 0.4462633
0.5744765625 0.5937088 0.2264272
0.575625 0.5996969 0.007846037
0.5767734375 0.5379425 -0.1869105
0.577921875 0.4234368 -0.3410621
0.5790703125 0.2740184 -0.4439448
0.58021875 0.1083702 -0.4918869
0.5813671875 -0.05657079 -0.4860716
0.582515625 -0.2060098 -0.4314656
0.5836640625 -0.3280953 -0.3368426
0.5848125 -0.4143101 -0.2126385
0.5859609375 -0.4586842 -0.0699995
0.587109375 -0.4586533 0.07902529
0.5882578125 -0.4142043 0.2215709
0.58940625 -0.3282673 0.3464656
0.5905546875 -0.2065161 0.4418423
0.591703125 -0.05725846 0.4982423
0.5928515625 0.107114 0.5071333
0.594 0.273843 0.4636336
0.5951484375 0.4257223 0.3665465
0.596296875 0.5463405 0.2197869
0.5974453125 0.6189635 0.0319829
0.59859375 0.6291083 -0.1818892
0.5997421875 0.5669777 -0.4017433
0.600890625 0.4282517 -0.6043559
0.6020390625 0.2169168 -0.7624887
0.6031875 -0.05600513 -0.8512695
0.6043359375 -0.3702392 -0.8466917
0.605484375 -0.6981553 -0.7275095
0.6066328125 -1.000157 -0.4794913
0.60778125 -1.228049 -0.09672356
0.6089296875 -1.31709 0.4152263
0.610078125 -1.184804 1.019905
0.6112265625 -0.7303274 1.619156
0.612375 0.09865365 2.002321
0.6135234375 1.184672 1.862823
0.614671875 2.077681 1.014483
0.6158203125 2.257114 -0.2306511
0.61696875 1.701143 -1.238086
0.6181171875 0.8320509 -1.695516
0.619265625 0.01997036 -1.676229
0.6204140625 -0.5773357 -1.374094
0.6215625 -0.9417575 -0.945506
0.6227109375 -1.101634 -0.4905493
0.623859375 -1.097224 -0.06993797
0.6250078125 -0.9705317 0.2822253
0.62615625 -0.759472 0.5455261
0.6273046875 -0.500966 0.7110171
0.628453125 -0.2282847 0.7806121
0.6296015625 0.03150605 0.7631135
0.63075 0.2555884 0.6730168
0.6318984375 0.428744 0.5286665
0.633046875 0.5422618 0.3510077
0.6341953125 0.5934898 0.1597642
0.63534375 0.5862609 -0.0266699
0.6364921875 0.5281711 -0.1931505
0.637640625 0.4296026 -0.3285362
0.6387890625 0.3026154 -0.4256054
0.6399375 0.1591666 -0.4804371
0.6410859375 0.01166826 -0.4924177
0.642234375 -0.1289092 -0.463625
0.6433828125 -0.2534782 -0.3982859
0.64453125 -0.3523281 -0.303112
0.6456796875 -0.4202377 -0.1855496
0.646828125 -0.4521976 -0.05467786
0.6479765625 -0.4459297 0.07901277
0.649125 -0.4022651 0.2057585
0.6502734375 -0.3238523 0.3145433
0.651421875 -0.2166086 0.3968439
0.6525703125 -0.08980945 0.4445077
0.65371875 0.04664531 0.4528701
0.6548671875 0.1806266 0.4202902
0.656015625 0.29965 0.3489592
0.6571640625 0.3927501 0.244705
0.6583125 0.4509698 0.1167106
0.6594609375 0.4685846 -0.02363499
0.660609375 0.4439319 -0.1637573
0.6617578125 0.3786731 -0.2911634
0.66290625 0.2780094 -0.3952936
0.6640546875 0.150881 -0.4661934
0.665203125 0.006492777 -0.4979588
0.6663515625 -0.1436045 -0.4866216
0.6675 -0.2871308 -0.4322884
0.6686484375 -0.412501 -0.3368487
0.669796875 -0.5085352 -0.2056572
0.6709453125 -0.565564 -0.04700721
0.67209375 -0.5752527 0.1289637
0.6732421875 -0.5318412 0.3084137
0.674390625 -0.4329934 0.4767542
0.6755390625 -0.2799556 0.6167216
0.6766875 -0.07936502 0.7108518
0.6778359375 0.1562688 0.7424304
0.678984375 0.4088836 0.6965708
0.6801328125 0.6540447 0.5639412
0.68128125 0.8623613 0.3415283
0.6824296875 0.9998702 0.03636326
0.683578125 1.03192 -0.3335537
0.6847265625 0.9245788 -0.7343457
0.685875 0.6522884 -1.115941
0.6870234375 0.2022796 -1.405879
0.688171875 -0.4053837 -1.509636
0.6893203125 -1.093998 -1.321588
0.69046875 -1.697925 -0.7643282
0.6916171875 -1.973216 0.1194424
0.692765625 -1.713738 1.080821
0.6939140625 -0.9577622 1.743782
0.6950625 -0.01970756 1.878686
0.6962109375 0.7603902 1.54964
0.697359375 1.218263 0.9785712
0.6985078125 1.359379 0.369358
0.69965625 1.262065 -0.1582591
0.7008046875 1.013916 -0.5515326
0.701953125 0.6894494 -0.7990474
0.7031015625 0.3425862 -0.9088917
0.70425 0.01429154 -0.9006122
0.7053984375 -0.2672543 -0.7961769
0.706546875 -0.4831073 -0.6224672
0.7076953125 -0.6225699 -0.4053665
0.70884375 -0.6825031 -0.171053
0.7099921875 -0.6666308 0.05644577
0.711140625 -0.5849872 0.2565964
0.7122890625 -0.4512594 0.4125702
0.7134375 -0.2836658 0.5144362
0.7145859375 -0.1007266 0.5569414
0.715734375 0.07911603 0.5414454
0.7168828125 0.2395212 0.4737186
0.71803125 0.3668723 0.363625
0.7191796875 0.4524651 0.2240635
0.720328125 0.4906908 0.06879677
0.7214765625 0.480313 -0.0878571
0.722625 0.4240876 -0.23247
0.7237734375 0.3276781 -0.3527423
0.724921875 0.1994016 -0.4383935
0.7260703125 0.05023854 -0.4815981
0.72721875 -0.107299 -0.4776297
0.7283671875 -0.2593216 -0.4247988
0.729515625 -0.3913752 -0.3250464
0.7306640625 -0.4891652 -0.1843141
0.7318125 -0.5400255 -0.0128789
0.7329609375 -0.5333464 0.1744074
0.734109375 -0.463132 0.3598816
0.7352578125 -0.3278819 0.5223379
0.73640625 -0.1338071 0.6380814
0.7375546875 0.1062089 0.6855221
0.738703125 0.369646 0.6445835
0.7398515625 0.6261609 0.5006917
0.741 0.8354049 0.2481563
0.7421484375 0.9481403 -0.1049952
0.743296875 0.909164 -0.5277733
0.7444453125 0.6625602 -0.9551111
0.74559375 0.18018 -1.269938
0.7467421875 -0.4861868 -1.308768
0.747890625 -1.139506 -0.9400122
0.7490390625 -1.423994 -0.212391
0.7501875 -1.290516 0.5292571
0.7513359375 -0.8062707 1.020433
0.752484375 -0.2211461 1.16468
0.7536328125 0.2767032 1.035863
0.75478125 0.6117394 0.7528309
0.7559296875 0.779877 0.4144478
0.757078125 0.805964 0.08480881
0.7582265625 0.7232301 -0.1971084
0.759375 0.5664545 -0.4113216
0.7605234375 0.3651908 -0.5478279
0.761671875 0.1475306 -0.6056678
0.7628203125 -0.06290457 -0.5906355
0.76396875 -0.2456928 -0.5131063
0.7651171875 -0.3869175 -0.3876024
0.766265625 -0.4760084 -0.2309537
0.7674140625 -0.5096722 -0.06101815
0.7685625 -0.488943 0.104154
0.7697109375 -0.4196967 0.2497634
0.770859375 -0.3117274 0.3630328
0.7720078125 -0.1779155 0.4357143
0.77315625 -0.03167987 0.4633427
0.7743046875 0.1134302 0.4460739
0.775453125 0.2448061 0.3866316
0.7766015625 0.3512924 0.2917072
0.77775 0.4249732 0.1700412
0.7788984375 0.4595231 0.03185625
0.780046875 0.4519905 -0.1112998
0.7811953125 0.4023733 -0.2478139
0.78234375 0.3130544 -0.365999
0.7834921875 0.1900938 -0.4546952
0.784640625 0.04203905 -0.5044963
0.7857890625 -0.1195372 -0.5083416
0.7869375 -0.2809527 -0.4616547
0.7880859375 -0.4271393 -0.3642736
0.789234375 -0.5420907 -0.2200147
0.7903828125 -0.6103923 -0.03877188
0.79153125 -0.6196707 0.1663411
0.7926796875 -0.5611422 0.3757681
0.793828125 -0.4311266 0.5677995
0.7949765625 -0.2341285 0.7183861
0.796125 0.01933687 0.803357
0.7972734375 0.308878 0.8005915
0.798421875 0.6062658 0.6937822
0.7995703125 0.8747297 0.4718728
0.80071875 1.068903 0.1355981
0.8018671875 1.134104 -0.2956648
0.803015625 1.013852 -0.7761583
0.8041640625 0.6636657 -1.218883
0.8053125 0.08524958 -1.491845
0.8064609375 -0.6251892 -1.449447
0.807609375 -1.257423 -1.022959
0.8087578125 -1.575775 -0.3156393
0.80990625 -1.481962 0.4244834
0.8110546875 -1.066863 0.9671229
0.812203125 -0.5161412 1.218545
0.8133515625 0.01290719 1.208159
0.8145 0.4310662 1.013789
0.8156484375 0.7067303 0.7173117
0.816796875 0.8392535 0.3850217
0.8179453125 0.8485239 0.06571023
0.81909375 0.759549 -0.2083654
0.8202421875 0.6017278 -0.4171369
0.821390625 0.4031991 -0.5516087
0.8225390625 0.1906665 -0.6112508
0.8236875 -0.01324518 -0.601994
0.8248359375 -0.1908988 -0.5349708
0.825984375 -0.3295774 -0.4240576
0.8271328125 -0.4219844 -0.2860928
0.82828125 -0.4658202 -0.1361441
0.8294296875 -0.4632303 0.01151404
0.830578125 -0.4200893 0.1443786
0.8317265625 -0.3438829 0.2536348
0.832875 -0.243975 0.3325839
0.8340234375 -0.1300731 0.3778583
0.835171875 -0.01222043 0.3883818
0.8363203125 0.1004374 0.3656853
0.83746875 0.1996361 0.3130443
0.8386171875 0.2781733 0.2359146
0.839765625 0.3304824 0.1410738
0.8409140625 0.3532158 0.03632342
0.8420625 0.3449198 -0.06964713
0.8432109375 0.3064233 -0.1681501
0.844359375 0.2408309 -0.2509073
0.8455078125 0.1537765 -0.3108951
0.84665625 0.05270824 -0.3421068
0.8478046875 -0.05323816 -0.341742
0.848953125 -0.1543116 -0.3096711
0.8501015625 -0.241423 -0.2485042
0.85125 -0.3060608 -0.1638728
0.8523984375 -0.3425636 -0.06317931
0.853546875 -0.347057 0.04382105
0.8546953125 -0.3194591 0.1479677
0.85584375 -0.2616007 0.2396468
0.8569921875 -0.1788505 0.3107741
0.858140625 -0.07765567 0.3549283
0.8592890625 0.0335294 0.3677256
0.8604375 0.1460342 0.3474805
0.8615859375 0.2503089 0.2941807
0.862734375 0.3371104 0.2103077
0.8638828125 0.3982038 0.1008126
0.86503125 0.4258152 -0.02704071
0.8661796875 0.4141407 -0.1643205
0.867328125 0.3594255 -0.2996851
0.8684765625 0.26022 -0.419984
0.869625 0.1189439 -0.511244
0.8707734375 -0.05789283 -0.5581734
0.871921875 -0.2586583 -0.5458804
0.8730703125 -0.4644385 -0.4604891
0.87421875 -0.6510374 -0.2931643
0.8753671875 -0.7833582 -0.04098362
0.876515625 -0.8196303 0.2857141
0.8776640625 -0.7096477 0.6528594
0.8788125 -0.4092912 0.9913789
0.8799609375 0.09091348 1.180232
0.881109375 0.7007441 1.070086
0.8822578125 1.192768 0.5895708
0.88340625 1.308887 -0.109918
0.8845546875 1.008742 -0.7095107
0.885703125 0.494902 -1.000807
0.8868515625 -0.00369105 -0.9928797
0.888 -0.3691271 -0.7971781
0.8891484375 -0.5797265 -0.5213974
0.890296875 -0.6558164 -0.2379361
0.8914453125 -0.6291992 0.01365248
0.89259375 -0.5323608 0.2129304
0.8937421875 -0.3925137 0.3518013
0.894890625 -0.2319911 0.430031
0.8960390625 -0.07006038 0.4513401
0.8971875 0.07851255 0.4225049
0.8983359375 0.2023741 0.3533395
0.899484375 0.2926086 0.254734
0.9006328125 0.3449215 0.1385355
0.90178125 0.357513 0.01725057
0.9029296875 0.3320936 -0.09738982
0.904078125 0.273557 -0.1947125
0.9052265625 0.1897329 -0.2662502
0.906375 0.0900846 -0.3064328
0.9075234375 -0.01439834 -0.3126842
0.908671875 -0.1134713 -0.2859965
0.9098203125 -0.1974779 -0.2305071
0.91096875 -0.2587346 -0.1522982
0.9121171875 -0.2920242 -0.06031238
0.913265625 -0.2947638 0.03664071
0.9144140625 -0.2674898 0.1295123
0.9155625 -0.212767 0.2094096
0.9167109375 -0.1359913 0.2690208
0.917859375 -0.04354673 0.3025031
0.9190078125 0.0564157 0.3062606
0.92015625 0.1552381 0.2787247
0.9213046875 0.243143 0.2204673
0.922453125 0.3117976 0.1350231
0.9236015625 0.3523149 0.02799383
0.92475 0.3578978 -0.09220212
0.9258984375 0.3236082 -0.2149857
0.927046875 0.2474959 -0.3273557
0.9281953125 0.1314497 -0.4156914
0.92934375 -0.01823782 -0.4650077
0.9304921875 -0.1897339 -0.462185
0.931640625 -0.3661186 -0.3954609
0.9327890625 -0.5237625 -0.2594202
0.9339375 -0.6349817 -0.05507823
0.9350859375 -0.6669809 0.2052775
0.936234375 -0.5873561 0.4923027
0.9373828125 -0.3720467 0.7565877
0.93853125 -0.01838372 0.9234256
0.9396796875 0.4265273 0.9050676
0.940828125 0.8464047 0.6417269
0.9419765625 1.08212 0.1651705
0.943125 1.022449 -0.3707449
0.9442734375 0.7004507 -0.7759166
0.945421875 0.2581867 -0.9444219
0.9465703125 -0.1580692 -0.8894852
0.94771875 -0.463535 -0.6862
0.9488671875 -0.6354886 -0.415812
0.950015625 -0.6846802 -0.1381662
0.9511640625 -0.6370845 0.1075059
0.9523125 -0.5207711 0.30063
0.9534609375 -0.3624857 0.430823
0.954609375 -0.1853003 0.4968327
0.9557578125 -0.01008708 0.5020344
0.95690625 0.1471675 0.4545892
0.9580546875 0.2738639 0.3654826
0.959203125 0.3614423 0.2472986
0.9603515625 0.4057365 0.114593
0.9615 0.4066588 -0.01950985
0.9626484375 0.3674851 -0.1422251
0.963796875 0.2952981 -0.2430161
0.9649453125 0.1991897 -0.3140255
0.96609375 0.08963143 -0.3515944
0.9672421875 -0.02273106 -0.3541175
0.968390625 -0.1275459 -0.3233938
0.9695390625 -0.2162862 -0.2645852
0.9706875 -0.2824451 -0.1837583
0.9718359375 -0.3210905 -0.08887052
0.972984375 -0.330207 0.01176134
0.9741328125 -0.3099571 0.1097247
0.97528125 -0.2626667 0.197358
0.9764296875 -0.1919292 0.2673303
0.977578125 -0.1036803 0.3143992
0.9787265625 -0.004782071 0.3337256
0.979875 0.09654805 0.3237498
0.9810234375 0.192397 0.2839292
0.982171875 0.2740989 0.2166244
0.9833203125 0.3338737 0.1258055
0.98446875 0.3648866 0.01891946
0.9856171875 0.3625409 -0.09609649
0.986765625 0.3246373 -0.2086833
0.9879140625 0.2521972 -0.308056
0.9890625 0.1491099 -0.3834905
0.9902109375 0.02318894 -0.4257722
0.991359375 -0.1154226 -0.4276636
0.9925078125 -0.2540607 -0.3853247
0.99365625 -0.3790262 -0.2986953
0.9948046875 -0.4764349 -0.1709144
0.995953125 -0.5330093 -0.01043936
0.9971015625 -0.5375667 0.171402
0.99825 -0.4818011 0.3582853
0.9993984375 -0.360258 0.5320584
