# GHZ S RI R 50.0
0.3 -3.472146 -0.4354643
0.3011484375 -2.979565 1.095909
0.302296875 -1.976325 2.018939
0.3034453125 -0.8854519 2.329502
0.30459375 0.04237628 2.197754
0.3057421875 0.7195532 1.810668
0.306890625 1.144452 1.310157
0.3080390625 1.354846 0.7910947
0.3091875 1.396981 0.3050434
0.3103359375 1.311813 -0.1156383
0.311484375 1.136573 -0.4601828
0.3126328125 0.8985611 -0.7235933
0.31378125 0.6213054 -0.9032664
0.3149296875 0.3223268 -1.000602
0.316078125 0.02174944 -1.016051
0.3172265625 -0.2668183 -0.953421
0.318375 -0.524892 -0.816591
0.3195234375 -0.7320467 -0.6140799
0.320671875 -0.8720801 -0.3583989
0.3218203125 -0.9277709 -0.07104084
0.32296875 -0.8901294 0.2194094
0.3241171875 -0.76196 0.4793276
0.325265625 -0.5583011 0.6799896
0.3264140625 -0.3067501 0.7987298
0.3275625 -0.03954446 0.827593
0.3287109375 0.2093041 0.7721754
0.329859375 0.4172862 0.6484795
0.3310078125 0.5708295 0.4776804
0.33215625 0.661042 0.2815934
0.3333046875 0.6920888 0.07853068
0.334453125 0.6687704 -0.1157036
0.3356015625 0.5984254 -0.2898211
0.33675 0.4886211 -0.4370844
0.3378984375 0.3487046 -0.5498778
0.339046875 0.1859817 -0.6235632
0.3401953125 0.008320931 -0.6549215
0.34134375 -0.1751733 -0.6406435
0.3424921875 -0.3527358 -0.5781066
0.343640625 -0.515126 -0.4663062
0.3447890625 -0.6467409 -0.307756
0.3459375 -0.7329755 -0.1089549
0.3470859375 -0.7590622 0.1196884
0.348234375 -0.7125608 0.3590302
0.3493828125 -0.5870413 0.5840839
0.35053125 -0.3851969 0.7660726
0.3516796875 -0.1242875 0.8764119
0.352828125 0.1694455 0.8955718
0.3539765625 0.4605396 0.8142545
0.355125 0.7150318 0.6389956
0.3562734375 0.9032252 0.3866476
0.357421875 1.005531 0.08126196
0.3585703125 1.010928 -0.2471188
0.35971875 0.9151263 -0.573507
0.3608671875 0.7191152 -0.8698996
0.362015625 0.4275301 -1.111409
0.3631640625 0.051962 -1.267809
0.3643125 -0.3985254 -1.308667
0.3654609375 -0.8947029 -1.194061
0.366609375 -1.391648 -0.8762568
0.3677578125 -1.80023 -0.3141566
0.36890625 -1.973649 0.4989953
0.3700546875 -1.712471 1.455405
0.371203125 -0.8824326 2.25406
0.3723515625 0.3645452 2.472884
0.3735 1.527847 1.923395
0.3746484375 2.13507 0.8783464
0.375796875 2.098646 -0.1931647
0.3769453125 1.620413 -0.984723
0.37809375 0.9500685 -1.404043
0.3792421875 0.2777334 -1.488577
0.380390625 -0.2827533 -1.324015
0.3815390625 -0.6766719 -1.007139
0.3826875 -0.8938814 -0.6237985
0.3838359375 -0.9525531 -0.243474
0.384984375 -0.8862874 0.0887058
0.3861328125 -0.7336484 0.3463494
0.38728125 -0.53109 0.5206561
0.3884296875 -0.3088032 0.6133723
0.389578125 -0.09142882 0.6325105
0.3907265625 0.1045653 0.5904849
0.391875 0.2680927 0.5001888
0.3930234375 0.3921682 0.374164
0.394171875 0.4708804 0.225547
0.3953203125 0.5033363 0.06560898
0.39646875 0.4891046 -0.09421363
0.3976171875 0.4292781 -0.2414465
0.398765625 0.3281479 -0.3653575
0.3999140625 0.1922241 -0.4545487
0.4010625 0.03086543 -0.4981214
0.4022109375 -0.1404664 -0.4876447
0.403359375 -0.305359 -0.4188794
0.4045078125 -0.4428044 -0.2938003
0.40565625 -0.5325265 -0.1224128
0.4068046875 -0.5575784 0.07756903
0.407953125 -0.5089512 0.2810448
0.4091015625 -0.3865682 0.460635
0.41025 -0.201902 0.5907171
0.4113984375 0.02501634 0.6507943
0.412546875 0.2685202 0.6285614
0.4136953125 0.5036236 0.5188763
0.41484375 0.7016119 0.3242484
0.4159921875 0.8345277 0.05143567
0.417140625 0.8719538 -0.2834165
0.4182890625 0.7787603 -0.6593209
0.4194375 0.5160167 -1.030978
0.4205859375 0.04525737 -1.318171
0.421734375 -0.6358632 -1.37759
0.4228828125 -1.401266 -1.008344
0.42403125 -1.887995 -0.1214204
0.4251796875 -1.685514 0.9654642
0.426328125 -0.8599972 1.652367
0.4274765625 0.08074806 1.703229
0.428625 0.7721286 1.321518
0.4297734375 1.133757 0.7736129
0.430921875 1.216817 0.226566
0.4320703125 1.101467 -0.2364684
0.43321875 0.8571354 -0.5759854
0.4343671875 0.5454425 -0.7818664
0.435515625 0.2170604 -0.8580564
0.4366640625 -0.0872876 -0.8204364
0.4378125 -0.3379397 -0.6935119
0.4389609375 -0.515605 -0.508629
0.440109375 -0.6152443 -0.2950261
0.4412578125 -0.640232 -0.0782669
0.44240625 -0.6006105 0.1202042
0.4435546875 -0.5100947 0.2856449
0.444703125 -0.3830296 0.4093487
0.4458515625 -0.2346281 0.4872648
0.447 -0.07764203 0.5190032
0.4481484375 0.07586072 0.5066119
0.449296875 0.2163824 0.4546891
0.4504453125 0.3348378 0.3677146
0.45159375 0.4243366 0.2528806
0.4527421875 0.4792044 0.1183269
0.453890625 0.4945136 -0.02709816
0.4550390625 0.4680958 -0.1730696
0.4561875 0.3998505 -0.3075241
0.4573359375 0.2931041 -0.4186817
0.458484375 0.1547454 -0.4950165
0.4596328125 -0.003932611 -0.5262867
0.46078125 -0.1681546 -0.506666
0.4619296875 -0.3207107 -0.4354437
0.463078125 -0.4446071 -0.318406
0.4642265625 -0.5265756 -0.1667386
0.465375 -0.5567346 0.004337447
0.4665234375 -0.5330141 0.1754694
0.467671875 -0.4578932 0.3315467
0.4688203125 -0.3397237 0.4574978
0.46996875 -0.1899279 0.5433222
0.4711171875 -0.02151668 0.5824376
0.472265625 0.1520725 0.5729181
0.4734140625 0.3185459 0.5146129
0.4745625 0.4658356 0.4110628
0.4757109375 0.5829468 0.2673771
0.476859375 0.6595716 0.09112795
0.4780078125 0.6868982 -0.1095616
0.47915625 0.6570833 -0.3201529
0.4803046875 0.5644106 -0.5282315
0.481453125 0.405011 -0.716427
0.4826015625 0.1817779 -0.8620761
0.48375 -0.09982347 -0.9435275
0.4848984375 -0.4242302 -0.9366003
0.486046875 -0.7655358 -0.8176155
0.4871953125 -1.086267 -0.5694815
0.48834375 -1.336509 -0.1843181
0.4894921875 -1.455847 0.3251812
0.490640625 -1.37617 0.9222876
0.4917890625 -1.030884 1.530971
0.4929375 -0.3739017 2.025456
0.4940859375 0.5698032 2.21842
0.495234375 1.65362 1.894934
0.4963828125 2.518596 0.9372416
0.49753125 2.715359 -0.4412404
0.4986796875 2.082114 -1.683613
0.499828125 0.9584399 -2.300371
0.5009765625 -0.1538496 -2.248206
0.502125 -0.9587709 -1.769528
0.5032734375 -1.400995 -1.124736
0.504421875 -1.538849 -0.4797115
0.5055703125 -1.456221 0.07947797
0.50671875 -1.227029 0.5161356
0.5078671875 -0.9121251 0.8204386
0.509015625 -0.5570779 0.9951413
0.5101640625 -0.1981327 1.049294
0.5113125 0.1346638 0.9974384
0.5124609375 0.4185243 0.8577689
0.513609375 0.634685 0.6506791
0.5147578125 0.7711819 0.4003702
0.51590625 0.8219801 0.1330253
0.5170546875 0.7892564 -0.1253581
0.518203125 0.6833264 -0.3513654
0.5193515625 0.5194122 -0.5253693
0.5205 0.3185086 -0.6358775
0.5216484375 0.1042429 -0.6773125
0.522796875 -0.1040431 -0.6530817
0.5239453125 -0.2862267 -0.5715455
0.52509375 -0.4306637 -0.4452025
0.5262421875 -0.5287265 -0.2883136
0.527390625 -0.5752547 -0.1167957
0.5285390625 -0.5720066 0.05622242
0.5296875 -0.5217061 0.2167626
0.5308359375 -0.430462 0.3547788
0.531984375 -0.3060703 0.4609455
0.5331328125 -0.1578986 0.528174
0.53428125 0.003332704 0.5517585
0.5354296875 0.1662753 0.5295371
0.536578125 0.3181929 0.4610474
0.5377265625 0.4469781 0.3501296
0.538875 0.5406652 0.2033448
0.5400234375 0.5885466 0.03051483
0.541171875 0.5829265 -0.1544976
0.5423203125 0.5198965 -0.3354672
0.54346875 0.4002753 -0.4941173
0.5446171875 0.2312584 -0.6127713
0.545765625 0.02634814 -0.6757085
0.5469140625 -0.1974833 -0.6711511
0.5480625 -0.4166657 -0.5940096
0.5492109375 -0.610185 -0.4454703
0.550359375 -0.7545923 -0.2334913
0.5515078125 -0.8298574 0.02802655
0.55265625 -0.8187152 0.3181336
0.5538046875 -0.7081359 0.6128669
0.554953125 -0.4901114 0.8801418
0.5561015625 -0.1617872 1.082342
0.55725 0.2681494 1.171188
0.5583984375 0.7713953 1.085702
0.559546875 1.279784 0.7573364
0.5606953125 1.655239 0.1347257
0.56184375 1.679221 -0.7342405
0.5629921875 1.145914 -1.587263
0.564140625 0.1332411 -1.981733
0.5652890625 -0.8871879 -1.679338
0.5664375 -1.472422 -0.9208534
0.5675859375 -1.544564 -0.1079783
0.568734375 -1.26896 0.5154673
0.5698828125 -0.8351883 0.8811865
0.57103125 -0.3728217 1.01587
0.5721796875 0.0399875 0.9708908
0.573328125 0.3589778 0.8031942
0.5744765625 0.5704889 0.5637227
0.575625 0.6736493 0.2973621
0.5767734375 0.6795022 0.03971966
0.577921875 0.6062359 -0.183182
0.5790703125 0.4758834 -0.3544469
0.58021875 0.3106051 -0.4655862
0.5813671875 0.1313211 -0.5149634
0.582515625 -0.04334639 -0.5064196
0.5836640625 -0.1985467 -0.4476114
0.5848125 -0.3230363 -0.3483713
0.5859609375 -0.4085398 -0.2204887
0.587109375 -0.4503097 -0.07607491
0.5882578125 -0.4470919 0.07157272
0.58940625 -0.3995261 0.2105927
0.5905546875 -0.312021 0.3288856
0.591703125 -0.1917277 0.4162159
0.5928515625 -0.04795149 0.4631592
0.594 0.1068158 0.4635817
0.5951484375 0.2583855 0.4141942
0.596296875 0.3913365 0.3165981
0.5974453125 0.4899457 0.1767962
0.59859375 0.540886 0.005733673
0.5997421875 0.5344922 -0.1807945
0.600890625 0.4647712 -0.3636624
0.6020390625 0.3334224 -0.522406
0.6031875 0.1481095 -0.6364606
0.6043359375 -0.07706131 -0.6880799
0.605484375 -0.3232549 -0.6630348
0.6066328125 -0.5656086 -0.5526893
0.60778125 -0.778007 -0.3536983
0.6089296875 -0.9281194 -0.06964852
0.610078125 -0.9823565 0.2869509
0.6112265625 -0.9022568 0.6923395
0.612375 -0.6461948 1.100831
0.6135234375 -0.1771947 1.433127
0.614671875 0.5076805 1.559225
0.6158203125 1.31272 1.299774
0.61696875 1.958133 0.5303025
0.6181171875 2.038399 -0.5886901
0.619265625 1.409705 -1.542738
0.6204140625 0.4181577 -1.907849
0.6215625 -0.4720358 -1.705208
0.6227109375 -1.041322 -1.192981
0.623859375 -1.284223 -0.5980431
0.6250078125 -1.272821 -0.05459862
0.62615625 -1.090438 0.3751029
0.6273046875 -0.8088619 0.6716024
0.628453125 -0.4845235 0.8341774
0.6296015625 -0.1621618 0.876061
0.63075 0.1264317 0.8174161
0.6318984375 0.3589463 0.6829028
0.633046875 0.5232618 0.498888
0.6341953125 0.6152561 0.2908622
0.63534375 0.6380857 0.08059567
0.6364921875 0.6000549 -0.1134263
0.637640625 0.5127675 -0.276229
0.6387890625 0.3891782 -0.4002259
0.6399375 0.2428582 -0.4792359
0.6410859375 0.08726739 -0.5122375
0.642234375 -0.06536704 -0.5000052
0.6433828125 -0.2043086 -0.4476077
0.64453125 -0.3196217 -0.3604907
0.6456796875 -0.4042606 -0.2469992
0.646828125 -0.4529888 -0.1160083
0.6479765625 -0.4622392 0.02177542
0.649125 -0.4319821 0.1559911
0.6502734375 -0.3650233 0.2752593
0.651421875 -0.2661365 0.3700383
0.6525703125 -0.1438125 0.4319805
0.65371875 -0.008184103 0.4551914
0.6548671875 0.1286186 0.4371749
0.656015625 0.2543589 0.3789286
0.6571640625 0.356962 0.2861132
0.6583125 0.4273722 0.1663837
0.6594609375 0.4589117 0.03100782
0.660609375 0.4493927 -0.107946
0.6617578125 0.3990677 -0.2380956
0.66290625 0.312584 -0.3483009
0.6640546875 0.1972852 -0.4291842
0.665203125 0.06276173 -0.4736294
0.6663515625 -0.08056321 -0.4777865
0.6675 -0.2214265 -0.4406096
0.6686484375 -0.3481956 -0.3633307
0.669796875 -0.4504765 -0.2505636
0.6709453125 -0.5187398 -0.1094965
0.67209375 -0.5447951 0.05075696
0.6732421875 -0.5227392 0.2183158
0.674390625 -0.4501019 0.3798814
0.6755390625 -0.3279911 0.5193622
0.6766875 -0.161171 0.6224276
0.6778359375 0.04087981 0.6734729
0.678984375 0.2614414 0.6609558
0.6801328125 0.481952 0.5758271
0.68128125 0.6788079 0.4158007
0.6824296875 0.8257431 0.185603
0.683578125 0.8976195 -0.1008702
0.6847265625 0.8707849 -0.4209737
0.685875 0.7283117 -0.7428062
0.6870234375 0.4608096 -1.025002
0.688171875 0.07304454 -1.216496
0.6893203125 -0.411463 -1.261241
0.69046875 -0.938768 -1.102144
0.6916171875 -1.418011 -0.694282
0.692765625 -1.709024 -0.03944832
0.6939140625 -1.656281 0.7652287
0.6950625 -1.168184 1.496844
0.6962109375 -0.3360208 1.881093
0.697359375 0.5593383 1.770338
0.6985078125 1.222309 1.253547
0.69965625 1.517877 0.5601156
0.7008046875 1.477087 -0.0999497
0.701953125 1.205866 -0.6084521
0.7031015625 0.8149652 -0.9272196
0.70425 0.3904705 -1.063513
0.7053984375 -0.006808004 -1.044805
0.706546875 -0.3384461 -0.9076033
0.7076953125 -0.5823573 -0.6895787
0.70884375 -0.7291674 -0.4269922
0.7099921875 -0.7796502 -0.1528478
0.711140625 -0.7425689 0.1031633
0.7122890625 -0.6340619 0.3202041
0.7134375 -0.4729918 0.4818714
0.7145859375 -0.2807572 0.5792196
0.715734375 -0.07914366 0.6107357
0.7168828125 0.1126107 0.5802713
0.71803125 0.2783966 0.4968327
0.7191796875 0.4055152 0.3724661
0.720328125 0.4866993 0.2210132
0.7214765625 0.5174732 0.0581636
0.722625 0.4991488 -0.1027618
0.7237734375 0.435168 -0.247599
0.724921875 0.332628 -0.3654421
0.7260703125 0.2013389 -0.4469302
0.72721875 0.05194849 -0.4853945
0.7283671875 -0.1027085 -0.4775017
0.729515625 -0.2489103 -0.4230478
0.7306640625 -0.3733394 -0.3252662
0.7318125 -0.4638869 -0.1912092
0.7329609375 -0.5092331 -0.03253546
0.734109375 -0.5024205 0.1373875
0.7352578125 -0.4405027 0.301742
0.73640625 -0.3249633 0.4428802
0.7375546875 -0.1636247 0.5432752
0.738703125 0.03083281 0.58762
0.7398515625 0.2384193 0.5649822
0.741 0.4380408 0.4692293
0.7421484375 0.6048869 0.3021658
0.743296875 0.7129537 0.0720695
0.7444453125 0.7368905 -0.2030257
0.74559375 0.6547043 -0.4954516
0.7467421875 0.4503586 -0.7662976
0.747890625 0.1205198 -0.9601564
0.7490390625 -0.3023318 -0.9712812
0.7501875 -0.7595479 -0.8110016
0.7513359375 -1.132857 -0.399709
0.752484375 -1.253423 0.2097083
0.7536328125 -1.004372 0.8252227
0.75478125 -0.4490533 1.196236
0.7559296875 0.1820243 1.199354
0.757078125 0.6664693 0.9039718
0.7582265625 0.9122894 0.4729644
0.759375 0.9363539 0.04256591
0.7605234375 0.8002193 -0.3076418
0.761671875 0.5693535 -0.5449362
0.7628203125 0.3000095 -0.6645022
0.76396875 0.03435325 -0.6781729
0.7651171875 -0.1966723 -0.605115
0.766265625 -0.3739767 -0.4691069
0.7674140625 -0.486444 -0.2946049
0.7685625 -0.5318682 -0.1061784
0.7697109375 -0.5138121 0.0757453
0.770859375 -0.4420954 0.2332407
0.7720078125 -0.3294929 0.3537134
0.77315625 -0.1908238 0.4290167
0.7743046875 -0.04109813 0.4565163
0.775453125 0.1048433 0.4370119
0.7766015625 0.2346428 0.3753082
0.77775 0.3377461 0.2793171
0.7788984375 0.4060535 0.1582072
0.780046875 0.434903 0.02320277
0.7811953125 0.4219251 -0.1139295
0.78234375 0.3685185 -0.2419609
0.7834921875 0.2783951 -0.3489353
0.784640625 0.158062 -0.4256534
0.7857890625 0.01718069 -0.4629014
0.7869375 -0.1320968 -0.4558434
0.7880859375 -0.2764845 -0.4019698
0.789234375 -0.4012405 -0.3029853
0.7903828125 -0.4930882 -0.1652256
0.79153125 -0.5389482 0.0009032479
0.7926796875 -0.5303509 0.1805813
0.793828125 -0.4628243 0.3563146
0.7949765625 -0.3373321 0.5094685
0.796125 -0.1603467 0.6200075
0.7972734375 0.05449014 0.671955
0.798421875 0.2887122 0.6513744
0.7995703125 0.5195705 0.5493811
0.80071875 0.7195109 0.3642391
0.8018671875 0.8589457 0.1019253
0.803015625 0.9058998 -0.2224849
0.8041640625 0.8285962 -0.5788991
0.8053125 0.6012464 -0.9208514
0.8064609375 0.2125599 -1.178616
0.807609375 -0.3111877 -1.262486
0.8087578125 -0.8834094 -1.08214
0.80990625 -1.342997 -0.6042672
0.8110546875 -1.506912 0.08383271
0.812203125 -1.285415 0.7644568
0.8133515625 -0.7654116 1.216061
0.8145 -0.1439772 1.340128
0.8156484375 0.3984035 1.179176
0.816796875 0.7679735 0.8444846
0.8179453125 0.9448294 0.444782
0.81909375 0.9543204 0.05921254
0.8202421875 0.8383332 -0.2622496
0.821390625 0.6405823 -0.4951771
0.8225390625 0.4022489 -0.6325164
0.8236875 0.1568263 -0.6785275
0.8248359375 -0.06875052 -0.6461173
0.825984375 -0.2553169 -0.5516878
0.8271328125 -0.3922683 -0.4157698
0.82828125 -0.4742367 -0.2566985
0.8294296875 -0.5022069 -0.09202746
0.830578125 -0.4812278 0.06315078
0.8317265625 -0.4191595 0.196711
0.832875 -0.3262239 0.3008972
0.8340234375 -0.2125917 0.370453
0.835171875 -0.08946524 0.4026459
0.8363203125 0.03321238 0.3984761
0.83746875 0.1458315 0.3608763
0.8386171875 0.2405367 0.2943109
0.839765625 0.3105028 0.2054816
0.8409140625 0.3512734 0.1023398
0.8420625 0.3603358 -0.006874012
0.8432109375 0.3378257 -0.1125001
0.844359375 0.2856416 -0.2063604
0.8455078125 0.2087359 -0.2801012
0.84665625 0.1137863 -0.327674
0.8478046875 0.009671609 -0.344337
0.848953125 -0.09434659 -0.329344
0.8501015625 -0.1885469 -0.2840593
0.85125 -0.2643576 -0.2129157
0.8523984375 -0.3154305 -0.1228298
0.853546875 -0.3369707 -0.02204615
0.8546953125 -0.3276867 0.08016757
0.85584375 -0.2887527 0.1749864
0.8569921875 -0.2236806 0.2539524
0.858140625 -0.1383702 0.3108111
0.8592890625 -0.0397718 0.3405402
0.8604375 0.06395566 0.3404714
0.8615859375 0.1646745 0.3102494
0.862734375 0.2539562 0.2516124
0.8638828125 0.3242947 0.1679109
0.86503125 0.3688235 0.06470299
0.8661796875 0.3823938 -0.05057234
0.867328125 0.3608572 -0.1694187
0.8684765625 0.3031846 -0.2818228
0.869625 0.2103335 -0.3767267
0.8707734375 0.08681186 -0.443283
0.871921875 -0.05958163 -0.4713901
0.8730703125 -0.2177012 -0.4516746
0.87421875 -0.3733383 -0.3793201
0.8753671875 -0.508186 -0.2516053
0.876515625 -0.6027519 -0.07263542
0.8776640625 -0.6367005 0.1471197
0.8788125 -0.5907835 0.389082
0.8799609375 -0.4487723 0.6253362
0.881109375 -0.202394 0.8177808
0.8822578125 0.1421366 0.9140984
0.88340625 0.5515294 0.8556043
0.8845546875 0.9487081 0.5852192
0.885703125 1.199211 0.09324203
0.8868515625 1.149624 -0.5194911
0.888 0.747848 -1.027309
0.8891484375 0.1404039 -1.216017
0.890296875 -0.4199656 -1.055293
0.8914453125 -0.7692707 -0.6851434
0.89259375 -0.8855157 -0.26701
0.8937421875 -0.8239908 0.09695276
0.894890625 -0.6536596 0.363022
0.8960390625 -0.4313275 0.523394
0.8971875 -0.1983333 0.5874539
0.8983359375 0.01687284 0.5708023
0.899484375 0.1958335 0.492066
0.9006328125 0.3274405 0.3702829
0.90178125 0.4059645 0.2245299
0.9029296875 0.4319372 0.07228271
0.904078125 0.4090885 -0.07078978
0.9052265625 0.3453958 -0.1921491
0.906375 0.2515008 -0.2817437
0.9075234375 0.1395461 -0.3342722
0.908671875 0.02193281 -0.3478073
0.9098203125 -0.08896919 -0.3246243
0.91096875 -0.1832811 -0.2696738
0.9121171875 -0.2531786 -0.1908979
0.913265625 -0.2937925 -0.09698389
0.9144140625 -0.3032607 0.002149831
0.9155625 -0.2818823 0.09726537
0.9167109375 -0.2334862 0.1797537
0.917859375 -0.1629653 0.2428844
0.9190078125 -0.07698833 0.281272
0.92015625 0.01662759 0.2918231
0.9213046875 0.1094665 0.2730634
0.922453125 0.1932892 0.2264041
0.9236015625 0.2597987 0.154846
0.92475 0.3021225 0.06421705
0.9258984375 0.314639 -0.03793864
0.927046875 0.2938172 -0.142526
0.9281953125 0.2390526 -0.2389206
0.92934375 0.1523917 -0.3162784
0.9304921875 0.04019374 -0.3640626
0.931640625 -0.08817998 -0.373809
0.9327890625 -0.2203853 -0.3388667
0.9339375 -0.3412082 -0.2572476
0.9350859375 -0.4342717 -0.131379
0.936234375 -0.4834115 0.03061797
0.9373828125 -0.4729095 0.2142197
0.93853125 -0.3922695 0.3995959
0.9396796875 -0.2352387 0.5592951
0.940828125 -0.005794019 0.6605195
0.9419765625 0.2777368 0.666288
0.943125 0.5744194 0.5400907
0.9442734375 0.815639 0.2639627
0.945421875 0.9096918 -0.1377259
0.9465703125 0.7799886 -0.5713012
0.94771875 0.4244133 -0.8897301
0.9488671875 -0.04527379 -0.9725145
0.950015625 -0.4685353 -0.8069888
0.9511640625 -0.7301732 -0.4843029
0.9523125 -0.8037999 -0.1207217
0.9534609375 -0.7241746 0.1975102
0.954609375 -0.5463013 0.4269789
0.9557578125 -0.32187 0.5557961
0.95690625 -0.09189364 0.5905111
0.9580546875 0.1145777 0.5467555
0.959203125 0.2787982 0.4445089
0.9603515625 0.3900255 0.3050486
0.9615 0.4452281 0.148433
0.9626484375 0.4464274 -0.006878533
0.963796875 0.4007778 -0.1457533
0.9649453125 0.3183319 -0.2563204
0.96609375 0.2108419 -0.3315315
0.9672421875 0.09122349 -0.3679208
0.968390625 -0.02836 -0.3658694
0.9695390625 -0.1370821 -0.3289854
0.9706875 -0.2264665 -0.2635509
0.9718359375 -0.2902829 -0.1771212
0.972984375 -0.3242956 -0.0781801
0.9741328125 -0.3278722 0.02397759
0.97528125 -0.30182 0.1212168
0.9764296875 -0.2489725 0.205447
0.977578125 -0.1744575 0.2700819
0.9787265625 -0.08459422 0.3101598
0.979875 0.01336738 0.3222217
0.9810234375 0.1110475 0.3048947
0.982171875 0.2002237 0.2591186
0.9833203125 0.2730271 0.1880619
0.98446875 0.3219391 0.09712011
0.9856171875 0.3419424 -0.00635286
0.986765625 0.3296882 -0.1131941
0.9879140625 0.2846279 -0.2137682
0.9890625 0.2092587 -0.2980427
0.9902109375 0.109221 -0.3569998
0.991359375 -0.007112606 -0.3832408
0.9925078125 -0.1297746 -0.3725809
0.99365625 -0.247035 -0.3236768
0.9948046875 -0.3473595 -0.2383423
0.995953125 -0.4197331 -0.1220402
0.9971015625 -0.4548624 0.01655944
0.99825 -0.4459332 0.1662937
