# GHZ S RI R 50.0
0.3 -3.487361 -0.4554035
0.3011484375 -3.000932 1.089608
0.302296875 -1.989699 2.024064
0.3034453125 -0.8938074 2.339798
0.30459375 0.03911601 2.20649
0.3057421875 0.7200955 1.817134
0.306890625 1.147169 1.315148
0.3080390625 1.358051 0.7938571
0.3091875 1.400718 0.3064287
0.3103359375 1.315284 -0.116504
0.311484375 1.138754 -0.4606513
0.3126328125 0.8995592 -0.7246952
0.31378125 0.6221545 -0.9038699
0.3149296875 0.3235275 -1.001135
0.316078125 0.02144365 -1.016758
0.3172265625 -0.2672359 -0.9537708
0.318375 -0.5240852 -0.8172801
0.3195234375 -0.7324088 -0.6142841
0.320671875 -0.8719993 -0.3585542
0.3218203125 -0.9276577 -0.07169334
0.32296875 -0.89045 0.2189143
0.3241171875 -0.761691 0.479213
0.325265625 -0.5584962 0.6795036
0.3264140625 -0.3066073 0.7987374
0.3275625 -0.0407644 0.8274756
0.3287109375 0.2092632 0.7719525
0.329859375 0.4167458 0.6483924
0.3310078125 0.5695353 0.4780437
0.33215625 0.6607258 0.2813324
0.3333046875 0.6915035 0.07946775
0.334453125 0.6683192 -0.1146374
0.3356015625 0.5982665 -0.28924
0.33675 0.4889931 -0.4359516
0.3378984375 0.3489289 -0.5486337
0.339046875 0.1856072 -0.6228519
0.3401953125 0.008961231 -0.6542001
0.34134375 -0.1737119 -0.6396325
0.3424921875 -0.351652 -0.5774227
0.343640625 -0.5134861 -0.4664902
0.3447890625 -0.6451544 -0.3087069
0.3459375 -0.7318625 -0.1093732
0.3470859375 -0.7581179 0.1181829
0.348234375 -0.7118783 0.3574929
0.3493828125 -0.5865274 0.5826783
0.35053125 -0.3858945 0.7639229
0.3516796875 -0.1247909 0.874862
0.352828125 0.1674946 0.8937711
0.3539765625 0.458232 0.8131295
0.355125 0.7119884 0.6382923
0.3562734375 0.8994935 0.3872117
0.357421875 1.002463 0.08391827
0.3585703125 1.008033 -0.2451072
0.35971875 0.9130659 -0.5691395
0.3608671875 0.7186368 -0.8649155
0.362015625 0.4300608 -1.105366
0.3631640625 0.05567067 -1.262665
0.3643125 -0.3914584 -1.305023
0.3654609375 -0.8858256 -1.192487
0.366609375 -1.381293 -0.879347
0.3677578125 -1.790708 -0.3222598
0.36890625 -1.968287 0.4841808
0.3700546875 -1.716865 1.437756
0.371203125 -0.897585 2.241087
0.3723515625 0.3445185 2.474119
0.3735 1.513543 1.935411
0.3746484375 2.132121 0.8943017
0.375796875 2.104052 -0.181439
0.3769453125 1.627234 -0.977885
0.37809375 0.95706 -1.402002
0.3792421875 0.2834169 -1.488306
0.380390625 -0.2794044 -1.32569
0.3815390625 -0.6736894 -1.008798
0.3826875 -0.8917686 -0.6263233
0.3838359375 -0.9513869 -0.245652
0.384984375 -0.8859094 0.08668083
0.3861328125 -0.7335857 0.3451732
0.38728125 -0.5315835 0.5187889
0.3884296875 -0.3103291 0.6115295
0.389578125 -0.09292594 0.6311684
0.3907265625 0.1031659 0.5896054
0.391875 0.2670549 0.4994244
0.3930234375 0.390242 0.3742702
0.394171875 0.4692453 0.2257976
0.3953203125 0.5017627 0.06630848
0.39646875 0.4875504 -0.09278879
0.3976171875 0.4281254 -0.2402673
0.398765625 0.3274987 -0.3637048
0.3999140625 0.1918195 -0.4526081
0.4010625 0.03181954 -0.4959974
0.4022109375 -0.1394116 -0.4855003
0.403359375 -0.3035925 -0.4173843
0.4045078125 -0.4405382 -0.2926425
0.40565625 -0.5301945 -0.1216034
0.4068046875 -0.5550457 0.07672852
0.407953125 -0.506261 0.2795387
0.4091015625 -0.3846293 0.4581359
0.41025 -0.2012044 0.5873556
0.4113984375 0.0241793 0.647086
0.412546875 0.2679186 0.6243919
0.4136953125 0.5013703 0.5150811
0.41484375 0.6975402 0.3215967
0.4159921875 0.8290657 0.0512442
0.417140625 0.8653376 -0.282219
0.4182890625 0.7729486 -0.6540139
0.4194375 0.5118859 -1.021718
0.4205859375 0.045244 -1.306228
0.421734375 -0.6288133 -1.36522
0.4228828125 -1.384227 -1.003135
0.42403125 -1.868962 -0.1293244
0.4251796875 -1.678642 0.9472378
0.426328125 -0.8673165 1.636296
0.4274765625 0.069911 1.696785
0.428625 0.7625012 1.322439
0.4297734375 1.127202 0.7775208
0.430921875 1.214201 0.2314195
0.4320703125 1.100409 -0.2321143
0.43321875 0.8578064 -0.5724712
0.4343671875 0.5465819 -0.7793105
0.435515625 0.2179884 -0.8567634
0.4366640625 -0.0853484 -0.8195072
0.4378125 -0.335477 -0.6939929
0.4389609375 -0.5138286 -0.5091608
0.440109375 -0.6138216 -0.2955453
0.4412578125 -0.6390889 -0.07909471
0.44240625 -0.5997805 0.1191198
0.4435546875 -0.509591 0.2843888
0.444703125 -0.3831605 0.4080674
0.4458515625 -0.234934 0.4861006
0.447 -0.0785083 0.5182323
0.4481484375 0.07488009 0.5062271
0.449296875 0.2150742 0.4541417
0.4504453125 0.3336648 0.3674012
0.45159375 0.4233815 0.2532288
0.4527421875 0.4780474 0.118877
0.453890625 0.4936818 -0.02619936
0.4550390625 0.4673602 -0.172059
0.4561875 0.399703 -0.3062471
0.4573359375 0.2934758 -0.4174304
0.458484375 0.1553412 -0.493631
0.4596328125 -0.002938173 -0.525167
0.46078125 -0.1670177 -0.5054967
0.4619296875 -0.3188263 -0.4349426
0.463078125 -0.4429469 -0.3184323
0.4642265625 -0.5248952 -0.1672755
0.465375 -0.555545 0.002520885
0.4665234375 -0.5320141 0.1737639
0.467671875 -0.4573751 0.3295424
0.4688203125 -0.339995 0.4556119
0.46996875 -0.1909108 0.541576
0.4711171875 -0.02296433 0.5810901
0.472265625 0.150253 0.5715167
0.4734140625 0.3160433 0.5138583
0.4745625 0.4632111 0.4110685
0.4757109375 0.580302 0.2684771
0.476859375 0.657101 0.09276392
0.4780078125 0.6850148 -0.1061639
0.47915625 0.6560585 -0.3167242
0.4803046875 0.5641913 -0.524296
0.481453125 0.4069081 -0.7114573
0.4826015625 0.1846145 -0.857907
0.48375 -0.09525462 -0.9405435
0.4848984375 -0.4174156 -0.9353704
0.486046875 -0.7578434 -0.818792
0.4871953125 -1.077892 -0.573315
0.48834375 -1.329497 -0.1929093
0.4894921875 -1.451749 0.3127117
0.490640625 -1.377845 0.9067262
0.4917890625 -1.0416 1.514972
0.4929375 -0.397525 2.013837
0.4940859375 0.5416065 2.220537
0.495234375 1.628297 1.916634
0.4963828125 2.511898 0.9741991
0.49753125 2.735693 -0.408361
0.4986796875 2.117498 -1.671651
0.499828125 0.9860621 -2.311578
0.5009765625 -0.1434255 -2.268412
0.502125 -0.9588978 -1.787764
0.5032734375 -1.408342 -1.134954
0.504421875 -1.546892 -0.4856071
0.5055703125 -1.463749 0.07810162
0.50671875 -1.233136 0.5167844
0.5078671875 -0.9163117 0.8225467
0.509015625 -0.5598806 0.9973584
0.5101640625 -0.1996432 1.051656
0.5113125 0.1345134 1.000152
0.5124609375 0.4187118 0.8595322
0.513609375 0.6351776 0.6520702
0.5147578125 0.7716853 0.4016474
0.51590625 0.822381 0.1338342
0.5170546875 0.7900598 -0.1248238
0.518203125 0.6835219 -0.3506018
0.5193515625 0.5199637 -0.5251426
0.5205 0.3197495 -0.6350205
0.5216484375 0.1050679 -0.6769533
0.522796875 -0.1023211 -0.6530293
0.5239453125 -0.2851747 -0.5716782
0.52509375 -0.4295157 -0.4456344
0.5262421875 -0.5273595 -0.2893259
0.527390625 -0.5743482 -0.1178902
0.5285390625 -0.5711466 0.05462356
0.5296875 -0.5212502 0.2152981
0.5308359375 -0.4302093 0.3532938
0.531984375 -0.3063439 0.4593443
0.5331328125 -0.1584491 0.5270779
0.53428125 0.001971973 0.5504779
0.5354296875 0.1642925 0.5283569
0.536578125 0.3160184 0.4606891
0.5377265625 0.4447082 0.3504914
0.538875 0.53844 0.2043481
0.5400234375 0.5866992 0.03229613
0.541171875 0.5816245 -0.1522888
0.5423203125 0.5191852 -0.3327076
0.54346875 0.4005976 -0.491096
0.5446171875 0.232653 -0.6097466
0.545765625 0.0288798 -0.6729441
0.5469140625 -0.1935231 -0.6692594
0.5480625 -0.4124638 -0.5933798
0.5492109375 -0.6057763 -0.4461746
0.550359375 -0.7499898 -0.2358835
0.5515078125 -0.8260105 0.02351841
0.55265625 -0.8162136 0.3121141
0.5538046875 -0.7083414 0.6052884
0.554953125 -0.4928475 0.8729905
0.5561015625 -0.1691127 1.074968
0.55725 0.2563651 1.166483
0.5583984375 0.7566168 1.087047
0.559546875 1.264466 0.7671189
0.5606953125 1.647407 0.1550321
0.56184375 1.685399 -0.7096718
0.5629921875 1.169409 -1.572313
0.564140625 0.1613531 -1.986483
0.5652890625 -0.8729371 -1.69776
0.5664375 -1.473674 -0.9380383
0.5675859375 -1.55269 -0.1172847
0.568734375 -1.27808 0.5112371
0.5698828125 -0.8411098 0.8814255
0.57103125 -0.3767733 1.018097
0.5721796875 0.03647698 0.9736778
0.573328125 0.357772 0.8050184
0.5744765625 0.5700946 0.5650114
0.575625 0.6733475 0.298493
0.5767734375 0.6793067 0.04079839
0.577921875 0.6064278 -0.1820855
0.5790703125 0.4759928 -0.3534334
0.58021875 0.3108895 -0.4645129
0.5813671875 0.1316013 -0.5140646
0.582515625 -0.04266525 -0.5055786
0.5836640625 -0.1975706 -0.4467039
0.5848125 -0.3216065 -0.3478087
0.5859609375 -0.4071994 -0.2204706
0.587109375 -0.4489715 -0.07675374
0.5882578125 -0.4458278 0.0706895
0.58940625 -0.3986416 0.2093766
0.5905546875 -0.3115997 0.3274793
0.591703125 -0.1916194 0.4143879
0.5928515625 -0.04866929 0.4613743
0.594 0.1055699 0.4621653
0.5951484375 0.2565448 0.4132973
0.596296875 0.3890174 0.3163151
0.5974453125 0.487721 0.1770689
0.59859375 0.5389671 0.0069872
0.5997421875 0.5325121 -0.1785219
0.600890625 0.4638397 -0.3607381
0.6020390625 0.3332435 -0.5193182
0.6031875 0.1497438 -0.633095
0.6043359375 -0.07415708 -0.6848315
0.605484375 -0.3193873 -0.6608843
0.6066328125 -0.5601236 -0.5525152
0.60778125 -0.7714497 -0.3550571
0.6089296875 -0.9221698 -0.07487528
0.610078125 -0.9785864 0.2783768
0.6112265625 -0.9025649 0.6804565
0.612375 -0.6519561 1.088513
0.6135234375 -0.1928209 1.424121
0.614671875 0.4849406 1.560133
0.6158203125 1.291985 1.318311
0.61696875 1.955023 0.5625529
0.6181171875 2.060869 -0.5623758
0.619265625 1.442402 -1.540858
0.6204140625 0.439219 -1.925915
0.6215625 -0.4680584 -1.726632
0.6227109375 -1.047736 -1.207915
0.623859375 -1.293576 -0.6062411
0.6250078125 -1.281464 -0.05742115
0.62615625 -1.097063 0.3768805
0.6273046875 -0.8130004 0.6752091
0.628453125 -0.4864774 0.8380681
0.6296015625 -0.1622407 0.8792372
0.63075 0.1271999 0.8198458
0.6318984375 0.3601249 0.6843999
0.633046875 0.524417 0.5000138
0.6341953125 0.6165452 0.291223
0.63534375 0.6393995 0.08019575
0.6364921875 0.6009514 -0.1131057
0.637640625 0.5132791 -0.2765521
0.6387890625 0.389573 -0.4002318
0.6399375 0.2431138 -0.479327
0.6410859375 0.08743795 -0.5120572
0.642234375 -0.06518991 -0.5000617
0.6433828125 -0.203775 -0.4477724
0.64453125 -0.3193213 -0.3609033
0.6456796875 -0.4040656 -0.2473433
0.646828125 -0.4524733 -0.116551
0.6479765625 -0.46211 0.02148747
0.649125 -0.4321005 0.155107
0.6502734375 -0.3652258 0.2746021
0.651421875 -0.2666362 0.369402
0.6525703125 -0.1445712 0.4315498
0.65371875 -0.009143419 0.4548425
0.6548671875 0.1275439 0.4368887
0.656015625 0.2528188 0.3792345
0.6571640625 0.3556211 0.2863963
0.6583125 0.4260718 0.1672519
0.6594609375 0.4583519 0.03214945
0.660609375 0.4488431 -0.1064622
0.6617578125 0.3989035 -0.2365776
0.66290625 0.313167 -0.3466208
0.6640546875 0.19851 -0.4274768
0.665203125 0.06424753 -0.4724481
0.6663515625 -0.07874164 -0.4770739
0.6675 -0.219201 -0.4401205
0.6686484375 -0.3458411 -0.363711
0.669796875 -0.4480461 -0.2519225
0.6709453125 -0.516406 -0.1115061
0.67209375 -0.5429136 0.04778159
0.6732421875 -0.5219077 0.2148003
0.674390625 -0.4505302 0.3754503
0.6755390625 -0.3299447 0.5154355
0.6766875 -0.1646409 0.618813
0.6778359375 0.03557499 0.6713853
0.678984375 0.2554565 0.6603703
0.6801328125 0.4755751 0.5776257
0.68128125 0.6729217 0.4199212
0.6824296875 0.8206823 0.1928475
0.683578125 0.8951119 -0.09115727
0.6847265625 0.8721842 -0.4096172
0.685875 0.7347767 -0.7312384
0.6870234375 0.473179 -1.015158
0.688171875 0.09044907 -1.212354
0.6893203125 -0.3898011 -1.266103
0.69046875 -0.9183601 -1.118678
0.6916171875 -1.406163 -0.7236472
0.692765625 -1.715558 -0.07495526
0.6939140625 -1.685913 0.7354397
0.6950625 -1.212389 1.491695
0.6962109375 -0.3742696 1.90427
0.697359375 0.5448858 1.80968
0.6985078125 1.23282 1.288283
0.69965625 1.541217 0.5787099
0.7008046875 1.501281 -0.09634618
0.701953125 1.224436 -0.6155217
0.7031015625 0.8247546 -0.9397126
0.70425 0.3941416 -1.075335
0.7053984375 -0.007861408 -1.054911
0.706546875 -0.3424065 -0.9148509
0.7076953125 -0.587467 -0.6939875
0.70884375 -0.7339673 -0.4293034
0.7099921875 -0.7838601 -0.1533405
0.711140625 -0.7461613 0.1043902
0.7122890625 -0.6362402 0.3218408
0.7134375 -0.474381 0.4838976
0.7145859375 -0.2814623 0.5809676
0.715734375 -0.07919274 0.6121672
0.7168828125 0.113587 0.5813218
0.71803125 0.2785082 0.4974007
0.7191796875 0.4057978 0.3728985
0.720328125 0.4866168 0.2215269
0.7214765625 0.5175356 0.05854065
0.722625 0.4992098 -0.1021777
0.7237734375 0.4353705 -0.2470649
0.724921875 0.3330775 -0.3648462
0.7260703125 0.2018328 -0.4464331
0.72721875 0.05237694 -0.4848166
0.7283671875 -0.1014874 -0.4770923
0.729515625 -0.2473965 -0.4230058
0.7306640625 -0.3718375 -0.3256587
0.7318125 -0.462194 -0.1923886
0.7329609375 -0.5079868 -0.0342179
0.734109375 -0.5018027 0.1351091
0.7352578125 -0.4402923 0.299029
0.73640625 -0.3258606 0.4398204
0.7375546875 -0.1658551 0.5407411
0.738703125 0.02671568 0.585592
0.7398515625 0.2336662 0.5642452
0.741 0.432797 0.470409
0.7421484375 0.5996666 0.3055654
0.743296875 0.7086912 0.07803108
0.7444453125 0.7355683 -0.1946092
0.74559375 0.6577919 -0.486188
0.7467421875 0.4589898 -0.7573232
0.747890625 0.1349577 -0.9557213
0.7490390625 -0.2858261 -0.9747565
0.7501875 -0.7453752 -0.8255191
0.7513359375 -1.130414 -0.4240545
0.752484375 -1.268256 0.1869384
0.7536328125 -1.031418 0.8178318
0.75478125 -0.472798 1.209125
0.7559296875 0.172694 1.220956
0.757078125 0.6718974 0.9236104
0.7582265625 0.9246008 0.4831198
0.759375 0.9491861 0.04389128
0.7605234375 0.8095528 -0.3115721
0.761671875 0.5745817 -0.5512316
0.7628203125 0.3013203 -0.6711463
0.76396875 0.03325336 -0.6838198
0.7651171875 -0.1999663 -0.6090362
0.766265625 -0.3777087 -0.4710755
0.7674140625 -0.4902384 -0.2954413
0.7685625 -0.5348898 -0.1052209
0.7697109375 -0.5160576 0.07724375
0.770859375 -0.4435049 0.2351205
0.7720078125 -0.330145 0.3556073
0.77315625 -0.1905066 0.4308825
0.7743046875 -0.04039162 0.4577996
0.775453125 0.1057713 0.4378902
0.7766015625 0.235868 0.3760366
0.77775 0.3388436 0.2794214
0.7788984375 0.4069073 0.1581744
0.780046875 0.4355207 0.02287916
0.7811953125 0.4224888 -0.1143993
0.78234375 0.3687447 -0.2422871
0.7834921875 0.2782889 -0.3493869
0.784640625 0.1582266 -0.4256037
0.7857890625 0.01751226 -0.4630973
0.7869375 -0.131674 -0.4559091
0.7880859375 -0.2758548 -0.4021573
0.789234375 -0.4007027 -0.3034236
0.7903828125 -0.4923624 -0.1659636
0.79153125 -0.5386131 -0.0004223507
0.7926796875 -0.5305178 0.1790959
0.793828125 -0.4633482 0.3545729
0.7949765625 -0.3384769 0.5071855
0.796125 -0.1627894 0.6182936
0.7972734375 0.05107522 0.6713015
0.798421875 0.2845477 0.6518436
0.7995703125 0.5147746 0.551897
0.80071875 0.7155096 0.3691944
0.8018671875 0.8566418 0.1093024
0.803015625 0.9070912 -0.2126708
0.8041640625 0.8344644 -0.5683628
0.8053125 0.613467 -0.9127322
0.8064609375 0.230836 -1.17705
0.807609375 -0.2917003 -1.272329
0.8087578125 -0.8705969 -1.106255
0.80990625 -1.346762 -0.6348649
0.8110546875 -1.530047 0.06008944
0.812203125 -1.318993 0.7607793
0.8133515625 -0.7924445 1.23241
0.8145 -0.1554772 1.365523
0.8156484375 0.401814 1.203047
0.816796875 0.7804736 0.8605013
0.8179453125 0.9602478 0.4514115
0.81909375 0.9692839 0.05831651
0.8202421875 0.8494521 -0.2680203
0.821390625 0.6474094 -0.5037739
0.8225390625 0.4045312 -0.6411933
0.8236875 0.1559841 -0.6863925
0.8248359375 -0.0717638 -0.6520941
0.825984375 -0.2599553 -0.5558731
0.8271328125 -0.3969714 -0.4175471
0.82828125 -0.4786504 -0.256859
0.8294296875 -0.5060539 -0.09074999
0.830578125 -0.4841741 0.06503293
0.8317265625 -0.4212738 0.1995549
0.832875 -0.3271236 0.3036213
0.8340234375 -0.2126518 0.3729138
0.835171875 -0.0886278 0.4050636
0.8363203125 0.03447878 0.4003999
0.83746875 0.1476041 0.3619795
0.8386171875 0.2421892 0.294994
0.839765625 0.3123015 0.2056937
0.8409140625 0.3529411 0.1018457
0.8420625 0.3617314 -0.007626134
0.8432109375 0.3385924 -0.1139223
0.844359375 0.2861371 -0.2077173
0.8455078125 0.2087998 -0.2812454
0.84665625 0.113466 -0.3285558
0.8478046875 0.009231941 -0.3450632
0.848953125 -0.09485421 -0.3300258
0.8501015625 -0.1892945 -0.2843898
0.85125 -0.2651847 -0.2131043
0.8523984375 -0.3161259 -0.1225377
0.853546875 -0.3375876 -0.0216259
0.8546953125 -0.3281955 0.08081713
0.85584375 -0.289004 0.1754041
0.8569921875 -0.2237763 0.2545145
0.858140625 -0.1383588 0.3111282
0.8592890625 -0.03984342 0.3408302
0.8604375 0.06398959 0.340752
0.8615859375 0.1647688 0.310503
0.862734375 0.253999 0.2517042
0.8638828125 0.3243067 0.1681593
0.86503125 0.3689628 0.06502233
0.8661796875 0.3822532 -0.05034253
0.867328125 0.3608787 -0.1691297
0.8684765625 0.3035068 -0.2811976
0.869625 0.2110683 -0.376247
0.8707734375 0.0877896 -0.442908
0.871921875 -0.05847088 -0.4709477
0.8730703125 -0.2163008 -0.451881
0.87421875 -0.3717193 -0.3796759
0.8753671875 -0.5066083 -0.2529068
0.876515625 -0.6013825 -0.07514503
0.8776640625 -0.6363805 0.1438363
0.8788125 -0.5918132 0.385093
0.8799609375 -0.4523589 0.6216218
0.881109375 -0.2086274 0.8147739
0.8822578125 0.1336391 0.9154783
0.88340625 0.5430459 0.8617379
0.8845546875 0.9437907 0.5975087
0.885703125 1.203521 0.1091682
0.8868515625 1.16514 -0.5087044
0.888 0.7670022 -1.030069
0.8891484375 0.1524053 -1.229374
0.890296875 -0.4191484 -1.071228
0.8914453125 -0.776597 -0.6963206
0.89259375 -0.8953185 -0.2715843
0.8937421875 -0.8329759 0.09782311
0.894890625 -0.6597291 0.3669721
0.8960390625 -0.4342223 0.5283591
0.8971875 -0.1990399 0.59208
0.8983359375 0.01802882 0.5743101
0.899484375 0.197832 0.4944259
0.9006328125 0.3296046 0.3716841
0.90178125 0.4083492 0.224995
0.9029296875 0.4337856 0.07199527
0.904078125 0.4104981 -0.07179502
0.9052265625 0.346358 -0.1933891
0.906375 0.251803 -0.2831407
0.9075234375 0.1394047 -0.3355228
0.908671875 0.02173413 -0.3488622
0.9098203125 -0.08962373 -0.32513
0.91096875 -0.1839722 -0.2700043
0.9121171875 -0.2537577 -0.1908525
0.913265625 -0.2942914 -0.09691642
0.9144140625 -0.3035508 0.002430644
0.9155625 -0.28226 0.09752098
0.9167109375 -0.2336374 0.1801239
0.917859375 -0.1629581 0.2431365
0.9190078125 -0.07700523 0.2816334
0.92015625 0.01664547 0.2919666
0.9213046875 0.1095231 0.273254
0.922453125 0.1933625 0.2264867
0.9236015625 0.2598529 0.155068
0.92475 0.3020953 0.06452587
0.9258984375 0.3146375 -0.03770852
0.927046875 0.293861 -0.1421589
0.9281953125 0.2391556 -0.2385016
0.92934375 0.1527816 -0.3159113
0.9304921875 0.04098562 -0.3639473
0.931640625 -0.08717315 -0.3734188
0.9327890625 -0.2192541 -0.3390825
0.9339375 -0.3400573 -0.2578068
0.9350859375 -0.433293 -0.1327964
0.936234375 -0.4827381 0.02856771
0.9373828125 -0.4733952 0.2117384
0.93853125 -0.393779 0.3971865
0.9396796875 -0.2383437 0.5571136
0.940828125 -0.01035612 0.6602153
0.9419765625 0.2723241 0.6684862
0.943125 0.5698323 0.5459192
0.9442734375 0.8147827 0.2730093
0.945421875 0.9148609 -0.1285371
0.9465703125 0.7912138 -0.5671398
0.94771875 0.4371864 -0.8934134
0.9488671875 -0.03843918 -0.9828582
0.950015625 -0.4697059 -0.818947
0.9511640625 -0.7366161 -0.492616
0.9523125 -0.812385 -0.1237423
0.9534609375 -0.7318195 0.1991038
0.954609375 -0.5512487 0.4311914
0.9557578125 -0.3240849 0.5609739
0.95690625 -0.09190617 0.595338
0.9580546875 0.116268 0.5505794
0.959203125 0.2814483 0.4471715
0.9603515625 0.392935 0.3062329
0.9615 0.4480381 0.1485634
0.9626484375 0.4486269 -0.007815955
0.963796875 0.4024843 -0.1471672
0.9649453125 0.3191831 -0.2582186
0.96609375 0.2110249 -0.3333112
0.9672421875 0.09102558 -0.3694744
0.968390625 -0.02890526 -0.3671695
0.9695390625 -0.1380359 -0.3297615
0.9706875 -0.2274474 -0.2640023
0.9718359375 -0.2911042 -0.1772304
0.972984375 -0.3253922 -0.07803918
0.9741328125 -0.3287897 0.02455872
0.97528125 -0.3024601 0.121799
0.9764296875 -0.2494642 0.2062017
0.977578125 -0.1747584 0.2709237
0.9787265625 -0.0845535 0.3109022
0.979875 0.01348736 0.3227486
0.9810234375 0.1114663 0.3054373
0.982171875 0.2005353 0.259542
0.9833203125 0.2732292 0.1883278
0.98446875 0.3222038 0.09720899
0.9856171875 0.3421851 -0.006256922
0.986765625 0.3298901 -0.11307
0.9879140625 0.2849935 -0.213753
0.9890625 0.2097327 -0.2979228
0.9902109375 0.1098092 -0.3570692
0.991359375 -0.006628955 -0.3834988
0.9925078125 -0.1291514 -0.3730892
0.99365625 -0.2465619 -0.3242367
0.9948046875 -0.3470371 -0.2390018
0.995953125 -0.4194321 -0.1231524
0.9971015625 -0.4549528 0.01530343
0.99825 -0.4464736 0.1650536
0.9993984375 -0.3897082 0.3126688
