# GHZ S RI R 50.0
0.3 -3.342351 0.3099214
0.3011484375 -2.553662 1.553182
0.302296875 -1.496964 2.166973
0.3034453125 -0.4928592 2.262748
0.30459375 0.3083192 2.021542
0.3057421875 0.8673669 1.595924
0.306890625 1.198839 1.10325
0.3080390625 1.342445 0.6129147
0.3091875 1.339702 0.1661188
0.3103359375 1.229523 -0.2170107
0.311484375 1.041948 -0.5254958
0.3126328125 0.8016467 -0.7562602
0.31378125 0.5285788 -0.9082465
0.3149296875 0.2398012 -0.9821621
0.316078125 -0.04884601 -0.9796024
0.3172265625 -0.3218682 -0.9024448
0.318375 -0.56116 -0.7560524
0.3195234375 -0.7511264 -0.5475894
0.320671875 -0.8720543 -0.2919811
0.3218203125 -0.9093916 -0.01044453
0.32296875 -0.8560543 0.2702231
0.3241171875 -0.7156883 0.517711
0.325265625 -0.5047239 0.7026703
0.3264140625 -0.2505718 0.8054211
0.3275625 0.01382612 0.8183987
0.3287109375 0.2563999 0.7489516
0.329859375 0.4552382 0.6147278
0.3310078125 0.597294 0.4357566
0.33215625 0.6754769 0.2358575
0.3333046875 0.6945902 0.03218272
0.334453125 0.6594446 -0.1608011
0.3356015625 0.5780951 -0.3320844
0.33675 0.4592463 -0.4724324
0.3378984375 0.3108337 -0.5776638
0.339046875 0.140995 -0.6423231
0.3401953125 -0.04163377 -0.6625224
0.34134375 -0.2270174 -0.6355472
0.3424921875 -0.4052046 -0.5591205
0.343640625 -0.5636308 -0.4333044
0.3447890625 -0.6881224 -0.2600746
0.3459375 -0.7631443 -0.04683925
0.3470859375 -0.7723683 0.1943864
0.348234375 -0.7045377 0.4412066
0.3493828125 -0.5519189 0.6686141
0.35053125 -0.322582 0.8440123
0.3516796875 -0.03235036 0.938694
0.352828125 0.28669 0.9306567
0.3539765625 0.5965077 0.8125129
0.355125 0.8595968 0.5904313
0.3562734375 1.040633 0.2871517
0.357421875 1.119686 -0.07259109
0.3585703125 1.081071 -0.4559896
0.35971875 0.9169857 -0.8287422
0.3608671875 0.6246475 -1.156214
0.362015625 0.2065732 -1.397007
0.3631640625 -0.3249962 -1.500794
0.3643125 -0.9430503 -1.400587
0.3654609375 -1.572919 -1.012091
0.366609375 -2.053394 -0.2750925
0.3677578125 -2.127432 0.7682198
0.36890625 -1.552891 1.811216
0.3700546875 -0.4149924 2.354879
0.371203125 0.7824243 2.134364
0.3723515625 1.56253 1.373627
0.3735 1.808118 0.4710191
0.3746484375 1.64184 -0.3021303
0.375796875 1.234871 -0.8415391
0.3769453125 0.726849 -1.130245
0.37809375 0.2198338 -1.193283
0.3792421875 -0.2182682 -1.078082
0.380390625 -0.5439625 -0.8389303
0.3815390625 -0.7390141 -0.5340599
0.3826875 -0.8046982 -0.2167538
0.3838359375 -0.7616296 0.06994376
0.384984375 -0.6368064 0.3015892
0.3861328125 -0.4611292 0.4623306
0.38728125 -0.2628864 0.5492458
0.3884296875 -0.06366863 0.5687324
0.389578125 0.1173909 0.5292569
0.3907265625 0.2691737 0.442804
0.391875 0.3831086 0.3217061
0.3930234375 0.4541748 0.1775054
0.394171875 0.4798633 0.02204441
0.3953203125 0.4592332 -0.1325494
0.39646875 0.3941794 -0.2754662
0.3976171875 0.2867775 -0.3951744
0.398765625 0.1438576 -0.4796351
0.3999140625 -0.02544682 -0.5175056
0.4010625 -0.2079096 -0.4988598
0.4022109375 -0.3857256 -0.4167086
0.403359375 -0.5362232 -0.2701587
0.4045078125 -0.6350994 -0.0669373
0.40565625 -0.6585653 0.1769466
0.4068046875 -0.5890329 0.4333841
0.407953125 -0.4188958 0.6665165
0.4091015625 -0.1540293 0.8383493
0.41025 0.1837364 0.9087027
0.4113984375 0.5625008 0.8471807
0.412546875 0.9353673 0.6280261
0.4136953125 1.240752 0.2328541
0.41484375 1.391361 -0.3355207
0.4159921875 1.263241 -1.041655
0.417140625 0.7085167 -1.731962
0.4182890625 -0.3216769 -2.064492
0.4194375 -1.483836 -1.628456
0.4205859375 -2.086167 -0.5170013
0.421734375 -1.871181 0.5953298
0.4228828125 -1.205449 1.249636
0.42403125 -0.4835832 1.449385
0.4251796875 0.1170363 1.349972
0.426328125 0.5504277 1.085926
0.4274765625 0.821354 0.744168
0.428625 0.9487534 0.3805174
0.4297734375 0.952387 0.03187313
0.430921875 0.8526607 -0.2721574
0.4320703125 0.6742954 -0.5113424
0.43321875 0.4427665 -0.6703672
0.4343671875 0.1877161 -0.741534
0.435515625 -0.06291731 -0.7269517
0.4366640625 -0.2817176 -0.6374168
0.4378125 -0.4503974 -0.4904293
0.4389609375 -0.5570922 -0.3084062
0.440109375 -0.5992747 -0.114172
0.4412578125 -0.5807159 0.07318467
0.44240625 -0.5114606 0.2360276
0.4435546875 -0.4035144 0.3649859
0.444703125 -0.2695493 0.4539147
0.4458515625 -0.1228278 0.4992555
0.447 0.02572137 0.502847
0.4481484375 0.1661042 0.4669364
0.449296875 0.2896268 0.3961629
0.4504453125 0.3885638 0.2957868
0.45159375 0.4571434 0.1726015
0.4527421875 0.489999 0.03441778
0.453890625 0.4836268 -0.1093449
0.4550390625 0.4366537 -0.2484624
0.4561875 0.3502703 -0.3716225
0.4573359375 0.2282799 -0.4675242
0.458484375 0.07888316 -0.5246735
0.4596328125 -0.08562798 -0.5343497
0.46078125 -0.2491228 -0.4919192
0.4619296875 -0.3951115 -0.3988124
0.463078125 -0.5071815 -0.2619345
0.4642265625 -0.5716683 -0.09393649
0.465375 -0.5805539 0.08690906
0.4665234375 -0.5333029 0.2630147
0.467671875 -0.4339994 0.4173241
0.4688203125 -0.292527 0.5355004
0.46996875 -0.1220343 0.6077868
0.4711171875 0.06368445 0.6283563
0.472265625 0.2501915 0.5955257
0.4734140625 0.4240901 0.5107061
0.4745625 0.5724128 0.377869
0.4757109375 0.6838127 0.2032588
0.476859375 0.746545 -0.004304205
0.4780078125 0.7509537 -0.2346023
0.47915625 0.6877747 -0.4731297
0.4803046875 0.5504849 -0.7023087
0.481453125 0.3346182 -0.901027
0.4826015625 0.04276828 -1.041177
0.48375 -0.3160889 -1.09394
0.4848984375 -0.7206011 -1.024469
0.486046875 -1.133903 -0.8009036
0.4871953125 -1.497122 -0.3953504
0.48834375 -1.726436 0.1993362
0.4894921875 -1.710732 0.9551647
0.490640625 -1.323144 1.771785
0.4917890625 -0.4649151 2.43536
0.4929375 0.8073782 2.606846
0.4940859375 2.121638 1.9689
0.495234375 2.846735 0.6063573
0.4963828125 2.625284 -0.8668597
0.49753125 1.722653 -1.831928
0.4986796875 0.6536365 -2.136313
0.499828125 -0.2434388 -1.956181
0.5009765625 -0.8580999 -1.517748
0.502125 -1.200127 -0.9872785
0.5032734375 -1.319138 -0.4640307
0.504421875 -1.271557 -0.0003276374
0.5055703125 -1.105465 0.3767959
0.50671875 -0.861115 0.6560096
0.5078671875 -0.5728025 0.8345884
0.509015625 -0.269016 0.9149505
0.5101640625 0.02542961 0.9040819
0.5113125 0.2893924 0.8128094
0.5124609375 0.5045108 0.6550135
0.513609375 0.6568183 0.4488846
0.5147578125 0.7373337 0.2149238
0.51590625 0.7422418 -0.02421107
0.5170546875 0.6752946 -0.2464443
0.518203125 0.5473763 -0.4308825
0.5193515625 0.3742017 -0.5620248
0.5205 0.1759972 -0.6309391
0.5216484375 -0.02660323 -0.6355578
0.522796875 -0.2139591 -0.5803452
0.5239453125 -0.3706066 -0.474827
0.52509375 -0.4852274 -0.3324613
0.5262421875 -0.5512753 -0.1678225
0.527390625 -0.5663279 0.004785765
0.5285390625 -0.5322177 0.1702118
0.5296875 -0.4540398 0.317697
0.5308359375 -0.3383659 0.4360951
0.531984375 -0.1939021 0.5174305
0.5331328125 -0.03157739 0.5552521
0.53428125 0.1372162 0.5457505
0.5354296875 0.2999707 0.4874993
0.536578125 0.4435939 0.3818339
0.5377265625 0.5535992 0.2343048
0.538875 0.6182835 0.05294073
0.5400234375 0.6263768 -0.1487627
0.541171875 0.569368 -0.3540899
0.5423203125 0.4445328 -0.5427017
0.54346875 0.2560251 -0.6913956
0.5446171875 0.01353101 -0.7784507
0.545765625 -0.263809 -0.782662
0.5469140625 -0.5497264 -0.6893308
0.5480625 -0.8116216 -0.4894092
0.5492109375 -1.010743 -0.183122
0.550359375 -1.102446 0.2182041
0.5515078125 -1.036393 0.6855772
0.55265625 -0.7565943 1.165339
0.5538046875 -0.2117704 1.55164
0.554953125 0.5981326 1.662983
0.5561015625 1.505214 1.25413
0.55725 2.058548 0.2431574
0.5583984375 1.813727 -0.9379867
0.559546875 0.9350805 -1.628159
0.5606953125 -0.005543114 -1.656283
0.56184375 -0.6656047 -1.279708
0.5629921875 -1.001267 -0.7654026
0.564140625 -1.081041 -0.2659367
0.5652890625 -0.9847346 0.1501398
0.5664375 -0.7777531 0.4568661
0.5675859375 -0.5124642 0.6486103
0.568734375 -0.2289338 0.7300529
0.5698828125 0.04041747 0.7131748
0.57103125 0.2702612 0.6148679
0.5721796875 0.4409502 0.4574893
0.573328125 0.5439089 0.2638482
0.5744765625 0.5747082 0.06039426
0.575625 0.5392526 -0.1318986
0.5767734375 0.4475186 -0.2943482
0.577921875 0.3148364 -0.4127936
0.5790703125 0.1572599 -0.4805577
0.58021875 -0.006757376 -0.494825
0.5813671875 -0.1630236 -0.4590517
0.582515625 -0.2978052 -0.3790916
0.5836640625 -0.4005387 -0.2641322
0.5848125 -0.4639159 -0.1249158
0.5859609375 -0.4836059 0.02671295
0.587109375 -0.4574301 0.1790549
0.5882578125 -0.3863699 0.3185288
0.58940625 -0.2749721 0.4340611
0.5905546875 -0.1297154 0.5141337
0.591703125 0.03939864 0.5490276
0.5928515625 0.2194024 0.530849
0.594 0.3949058 0.4552204
0.5951484375 0.5475938 0.3216839
0.596296875 0.6586815 0.1360001
0.5974453125 0.7097899 -0.08982501
0.59859375 0.6850488 -0.338793
0.5997421875 0.574208 -0.5867104
0.600890625 0.3723789 -0.8036804
0.6020390625 0.08509453 -0.9579454
0.6031875 -0.2725557 -1.014839
0.6043359375 -0.6730736 -0.9409549
0.605484375 -1.074132 -0.705301
0.6066328125 -1.411576 -0.2827489
0.60778125 -1.591329 0.3345482
0.6089296875 -1.481755 1.101209
0.610078125 -0.9272877 1.866956
0.6112265625 0.1218333 2.295594
0.612375 1.368049 1.991116
0.6135234375 2.179373 0.9505915
0.614671875 2.189603 -0.2659495
0.6158203125 1.619967 -1.128455
0.61696875 0.863112 -1.516465
0.6181171875 0.1661818 -1.535936
0.619265625 -0.3755983 -1.326032
0.6204140625 -0.7427996 -0.9949169
0.6215625 -0.9467757 -0.6163703
0.6227109375 -1.00931 -0.2404174
0.623859375 -0.9549258 0.09832105
0.6250078125 -0.8117154 0.3762158
0.62615625 -0.6061998 0.578091
0.6273046875 -0.3669207 0.6975966
0.628453125 -0.1203121 0.7345121
0.6296015625 0.1099965 0.6964421
0.63075 0.3053141 0.596063
0.6318984375 0.4516104 0.4502791
0.633046875 0.5421472 0.2772329
0.6341953125 0.5751639 0.09513158
0.63534375 0.5538752 -0.07848977
0.6364921875 0.4868618 -0.2310489
0.637640625 0.3832696 -0.3521477
0.6387890625 0.2549047 -0.4355122
0.6399375 0.1133082 -0.4778585
0.6410859375 -0.02944066 -0.4786196
0.642234375 -0.163603 -0.4407596
0.6433828125 -0.2802099 -0.3686097
0.64453125 -0.369944 -0.2690127
0.6456796875 -0.4283846 -0.1487271
0.646828125 -0.4507568 -0.01836778
0.6479765625 -0.4351852 0.1132738
0.649125 -0.3831925 0.2356199
0.6502734375 -0.297728 0.3384596
0.651421875 -0.1854058 0.4128525
0.6525703125 -0.05497693 0.4518503
0.65371875 0.08238557 0.4506955
0.6548671875 0.214803 0.4087612
0.656015625 0.3299082 0.3282705
0.6571640625 0.4166342 0.2163447
0.6583125 0.4668686 0.08238021
0.6594609375 0.4751414 -0.06167203
0.660609375 0.4398228 -0.2031924
0.6617578125 0.3634609 -0.329892
0.66290625 0.2528453 -0.4292129
0.6640546875 0.1157649 -0.493171
0.665203125 -0.03656141 -0.5155776
0.6663515625 -0.1920414 -0.4926215
0.6675 -0.338204 -0.4242997
0.6686484375 -0.4631406 -0.3139082
0.669796875 -0.5539686 -0.1675587
0.6709453125 -0.6017757 0.006238554
0.67209375 -0.5969858 0.1954815
0.6732421875 -0.5346034 0.3857499
0.674390625 -0.4116343 0.559904
0.6755390625 -0.2300905 0.6990905
0.6766875 0.001591529 0.7833512
0.6778359375 0.2693671 0.7931591
0.678984375 0.5513175 0.7120395
0.6801328125 0.8174523 0.5276527
0.68128125 1.029035 0.2371351
0.6824296875 1.143156 -0.1497999
0.683578125 1.110783 -0.6060545
0.6847265625 0.8851749 -1.077693
0.685875 0.4313 -1.479141
0.6870234375 -0.243754 -1.683026
0.688171875 -1.050513 -1.53357
0.6893203125 -1.761284 -0.9263865
0.69046875 -2.056417 0.05003383
0.6916171875 -1.743365 1.046459
0.692765625 -0.9666787 1.664706
0.6939140625 -0.08434586 1.762543
0.6950625 0.6182646 1.465183
0.6962109375 1.040252 0.9745994
0.697359375 1.198328 0.4482239
0.6985078125 1.15476 -0.02133783
0.69965625 0.9748085 -0.390857
0.7008046875 0.7152978 -0.6449979
0.701953125 0.420069 -0.7839592
0.7031015625 0.1255586 -0.8185003
0.70425 -0.1418131 -0.7624873
0.7053984375 -0.3617778 -0.6350805
0.706546875 -0.5200271 -0.4571185
0.7076953125 -0.6093791 -0.2507414
0.70884375 -0.6284125 -0.03797996
0.7099921875 -0.5823679 0.1607559
0.711140625 -0.4804917 0.3274893
0.7122890625 -0.3370574 0.448981
0.7134375 -0.1690423 0.5168777
0.7145859375 0.00641313 0.5285401
0.715734375 0.1708089 0.4860802
0.7168828125 0.310598 0.397099
0.71803125 0.4137171 0.2720346
0.7191796875 0.472555 0.1236835
0.720328125 0.4828324 -0.03288316
0.7214765625 0.4450858 -0.1844971
0.722625 0.3632049 -0.3173022
0.7237734375 0.2440743 -0.4197522
0.724921875 0.0971799 -0.4814894
0.7260703125 -0.06473903 -0.4960933
0.72721875 -0.2279681 -0.4590024
0.7283671875 -0.377515 -0.3699208
0.729515625 -0.4965723 -0.2328396
0.7306640625 -0.5701749 -0.0557595
0.7318125 -0.5840967 0.1477367
0.7329609375 -0.5272374 0.359491
0.734109375 -0.3924917 0.5557422
0.7352578125 -0.1824036 0.7078297
0.73640625 0.09434209 0.7853917
0.7375546875 0.4156179 0.7566361
0.738703125 0.7407485 0.5920978
0.7398515625 1.012699 0.2731671
0.741 1.149181 -0.195305
0.7421484375 1.049201 -0.7590075
0.743296875 0.6268648 -1.2797
0.7444453125 -0.09977792 -1.528152
0.74559375 -0.9040349 -1.297941
0.7467421875 -1.421983 -0.6295468
0.747890625 -1.45358 0.1595031
0.7490390625 -1.056768 0.7289854
0.7501875 -0.5632796 1.01202
0.7513359375 -0.08288135 1.039393
0.752484375 0.3003452 0.8943025
0.7536328125 0.5604033 0.6533746
0.75478125 0.6984912 0.3735389
0.7559296875 0.7295196 0.09670308
0.757078125 0.672668 -0.150457
0.7582265625 0.5496289 -0.3486133
0.759375 0.3817653 -0.4872826
0.7605234375 0.1904982 -0.5606493
0.761671875 -0.003868043 -0.5697733
0.7628203125 -0.182901 -0.5193203
0.76396875 -0.3312039 -0.4194413
0.7651171875 -0.4369341 -0.282725
0.766265625 -0.4929165 -0.1247964
0.7674140625 -0.4970451 0.03790954
0.7685625 -0.4515185 0.190191
0.7697109375 -0.3629756 0.3180472
0.770859375 -0.2422983 0.4108786
0.7720078125 -0.1016851 0.4616821
0.77315625 0.0462857 0.4676281
0.7743046875 0.1874876 0.4294601
0.775453125 0.3101809 0.3516458
0.7766015625 0.4045647 0.2413711
0.77775 0.4626341 0.1076654
0.7788984375 0.4792015 -0.03840856
0.780046875 0.4523002 -0.1851359
0.7811953125 0.3824239 -0.3201899
0.78234375 0.2734914 -0.4320317
0.7834921875 0.1322422 -0.5095232
0.784640625 -0.03155165 -0.5430077
0.7857890625 -0.2050731 -0.5258345
0.7869375 -0.3729498 -0.4538227
0.7880859375 -0.5186825 -0.3282098
0.789234375 -0.6253382 -0.154836
0.7903828125 -0.6757097 0.0556183
0.79153125 -0.6567351 0.285974
0.7926796875 -0.559349 0.5138593
0.793828125 -0.381249 0.7127969
0.7949765625 -0.127922 0.8541781
0.796125 0.1843516 0.9088215
0.7972734375 0.5278909 0.8485392
0.798421875 0.8622854 0.65297
0.7995703125 1.132238 0.3125266
0.80071875 1.268516 -0.1594262
0.8018671875 1.19283 -0.7125965
0.803015625 0.8412982 -1.239143
0.8041640625 0.218879 -1.573644
0.8053125 -0.5450847 -1.549201
0.8064609375 -1.202964 -1.11648
0.807609375 -1.527635 -0.4216837
0.8087578125 -1.459679 0.2844504
0.80990625 -1.10562 0.8087489
0.8110546875 -0.6251553 1.082857
0.812203125 -0.1461036 1.129666
0.8133515625 0.256118 1.0073
0.8145 0.5477967 0.7786452
0.8156484375 0.7213835 0.4975864
0.816796875 0.7835942 0.20728
0.8179453125 0.7510612 -0.06039728
0.81909375 0.6444401 -0.2830801
0.8202421875 0.4857541 -0.4465746
0.821390625 0.2981295 -0.5442238
0.8225390625 0.103856 -0.5761452
0.8236875 -0.07832104 -0.5487556
0.8248359375 -0.2329134 -0.4717588
0.825984375 -0.3495446 -0.3583094
0.8271328125 -0.4222689 -0.2231466
0.82828125 -0.4497572 -0.08035593
0.8294296875 -0.4348656 0.05698942
0.830578125 -0.3829599 0.1780089
0.8317265625 -0.301888 0.2745703
0.832875 -0.2001099 0.3409445
0.8340234375 -0.08776187 0.3746118
0.835171875 0.02618743 0.3743867
0.8363203125 0.1325804 0.3429029
0.83746875 0.2239908 0.2834637
0.8386171875 0.2934367 0.202001
0.839765625 0.3362702 0.1049183
0.8409140625 0.3496369 0.0003237049
0.8420625 0.3320465 -0.103257
0.8432109375 0.2849055 -0.1971688
0.844359375 0.2123923 -0.2732455
0.8455078125 0.1201603 -0.3248007
0.84665625 0.01618045 -0.346616
0.8478046875 -0.09020752 -0.3363507
0.848953125 -0.1891678 -0.2941697
0.8501015625 -0.2713659 -0.2235578
0.85125 -0.3291348 -0.1307454
0.8523984375 -0.3560918 -0.02408829
0.853546875 -0.3497201 0.08689619
0.8546953125 -0.3098943 0.1917322
0.85584375 -0.2396888 0.2810511
0.8569921875 -0.1447528 0.3464576
0.858140625 -0.03261714 0.3815066
0.8592890625 0.08768725 0.3822888
0.8604375 0.2060345 0.3465402
0.8615859375 0.3123851 0.2752692
0.862734375 0.3967627 0.1716369
0.8638828125 0.4493118 0.04151578
0.86503125 0.4618795 -0.1068524
0.8661796875 0.4271995 -0.2620471
0.867328125 0.3405417 -0.4104044
0.8684765625 0.2004363 -0.5356674
0.869625 0.0101087 -0.6174634
0.8707734375 -0.2210723 -0.6351362
0.871921875 -0.4745805 -0.5652228
0.8730703125 -0.7193366 -0.3866067
0.87421875 -0.9055477 -0.08529291
0.8753671875 -0.9616614 0.3305474
0.876515625 -0.7990203 0.8034683
0.8776640625 -0.3537414 1.193908
0.8788125 0.3166581 1.285373
0.8799609375 0.9525868 0.939649
0.881109375 1.245003 0.2941067
0.8822578125 1.121164 -0.3318428
0.88340625 0.7468008 -0.7247005
0.8845546875 0.3175993 -0.8615263
0.885703125 -0.05223525 -0.8089442
0.8868515625 -0.3193027 -0.6457821
0.888 -0.4795058 -0.4327325
0.8891484375 -0.5447279 -0.2111609
0.890296875 -0.5335205 -0.007867662
0.8914453125 -0.4648761 0.1604752
0.89259375 -0.3571487 0.285674
0.8937421875 -0.2268534 0.363393
0.894890625 -0.08922513 0.3945042
0.8960390625 0.04258019 0.3823515
0.8971875 0.1579125 0.3325499
0.8983359375 0.2478888 0.2530083
0.899484375 0.3063777 0.1533747
0.9006328125 0.3300947 0.04396106
0.90178125 0.3186231 -0.06436225
0.9029296875 0.2745892 -0.1612742
0.904078125 0.2036235 -0.2378029
0.9052265625 0.1132082 -0.2871021
0.906375 0.01344718 -0.3053551
0.9075234375 -0.08611008 -0.2905412
0.908671875 -0.1747781 -0.2456471
0.9098203125 -0.2445063 -0.1754637
0.91096875 -0.2883703 -0.08704277
0.9121171875 -0.302518 0.01055783
0.913265625 -0.2853338 0.1081757
0.9144140625 -0.2384549 0.1963402
0.9155625 -0.165801 0.266745
0.9167109375 -0.07345575 0.3120346
0.917859375 0.03096174 0.3275575
0.9190078125 0.1382196 0.3097393
0.92015625 0.2387185 0.2582976
0.9213046875 0.3221518 0.1747838
0.922453125 0.3786206 0.06434578
0.9236015625 0.3993264 -0.06589035
0.92475 0.3765935 -0.2050339
0.9258984375 0.3059874 -0.339437
0.927046875 0.1860831 -0.4529079
0.9281953125 0.02127969 -0.5276511
0.92934375 -0.1778613 -0.5441148
0.9304921875 -0.3929232 -0.485054
0.931640625 -0.5953611 -0.3362643
0.9327890625 -0.7462597 -0.09396228
0.9339375 -0.797049 0.2291451
0.9350859375 -0.695992 0.5913658
0.936234375 -0.4066201 0.912658
0.9373828125 0.05544054 1.074732
0.93853125 0.5833587 0.9676178
0.9396796875 0.9906181 0.5764311
0.940828125 1.120033 0.03298118
0.9419765625 0.9544509 -0.4630353
0.943125 0.6049725 -0.7763218
0.9442734375 0.2063749 -0.8783649
0.945421875 -0.1451076 -0.811601
0.9465703125 -0.4038564 -0.6371416
0.94771875 -0.5588013 -0.4108382
0.9488671875 -0.6177179 -0.173982
0.950015625 -0.5955961 0.04502786
0.9511640625 -0.5114865 0.2267739
0.9523125 -0.3844481 0.3607974
0.9534609375 -0.2332489 0.4422263
0.954609375 -0.07448745 0.4707561
0.9557578125 0.07650094 0.4494956
0.95690625 0.2072644 0.3863716
0.9580546875 0.3074735 0.290299
0.959203125 0.3709762 0.1728604
0.9603515625 0.3944291 0.04644641
0.9615 0.3785372 -0.07702477
0.9626484375 0.3273646 -0.1861716
0.963796875 0.2476183 -0.2720038
0.9649453125 0.1483898 -0.3281409
0.96609375 0.0397025 -0.3511492
0.9672421875 -0.06840267 -0.3407268
0.968390625 -0.1662314 -0.2992916
0.9695390625 -0.246242 -0.2320092
0.9706875 -0.3018444 -0.1456272
0.9718359375 -0.3294715 -0.04812503
0.972984375 -0.327657 0.05261131
0.9741328125 -0.2969229 0.1480701
0.97528125 -0.2400076 0.2306729
0.9764296875 -0.1612753 0.2935923
0.977578125 -0.06692124 0.3317783
0.9787265625 0.03568862 0.3410315
0.979875 0.138569 0.3200692
0.9810234375 0.2330825 0.2690192
0.982171875 0.3102861 0.1904278
0.9833203125 0.3627889 0.08963452
0.98446875 0.3836893 -0.02607936
0.9856171875 0.3685158 -0.1468196
0.986765625 0.3159085 -0.2621963
0.9879140625 0.2274158 -0.3600853
0.9890625 0.1079176 -0.4296479
0.9902109375 -0.03363221 -0.4609131
0.991359375 -0.1853522 -0.4465149
0.9925078125 -0.3333584 -0.3827795
0.99365625 -0.461961 -0.2699654
0.9948046875 -0.5549135 -0.1126706
0.995953125 -0.5970041 0.07905811
0.9971015625 -0.5743779 0.2902072
0.99825 -0.4771006 0.5017403
0.9993984375 -0.2989139 0.687387
