# GHZ S RI R 50.0
0.3 -3.05615 0.7303527
0.3011484375 -2.186781 1.721891
0.302296875 -1.174726 2.152654
0.3034453125 -0.2650248 2.148195
0.30459375 0.4422791 1.865767
0.3057421875 0.9242421 1.440189
0.306890625 1.200434 0.9658213
0.3080390625 1.30829 0.501978
0.3091875 1.284758 0.08314089
0.3103359375 1.16316 -0.2740927
0.311484375 0.9721969 -0.558235
0.3126328125 0.7334517 -0.7673742
0.31378125 0.4653341 -0.9025835
0.3149296875 0.1845275 -0.9618846
0.316078125 -0.09331387 -0.9476749
0.3172265625 -0.354166 -0.8625214
0.318375 -0.5816785 -0.7106963
0.3195234375 -0.7582533 -0.5008584
0.320671875 -0.8662972 -0.2460129
0.3218203125 -0.8921221 0.03256037
0.32296875 -0.8284121 0.3060431
0.3241171875 -0.6802793 0.5433061
0.325265625 -0.4642554 0.7174591
0.3264140625 -0.2088951 0.8078893
0.3275625 0.05373941 0.8095716
0.3287109375 0.2912067 0.7299604
0.329859375 0.4833911 0.5874985
0.3310078125 0.6166813 0.4030735
0.33215625 0.6859559 0.1994862
0.3333046875 0.6952683 -0.005466097
0.334453125 0.6511313 -0.1974922
0.3356015625 0.5610177 -0.3654217
0.33675 0.4337128 -0.5022616
0.3378984375 0.2781909 -0.6005708
0.339046875 0.1022048 -0.657383
0.3401953125 -0.08445568 -0.667708
0.34134375 -0.2727315 -0.6299832
0.3424921875 -0.4510668 -0.5409824
0.343640625 -0.6070985 -0.4010045
0.3447890625 -0.724668 -0.2145617
0.3459375 -0.7883756 0.01239481
0.3470859375 -0.7818108 0.2642651
0.348234375 -0.6920744 0.5195855
0.3493828125 -0.5138521 0.7480655
0.35053125 -0.2538903 0.9172058
0.3516796875 0.06637871 0.9935519
0.352828125 0.4112062 0.9559328
0.3539765625 0.7394239 0.7957639
0.355125 1.007571 0.5219431
0.3562734375 1.177761 0.1567585
0.357421875 1.221681 -0.267918
0.3585703125 1.117683 -0.7129709
0.35971875 0.8514391 -1.133574
0.3608671875 0.4152201 -1.475301
0.362015625 -0.1887328 -1.662817
0.3631640625 -0.9214184 -1.593873
0.3643125 -1.671295 -1.146973
0.3654609375 -2.185905 -0.254364
0.366609375 -2.118561 0.9110115
0.3677578125 -1.33947 1.85932
0.36890625 -0.2035935 2.146342
0.3700546875 0.7680095 1.796523
0.371203125 1.326012 1.125893
0.3723515625 1.489992 0.4147224
0.3735 1.368297 -0.1926771
0.3746484375 1.070875 -0.6344665
0.375796875 0.6835184 -0.9004201
0.3769453125 0.2736194 -0.996731
0.37809375 -0.1036642 -0.9442479
0.3792421875 -0.407819 -0.7754884
0.380390625 -0.6119109 -0.5313033
0.3815390625 -0.7067632 -0.2547512
0.3826875 -0.6984457 0.01213712
0.3838359375 -0.6059993 0.2394923
0.384984375 -0.454731 0.4076573
0.3861328125 -0.2715521 0.5076269
0.38728125 -0.07959989 0.5410582
0.3884296875 0.1005001 0.5135421
0.389578125 0.2552497 0.4360559
0.3907265625 0.3746948 0.3202851
0.391875 0.4520501 0.1782885
0.3930234375 0.4834374 0.02185603
0.394171875 0.467967 -0.1372268
0.3953203125 0.4049587 -0.2874516
0.39646875 0.2976102 -0.4157632
0.3976171875 0.1505665 -0.5103863
0.398765625 -0.02905405 -0.558926
0.3999140625 -0.2283317 -0.5482741
0.4010625 -0.4299403 -0.4690816
0.4022109375 -0.6111215 -0.3139804
0.403359375 -0.7420014 -0.08613063
0.4045078125 -0.7918511 0.2027271
0.40565625 -0.7302457 0.5258818
0.4068046875 -0.5342206 0.8410244
0.407953125 -0.1947874 1.092785
0.4091015625 0.275263 1.214297
0.41025 0.836906 1.132492
0.4113984375 1.407569 0.7703401
0.412546875 1.837096 0.07069361
0.4136953125 1.873792 -0.940396
0.41484375 1.222328 -1.979295
0.4159921875 -0.09257281 -2.429482
0.417140625 -1.381806 -1.892978
0.4182890625 -1.957076 -0.8009482
0.4194375 -1.836596 0.194066
0.4205859375 -1.371825 0.83329
0.421734375 -0.8215945 1.143031
0.4228828125 -0.3083151 1.212756
0.42403125 0.1197969 1.122999
0.4251796875 0.4487148 0.9313716
0.426328125 0.6765295 0.6788105
0.4274765625 0.8060513 0.3970584
0.428625 0.8429962 0.1111622
0.4297734375 0.7947584 -0.1569463
0.430921875 0.6732397 -0.3858615
0.4320703125 0.4953187 -0.5583801
0.43321875 0.2800673 -0.6626966
0.4343671875 0.05145425 -0.6922741
0.435515625 -0.1660631 -0.6492258
0.4366640625 -0.3508548 -0.5428709
0.4378125 -0.4859089 -0.3910223
0.4389609375 -0.5627576 -0.212606
0.440109375 -0.5797177 -0.02847496
0.4412578125 -0.5421546 0.1440481
0.44240625 -0.4597962 0.2898366
0.4435546875 -0.3438642 0.4007616
0.444703125 -0.206921 0.4713251
0.4458515625 -0.06101261 0.5005234
0.447 0.08341392 0.4892814
0.4481484375 0.216462 0.4405603
0.449296875 0.3303599 0.359133
0.4504453125 0.4181161 0.2508733
0.45159375 0.4741226 0.1225777
0.4527421875 0.4937906 -0.01789255
0.453890625 0.4741024 -0.1610791
0.4550390625 0.4142723 -0.2963789
0.4561875 0.3155554 -0.412697
0.4573359375 0.1832984 -0.4984642
0.458484375 0.02644315 -0.5428153
0.4596328125 -0.1423791 -0.5376647
0.46078125 -0.3063933 -0.4794254
0.4619296875 -0.448311 -0.370199
0.463078125 -0.5513476 -0.2185293
0.4642265625 -0.6028587 -0.03894316
0.465375 -0.595668 0.1506822
0.4665234375 -0.5298185 0.3307138
0.467671875 -0.4115203 0.4838912
0.4688203125 -0.2510843 0.5958847
0.46996875 -0.06333772 0.6569052
0.4711171875 0.1370554 0.6613492
0.472265625 0.3348754 0.6082897
0.4734140625 0.5151063 0.4998097
0.4745625 0.6643569 0.3401679
0.4757109375 0.7690783 0.1369876
0.476859375 0.8174831 -0.1005355
0.4780078125 0.7972776 -0.3597201
0.47915625 0.6980487 -0.6235967
0.4803046875 0.5115147 -0.8713868
0.481453125 0.2337196 -1.074026
0.4826015625 -0.1343417 -1.199194
0.48375 -0.5779971 -1.203679
0.4848984375 -1.066214 -1.040555
0.486046875 -1.538479 -0.6624371
0.4871953125 -1.894809 -0.03565475
0.48834375 -1.98306 0.8290574
0.4894921875 -1.61237 1.813603
0.490640625 -0.6423329 2.61729
0.4917890625 0.8045179 2.775324
0.4929375 2.157508 1.993366
0.4940859375 2.752825 0.5840859
0.495234375 2.458155 -0.75815
0.4963828125 1.646156 -1.589446
0.49753125 0.7328141 -1.877088
0.4986796875 -0.04795752 -1.775595
0.499828125 -0.6157219 -1.450069
0.5009765625 -0.9683941 -1.02457
0.502125 -1.135425 -0.5789866
0.5032734375 -1.152248 -0.1627533
0.504421875 -1.054504 0.1956136
0.5055703125 -0.8745287 0.4799782
0.50671875 -0.6406342 0.6819473
0.5078671875 -0.377551 0.799367
0.509015625 -0.1090007 0.8343045
0.5101640625 0.1454445 0.7921417
0.5113125 0.3672353 0.6823463
0.5124609375 0.540972 0.5179755
0.513609375 0.654085 0.3152413
0.5147578125 0.699412 0.09304929
0.51590625 0.6754411 -0.1266544
0.5170546875 0.5865016 -0.3232094
0.518203125 0.4444727 -0.4789158
0.5193515625 0.2652755 -0.5797652
0.5205 0.06888268 -0.6188417
0.5216484375 -0.1244522 -0.5958191
0.522796875 -0.2964836 -0.5168812
0.5239453125 -0.4331954 -0.3925565
0.52509375 -0.5238872 -0.2368609
0.5262421875 -0.5636835 -0.06491833
0.527390625 -0.5514523 0.108418
0.5285390625 -0.4905532 0.2692819
0.5296875 -0.38675 0.4050262
0.5308359375 -0.2473634 0.5061783
0.531984375 -0.08316821 0.5639795
0.5331328125 0.09445548 0.5727063
0.53428125 0.272133 0.5289151
0.5354296875 0.4361213 0.4312501
0.536578125 0.5695904 0.2838871
0.5377265625 0.6586588 0.09245314
0.538875 0.6874229 -0.1312363
0.5400234375 0.6418655 -0.3703397
0.541171875 0.5139929 -0.6010979
0.5423203125 0.2991004 -0.7960346
0.54346875 0.001623054 -0.9214689
0.5446171875 -0.3592108 -0.9414494
0.545765625 -0.7535236 -0.8179651
0.5469140625 -1.128333 -0.516764
0.5480625 -1.399535 -0.01442971
0.5492109375 -1.439894 0.6783775
0.550359375 -1.077216 1.456281
0.5515078125 -0.1812037 2.015226
0.55265625 1.04502 1.877266
0.5538046875 1.900357 0.9112678
0.554953125 1.898107 -0.2686265
0.5561015625 1.305084 -1.041676
0.55725 0.5833582 -1.314474
0.5583984375 -0.02437529 -1.245789
0.559546875 -0.4531979 -0.99557
0.5606953125 -0.7090573 -0.668992
0.56184375 -0.8174738 -0.3301193
0.5629921875 -0.8082631 -0.01684933
0.564140625 -0.7086483 0.2470172
0.5652890625 -0.5440482 0.446388
0.5664375 -0.3399145 0.5732887
0.5675859375 -0.119351 0.6246726
0.568734375 0.09516966 0.6038331
0.5698828125 0.283089 0.5184259
0.57103125 0.4278151 0.3819484
0.5721796875 0.5177492 0.2111912
0.573328125 0.5460958 0.02676505
0.5744765625 0.5142653 -0.1523037
0.575625 0.4284659 -0.307624
0.5767734375 0.300968 -0.4247629
0.577921875 0.1463757 -0.4941893
0.5790703125 -0.01926458 -0.5117885
0.58021875 -0.1798224 -0.4779522
0.5813671875 -0.3216401 -0.3980219
0.582515625 -0.4325919 -0.2799467
0.5836640625 -0.5037863 -0.1338193
0.5848125 -0.5296556 0.02852421
0.5859609375 -0.5069552 0.1939167
0.587109375 -0.4353295 0.3500677
0.5882578125 -0.3177731 0.4830098
0.58940625 -0.1601992 0.5803565
0.5905546875 0.02819097 0.6298868
0.591703125 0.2344427 0.6214831
0.5928515625 0.4433225 0.5471765
0.594 0.632215 0.4041216
0.5951484375 0.7808409 0.193114
0.596296875 0.8638055 -0.07642723
0.5974453125 0.8569704 -0.3873611
0.59859375 0.7388421 -0.7121568
0.5997421875 0.4938391 -1.012444
0.600890625 0.1169 -1.240093
0.6020390625 -0.3803504 -1.334554
0.6031875 -0.9618614 -1.224844
0.6043359375 -1.547873 -0.8353018
0.605484375 -1.985472 -0.1093492
0.6066328125 -2.031747 0.9133312
0.60778125 -1.430644 1.961312
0.6089296875 -0.2064439 2.506745
0.610078125 1.103079 2.182413
0.6112265625 1.881464 1.233794
0.612375 1.994582 0.2024768
0.6135234375 1.668251 -0.5827066
0.614671875 1.153385 -1.051375
0.6158203125 0.6083062 -1.249408
0.61696875 0.1185236 -1.243973
0.6181171875 -0.2820463 -1.100099
0.619265625 -0.5777392 -0.8671244
0.6204140625 -0.7660859 -0.5861897
0.6215625 -0.8521964 -0.289555
0.6227109375 -0.845103 -0.003795824
0.623859375 -0.7587141 0.2473696
0.6250078125 -0.6095718 0.4479516
0.62615625 -0.4182048 0.5860575
0.6273046875 -0.2056381 0.6555105
0.628453125 0.00682142 0.6569881
0.6296015625 0.200278 0.5969464
0.63075 0.3583061 0.4865729
0.6318984375 0.4705616 0.3406603
0.633046875 0.5314054 0.1757773
0.6341953125 0.539961 0.007814121
0.63534375 0.5008945 -0.1483857
0.6364921875 0.4215115 -0.2809997
0.637640625 0.3116263 -0.3817715
0.6387890625 0.1819529 -0.4449641
0.6399375 0.04387841 -0.4685892
0.6410859375 -0.09194003 -0.4533364
0.642234375 -0.215795 -0.4016956
0.6433828125 -0.3192598 -0.3187997
0.64453125 -0.3949545 -0.2116555
0.6456796875 -0.4377885 -0.08805675
0.646828125 -0.4443635 0.04266869
0.6479765625 -0.4133566 0.1705371
0.649125 -0.3472523 0.2854581
0.6502734375 -0.2497064 0.3774751
0.651421875 -0.1280849 0.4384224
0.6525703125 0.008041054 0.4617061
0.65371875 0.1470483 0.443328
0.6548671875 0.2766783 0.3835404
0.656015625 0.3842295 0.2866578
0.6571640625 0.4590435 0.1597711
0.6583125 0.4933942 0.01414688
0.6594609375 0.4824443 -0.1374876
0.660609375 0.4258348 -0.2816251
0.6617578125 0.327949 -0.4045013
0.66290625 0.1953037 -0.4947838
0.6640546875 0.03802535 -0.5438185
0.665203125 -0.1302079 -0.5448284
0.6663515625 -0.297319 -0.4956095
0.6675 -0.4484481 -0.3966518
0.6686484375 -0.569734 -0.2521499
0.669796875 -0.647941 -0.06978715
0.6709453125 -0.6710838 0.1391733
0.67209375 -0.6291201 0.3598896
0.6732421875 -0.5151235 0.5736949
0.674390625 -0.3267951 0.757876
0.6755390625 -0.06740419 0.8863694
0.6766875 0.2514645 0.9306594
0.6778359375 0.6045767 0.8612649
0.678984375 0.9552194 0.6511354
0.6801328125 1.245631 0.2822928
0.68128125 1.396798 -0.2409102
0.6824296875 1.311397 -0.8741634
0.683578125 0.8937015 -1.499581
0.6847265625 0.1144814 -1.902657
0.685875 -0.875957 -1.822452
0.6870234375 -1.70139 -1.152838
0.688171875 -1.982196 -0.1370461
0.6893203125 -1.669814 0.7786417
0.69046875 -1.020136 1.313763
0.6916171875 -0.3216459 1.447525
0.692765625 0.2557594 1.294881
0.6939140625 0.6529415 0.9821464
0.6950625 0.8695924 0.609396
0.6962109375 0.9332889 0.2388448
0.697359375 0.877645 -0.08859452
0.6985078125 0.7351726 -0.350015
0.69965625 0.5369174 -0.5346034
0.7008046875 0.3104545 -0.6391114
0.701953125 0.0797988 -0.6661133
0.7031015625 -0.1343011 -0.6231039
0.70425 -0.3155444 -0.5210617
0.7053984375 -0.4489551 -0.3751441
0.706546875 -0.5275272 -0.2013739
0.7076953125 -0.5468656 -0.01763789
0.70884375 -0.508691 0.1570968
0.7099921875 -0.4191666 0.3073182
0.711140625 -0.2895004 0.4192035
0.7122890625 -0.133582 0.4828405
0.7134375 0.03118647 0.493201
0.7145859375 0.1893077 0.4512752
0.715734375 0.3246634 0.3621978
0.7168828125 0.4243888 0.2352731
0.71803125 0.4795834 0.08370972
0.7191796875 0.4845031 -0.07861406
0.720328125 0.437768 -0.2362096
0.7214765625 0.3423387 -0.3740783
0.722625 0.2055073 -0.4782432
0.7237734375 0.03705711 -0.5366588
0.724921875 -0.1494223 -0.5395193
0.7260703125 -0.3371481 -0.4804775
0.72721875 -0.5075854 -0.3570015
0.7283671875 -0.6386964 -0.1712149
0.729515625 -0.7076105 0.06680815
0.7306640625 -0.6912315 0.3407729
0.7318125 -0.5674975 0.6228516
0.7329609375 -0.3213787 0.8725526
0.734109375 0.05009466 1.032092
0.7352578125 0.522791 1.029896
0.73640625 1.025431 0.7869678
0.7375546875 1.41467 0.2538758
0.738703125 1.482216 -0.5095659
0.7398515625 1.068803 -1.256875
0.741 0.26426 -1.636751
0.7421484375 -0.5794357 -1.478578
0.743296875 -1.13058 -0.9367891
0.7444453125 -1.299396 -0.2899998
0.74559375 -1.170202 0.25969
0.7467421875 -0.8732679 0.6365373
0.747890625 -0.5129223 0.8352951
0.7490390625 -0.1516529 0.8477849
0.7501875 0.144714 0.7808648
0.7513359375 0.3752233 0.6356135
0.752484375 0.5312992 0.443491
0.7536328125 0.6118473 0.2300629
0.75478125 0.6215945 0.01757039
0.7559296875 0.5692134 -0.1758399
0.757078125 0.4656395 -0.3355525
0.7582265625 0.3245341 -0.4513496
0.759375 0.1611204 -0.516567
0.7605234375 -0.009692951 -0.5287326
0.761671875 -0.172049 -0.4892645
0.7628203125 -0.3117975 -0.4040128
0.76396875 -0.4167261 -0.2822861
0.7651171875 -0.4789191 -0.1362897
0.766265625 -0.4929665 0.01961996
0.7674140625 -0.4591223 0.1708566
0.7685625 -0.3817278 0.3030493
0.7697109375 -0.2685467 0.4050582
0.770859375 -0.1308689 0.4676487
0.7720078125 0.01878133 0.4858468
0.77315625 0.1669338 0.4589287
0.7743046875 0.3005567 0.3891933
0.775453125 0.4086968 0.2827901
0.7766015625 0.4816691 0.147829
0.77775 0.5130382 -0.004750909
0.7788984375 0.4980891 -0.1630114
0.780046875 0.4364581 -0.314176
0.7811953125 0.330654 -0.4449904
0.78234375 0.1853868 -0.5430142
0.7834921875 0.01039439 -0.596398
0.784640625 -0.1821503 -0.595607
0.7857890625 -0.3764436 -0.5340886
0.7869375 -0.5532416 -0.4085702
0.7880859375 -0.6930077 -0.2229134
0.789234375 -0.7727438 0.01417217
0.7903828125 -0.7734702 0.285076
0.79153125 -0.6781633 0.5649925
0.7926796875 -0.4774684 0.8204843
0.793828125 -0.1725768 1.010288
0.7949765625 0.2203504 1.088107
0.796125 0.6620896 1.007456
0.7972734375 1.086874 0.7297634
0.798421875 1.394757 0.2466825
0.7995703125 1.467186 -0.3953008
0.80071875 1.201482 -1.05735
0.8018671875 0.6013329 -1.528709
0.803015625 -0.1720924 -1.62349
0.8041640625 -0.860518 -1.314668
0.8053125 -1.266376 -0.7495308
0.8064609375 -1.348178 -0.1342035
0.807609375 -1.175649 0.3809927
0.8087578125 -0.8565353 0.7292689
0.80990625 -0.4832904 0.9048694
0.8110546875 -0.1212167 0.9322057
0.812203125 0.1900915 0.8442954
0.8133515625 0.4284517 0.6773747
0.8145 0.5846314 0.4633413
0.8156484375 0.6582698 0.2317991
0.816796875 0.6559533 0.006948377
0.8179453125 0.5885242 -0.1915187
0.81909375 0.4707884 -0.3485528
0.8202421875 0.3200616 -0.4550378
0.821390625 0.153577 -0.5072129
0.8225390625 -0.01166149 -0.5056629
0.8236875 -0.1607605 -0.4562047
0.8248359375 -0.2812684 -0.3685876
0.825984375 -0.3657399 -0.2540497
0.8271328125 -0.4099013 -0.1257242
0.82828125 -0.4138446 0.004229163
0.8294296875 -0.3805028 0.1246456
0.830578125 -0.3159274 0.2261232
0.8317265625 -0.227738 0.301742
0.832875 -0.1246414 0.3474872
0.8340234375 -0.01552312 0.3613884
0.835171875 0.09069148 0.3439537
0.8363203125 0.1860944 0.2975827
0.83746875 0.2632876 0.2265593
0.8386171875 0.3164819 0.1372819
0.839765625 0.3417294 0.03660912
0.8409140625 0.3367782 -0.06731499
0.8420625 0.3015599 -0.1659284
0.8432109375 0.2383651 -0.2504553
0.844359375 0.1520142 -0.3130868
0.8455078125 0.04971549 -0.3475987
0.84665625 -0.06005686 -0.349889
0.8478046875 -0.1671302 -0.3181237
0.848953125 -0.2610292 -0.2543364
0.8501015625 -0.3323785 -0.1631245
0.85125 -0.3732872 -0.05231751
0.8523984375 -0.3781435 0.0683402
0.853546875 -0.3452443 0.1873771
0.8546953125 -0.2759597 0.2935062
0.85584375 -0.1743443 0.375956
0.8569921875 -0.04847779 0.4253628
0.858140625 0.09227999 0.4347729
0.8592890625 0.2357208 0.3995145
0.8604375 0.3693581 0.3177007
0.8615859375 0.4783939 0.1907834
0.862734375 0.5486701 0.02418016
0.8638828125 0.563997 -0.1733448
0.86503125 0.5096782 -0.3870085
0.8661796875 0.3714539 -0.5939219
0.867328125 0.1395826 -0.7616534
0.8684765625 -0.1860885 -0.8432992
0.869625 -0.5798451 -0.7751246
0.8707734375 -0.9660021 -0.4903476
0.871921875 -1.19488 0.03363804
0.8730703125 -1.077742 0.681566
0.87421875 -0.5606319 1.162909
0.8753671875 0.1277173 1.227985
0.876515625 0.6636295 0.9136285
0.8776640625 0.9043238 0.4424124
0.8788125 0.8900399 0.002235985
0.8799609375 0.7186536 -0.3217334
0.881109375 0.4772653 -0.5130218
0.8822578125 0.2243984 -0.587087
0.88340625 -0.003482424 -0.5685423
0.8845546875 -0.1861245 -0.4842098
0.885703125 -0.3149503 -0.3591243
0.8868515625 -0.3878969 -0.2142561
0.888 -0.4089009 -0.06743739
0.8891484375 -0.3842867 0.06743848
0.890296875 -0.3234384 0.1798721
0.8914453125 -0.2362828 0.2629454
0.89259375 -0.1331658 0.3127763
0.8937421875 -0.02451281 0.3278896
0.894890625 0.08004225 0.309705
0.8960390625 0.1713195 0.2618805
0.8971875 0.2422003 0.1897756
0.8983359375 0.2867909 0.1007148
0.899484375 0.3016475 0.003203741
0.9006328125 0.2854965 -0.09372735
0.90178125 0.2399852 -0.1806393
0.9029296875 0.1692342 -0.2489775
0.904078125 0.08004331 -0.2919242
0.9052265625 -0.01851193 -0.3046592
0.906375 -0.1172269 -0.2854364
0.9075234375 -0.205773 -0.235265
0.908671875 -0.2748968 -0.1589112
0.9098203125 -0.3172748 -0.0630594
0.91096875 -0.3278274 0.04328999
0.9121171875 -0.3040271 0.1498089
0.913265625 -0.2469257 0.2464099
0.9144140625 -0.1603634 0.3226373
0.9155625 -0.05026951 0.3705055
0.9167109375 0.07422919 0.3826594
0.917859375 0.2027752 0.3548364
0.9190078125 0.3230875 0.2847489
0.92015625 0.422057 0.1739826
0.9213046875 0.4859715 0.027159
0.922453125 0.5014663 -0.1463348
0.9236015625 0.4561488 -0.3322265
0.92475 0.3401425 -0.5100598
0.9258984375 0.1495411 -0.6538467
0.927046875 -0.1102654 -0.7293245
0.9281953125 -0.4186199 -0.6980861
0.92934375 -0.7310044 -0.524376
0.9304921875 -0.9722804 -0.1889119
0.931640625 -1.042619 0.2802497
0.9327890625 -0.8514842 0.777621
0.9339375 -0.3949867 1.128557
0.9350859375 0.1932843 1.179128
0.936234375 0.7005275 0.916461
0.9373828125 0.976113 0.468641
0.93853125 0.9990005 0.001419003
0.9396796875 0.8342268 -0.3724091
0.940828125 0.5690187 -0.609125
0.9419765625 0.2755926 -0.7108576
0.943125 0.002393775 -0.7003856
0.9442734375 -0.2220548 -0.6074359
0.945421875 -0.3852168 -0.4615934
0.9465703125 -0.4828704 -0.2882569
0.94771875 -0.5176143 -0.1087468
0.9488671875 -0.4973206 0.0594872
0.950015625 -0.4307237 0.2035686
0.9511640625 -0.3301078 0.3144463
0.9523125 -0.2070044 0.3861045
0.9534609375 -0.07393675 0.4163849
0.954609375 0.05707548 0.4058297
0.9557578125 0.1748004 0.3581173
0.95690625 0.2701111 0.2795714
0.9580546875 0.3355156 0.1786421
0.959203125 0.3667057 0.06531133
0.9603515625 0.3622007 -0.04991193
0.9615 0.3241786 -0.1562649
0.9626484375 0.2568534 -0.2445558
0.963796875 0.1675109 -0.3073183
0.9649453125 0.06512569 -0.3398659
0.96609375 -0.04102755 -0.340295
0.9672421875 -0.1411872 -0.3095451
0.968390625 -0.2266102 -0.251016
0.9695390625 -0.2906321 -0.1704977
0.9706875 -0.3282631 -0.07527506
0.9718359375 -0.3366273 0.0264294
0.972984375 -0.3149399 0.1262827
0.9741328125 -0.2652681 0.2163152
0.97528125 -0.1909437 0.2890772
0.9764296875 -0.09734593 0.338008
0.977578125 0.008367158 0.3583111
0.9787265625 0.1180161 0.3471299
0.979875 0.2229273 0.3033988
0.9810234375 0.3134659 0.228251
0.982171875 0.3804099 0.1263212
0.9833203125 0.4157573 0.003825133
0.98446875 0.412919 -0.1297422
0.9856171875 0.3676552 -0.2629655
0.986765625 0.2793995 -0.3824081
0.9879140625 0.1514829 -0.4744336
0.9890625 -0.008521111 -0.5256761
0.9902109375 -0.1882731 -0.5242392
0.991359375 -0.3719424 -0.4615858
0.9925078125 -0.5388678 -0.3336757
0.99365625 -0.6662232 -0.1425079
0.9948046875 -0.7289358 0.1033716
0.995953125 -0.7018182 0.3853897
0.9971015625 -0.5601129 0.6717455
0.99825 -0.289054 0.9155319
0.9993984375 0.1101286 1.049911
