# GHZ S RI R 50.0
0.3 -0.4899191 2.40141
0.3011484375 0.2763604 2.101503
0.302296875 0.8098129 1.666728
0.3034453125 1.132487 1.182248
0.30459375 1.279054 0.7049866
0.3057421875 1.287925 0.2722533
0.306890625 1.19469 -0.09653114
0.3080390625 1.030227 -0.3923934
0.3091875 0.8202122 -0.6153844
0.3103359375 0.583418 -0.7672988
0.311484375 0.3343146 -0.851837
0.3126328125 0.08556832 -0.8736956
0.31378125 -0.1523298 -0.8365195
0.3149296875 -0.369747 -0.7441806
0.316078125 -0.5560642 -0.601578
0.3172265625 -0.6992944 -0.4144909
0.318375 -0.7894741 -0.192349
0.3195234375 -0.814326 0.05232475
0.320671875 -0.7649794 0.3008095
0.3218203125 -0.6377901 0.5294365
0.32296875 -0.4397459 0.7096153
0.3241171875 -0.1872755 0.8184014
0.325265625 0.0891943 0.8365625
0.3264140625 0.356961 0.7607319
0.3275625 0.5832006 0.6014227
0.3287109375 0.7433373 0.3801568
0.329859375 0.8236614 0.1232026
0.3310078125 0.8219438 -0.1427174
0.33215625 0.7434717 -0.3929422
0.3333046875 0.5966879 -0.6115525
0.334453125 0.3924887 -0.7853062
0.3356015625 0.1424637 -0.9022192
0.33675 -0.1445238 -0.9536057
0.3378984375 -0.4595144 -0.9285631
0.339046875 -0.7926909 -0.8126838
0.3401953125 -1.129076 -0.5880613
0.34134375 -1.450695 -0.2235557
0.3424921875 -1.721534 0.3291025
0.343640625 -1.866309 1.148076
0.3447890625 -1.687836 2.385159
0.3459375 -0.5310321 4.257844
0.3470859375 4.060186 5.763331
0.348234375 8.28988 -2.447029
0.3493828125 1.601717 -5.326602
0.35053125 -1.093455 -3.47782
0.3516796875 -1.846246 -1.911557
0.352828125 -1.923606 -0.7896881
0.3539765625 -1.700655 -0.003643541
0.355125 -1.337489 0.5171664
0.3562734375 -0.9233738 0.8222169
0.357421875 -0.5176513 0.9553481
0.3585703125 -0.1524721 0.958275
0.35971875 0.1497382 0.8664366
0.3608671875 0.3815336 0.7112842
0.362015625 0.5421082 0.5193122
0.3631640625 0.6351193 0.3104656
0.3643125 0.6660594 0.1005055
0.3654609375 0.641791 -0.09864538
0.366609375 0.5690609 -0.275764
0.3677578125 0.4556079 -0.4241682
0.36890625 0.3084033 -0.5359926
0.3700546875 0.136445 -0.6044639
0.371203125 -0.04997235 -0.623802
0.3723515625 -0.2386729 -0.5897024
0.3735 -0.4153482 -0.5002002
0.3746484375 -0.5637756 -0.356849
0.375796875 -0.6648529 -0.1689285
0.3769453125 -0.7042978 0.05086543
0.37809375 -0.6706638 0.2792143
0.3792421875 -0.561646 0.4914733
0.380390625 -0.3851732 0.6612881
0.3815390625 -0.1589044 0.7671375
0.3826875 0.09244885 0.795991
0.3838359375 0.3425263 0.7446856
0.384984375 0.5680281 0.6195899
0.3861328125 0.7494262 0.4316947
0.38728125 0.872462 0.1964367
0.3884296875 0.9285404 -0.0704378
0.389578125 0.9121556 -0.3531395
0.3907265625 0.8185725 -0.6362477
0.391875 0.6455576 -0.9051691
0.3930234375 0.3898026 -1.142799
0.394171875 0.04744459 -1.330182
0.3953203125 -0.3849952 -1.44057
0.39646875 -0.9119275 -1.439236
0.3976171875 -1.532825 -1.271378
0.398765625 -2.236742 -0.8505501
0.3999140625 -2.978596 -0.02747915
0.4010625 -3.590585 1.470013
0.4022109375 -3.448909 4.085633
0.403359375 -0.3030705 7.591643
0.4045078125 7.022929 5.69606
0.40565625 7.157182 -1.507579
0.4068046875 3.534834 -3.89699
0.407953125 1.018265 -3.803812
0.4091015625 -0.4441967 -3.06374
0.41025 -1.239808 -2.201486
0.4113984375 -1.603875 -1.383562
0.412546875 -1.683537 -0.6748965
0.4136953125 -1.575928 -0.09805365
0.41484375 -1.353401 0.3400552
0.4159921875 -1.066523 0.6483449
0.417140625 -0.7536823 0.8412539
0.4182890625 -0.4413306 0.9343363
0.4194375 -0.148896 0.9436353
0.4205859375 0.112623 0.8845459
0.421734375 0.3319658 0.771518
0.4228828125 0.5059586 0.6171522
0.42403125 0.6284801 0.4341971
0.4251796875 0.6985702 0.2339272
0.426328125 0.7144399 0.02838029
0.4274765625 0.6764579 -0.1698227
0.428625 0.587827 -0.3486611
0.4297734375 0.453874 -0.4950851
0.430921875 0.2856001 -0.5967355
0.4320703125 0.09548864 -0.6450974
0.43321875 -0.09960748 -0.6348923
0.4343671875 -0.2808443 -0.566696
0.435515625 -0.4304312 -0.4480874
0.4366640625 -0.5347309 -0.292289
0.4378125 -0.5851415 -0.1166543
0.4389609375 -0.5801792 0.06072797
0.440109375 -0.5244873 0.2232721
0.4412578125 -0.4274001 0.3579467
0.44240625 -0.3003773 0.455582
0.4435546875 -0.1557895 0.5124114
0.444703125 -0.005722519 0.5274482
0.4458515625 0.1393083 0.5020948
0.447 0.2707599 0.4409448
0.4481484375 0.3804616 0.3483628
0.449296875 0.4624685 0.231068
0.4504453125 0.5117519 0.09566182
0.45159375 0.5245932 -0.04971497
0.4527421875 0.4984351 -0.1967689
0.453890625 0.432418 -0.3351032
0.4550390625 0.3279802 -0.4546416
0.4561875 0.1892606 -0.5443466
0.4573359375 0.02437593 -0.5929003
0.458484375 -0.1555133 -0.5918431
0.4596328125 -0.3338154 -0.5359637
0.46078125 -0.4938444 -0.4245452
0.4619296875 -0.6173027 -0.2640129
0.463078125 -0.6879005 -0.06692956
0.4642265625 -0.6952595 0.1484902
0.465375 -0.6350449 0.3617959
0.4665234375 -0.5117864 0.5506571
0.467671875 -0.3336502 0.6977775
0.4688203125 -0.1158708 0.7900105
0.46996875 0.1254805 0.8172458
0.4711171875 0.3726435 0.7755277
0.472265625 0.6089156 0.664491
0.4734140625 0.8174058 0.4858787
0.4745625 0.9819093 0.2435408
0.4757109375 1.086819 -0.05497594
0.476859375 1.11389 -0.4006685
0.4780078125 1.042719 -0.783958
0.47915625 0.8494497 -1.187916
0.4803046875 0.5030019 -1.584404
0.481453125 -0.03615169 -1.933355
0.4826015625 -0.8191208 -2.155315
0.48375 -1.906832 -2.101235
0.4848984375 -3.325815 -1.442731
0.486046875 -4.771404 0.518465
0.4871953125 -4.378299 4.440099
0.48834375 0.4452155 6.663926
0.4894921875 4.0905 3.676661
0.490640625 4.131413 0.6006216
0.4917890625 3.067784 -1.027893
0.4929375 1.94042 -1.732477
0.4940859375 0.9799722 -1.921839
0.495234375 0.2239666 -1.82006
0.4963828125 -0.3351646 -1.554959
0.49753125 -0.7169846 -1.204853
0.4986796875 -0.9446729 -0.8231443
0.499828125 -1.041022 -0.4485155
0.5009765625 -1.031715 -0.1045816
0.502125 -0.9386821 0.1925189
0.5032734375 -0.7835148 0.4296553
0.504421875 -0.5855868 0.6035825
0.5055703125 -0.3628512 0.7102137
0.50671875 -0.131852 0.7507475
0.5078671875 0.09253189 0.727434
0.509015625 0.2941724 0.6464729
0.5101640625 0.4605803 0.5156311
0.5113125 0.5814129 0.3455108
0.5124609375 0.6469356 0.1504793
0.513609375 0.6526787 -0.05357035
0.5147578125 0.5968956 -0.2491274
0.51590625 0.4853956 -0.4178199
0.5170546875 0.3279167 -0.543767
0.518203125 0.1400954 -0.6146333
0.5193515625 -0.05932909 -0.6238332
0.5205 -0.2505101 -0.5708861
0.5216484375 -0.415538 -0.4627443
0.522796875 -0.5385525 -0.3103324
0.5239453125 -0.6099315 -0.1282461
0.52509375 -0.6243687 0.06674334
0.5262421875 -0.5804101 0.2582253
0.527390625 -0.4821745 0.4313027
0.5285390625 -0.3356325 0.5720167
0.5296875 -0.1499729 0.668534
0.5308359375 0.06403315 0.711013
0.531984375 0.2933621 0.6911034
0.5331328125 0.5231308 0.6025993
0.53428125 0.735847 0.441098
0.5354296875 0.9113405 0.2040349
0.536578125 1.025778 -0.1076463
0.5377265625 1.04979 -0.4890634
0.538875 0.9462649 -0.9286371
0.5400234375 0.665243 -1.40544
0.541171875 0.1319989 -1.876351
0.5423203125 -0.7760565 -2.239167
0.54346875 -2.255049 -2.199159
0.5446171875 -4.360861 -0.78145
0.545765625 -4.578183 3.704735
0.5469140625 0.554535 5.359166
0.5480625 2.861541 2.560035
0.5492109375 2.728519 0.5561548
0.550359375 2.087351 -0.4902802
0.5515078125 1.413087 -1.003412
0.55265625 0.8114815 -1.205408
0.5538046875 0.307044 -1.214984
0.554953125 -0.0953932 -1.100431
0.5561015625 -0.3978599 -0.908283
0.55725 -0.6053047 -0.6712564
0.5583984375 -0.7243917 -0.4151633
0.559546875 -0.7635536 -0.1600947
0.5606953125 -0.7327573 0.07725278
0.56184375 -0.6422726 0.2835084
0.5629921875 -0.5043933 0.4476772
0.564140625 -0.332742 0.5618346
0.5652890625 -0.141109 0.6194602
0.5664375 0.05424365 0.6194444
0.5675859375 0.237745 0.563109
0.568734375 0.3942678 0.4561838
0.5698828125 0.510569 0.3087918
0.57103125 0.5759091 0.1343496
0.5721796875 0.5850891 -0.04994019
0.573328125 0.5380194 -0.227023
0.5744765625 0.4400089 -0.3798414
0.575625 0.3013902 -0.4949783
0.5767734375 0.1360797 -0.5622883
0.577921875 -0.04045959 -0.5774156
0.5790703125 -0.2125023 -0.5403294
0.58021875 -0.3662158 -0.454979
0.5813671875 -0.4890529 -0.3296301
0.582515625 -0.5720771 -0.1737996
0.5836640625 -0.6087469 0.001121194
0.5848125 -0.5958515 0.1823339
0.5859609375 -0.5322846 0.3576362
0.587109375 -0.4193405 0.5142046
0.5882578125 -0.2621326 0.6389167
0.58940625 -0.06837385 0.7195982
0.5905546875 0.153239 0.74607
0.591703125 0.3879216 0.7077401
0.5928515625 0.6193228 0.5978009
0.594 0.8270385 0.4133469
0.5951484375 0.987365 0.1548004
0.596296875 1.075739 -0.1691081
0.5974453125 1.064896 -0.5434077
0.59859375 0.9303262 -0.9452294
0.5997421875 0.6464164 -1.338732
0.600890625 0.192185 -1.678625
0.6020390625 -0.4535691 -1.901131
0.6031875 -1.307478 -1.904937
0.6043359375 -2.359273 -1.522642
0.605484375 -3.498791 -0.4303775
0.6066328125 -4.100159 1.867388
0.60778125 -2.323522 4.923988
0.6089296875 1.862768 5.036142
0.610078125 3.764894 2.18927
0.6112265625 3.366459 -0.02994992
0.612375 2.399899 -1.150048
0.6135234375 1.471546 -1.604262
0.614671875 0.6993288 -1.697656
0.6158203125 0.09181876 -1.585032
0.61696875 -0.3643606 -1.352183
0.6181171875 -0.6855464 -1.052499
0.619265625 -0.8851496 -0.722023
0.6204140625 -0.9765874 -0.3872326
0.6215625 -0.9725084 -0.07066247
0.6227109375 -0.8869532 0.2102364
0.623859375 -0.7374218 0.4380111
0.6250078125 -0.5413414 0.6037912
0.62615625 -0.3182215 0.7011204
0.6273046875 -0.09006114 0.7272143
0.628453125 0.1254096 0.687877
0.6296015625 0.3105179 0.5921014
0.63075 0.45235 0.4532091
0.6318984375 0.5431893 0.2870474
0.633046875 0.5803267 0.1101699
0.6341953125 0.5655788 -0.06173668
0.63534375 0.5051821 -0.2155241
0.6364921875 0.4080089 -0.3408277
0.637640625 0.2847374 -0.4306621
0.6387890625 0.1461771 -0.4809903
0.6399375 0.003102856 -0.4910673
0.6410859375 -0.1328722 -0.4628317
0.642234375 -0.2539012 -0.4000113
0.6433828125 -0.3520997 -0.3082394
0.64453125 -0.4209888 -0.1944862
0.6456796875 -0.4564086 -0.06695724
0.646828125 -0.4551816 0.06511864
0.6479765625 -0.4177384 0.1921378
0.649125 -0.3462462 0.3045549
0.6502734375 -0.2452178 0.3933393
0.651421875 -0.121361 0.4504937
0.6525703125 0.0144084 0.470251
0.65371875 0.1525068 0.4495146
0.6548671875 0.2802981 0.3889897
0.656015625 0.3862615 0.2926915
0.6571640625 0.4607637 0.1680749
0.6583125 0.4957282 0.02517227
0.6594609375 0.4876849 -0.1228787
0.660609375 0.4362912 -0.2642511
0.6617578125 0.3453007 -0.3866233
0.66290625 0.2212437 -0.4792129
0.6640546875 0.07363268 -0.5337185
0.665203125 -0.08663207 -0.5447094
0.6663515625 -0.2476357 -0.5097591
0.6675 -0.396901 -0.4289519
0.6686484375 -0.5224875 -0.3061216
0.669796875 -0.6128662 -0.1464961
0.6709453125 -0.658093 0.0403935
0.67209375 -0.6496964 0.2436932
0.6732421875 -0.5806268 0.4493423
0.674390625 -0.4478647 0.6406687
0.6755390625 -0.2512205 0.7994128
0.6766875 0.003928125 0.9040048
0.6778359375 0.3078185 0.9341531
0.678984375 0.6413147 0.867283
0.6801328125 0.9802424 0.683475
0.68128125 1.288735 0.3649194
0.6824296875 1.518489 -0.103731
0.683578125 1.603333 -0.7285087
0.6847265625 1.438846 -1.504712
0.685875 0.853643 -2.37354
0.6870234375 -0.4200554 -3.098371
0.688171875 -2.542834 -2.914364
0.6893203125 -4.342863 -0.6239622
0.69046875 -3.395066 2.344736
0.6916171875 -1.073865 3.193137
0.692765625 0.5133666 2.613749
0.6939140625 1.266565 1.732475
0.6950625 1.515932 0.92748
0.6962109375 1.483138 0.2808215
0.697359375 1.294762 -0.2055699
0.6985078125 1.022593 -0.5466827
0.69965625 0.7130276 -0.7594179
0.7008046875 0.3972659 -0.8602812
0.701953125 0.09947088 -0.8664796
0.7031015625 -0.1627249 -0.7936393
0.70425 -0.3766521 -0.6592868
0.7053984375 -0.530433 -0.4805526
0.706546875 -0.6198241 -0.2775659
0.7076953125 -0.6440513 -0.06778377
0.70884375 -0.6066506 0.1301157
0.7099921875 -0.5157451 0.3008291
0.711140625 -0.3826101 0.4312975
0.7122890625 -0.2220569 0.5126961
0.7134375 -0.04988466 0.5406097
0.7145859375 0.1177696 0.5162373
0.715734375 0.2664448 0.4445253
0.7168828125 0.3839686 0.3341683
0.71803125 0.4619033 0.196237
0.7191796875 0.4950311 0.04380037
0.720328125 0.4818892 -0.1101515
0.7214765625 0.4245757 -0.2529455
0.722625 0.3279034 -0.3730124
0.7237734375 0.1993611 -0.4604867
0.724921875 0.04886181 -0.5077095
0.7260703125 -0.1125451 -0.5090196
0.72721875 -0.2722723 -0.4619807
0.7283671875 -0.4163899 -0.3670084
0.729515625 -0.5315596 -0.2275899
0.7306640625 -0.6044402 -0.05095154
0.7318125 -0.6226642 0.1507541
0.7329609375 -0.5770091 0.3632269
0.734109375 -0.4608846 0.5676579
0.7352578125 -0.272166 0.7425275
0.73640625 -0.01510283 0.8635229
0.7375546875 0.3007464 0.9049794
0.738703125 0.6588227 0.8404005
0.7398515625 1.032579 0.6398131
0.741 1.38545 0.2696321
0.7421484375 1.654254 -0.3152665
0.743296875 1.716144 -1.174191
0.7444453125 1.28297 -2.347943
0.74559375 -0.3063173 -3.534822
0.7467421875 -3.339504 -2.853654
0.747890625 -4.116187 0.6750233
0.7490390625 -2.002174 2.368876
0.7501875 -0.3958559 2.320492
0.7513359375 0.4939744 1.79171
0.752484375 0.9339756 1.210411
0.7536328125 1.106598 0.6828178
0.75478125 1.110492 0.234734
0.7559296875 1.003722 -0.1266134
0.757078125 0.8248308 -0.4008175
0.7582265625 0.6018743 -0.5896665
0.759375 0.3587493 -0.6957441
0.7605234375 0.1158291 -0.7256303
0.761671875 -0.1090565 -0.685995
0.7628203125 -0.3008265 -0.5887179
0.76396875 -0.4477305 -0.4469122
0.7651171875 -0.5419012 -0.2763299
0.766265625 -0.5797201 -0.09332643
0.7674140625 -0.5626135 0.08558582
0.7685625 -0.495733 0.2458054
0.7697109375 -0.3880587 0.3747976
0.770859375 -0.2513102 0.4643835
0.7720078125 -0.0986931 0.5085192
0.77315625 0.05673555 0.5071149
0.7743046875 0.2019654 0.4618157
0.775453125 0.3267612 0.3782486
0.7766015625 0.421777 0.2643265
0.77775 0.4799541 0.1289294
0.7788984375 0.4983765 -0.01736044
0.780046875 0.474941 -0.1630225
0.7811953125 0.4112581 -0.2979103
0.78234375 0.3108896 -0.4112272
0.7834921875 0.1802488 -0.4937627
0.784640625 0.02813098 -0.5371466
0.7857890625 -0.134831 -0.5356586
0.7869375 -0.2958794 -0.4863561
0.7880859375 -0.4417256 -0.3892478
0.789234375 -0.5577996 -0.2486015
0.7903828125 -0.6314952 -0.07308151
0.79153125 -0.6517463 0.1258004
0.7926796875 -0.610878 0.3319305
0.793828125 -0.5063372 0.5270957
0.7949765625 -0.3400904 0.6930932
0.796125 -0.1188815 0.8100962
0.7972734375 0.1437712 0.8615978
0.798421875 0.4315646 0.8325972
0.7995703125 0.7237534 0.7122535
0.80071875 0.9956129 0.4923634
0.8018671875 1.217254 0.1668362
0.803015625 1.354829 -0.266231
0.8041640625 1.357893 -0.8065405
0.8053125 1.154393 -1.442323
0.8064609375 0.6222665 -2.129762
0.807609375 -0.4299313 -2.702709
0.8087578125 -2.170419 -2.640697
0.80990625 -3.966487 -0.9071401
0.8110546875 -3.585375 2.043026
0.812203125 -1.287013 3.272879
0.8133515625 0.4897171 2.766324
0.8145 1.333508 1.82607
0.8156484375 1.601777 0.9593996
0.816796875 1.556746 0.2704197
0.8179453125 1.34537 -0.2401098
0.81909375 1.048086 -0.5892598
0.8202421875 0.7164719 -0.79887
0.821390625 0.3859246 -0.8879681
0.8225390625 0.08217888 -0.8780252
0.8236875 -0.1761213 -0.7895326
0.8248359375 -0.376906 -0.6449597
0.825984375 -0.5144724 -0.4654139
0.8271328125 -0.5885006 -0.2711068
0.82828125 -0.6031421 -0.07927303
0.8294296875 -0.56546 0.09632424
0.830578125 -0.4854628 0.2440197
0.8317265625 -0.3745339 0.3564419
0.832875 -0.2438291 0.4298682
0.8340234375 -0.1052156 0.4625365
0.835171875 0.03132331 0.4561069
0.8363203125 0.156216 0.4142437
0.83746875 0.2608584 0.3418225
0.8386171875 0.3394837 0.2460909
0.839765625 0.3877042 0.1348963
0.8409140625 0.402563 0.01669371
0.8420625 0.3841624 -0.09924071
0.8432109375 0.3341604 -0.2042032
0.844359375 0.257044 -0.2896949
0.8455078125 0.1592188 -0.3490872
0.84665625 0.04905259 -0.3774134
0.8478046875 -0.06413706 -0.3726206
0.848953125 -0.1705244 -0.3349146
0.8501015625 -0.2609231 -0.2680275
0.85125 -0.3272395 -0.1781305
0.8523984375 -0.3641627 -0.07297703
0.853546875 -0.3689899 0.03786832
0.8546953125 -0.3412243 0.144814
0.85584375 -0.2839285 0.2390609
0.8569921875 -0.2021881 0.3131152
0.858140625 -0.1024039 0.3607079
0.8592890625 0.007372899 0.3782214
0.8604375 0.1186845 0.3642017
0.8615859375 0.223107 0.3189355
0.862734375 0.312223 0.2449201
0.8638828125 0.3789237 0.146614
0.86503125 0.4169909 0.03035141
0.8661796875 0.4212176 -0.09645877
0.867328125 0.3883773 -0.2243401
0.8684765625 0.3175131 -0.3439054
0.869625 0.2100326 -0.4434001
0.8707734375 0.07037766 -0.5122824
0.871921875 -0.0939288 -0.5402079
0.8730703125 -0.2720008 -0.5174317
0.87421875 -0.4498075 -0.4373517
0.8753671875 -0.610246 -0.2957955
0.876515625 -0.7334146 -0.09368137
0.8776640625 -0.7972633 0.1644335
0.8788125 -0.7773119 0.4674326
0.8799609375 -0.6452887 0.7961689
0.881109375 -0.3684997 1.120631
0.8822578125 0.09543742 1.384249
0.88340625 0.7915775 1.473388
0.8845546875 1.71312 1.143869
0.885703125 2.516143 -0.009678711
0.8868515625 2.11135 -1.832091
0.888 0.3220018 -2.572004
0.8891484375 -1.020404 -1.857182
0.890296875 -1.433867 -0.891763
0.8914453125 -1.359643 -0.1633358
0.89259375 -1.099168 0.3073069
0.8937421875 -0.7826598 0.5813618
0.894890625 -0.4677875 0.710414
0.8960390625 -0.1819089 0.7330731
0.8971875 0.06063879 0.6778902
0.8983359375 0.2517166 0.5674894
0.899484375 0.3872406 0.4213256
0.9006328125 0.4657887 0.2567002
0.90178125 0.4900351 0.08972127
0.9029296875 0.4648405 -0.06610993
0.904078125 0.3980951 -0.1986651
0.9052265625 0.2999341 -0.299186
0.906375 0.1820062 -0.3618912
0.9075234375 0.05649805 -0.384721
0.908671875 -0.06469975 -0.3688655
0.9098203125 -0.1709513 -0.3190489
0.91096875 -0.2543673 -0.24225
0.9121171875 -0.3086576 -0.1470518
0.913265625 -0.3311353 -0.04304591
0.9144140625 -0.3219405 0.06021882
0.9155625 -0.2834922 0.1542651
0.9167109375 -0.2198599 0.2312664
0.917859375 -0.1372638 0.2857089
0.9190078125 -0.04305705 0.3133968
0.92015625 0.0553074 0.3124036
0.9213046875 0.1495112 0.2821676
0.922453125 0.2317205 0.2251282
0.9236015625 0.2945171 0.1452093
0.92475 0.331811 0.04791931
0.9258984375 0.3387758 -0.05881732
0.927046875 0.3126036 -0.1661237
0.9281953125 0.2530779 -0.2642109
0.92934375 0.1633956 -0.3429472
0.9304921875 0.04850268 -0.3929379
0.931640625 -0.08254696 -0.4062456
0.9327890625 -0.2183606 -0.3768149
0.9339375 -0.34603 -0.3033379
0.9350859375 -0.4513451 -0.1861602
0.936234375 -0.520521 -0.03170943
0.9373828125 -0.5394564 0.1503852
0.93853125 -0.4977893 0.3465837
0.9396796875 -0.3860446 0.5387926
0.940828125 -0.1986064 0.7042869
0.9419765625 0.06644096 0.8148334
0.943125 0.4031281 0.8332011
0.9442734375 0.791797 0.7108977
0.945421875 1.179993 0.3821596
0.9465703125 1.44246 -0.215414
0.94771875 1.332996 -1.054036
0.9488671875 0.5854754 -1.798487
0.950015625 -0.5849872 -1.834834
0.9511640625 -1.406542 -1.094561
0.9523125 -1.545435 -0.1903484
0.9534609375 -1.25556 0.4619383
0.954609375 -0.8210818 0.8123193
0.9557578125 -0.3890649 0.9312831
0.95690625 -0.02083508 0.8943546
0.9580546875 0.2633736 0.7584043
0.959203125 0.4588187 0.5664744
0.9603515625 0.5694287 0.350201
0.9615 0.6033864 0.134063
0.9626484375 0.5721963 -0.06243742
0.963796875 0.4897547 -0.2259856
0.9649453125 0.3711856 -0.3474732
0.96609375 0.2316147 -0.421993
0.9672421875 0.08565875 -0.4501251
0.968390625 -0.05366421 -0.4346836
0.9695390625 -0.1759178 -0.3818893
0.9706875 -0.2727163 -0.2997454
0.9718359375 -0.3388765 -0.1977676
0.972984375 -0.3718448 -0.08531015
0.9741328125 -0.3714699 0.02826724
0.97528125 -0.3392965 0.1342066
0.9764296875 -0.2800973 0.2248293
0.977578125 -0.1989311 0.2937823
0.9787265625 -0.1025606 0.3366227
0.979875 0.001118059 0.3500217
0.9810234375 0.1044546 0.3334799
0.982171875 0.1985058 0.2879384
0.9833203125 0.2761912 0.2170172
0.98446875 0.3304085 0.1259085
0.9856171875 0.355821 0.02202711
0.986765625 0.3500129 -0.08644883
0.9879140625 0.3121228 -0.1895992
0.9890625 0.2443258 -0.2786672
0.9902109375 0.1520519 -0.3446007
0.991359375 0.04224907 -0.3813904
0.9925078125 -0.07560558 -0.3841555
0.99365625 -0.1916875 -0.351414
0.9948046875 -0.2953562 -0.2847815
0.995953125 -0.3774323 -0.188406
0.9971015625 -0.4293587 -0.0689618
0.99825 -0.4454797 0.06462933
0.9993984375 -0.4218755 0.2025681
1.000546875 -0.3568691 0.3335555
1.0016953125 -0.2524144 0.4462887
1.00284375 -0.1124543 0.5295724
