# GHZ S RI R 50.0
0.3 -1.321045 -0.08199385
0.3011484375 -1.19207 0.4033485
0.302296875 -0.9039502 0.7659681
0.3034453125 -0.5351876 0.9705003
0.30459375 -0.1565657 1.022033
0.3057421875 0.1789727 0.9471281
0.306890625 0.4425411 0.7841688
0.3080390625 0.6243358 0.5685137
0.3091875 0.7234764 0.3301904
0.3103359375 0.747779 0.09361818
0.311484375 0.7077821 -0.1255299
0.3126328125 0.6149358 -0.313228
0.31378125 0.4810674 -0.461841
0.3149296875 0.317737 -0.5653105
0.316078125 0.13628 -0.6195236
0.3172265625 -0.05101227 -0.6217703
0.318375 -0.2307223 -0.5715113
0.3195234375 -0.3883916 -0.4706692
0.320671875 -0.5088237 -0.3267318
0.3218203125 -0.5794853 -0.1507104
0.32296875 -0.5894501 0.03855827
0.3241171875 -0.5367488 0.2200626
0.325265625 -0.4290357 0.3700847
0.3264140625 -0.2811813 0.4731519
0.3275625 -0.1147198 0.5189828
0.3287109375 0.04897685 0.5090154
0.329859375 0.1927425 0.4511897
0.3310078125 0.3050925 0.3588318
0.33215625 0.3803914 0.2449853
0.3333046875 0.4184595 0.1216298
0.334453125 0.4214986 -0.0002521397
0.3356015625 0.3935537 -0.1129785
0.33675 0.3401189 -0.2109704
0.3378984375 0.2656521 -0.2902234
0.339046875 0.1753488 -0.3473428
0.3401953125 0.07446771 -0.3800843
0.34134375 -0.03181595 -0.3862471
0.3424921875 -0.1376051 -0.3648024
0.343640625 -0.2361954 -0.315417
0.3447890625 -0.3204017 -0.2389427
0.3459375 -0.3820464 -0.139102
0.3470859375 -0.4131227 -0.02061287
0.348234375 -0.4073982 0.1055728
0.3493828125 -0.3612702 0.228091
0.35053125 -0.276207 0.3321724
0.3516796875 -0.1600898 0.4043179
0.352828125 -0.02624989 0.4341359
0.3539765625 0.1097137 0.418726
0.355125 0.2310448 0.3615774
0.3562734375 0.3262844 0.2710953
0.357421875 0.387741 0.1582983
0.3585703125 0.4118181 0.03599282
0.35971875 0.4002098 -0.08479831
0.3608671875 0.3559507 -0.1946181
0.362015625 0.2847557 -0.286478
0.3631640625 0.1927533 -0.3553256
0.3643125 0.08579636 -0.3973104
0.3654609375 -0.02922056 -0.4099485
0.366609375 -0.1457201 -0.3917774
0.3677578125 -0.256201 -0.3421999
0.36890625 -0.3526108 -0.2619825
0.3700546875 -0.4267145 -0.1536873
0.371203125 -0.469727 -0.02215381
0.3723515625 -0.4733529 0.1246127
0.3735 -0.4295265 0.2751887
0.3746484375 -0.3358231 0.4121574
0.375796875 -0.1942047 0.5188215
0.3769453125 -0.01470239 0.5755042
0.37809375 0.1837231 0.566863
0.3792421875 0.3746465 0.4861394
0.380390625 0.5296021 0.337619
0.3815390625 0.6236153 0.1386753
0.3826875 0.6406988 -0.08357418
0.3838359375 0.5773424 -0.2987374
0.384984375 0.4424256 -0.4784663
0.3861328125 0.2554284 -0.5991023
0.38728125 0.03933368 -0.6478146
0.3884296875 -0.1776103 -0.6208532
0.389578125 -0.3710604 -0.523617
0.3907265625 -0.5200443 -0.3693042
0.391875 -0.6084903 -0.1761099
0.3930234375 -0.6281375 0.03334496
0.394171875 -0.5783378 0.2357107
0.3953203125 -0.4658442 0.4092514
0.39646875 -0.3032752 0.5355932
0.3976171875 -0.1099454 0.6012374
0.398765625 0.09421623 0.5993893
0.3999140625 0.2842627 0.5308834
0.4010625 0.4403626 0.4027573
0.4022109375 0.5434291 0.2302147
0.403359375 0.5812856 0.03422011
0.4045078125 0.5494496 -0.1608925
0.40565625 0.453481 -0.3291623
0.4068046875 0.3081057 -0.450426
0.407953125 0.1352846 -0.5113494
0.4091015625 -0.04058148 -0.508526
0.41025 -0.1970921 -0.4487569
0.4113984375 -0.3170639 -0.3457258
0.412546875 -0.3920074 -0.2172231
0.4136953125 -0.4202069 -0.080394
0.41484375 -0.4058267 0.04941485
0.4159921875 -0.3562393 0.1619023
0.417140625 -0.2809844 0.2492891
0.4182890625 -0.1886706 0.3086527
0.4194375 -0.08877797 0.3383806
0.4205859375 0.01132945 0.3396545
0.421734375 0.1049134 0.3146104
0.4228828125 0.1860293 0.2665598
0.42403125 0.2502697 0.1996119
0.4251796875 0.2933585 0.1186671
0.426328125 0.3127229 0.02932189
0.4274765625 0.3062011 -0.06211216
0.428625 0.2740826 -0.1485071
0.4297734375 0.217615 -0.2224579
0.430921875 0.1409274 -0.2769737
0.4320703125 0.05046505 -0.3059874
0.43321875 -0.04459407 -0.305537
0.4343671875 -0.1350306 -0.2754734
0.435515625 -0.2110756 -0.2185695
0.4366640625 -0.2645296 -0.1416334
0.4378125 -0.2904631 -0.05325749
0.4389609375 -0.2878195 0.03641725
0.440109375 -0.2585862 0.1187588
0.4412578125 -0.2076108 0.1862411
0.44240625 -0.1411539 0.2342234
0.4435546875 -0.0660728 0.2602384
0.444703125 0.01114044 0.2639712
0.4458515625 0.08442156 0.2466493
0.447 0.1491538 0.2106681
0.4481484375 0.2010535 0.1593363
0.449296875 0.2370718 0.09625482
0.4504453125 0.2550437 0.02563003
0.45159375 0.253197 -0.04754588
0.4527421875 0.2313966 -0.1183885
0.453890625 0.1900689 -0.1819798
0.4550390625 0.1311642 -0.2323965
0.4561875 0.05852514 -0.2648709
0.4573359375 -0.02321381 -0.2747922
0.458484375 -0.106132 -0.2595584
0.4596328125 -0.1829418 -0.2184315
0.46078125 -0.2441889 -0.1542146
0.4619296875 -0.2829141 -0.07212152
0.463078125 -0.29384 0.01926761
0.4642265625 -0.2748333 0.1098455
0.465375 -0.2277872 0.1900416
0.4665234375 -0.158427 0.2506792
0.467671875 -0.07398123 0.2867397
0.4688203125 0.01650367 0.294908
0.46996875 0.1041885 0.2754395
0.4711171875 0.1815386 0.2315399
0.472265625 0.2419007 0.1672889
0.4734140625 0.2811503 0.08874215
0.4745625 0.2962912 0.002254416
0.4757109375 0.2863822 -0.08572531
0.476859375 0.2512556 -0.1683346
0.4780078125 0.1934282 -0.2381278
0.47915625 0.1159797 -0.2897238
0.4803046875 0.02444119 -0.317455
0.481453125 -0.07415882 -0.3168567
0.4826015625 -0.1713247 -0.2857929
0.48375 -0.2573344 -0.2245198
0.4848984375 -0.3224823 -0.1358506
0.486046875 -0.3574319 -0.02772141
0.4871953125 -0.3551632 0.09024999
0.48834375 -0.3126335 0.204689
0.4894921875 -0.2328877 0.3001644
0.490640625 -0.1232424 0.364386
0.4917890625 0.00357277 0.3882488
0.4929375 0.1324846 0.3669721
0.4940859375 0.2458263 0.303802
0.495234375 0.3312619 0.2061501
0.4963828125 0.3788979 0.08655898
0.49753125 0.3840148 -0.04077896
0.4986796875 0.3478135 -0.1611761
0.499828125 0.2756265 -0.2619808
0.5009765625 0.1763296 -0.3332227
0.502125 0.06089779 -0.3690098
0.5032734375 -0.05791476 -0.3664164
0.504421875 -0.1691856 -0.3273771
0.5055703125 -0.2617688 -0.2559662
0.50671875 -0.3270736 -0.1600339
0.5078671875 -0.3590833 -0.04888921
0.509015625 -0.3548721 0.06651225
0.5101640625 -0.3144789 0.1746014
0.5113125 -0.2419052 0.2640491
0.5124609375 -0.1445235 0.3256455
0.513609375 -0.03294762 0.3527075
0.5147578125 0.08121462 0.3421553
0.51590625 0.1846976 0.2951355
0.5170546875 0.2662758 0.2177047
0.518203125 0.3173601 0.1191108
0.5193515625 0.3329158 0.01131058
0.5205 0.3131397 -0.09267976
0.5216484375 0.2620771 -0.1826471
0.522796875 0.1877841 -0.2494511
0.5239453125 0.09921701 -0.2883153
0.52509375 0.006320764 -0.297614
0.5262421875 -0.08196316 -0.2790215
0.527390625 -0.1583498 -0.2363453
0.5285390625 -0.2169016 -0.1751809
0.5296875 -0.2542669 -0.1012209
0.5308359375 -0.2685508 -0.02213319
0.531984375 -0.2598704 0.05655064
0.5331328125 -0.2296368 0.1284726
0.53428125 -0.1808053 0.1882991
0.5354296875 -0.1174471 0.2316469
0.536578125 -0.04439215 0.2550569
0.5377265625 0.03246509 0.2565261
0.538875 0.1066464 0.2355409
0.5400234375 0.1720615 0.1933209
0.541171875 0.2220149 0.1335497
0.5423203125 0.2521417 0.06092891
0.54346875 0.2588212 -0.01798728
0.5446171875 0.241373 -0.09499596
0.545765625 0.2009967 -0.163176
0.5469140625 0.141893 -0.2158386
0.5480625 0.07023848 -0.2476372
0.5492109375 -0.007275153 -0.2560871
0.550359375 -0.08309839 -0.2409592
0.5515078125 -0.1501547 -0.2043661
0.55265625 -0.2029682 -0.1501716
0.5538046875 -0.2374838 -0.08344323
0.554953125 -0.2510836 -0.01051322
0.5561015625 -0.2434351 0.06317668
0.55725 -0.2150331 0.131545
0.5583984375 -0.1685103 0.1892403
0.559546875 -0.1070269 0.2317549
0.5606953125 -0.03521022 0.2554614
0.56184375 0.04127452 0.257779
0.5629921875 0.1169968 0.2378168
0.564140625 0.1852002 0.1957803
0.5652890625 0.2393835 0.1342332
0.5664375 0.2737664 0.05721078
0.5675859375 0.2837611 -0.02866113
0.568734375 0.2667364 -0.1161392
0.5698828125 0.2223447 -0.1961223
0.57103125 0.1533992 -0.2601819
0.5721796875 0.06583811 -0.2999324
0.573328125 -0.03129795 -0.3103099
0.5744765625 -0.1284185 -0.2891858
0.575625 -0.2153854 -0.237139
0.5767734375 -0.2816849 -0.1599784
0.577921875 -0.3210886 -0.06471358
0.5790703125 -0.3287311 0.0391141
0.58021875 -0.3035363 0.140918
0.5813671875 -0.2472772 0.2311364
0.582515625 -0.1654165 0.2999825
0.5836640625 -0.06494392 0.3413537
0.5848125 0.04557548 0.3495007
0.5859609375 0.1550647 0.3228808
0.587109375 0.2530931 0.2622653
0.5882578125 0.3290409 0.1717666
0.58940625 0.3736226 0.0590538
0.5905546875 0.3798256 -0.06562173
0.591703125 0.3444958 -0.1889293
0.5928515625 0.2681931 -0.2966666
0.594 0.1575394 -0.3746244
0.5951484375 0.02376838 -0.4113312
0.596296875 -0.1170649 -0.3998184
0.5974453125 -0.247396 -0.3390304
0.59859375 -0.3491627 -0.2356
0.5997421875 -0.4082116 -0.1026591
0.600890625 -0.416374 0.04239499
0.6020390625 -0.3735619 0.1797066
0.6031875 -0.2866897 0.2915615
0.6043359375 -0.168898 0.3647823
0.605484375 -0.0364212 0.3919524
0.6066328125 0.09310643 0.3730415
0.60778125 0.2052532 0.3137641
0.6089296875 0.287946 0.2243333
0.610078125 0.3357953 0.1168495
0.6112265625 0.3460436 0.003636268
0.612375 0.3209822 -0.1027659
0.6135234375 0.2658639 -0.1929642
0.614671875 0.1880238 -0.2596045
0.6158203125 0.09635957 -0.2983661
0.61696875 -0.0003653712 -0.3068475
0.6181171875 -0.09278367 -0.2863918
0.619265625 -0.1731897 -0.2395071
0.6204140625 -0.2342458 -0.1717246
0.6215625 -0.2711126 -0.09004758
0.6227109375 -0.2811018 -0.001749668
0.623859375 -0.2638714 0.08307502
0.6250078125 -0.2216012 0.1580205
0.62615625 -0.1594136 0.2148115
0.6273046875 -0.0835645 0.249018
0.628453125 -0.002676758 0.2578044
0.6296015625 0.074864 0.2412564
0.63075 0.1422136 0.2022493
0.6318984375 0.1927866 0.1461137
0.633046875 0.2229834 0.07911469
0.6341953125 0.2311499 0.008342154
0.63534375 0.2181657 -0.05975589
0.6364921875 0.1865545 -0.1191582
0.637640625 0.140338 -0.1654445
0.6387890625 0.08418313 -0.1956327
0.6399375 0.02320975 -0.2081221
0.6410859375 -0.03768684 -0.2028362
0.642234375 -0.09359937 -0.18093
0.6433828125 -0.1405575 -0.1445898
0.64453125 -0.1748462 -0.09709829
0.6456796875 -0.1943925 -0.04200541
0.646828125 -0.1973024 0.01612307
0.6479765625 -0.1835885 0.07288352
0.649125 -0.1540041 0.1230522
0.6502734375 -0.1110928 0.162819
0.651421875 -0.0580544 0.1882827
0.6525703125 0.000402161 0.1970218
0.65371875 0.05924959 0.1879841
0.6548671875 0.1124119 0.1618226
0.656015625 0.1554964 0.1205836
0.6571640625 0.1841053 0.06840374
0.6583125 0.1956068 0.01000403
0.6594609375 0.1889379 -0.04866647
0.660609375 0.1652654 -0.1024308
0.6617578125 0.1266831 -0.1464247
0.66290625 0.07736174 -0.1766228
0.6640546875 0.02167315 -0.1909997
0.665203125 -0.03536148 -0.1883516
0.6663515625 -0.0890426 -0.1693453
0.6675 -0.1347549 -0.1357021
0.6686484375 -0.1688478 -0.09018129
0.669796875 -0.1883106 -0.0369339
0.6709453125 -0.1916869 0.01998426
0.67209375 -0.1783515 0.07589414
0.6732421875 -0.1490497 0.1260783
0.674390625 -0.1059447 0.1659983
0.6755390625 -0.05214142 0.191658
0.6766875 0.007727821 0.2004697
0.6778359375 0.06828532 0.1906955
0.678984375 0.1240516 0.1626516
0.6801328125 0.1691627 0.1184424
0.68128125 0.1987324 0.06182094
0.6824296875 0.2096103 -0.00194988
0.683578125 0.2001207 -0.06652424
0.6847265625 0.170881 -0.1252968
0.685875 0.1246044 -0.1724522
0.6870234375 0.06615796 -0.2027661
0.688171875 0.0009016121 -0.2137315
0.6893203125 -0.06428276 -0.204186
0.69046875 -0.1235757 -0.1752245
0.6916171875 -0.1711434 -0.129725
0.692765625 -0.2027444 -0.07193509
0.6939140625 -0.2156118 -0.007394813
0.6950625 -0.2084963 0.05815451
0.6962109375 -0.1821664 0.1188276
0.697359375 -0.1385641 0.1691677
0.6985078125 -0.08160157 0.2045455
0.69965625 -0.01602927 0.2213662
0.7008046875 0.05237476 0.2176433
0.701953125 0.1173851 0.1931586
0.7031015625 0.1724031 0.149412
0.70425 0.2121955 0.09002122
0.7053984375 0.2318352 0.02032096
0.706546875 0.2288338 -0.05309174
0.7076953125 0.2025261 -0.1228523
0.70884375 0.1551321 -0.1813465
0.7099921875 0.09084346 -0.2222669
0.711140625 0.01651199 -0.2406131
0.7122890625 -0.06019928 -0.23433
0.7134375 -0.1310535 -0.2037678
0.7145859375 -0.1884898 -0.1524175
0.715734375 -0.2266262 -0.08557563
0.7168828125 -0.2415123 -0.01045161
0.71803125 -0.2321203 0.06519587
0.7191796875 -0.1997168 0.1336395
0.720328125 -0.1480278 0.1884272
0.7214765625 -0.0822942 0.2243942
0.722625 -0.009371772 0.2381546
0.7237734375 0.06444307 0.2288378
0.724921875 0.1314745 0.1976549
0.7260703125 0.1855408 0.1476654
0.72721875 0.22184 0.08326869
0.7283671875 0.2367295 0.01101611
0.729515625 0.2285442 -0.06250101
0.7306640625 0.1981904 -0.1300689
0.7318125 0.1482988 -0.1850004
0.7329609375 0.08359522 -0.2218697
0.734109375 0.01045483 -0.2366655
0.7352578125 -0.06329512 -0.2278125
0.73640625 -0.1308005 -0.1963792
0.7375546875 -0.1846361 -0.1453637
0.738703125 -0.2195832 -0.08039611
0.7398515625 -0.2321603 -0.008311438
0.741 -0.2217371 0.06336536
0.7421484375 -0.1899817 0.1276182
0.743296875 -0.1405564 0.1782537
0.7444453125 -0.07882817 0.210737
0.74559375 -0.01101471 0.2228626
0.7467421875 0.05626333 0.2139331
0.747890625 0.1171312 0.1857627
0.7490390625 0.1600911 0.1357468
0.7501875 0.1922768 0.08134927
0.7513359375 0.2070716 0.0204249
0.752484375 0.2033943 -0.04203871
0.7536328125 0.1817813 -0.1004934
0.75478125 0.1438996 -0.1502372
0.7559296875 0.0931086 -0.1868519
0.757078125 0.03329081 -0.2068719
0.7582265625 -0.03023903 -0.2086893
0.759375 -0.09203161 -0.1911461
0.7605234375 -0.1462836 -0.1558151
0.761671875 -0.1878136 -0.1051798
0.7628203125 -0.2125511 -0.04375327
0.76396875 -0.2173676 0.02304477
0.7651171875 -0.2015755 0.08877815
0.766265625 -0.1661283 0.1471292
0.7674140625 -0.1141748 0.1920399
0.7685625 -0.05036252 0.219117
0.7697109375 0.01885397 0.2255628
0.770859375 0.0871446 0.2104864
0.7720078125 0.1480161 0.1751765
0.77315625 0.1956622 0.1228386
0.7743046875 0.2255332 0.058321
0.775453125 0.2348487 -0.01302432
0.7766015625 0.2222373 -0.08443807
0.77775 0.1884357 -0.1496485
0.7788984375 0.1360082 -0.202521
0.780046875 0.06884138 -0.2380811
0.7811953125 -0.007620815 -0.2520497
0.78234375 -0.08618227 -0.2419479
0.7834921875 -0.1599639 -0.2073702
0.784640625 -0.2213754 -0.1503959
0.7857890625 -0.2631706 -0.07476726
0.7869375 -0.2792787 0.01271259
0.7880859375 -0.2663627 0.1036849
0.789234375 -0.2234727 0.187833
0.7903828125 -0.153103 0.2554639
0.79153125 -0.062172 0.2970527
0.7926796875 0.04024993 0.3061011
0.793828125 0.1417074 0.2793709
0.7949765625 0.2296924 0.2184749
0.796125 0.2923489 0.1300637
0.7972734375 0.3209211 0.02431116
0.798421875 0.3115032 -0.08561601
0.7995703125 0.2645538 -0.1859188
0.80071875 0.1858104 -0.2638695
0.8018671875 0.08570892 -0.3094144
0.803015625 -0.02335049 -0.318064
0.8041640625 -0.1275803 -0.2889814
0.8053125 -0.2144224 -0.2271327
0.8064609375 -0.2741757 -0.1406231
0.807609375 -0.3006527 -0.0408706
0.8087578125 -0.2924833 0.06023129
0.80990625 -0.2516575 0.1508128
0.8110546875 -0.1844893 0.2209886
0.812203125 -0.09980001 0.2641971
0.8133515625 -0.007626274 0.2765085
0.8145 0.08132276 0.2582283
0.8156484375 0.1572835 0.2128344
0.816796875 0.2129246 0.1467774
0.8179453125 0.2427225 0.06818127
0.81909375 0.2453977 -0.01349472
0.8202421875 0.2218498 -0.08931992
0.821390625 0.1765351 -0.1512827
0.8225390625 0.1156219 -0.1938847
0.8236875 0.04682343 -0.2139124
0.8248359375 -0.02218492 -0.2112282
0.825984375 -0.08440404 -0.1876337
0.8271328125 -0.1341033 -0.1473602
0.82828125 -0.1676644 -0.0959117
0.8294296875 -0.183122 -0.03885587
0.830578125 -0.1807314 0.01808889
0.8317265625 -0.1620652 0.06973878
0.832875 -0.1300573 0.1119974
0.8340234375 -0.08835005 0.1420529
0.835171875 -0.04097446 0.1580171
0.8363203125 0.007665982 0.1594339
0.83746875 0.05344907 0.1469744
0.8386171875 0.09291081 0.1221613
0.839765625 0.122711 0.08754499
0.8409140625 0.1409185 0.04640411
0.8420625 0.1461009 0.002227608
0.8432109375 0.138072 -0.0408818
0.844359375 0.117877 -0.07927072
0.8455078125 0.08749419 -0.1094166
0.84665625 0.0498873 -0.1287843
0.8478046875 0.008587111 -0.1359332
0.848953125 -0.03231692 -0.130378
0.8501015625 -0.06893342 -0.1127271
0.85125 -0.0980114 -0.0853191
0.8523984375 -0.117202 -0.05096457
0.853546875 -0.1248897 -0.01333777
0.8546953125 -0.121005 0.02406845
0.85584375 -0.1063299 0.05797109
0.8569921875 -0.08293039 0.0853662
0.858140625 -0.05320736 0.1041856
0.8592890625 -0.01997552 0.1134216
0.8604375 0.01394142 0.112553
0.8615859375 0.04554085 0.1020996
0.862734375 0.07235023 0.08344551
0.8638828125 0.0924018 0.0581185
0.86503125 0.1042048 0.02836426
0.8661796875 0.1071637 -0.003063814
0.867328125 0.1008342 -0.03399297
0.8684765625 0.08605574 -0.06160603
0.869625 0.06401094 -0.08369165
0.8707734375 0.03636832 -0.09832031
0.871921875 0.005704744 -0.1042641
0.8730703125 -0.02521618 -0.1009285
0.87421875 -0.05379244 -0.08860637
0.8753671875 -0.07734155 -0.06826567
0.876515625 -0.0937587 -0.04202043
0.8776640625 -0.1013263 -0.012125
0.8788125 -0.09974693 0.01846877
0.8799609375 -0.08909544 0.04687726
0.881109375 -0.07078363 0.07064116
0.8822578125 -0.04640391 0.087736
0.88340625 -0.01840065 0.09671322
0.8845546875 0.01078639 0.09717408
0.885703125 0.03830121 0.08921877
0.8868515625 0.06229935 0.07373323
0.888 0.08063745 0.05224591
0.8891484375 0.09199972 0.02665977
0.890296875 0.09556527 -0.001018449
0.8914453125 0.09128166 -0.02858775
0.89259375 0.07929516 -0.05376067
0.8937421875 0.06057618 -0.07471979
0.894890625 0.03669027 -0.08945547
0.8960390625 0.009155939 -0.09687527
0.8971875 -0.01956108 -0.09612212
0.8983359375 -0.04739349 -0.08706905
0.899484375 -0.07163731 -0.07003131
0.9006328125 -0.09018134 -0.04628287
0.90178125 -0.1010181 -0.01756678
0.9029296875 -0.1028917 0.01350611
0.904078125 -0.09519717 0.04426779
0.9052265625 -0.07830767 0.07174739
0.906375 -0.05360537 0.09298568
0.9075234375 -0.02316862 0.105827
0.908671875 0.01026025 0.1089763
0.9098203125 0.04317435 0.1016553
0.91096875 0.07265951 0.08443081
0.9121171875 0.09566505 0.05888968
0.913265625 0.1099295 0.02725338
0.9144140625 0.1141355 -0.007502975
0.9155625 0.107347 -0.04217562
0.9167109375 0.09031551 -0.07358795
0.917859375 0.06418505 -0.09856751
0.9190078125 0.03135953 -0.114715
0.92015625 -0.005220038 -0.120158
0.9213046875 -0.04231897 -0.1141216
0.922453125 -0.07641405 -0.09668749
0.9236015625 -0.1037771 -0.06917875
0.92475 -0.121668 -0.0338672
0.9258984375 -0.1277821 0.005859649
0.927046875 -0.1208792 0.04612933
0.9281953125 -0.1011736 0.08277445
0.92934375 -0.07053736 0.1116697
0.9304921875 -0.03170834 0.1293048
0.931640625 0.01121572 0.1336247
0.9327890625 0.05354945 0.1237301
0.9339375 0.09047889 0.1004272
0.9350859375 0.1180741 0.06636162
0.936234375 0.1330333 0.02519772
0.9373828125 0.1339039 -0.01837714
0.93853125 0.1207749 -0.05979958
0.9396796875 0.09528473 -0.0945162
0.940828125 0.06040565 -0.1192031
0.9419765625 0.01974509 -0.1314083
0.943125 -0.02221298 -0.1301844
0.9442734375 -0.06133446 -0.1161483
0.945421875 -0.09393306 -0.090804
0.9465703125 -0.1168004 -0.0570088
0.94771875 -0.128207 -0.01807741
0.9488671875 -0.1271566 0.02232133
0.950015625 -0.1138167 0.06026682
0.9511640625 -0.08957449 0.09230229
0.9523125 -0.05658965 0.1152472
0.9534609375 -0.01828383 0.1270582
0.954609375 0.02183276 0.1265332
0.9557578125 0.05998002 0.1134333
0.95690625 0.09228101 0.08935333
0.9580546875 0.1155121 0.05628366
0.959203125 0.1271293 0.01758361
0.9603515625 0.1262563 -0.0227623
0.9615 0.1126605 -0.06089617
0.9626484375 0.08807034 -0.09266755
0.963796875 0.05477105 -0.1152913
0.9649453125 0.01639256 -0.126224
0.96609375 -0.02336923 -0.1247052
0.9672421875 -0.06054183 -0.1111202
0.968390625 -0.09151281 -0.08686484
0.9695390625 -0.1135667 -0.05460862
0.9706875 -0.1247267 -0.01728515
0.9718359375 -0.1239808 0.02166018
0.972984375 -0.1117293 0.05845004
0.9741328125 -0.08886024 0.08989474
0.97528125 -0.05750869 0.1131606
0.9764296875 -0.020414 0.126047
0.977578125 0.0190958 0.12714
0.9787265625 0.05762035 0.1162265
0.979875 0.09142929 0.09378934
0.9810234375 0.1173122 0.06174225
0.982171875 0.1322214 0.02261902
0.9833203125 0.1344264 -0.01991709
0.98446875 0.1231093 -0.0617598
