# GHZ S RI R 50.0
0.3 1.347111 -2.196806
0.3011484375 0.5912635 -2.903867
0.302296875 -0.5468483 -3.450475
0.3034453125 -2.176534 -3.679623
0.30459375 -4.514764 -3.180145
0.3057421875 -7.598472 -0.626901
0.306890625 -7.919735 6.733499
0.3080390625 1.25934 9.774555
0.3091875 5.20255 4.469901
0.3103359375 4.742892 1.050116
0.311484375 3.643647 -0.6180658
0.3126328125 2.604666 -1.445843
0.31378125 1.707738 -1.836661
0.3149296875 0.9395298 -1.968936
0.316078125 0.2873806 -1.925568
0.3172265625 -0.261743 -1.753171
0.318375 -0.7071542 -1.480882
0.3195234375 -1.043932 -1.128763
0.320671875 -1.260656 -0.7211854
0.3218203125 -1.349 -0.2879059
0.32296875 -1.305903 0.1346618
0.3241171875 -1.142413 0.5089352
0.325265625 -0.8801169 0.7977826
0.3264140625 -0.5591639 0.9771891
0.3275625 -0.2194205 1.041564
0.3287109375 0.1002659 0.9997803
0.329859375 0.3703685 0.8731508
0.3310078125 0.5750971 0.6877679
0.33215625 0.7082588 0.4700668
0.3333046875 0.7726231 0.2418963
0.334453125 0.7749106 0.01938657
0.3356015625 0.7242281 -0.183122
0.33675 0.6291562 -0.3590997
0.3378984375 0.4996977 -0.501247
0.339046875 0.3434683 -0.6060103
0.3401953125 0.1686635 -0.6691923
0.34134375 -0.01604968 -0.6886324
0.3424921875 -0.2018621 -0.6614796
0.343640625 -0.3788467 -0.5865222
0.3447890625 -0.5344208 -0.4648783
0.3459375 -0.6552379 -0.3004694
0.3470859375 -0.7277377 -0.1009269
0.348234375 -0.7401682 0.1195935
0.3493828125 -0.682908 0.3409592
0.35053125 -0.5565113 0.5404741
0.3516796875 -0.369671 0.6926524
0.352828125 -0.1411419 0.7788768
0.3539765625 0.1025116 0.7876372
0.355125 0.3355903 0.7202965
0.3562734375 0.5336908 0.5869555
0.357421875 0.6818324 0.404065
0.3585703125 0.7702129 0.1903465
0.35971875 0.795823 -0.03598021
0.3608671875 0.7608635 -0.2589339
0.362015625 0.6697456 -0.465191
0.3631640625 0.5282761 -0.6446186
0.3643125 0.3437499 -0.7861682
0.3654609375 0.1234276 -0.8823292
0.366609375 -0.1257019 -0.9243028
0.3677578125 -0.3946956 -0.9039699
0.36890625 -0.6698951 -0.8121154
0.3700546875 -0.9379841 -0.638886
0.371203125 -1.176427 -0.3778521
0.3723515625 -1.358757 -0.02236753
0.3735 -1.449076 0.4262465
0.3746484375 -1.404759 0.9530879
0.375796875 -1.174365 1.532371
0.3769453125 -0.7011504 2.112153
0.37809375 0.07274863 2.60816
0.3792421875 1.207315 2.882668
0.380390625 2.752337 2.698453
0.3815390625 4.687467 1.55887
0.3826875 6.35424 -1.582634
0.3838359375 4.383128 -6.984371
0.384984375 -2.578052 -7.420446
0.3861328125 -5.10267 -2.878429
0.38728125 -4.263631 0.05206472
0.3884296875 -2.947154 1.35982
0.389578125 -1.80361 1.8493
0.3907265625 -0.9034752 1.93108
0.391875 -0.2183883 1.799337
0.3930234375 0.2897292 1.551561
0.394171875 0.6514979 1.24127
0.3953203125 0.8893044 0.9024183
0.39646875 1.019626 0.5570093
0.3976171875 1.056648 0.2210351
0.398765625 1.008959 -0.08879228
0.3999140625 0.8898637 -0.3593372
0.4010625 0.709426 -0.5784961
0.4022109375 0.4827629 -0.7337574
0.403359375 0.2288129 -0.8138607
0.4045078125 -0.03119387 -0.8151512
0.40565625 -0.2726552 -0.7384972
0.4068046875 -0.4727185 -0.5944849
0.407953125 -0.6119762 -0.4012913
0.4091015625 -0.6798484 -0.1823128
0.41025 -0.6752553 0.03708178
0.4113984375 -0.6056499 0.2339308
0.412546875 -0.4853522 0.3913569
0.4136953125 -0.3316504 0.499842
0.41484375 -0.1620351 0.5557877
0.4159921875 0.008870295 0.5607677
0.417140625 0.1673096 0.5195358
0.4182890625 0.3034301 0.4396107
0.4194375 0.410759 0.3286183
0.4205859375 0.4837024 0.1953228
0.421734375 0.5183789 0.0480414
0.4228828125 0.513104 -0.104002
0.42403125 0.4664788 -0.2515991
0.4251796875 0.3797247 -0.3844434
0.426328125 0.2552105 -0.4922527
0.4274765625 0.09865326 -0.5639277
0.428625 -0.08111201 -0.5888193
0.4297734375 -0.2710851 -0.5581549
0.430921875 -0.4540806 -0.4659397
0.4320703125 -0.6097676 -0.3118993
0.43321875 -0.7163209 -0.1022342
0.4343671875 -0.753286 0.146875
0.435515625 -0.7052419 0.4133069
0.4366640625 -0.5638762 0.6692085
0.4378125 -0.330585 0.8838515
0.4389609375 -0.01365994 1.027055
0.440109375 0.3713105 1.069996
0.4412578125 0.8045364 0.9833577
0.44240625 1.263334 0.7318835
0.4435546875 1.711742 0.2575946
0.444703125 2.071421 -0.5428549
0.4458515625 2.094631 -1.852431
0.447 0.9241722 -3.717099
0.4481484375 -2.742717 -3.982467
0.449296875 -4.306378 -0.1673572
0.4504453125 -2.496519 1.910928
0.45159375 -0.9291467 2.149795
0.4527421875 0.02871663 1.846307
0.453890625 0.591971 1.408865
0.4550390625 0.9032547 0.9512721
0.4561875 1.037008 0.5139186
0.4573359375 1.03565 0.1208321
0.458484375 0.9299784 -0.2140843
0.4596328125 0.7465371 -0.4737027
0.46078125 0.5104944 -0.6496159
0.4619296875 0.2507271 -0.7357609
0.463078125 -0.005784316 -0.7349508
0.4642265625 -0.2338162 -0.657189
0.465375 -0.4140429 -0.5194873
0.4665234375 -0.5342534 -0.3425445
0.467671875 -0.5897143 -0.148867
0.4688203125 -0.5835562 0.04202128
0.46996875 -0.5236719 0.2123432
0.4711171875 -0.421088 0.3511176
0.472265625 -0.2886724 0.4500852
0.4734140625 -0.1390395 0.505798
0.4745625 0.01614272 0.5170929
0.4757109375 0.1656195 0.4863491
0.476859375 0.3000786 0.4165305
0.4780078125 0.4101653 0.3128859
0.47915625 0.4888341 0.1817158
0.4803046875 0.5289529 0.03216234
0.481453125 0.5265613 -0.12623
0.4826015625 0.4785203 -0.2827764
0.48375 0.3843541 -0.4245612
0.4848984375 0.2489863 -0.537508
0.486046875 0.07874443 -0.609268
0.4871953125 -0.1137378 -0.6282802
0.48834375 -0.3118186 -0.5868115
0.4894921875 -0.4965205 -0.4826662
0.490640625 -0.6474746 -0.3203091
0.4917890625 -0.7463593 -0.1108053
0.4929375 -0.7785269 0.1288279
0.4940859375 -0.7360115 0.3779704
0.495234375 -0.6167058 0.6145168
0.4963828125 -0.4246963 0.8156113
0.49753125 -0.1694235 0.9621035
0.4986796875 0.1363804 1.036704
0.499828125 0.4760307 1.023933
0.5009765625 0.8314034 0.9099053
0.502125 1.180798 0.6808745
0.5032734375 1.495805 0.3213531
0.504421875 1.740652 -0.1870041
0.5055703125 1.856098 -0.868441
0.50671875 1.740829 -1.749215
0.5078671875 1.202739 -2.836016
0.509015625 -0.1684082 -4.00442
0.5101640625 -3.042908 -4.430023
0.5113125 -6.599107 -1.458639
0.5124609375 -5.277849 3.894037
0.513609375 -1.199133 5.013844
0.5147578125 1.148423 3.777364
0.51590625 2.087744 2.32957
0.5170546875 2.312157 1.127343
0.518203125 2.166557 0.2035358
0.5193515625 1.824363 -0.4646151
0.5205 1.383883 -0.9082102
0.5216484375 0.9127004 -1.159633
0.522796875 0.4571206 -1.248583
0.5239453125 0.04954035 -1.20859
0.52509375 -0.2890091 -1.070859
0.5262421875 -0.548037 -0.8671324
0.527390625 -0.7237152 -0.62331
0.5285390625 -0.8185728 -0.3636156
0.5296875 -0.8392097 -0.1075907
0.5308359375 -0.7940841 0.1288029
0.531984375 -0.6933911 0.3331375
0.5331328125 -0.5497456 0.4963976
0.53428125 -0.374678 0.6110209
0.5354296875 -0.1815906 0.6729844
0.536578125 0.01632862 0.6809814
0.5377265625 0.2059125 0.6360132
0.538875 0.3737263 0.5417765
0.5400234375 0.50735 0.405995
0.541171875 0.5972393 0.239049
0.5423203125 0.6354752 0.05421274
0.54346875 0.6188736 -0.1332643
0.5446171875 0.5485975 -0.3070364
0.545765625 0.4312701 -0.4518103
0.5469140625 0.2773616 -0.5551373
0.5480625 0.1015413 -0.6086456
0.5492109375 -0.08063121 -0.6085857
0.550359375 -0.2532312 -0.5563246
0.5515078125 -0.4027372 -0.4578172
0.55265625 -0.5171415 -0.3221917
0.5538046875 -0.5891201 -0.1606202
0.554953125 -0.6138728 0.01448298
0.5561015625 -0.5896699 0.1895507
0.55725 -0.517955 0.3537769
0.5583984375 -0.4036727 0.4937267
0.559546875 -0.2523719 0.6006977
0.5606953125 -0.07326103 0.6645014
0.56184375 0.1228805 0.6783151
0.5629921875 0.3231861 0.6367123
0.564140625 0.5132972 0.5371288
0.5652890625 0.6759765 0.3808535
0.5664375 0.7957655 0.1728597
0.5675859375 0.8545774 -0.07397344
0.568734375 0.8390816 -0.3452103
0.5698828125 0.7386092 -0.6187072
0.57103125 0.5487203 -0.8684295
0.5721796875 0.2726587 -1.066135
0.573328125 -0.07755736 -1.18283
0.5744765625 -0.4835745 -1.191925
0.575625 -0.913821 -1.06915
0.5767734375 -1.337633 -0.7943401
0.577921875 -1.708787 -0.3484849
0.5790703125 -1.968844 0.286744
0.58021875 -2.028378 1.131319
0.5813671875 -1.723536 2.189958
0.582515625 -0.7398064 3.361965
0.5836640625 1.393481 4.075053
0.5848125 4.303382 2.676174
0.5859609375 4.855571 -0.9990764
0.587109375 2.629818 -3.120168
0.5882578125 0.5456161 -3.158253
0.58940625 -0.6796623 -2.471484
0.5905546875 -1.290036 -1.672764
0.591703125 -1.520944 -0.9444726
0.5928515625 -1.517089 -0.3299009
0.594 -1.362494 0.160579
0.5951484375 -1.111746 0.5268487
0.596296875 -0.8058475 0.772815
0.5974453125 -0.4794546 0.9035484
0.59859375 -0.1606612 0.9305344
0.5997421875 0.1268021 0.868076
0.600890625 0.3634747 0.7339792
0.6020390625 0.5364577 0.5497804
0.6031875 0.6393818 0.3373482
0.6043359375 0.6723893 0.1189077
0.605484375 0.6416451 -0.08640607
0.6066328125 0.5570684 -0.2628228
0.60778125 0.4316483 -0.3995987
0.6089296875 0.2807202 -0.4891673
0.610078125 0.1176465 -0.5300386
0.6112265625 -0.04290549 -0.523406
0.612375 -0.1903862 -0.4734577
0.6135234375 -0.3141154 -0.3867225
0.614671875 -0.4064896 -0.2712246
0.6158203125 -0.4619544 -0.1368075
0.61696875 -0.4771203 0.006697685
0.6181171875 -0.4511348 0.1480805
0.619265625 -0.385693 0.2766676
0.6204140625 -0.2851644 0.3816181
0.6215625 -0.1565043 0.4537532
0.6227109375 -0.00983401 0.4852273
0.623859375 0.1425713 0.4712036
0.6250078125 0.2873215 0.4100693
0.62615625 0.409144 0.305532
0.6273046875 0.4958296 0.1648269
0.628453125 0.5359475 -0.0006958122
0.6296015625 0.5225849 -0.1756421
0.63075 0.4541584 -0.3437783
0.6318984375 0.3326665 -0.4878031
0.633046875 0.1664519 -0.5926909
0.6341953125 -0.03297249 -0.645025
0.63534375 -0.2508898 -0.6349647
0.6364921875 -0.470483 -0.555748
0.637640625 -0.673232 -0.4035756
0.6387890625 -0.8383317 -0.178132
0.6399375 -0.9424883 0.1192954
0.6410859375 -0.9576096 0.4847623
0.642234375 -0.8430507 0.9096559
0.6433828125 -0.5384055 1.372242
0.64453125 0.05937037 1.813705
0.6456796875 1.111463 2.042185
0.646828125 2.693427 1.451963
0.6479765625 3.655361 -0.9741224
0.649125 1.634974 -3.294926
0.6502734375 -0.7288613 -2.829943
0.651421875 -1.614877 -1.569733
0.6525703125 -1.703428 -0.5584353
0.65371875 -1.474731 0.1297012
0.6548671875 -1.12662 0.5642556
0.656015625 -0.7460494 0.8060459
0.6571640625 -0.3780865 0.8989216
0.6583125 -0.05092075 0.8771915
0.6594609375 0.218756 0.7713023
0.660609375 0.4202105 0.6072992
0.6617578125 0.5503874 0.4106759
0.66290625 0.6106909 0.2023838
0.6640546875 0.607138 0.001595735
0.665203125 0.5489976 -0.1767794
0.6663515625 0.4478495 -0.3217833
0.6675 0.3161844 -0.4259787
0.6686484375 0.1668981 -0.4854245
0.669796875 0.01259785 -0.4993044
0.6709453125 -0.1349206 -0.4693907
0.67209375 -0.2648331 -0.4002786
0.6732421875 -0.3677256 -0.2985954
0.674390625 -0.4365729 -0.1731984
0.6755390625 -0.4661735 -0.03398354
0.6766875 -0.4542022 0.1075471
0.6778359375 -0.4010881 0.2395662
0.678984375 -0.311293 0.350978
0.6801328125 -0.1915157 0.4309947
0.68128125 -0.05262759 0.4722432
0.6824296875 0.09374443 0.469925
0.683578125 0.2339524 0.4236433
0.6847265625 0.3549828 0.3367832
0.685875 0.4456476 0.2167358
0.6870234375 0.4971078 0.07386597
0.688171875 0.5042912 -0.07974351
0.6893203125 0.4658472 -0.2304592
0.69046875 0.3841297 -0.3657417
0.6916171875 0.2651559 -0.4740525
0.692765625 0.1169168 -0.5456443
0.6939140625 -0.0498599 -0.5734121
0.6950625 -0.2238064 -0.552809
0.6962109375 -0.3904581 -0.4822748
0.697359375 -0.5381173 -0.3621508
0.6985078125 -0.6524508 -0.1987225
0.69965625 -0.7211679 0.002657343
0.7008046875 -0.7320096 0.2291677
0.701953125 -0.6750508 0.4675235
0.7031015625 -0.542643 0.6987888
0.70425 -0.3313628 0.9020629
0.7053984375 -0.04191675 1.050834
0.706546875 0.3174271 1.11692
0.7076953125 0.731956 1.069232
0.70884375 1.175178 0.8735589
0.7099921875 1.606112 0.4910758
0.711140625 1.957108 -0.1206341
0.7122890625 2.111505 -1.006506
0.7134375 1.847099 -2.181174
0.7145859375 0.7490442 -3.479563
0.715734375 -1.644083 -4.047267
0.7168828125 -4.294149 -2.189682
0.71803125 -4.291257 1.090103
0.7191796875 -2.375038 2.729699
0.720328125 -0.6391581 2.827621
0.7214765625 0.4668978 2.323114
0.722625 1.081403 1.666638
0.7237734375 1.364945 1.025249
0.724921875 1.425226 0.4567828
0.7260703125 1.334883 -0.01769547
0.72721875 1.143175 -0.3904343
0.7283671875 0.8871936 -0.6604077
0.729515625 0.5964373 -0.8314136
0.7306640625 0.2981069 -0.9069788
0.7318125 0.01193877 -0.8973542
0.7329609375 -0.2428439 -0.8134799
0.734109375 -0.4518227 -0.6689847
0.7352578125 -0.6017038 -0.48129
0.73640625 -0.6878817 -0.2687675
0.7375546875 -0.7080356 -0.04981207
0.738703125 -0.6660457 0.1568289
0.7398515625 -0.5694706 0.3353192
0.741 -0.4306638 0.4729612
0.7421484375 -0.264119 0.5619842
0.743296875 -0.08533665 0.597685
0.7444453125 0.0906286 0.5815816
0.74559375 0.2499353 0.517997
0.7467421875 0.3813592 0.4148408
0.747890625 0.4766013 0.2822614
0.7490390625 0.5093907 0.1260769
0.7501875 0.5187227 -0.02513419
0.7513359375 0.4863769 -0.171386
0.752484375 0.4157513 -0.3023868
0.7536328125 0.311499 -0.4088304
0.75478125 0.1817824 -0.4825375
0.7559296875 0.03564016 -0.5179616
0.757078125 -0.1163946 -0.5113938
0.7582265625 -0.2628824 -0.4620695
0.759375 -0.3923286 -0.3713457
0.7605234375 -0.4930159 -0.2452485
0.761671875 -0.5551336 -0.09180309
0.7628203125 -0.5709184 0.07781431
0.76396875 -0.5362624 0.2498512
0.7651171875 -0.4504209 0.4098346
0.766265625 -0.3174989 0.5422583
0.7674140625 -0.1463557 0.6338239
0.7685625 0.05219756 0.6729152
0.7697109375 0.2618884 0.6525895
0.770859375 0.4667568 0.5691423
0.7720078125 0.6484088 0.4231831
0.77315625 0.7895025 0.2197671
0.7743046875 0.873468 -0.03197433
0.775453125 0.8842499 -0.3196873
0.7766015625 0.8076227 -0.626497
0.77775 0.6282028 -0.9327107
0.7788984375 0.3321418 -1.210855
0.780046875 -0.09661926 -1.423838
0.7811953125 -0.6748526 -1.513959
0.78234375 -1.413028 -1.38252
0.7834921875 -2.278863 -0.8430282
0.784640625 -3.033922 0.4282888
0.7857890625 -2.775901 2.629952
0.7869375 -0.2519707 4.215975
0.7880859375 2.408927 2.911973
0.789234375 2.904183 0.7817547
0.7903828125 2.305692 -0.5537532
0.79153125 1.511333 -1.180241
0.7926796875 0.7919576 -1.383731
0.793828125 0.2103756 -1.341382
0.7949765625 -0.2266058 -1.157064
0.796125 -0.5278603 -0.8958564
0.7972734375 -0.7066936 -0.6032403
0.798421875 -0.7792436 -0.3116749
0.7995703125 -0.7637298 -0.04471229
0.80071875 -0.6794071 0.1804994
0.8018671875 -0.5465719 0.3543712
0.803015625 -0.3834674 0.4715266
0.8041640625 -0.2070298 0.5317085
0.8053125 -0.03333449 0.5383053
0.8064609375 0.125402 0.4974726
0.807609375 0.2588569 0.4172363
0.8087578125 0.3591613 0.3070656
0.80990625 0.4209627 0.1774483
0.8110546875 0.4424665 0.03982907
0.812203125 0.4238021 -0.09468492
0.8133515625 0.3676175 -0.2158992
0.8145 0.2793415 -0.3139629
0.8156484375 0.1671267 -0.3807332
0.816796875 0.04038247 -0.4109703
0.8179453125 -0.08941558 -0.4018753
0.81909375 -0.2103694 -0.3537489
0.8202421875 -0.3115337 -0.2706603
0.821390625 -0.3830664 -0.1598689
0.8225390625 -0.4175774 -0.0312837
0.8236875 -0.4110981 0.1031414
0.8248359375 -0.3632163 0.2311487
0.825984375 -0.2774267 0.3409114
0.8271328125 -0.159723 0.4208717
0.82828125 -0.01964945 0.4631596
0.8294296875 0.1318346 0.4616469
0.830578125 0.2819482 0.4139557
0.8317265625 0.4183194 0.319152
0.832875 0.5274324 0.1804464
0.8340234375 0.5960671 0.003520269
0.835171875 0.6117235 -0.2033538
0.8363203125 0.5611588 -0.4281717
0.83746875 0.4305262 -0.6540562
0.8386171875 0.2069425 -0.8590481
0.839765625 -0.1239688 -1.009012
0.8409140625 -0.57411 -1.049857
0.8420625 -1.14154 -0.8876544
0.8432109375 -1.760182 -0.3567133
0.844359375 -2.124259 0.7739857
0.8455078125 -1.409335 2.326235
0.84665625 0.6107808 2.722352
0.8478046875 1.911963 1.436712
0.848953125 1.910763 0.1316872
0.8501015625 1.413979 -0.6153836
0.85125 0.8572463 -0.9398655
0.8523984375 0.3722195 -1.009628
0.853546875 -0.009974779 -0.9300086
0.8546953125 -0.2885156 -0.7664696
0.85584375 -0.4702273 -0.5602004
0.8569921875 -0.5664526 -0.3413023
0.858140625 -0.5903727 -0.1311218
0.8592890625 -0.5557938 0.05600486
0.8604375 -0.4759281 0.209704
0.8615859375 -0.3649842 0.3243313
0.862734375 -0.2356711 0.3969031
0.8638828125 -0.09994522 0.4280703
0.86503125 0.03178625 0.4196889
0.8661796875 0.1502308 0.3764606
0.867328125 0.2477307 0.3042346
0.8684765625 0.3183887 0.210562
0.869625 0.3581559 0.1031961
0.8707734375 0.3651739 -0.008394432
0.871921875 0.3402075 -0.1153427
0.8730703125 0.2858712 -0.2089159
0.87421875 0.2075535 -0.2819017
0.8753671875 0.1121012 -0.3281577
0.876515625 0.008277359 -0.3437982
0.8776640625 -0.09491243 -0.3282695
0.8788125 -0.188019 -0.283125
0.8799609375 -0.2631195 -0.2129649
0.881109375 -0.3138426 -0.1240895
0.8822578125 -0.3361766 -0.02503272
0.88340625 -0.3288098 0.07587346
0.8845546875 -0.2923902 0.1701712
0.885703125 -0.2306409 0.2499578
0.8868515625 -0.1482915 0.3089361
0.888 -0.05205891 0.3422629
0.8891484375 0.05062355 0.3473732
0.890296875 0.1520208 0.3229539
0.8914453125 0.2442392 0.2701383
0.89259375 0.3200302 0.1919312
0.8937421875 0.3721882 0.09304795
0.894890625 0.3955173 -0.02020159
0.8960390625 0.3854592 -0.140138
0.8971875 0.3404231 -0.2571683
0.8983359375 0.2601346 -0.361499
0.899484375 0.1476517 -0.4427714
0.9006328125 0.008841448 -0.4906719
0.90178125 -0.1471768 -0.4966715
0.9029296875 -0.307927 -0.4541439
0.904078125 -0.4598062 -0.3601147
0.9052265625 -0.5860309 -0.2154172
0.906375 -0.6705257 -0.02463028
0.9075234375 -0.6967122 0.2013901
0.908671875 -0.6502866 0.4479883
0.9098203125 -0.5179988 0.6949124
0.91096875 -0.2912235 0.9166387
0.9121171875 0.03732037 1.079863
0.913265625 0.4680229 1.138127
0.9144140625 0.9883535 1.028717
0.9155625 1.55118 0.6529604
0.9167109375 2.007098 -0.1144058
0.917859375 1.989826 -1.315402
0.9190078125 0.9865541 -2.494819
0.92015625 -0.7377781 -2.589936
0.9213046875 -1.873051 -1.511561
0.922453125 -2.010762 -0.2995464
0.9236015625 -1.621168 0.5200211
0.92475 -1.08661 0.9510997
0.9258984375 -0.5701166 1.107924
0.927046875 -0.1302028 1.085771
0.9281953125 0.215325 0.9504021
0.92934375 0.4637914 0.7467164
0.9304921875 0.6187954 0.5095473
0.931640625 0.6879495 0.2646308
0.9327890625 0.6823825 0.03350341
0.9339375 0.614797 -0.1674208
0.9350859375 0.5001854 -0.3267793
0.936234375 0.3546151 -0.4368091
0.9373828125 0.1942235 -0.4953006
0.93853125 0.03397552 -0.504074
0.9396796875 -0.1129562 -0.4681368
0.940828125 -0.2367786 -0.3952776
0.9419765625 -0.3295709 -0.2951411
0.943125 -0.3875081 -0.1780648
0.9442734375 -0.4088518 -0.0546244
0.945421875 -0.3950744 0.06570595
0.9465703125 -0.3494795 0.1735329
0.94771875 -0.2775136 0.2622274
0.9488671875 -0.1855858 0.3255542
0.950015625 -0.08115395 0.360092
0.9511640625 0.0269587 0.3637861
0.9523125 0.1311393 0.3368796
0.9534609375 0.2230774 0.2820906
0.954609375 0.2951151 0.2034306
0.9557578125 0.3418083 0.1071324
0.95690625 0.3587865 0.001008127
0.9580546875 0.3439601 -0.1058227
0.959203125 0.2984352 -0.2046365
0.9603515625 0.2253552 -0.2861904
0.9615 0.1304459 -0.3435022
0.9626484375 0.02191697 -0.3706951
0.963796875 -0.09119951 -0.3645969
0.9649453125 -0.1989464 -0.3251306
0.96609375 -0.2915998 -0.2549062
0.9672421875 -0.3612565 -0.1591341
0.968390625 -0.4008257 -0.04490681
0.9695390625 -0.4061421 0.07843408
0.9706875 -0.3749256 0.2017404
0.9718359375 -0.3078938 0.3147205
0.972984375 -0.2079166 0.4076735
0.9741328125 -0.07984792 0.4714899
0.97528125 0.06887961 0.4979938
0.9764296875 0.228526 0.4803979
0.977578125 0.3879111 0.4136035
0.9787265625 0.5330309 0.2951468
0.979875 0.6492313 0.1242937
0.9810234375 0.7180192 -0.09530646
0.982171875 0.7193044 -0.3569638
0.9833203125 0.6298138 -0.6459729
0.98446875 0.4224295 -0.9394675
0.9856171875 0.06426354 -1.196294
0.986765625 -0.4789431 -1.341262
0.9879140625 -1.222675 -1.226086
0.9890625 -2.052481 -0.5762932
0.9902109375 -2.403533 0.8648888
0.991359375 -1.331538 2.379597
0.9925078125 0.4717901 2.416128
0.99365625 1.433662 1.419018
0.9948046875 1.562693 0.4556718
0.995953125 1.320378 -0.1960447
0.9971015625 0.9625407 -0.5749751
0.99825 0.5948482 -0.7562347
0.9993984375 0.2627089 -0.7992283
1.000546875 -0.01539938 -0.7472972
1.0016953125 -0.2310409 -0.632636
1.00284375 -0.383046 -0.4793839
