# GHZ S RI R 50.0
0.3 1.3477 -2.197501
0.3011484375 0.5911971 -2.904624
0.302296875 -0.5473493 -3.451588
0.3034453125 -2.176525 -3.678922
0.30459375 -4.517484 -3.178427
0.3057421875 -7.602825 -0.6155005
0.306890625 -7.905905 6.746624
0.3080390625 1.272522 9.759682
0.3091875 5.202665 4.46028
0.3103359375 4.739755 1.049411
0.311484375 3.640094 -0.617592
0.3126328125 2.60287 -1.446819
0.31378125 1.706798 -1.83522
0.3149296875 0.9405563 -1.967506
0.316078125 0.287847 -1.925218
0.3172265625 -0.2613614 -1.753083
0.318375 -0.7084025 -1.480039
0.3195234375 -1.043963 -1.128571
0.320671875 -1.260498 -0.7211971
0.3218203125 -1.349251 -0.2878311
0.32296875 -1.306271 0.1349037
0.3241171875 -1.142277 0.5083357
0.325265625 -0.8808429 0.7968317
0.3264140625 -0.5588918 0.9768628
0.3275625 -0.2181663 1.041406
0.3287109375 0.1005829 0.9998818
0.329859375 0.3706232 0.8731329
0.3310078125 0.5752262 0.6878275
0.33215625 0.7085488 0.4700065
0.3333046875 0.7731749 0.2411163
0.334453125 0.7752265 0.01899976
0.3356015625 0.7242526 -0.1835019
0.33675 0.6293513 -0.3598709
0.3378984375 0.4995187 -0.5020894
0.339046875 0.3433823 -0.6064037
0.3401953125 0.1685053 -0.6695739
0.34134375 -0.01644496 -0.6888489
0.3424921875 -0.2021728 -0.6617146
0.343640625 -0.3787096 -0.5869824
0.3447890625 -0.5344423 -0.4653116
0.3459375 -0.6560276 -0.2998624
0.3470859375 -0.728287 -0.1004528
0.348234375 -0.7400832 0.1207021
0.3493828125 -0.6831164 0.3421971
0.35053125 -0.5560305 0.5414928
0.3516796875 -0.3695861 0.6930811
0.352828125 -0.1412348 0.7792066
0.3539765625 0.1030551 0.7879815
0.355125 0.3366489 0.7205358
0.3562734375 0.535037 0.5867804
0.357421875 0.6824974 0.4038796
0.3585703125 0.770713 0.1900889
0.35971875 0.7963346 -0.03657046
0.3608671875 0.7612126 -0.2594425
0.362015625 0.6698595 -0.4659613
0.3631640625 0.5288321 -0.6447924
0.3643125 0.343903 -0.7864211
0.3654609375 0.1229456 -0.8829796
0.366609375 -0.1266894 -0.9254284
0.3677578125 -0.3950602 -0.9046493
0.36890625 -0.6714374 -0.8125406
0.3700546875 -0.9392458 -0.6392661
0.371203125 -1.178076 -0.37625
0.3723515625 -1.361093 -0.02062874
0.3735 -1.45069 0.4281298
0.3746484375 -1.406294 0.9558269
0.375796875 -1.174919 1.536953
0.3769453125 -0.7007574 2.118232
0.37809375 0.0783276 2.614509
0.3792421875 1.215669 2.890299
0.380390625 2.769441 2.701244
0.3815390625 4.714923 1.547356
0.3826875 6.375534 -1.634484
0.3838359375 4.314154 -7.047848
0.384984375 -2.640421 -7.368059
0.3861328125 -5.091709 -2.834041
0.38728125 -4.244828 0.06762341
0.3884296875 -2.932171 1.363528
0.389578125 -1.794311 1.846763
0.3907265625 -0.8974199 1.928523
0.391875 -0.2154975 1.796173
0.3930234375 0.2919905 1.548907
0.394171875 0.6535634 1.237851
0.3953203125 0.8889085 0.8998864
0.39646875 1.018855 0.5548826
0.3976171875 1.055076 0.2200914
0.398765625 1.008218 -0.08935446
0.3999140625 0.8885689 -0.3601412
0.4010625 0.7083182 -0.5790564
0.4022109375 0.4819895 -0.7333614
0.403359375 0.2277143 -0.8137771
0.4045078125 -0.03223316 -0.8145928
0.40565625 -0.2737798 -0.7381158
0.4068046875 -0.4729899 -0.5936735
0.407953125 -0.6123995 -0.4003064
0.4091015625 -0.6797407 -0.1814952
0.41025 -0.6749997 0.03787966
0.4113984375 -0.6053612 0.2346785
0.412546875 -0.4848809 0.3919818
0.4136953125 -0.3308305 0.5005586
0.41484375 -0.1612606 0.5561049
0.4159921875 0.009253711 0.5608157
0.417140625 0.1675884 0.5197228
0.4182890625 0.3042646 0.4394481
0.4194375 0.4114743 0.3283587
0.4205859375 0.4841712 0.1948077
0.421734375 0.5189248 0.0473295
0.4228828125 0.5132024 -0.104757
0.42403125 0.4664515 -0.2522946
0.4251796875 0.3793903 -0.3852631
0.426328125 0.2547595 -0.4926835
0.4274765625 0.0977926 -0.5643768
0.428625 -0.08233004 -0.5892584
0.4297734375 -0.2721291 -0.5583932
0.430921875 -0.4552108 -0.4658536
0.4320703125 -0.6108322 -0.3113793
0.43321875 -0.7172607 -0.1018211
0.4343671875 -0.7540718 0.1482108
0.435515625 -0.7057177 0.4146641
0.4366640625 -0.5642831 0.6712306
0.4378125 -0.3299964 0.8857269
0.4389609375 -0.01223824 1.029334
0.440109375 0.3732948 1.071733
0.4412578125 0.8082468 0.984649
0.44240625 1.267847 0.7321585
0.4435546875 1.71879 0.2544032
0.444703125 2.07816 -0.5496641
0.4458515625 2.097879 -1.866821
0.447 0.9089419 -3.740797
0.4481484375 -2.779875 -3.970143
0.449296875 -4.301172 -0.1404007
0.4504453125 -2.484156 1.916199
0.45159375 -0.9226683 2.147697
0.4527421875 0.03129569 1.844326
0.453890625 0.5935628 1.40725
0.4550390625 0.9035083 0.9500597
0.4561875 1.037358 0.5127565
0.4573359375 1.03555 0.1201535
0.458484375 0.9300141 -0.2136924
0.4596328125 0.7460718 -0.4740658
0.46078125 0.510438 -0.6495423
0.4619296875 0.2505987 -0.7358331
0.463078125 -0.005868537 -0.7350011
0.4642265625 -0.234108 -0.6574205
0.465375 -0.4144632 -0.5198012
0.4665234375 -0.5343155 -0.3429407
0.467671875 -0.589949 -0.1489068
0.4688203125 -0.5838086 0.04169865
0.46996875 -0.5236375 0.2122758
0.4711171875 -0.4211545 0.3512158
0.472265625 -0.2886317 0.4502717
0.4734140625 -0.1388046 0.5057341
0.4745625 0.01615516 0.5173571
0.4757109375 0.1662768 0.4865681
0.476859375 0.3001851 0.4163987
0.4780078125 0.4104162 0.3127234
0.47915625 0.4886098 0.1820042
0.4803046875 0.5290105 0.03251352
0.481453125 0.5264987 -0.1262232
0.4826015625 0.4785361 -0.282534
0.48375 0.3846398 -0.4241565
0.4848984375 0.2490891 -0.5375226
0.486046875 0.07885529 -0.6091783
0.4871953125 -0.113606 -0.6281997
0.48834375 -0.311845 -0.5869428
0.4894921875 -0.4966441 -0.482664
0.490640625 -0.647581 -0.3204188
0.4917890625 -0.7465715 -0.1108656
0.4929375 -0.7790133 0.1287861
0.4940859375 -0.7366165 0.3780867
0.495234375 -0.616891 0.6143559
0.4963828125 -0.4247687 0.815798
0.49753125 -0.1686256 0.962861
0.4986796875 0.1366051 1.037396
0.499828125 0.4771017 1.023809
0.5009765625 0.8317711 0.9101872
0.502125 1.181045 0.6809427
0.5032734375 1.49681 0.3214137
0.504421875 1.741602 -0.1876617
0.5055703125 1.85631 -0.8708192
0.50671875 1.742676 -1.749648
0.5078671875 1.201688 -2.838034
0.509015625 -0.1721946 -4.0065
0.5101640625 -3.049897 -4.42975
0.5113125 -6.603453 -1.447712
0.5124609375 -5.268714 3.900304
0.513609375 -1.194237 5.011786
0.5147578125 1.147969 3.773893
0.51590625 2.087382 2.328007
0.5170546875 2.310915 1.125976
0.518203125 2.166014 0.2027952
0.5193515625 1.823366 -0.4648009
0.5205 1.382786 -0.9084201
0.5216484375 0.9122952 -1.159364
0.522796875 0.4567207 -1.248382
0.5239453125 0.04936654 -1.208217
0.52509375 -0.2891526 -1.070794
0.5262421875 -0.5481979 -0.8663757
0.527390625 -0.7239194 -0.6231398
0.5285390625 -0.8189076 -0.3635216
0.5296875 -0.8394625 -0.1073027
0.5308359375 -0.7938925 0.1291603
0.531984375 -0.6935073 0.3333308
0.5331328125 -0.549606 0.4965742
0.53428125 -0.374567 0.6110408
0.5354296875 -0.1811371 0.6730668
0.536578125 0.01671416 0.6809582
0.5377265625 0.2062182 0.6357887
0.538875 0.3741025 0.541777
0.5400234375 0.5078323 0.4058342
0.541171875 0.5973428 0.2388413
0.5423203125 0.635628 0.05388957
0.54346875 0.619016 -0.1337462
0.5446171875 0.5485662 -0.3073928
0.545765625 0.4311571 -0.4522541
0.5469140625 0.2772687 -0.5555741
0.5480625 0.1011697 -0.6090819
0.5492109375 -0.08107149 -0.6087408
0.550359375 -0.253729 -0.556361
0.5515078125 -0.4030239 -0.4579441
0.55265625 -0.5177805 -0.3220679
0.5538046875 -0.5897375 -0.1605869
0.554953125 -0.6138513 0.0143796
0.5561015625 -0.5898229 0.1900817
0.55725 -0.5182053 0.3537582
0.5583984375 -0.4035582 0.4944957
0.559546875 -0.2521466 0.6011346
0.5606953125 -0.07222354 0.6650683
0.56184375 0.1240608 0.6787467
0.5629921875 0.3239057 0.6367683
0.564140625 0.5138665 0.536751
0.5652890625 0.6773887 0.3798992
0.5664375 0.79634 0.1729738
0.5675859375 0.8552195 -0.07473343
0.568734375 0.83993 -0.3462604
0.5698828125 0.7386678 -0.620217
0.57103125 0.548472 -0.8699577
0.5721796875 0.2721102 -1.06797
0.573328125 -0.07898561 -1.184406
0.5744765625 -0.4841571 -1.192735
0.575625 -0.9161888 -1.069376
0.5767734375 -1.340694 -0.7929209
0.577921875 -1.712473 -0.3447306
0.5790703125 -1.972553 0.2912652
0.58021875 -2.031366 1.139
0.5813671875 -1.723068 2.201268
0.582515625 -0.730229 3.375526
0.5836640625 1.423096 4.079863
0.5848125 4.331597 2.646875
0.5859609375 4.840539 -1.034464
0.587109375 2.608957 -3.123094
0.5882578125 0.5331541 -3.152034
0.58940625 -0.683427 -2.463386
0.5905546875 -1.288795 -1.666901
0.591703125 -1.518873 -0.9401897
0.5928515625 -1.515015 -0.32742
0.594 -1.360218 0.1623806
0.5951484375 -1.109827 0.5275456
0.596296875 -0.8044508 0.772652
0.5974453125 -0.4781489 0.9029825
0.59859375 -0.1593493 0.9300083
0.5997421875 0.1275087 0.867357
0.600890625 0.3640218 0.7334445
0.6020390625 0.537133 0.5485735
0.6031875 0.6396427 0.3366498
0.6043359375 0.672482 0.1182368
0.605484375 0.6413373 -0.08708176
0.6066328125 0.5567744 -0.2632547
0.60778125 0.4314961 -0.3995109
0.6089296875 0.2804268 -0.4894683
0.610078125 0.117418 -0.5301662
0.6112265625 -0.04350071 -0.5233816
0.612375 -0.1908174 -0.473269
0.6135234375 -0.3147838 -0.3861839
0.614671875 -0.4068206 -0.2708531
0.6158203125 -0.4621986 -0.1363859
0.61696875 -0.4772185 0.007081117
0.6181171875 -0.4512494 0.1485461
0.619265625 -0.3856524 0.27683
0.6204140625 -0.2850047 0.3818217
0.6215625 -0.1563646 0.4540192
0.6227109375 -0.009481111 0.4853599
0.623859375 0.142984 0.4713413
0.6250078125 0.2876327 0.41031
0.62615625 0.40981 0.3055259
0.6273046875 0.4964275 0.1645306
0.628453125 0.5362622 -0.0009214559
0.6296015625 0.5231544 -0.176172
0.63075 0.4539179 -0.3447356
0.6318984375 0.3327086 -0.488598
0.633046875 0.1661911 -0.5934139
0.6341953125 -0.03355734 -0.6455337
0.63534375 -0.2515522 -0.6352127
0.6364921875 -0.4713624 -0.555673
0.637640625 -0.6741747 -0.4030417
0.6387890625 -0.8393382 -0.1777774
0.6399375 -0.94355 0.120701
0.6410859375 -0.9585003 0.486354
0.642234375 -0.843509 0.9119027
0.6433828125 -0.5381369 1.37544
0.64453125 0.06129237 1.817647
0.6456796875 1.117015 2.044413
0.646828125 2.701308 1.450096
0.6479765625 3.656018 -0.9853804
0.649125 1.626798 -3.297398
0.6502734375 -0.7298672 -2.82578
0.651421875 -1.615978 -1.565546
0.6525703125 -1.702518 -0.5562837
0.65371875 -1.47383 0.1297161
0.6548671875 -1.126173 0.5644971
0.656015625 -0.7459419 0.8060217
0.6571640625 -0.3783019 0.8990733
0.6583125 -0.05086372 0.8773046
0.6594609375 0.2188311 0.7710647
0.660609375 0.4202572 0.6072468
0.6617578125 0.5502943 0.4104008
0.66290625 0.6105735 0.2023571
0.6640546875 0.607166 0.001730662
0.665203125 0.5490605 -0.1767854
0.6663515625 0.4480106 -0.3218915
0.6675 0.3163333 -0.4262019
0.6686484375 0.1665753 -0.4855794
0.669796875 0.01262234 -0.4991507
0.6709453125 -0.13505 -0.4692498
0.67209375 -0.2648098 -0.4004315
0.6732421875 -0.3679377 -0.2986375
0.674390625 -0.4368779 -0.173379
0.6755390625 -0.4664275 -0.03411875
0.6766875 -0.4540586 0.1075754
0.6778359375 -0.4012143 0.2397338
0.678984375 -0.3113294 0.3507201
0.6801328125 -0.1916104 0.4309972
0.68128125 -0.05244157 0.4721887
0.6824296875 0.09387249 0.4699996
0.683578125 0.2340211 0.4237098
0.6847265625 0.3551349 0.3368724
0.685875 0.4456183 0.2165784
0.6870234375 0.4970745 0.07376192
0.688171875 0.504278 -0.07975574
0.6893203125 0.4657292 -0.2307928
0.69046875 0.3841999 -0.3658639
0.6916171875 0.2648458 -0.474334
0.692765625 0.1170541 -0.5456524
0.6939140625 -0.04997296 -0.5734092
0.6950625 -0.2232423 -0.552771
0.6962109375 -0.3905774 -0.4819677
0.697359375 -0.53804 -0.3626007
0.6985078125 -0.6523166 -0.1984869
0.69965625 -0.7210971 0.002609479
0.7008046875 -0.7320948 0.2293446
0.701953125 -0.6750364 0.4677503
0.7031015625 -0.5428578 0.6994173
0.70425 -0.3311972 0.9021539
0.7053984375 -0.04167036 1.051087
0.706546875 0.3193718 1.117128
0.7076953125 0.7328616 1.069875
0.70884375 1.176296 0.8731655
0.7099921875 1.607063 0.4909047
0.711140625 1.958166 -0.1219218
0.7122890625 2.111824 -1.008665
0.7134375 1.845661 -2.184223
0.7145859375 0.7452109 -3.482472
0.715734375 -1.652784 -4.044851
0.7168828125 -4.295283 -2.178543
0.71803125 -4.282422 1.092432
0.7191796875 -2.369015 2.727956
0.720328125 -0.6362443 2.824929
0.7214765625 0.4674155 2.320116
0.722625 1.081342 1.665146
0.7237734375 1.363978 1.023892
0.724921875 1.424309 0.4556895
0.7260703125 1.333646 -0.01811774
0.72721875 1.142087 -0.3903118
0.7283671875 0.8860412 -0.6616084
0.729515625 0.5965233 -0.83071
0.7306640625 0.2977088 -0.9071035
0.7318125 0.01139039 -0.8971058
0.7329609375 -0.2431986 -0.8130833
0.734109375 -0.451169 -0.6687266
0.7352578125 -0.6016506 -0.4810529
0.73640625 -0.6875747 -0.2683239
0.7375546875 -0.707893 -0.04945937
0.738703125 -0.665652 0.1570944
0.7398515625 -0.5693499 0.3354732
0.741 -0.4306251 0.4734055
0.7421484375 -0.2634949 0.5621225
0.743296875 -0.0846196 0.5977702
0.7444453125 0.09102608 0.5815328
0.74559375 0.2502309 0.517778
0.7467421875 0.3816536 0.4149032
0.747890625 0.4766558 0.2821676
0.7490390625 0.5095278 0.1259185
0.7501875 0.5188675 -0.02531572
0.7513359375 0.4863706 -0.1717925
0.752484375 0.4155822 -0.3027363
0.7536328125 0.3113965 -0.4089375
0.75478125 0.1815665 -0.4826294
0.7559296875 0.03530003 -0.5182314
0.757078125 -0.1168401 -0.5114824
0.7582265625 -0.2635058 -0.4620045
0.759375 -0.3927292 -0.3713896
0.7605234375 -0.4933548 -0.2448642
0.761671875 -0.5554716 -0.09148177
0.7628203125 -0.5710427 0.07841287
0.76396875 -0.536368 0.2503183
0.7651171875 -0.4505966 0.4102832
0.766265625 -0.317597 0.5429004
0.7674140625 -0.1458943 0.6341131
0.7685625 0.05264446 0.6732311
0.7697109375 0.2627797 0.6531844
0.770859375 0.4676086 0.5692605
0.7720078125 0.6497307 0.4230975
0.77315625 0.7907565 0.2193113
0.7743046875 0.8745273 -0.0329883
0.775453125 0.8849859 -0.3204415
0.7766015625 0.8076787 -0.628108
0.77775 0.6281695 -0.9345074
0.7788984375 0.3314375 -1.212966
0.780046875 -0.09881356 -1.426307
0.7811953125 -0.6790209 -1.515964
0.78234375 -1.419048 -1.38243
0.7834921875 -2.287568 -0.8375484
0.784640625 -3.041261 0.4427167
0.7857890625 -2.766712 2.650011
0.7869375 -0.2227656 4.215862
0.7880859375 2.418783 2.890826
0.789234375 2.897715 0.7689947
0.7903828125 2.297911 -0.557765
0.79153125 1.505157 -1.179659
0.7926796875 0.7883993 -1.381931
0.793828125 0.208654 -1.339379
0.7949765625 -0.227356 -1.155235
0.796125 -0.5279477 -0.8942903
0.7972734375 -0.7066271 -0.6021862
0.798421875 -0.7788385 -0.3106842
0.7995703125 -0.7630296 -0.04421051
0.80071875 -0.6789772 0.1808917
0.8018671875 -0.5460114 0.3544783
0.803015625 -0.3828968 0.4715279
0.8041640625 -0.2065471 0.5316192
0.8053125 -0.03271564 0.5383676
0.8064609375 0.1257911 0.4973892
0.807609375 0.2590657 0.4168113
0.8087578125 0.3591981 0.306614
0.80990625 0.4211681 0.1771435
0.8110546875 0.4425661 0.03960482
0.812203125 0.4236029 -0.09493798
0.8133515625 0.3673044 -0.2161705
0.8145 0.2791477 -0.3141241
0.8156484375 0.1668232 -0.3808468
0.816796875 0.04026113 -0.4110809
0.8179453125 -0.08952208 -0.4017877
0.81909375 -0.2105909 -0.3534436
0.8202421875 -0.311807 -0.2703998
0.821390625 -0.383101 -0.1595928
0.8225390625 -0.4176836 -0.03112009
0.8236875 -0.4111343 0.1035054
0.8248359375 -0.3633874 0.2315197
0.825984375 -0.277297 0.3408469
0.8271328125 -0.1595445 0.4209782
0.82828125 -0.01939339 0.4633587
0.8294296875 0.1319355 0.4619697
0.830578125 0.2823635 0.4139585
0.8317265625 0.4186525 0.3190916
0.832875 0.5277249 0.1805018
0.8340234375 0.5964119 0.003303178
0.835171875 0.6119725 -0.2037806
0.8363203125 0.5611745 -0.4283197
0.83746875 0.4303259 -0.6549919
0.8386171875 0.2066736 -0.8599198
0.839765625 -0.124752 -1.009483
0.8409140625 -0.5749079 -1.049862
0.8420625 -1.14276 -0.8874729
0.8432109375 -1.760752 -0.355294
0.844359375 -2.123489 0.7765225
0.8455078125 -1.407222 2.326483
0.84665625 0.6146209 2.719331
0.8478046875 1.913053 1.435323
0.848953125 1.91056 0.1300443
0.8501015625 1.412675 -0.6153442
0.85125 0.8567011 -0.9398093
0.8523984375 0.3721547 -1.009673
0.853546875 -0.01028382 -0.9300714
0.8546953125 -0.2885585 -0.7659901
0.85584375 -0.4704126 -0.5599327
0.8569921875 -0.566723 -0.3410411
0.858140625 -0.5906845 -0.1311228
0.8592890625 -0.555936 0.05611391
0.8604375 -0.4760909 0.2098234
0.8615859375 -0.3651234 0.3243349
0.862734375 -0.2357348 0.3971995
0.8638828125 -0.0999444 0.4282574
0.86503125 0.03183023 0.4197402
0.8661796875 0.150337 0.3763718
0.867328125 0.2479506 0.3042341
0.8684765625 0.3185042 0.2105415
0.869625 0.3581845 0.1032914
0.8707734375 0.3651932 -0.008445521
0.871921875 0.3402152 -0.1153363
0.8730703125 0.2859038 -0.209057
0.87421875 0.2074807 -0.2820228
0.8753671875 0.112147 -0.3282172
0.876515625 0.00830989 -0.3439084
0.8776640625 -0.09487405 -0.328231
0.8788125 -0.1879976 -0.2829854
0.8799609375 -0.2632312 -0.2130057
0.881109375 -0.3140315 -0.1242654
0.8822578125 -0.3363639 -0.02514985
0.88340625 -0.328905 0.07594641
0.8845546875 -0.2925409 0.170304
0.885703125 -0.2307423 0.250144
0.8868515625 -0.148244 0.3091955
0.888 -0.05201271 0.3424481
0.8891484375 0.05081655 0.3472545
0.890296875 0.1521223 0.3228879
0.8914453125 0.2442923 0.2701937
0.89259375 0.3201037 0.1919566
0.8937421875 0.3722817 0.09303872
0.894890625 0.3955586 -0.02025829
0.8960390625 0.3855443 -0.1401366
0.8971875 0.3404187 -0.2575172
0.8983359375 0.2600167 -0.3615971
0.899484375 0.1474655 -0.4428895
0.9006328125 0.008705121 -0.4909938
0.90178125 -0.147292 -0.4968457
0.9029296875 -0.3081461 -0.4542759
0.904078125 -0.4600668 -0.3602197
0.9052265625 -0.5863642 -0.2151239
0.906375 -0.6707349 -0.02439326
0.9075234375 -0.6972258 0.2018366
0.908671875 -0.6502496 0.4485534
0.9098203125 -0.5181049 0.6955619
0.91096875 -0.2908088 0.9174611
0.9121171875 0.03791258 1.080325
0.913265625 0.4693557 1.138812
0.9144140625 0.9901887 1.028278
0.9155625 1.552314 0.6517313
0.9167109375 2.008 -0.1177992
0.917859375 1.989375 -1.319607
0.9190078125 0.9808396 -2.496417
0.92015625 -0.7424849 -2.587298
0.9213046875 -1.873405 -1.508161
0.922453125 -2.00926 -0.2975274
0.9236015625 -1.618773 0.5202075
0.92475 -1.085297 0.9504539
0.9258984375 -0.5692319 1.107186
0.927046875 -0.1299644 1.085289
0.9281953125 0.2154399 0.9500595
0.92934375 0.463833 0.7466955
0.9304921875 0.6191702 0.5092386
0.931640625 0.6883337 0.2645732
0.9327890625 0.6823124 0.03348764
0.9339375 0.6144975 -0.1676412
0.9350859375 0.499971 -0.3267112
0.936234375 0.3542303 -0.4368162
0.9373828125 0.193769 -0.495225
0.93853125 0.0337861 -0.5042377
0.9396796875 -0.1131641 -0.4680274
0.940828125 -0.2367341 -0.395124
0.9419765625 -0.3296639 -0.2950959
0.943125 -0.3875634 -0.1778121
0.9442734375 -0.4087863 -0.05436068
0.945421875 -0.3951448 0.06575784
0.9465703125 -0.349618 0.1737296
0.94771875 -0.2774489 0.262283
0.9488671875 -0.1855485 0.3257964
0.950015625 -0.08099402 0.3602422
0.9511640625 0.02737145 0.3638176
0.9523125 0.1312968 0.3368053
0.9534609375 0.2231434 0.282056
0.954609375 0.2953737 0.2032698
0.9557578125 0.3418909 0.1069595
0.95690625 0.3587571 0.0009570894
0.9580546875 0.3440978 -0.105981
0.959203125 0.2984746 -0.2047631
0.9603515625 0.2252151 -0.28654
0.9615 0.130341 -0.3437201
0.9626484375 0.02161179 -0.3708896
0.963796875 -0.09134787 -0.3646644
0.9649453125 -0.1990813 -0.3250678
0.96609375 -0.2918357 -0.2547196
0.9672421875 -0.3615154 -0.1589026
0.968390625 -0.4010854 -0.0448071
0.9695390625 -0.4061974 0.07884993
0.9706875 -0.3750547 0.202137
0.9718359375 -0.3078608 0.315299
0.972984375 -0.207425 0.4080039
0.9741328125 -0.07951174 0.4719069
0.97528125 0.06934746 0.4981783
0.9764296875 0.2290633 0.4803728
0.977578125 0.3884728 0.4136502
0.9787265625 0.5337042 0.2949408
0.979875 0.6499066 0.1239184
0.9810234375 0.7183157 -0.09627173
0.982171875 0.7195765 -0.357817
0.9833203125 0.6296147 -0.6473314
0.98446875 0.4215551 -0.9411924
0.9856171875 0.06233348 -1.198064
0.986765625 -0.4819664 -1.341955
0.9879140625 -1.227711 -1.225281
0.9890625 -2.058693 -0.5696682
0.9902109375 -2.402684 0.8769219
0.991359375 -1.318335 2.385095
0.9925078125 0.4812763 2.408952
0.99365625 1.434364 1.412434
0.9948046875 1.559945 0.4516737
0.995953125 1.318146 -0.1976942
0.9971015625 0.9606934 -0.5753161
0.99825 0.5936674 -0.7561036
0.9993984375 0.2615313 -0.7988268
1.000546875 -0.01590708 -0.7470022
1.0016953125 -0.2314668 -0.63186
1.00284375 -0.3834469 -0.4788903
1.0039921875 -0.4738898 -0.3075663
