# GHZ S RI R 50.0
0.3 -6.523649 -7.130224
0.3011484375 -10.07425 0.4809561
0.302296875 -5.376047 5.827345
0.3034453125 -0.9715543 5.715821
0.30459375 1.19173 4.197042
0.3057421875 2.09252 2.713002
0.306890625 2.347189 1.517
0.3080390625 2.272647 0.5929783
0.3091875 2.024108 -0.0914105
0.3103359375 1.684257 -0.5884785
0.311484375 1.303171 -0.9323797
0.3126328125 0.9072959 -1.147822
0.31378125 0.5150539 -1.253556
0.3149296875 0.1406386 -1.26466
0.316078125 -0.2036778 -1.190077
0.3172265625 -0.5071415 -1.040032
0.318375 -0.7569992 -0.8230258
0.3195234375 -0.9363593 -0.5525782
0.320671875 -1.031778 -0.2457787
0.3218203125 -1.033519 0.07456569
0.32296875 -0.9382516 0.3775715
0.3241171875 -0.7552489 0.6318218
0.325265625 -0.505915 0.8099999
0.3264140625 -0.221395 0.8956039
0.3275625 0.06173396 0.8851316
0.3287109375 0.3135292 0.7916659
0.329859375 0.5125882 0.6350436
0.3310078125 0.6479457 0.4386809
0.33215625 0.7175719 0.2256046
0.3333046875 0.7260617 0.01480869
0.334453125 0.6806235 -0.1809813
0.3356015625 0.5907462 -0.3502865
0.33675 0.4659773 -0.4881466
0.3378984375 0.3140651 -0.5889117
0.339046875 0.1439039 -0.6491273
0.3401953125 -0.03636595 -0.666079
0.34134375 -0.2180274 -0.637959
0.3424921875 -0.3915096 -0.5629195
0.343640625 -0.545118 -0.4421972
0.3447890625 -0.6662606 -0.2774554
0.3459375 -0.7415592 -0.0755252
0.3470859375 -0.756475 0.151179
0.348234375 -0.7005109 0.3860814
0.3493828125 -0.5683011 0.6031902
0.35053125 -0.3653462 0.7759342
0.3516796875 -0.1060163 0.8789475
0.352828125 0.1822761 0.8926544
0.3539765625 0.4673078 0.8108381
0.355125 0.7164662 0.6389461
0.3562734375 0.9043264 0.3945658
0.357421875 1.011996 0.09764297
0.3585703125 1.030142 -0.2245543
0.35971875 0.9539653 -0.550338
0.3608671875 0.7831903 -0.8590736
0.362015625 0.5194066 -1.12911
0.3631640625 0.1604079 -1.338695
0.3643125 -0.2937054 -1.462514
0.3654609375 -0.848203 -1.453549
0.366609375 -1.501996 -1.250647
0.3677578125 -2.213886 -0.7274505
0.36890625 -2.861129 0.3237945
0.3700546875 -2.925825 2.127051
0.371203125 -1.261119 4.229184
0.3723515625 2.070041 4.121776
0.3735 3.68215 1.531703
0.3746484375 3.147484 -0.6106441
0.375796875 2.001353 -1.612759
0.3769453125 0.9426379 -1.898021
0.37809375 0.1035568 -1.7832
0.3792421875 -0.4936447 -1.450419
0.380390625 -0.8589996 -1.019822
0.3815390625 -1.025816 -0.5686528
0.3826875 -1.029495 -0.1558442
0.3838359375 -0.9128667 0.1845778
0.384984375 -0.7202544 0.4338903
0.3861328125 -0.4872866 0.5885029
0.38728125 -0.2475269 0.6560881
0.3884296875 -0.02157948 0.6483277
0.389578125 0.1740774 0.5813824
0.3907265625 0.3288033 0.469018
0.391875 0.4388668 0.3264201
0.3930234375 0.5003452 0.1665253
0.394171875 0.5144488 0.000510396
0.3953203125 0.481253 -0.1586006
0.39646875 0.4044099 -0.3019698
0.3976171875 0.2886894 -0.4179378
0.398765625 0.140194 -0.4967766
0.3999140625 -0.03029374 -0.5285125
0.4010625 -0.2107712 -0.5049379
0.4022109375 -0.3836524 -0.4220793
0.403359375 -0.5282739 -0.278799
0.4045078125 -0.6237845 -0.08378146
0.40565625 -0.6487918 0.1462428
0.4068046875 -0.5908494 0.387631
0.407953125 -0.4437645 0.6076173
0.4091015625 -0.2143892 0.7770916
0.41025 0.07779849 0.8630019
0.4113984375 0.4099056 0.8464908
0.412546875 0.7466787 0.7106862
0.4136953125 1.055712 0.4432012
0.41484375 1.296033 0.0407547
0.4159921875 1.406372 -0.5144269
0.417140625 1.295815 -1.210676
0.4182890625 0.795625 -2.013242
0.4194375 -0.3758651 -2.675254
0.4205859375 -2.267094 -2.354097
0.421734375 -3.504199 -0.2667782
0.4228828125 -2.565403 1.838099
0.42403125 -0.9235815 2.430886
0.4251796875 0.2463192 2.11851
0.426328125 0.9127109 1.53907
0.4274765625 1.227176 0.9393485
0.428625 1.30703 0.3920438
0.4297734375 1.227207 -0.0704882
0.430921875 1.034421 -0.4356026
0.4320703125 0.7679611 -0.6968079
0.43321875 0.4630362 -0.8473499
0.4343671875 0.1506658 -0.8913222
0.435515625 -0.1369067 -0.8389634
0.4366640625 -0.3762911 -0.7076753
0.4378125 -0.5489928 -0.5215139
0.4389609375 -0.6485775 -0.3055494
0.440109375 -0.6749837 -0.08644606
0.4412578125 -0.636714 0.1168555
0.44240625 -0.5469258 0.2885651
0.4435546875 -0.4193524 0.4194151
0.444703125 -0.2690353 0.5038718
0.4458515625 -0.1093613 0.5421875
0.447 0.04867763 0.5362952
0.4481484375 0.1942823 0.4902256
0.449296875 0.3199229 0.408934
0.4504453125 0.4177716 0.2995333
0.45159375 0.483159 0.168597
0.4527421875 0.5110858 0.02507752
0.453890625 0.4995906 -0.1222938
0.4550390625 0.4470188 -0.2630525
0.4561875 0.3556696 -0.3861372
0.4573359375 0.2299014 -0.479982
0.458484375 0.07817204 -0.53457
0.4596328125 -0.08635458 -0.5417624
0.46078125 -0.24925 -0.4976971
0.4619296875 -0.3939459 -0.4043084
0.463078125 -0.5039729 -0.268553
0.4642265625 -0.567482 -0.1039508
0.465375 -0.5776111 0.07323718
0.4665234375 -0.532786 0.2456597
0.467671875 -0.4395395 0.3962387
0.4688203125 -0.30564 0.5126334
0.46996875 -0.144517 0.5856446
0.4711171875 0.03153988 0.610671
0.472265625 0.2085681 0.586251
0.4734140625 0.3743733 0.5141774
0.4745625 0.5186049 0.3982441
0.4757109375 0.6305225 0.2432566
0.476859375 0.7008683 0.05856705
0.4780078125 0.7212358 -0.1481734
0.47915625 0.684744 -0.3656292
0.4803046875 0.5858425 -0.5797542
0.481453125 0.4205529 -0.7738327
0.4826015625 0.18906 -0.9294793
0.48375 -0.1030462 -1.023215
0.4848984375 -0.4456458 -1.031786
0.486046875 -0.8151481 -0.9305322
0.4871953125 -1.185186 -0.6960132
0.48834375 -1.507311 -0.3127746
0.4894921875 -1.730128 0.2305623
0.490640625 -1.776225 0.9282074
0.4917890625 -1.547886 1.756433
0.4929375 -0.9012952 2.643754
0.4940859375 0.3667127 3.387239
0.495234375 2.444535 3.440575
0.4963828125 4.797491 1.648326
0.49753125 4.974317 -2.081265
0.4986796875 2.177938 -4.225365
0.499828125 -0.3967724 -3.808021
0.5009765625 -1.668864 -2.562654
0.502125 -2.082675 -1.379952
0.5032734375 -2.049417 -0.4542002
0.504421875 -1.791647 0.225535
0.5055703125 -1.426975 0.6962907
0.50671875 -1.016471 0.9919491
0.5078671875 -0.6001825 1.141713
0.509015625 -0.2056362 1.167704
0.5101640625 0.1476354 1.091612
0.5113125 0.4414508 0.9331918
0.5124609375 0.6644889 0.7122637
0.513609375 0.8059069 0.4524107
0.5147578125 0.8633592 0.1758398
0.51590625 0.8376852 -0.09253965
0.5170546875 0.7368608 -0.330713
0.518203125 0.5762037 -0.5193491
0.5193515625 0.3742407 -0.6447819
0.5205 0.1533571 -0.7009516
0.5216484375 -0.06494564 -0.6885583
0.522796875 -0.2602412 -0.6151779
0.5239453125 -0.4185396 -0.4923628
0.52509375 -0.5302626 -0.3352538
0.5262421875 -0.589304 -0.1591229
0.527390625 -0.5961762 0.02089269
0.5285390625 -0.5537699 0.1908986
0.5296875 -0.4673473 0.3391548
0.5308359375 -0.3450245 0.4564875
0.531984375 -0.1960911 0.5351322
0.5331328125 -0.03186429 0.5696288
0.53428125 0.1374899 0.5571669
0.5354296875 0.2990988 0.4977927
0.536578125 0.4409244 0.3932728
0.5377265625 0.5498851 0.2484299
0.538875 0.6155704 0.07181313
0.5400234375 0.6269489 -0.1228017
0.541171875 0.5783638 -0.3220232
0.5423203125 0.4669418 -0.5054815
0.54346875 0.2958659 -0.6549683
0.5446171875 0.07471374 -0.7499957
0.545765625 -0.1797262 -0.7740217
0.5469140625 -0.4467972 -0.7142685
0.5480625 -0.7018537 -0.5640697
0.5492109375 -0.9138947 -0.321674
0.550359375 -1.05501 0.007159958
0.5515078125 -1.09191 0.4070678
0.55265625 -0.9832994 0.8616319
0.5538046875 -0.6828936 1.335905
0.554953125 -0.1166076 1.758114
0.5561015625 0.8011201 1.974642
0.55725 2.070483 1.597603
0.5583984375 3.126369 0.03920412
0.559546875 2.446197 -2.180565
0.5606953125 0.3659846 -2.868578
0.56184375 -1.057422 -2.089024
0.5629921875 -1.554522 -1.07169
0.564140625 -1.540157 -0.258247
0.5652890625 -1.288208 0.308842
0.5664375 -0.9396677 0.6662438
0.5675859375 -0.5651656 0.8508486
0.568734375 -0.2056404 0.897661
0.5698828125 0.1079188 0.8341095
0.57103125 0.3588957 0.68847
0.5721796875 0.5324719 0.4890397
0.573328125 0.625497 0.2627417
0.5744765625 0.6398576 0.03599426
0.575625 0.5842786 -0.1702137
0.5767734375 0.4735447 -0.3374958
0.577921875 0.3242294 -0.454732
0.5790703125 0.1542238 -0.5169957
0.58021875 -0.01864071 -0.5235394
0.5813671875 -0.1790394 -0.4794527
0.582515625 -0.3145908 -0.3919695
0.5836640625 -0.4166166 -0.2715498
0.5848125 -0.477599 -0.1283186
0.5859609375 -0.4947282 0.02475007
0.587109375 -0.4666709 0.1763109
0.5882578125 -0.3955778 0.3150153
0.58940625 -0.2861733 0.4289551
0.5905546875 -0.1447337 0.5088068
0.591703125 0.01907755 0.5451789
0.5928515625 0.192754 0.5319335
0.594 0.3626794 0.4652356
0.5951484375 0.5119287 0.3450244
0.596296875 0.6251802 0.1765724
0.5974453125 0.685323 -0.03006482
0.59859375 0.6802791 -0.2596589
0.5997421875 0.5998099 -0.4924192
0.600890625 0.4410434 -0.7049193
0.6020390625 0.2068643 -0.8718807
0.6031875 -0.09229424 -0.967871
0.6043359375 -0.4391394 -0.9691002
0.605484375 -0.8098285 -0.8524326
0.6066328125 -1.173675 -0.5979623
0.60778125 -1.486614 -0.1820094
0.6089296875 -1.687867 0.416268
0.610078125 -1.666227 1.215161
0.6112265625 -1.228874 2.192447
0.612375 -0.03225219 3.109631
0.6135234375 2.124416 3.11106
0.614671875 3.923497 1.055306
0.6158203125 3.343097 -1.554264
0.61696875 1.581103 -2.590314
0.6181171875 0.1577017 -2.45983
0.619265625 -0.7112646 -1.915838
0.6204140625 -1.164616 -1.287025
0.6215625 -1.339017 -0.6934772
0.6227109375 -1.322418 -0.1802109
0.623859375 -1.175253 0.236457
0.6250078125 -0.9427967 0.5468121
0.62615625 -0.6609076 0.7504494
0.6273046875 -0.3622508 0.8506552
0.628453125 -0.07381925 0.8571941
0.6296015625 0.181955 0.7835633
0.63075 0.3880604 0.6480201
0.6318984375 0.5340448 0.4709073
0.633046875 0.6160504 0.2725506
0.6341953125 0.6354319 0.07199304
0.63534375 0.5985322 -0.1136913
0.6364921875 0.5150819 -0.27224
0.637640625 0.3967961 -0.3939721
0.6387890625 0.2559951 -0.4741318
0.6399375 0.105134 -0.5105993
0.6410859375 -0.04445661 -0.504402
0.642234375 -0.182551 -0.4590496
0.6433828125 -0.299441 -0.3802244
0.64453125 -0.3890651 -0.2742717
0.6456796875 -0.4451582 -0.1496864
0.646828125 -0.4647263 -0.01574659
0.6479765625 -0.4466955 0.1177413
0.649125 -0.3920159 0.2406706
0.6502734375 -0.3051045 0.3431662
0.651421875 -0.1915161 0.4173466
0.6525703125 -0.06173867 0.4558115
0.65371875 0.07496534 0.4551038
0.6548671875 0.2064317 0.414455
0.656015625 0.3212517 0.3364267
0.6571640625 0.4078613 0.2281063
0.6583125 0.4595737 0.0979209
0.6594609375 0.4713188 -0.0420455
0.660609375 0.4414351 -0.1802669
0.6617578125 0.3722756 -0.304888
0.66290625 0.2698313 -0.4045368
0.6640546875 0.1419855 -0.4717452
0.665203125 -0.00138124 -0.5003824
0.6663515625 -0.1496714 -0.4876566
0.6675 -0.2906869 -0.4327641
0.6686484375 -0.4141474 -0.3385775
0.669796875 -0.509515 -0.2101899
0.6709453125 -0.5676359 -0.05455007
0.67209375 -0.5805849 0.1185354
0.6732421875 -0.5433366 0.2957774
0.674390625 -0.4528806 0.465263
0.6755390625 -0.309903 0.60988
0.6766875 -0.1189281 0.714921
0.6778359375 0.11028 0.7637851
0.678984375 0.3629606 0.7417787
0.6801328125 0.6192545 0.6377888
0.68128125 0.8540335 0.4451462
0.6824296875 1.038182 0.162884
0.683578125 1.138956 -0.2018194
0.6847265625 1.120252 -0.6335118
0.685875 0.942121 -1.101335
0.6870234375 0.5592007 -1.561109
0.688171875 -0.08301714 -1.927819
0.6893203125 -1.027952 -2.048412
0.69046875 -2.233033 -1.615254
0.6916171875 -3.265238 -0.205218
0.692765625 -2.988173 2.010324
0.6939140625 -1.010641 3.296469
0.6950625 0.9125006 2.802027
0.6962109375 1.786527 1.630659
0.697359375 1.910518 0.5799608
0.6985078125 1.670014 -0.1744784
0.69965625 1.282803 -0.6599199
0.7008046875 0.8548771 -0.9294921
0.701953125 0.4394443 -1.034099
0.7031015625 0.06922449 -1.011438
0.70425 -0.2382376 -0.8940607
0.7053984375 -0.47194 -0.710534
0.706546875 -0.6259939 -0.4866571
0.7076953125 -0.6999702 -0.2461262
0.70884375 -0.6981959 -0.01114356
0.7099921875 -0.6308191 0.1989583
0.711140625 -0.5093424 0.3689558
0.7122890625 -0.3506798 0.4877553
0.7134375 -0.1720055 0.5495582
0.7145859375 0.00889658 0.5537475
0.715734375 0.1759312 0.5055528
0.7168828125 0.3152376 0.412515
0.71803125 0.4169968 0.2858836
0.7191796875 0.475056 0.1389291
0.720328125 0.4860947 -0.01550664
0.7214765625 0.4518185 -0.1637951
0.722625 0.3758551 -0.2939504
0.7237734375 0.2654098 -0.3958003
0.724921875 0.1294095 -0.4607375
0.7260703125 -0.02123134 -0.4832089
0.72721875 -0.1746839 -0.4595641
0.7283671875 -0.317951 -0.3897269
0.729515625 -0.4374437 -0.2763709
0.7306640625 -0.5210489 -0.1269106
0.7318125 -0.5566509 0.05003475
0.7329609375 -0.5361859 0.2389292
0.734109375 -0.4529963 0.4242211
0.7352578125 -0.3064594 0.5860445
0.73640625 -0.1007102 0.7036728
0.7375546875 0.1544057 0.7554058
0.738703125 0.4418686 0.7206852
0.7398515625 0.7376933 0.5799968
0.741 1.010092 0.3174584
0.7421484375 1.212246 -0.08536322
0.743296875 1.277142 -0.6382221
0.7444453125 1.088641 -1.336498
0.74559375 0.4402659 -2.098815
0.7467421875 -0.9610691 -2.5169
0.747890625 -2.804125 -1.547044
0.7490390625 -2.947009 0.8239049
0.7501875 -1.463269 2.117288
0.7513359375 -0.09691729 2.048357
0.752484375 0.6730154 1.517588
0.7536328125 1.021224 0.9355925
0.75478125 1.110122 0.4213053
0.7559296875 1.042627 0.00351063
0.757078125 0.8788599 -0.3143778
0.7582265625 0.6591998 -0.5357442
0.759375 0.4134373 -0.6652684
0.7605234375 0.1649119 -0.7113449
0.761671875 -0.06762258 -0.6838557
0.7628203125 -0.2663285 -0.5942051
0.76396875 -0.4204546 -0.4573929
0.7651171875 -0.5208982 -0.2898855
0.766265625 -0.5641044 -0.1081249
0.7674140625 -0.5512915 0.07032801
0.7685625 -0.4882639 0.2306401
0.7697109375 -0.3837784 0.360456
0.770859375 -0.2494694 0.4504884
0.7720078125 -0.09888404 0.4958343
0.77315625 0.0549815 0.4949293
0.7743046875 0.1987546 0.4504539
0.775453125 0.3217902 0.3676656
0.7766015625 0.4151986 0.2544347
0.77775 0.4719203 0.1198848
0.7788984375 0.4885311 -0.02499836
0.780046875 0.4633649 -0.169489
0.7811953125 0.3978436 -0.302531
0.78234375 0.2960352 -0.4134847
0.7834921875 0.1640479 -0.4928041
0.784640625 0.01097717 -0.532798
0.7857890625 -0.1523087 -0.5271363
0.7869375 -0.3125665 -0.47291
0.7880859375 -0.4565156 -0.3706567
0.789234375 -0.5691952 -0.2246467
0.7903828125 -0.6374465 -0.04368264
0.79153125 -0.6506552 0.1595742
0.7926796875 -0.6005148 0.3689484
0.793828125 -0.4841659 0.565508
0.7949765625 -0.3036512 0.7296408
0.796125 -0.06697118 0.8406731
0.7972734375 0.2131694 0.8802021
0.798421875 0.5182229 0.8323173
0.7995703125 0.8262669 0.6828845
0.80071875 1.107578 0.4198041
0.8018671875 1.327149 0.03411185
0.803015625 1.435083 -0.4784964
0.8041640625 1.35843 -1.119121
0.8053125 0.9740121 -1.854596
0.8064609375 0.08825281 -2.54649
0.807609375 -1.48353 -2.738566
0.8087578125 -3.277362 -1.519365
0.80990625 -3.505963 0.9794543
0.8110546875 -1.903059 2.527627
0.812203125 -0.2612905 2.567811
0.8133515625 0.7356338 1.974045
0.8145 1.211675 1.269375
0.8156484375 1.354504 0.6316052
0.816796875 1.29314 0.1093552
0.8179453125 1.109027 -0.2896008
0.81909375 0.8544602 -0.567111
0.8202421875 0.5691531 -0.7327034
0.821390625 0.2832871 -0.7983189
0.8225390625 0.01926888 -0.7785206
0.8236875 -0.2046184 -0.6910629
0.8248359375 -0.3777435 -0.5538179
0.825984375 -0.4933804 -0.3868715
0.8271328125 -0.5510706 -0.2074385
0.82828125 -0.5548646 -0.03173798
0.8294296875 -0.5110879 0.1269835
0.830578125 -0.4291939 0.2586893
0.8317265625 -0.3199871 0.3566332
0.832875 -0.1939358 0.4170425
0.8340234375 -0.0621928 0.4387752
0.835171875 0.06560832 0.4238614
0.8363203125 0.1804726 0.3756049
0.83746875 0.2744245 0.2996531
0.8386171875 0.3421852 0.2026481
0.839765625 0.379608 0.09283251
0.8409140625 0.3846123 -0.02182214
0.8420625 0.3570169 -0.1318136
0.8432109375 0.2996084 -0.2288391
0.844359375 0.2172011 -0.305064
0.8455078125 0.1162732 -0.3537754
0.84665625 0.00560684 -0.3712701
0.8478046875 -0.1051741 -0.3550552
0.848953125 -0.2066277 -0.3068548
0.8501015625 -0.2891634 -0.230782
0.85125 -0.3455636 -0.133472
0.8523984375 -0.3706588 -0.0235759
0.853546875 -0.3623347 0.08905592
0.8546953125 -0.3208269 0.1947149
0.85584375 -0.2499224 0.2842
0.8569921875 -0.1556518 0.3497267
0.858140625 -0.04453328 0.3857506
0.8592890625 0.07360701 0.3884449
0.8604375 0.1900373 0.3566564
0.8615859375 0.2956558 0.2911849
0.862734375 0.3811168 0.1957948
0.8638828125 0.4384585 0.07516436
0.86503125 0.4599476 -0.06328057
0.8661796875 0.440331 -0.2101576
0.867328125 0.3754357 -0.3546318
0.8684765625 0.2634759 -0.483517
0.869625 0.1056485 -0.582292
0.8707734375 -0.09327548 -0.6350641
0.871921875 -0.3232212 -0.6246401
0.8730703125 -0.5687533 -0.5330806
0.87421875 -0.8064131 -0.3425948
0.8753671875 -0.9995809 -0.03428244
0.876515625 -1.090424 0.4048753
0.8776640625 -0.9811977 0.9696864
0.8788125 -0.5126889 1.582907
0.8799609375 0.4888113 1.938738
0.881109375 1.778742 1.387703
0.8822578125 2.213301 -0.1023674
0.88340625 1.462665 -1.223291
0.8845546875 0.4943864 -1.473423
0.885703125 -0.1845207 -1.253124
0.8868515625 -0.5633137 -0.8895004
0.888 -0.7279729 -0.519332
0.8891484375 -0.7496349 -0.1950612
0.890296875 -0.680273 0.06614394
0.8914453125 -0.5544384 0.260485
0.89259375 -0.3972238 0.3893216
0.8937421875 -0.2285946 0.4566669
0.894890625 -0.06400354 0.4697936
0.8960390625 0.08433952 0.4359159
0.8971875 0.2072122 0.3644228
0.8983359375 0.2974114 0.2655816
0.899484375 0.3510563 0.149902
0.9006328125 0.3661765 0.02884473
0.90178125 0.3446456 -0.08680488
0.9029296875 0.2904254 -0.1871763
0.904078125 0.2099654 -0.2637269
0.9052265625 0.1121881 -0.3102142
0.906375 0.006857357 -0.3241129
0.9075234375 -0.09559885 -0.304813
0.908671875 -0.1857244 -0.2554332
0.9098203125 -0.2553018 -0.1815802
0.91096875 -0.2982138 -0.0909196
0.9121171875 -0.3112395 0.00783144
0.913265625 -0.2934229 0.1056079
0.9144140625 -0.2472413 0.1937167
0.9155625 -0.1760603 0.2641525
0.9167109375 -0.08619604 0.310455
0.917859375 0.01511455 0.3283785
0.9190078125 0.1193031 0.3152618
0.92015625 0.2179476 0.2704514
0.9213046875 0.3019689 0.1958137
0.922453125 0.3625144 0.09591594
0.9236015625 0.3920569 -0.0238284
0.92475 0.3840506 -0.153902
0.9258984375 0.3343372 -0.2836203
0.927046875 0.2411181 -0.4005949
0.9281953125 0.1061921 -0.4900515
0.92934375 -0.06405469 -0.5380753
0.9304921875 -0.2589949 -0.5295066
0.931640625 -0.462396 -0.4514002
0.9327890625 -0.6516423 -0.2946064
0.9339375 -0.7971873 -0.05233735
0.9350859375 -0.8602798 0.2724788
0.936234375 -0.7922822 0.6611602
0.9373828125 -0.5293704 1.069733
0.93853125 -0.009381333 1.388628
0.9396796875 0.7644804 1.4122
0.940828125 1.56397 0.8812662
0.9419765625 1.858341 -0.1690993
0.943125 1.368818 -1.123324
0.9442734375 0.5186511 -1.49044
0.945421875 -0.2079708 -1.350366
0.9465703125 -0.654902 -0.9804367
0.94771875 -0.8602993 -0.5647602
0.9488671875 -0.890341 -0.1861126
0.950015625 -0.8048851 0.1224992
0.9511640625 -0.6497483 0.3512282
0.9523125 -0.4560259 0.5004126
0.9534609375 -0.2497492 0.5749394
0.954609375 -0.04961445 0.5829761
0.9557578125 0.1292909 0.5349659
0.95690625 0.2748958 0.4421077
0.9580546875 0.3791271 0.3179053
0.959203125 0.4390063 0.1763538
0.9603515625 0.4530325 0.03067679
0.9615 0.4236971 -0.1059907
0.9626484375 0.3580745 -0.2228716
0.963796875 0.26423 -0.3112831
0.9649453125 0.1524497 -0.3660365
0.96609375 0.03383618 -0.384304
0.9672421875 -0.08144844 -0.3676628
0.968390625 -0.1837768 -0.3194987
0.9695390625 -0.2655889 -0.2454791
0.9706875 -0.321398 -0.1532021
0.9718359375 -0.3479777 -0.05064162
0.972984375 -0.3440455 0.05349265
0.9741328125 -0.3115816 0.1514216
0.97528125 -0.2529479 0.2355327
0.9764296875 -0.1728294 0.2996734
0.977578125 -0.07775154 0.3386383
0.9787265625 0.02528028 0.3493314
0.979875 0.1281719 0.3302326
0.9810234375 0.222899 0.2818103
0.982171875 0.3017209 0.2070659
0.9833203125 0.3567056 0.1105063
0.98446875 0.3819458 -0.0007362203
0.9856171875 0.3740829 -0.1180284
0.986765625 0.3308426 -0.231333
0.9879140625 0.253485 -0.3303911
0.9890625 0.146653 -0.4049759
0.9902109375 0.01785049 -0.4462705
0.991359375 -0.1234372 -0.4479893
0.9925078125 -0.2650957 -0.4062989
0.99365625 -0.3945911 -0.3204663
0.9948046875 -0.4986138 -0.1939974
0.995953125 -0.5645384 -0.03290367
0.9971015625 -0.5823307 0.1517781
0.99825 -0.5429191 0.3487173
0.9993984375 -0.4386729 0.5416872
1.000546875 -0.2665976 0.7123736
1.0016953125 -0.02434906 0.8399729
1.00284375 0.2860289 0.8951147
