# GHZ S RI R 50.0
0.3 -10.04992 -4.454078
0.3011484375 -8.296469 3.995959
0.302296875 -3.084978 5.914301
0.3034453125 0.001273328 4.915339
0.30459375 1.468892 3.495886
0.3057421875 2.075868 2.226949
0.306890625 2.221595 1.201314
0.3080390625 2.113523 0.4024929
0.3091875 1.865237 -0.1980184
0.3103359375 1.541408 -0.6374744
0.311484375 1.179125 -0.9415897
0.3126328125 0.8043975 -1.1293
0.31378125 0.432958 -1.216229
0.3149296875 0.07811936 -1.215049
0.316078125 -0.2476246 -1.13327
0.3172265625 -0.5341243 -0.9796046
0.318375 -0.7659038 -0.7639679
0.3195234375 -0.9310846 -0.4959368
0.320671875 -1.013323 -0.1954189
0.3218203125 -1.003909 0.1161829
0.32296875 -0.9002535 0.4084159
0.3241171875 -0.7121645 0.6505337
0.325265625 -0.4614629 0.8161249
0.3264140625 -0.1789891 0.8900861
0.3275625 0.09997223 0.8689581
0.3287109375 0.3444189 0.7669579
0.329859375 0.5350502 0.6043018
0.3310078125 0.6615141 0.4047555
0.33215625 0.7227096 0.1900298
0.3333046875 0.7219402 -0.01949382
0.334453125 0.6689072 -0.2125009
0.3356015625 0.5721555 -0.3788072
0.33675 0.4410663 -0.5116549
0.3378984375 0.2839824 -0.6061546
0.339046875 0.109904 -0.6594059
0.3401953125 -0.07306343 -0.6685599
0.34134375 -0.2557986 -0.6315331
0.3424921875 -0.4285244 -0.5474204
0.343640625 -0.5794515 -0.4159156
0.3447890625 -0.6955634 -0.2411419
0.3459375 -0.7623575 -0.02969843
0.3470859375 -0.7659187 0.2058392
0.348234375 -0.6947378 0.4468117
0.3493828125 -0.5446915 0.6658496
0.35053125 -0.3212163 0.8355324
0.3516796875 -0.04055866 0.9288986
0.352828125 0.2678425 0.9259785
0.3539765625 0.5691851 0.8195633
0.355125 0.8297431 0.6168569
0.3562734375 1.019819 0.3342711
0.357421875 1.120957 -0.005785454
0.3585703125 1.118165 -0.3757989
0.35971875 1.004517 -0.7508537
0.3608671875 0.773772 -1.109466
0.362015625 0.4166988 -1.424737
0.3631640625 -0.08116085 -1.663927
0.3643125 -0.7444218 -1.769181
0.3654609375 -1.601986 -1.630918
0.366609375 -2.637454 -1.008302
0.3677578125 -3.545193 0.5565683
0.36890625 -2.991247 3.241716
0.3700546875 0.2021391 4.560194
0.371203125 2.656224 2.753489
0.3723515625 2.920305 0.6767998
0.3735 2.313694 -0.5814985
0.3746484375 1.539417 -1.214495
0.375796875 0.808212 -1.449452
0.3769453125 0.1843058 -1.424311
0.37809375 -0.3049313 -1.226463
0.3792421875 -0.6452487 -0.9214885
0.380390625 -0.8366131 -0.5668506
0.3815390625 -0.8888273 -0.2141718
0.3826875 -0.8261904 0.09918129
0.3838359375 -0.6795211 0.3453341
0.384984375 -0.4818267 0.5116171
0.3861328125 -0.2632099 0.5977044
0.38728125 -0.04800083 0.6099202
0.3884296875 0.1448519 0.5600055
0.389578125 0.3033005 0.4613013
0.3907265625 0.4196781 0.3283827
0.391875 0.4898715 0.1735106
0.3930234375 0.5125468 0.009324105
0.394171875 0.4878261 -0.1528356
0.3953203125 0.4178534 -0.3024934
0.39646875 0.3065282 -0.4275354
0.3976171875 0.1586203 -0.5188156
0.398765625 -0.01769022 -0.5646043
0.3999140625 -0.2106853 -0.5550185
0.4010625 -0.4045428 -0.4822763
0.4022109375 -0.5792981 -0.3418732
0.403359375 -0.7108145 -0.135959
0.4045078125 -0.7726763 0.1243334
0.40565625 -0.7425423 0.4173933
0.4068046875 -0.6017201 0.7114014
0.407953125 -0.3450945 0.966021
0.4091015625 0.02250696 1.137796
0.41025 0.4786116 1.182668
0.4113984375 0.9953721 1.055233
0.412546875 1.52596 0.7061331
0.4136953125 1.997957 0.06644323
0.41484375 2.25508 -0.9625521
0.4159921875 1.903354 -2.444264
0.417140625 0.1263723 -3.882746
0.4182890625 -2.881462 -3.187628
0.4194375 -3.791529 -0.3090392
0.4205859375 -2.604162 1.510738
0.421734375 -1.271492 2.01294
0.4228828125 -0.2980359 1.923771
0.42403125 0.3533956 1.60818
0.4251796875 0.7650523 1.211824
0.426328125 0.9976773 0.7968567
0.4274765625 1.089395 0.3952199
0.428625 1.067978 0.02697937
0.4297734375 0.95234 -0.2889385
0.430921875 0.7646037 -0.5400468
0.4320703125 0.525995 -0.7126668
0.43321875 0.2608951 -0.8005266
0.4343671875 -0.004316438 -0.8021136
0.435515625 -0.244678 -0.7255905
0.4366640625 -0.4388201 -0.5849826
0.4378125 -0.5724152 -0.4016551
0.4389609375 -0.6388426 -0.1974144
0.440109375 -0.6402379 0.005184495
0.4412578125 -0.5845543 0.1884617
0.44240625 -0.4836962 0.3396712
0.4435546875 -0.3514626 0.4496297
0.444703125 -0.2012455 0.5152577
0.4458515625 -0.04513517 0.5366706
0.447 0.1057911 0.5163738
0.4481484375 0.2422865 0.4585344
0.449296875 0.3570832 0.3682309
0.4504453125 0.4430783 0.2527324
0.45159375 0.4957947 0.1183823
0.4527421875 0.5111682 -0.02607065
0.453890625 0.4871201 -0.171184
0.4550390625 0.4229852 -0.3070166
0.4561875 0.3210751 -0.42254
0.4573359375 0.1870294 -0.5066381
0.458484375 0.02931579 -0.5493574
0.4596328125 -0.1379388 -0.5431237
0.46078125 -0.3003482 -0.4853594
0.4619296875 -0.4405002 -0.3781391
0.463078125 -0.54283 -0.2304419
0.4642265625 -0.5948501 -0.05604475
0.465375 -0.5914471 0.1279333
0.4665234375 -0.5318518 0.3034527
0.467671875 -0.4227147 0.4527782
0.4688203125 -0.2738528 0.5645722
0.46996875 -0.09846578 0.6293359
0.4711171875 0.08891468 0.6426311
0.472265625 0.2752881 0.6035631
0.4734140625 0.4472558 0.5141032
0.4745625 0.5935999 0.3786459
0.4757109375 0.7037639 0.2029214
0.476859375 0.7669776 -0.004082375
0.4780078125 0.7745751 -0.2334765
0.47915625 0.7182715 -0.4726929
0.4803046875 0.5910963 -0.7066541
0.481453125 0.3883474 -0.9156982
0.4826015625 0.1089074 -1.078237
0.48375 -0.2422071 -1.166319
0.4848984375 -0.6539253 -1.148924
0.486046875 -1.103441 -0.9929507
0.4871953125 -1.552153 -0.6587843
0.48834375 -1.939818 -0.1143762
0.4894921875 -2.17735 0.6776972
0.490640625 -2.111145 1.736175
0.4917890625 -1.471777 3.019176
0.4929375 0.1939773 4.209675
0.4940859375 3.198447 4.113839
0.495234375 5.637565 0.9594184
0.4963828125 4.312898 -2.768548
0.49753125 1.554644 -3.775944
0.4986796875 -0.3188725 -3.198467
0.499828125 -1.277492 -2.254916
0.5009765625 -1.670453 -1.357979
0.502125 -1.732239 -0.6036496
0.5032734375 -1.598632 -0.008715682
0.504421875 -1.349845 0.4373833
0.5055703125 -1.037362 0.7497663
0.50671875 -0.6956208 0.9404482
0.5078671875 -0.351452 1.022697
0.509015625 -0.02655644 1.009814
0.5101640625 0.2617609 0.91475
0.5113125 0.4977837 0.7527708
0.5124609375 0.6694316 0.5411305
0.513609375 0.7688949 0.2991793
0.5147578125 0.7919993 0.04812751
0.51590625 0.7414742 -0.1901892
0.5170546875 0.6251166 -0.3953173
0.518203125 0.457521 -0.5504451
0.5193515625 0.25721 -0.6437485
0.5205 0.045384 -0.6706246
0.5216484375 -0.1575073 -0.6331649
0.522796875 -0.3335768 -0.5400225
0.5239453125 -0.469369 -0.4030941
0.52509375 -0.5563403 -0.2375189
0.5262421875 -0.5903038 -0.0589629
0.527390625 -0.5724834 0.1179713
0.5285390625 -0.5064152 0.2795596
0.5296875 -0.3987296 0.414905
0.5308359375 -0.2581593 0.5143812
0.531984375 -0.09441079 0.5712631
0.5331328125 0.08073653 0.580506
0.53428125 0.2555533 0.5396823
0.5354296875 0.4163872 0.4485707
0.536578125 0.549701 0.310214
0.5377265625 0.6418633 0.1313483
0.538875 0.6805775 -0.07858726
0.5400234375 0.6536272 -0.3031631
0.541171875 0.5534736 -0.5256334
0.5423203125 0.3777031 -0.721667
0.54346875 0.1286596 -0.8666826
0.5446171875 -0.1831882 -0.9334215
0.545765625 -0.5369737 -0.8953946
0.5469140625 -0.9061047 -0.7260258
0.5480625 -1.250999 -0.3998943
0.5492109375 -1.513766 0.1106862
0.550359375 -1.598122 0.8313237
0.5515078125 -1.319342 1.771017
0.55265625 -0.3057998 2.771983
0.5538046875 1.827593 2.945925
0.554953125 3.640997 0.7858971
0.5561015625 2.710696 -1.68972
0.55725 0.9611117 -2.291962
0.5583984375 -0.1914717 -1.93965
0.559546875 -0.7971057 -1.36677
0.5606953125 -1.057051 -0.805212
0.56184375 -1.103519 -0.3183274
0.5629921875 -1.013125 0.07733776
0.564140625 -0.8347253 0.378308
0.5652890625 -0.6028133 0.584953
0.5664375 -0.3464642 0.6986206
0.5675859375 -0.08858331 0.7265428
0.568734375 0.1485078 0.6769526
0.5698828125 0.3471315 0.5625872
0.57103125 0.4924276 0.3999494
0.5721796875 0.575109 0.2086364
0.573328125 0.592323 0.009072647
0.5744765625 0.5475261 -0.1788163
0.575625 0.4495405 -0.3374642
0.5767734375 0.3110221 -0.4538867
0.577921875 0.1485757 -0.5197656
0.5790703125 -0.02236797 -0.5327324
0.58021875 -0.1848301 -0.4948227
0.5813671875 -0.326965 -0.4117448
0.582515625 -0.437064 -0.2920666
0.5836640625 -0.5078844 -0.1463862
0.5848125 -0.5340933 0.01401767
0.5859609375 -0.5137971 0.1763417
0.587109375 -0.4470945 0.3292297
0.5882578125 -0.3367895 0.4614001
0.58940625 -0.1900482 0.5593574
0.5905546875 -0.01399927 0.6144598
0.591703125 0.1797209 0.6175432
0.5928515625 0.3771526 0.5621481
0.594 0.5615567 0.4445727
0.5951484375 0.7137303 0.2669077
0.596296875 0.8145903 0.03513362
0.5974453125 0.8448626 -0.2376954
0.59859375 0.7871864 -0.5323624
0.5997421875 0.628853 -0.8238051
0.600890625 0.3629932 -1.079381
0.6020390625 -0.01014329 -1.263837
0.6031875 -0.4829153 -1.335749
0.6043359375 -1.037346 -1.243919
0.605484375 -1.640707 -0.9236643
0.6066328125 -2.223185 -0.2828882
0.60778125 -2.619082 0.812166
0.6089296875 -2.38942 2.456276
0.610078125 -0.6620387 4.158791
0.6112265625 2.494994 3.84571
0.612375 3.957243 1.104018
0.6135234375 3.134724 -1.052217
0.614671875 1.82453 -1.903709
0.6158203125 0.7422558 -2.024887
0.61696875 -0.0401559 -1.813733
0.6181171875 -0.5669698 -1.458926
0.619265625 -0.8934504 -1.049578
0.6204140625 -1.059048 -0.6349048
0.6215625 -1.094064 -0.2449993
0.6227109375 -1.024258 0.09932596
0.623859375 -0.8742678 0.3798406
0.6250078125 -0.6669165 0.5875412
0.62615625 -0.4269004 0.7164375
0.6273046875 -0.1771615 0.7656679
0.628453125 0.06029836 0.7406772
0.6296015625 0.2673458 0.6525083
0.63075 0.4299709 0.5147504
0.6318984375 0.5378887 0.34593
0.633046875 0.5892724 0.1627007
0.6341953125 0.5856372 -0.01802545
0.63534375 0.5329884 -0.1817878
0.6364921875 0.4403971 -0.3172629
0.637640625 0.3189712 -0.4168365
0.6387890625 0.1800023 -0.4764342
0.6399375 0.03507548 -0.4946269
0.6410859375 -0.105125 -0.4731998
0.642234375 -0.2314256 -0.4156536
0.6433828125 -0.3345381 -0.3279168
0.64453125 -0.4092824 -0.2166767
0.6456796875 -0.450426 -0.09023993
0.646828125 -0.4552003 0.04208624
0.6479765625 -0.4233154 0.1708665
0.649125 -0.3560542 0.286013
0.6502734375 -0.2590492 0.3778251
0.651421875 -0.1382101 0.4393244
0.6525703125 -0.004004957 0.4632893
0.65371875 0.133272 0.4475106
0.6548671875 0.261451 0.3917539
0.656015625 0.3691258 0.299682
0.6571640625 0.4457001 0.1788307
0.6583125 0.484307 0.0392337
0.6594609375 0.4798592 -0.1070511
0.660609375 0.4325025 -0.2472394
0.6617578125 0.3456331 -0.3692221
0.66290625 0.2256989 -0.4625359
0.6640546875 0.08160666 -0.5185066
0.665203125 -0.07556683 -0.5318456
0.6663515625 -0.2343262 -0.4994638
0.6675 -0.3817813 -0.4219111
0.6686484375 -0.5058806 -0.3024543
0.669796875 -0.5957216 -0.1459345
0.6709453125 -0.6406633 0.03715869
0.67209375 -0.6321992 0.2376894
0.6732421875 -0.5639061 0.4395334
0.674390625 -0.4320037 0.6274347
0.6755390625 -0.2361053 0.7823049
0.6766875 0.01821873 0.8827834
0.6778359375 0.3200894 0.9066179
0.678984375 0.6518266 0.8320206
0.6801328125 0.9860925 0.6371369
0.68128125 1.285311 0.3028206
0.6824296875 1.495293 -0.1863993
0.683578125 1.536503 -0.8382102
0.6847265625 1.286615 -1.6284
0.685875 0.5454861 -2.452691
0.6870234375 -0.9253843 -2.926006
0.688171875 -2.909802 -2.136442
0.6893203125 -3.73049 0.3100868
0.69046875 -2.377496 2.297657
0.6916171875 -0.5991951 2.620584
0.692765625 0.5519113 2.097009
0.6939140625 1.118865 1.386649
0.6950625 1.310217 0.7294994
0.6962109375 1.276717 0.1890939
0.697359375 1.10992 -0.2240668
0.6985078125 0.8682342 -0.5154098
0.69965625 0.5915746 -0.6950927
0.7008046875 0.3090547 -0.7762779
0.701953125 0.04264038 -0.7714648
0.7031015625 -0.1902464 -0.6951993
0.70425 -0.3766212 -0.5635607
0.7053984375 -0.5072845 -0.3936068
0.706546875 -0.5771532 -0.202481
0.7076953125 -0.5856199 -0.008526975
0.70884375 -0.5369517 0.1713052
0.7099921875 -0.4391239 0.3223246
0.711140625 -0.3041089 0.4323648
0.7122890625 -0.1463893 0.4935799
0.7134375 0.01822882 0.5031246
0.7145859375 0.1748614 0.4621582
0.715734375 0.3085014 0.3770089
0.7168828125 0.4079408 0.2571166
0.71803125 0.4657324 0.1137866
0.7191796875 0.4778103 -0.0397443
0.720328125 0.4428569 -0.1897798
0.7214765625 0.364107 -0.3236721
0.722625 0.2473613 -0.4297025
0.7237734375 0.1011652 -0.4977167
0.724921875 -0.06359955 -0.5199666
0.7260703125 -0.2346116 -0.4914882
0.72721875 -0.3972254 -0.4096622
0.7283671875 -0.536091 -0.274927
0.729515625 -0.6355017 -0.09284478
0.7306640625 -0.6784186 0.1280832
0.7318125 -0.6498627 0.3746293
0.7329609375 -0.5362957 0.6250629
0.734109375 -0.3260909 0.8560528
0.7352578125 -0.01184288 1.033536
0.73640625 0.4083038 1.11424
0.7375546875 0.9267461 1.038073
0.738703125 1.514301 0.714385
0.7398515625 2.076317 -0.000280642
0.741 2.31094 -1.301319
0.7421484375 1.379329 -3.076915
0.743296875 -1.34253 -3.553515
0.7444453125 -3.108227 -1.405903
0.74559375 -2.640089 0.566143
0.7467421875 -1.599863 1.400589
0.747890625 -0.7052372 1.572955
0.7490390625 -0.04557985 1.387177
0.7501875 0.386603 1.130762
0.7513359375 0.657794 0.8212247
0.752484375 0.7996216 0.5021974
0.7536328125 0.8372756 0.1988528
0.75478125 0.7907269 -0.07031495
0.7559296875 0.6803834 -0.2931097
0.757078125 0.5236461 -0.4614109
0.7582265625 0.3378387 -0.5703772
0.759375 0.1397829 -0.6185954
0.7605234375 -0.0544237 -0.6076779
0.761671875 -0.2300048 -0.5434514
0.7628203125 -0.3740408 -0.4343536
0.76396875 -0.4766906 -0.2919219
0.7651171875 -0.531055 -0.1298679
0.766265625 -0.5346955 0.03713414
0.7674140625 -0.4900194 0.1943655
0.7685625 -0.4024814 0.3285588
0.7697109375 -0.281524 0.429471
0.770859375 -0.1384191 0.4892926
0.7720078125 0.01379886 0.5049697
0.77315625 0.1626085 0.4760447
0.7743046875 0.2958395 0.4065567
0.775453125 0.4036386 0.3021495
0.7766015625 0.4771761 0.1715063
0.77775 0.5117667 0.02452774
0.7788984375 0.503493 -0.1277517
0.780046875 0.4521452 -0.274085
0.7811953125 0.3606258 -0.4031647
0.78234375 0.2328523 -0.5043879
0.7834921875 0.07693969 -0.5677546
0.784640625 -0.09710582 -0.5856798
0.7857890625 -0.2767782 -0.5517994
0.7869375 -0.4476935 -0.464869
0.7880859375 -0.5941114 -0.324543
0.789234375 -0.700018 -0.1374398
0.7903828125 -0.7509083 0.08629405
0.79153125 -0.7320116 0.331403
0.7926796875 -0.6361344 0.5787297
0.793828125 -0.4573129 0.8049276
0.7949765625 -0.19691 0.9835233
0.796125 0.1375352 1.088301
0.7972734375 0.5317605 1.089119
0.798421875 0.9644402 0.9551657
0.7995703125 1.400977 0.6484506
0.80071875 1.786696 0.1233276
0.8018671875 2.016393 -0.6754568
0.803015625 1.868885 -1.788167
0.8041640625 0.9065116 -3.050225
0.8053125 -1.269578 -3.547399
0.8064609375 -3.395487 -1.889958
0.807609375 -3.344481 0.5737643
0.8087578125 -2.04176 1.83193
0.80990625 -0.8087803 2.059477
0.8110546875 0.05879726 1.82374
0.812203125 0.6061552 1.418381
0.8133515625 0.912207 0.9719144
0.8145 1.04032 0.5418814
0.8156484375 1.035754 0.1589581
0.816796875 0.9339982 -0.1602318
0.8179453125 0.7641988 -0.4056203
0.81909375 0.5528653 -0.5734339
0.8202421875 0.3239825 -0.6632721
0.821390625 0.09812629 -0.6811222
0.8225390625 -0.1068343 -0.6357198
0.8236875 -0.2768596 -0.5391653
0.8248359375 -0.4026444 -0.4064844
0.825984375 -0.4795278 -0.2527901
0.8271328125 -0.5068685 -0.09349067
0.82828125 -0.4880363 0.05818038
0.8294296875 -0.4302467 0.1913783
0.830578125 -0.341077 0.2972801
0.8317265625 -0.2306157 0.3702221
0.832875 -0.1088682 0.4080536
0.8340234375 0.01422845 0.4098712
0.835171875 0.1294616 0.3785993
0.8363203125 0.2291955 0.3178384
0.83746875 0.30638 0.2332388
0.8386171875 0.356301 0.1318712
0.839765625 0.3755493 0.02145604
0.8409140625 0.3625463 -0.0889977
0.8420625 0.3187279 -0.1911421
0.8432109375 0.2472192 -0.2766616
0.844359375 0.1536575 -0.3381289
0.8455078125 0.04557284 -0.3698805
0.84665625 -0.06820341 -0.3681343
0.8478046875 -0.1774855 -0.332548
0.848953125 -0.2721262 -0.2650821
0.8501015625 -0.3433449 -0.1715479
0.85125 -0.3837213 -0.05954917
0.8523984375 -0.3890621 0.06119869
0.853546875 -0.3574164 0.1799305
0.8546953125 -0.2910506 0.2857666
0.85584375 -0.1941656 0.3690417
0.8569921875 -0.07423966 0.4217699
0.858140625 0.05997638 0.4375256
0.8592890625 0.197997 0.4129687
0.8604375 0.3289713 0.3465818
0.8615859375 0.441276 0.2397712
0.862734375 0.5232472 0.0963821
0.8638828125 0.5629513 -0.07782298
0.86503125 0.5498699 -0.2727291
0.8661796875 0.4719588 -0.4758863
0.867328125 0.318682 -0.669827
0.8684765625 0.07977924 -0.829832
0.869625 -0.2526826 -0.9204164
0.8707734375 -0.6788794 -0.8851234
0.871921875 -1.174774 -0.632852
0.8730703125 -1.628164 -0.02538815
0.87421875 -1.691496 1.041036
0.8753671875 -0.7580742 2.138315
0.876515625 0.8498042 2.061242
0.8776640625 1.654478 0.9375627
0.8788125 1.538375 -0.06249383
0.8799609375 1.088679 -0.6160195
0.881109375 0.6139655 -0.837642
0.8822578125 0.2107497 -0.8556851
0.88340625 -0.09835289 -0.7567776
0.8845546875 -0.3139207 -0.5942579
0.885703125 -0.4444192 -0.404201
0.8868515625 -0.5014372 -0.2111547
0.888 -0.4972973 -0.0321805
0.8891484375 -0.4451072 0.120892
0.890296875 -0.357644 0.240321
0.8914453125 -0.2471708 0.3220363
0.89259375 -0.1258653 0.3644781
0.8937421875 -0.004247629 0.3689232
0.894890625 0.1080634 0.338608
0.8960390625 0.2027979 0.2785741
0.8971875 0.2730858 0.1956955
0.8983359375 0.314368 0.09760618
0.899484375 0.3240174 -0.006185749
0.9006328125 0.3021138 -0.1070092
0.90178125 0.2509134 -0.195618
0.9029296875 0.1754567 -0.2639039
0.904078125 0.08276122 -0.3055491
0.9052265625 -0.01826105 -0.3167279
0.906375 -0.1180735 -0.2959701
0.9075234375 -0.2070637 -0.2453588
0.908671875 -0.276588 -0.1690461
0.9098203125 -0.3195377 -0.0744858
0.91096875 -0.3318334 0.02991416
0.9121171875 -0.3116569 0.1346999
0.913265625 -0.2599468 0.230216
0.9144140625 -0.1804846 0.3077678
0.9155625 -0.07852381 0.3592023
0.9167109375 0.03773363 0.3793259
0.917859375 0.1594905 0.363541
0.9190078125 0.2766414 0.3101589
0.92015625 0.3786052 0.2201835
0.9213046875 0.454312 0.09678981
0.922453125 0.4928113 -0.05404433
0.9236015625 0.4843933 -0.2228123
0.92475 0.420009 -0.3967585
0.9258984375 0.2936623 -0.5591187
0.927046875 0.1020907 -0.6887631
0.9281953125 -0.153098 -0.7605464
0.92934375 -0.4601442 -0.7432457
0.9304921875 -0.7961059 -0.5989516
0.931640625 -1.114099 -0.2870354
0.9327890625 -1.323797 0.2285105
0.9339375 -1.266772 0.9373971
0.9350859375 -0.7258914 1.673954
0.936234375 0.3536611 1.982727
0.9373828125 1.453301 1.427699
0.93853125 1.85006 0.3412699
0.9396796875 1.540712 -0.5647836
0.940828125 0.9558923 -1.031298
0.9419765625 0.3840387 -1.14647
0.943125 -0.07052197 -1.04939
0.9442734375 -0.3894372 -0.8415267
0.945421875 -0.5850881 -0.5869804
0.9465703125 -0.6753408 -0.3252214
0.94771875 -0.6808646 -0.08129665
0.9488671875 -0.6204983 0.1284817
0.950015625 -0.5115995 0.2947957
0.9511640625 -0.3710004 0.4123187
0.9523125 -0.2137073 0.4790782
0.9534609375 -0.05427147 0.4962468
0.954609375 0.0954249 0.4678156
0.9557578125 0.2241357 0.400203
0.95690625 0.3234359 0.3022262
0.9580546875 0.3871314 0.1838132
0.959203125 0.4123149 0.05609847
0.9603515625 0.3991437 -0.06959109
0.9615 0.3506453 -0.1824989
0.9626484375 0.2733715 -0.2736086
0.963796875 0.1746405 -0.3363612
0.9649453125 0.06448957 -0.3662836
0.96609375 -0.04737144 -0.3629873
0.9672421875 -0.1512254 -0.3275735
0.968390625 -0.2387775 -0.2648986
0.9695390625 -0.3035466 -0.1805475
0.9706875 -0.3410975 -0.08242514
0.9718359375 -0.3492531 0.02129927
0.972984375 -0.3273853 0.1225523
0.9741328125 -0.2779546 0.2135178
0.97528125 -0.2047903 0.2874014
0.9764296875 -0.1128352 0.338031
0.977578125 -0.009132376 0.3610286
0.9787265625 0.09881748 0.3536592
0.979875 0.2024645 0.3154461
0.9810234375 0.2935365 0.2476417
0.982171875 0.3635299 0.1539583
0.9833203125 0.4050539 0.03994023
0.98446875 0.4122938 -0.0857425
0.9856171875 0.3816069 -0.2135754
0.986765625 0.3114551 -0.3320247
0.9879140625 0.2050343 -0.4295634
0.9890625 0.06741476 -0.4950289
0.9902109375 -0.0923021 -0.5179158
0.991359375 -0.2618754 -0.491203
0.9925078125 -0.4267385 -0.4102153
0.99365625 -0.5709773 -0.2743965
0.9948046875 -0.6768137 -0.08693504
0.995953125 -0.7275537 0.1446208
0.9971015625 -0.7045248 0.4085438
0.99825 -0.5891939 0.6869591
0.9993984375 -0.3615499 0.9546993
1.000546875 0.001055293 1.171537
1.0016953125 0.5189063 1.268695
