# GHZ S RI R 50.0
0.3 -4.468587 -6.972448
0.3011484375 -9.259334 -1.908154
0.302296875 -6.778368 4.760408
0.3034453125 -1.946721 5.936142
0.30459375 0.8041991 4.619812
0.3057421875 1.993205 3.058887
0.306890625 2.369463 1.758298
0.3080390625 2.344167 0.7545738
0.3091875 2.109731 0.007054995
0.3103359375 1.770907 -0.5335929
0.311484375 1.38172 -0.9083065
0.3126328125 0.9761613 -1.145028
0.31378125 0.5731342 -1.265711
0.3149296875 0.1879353 -1.286744
0.316078125 -0.169498 -1.219732
0.3172265625 -0.48396 -1.073691
0.318375 -0.7426652 -0.8600191
0.3195234375 -0.9322355 -0.58878
0.320671875 -1.037267 -0.2791144
0.3218203125 -1.046622 0.04531924
0.32296875 -0.9577333 0.3544629
0.3241171875 -0.7793869 0.615616
0.325265625 -0.5322596 0.8016176
0.3264140625 -0.248184 0.8944231
0.3275625 0.03723097 0.8909432
0.3287109375 0.2928264 0.8030283
0.329859375 0.4963959 0.650584
0.3310078125 0.6368797 0.4574372
0.33215625 0.7116169 0.2455146
0.3333046875 0.7246237 0.03525851
0.334453125 0.6840343 -0.1609999
0.3356015625 0.5987863 -0.332657
0.33675 0.4776199 -0.4726363
0.3378984375 0.3291008 -0.5764429
0.339046875 0.1615513 -0.6403201
0.3401953125 -0.01643239 -0.6615602
0.34134375 -0.1971581 -0.6379688
0.3424921875 -0.369556 -0.5685586
0.343640625 -0.5239975 -0.4531833
0.3447890625 -0.6474749 -0.2943178
0.3459375 -0.726252 -0.09824755
0.3470859375 -0.7468433 0.1238722
0.348234375 -0.6984136 0.3538909
0.3493828125 -0.5756912 0.5689636
0.35053125 -0.3825665 0.7417548
0.3516796875 -0.1345598 0.8485629
0.352828125 0.1430268 0.8692985
0.3539765625 0.4187343 0.7980419
0.355125 0.6615561 0.640756
0.3562734375 0.8458613 0.4122382
0.357421875 0.9545449 0.1367402
0.3585703125 0.9789332 -0.1647554
0.35971875 0.9159026 -0.4688483
0.3608671875 0.7670912 -0.7546534
0.362015625 0.535013 -1.003545
0.3631640625 0.2228743 -1.196858
0.3643125 -0.1657796 -1.313104
0.3654609375 -0.6279837 -1.32323
0.366609375 -1.154214 -1.183796
0.3677578125 -1.720797 -0.8289391
0.36890625 -2.260206 -0.159275
0.3700546875 -2.581373 0.9638993
0.371203125 -2.215604 2.583776
0.3723515625 -0.3782824 4.054705
0.3735 2.504265 3.534716
0.3746484375 3.783993 1.009042
0.375796875 3.060302 -1.059045
0.3769453125 1.765724 -1.962861
0.37809375 0.6182957 -2.091568
0.3792421875 -0.2285538 -1.820244
0.380390625 -0.7720222 -1.36437
0.3815390625 -1.053813 -0.8548239
0.3826875 -1.126938 -0.3720276
0.3838359375 -1.047583 0.03616292
0.384984375 -0.8673445 0.3454854
0.3861328125 -0.6327617 0.5513084
0.38728125 -0.380291 0.6593134
0.3884296875 -0.1365046 0.6833495
0.389578125 0.08037665 0.6393721
0.3907265625 0.2585406 0.5434904
0.391875 0.3924023 0.4105709
0.3930234375 0.4769997 0.2560202
0.394171875 0.5134727 0.09089872
0.3953203125 0.502584 -0.07286399
0.39646875 0.4464605 -0.2235047
0.3976171875 0.3497333 -0.3520186
0.398765625 0.2182032 -0.447015
0.3999140625 0.06044024 -0.4992865
0.4010625 -0.1106978 -0.500571
0.4022109375 -0.2800806 -0.4454058
0.403359375 -0.4287958 -0.3329602
0.4045078125 -0.5370776 -0.1697756
0.40565625 -0.5852798 0.03030562
0.4068046875 -0.5607357 0.2457477
0.407953125 -0.4578533 0.4487711
0.4091015625 -0.2817169 0.6120078
0.41025 -0.04967549 0.7091747
0.4113984375 0.2168767 0.7231218
0.412546875 0.4893605 0.642756
0.4136953125 0.7392046 0.464551
0.41484375 0.936803 0.190924
0.4159921875 1.048927 -0.1739138
0.417140625 1.03636 -0.6151816
0.4182890625 0.8387262 -1.114022
0.4194375 0.3752564 -1.609811
0.4205859375 -0.4650833 -1.940373
0.421734375 -1.682685 -1.731508
0.4228828125 -2.737978 -0.4812316
0.42403125 -2.495583 1.373438
0.4251796875 -1.078653 2.345878
0.426328125 0.2568262 2.188608
0.4274765625 1.041277 1.557766
0.428625 1.368955 0.8582959
0.4297734375 1.4011 0.2387959
0.430921875 1.245221 -0.2568021
0.4320703125 0.9758006 -0.616326
0.43321875 0.6444311 -0.8386096
0.4343671875 0.2975999 -0.9315247
0.435515625 -0.02896706 -0.9084004
0.4366640625 -0.3049297 -0.7920294
0.4378125 -0.5113607 -0.6090435
0.4389609375 -0.6383842 -0.3889409
0.440109375 -0.6865855 -0.1589223
0.4412578125 -0.6641816 0.05770644
0.44240625 -0.5849006 0.2439807
0.4435546875 -0.4633636 0.3891046
0.444703125 -0.3146403 0.4876128
0.4458515625 -0.1536505 0.5381005
0.447 0.007748798 0.5431594
0.4481484375 0.1586567 0.5057709
0.449296875 0.2905283 0.4316448
0.4504453125 0.3962667 0.3273423
0.45159375 0.4696546 0.1995675
0.4527421875 0.5060949 0.05756208
0.453890625 0.5026231 -0.09024961
0.4550390625 0.4580843 -0.2331544
0.4561875 0.3737934 -0.3600063
0.4573359375 0.2541038 -0.4597258
0.458484375 0.1071637 -0.5212639
0.4596328125 -0.05498654 -0.5366141
0.46078125 -0.2181675 -0.5011377
0.4619296875 -0.3640195 -0.4159853
0.463078125 -0.4784006 -0.2881788
0.4642265625 -0.5477101 -0.1298027
0.465375 -0.5654937 0.04245576
0.4665234375 -0.5294524 0.212301
0.467671875 -0.4447102 0.362509
0.4688203125 -0.3194692 0.4815392
0.46996875 -0.1666773 0.5583684
0.4711171875 0.002096975 0.5893905
0.472265625 0.1735836 0.5726353
0.4734140625 0.3353752 0.5092346
0.4745625 0.4771675 0.4035267
0.4757109375 0.5893138 0.2602966
0.476859375 0.661944 0.08681
0.4780078125 0.688402 -0.1080458
0.47915625 0.6609356 -0.3138899
0.4803046875 0.5744944 -0.5175462
0.481453125 0.4269413 -0.7029978
0.4826015625 0.217782 -0.8532897
0.48375 -0.04785524 -0.9476194
0.4848984375 -0.3578752 -0.9646629
0.486046875 -0.6935362 -0.8832402
0.4871953125 -1.026158 -0.6853821
0.48834375 -1.318151 -0.3592981
0.4894921875 -1.52235 0.09799546
0.490640625 -1.582665 0.6761146
0.4917890625 -1.431164 1.347087
0.4929375 -0.9850437 2.057317
0.4940859375 -0.1454362 2.692338
0.495234375 1.213322 3.016548
0.4963828125 3.068858 2.510401
0.49753125 4.678881 0.389417
0.4986796875 4.078482 -2.846265
0.499828125 1.25604 -4.311922
0.5009765625 -1.064045 -3.539524
0.502125 -2.082439 -2.153399
0.5032734375 -2.286196 -0.9402251
0.504421875 -2.087822 -0.03869597
0.5055703125 -1.708798 0.5847515
0.50671875 -1.258018 0.9781773
0.5078671875 -0.7924753 1.190524
0.509015625 -0.3480341 1.254344
0.5101640625 0.0506918 1.197324
0.5113125 0.3870207 1.045087
0.5124609375 0.6442515 0.8220394
0.513609375 0.815826 0.5519396
0.5147578125 0.8964166 0.2611822
0.51590625 0.8881353 -0.02545805
0.5170546875 0.7987402 -0.2833732
0.518203125 0.6434662 -0.492212
0.5193515625 0.441946 -0.6372382
0.5205 0.2171739 -0.7110295
0.5216484375 -0.008367535 -0.7136388
0.522796875 -0.2145458 -0.6521735
0.5239453125 -0.3854114 -0.5380812
0.52509375 -0.5101018 -0.3860351
0.5262421875 -0.5831491 -0.2119274
0.527390625 -0.603252 -0.03121117
0.5285390625 -0.5729956 0.1425459
0.5296875 -0.4975759 0.2969092
0.5308359375 -0.3852135 0.4226014
0.531984375 -0.2442761 0.5115758
0.5331328125 -0.08522105 0.558274
0.53428125 0.08094782 0.5595574
0.5354296875 0.2424755 0.5145787
0.536578125 0.3872267 0.424771
0.5377265625 0.5032827 0.29533
0.538875 0.5797032 0.1335203
0.5400234375 0.6065758 -0.04942001
0.541171875 0.5776417 -0.2380261
0.5423203125 0.4906448 -0.4166139
0.54346875 0.3475524 -0.566725
0.5446171875 0.1576752 -0.6707719
0.545765625 -0.06537633 -0.713263
0.5469140625 -0.3017963 -0.6838045
0.5480625 -0.5297666 -0.5773016
0.5492109375 -0.725305 -0.3956866
0.550359375 -0.8647423 -0.146121
0.5515078125 -0.9261346 0.1571795
0.55265625 -0.887804 0.4948717
0.5538046875 -0.7300496 0.8419202
0.554953125 -0.4324292 1.163659
0.5561015625 0.02742776 1.408032
0.55725 0.6669258 1.490926
0.5583984375 1.466146 1.255985
0.559546875 2.265049 0.46673
0.5606953125 2.500993 -1.033153
0.56184375 1.389252 -2.540359
0.5629921875 -0.4904056 -2.657617
0.564140625 -1.628314 -1.616716
0.5652890625 -1.833961 -0.4917474
0.5664375 -1.555235 0.30804
0.5675859375 -1.103144 0.7786767
0.568734375 -0.6243548 0.991872
0.5698828125 -0.187211 1.018304
0.57103125 0.1725912 0.9111474
0.5721796875 0.4394619 0.7175611
0.573328125 0.6064237 0.4754379
0.5744765625 0.6774908 0.2193873
0.575625 0.6632329 -0.02280553
0.5767734375 0.5779818 -0.2297407
0.577921875 0.4429055 -0.3862886
0.5790703125 0.2765111 -0.4849571
0.58021875 0.09891757 -0.5252525
0.5813671875 -0.07306317 -0.5096662
0.582515625 -0.22514 -0.4457465
0.5836640625 -0.346349 -0.3430782
0.5848125 -0.4294984 -0.212863
0.5859609375 -0.4699842 -0.06706674
0.587109375 -0.4659158 0.08256759
0.5882578125 -0.4184282 0.2243226
0.58940625 -0.3313681 0.3464908
0.5905546875 -0.2105998 0.4393478
0.591703125 -0.0646304 0.4937439
0.5928515625 0.09530328 0.5025508
0.594 0.2561218 0.4620125
0.5951484375 0.4029553 0.371513
0.596296875 0.5207222 0.2345578
0.5974453125 0.5944999 0.06005111
0.59859375 0.6118215 -0.1389467
0.5997421875 0.5645109 -0.3450332
0.600890625 0.449264 -0.5373985
0.6020390625 0.2688231 -0.6942865
0.6031875 0.03323267 -0.7953147
0.6043359375 -0.2422538 -0.8211191
0.605484375 -0.5367542 -0.7564641
0.6066328125 -0.8248398 -0.5900043
0.60778125 -1.076564 -0.3145779
0.6089296875 -1.255082 0.07453248
0.610078125 -1.311784 0.5747226
0.6112265625 -1.17828 1.174838
0.612375 -0.747097 1.827768
0.6135234375 0.1343516 2.387668
0.614671875 1.579194 2.446897
0.6158203125 3.1621 1.279946
0.61696875 3.396035 -1.048735
0.6181171875 1.856056 -2.625849
0.619265625 0.1474312 -2.694498
0.6204140625 -0.916453 -2.044626
0.6215625 -1.407055 -1.259155
0.6227109375 -1.526657 -0.5514125
0.623859375 -1.421983 0.02263383
0.6250078125 -1.182505 0.4498257
0.62615625 -0.8702256 0.737083
0.6273046875 -0.5313924 0.8918534
0.628453125 -0.1997175 0.9316095
0.6296015625 0.09704595 0.8755842
0.63075 0.3404681 0.7447415
0.6318984375 0.5170749 0.5639234
0.633046875 0.6242681 0.3555595
0.6341953125 0.6622897 0.141633
0.63534375 0.6382238 -0.05988402
0.6364921875 0.5625885 -0.2345458
0.637640625 0.4478874 -0.371951
0.6387890625 0.3063753 -0.4668761
0.6399375 0.1525679 -0.515846
0.6410859375 -0.002706331 -0.5204358
0.642234375 -0.1478515 -0.4836853
0.6433828125 -0.2736623 -0.4110785
0.64453125 -0.372345 -0.3089452
0.6456796875 -0.4379913 -0.1860816
0.646828125 -0.4671337 -0.05174495
0.6479765625 -0.4575126 0.08429766
0.649125 -0.4104908 0.2119214
0.6502734375 -0.3301512 0.3203131
0.651421875 -0.2218627 0.4015368
0.6525703125 -0.09440286 0.4485478
0.65371875 0.04153236 0.4564953
0.6548671875 0.1744022 0.4245405
0.656015625 0.2927795 0.3545249
0.6571640625 0.384928 0.2530518
0.6583125 0.4437994 0.1285309
0.6594609375 0.4635349 -0.007969956
0.660609375 0.4429058 -0.1447152
0.6617578125 0.3831301 -0.269783
0.66290625 0.2898337 -0.3727972
0.6640546875 0.17034 -0.4455146
0.665203125 0.03403106 -0.4816118
0.6663515625 -0.1084781 -0.4777941
0.6675 -0.2464605 -0.43392
0.6686484375 -0.3693855 -0.3516098
0.669796875 -0.4670395 -0.2357251
0.6709453125 -0.5306414 -0.09258966
0.67209375 -0.5529863 0.06759688
0.6732421875 -0.5284582 0.2347601
0.674390625 -0.4547143 0.3956868
0.6755390625 -0.3321613 0.5368593
0.6766875 -0.1651245 0.6422936
0.6778359375 0.03746733 0.6985981
0.678984375 0.2624163 0.6937376
0.6801328125 0.4919428 0.6173016
0.68128125 0.7044457 0.4652211
0.6824296875 0.8756673 0.238423
0.683578125 0.9799938 -0.05495098
0.6847265625 0.9920005 -0.3990511
0.685875 0.8872907 -0.7701201
0.6870234375 0.6438747 -1.134084
0.688171875 0.2407723 -1.446419
0.6893203125 -0.3335143 -1.640416
0.69046875 -1.081988 -1.613057
0.6916171875 -1.949749 -1.203141
0.692765625 -2.715982 -0.1864773
0.6939140625 -2.788016 1.502427
0.6950625 -1.445378 3.081661
0.6962109375 0.6777176 3.1625
0.697359375 1.997265 1.952661
0.6985078125 2.247183 0.6253889
0.69965625 1.925736 -0.326874
0.7008046875 1.402199 -0.8900438
0.701953125 0.8522915 -1.159051
0.7031015625 0.3509617 -1.218255
0.70425 -0.07057235 -1.131099
0.7053984375 -0.3971516 -0.9458242
0.706546875 -0.6243533 -0.7006233
0.7076953125 -0.7530581 -0.426976
0.70884375 -0.7896955 -0.1529647
0.7099921875 -0.7461129 0.09893073
0.711140625 -0.6361809 0.3102155
0.7122890625 -0.4783531 0.4672341
0.7134375 -0.2915079 0.5637428
0.7145859375 -0.09613042 0.5967262
0.715734375 0.09043761 0.5712957
0.7168828125 0.2529506 0.4947017
0.71803125 0.3798684 0.3781866
0.7191796875 0.4630308 0.2349965
0.720328125 0.4990573 0.07833862
0.7214765625 0.4879763 -0.07683349
0.722625 0.4328761 -0.2192952
0.7237734375 0.3401944 -0.33772
0.724921875 0.2176753 -0.4231385
0.7260703125 0.07648933 -0.4686237
0.72721875 -0.07300933 -0.4706893
0.7283671875 -0.2181192 -0.4282341
0.729515625 -0.3462871 -0.3428707
0.7306640625 -0.4455525 -0.2201185
0.7318125 -0.5047784 -0.06904396
0.7329609375 -0.5157227 0.09928412
0.734109375 -0.4726624 0.2700991
0.7352578125 -0.3742862 0.4266901
0.73640625 -0.2240934 0.5513374
0.7375546875 -0.03073751 0.627709
0.738703125 0.1918216 0.6400983
0.7398515625 0.4243991 0.5767815
0.741 0.644688 0.4308707
0.7421484375 0.8250617 0.1991034
0.743296875 0.934777 -0.1142623
0.7444453125 0.9368199 -0.5000542
0.74559375 0.7852581 -0.936786
0.7467421875 0.4121215 -1.378259
0.747890625 -0.2678334 -1.716225
0.7490390625 -1.267691 -1.614669
0.7501875 -2.384545 -0.7233067
0.7513359375 -2.503576 1.119908
0.752484375 -1.060454 2.328278
0.7536328125 0.4179493 2.096135
0.75478125 1.145221 1.317112
0.7559296875 1.33067 0.574181
0.757078125 1.233778 0.002700646
0.7582265625 1.000022 -0.396109
0.759375 0.7067125 -0.6439074
0.7605234375 0.3995871 -0.7665154
0.761671875 0.1077697 -0.7849497
0.7628203125 -0.14642 -0.7192128
0.76396875 -0.3501789 -0.5908494
0.7651171875 -0.4932078 -0.4202707
0.766265625 -0.5715899 -0.2271473
0.7674140625 -0.586447 -0.03141434
0.7685625 -0.5435696 0.1496084
0.7697109375 -0.4522838 0.3016204
0.770859375 -0.3255338 0.414159
0.7720078125 -0.1762675 0.48099
0.77315625 -0.01967834 0.4999769
0.7743046875 0.1314394 0.4730365
0.775453125 0.2643794 0.4047767
0.7766015625 0.370161 0.3032725
0.77775 0.4414048 0.1770727
0.7788984375 0.4735103 0.03698856
0.780046875 0.4642463 -0.1061185
0.7811953125 0.4145362 -0.2412199
0.78234375 0.3275369 -0.3577459
0.7834921875 0.2095052 -0.4460316
0.784640625 0.06807218 -0.4978796
0.7857890625 -0.08598701 -0.5071576
0.7869375 -0.2407482 -0.4705191
0.7880859375 -0.3826402 -0.3874954
0.789234375 -0.4984674 -0.2624429
0.7903828125 -0.5755438 -0.1021738
0.79153125 -0.6029243 0.08093652
0.7926796875 -0.5733944 0.2730914
0.793828125 -0.4839888 0.4566114
0.7949765625 -0.3363954 0.6137041
0.796125 -0.1381836 0.7261416
0.7972734375 0.09928951 0.7784495
0.798421875 0.3591032 0.7571631
0.7995703125 0.6214699 0.6530965
0.80071875 0.8632497 0.4596895
0.8018671875 1.058089 0.1756179
0.803015625 1.17433 -0.1974292
0.8041640625 1.172431 -0.6521561
0.8053125 1.000866 -1.169027
0.8064609375 0.5835826 -1.705456
0.807609375 -0.1852336 -2.147592
0.8087578125 -1.393187 -2.215787
0.80990625 -2.832036 -1.348706
0.8110546875 -3.387201 0.7397137
0.812203125 -2.062058 2.590863
0.8133515625 -0.1836634 2.818739
0.8145 1.001761 2.095272
0.8156484375 1.48871 1.215926
0.816796875 1.55281 0.4618902
0.8179453125 1.389528 -0.110757
0.81909375 1.108539 -0.5085449
0.8202421875 0.7778644 -0.7527588
0.821390625 0.4413778 -0.8661695
0.8225390625 0.1295943 -0.8723443
0.8236875 -0.1377289 -0.79456
0.8248359375 -0.3471711 -0.6564423
0.825984375 -0.4925131 -0.4802359
0.8271328125 -0.5730599 -0.2872568
0.82828125 -0.5926566 -0.09559706
0.8294296875 -0.5594232 0.08058805
0.830578125 -0.4830549 0.2291292
0.8317265625 -0.3745506 0.3432208
0.832875 -0.245979 0.4180243
0.8340234375 -0.109042 0.4522412
0.835171875 0.0261095 0.4472157
0.8363203125 0.1496024 0.406588
0.83746875 0.2533847 0.3360068
0.8386171875 0.3315763 0.2416665
0.839765625 0.379038 0.1318479
0.8409140625 0.393531 0.01535175
0.8420625 0.375021 -0.09883736
0.8432109375 0.3252312 -0.2018893
0.844359375 0.2483603 -0.2856098
0.8455078125 0.1514118 -0.3433881
0.84665625 0.04231348 -0.3698634
0.8478046875 -0.06931977 -0.363284
0.848953125 -0.1735823 -0.3245158
0.8501015625 -0.2615147 -0.2565815
0.85125 -0.3252558 -0.1662081
0.8523984375 -0.3594338 -0.06118761
0.853546875 -0.3610799 0.04891763
0.8546953125 -0.330493 0.1544017
0.85584375 -0.2704864 0.2462788
0.8569921875 -0.1862259 0.3172168
0.858140625 -0.08487174 0.3610182
0.8592890625 0.02603918 0.3741374
0.8604375 0.1372919 0.3550584
0.8615859375 0.2404235 0.3041993
0.862734375 0.3271611 0.2247073
0.8638828125 0.3895863 0.1209213
0.86503125 0.4215132 -0.0004176508
0.8661796875 0.4173514 -0.1313072
0.867328125 0.3742717 -0.2616052
0.8684765625 0.2912039 -0.3810777
0.869625 0.169616 -0.4775898
0.8707734375 0.01445346 -0.5385196
0.871921875 -0.1665512 -0.5522262
0.8730703125 -0.3598208 -0.5074901
0.87421875 -0.549162 -0.395449
0.8753671875 -0.7133159 -0.2104982
0.876515625 -0.8246251 0.04918649
0.8776640625 -0.8493627 0.3776275
0.8788125 -0.7441863 0.7582495
0.8799609375 -0.4523416 1.149918
0.881109375 0.09660628 1.459262
0.8822578125 0.9381615 1.471919
0.88340625 1.860942 0.8257419
0.8845546875 2.110331 -0.5371605
0.885703125 1.227526 -1.624464
0.8868515625 0.08032442 -1.724006
0.888 -0.6367758 -1.266806
0.8891484375 -0.9284791 -0.717976
0.890296875 -0.958096 -0.2484171
0.8914453125 -0.8444144 0.104684
0.89259375 -0.6602445 0.3463613
0.8937421875 -0.4474623 0.4907848
0.894890625 -0.2328856 0.5527532
0.8960390625 -0.03475706 0.5468695
0.8971875 0.1344845 0.4881071
0.8983359375 0.2658841 0.3898735
0.899484375 0.3547696 0.2659316
0.9006328125 0.3988019 0.1300835
0.90178125 0.3992847 -0.004926682
0.9029296875 0.3601579 -0.1274436
0.904078125 0.2884751 -0.2273331
0.9052265625 0.1930863 -0.2973659
0.906375 0.08472708 -0.3330203
0.9075234375 -0.02583094 -0.3333349
0.908671875 -0.1281462 -0.3000474
0.9098203125 -0.2126659 -0.2385516
0.91096875 -0.2728238 -0.1556129
0.9121171875 -0.304045 -0.06021043
0.913265625 -0.3046811 0.03855244
0.9144140625 -0.2754737 0.1318775
0.9155625 -0.2197565 0.2114252
0.9167109375 -0.1428721 0.2706581
0.917859375 -0.0516149 0.3043955
0.9190078125 0.04659908 0.3091311
0.92015625 0.1435052 0.2842192
0.9213046875 0.2305523 0.2304992
0.922453125 0.2996196 0.1509552
0.9236015625 0.3431211 0.05088985
0.92475 0.355311 -0.06225078
0.9258984375 0.3315155 -0.1791259
0.927046875 0.2702409 -0.2893815
0.9281953125 0.1724824 -0.3810205
0.92934375 0.04264687 -0.4421204
0.9304921875 -0.1107645 -0.4613349
0.931640625 -0.2753372 -0.4289711
0.9327890625 -0.4352358 -0.3388203
0.9339375 -0.5705154 -0.1877139
0.9350859375 -0.659525 0.02088861
0.936234375 -0.6768303 0.2772585
0.9373828125 -0.5953802 0.5627784
0.93853125 -0.3868809 0.844433
0.9396796875 -0.02615273 1.063509
0.940828125 0.4929225 1.126396
0.9419765625 1.10572 0.8908035
0.943125 1.587332 0.23047
0.9442734375 1.553751 -0.7262607
0.945421875 0.8673883 -1.453104
0.9465703125 -0.03837217 -1.550231
0.94771875 -0.6928304 -1.175122
0.9488671875 -0.991179 -0.65307
0.950015625 -1.023715 -0.1723635
0.9511640625 -0.8952935 0.2005495
0.9523125 -0.6832272 0.4549131
0.9534609375 -0.4383645 0.6008756
0.954609375 -0.1927107 0.6532127
0.9557578125 0.03088787 0.6288374
0.95690625 0.2176523 0.5448873
0.9580546875 0.3574794 0.4188443
0.959203125 0.4453992 0.2673234
0.9603515625 0.4811506 0.1074005
0.9615 0.4675314 -0.0464553
0.9626484375 0.4112021 -0.181513
0.963796875 0.321708 -0.288005
0.9649453125 0.2093843 -0.3593129
0.96609375 0.0865726 -0.392548
0.9672421875 -0.03572464 -0.3879986
0.968390625 -0.1471203 -0.3493761
0.9695390625 -0.2392541 -0.2820472
0.9706875 -0.3061785 -0.1934246
0.9718359375 -0.3434758 -0.09199706
0.972984375 -0.3502598 0.01362363
0.9741328125 -0.3270469 0.1153213
0.97528125 -0.2764811 0.2050187
0.9764296875 -0.2031049 0.276382
0.977578125 -0.1127749 0.3238649
0.9787265625 -0.01244219 0.3439049
0.979875 0.08993997 0.3344327
0.9810234375 0.1865215 0.2959295
0.982171875 0.2690864 0.2301929
0.9833203125 0.3305153 0.1421798
0.98446875 0.3645101 0.03784606
0.9856171875 0.3668045 -0.0745308
0.986765625 0.3352115 -0.1853653
0.9879140625 0.2707161 -0.284969
0.9890625 0.1770001 -0.3632326
0.9902109375 0.06063421 -0.4119624
0.991359375 -0.06922975 -0.4244664
0.9925078125 -0.2019257 -0.397221
0.99365625 -0.3255787 -0.3297344
0.9948046875 -0.4282941 -0.2242379
0.995953125 -0.4988087 -0.08698349
0.9971015625 -0.5278037 0.07319477
0.99825 -0.5080905 0.2450818
0.9993984375 -0.4344369 0.4151126
1.000546875 -0.3050642 0.5685379
1.0016953125 -0.1203959 0.6882964
