# GHZ S RI R 50.0
0.3 -2.290153 -6.826149
0.3011484375 -7.736917 -4.719209
0.302296875 -8.918736 2.745992
0.3034453125 -3.667665 6.460643
0.30459375 0.2763793 5.490178
0.3057421875 1.975234 3.674713
0.306890625 2.521551 2.128642
0.3080390625 2.531575 0.9600807
0.3091875 2.287742 0.1091334
0.3103359375 1.924208 -0.4973451
0.311484375 1.507951 -0.9118957
0.3126328125 1.075251 -1.174564
0.31378125 0.6473949 -1.311564
0.3149296875 0.2391392 -1.341634
0.316078125 -0.1353744 -1.27773
0.3172265625 -0.4671476 -1.131638
0.318375 -0.7419986 -0.9142712
0.3195234375 -0.9442286 -0.6377288
0.320671875 -1.06005 -0.3202448
0.3218203125 -1.078055 0.01444647
0.32296875 -0.9940736 0.333595
0.3241171875 -0.8173528 0.6059436
0.325265625 -0.5695375 0.8023275
0.3264140625 -0.2820621 0.9042722
0.3275625 0.008878944 0.9089055
0.3287109375 0.271301 0.826169
0.329859375 0.4822579 0.6774744
0.3310078125 0.630565 0.4852245
0.33215625 0.7123613 0.273685
0.3333046875 0.7317844 0.06092977
0.334453125 0.6970594 -0.1382483
0.3356015625 0.6159796 -0.3137168
0.33675 0.4986182 -0.4585518
0.3378984375 0.3525633 -0.5677252
0.339046875 0.1871298 -0.6369485
0.3401953125 0.009774661 -0.6640226
0.34134375 -0.1710971 -0.6467408
0.3424921875 -0.3455679 -0.5836464
0.343640625 -0.5032545 -0.4744631
0.3447890625 -0.631591 -0.3214679
0.3459375 -0.7172251 -0.13035
0.3470859375 -0.7460577 0.08749691
0.348234375 -0.707873 0.3163732
0.3493828125 -0.5962545 0.5321969
0.35053125 -0.4147967 0.7100772
0.3516796875 -0.1775799 0.8244427
0.352828125 0.09080646 0.857454
0.3539765625 0.3605377 0.8014164
0.355125 0.6014755 0.6616051
0.3562734375 0.7884057 0.4520975
0.357421875 0.9056156 0.1958395
0.3585703125 0.9439915 -0.08651367
0.35971875 0.9013253 -0.3729757
0.3608671875 0.7799792 -0.6441211
0.362015625 0.5836008 -0.8826841
0.3631640625 0.3181103 -1.073677
0.3643125 -0.01302798 -1.200773
0.3654609375 -0.4013214 -1.243202
0.366609375 -0.8414643 -1.175143
0.3677578125 -1.318328 -0.9597298
0.36890625 -1.79944 -0.5433034
0.3700546875 -2.219101 0.1504662
0.371203125 -2.414481 1.218476
0.3723515625 -2.013751 2.704152
0.3735 -0.3167939 4.196512
0.3746484375 2.814828 3.97842
0.375796875 4.653018 0.9893373
0.3769453125 3.594233 -1.745265
0.37809375 1.729981 -2.705011
0.3792421875 0.2558157 -2.581107
0.380390625 -0.6818815 -2.027884
0.3815390625 -1.180275 -1.353742
0.3826875 -1.357585 -0.709739
0.3838359375 -1.314159 -0.1631464
0.384984375 -1.13002 0.2555245
0.3861328125 -0.8697745 0.5425576
0.38728125 -0.5800319 0.7097076
0.3884296875 -0.2941989 0.7741607
0.389578125 -0.03534382 0.7552158
0.3907265625 0.1838444 0.6732422
0.391875 0.3550141 0.5452089
0.3930234375 0.4750784 0.3869675
0.394171875 0.542623 0.2134425
0.3953203125 0.5594224 0.03569868
0.39646875 0.5272343 -0.1343462
0.3976171875 0.4496199 -0.2860371
0.398765625 0.3326035 -0.4078462
0.3999140625 0.1835087 -0.4905265
0.4010625 0.01462083 -0.524765
0.4022109375 -0.1614194 -0.5038038
0.403359375 -0.3253731 -0.4261068
0.4045078125 -0.4583061 -0.2945004
0.40565625 -0.5425154 -0.1205908
0.4068046875 -0.5623347 0.07767694
0.407953125 -0.5114532 0.2763056
0.4091015625 -0.391758 0.4493696
0.41025 -0.2155796 0.5742515
0.4113984375 -0.002481788 0.6341717
0.412546875 0.2258655 0.619224
0.4136953125 0.445432 0.5282614
0.41484375 0.6340827 0.3640814
0.4159921875 0.7720971 0.1350321
0.417140625 0.8377721 -0.1494046
0.4182890625 0.8120508 -0.474307
0.4194375 0.666821 -0.8223232
0.4205859375 0.3688444 -1.162172
0.421734375 -0.1261221 -1.430918
0.4228828125 -0.8633758 -1.504812
0.42403125 -1.809143 -1.126495
0.4251796875 -2.581819 0.05723193
0.426328125 -2.229024 1.846554
0.4274765625 -0.5306402 2.767597
0.428625 1.032548 2.252387
0.4297734375 1.709561 1.207517
0.430921875 1.760217 0.2725507
0.4320703125 1.487466 -0.4028222
0.43321875 1.074713 -0.8300878
0.4343671875 0.6216683 -1.041042
0.435515625 0.1910467 -1.078624
0.4366640625 -0.1774896 -0.9822531
0.4378125 -0.4569113 -0.7941276
0.4389609375 -0.6406017 -0.5527084
0.440109375 -0.7290162 -0.2929178
0.4412578125 -0.7323735 -0.04445383
0.44240625 -0.666443 0.1737225
0.4435546875 -0.5501205 0.3483895
0.444703125 -0.3996913 0.4726557
0.4458515625 -0.231637 0.5452701
0.447 -0.05997096 0.5670348
0.4481484375 0.1035384 0.5429779
0.449296875 0.249306 0.478257
0.4504453125 0.3692188 0.3797074
0.45159375 0.4571172 0.2541894
0.4527421875 0.5073562 0.1114825
0.453890625 0.5170227 -0.04001939
0.4550390625 0.4839848 -0.1892639
0.4561875 0.4093474 -0.3248744
0.4573359375 0.2969292 -0.434874
0.458484375 0.1545659 -0.5087171
0.4596328125 -0.006102179 -0.537045
0.46078125 -0.1708364 -0.5146925
0.4619296875 -0.3224427 -0.4416711
0.463078125 -0.4452655 -0.3238718
0.4642265625 -0.5255847 -0.1733471
0.465375 -0.5556255 -0.005354318
0.4665234375 -0.5328321 0.1630788
0.467671875 -0.4604847 0.3162203
0.4688203125 -0.3480692 0.4397777
0.46996875 -0.2051473 0.5251418
0.4711171875 -0.04452769 0.5666218
0.472265625 0.1212671 0.5616947
0.4734140625 0.2803849 0.512057
0.4745625 0.4223948 0.4204651
0.4757109375 0.537558 0.292276
0.476859375 0.6172948 0.1331093
0.4780078125 0.6542801 -0.04798602
0.47915625 0.6414524 -0.2413344
0.4803046875 0.5740981 -0.4348164
0.481453125 0.4498163 -0.6144454
0.4826015625 0.2681648 -0.7641013
0.48375 0.03466669 -0.8653226
0.4848984375 -0.2413542 -0.8995184
0.486046875 -0.5419276 -0.8488151
0.4871953125 -0.8435184 -0.6978185
0.48834375 -1.113364 -0.4376699
0.4894921875 -1.314095 -0.06958337
0.490640625 -1.403131 0.3955024
0.4917890625 -1.336585 0.9330572
0.4929375 -1.067823 1.502563
0.4940859375 -0.5472321 2.043688
0.495234375 0.2809805 2.456257
0.4963828125 1.469446 2.561278
0.49753125 2.988712 1.995381
0.4986796875 4.369311 0.1875279
0.499828125 4.074748 -2.859069
0.5009765625 1.226948 -4.717801
0.502125 -1.529584 -3.859245
0.5032734375 -2.632482 -2.097879
0.504421875 -2.676901 -0.638683
0.5055703125 -2.276014 0.352221
0.50671875 -1.72226 0.9665981
0.5078671875 -1.140981 1.300713
0.509015625 -0.5901344 1.426794
0.5101640625 -0.0996542 1.394465
0.5113125 0.3115877 1.243554
0.5124609375 0.6305219 1.005567
0.513609375 0.849771 0.7111596
0.5147578125 0.9645821 0.389552
0.51590625 0.9788979 0.06930821
0.5170546875 0.9023335 -0.2224797
0.518203125 0.7504702 -0.4641061
0.5193515625 0.5446669 -0.6387858
0.5205 0.309033 -0.7377511
0.5216484375 0.0683708 -0.7607128
0.522796875 -0.156147 -0.7137597
0.5239453125 -0.3469333 -0.608806
0.52509375 -0.4913982 -0.4611023
0.5262421875 -0.5841075 -0.2864575
0.527390625 -0.6219594 -0.1010364
0.5285390625 -0.6074221 0.08075341
0.5296875 -0.5456128 0.2467212
0.5308359375 -0.4437143 0.3852361
0.531984375 -0.3104851 0.4894358
0.5331328125 -0.1557201 0.5529214
0.53428125 0.009850576 0.5717248
0.5354296875 0.1745428 0.5447136
0.536578125 0.3265252 0.4726306
0.5377265625 0.4542638 0.3593454
0.538875 0.5464684 0.2120584
0.5400234375 0.5936404 0.04038246
0.541171875 0.5887924 -0.1420884
0.5423203125 0.5288225 -0.3199613
0.54346875 0.4150374 -0.4765755
0.5446171875 0.2549459 -0.5950278
0.545765625 0.06040889 -0.6617399
0.5469140625 -0.1520505 -0.6664742
0.5480625 -0.3629776 -0.6045654
0.5492109375 -0.5520343 -0.477549
0.550359375 -0.6999512 -0.2919962
0.5515078125 -0.789922 -0.06034238
0.55265625 -0.8082127 0.2012266
0.5538046875 -0.745272 0.4737283
0.554953125 -0.5935773 0.7358225
0.5561015625 -0.3491947 0.9618577
0.55725 -0.0114538 1.123054
0.5583984375 0.4157779 1.18032
0.559546875 0.918466 1.082846
0.5606953125 1.460142 0.7567626
0.56184375 1.941103 0.1004023
0.5629921875 2.1151 -0.977621
0.564140625 1.490214 -2.322175
0.5652890625 -0.2633919 -3.039764
0.5664375 -2.06708 -2.11164
0.5675859375 -2.52862 -0.42412
0.568734375 -1.977835 0.7803609
0.5698828125 -1.1648 1.327407
0.57103125 -0.4269509 1.424572
0.5721796875 0.14163 1.268334
0.573328125 0.527291 0.9806507
0.5744765625 0.7484603 0.6404931
0.575625 0.8295697 0.2999353
0.5767734375 0.7985211 -0.004708744
0.577921875 0.684736 -0.2521891
0.5790703125 0.5169324 -0.430485
0.58021875 0.3213347 -0.5368286
0.5813671875 0.1201256 -0.5743566
0.582515625 -0.06858025 -0.5507718
0.5836640625 -0.2303346 -0.4760888
0.5848125 -0.3559728 -0.3630659
0.5859609375 -0.4387321 -0.2241661
0.587109375 -0.4754634 -0.07199346
0.5882578125 -0.4658514 0.08030484
0.58940625 -0.4126398 0.2209939
0.5905546875 -0.3207513 0.3390445
0.591703125 -0.1976529 0.4245086
0.5928515625 -0.05331704 0.4696442
0.594 0.1003811 0.4690532
0.5951484375 0.2497563 0.4206196
0.596296875 0.3802186 0.3259332
0.5974453125 0.4779484 0.1916519
0.59859375 0.530679 0.02831353
0.5997421875 0.5298425 -0.1496812
0.600890625 0.4708205 -0.3251753
0.6020390625 0.3552307 -0.4797781
0.6031875 0.1900498 -0.5956181
0.6043359375 -0.0128422 -0.6573039
0.605484375 -0.2364913 -0.6542951
0.6066328125 -0.4629168 -0.5777118
0.60778125 -0.6691464 -0.4276929
0.6089296875 -0.834774 -0.2037929
0.610078125 -0.9358157 0.08595649
0.6112265625 -0.9470606 0.4316943
0.612375 -0.8382745 0.8150402
0.6135234375 -0.5756628 1.206248
0.614671875 -0.1124593 1.553008
0.6158203125 0.5991299 1.755119
0.61696875 1.576131 1.602988
0.6181171875 2.638981 0.7442746
0.619265625 3.024435 -1.063914
0.6204140625 1.758963 -2.859011
0.6215625 -0.317134 -3.043216
0.6227109375 -1.608677 -2.030181
0.623859375 -1.976414 -0.8771309
0.6250078125 -1.826205 0.01787847
0.62615625 -1.445277 0.6140258
0.6273046875 -0.9857138 0.9560738
0.628453125 -0.5274681 1.099096
0.6296015625 -0.1152789 1.088556
0.63075 0.2250867 0.9676084
0.6318984375 0.4786068 0.7721858
0.633046875 0.6433322 0.5365541
0.6341953125 0.7216705 0.2878865
0.63534375 0.7239128 0.04940751
0.6364921875 0.6619908 -0.161203
0.637640625 0.5510127 -0.3322517
0.6387890625 0.4061619 -0.4561276
0.6399375 0.2428035 -0.5301746
0.6410859375 0.07429997 -0.5543504
0.642234375 -0.08672033 -0.5325777
0.6433828125 -0.2297089 -0.4696411
0.64453125 -0.3460749 -0.3728903
0.6456796875 -0.4294251 -0.2514721
0.646828125 -0.474601 -0.1142755
0.6479765625 -0.4800296 0.02776576
0.649125 -0.4456325 0.1640488
0.6502734375 -0.3749014 0.2841412
0.651421875 -0.273203 0.3784866
0.6525703125 -0.1491378 0.4398183
0.65371875 -0.01284513 0.462099
0.6548671875 0.1237202 0.4437381
0.656015625 0.2487794 0.3862079
0.6571640625 0.3510473 0.2947223
0.6583125 0.4219694 0.1777268
0.6594609375 0.4552227 0.0452873
0.660609375 0.4485802 -0.09068637
0.6617578125 0.4030086 -0.2183437
0.66290625 0.3226085 -0.3275847
0.6640546875 0.2144086 -0.4093503
0.665203125 0.08714739 -0.4572384
0.6663515625 -0.04916489 -0.4676845
0.6675 -0.1842941 -0.4393457
0.6686484375 -0.3079934 -0.3736087
0.669796875 -0.410532 -0.2743339
0.6709453125 -0.4832923 -0.1476885
0.67209375 -0.5189331 -0.001659069
0.6732421875 -0.5125542 0.1535223
0.674390625 -0.4608936 0.3064726
0.6755390625 -0.364316 0.444604
0.6766875 -0.2259345 0.5542809
0.6778359375 -0.05327116 0.6230717
0.678984375 0.1424754 0.639865
0.6801328125 0.3450193 0.5965428
0.68128125 0.5376458 0.4894047
0.6824296875 0.7001331 0.3191107
0.683578125 0.8123099 0.09423092
0.6847265625 0.8553733 -0.1729965
0.685875 0.8138298 -0.462463
0.6870234375 0.6757554 -0.7512597
0.688171875 0.4377588 -1.009052
0.6893203125 0.09596545 -1.20407
0.69046875 -0.3419214 -1.297311
0.6916171875 -0.8605525 -1.2415
0.692765625 -1.426665 -0.975005
0.6939140625 -1.967686 -0.4176937
0.6950625 -2.317509 0.5206106
0.6962109375 -2.134739 1.840485
0.697359375 -0.936659 3.112362
0.6985078125 1.157555 3.247174
0.69965625 2.686281 1.813187
0.7008046875 2.80342 0.06893284
0.701953125 2.105483 -1.060035
0.7031015625 1.23769 -1.558115
0.70425 0.465273 -1.640161
0.7053984375 -0.1381328 -1.478846
0.706546875 -0.5677686 -1.184819
0.7076953125 -0.8356401 -0.8287978
0.70884375 -0.9620627 -0.460264
0.7099921875 -0.9688035 -0.1128251
0.711140625 -0.8791851 0.186879
0.7122890625 -0.7184988 0.4231782
0.7134375 -0.5126288 0.5853705
0.7145859375 -0.2855625 0.6720511
0.715734375 -0.05957592 0.6857952
0.7168828125 0.1464099 0.6354865
0.71803125 0.3177401 0.5330992
0.7191796875 0.4446845 0.3925898
0.720328125 0.5212936 0.2296148
0.7214765625 0.5465906 0.05884814
0.722625 0.5222429 -0.1057023
0.7237734375 0.4536284 -0.2516234
0.724921875 0.349041 -0.3690585
0.7260703125 0.2170957 -0.4495288
0.72721875 0.06970786 -0.4883952
0.7283671875 -0.08164799 -0.4827166
0.729515625 -0.2247749 -0.433217
0.7306640625 -0.3477197 -0.3433531
0.7318125 -0.4390715 -0.219842
0.7329609375 -0.4902356 -0.07266146
0.734109375 -0.4945784 0.08592758
0.7352578125 -0.4496243 0.2418087
0.73640625 -0.3565224 0.3799077
0.7375546875 -0.2214789 0.4855852
0.738703125 -0.05512702 0.5462634
0.7398515625 0.1284225 0.5528593
0.741 0.3126498 0.4996104
0.7421484375 0.479457 0.3870929
0.743296875 0.6101581 0.2190298
0.7444453125 0.6877725 0.005413064
0.74559375 0.6965425 -0.2402219
0.7467421875 0.6225928 -0.4999553
0.747890625 0.4534697 -0.7504942
0.7490390625 0.1712996 -0.9237843
0.7501875 -0.2020812 -1.048358
0.7513359375 -0.6839715 -1.034481
0.752484375 -1.249367 -0.7823126
0.7536328125 -1.78105 -0.1421211
0.75478125 -1.922184 1.004417
0.7559296875 -1.030036 2.265941
0.757078125 0.7111115 2.389121
0.7582265625 1.779703 1.269387
0.759375 1.813898 0.1030814
0.7605234375 1.372756 -0.6207587
0.761671875 0.8356016 -0.9617298
0.7628203125 0.3423954 -1.047118
0.76396875 -0.05977789 -0.9682769
0.7651171875 -0.3591744 -0.7914751
0.766265625 -0.5553762 -0.5608082
0.7674140625 -0.6549183 -0.3108458
0.7685625 -0.6692905 -0.06886717
0.7697109375 -0.6123661 0.145442
0.770859375 -0.5014312 0.3175977
0.7720078125 -0.3538851 0.4385914
0.77315625 -0.1874557 0.5052933
0.7743046875 -0.01779107 0.5181034
0.775453125 0.1401061 0.4813498
0.7766015625 0.2747693 0.4030062
0.77775 0.3774522 0.2922835
0.7788984375 0.4416571 0.1599889
0.780046875 0.4642628 0.01761122
0.7811953125 0.4450152 -0.1238191
0.78234375 0.3859387 -0.2529977
0.7834921875 0.2921234 -0.3593574
0.784640625 0.1705104 -0.4345993
0.7857890625 0.03074051 -0.4715249
0.7869375 -0.1161492 -0.4657842
0.7880859375 -0.2577592 -0.4159538
0.789234375 -0.3808692 -0.3244061
0.7903828125 -0.4736741 -0.1967042
0.79153125 -0.5258877 -0.04288848
0.7926796875 -0.5294735 0.1250841
0.793828125 -0.4809148 0.291671
0.7949765625 -0.3810602 0.4416477
0.796125 -0.23527 0.5594717
0.7972734375 -0.05359073 0.631401
0.798421875 0.1507113 0.6467183
0.7995703125 0.3615144 0.5994982
0.80071875 0.5608732 0.4858676
0.8018671875 0.7299935 0.3074997
0.803015625 0.8494932 0.0690733
0.8041640625 0.8996211 -0.2189887
0.8053125 0.8591678 -0.5433041
0.8064609375 0.7066674 -0.8832127
0.807609375 0.4169317 -1.207167
0.8087578125 -0.03727527 -1.467622
0.80990625 -0.6831506 -1.579129
0.8110546875 -1.514029 -1.389345
0.812203125 -2.398239 -0.6459337
0.8133515625 -2.816475 0.8751299
0.8145 -1.876552 2.63232
0.8156484375 0.1558686 3.098682
0.816796875 1.622712 2.128435
0.8179453125 2.040441 0.8801451
0.81909375 1.849217 -0.06979643
0.8202421875 1.416768 -0.6646618
0.821390625 0.9277321 -0.9775606
0.8225390625 0.4654959 -1.083107
0.8236875 0.06744254 -1.04281
0.8248359375 -0.2464247 -0.9042625
0.825984375 -0.4719746 -0.7055536
0.8271328125 -0.6109883 -0.4775203
0.82828125 -0.6704199 -0.2452263
0.8294296875 -0.661101 -0.02768227
0.830578125 -0.5958914 0.1608589
0.8317265625 -0.4888167 0.3106583
0.832875 -0.354188 0.416375
0.8340234375 -0.2051391 0.4767606
0.835171875 -0.05424265 0.4919683
0.8363203125 0.08773585 0.4662596
0.83746875 0.2116046 0.4049267
0.8386171875 0.3099374 0.3150688
0.839765625 0.3767223 0.2049029
0.8409140625 0.4094975 0.08395622
0.8420625 0.40681 -0.03872337
0.8432109375 0.3698802 -0.1532727
0.844359375 0.3030868 -0.2508771
0.8455078125 0.2120876 -0.3240824
0.84665625 0.1050962 -0.3670485
0.8478046875 -0.008458275 -0.3768935
0.848953125 -0.1187172 -0.3531362
0.8501015625 -0.2160657 -0.2986578
0.85125 -0.2922494 -0.2186142
0.8523984375 -0.3409588 -0.1209993
0.853546875 -0.3586586 -0.01417764
0.8546953125 -0.3445066 0.091848
0.85584375 -0.300627 0.1884774
0.8569921875 -0.2315425 0.2680503
0.858140625 -0.1426026 0.32367
0.8592890625 -0.04196838 0.3522372
0.8604375 0.06305213 0.3509371
0.8615859375 0.1640508 0.3201483
0.862734375 0.2533028 0.2616301
0.8638828125 0.3237321 0.1791421
0.86503125 0.3692895 0.07828113
0.8661796875 0.3849878 -0.03430775
0.867328125 0.367959 -0.1502229
0.8684765625 0.3169446 -0.2606274
0.869625 0.2333284 -0.3558727
0.8707734375 0.1202449 -0.4259506
0.871921875 -0.0147835 -0.4626527
0.8730703125 -0.1629375 -0.457772
0.87421875 -0.3121094 -0.4064437
0.8753671875 -0.4482068 -0.3064688
0.876515625 -0.5559538 -0.1600301
0.8776640625 -0.6194227 0.02663831
0.8788125 -0.6238164 0.2420831
0.8799609375 -0.5548922 0.4708197
0.881109375 -0.4022987 0.6905955
0.8822578125 -0.1574895 0.874054
0.88340625 0.1830891 0.9843394
0.8845546875 0.6141163 0.9678166
0.885703125 1.104758 0.7462742
0.8868515625 1.558142 0.2163268
0.888 1.71395 -0.6949852
0.8891484375 1.141915 -1.735796
0.890296875 -0.1535017 -2.100605
0.8914453125 -1.228939 -1.454333
0.89259375 -1.528269 -0.5041513
0.8937421875 -1.325279 0.2131014
0.894890625 -0.9436877 0.6262371
0.8960390625 -0.5425744 0.8050345
0.8971875 -0.1875165 0.8262927
0.8983359375 0.09950359 0.7443525
0.899484375 0.3117796 0.5986023
0.9006328125 0.4488892 0.4182042
0.90178125 0.5158421 0.2261736
0.9029296875 0.5200137 0.04130325
0.904078125 0.4709023 -0.1212579
0.9052265625 0.3808783 -0.2504758
0.906375 0.2637809 -0.3396529
0.9075234375 0.1333718 -0.3851286
0.908671875 0.002728281 -0.3879842
0.9098203125 -0.1158617 -0.3523671
0.91096875 -0.2129963 -0.2852863
0.9121171875 -0.2819308 -0.1957628
0.913265625 -0.3187519 -0.09381101
0.9144140625 -0.3231395 0.01086299
0.9155625 -0.2962861 0.1089306
0.9167109375 -0.2426572 0.1924932
0.917859375 -0.1680036 0.2552173
0.9190078125 -0.07921782 0.2921253
0.92015625 0.01580529 0.3009222
0.9213046875 0.1090586 0.281079
0.922453125 0.1925886 0.2341384
0.9236015625 0.2588644 0.1636206
0.92475 0.301705 0.07506065
0.9258984375 0.3161964 -0.02469004
0.927046875 0.2989941 -0.1267316
0.9281953125 0.2500862 -0.221509
0.92934375 0.171455 -0.2995899
0.9304921875 0.06845203 -0.3514484
0.931640625 -0.05084795 -0.369507
0.9327890625 -0.1760582 -0.34838
0.9339375 -0.2943258 -0.2857724
0.9350859375 -0.3927455 -0.1829109
0.936234375 -0.4578967 -0.04559724
0.9373828125 -0.4781501 0.1168644
0.93853125 -0.4422746 0.2910821
0.9396796875 -0.3441606 0.4599353
0.940828125 -0.1800064 0.602697
0.9419765625 0.04901353 0.69393
0.943125 0.3333166 0.7028171
0.9442734375 0.6511227 0.5934749
0.945421875 0.954164 0.3225996
0.9465703125 1.151426 -0.1396137
0.94771875 1.086429 -0.76252
0.9488671875 0.5988921 -1.348967
0.950015625 -0.2483952 -1.526595
0.9511640625 -1.015755 -1.109007
0.9523125 -1.321297 -0.3852737
0.9534609375 -1.192221 0.2557187
0.954609375 -0.846957 0.6580257
0.9557578125 -0.4502573 0.8336017
0.95690625 -0.08955917 0.8399777
0.9580546875 0.1993518 0.7346017
0.959203125 0.4045022 0.5623757
0.9603515625 0.5255151 0.3583817
0.9615 0.5693948 0.1499339
0.9626484375 0.5472974 -0.04241345
0.963796875 0.4727432 -0.2042277
0.9649453125 0.3607897 -0.3251568
0.96609375 0.2267667 -0.4005461
0.9672421875 0.0856576 -0.4299564
0.968390625 -0.04997893 -0.4165326
0.9695390625 -0.1686598 -0.3658859
0.9706875 -0.2630385 -0.286601
0.9718359375 -0.3272729 -0.1873708
0.972984375 -0.3586961 -0.07797782
0.9741328125 -0.3573363 0.03257245
0.97528125 -0.3251391 0.1355036
0.9764296875 -0.266157 0.2229933
0.977578125 -0.185567 0.2888711
0.9787265625 -0.09060221 0.3287871
0.979875 0.0113215 0.3397376
0.9810234375 0.111932 0.32091
0.982171875 0.2033883 0.2737716
0.9833203125 0.2775637 0.2016404
0.98446875 0.3278942 0.109997
0.9856171875 0.3499051 0.00637227
0.986765625 0.339968 -0.1005615
0.9879140625 0.2984052 -0.2015212
0.9890625 0.227247 -0.2871406
0.9902109375 0.1323207 -0.3493189
0.991359375 0.02056934 -0.3806914
0.9925078125 -0.09805011 -0.3779792
0.99365625 -0.213229 -0.3389783
0.9948046875 -0.3147601 -0.266066
0.995953125 -0.3926663 -0.1634279
0.9971015625 -0.4387318 -0.038302
0.99825 -0.4466842 0.1000694
0.9993984375 -0.4129551 0.2408622
1.000546875 -0.3364999 0.372847
1.0016953125 -0.218642 0.4833595
