# GHZ S RI R 50.0
0.3 -3.181588 -6.697455
0.3011484375 -8.163407 -3.410836
0.302296875 -7.776814 3.550115
0.3034453125 -2.907719 6.011694
0.30459375 0.4356302 5.008355
0.3057421875 1.896893 3.387495
0.306890625 2.401445 1.973709
0.3080390625 2.417539 0.8920346
0.3091875 2.191021 0.08531681
0.3103359375 1.850066 -0.4936571
0.311484375 1.452169 -0.8917899
0.3126328125 1.03465 -1.148114
0.31378125 0.6207726 -1.280188
0.3149296875 0.2236238 -1.309936
0.316078125 -0.1421547 -1.247719
0.3172265625 -0.4679777 -1.103448
0.318375 -0.7342721 -0.8902094
0.3195234375 -0.9329907 -0.6165948
0.320671875 -1.044287 -0.3048499
0.3218203125 -1.059579 0.02422028
0.32296875 -0.9748867 0.3386377
0.3241171875 -0.7988468 0.604499
0.325265625 -0.5530077 0.7973464
0.3264140625 -0.2687423 0.8951695
0.3275625 0.01909535 0.8974431
0.3287109375 0.2771357 0.8130187
0.329859375 0.4853379 0.6636428
0.3310078125 0.6292025 0.4725229
0.33215625 0.7082797 0.2609473
0.3333046875 0.725382 0.05089656
0.334453125 0.6882128 -0.1464935
0.3356015625 0.6064799 -0.3197827
0.33675 0.4876506 -0.4618421
0.3378984375 0.3416623 -0.5685077
0.339046875 0.1754933 -0.6352122
0.3401953125 -0.001300661 -0.6602048
0.34134375 -0.1806044 -0.6397064
0.3424921875 -0.3540357 -0.5743383
0.343640625 -0.5092326 -0.4629354
0.3447890625 -0.6351123 -0.3079355
0.3459375 -0.717281 -0.1159639
0.3470859375 -0.7420734 0.1030348
0.348234375 -0.6995987 0.3314339
0.3493828125 -0.5826461 0.5452794
0.35053125 -0.3978046 0.7196563
0.3516796875 -0.156682 0.829402
0.352828125 0.1139079 0.8570425
0.3539765625 0.3838207 0.7933201
0.355125 0.624061 0.6466565
0.3562734375 0.8064199 0.4306095
0.357421875 0.919336 0.1660868
0.3585703125 0.9500906 -0.1212074
0.35971875 0.8967972 -0.4125911
0.3608671875 0.7640677 -0.6863203
0.362015625 0.5512257 -0.9253073
0.3631640625 0.2699974 -1.113907
0.3643125 -0.08161868 -1.228567
0.3654609375 -0.4949891 -1.255547
0.366609375 -0.9575694 -1.151766
0.3677578125 -1.459744 -0.8831608
0.36890625 -1.937973 -0.3750533
0.3700546875 -2.308662 0.4609025
0.371203125 -2.310739 1.69115
0.3723515625 -1.42479 3.202826
0.3735 0.8358942 4.061293
0.3746484375 3.370747 2.650331
0.375796875 3.874807 -0.05932086
0.3769453125 2.661014 -1.785187
0.37809375 1.199217 -2.33736
0.3792421875 0.08098534 -2.175227
0.380390625 -0.6735557 -1.699226
0.3815390625 -1.076007 -1.133451
0.3826875 -1.218622 -0.5726501
0.3838359375 -1.175596 -0.09643488
0.384984375 -1.002019 0.2703491
0.3861328125 -0.7630548 0.5260761
0.38728125 -0.4963151 0.6677234
0.3884296875 -0.2327812 0.7204556
0.389578125 0.003851642 0.6942694
0.3907265625 0.2049528 0.609941
0.391875 0.3577128 0.4848904
0.3930234375 0.4643162 0.3303485
0.394171875 0.5192822 0.164907
0.3953203125 0.5251685 -0.005007689
0.39646875 0.4859619 -0.1644799
0.3976171875 0.4016782 -0.3036126
0.398765625 0.2819357 -0.4143847
0.3999140625 0.1324733 -0.4824949
0.4010625 -0.0347205 -0.5046045
0.4022109375 -0.2034467 -0.4696711
0.403359375 -0.3597213 -0.3800377
0.4045078125 -0.4788887 -0.2384077
0.40565625 -0.5477253 -0.05646414
0.4068046875 -0.5479569 0.142569
0.407953125 -0.4761167 0.3396521
0.4091015625 -0.3379277 0.5035146
0.41025 -0.1413859 0.6122564
0.4113984375 0.08631204 0.6527832
0.412546875 0.3253846 0.6083081
0.4136953125 0.5500586 0.4863787
0.41484375 0.7310372 0.2820231
0.4159921875 0.8542343 0.009469279
0.417140625 0.8809823 -0.3190426
0.4182890625 0.7968704 -0.6941342
0.4194375 0.5517919 -1.067985
0.4205859375 0.09629958 -1.406146
0.421734375 -0.5999187 -1.568381
0.4228828125 -1.534925 -1.301848
0.42403125 -2.362961 -0.319166
0.4251796875 -2.251051 1.253729
0.426328125 -1.007713 2.323703
0.4274765625 0.3869015 2.208167
0.428625 1.244275 1.49233
0.4297734375 1.528182 0.6973409
0.430921875 1.471084 0.009631348
0.4320703125 1.218208 -0.4886614
0.43321875 0.8571337 -0.8092035
0.4343671875 0.4682992 -0.9689347
0.435515625 0.09629884 -0.9807891
0.4366640625 -0.2260335 -0.8835159
0.4378125 -0.4688734 -0.7030229
0.4389609375 -0.6287563 -0.4759139
0.440109375 -0.6991163 -0.2348027
0.4412578125 -0.6935821 -0.001277304
0.44240625 -0.6243108 0.199169
0.4435546875 -0.5073651 0.3604558
0.444703125 -0.3606482 0.4730515
0.4458515625 -0.1963499 0.5361784
0.447 -0.03161389 0.5515555
0.4481484375 0.1250677 0.5220528
0.449296875 0.2642033 0.4547178
0.4504453125 0.3769163 0.3546825
0.45159375 0.4586178 0.2295997
0.4527421875 0.5025123 0.08820136
0.453890625 0.5069918 -0.06098299
0.4550390625 0.4696469 -0.205935
0.4561875 0.3912833 -0.3375185
0.4573359375 0.2770351 -0.4422547
0.458484375 0.1331366 -0.510579
0.4596328125 -0.02708746 -0.5333669
0.46078125 -0.1898167 -0.5052084
0.4619296875 -0.338779 -0.4276624
0.463078125 -0.4564699 -0.3064218
0.4642265625 -0.5319185 -0.1533142
0.465375 -0.5559581 0.01530369
0.4665234375 -0.5278733 0.1835683
0.467671875 -0.4504332 0.3344784
0.4688203125 -0.3330103 0.4551108
0.46996875 -0.1868914 0.5360972
0.4711171875 -0.02331452 0.5724687
0.472265625 0.1434954 0.5628798
0.4734140625 0.3027987 0.5069268
0.4745625 0.4438384 0.4099715
0.4757109375 0.5564172 0.2756579
0.476859375 0.6329833 0.1115657
0.4780078125 0.6640192 -0.07450398
0.47915625 0.6449561 -0.2720897
0.4803046875 0.569235 -0.4677597
0.481453125 0.4343697 -0.6491736
0.4826015625 0.2429969 -0.7963488
0.48375 -0.003628887 -0.8930116
0.4848984375 -0.2914785 -0.9186748
0.486046875 -0.603686 -0.8529952
0.4871953125 -0.9140627 -0.683487
0.48834375 -1.187873 -0.3957719
0.4894921875 -1.3859 0.005860859
0.490640625 -1.456448 0.5096128
0.4917890625 -1.354405 1.093044
0.4929375 -1.017166 1.700497
0.4940859375 -0.3812651 2.267315
0.495234375 0.6135742 2.640891
0.4963828125 2.029445 2.548799
0.49753125 3.648335 1.501244
0.4986796875 4.468232 -0.9953076
0.499828125 2.970516 -3.766373
0.5009765625 0.05211585 -4.261159
0.502125 -1.825943 -3.027258
0.5032734375 -2.458045 -1.536533
0.504421875 -2.377168 -0.3618254
0.5055703125 -2.000314 0.4397586
0.50671875 -1.503719 0.9524305
0.5078671875 -0.9868979 1.234462
0.509015625 -0.4878533 1.335378
0.5101640625 -0.04161642 1.299073
0.5113125 0.3338684 1.150609
0.5124609375 0.627712 0.9236765
0.513609375 0.8255535 0.642517
0.5147578125 0.9280567 0.336659
0.51590625 0.9342345 0.03378687
0.5170546875 0.8541387 -0.2434363
0.518203125 0.7029048 -0.4698927
0.5193515625 0.5003616 -0.6324134
0.5205 0.2716318 -0.7212371
0.5216484375 0.0383347 -0.7362136
0.522796875 -0.1776177 -0.6850228
0.5239453125 -0.3591042 -0.5769319
0.52509375 -0.4960492 -0.4284566
0.5262421875 -0.5792273 -0.2555372
0.527390625 -0.6107207 -0.07288647
0.5285390625 -0.5897981 0.1045969
0.5296875 -0.5228654 0.26524
0.5308359375 -0.4179698 0.397293
0.531984375 -0.2823483 0.495187
0.5331328125 -0.1270591 0.5515836
0.53428125 0.03810142 0.563184
0.5354296875 0.2004306 0.5292357
0.536578125 0.3481018 0.4508122
0.5377265625 0.4708149 0.3314592
0.538875 0.5561656 0.1793471
0.5400234375 0.5942883 0.004530388
0.541171875 0.5801789 -0.178845
0.5423203125 0.5092349 -0.3552945
0.54346875 0.3854096 -0.5080972
0.5446171875 0.2145858 -0.6192648
0.545765625 0.0109513 -0.6762883
0.5469140625 -0.2082003 -0.6664076
0.5480625 -0.4233743 -0.5880592
0.5492109375 -0.611429 -0.4414349
0.550359375 -0.7541136 -0.2334626
0.5515078125 -0.8310837 0.01934547
0.55265625 -0.8270499 0.3053217
0.5538046875 -0.7332584 0.5973909
0.554953125 -0.5327389 0.8738009
0.5561015625 -0.2261813 1.103387
0.55725 0.1949111 1.237739
0.5583984375 0.7241927 1.229866
0.559546875 1.324479 0.9762021
0.5606953125 1.910872 0.3602546
0.56184375 2.17391 -0.717188
0.5629921875 1.605055 -2.095064
0.564140625 0.009791069 -2.772057
0.5652890625 -1.583442 -2.035139
0.5664375 -2.118982 -0.700426
0.5675859375 -1.825592 0.3563863
0.568734375 -1.246319 0.9584283
0.5698828125 -0.6400362 1.177793
0.57103125 -0.1123066 1.160241
0.5721796875 0.2859124 0.9878655
0.573328125 0.5587261 0.7273616
0.5744765625 0.7054597 0.437803
0.575625 0.7404425 0.1489863
0.5767734375 0.6894607 -0.1051797
0.577921875 0.566914 -0.3065154
0.5790703125 0.4047032 -0.4487793
0.58021875 0.2203394 -0.5230377
0.5813671875 0.03486333 -0.5389071
0.582515625 -0.134263 -0.4981057
0.5836640625 -0.2775146 -0.4131574
0.5848125 -0.3827798 -0.29486
0.5859609375 -0.4466378 -0.1542436
0.587109375 -0.4658282 -0.006134149
0.5882578125 -0.4400366 0.1407385
0.58940625 -0.3739976 0.2714751
0.5905546875 -0.2700972 0.3772449
0.591703125 -0.1397772 0.4490882
0.5928515625 0.009768822 0.4774877
0.594 0.1649169 0.4609158
0.5951484375 0.3104215 0.3948017
0.596296875 0.4348341 0.2841156
0.5974453125 0.5203944 0.1350011
0.59859375 0.5578086 -0.04171208
0.5997421875 0.53737 -0.2277313
0.600890625 0.4551306 -0.4081526
0.6020390625 0.3163017 -0.5601721
0.6031875 0.1235874 -0.6673025
0.6043359375 -0.1033013 -0.713903
0.605484375 -0.3512826 -0.6841426
0.6066328125 -0.5958689 -0.575657
0.60778125 -0.8131898 -0.3792186
0.6089296875 -0.9797385 -0.1005578
0.610078125 -1.060714 0.2550852
0.6112265625 -1.0256 0.6795489
0.612375 -0.8260643 1.137382
0.6135234375 -0.397194 1.593538
0.614671875 0.321093 1.927772
0.6158203125 1.392493 1.898885
0.61696875 2.608279 1.107884
0.6181171875 3.108303 -0.7113703
0.619265625 2.016483 -2.50994
0.6204140625 0.1673124 -2.862793
0.6215625 -1.125772 -2.155228
0.6227109375 -1.655219 -1.204715
0.623859375 -1.703666 -0.3673128
0.6250078125 -1.493228 0.2564153
0.62615625 -1.146658 0.6779407
0.6273046875 -0.7560707 0.9230304
0.628453125 -0.3663637 1.011374
0.6296015625 -0.01273556 0.981469
0.63075 0.2757237 0.857536
0.6318984375 0.4937419 0.6714263
0.633046875 0.6298336 0.4515568
0.6341953125 0.6904787 0.220395
0.63534375 0.6815591 0.0009653931
0.6364921875 0.6140178 -0.1924698
0.637640625 0.5029074 -0.3476003
0.6387890625 0.3604712 -0.457783
0.6399375 0.2024474 -0.5214946
0.6410859375 0.04082092 -0.5369248
0.642234375 -0.1127333 -0.5092089
0.6433828125 -0.2472849 -0.4421802
0.64453125 -0.3560323 -0.3439261
0.6456796875 -0.4314212 -0.2224543
0.646828125 -0.4695242 -0.08695228
0.6479765625 -0.4686614 0.05166732
0.649125 -0.4291068 0.1837255
0.6502734375 -0.3545589 0.2984667
0.651421875 -0.2501203 0.3868812
0.6525703125 -0.1254562 0.441933
0.65371875 0.01022433 0.4578668
0.6548671875 0.1447781 0.4339575
0.656015625 0.2660698 0.3713608
0.6571640625 0.3641751 0.2761202
0.6583125 0.4294892 0.156277
0.6594609375 0.4570859 0.02262676
0.660609375 0.4444809 -0.1128705
0.6617578125 0.3930631 -0.2392816
0.66290625 0.3076142 -0.3451762
0.6640546875 0.1949093 -0.4227259
0.665203125 0.06475531 -0.4656894
0.6663515625 -0.07411469 -0.4697715
0.6675 -0.2094498 -0.4356301
0.6686484375 -0.3322801 -0.362764
0.669796875 -0.4321086 -0.2573254
0.6709453125 -0.5009317 -0.124856
0.67209375 -0.5309246 0.02672449
0.6732421875 -0.516782 0.1860159
0.674390625 -0.4561265 0.3415723
0.6755390625 -0.3494808 0.4794086
0.6766875 -0.2000269 0.5871176
0.6778359375 -0.01675055 0.6501695
0.678984375 0.1896271 0.6573849
0.6801328125 0.4009448 0.6015336
0.68128125 0.599781 0.4765368
0.6824296875 0.7638185 0.2864678
0.683578125 0.8709159 0.03655949
0.6847265625 0.9020278 -0.2564549
0.685875 0.8370718 -0.5721864
0.6870234375 0.6633791 -0.8848548
0.688171875 0.3718107 -1.157447
0.6893203125 -0.04373491 -1.352504
0.69046875 -0.5715377 -1.413649
0.6916171875 -1.199774 -1.266585
0.692765625 -1.858963 -0.8207576
0.6939140625 -2.389584 0.06663197
0.6950625 -2.433192 1.4269
0.6962109375 -1.417502 2.852974
0.697359375 0.5751026 3.253205
0.6985078125 2.172935 2.138675
0.69965625 2.565947 0.5727288
0.7008046875 2.135398 -0.5539041
0.701953125 1.457993 -1.18058
0.7031015625 0.7733186 -1.417277
0.70425 0.1882881 -1.393382
0.7053984375 -0.2703664 -1.221216
0.706546875 -0.5948333 -0.9511592
0.7076953125 -0.7952167 -0.6383401
0.70884375 -0.8806403 -0.3179982
0.7099921875 -0.8633632 -0.01763411
0.711140625 -0.7676387 0.2405971
0.7122890625 -0.6091492 0.4400909
0.7134375 -0.4144914 0.5729941
0.7145859375 -0.2031842 0.6355098
0.715734375 0.0044844 0.6329757
0.7168828125 0.1899503 0.5727162
0.71803125 0.3417353 0.4649463
0.7191796875 0.4496512 0.3251622
0.720328125 0.5088916 0.1658994
0.7214765625 0.5196723 0.003144246
0.722625 0.4826747 -0.1513825
0.7237734375 0.4056799 -0.285477
0.724921875 0.2940535 -0.3884687
0.7260703125 0.1597458 -0.4550874
0.72721875 0.01258643 -0.4786689
0.7283671875 -0.1353861 -0.4587416
0.729515625 -0.2712115 -0.3953799
0.7306640625 -0.3841895 -0.293418
0.7318125 -0.4623169 -0.1605131
0.7329609375 -0.4972914 -0.005908174
0.734109375 -0.4838847 0.1554134
0.7352578125 -0.4184537 0.3100634
0.73640625 -0.3058798 0.4419975
0.7375546875 -0.1502588 0.5349883
0.738703125 0.03389969 0.5781935
0.7398515625 0.2325206 0.5590947
0.741 0.4267226 0.47509
0.7421484375 0.5950134 0.324157
0.743296875 0.7176397 0.1120311
0.7444453125 0.7714273 -0.1495271
0.74559375 0.7362591 -0.4481081
0.7467421875 0.5904484 -0.7553288
0.747890625 0.3073585 -1.041497
0.7490390625 -0.1250046 -1.199904
0.7501875 -0.7222914 -1.235733
0.7513359375 -1.449812 -0.9206711
0.752484375 -2.081101 -0.04557115
0.7536328125 -1.963538 1.411345
0.75478125 -0.569041 2.381762
0.7559296875 0.9100748 1.99492
0.757078125 1.54991 0.9940948
0.7582265625 1.51873 0.1203861
0.759375 1.212095 -0.4457491
0.7605234375 0.8162776 -0.7656813
0.761671875 0.4171973 -0.8926638
0.7628203125 0.06650591 -0.8799421
0.76396875 -0.2214852 -0.7731876
0.7651171875 -0.4344479 -0.5996984
0.766265625 -0.565218 -0.3898944
0.7674140625 -0.6211185 -0.1705047
0.7685625 -0.6073782 0.03915532
0.7697109375 -0.5332518 0.2213179
0.770859375 -0.4162257 0.3631901
0.7720078125 -0.2693768 0.4580055
0.77315625 -0.1079037 0.5015939
0.7743046875 0.0511777 0.495603
0.775453125 0.1967917 0.4451618
0.7766015625 0.3179306 0.3565677
0.77775 0.4051611 0.2392568
0.7788984375 0.4544431 0.1044605
0.780046875 0.4631705 -0.03770763
0.7811953125 0.4299219 -0.1755667
0.78234375 0.3591016 -0.2983168
0.7834921875 0.2554598 -0.3963487
0.784640625 0.1251878 -0.4608086
0.7857890625 -0.01977122 -0.4853828
0.7869375 -0.1692351 -0.4665916
0.7880859375 -0.3106289 -0.4027862
0.789234375 -0.4297324 -0.2967323
0.7903828125 -0.5155159 -0.1563163
0.79153125 -0.5569664 0.009226074
0.7926796875 -0.5460711 0.1866961
0.793828125 -0.4806938 0.3588609
0.7949765625 -0.3621255 0.51068
0.796125 -0.1948797 0.6252412
0.7972734375 0.007625153 0.6881833
0.798421875 0.2323267 0.6888612
0.7995703125 0.4618515 0.6189898
0.80071875 0.6750819 0.4750542
0.8018671875 0.8515278 0.2590318
0.803015625 0.96951 -0.02571653
0.8041640625 1.000012 -0.3702517
0.8053125 0.9186875 -0.7555842
0.8064609375 0.6905445 -1.15832
0.807609375 0.2653275 -1.531855
0.8087578125 -0.3949649 -1.784887
0.80990625 -1.326385 -1.744034
0.8110546875 -2.417422 -1.071579
0.812203125 -3.038233 0.5234624
0.8133515625 -2.198853 2.415523
0.8145 -0.2427518 3.008421
0.8156484375 1.202829 2.252685
0.816796875 1.761342 1.183987
0.8179453125 1.752577 0.2857149
0.81909375 1.469752 -0.3394123
0.8202421875 1.084566 -0.7311872
0.821390625 0.676224 -0.9320104
0.8225390625 0.2927432 -0.9812051
0.8236875 -0.0360805 -0.9217711
0.8248359375 -0.297435 -0.7841276
0.825984375 -0.4823528 -0.5967448
0.8271328125 -0.5929105 -0.3867614
0.82828125 -0.6337394 -0.1747779
0.8294296875 -0.6131526 0.02281644
0.830578125 -0.5430638 0.1917775
0.8317265625 -0.4362305 0.3249108
0.832875 -0.3049743 0.4166635
0.8340234375 -0.1617726 0.4646464
0.835171875 -0.01840923 0.4711643
0.8363203125 0.1149407 0.4391709
0.83746875 0.2296501 0.373789
0.8386171875 0.3186274 0.2825862
0.839765625 0.3772498 0.172949
0.8409140625 0.402034 0.05400349
0.8420625 0.3922766 -0.06445393
0.8432109375 0.3502164 -0.1737994
0.844359375 0.2791958 -0.2653671
0.8455078125 0.1859274 -0.3315367
0.84665625 0.07838477 -0.3676801
0.8478046875 -0.03400294 -0.3707339
0.848953125 -0.1416406 -0.3405987
0.8501015625 -0.2347233 -0.2807207
0.85125 -0.3057199 -0.1967249
0.8523984375 -0.3481152 -0.09593456
0.853546875 -0.3590256 0.01161124
0.8546953125 -0.3383055 0.1172226
0.85584375 -0.2880979 0.2119496
0.8569921875 -0.2126299 0.2874205
0.858140625 -0.119261 0.3384139
0.8592890625 -0.01471682 0.360599
0.8604375 0.09265167 0.3521047
0.8615859375 0.1939558 0.3135395
0.862734375 0.2818241 0.2469653
0.8638828125 0.3488585 0.1562613
0.86503125 0.388653 0.04804607
0.8661796875 0.3969068 -0.07092747
0.867328125 0.3700291 -0.1919621
0.8684765625 0.3070154 -0.3050277
0.869625 0.2098863 -0.4001092
0.8707734375 0.08222923 -0.4666753
0.871921875 -0.06829703 -0.4946502
0.8730703125 -0.2309477 -0.4760009
0.87421875 -0.3926334 -0.4049437
0.8753671875 -0.5373613 -0.2775169
0.876515625 -0.6455771 -0.09711269
0.8776640625 -0.698739 0.1299004
0.8788125 -0.6762302 0.3924541
0.8799609375 -0.5554005 0.6667931
0.881109375 -0.3179684 0.9245915
0.8822578125 0.05779558 1.118201
0.88340625 0.5824674 1.161511
0.8845546875 1.217575 0.9285372
0.885703125 1.789163 0.23541
0.8868515625 1.806007 -0.923737
0.888 0.8883851 -1.872112
0.8891484375 -0.3592868 -1.849428
0.890296875 -1.086412 -1.159538
0.8914453125 -1.249695 -0.4357969
0.89259375 -1.10842 0.1050891
0.8937421875 -0.8385882 0.4474146
0.894890625 -0.5397042 0.6265784
0.8960390625 -0.253651 0.6871541
0.8971875 -0.003633318 0.6574554
0.8983359375 0.1954181 0.5637166
0.899484375 0.3405972 0.4299
0.9006328125 0.4289741 0.273038
0.90178125 0.4611847 0.1106482
0.9029296875 0.4439861 -0.0421749
0.904078125 0.3844554 -0.1736776
0.9052265625 0.2921941 -0.2741755
0.906375 0.1800005 -0.3373128
0.9075234375 0.05941185 -0.361829
0.908671875 -0.0576093 -0.3481233
0.9098203125 -0.1600295 -0.3006853
0.91096875 -0.2401526 -0.2272709
0.9121171875 -0.2921377 -0.1356149
0.913265625 -0.3124136 -0.03532226
0.9144140625 -0.3022538 0.06381559
0.9155625 -0.2632012 0.1533784
0.9167109375 -0.1997416 0.2261239
0.917859375 -0.1183503 0.2759566
0.9190078125 -0.02616541 0.2993671
0.92015625 0.06932972 0.294152
0.9213046875 0.1592505 0.260085
0.922453125 0.2365145 0.2002122
0.9236015625 0.293491 0.1180226
0.92475 0.3234249 0.01991755
0.9258984375 0.3227956 -0.08599012
0.927046875 0.2886474 -0.1907131
0.9281953125 0.2207038 -0.2838805
0.92934375 0.1231747 -0.3550629
0.9304921875 0.001995565 -0.3947527
0.931640625 -0.1336307 -0.3944463
0.9327890625 -0.2705189 -0.3483391
0.9339375 -0.3945459 -0.255731
0.9350859375 -0.4904372 -0.1176205
0.936234375 -0.5411716 0.05839181
0.9373828125 -0.5320675 0.2595792
0.93853125 -0.4493704 0.4695076
0.9396796875 -0.2805901 0.66276
0.940828125 -0.02245464 0.8058553
0.9419765625 0.3235654 0.8542501
0.943125 0.7342948 0.7446889
0.9442734375 1.132784 0.4055064
0.945421875 1.360928 -0.2049294
0.9465703125 1.171996 -0.9787727
0.94771875 0.4617554 -1.519072
0.9488671875 -0.4298719 -1.474719
0.950015625 -1.028338 -0.9483985
0.9511640625 -1.192232 -0.312286
0.9523125 -1.063786 0.202222
0.9534609375 -0.7907957 0.5387219
0.954609375 -0.4728211 0.708896
0.9557578125 -0.1683821 0.7498919
0.95690625 0.09362751 0.6943795
0.9580546875 0.2973514 0.5713707
0.959203125 0.435843 0.4080928
0.9603515625 0.5095224 0.22705
0.9615 0.5217217 0.04694837
0.9626484375 0.481051 -0.1151445
0.963796875 0.3986866 -0.2480896
0.9649453125 0.2865625 -0.3440171
0.96609375 0.1584239 -0.3979411
0.9672421875 0.02673761 -0.4107745
0.968390625 -0.09684564 -0.3851613
0.9695390625 -0.2026271 -0.3267419
0.9706875 -0.2837126 -0.2430744
0.9718359375 -0.3353437 -0.1431562
0.972984375 -0.3551205 -0.03532105
0.9741328125 -0.3435344 0.07066116
0.97528125 -0.3030435 0.1672825
0.9764296875 -0.237545 0.2473208
0.977578125 -0.1527208 0.3046575
0.9787265625 -0.05584126 0.3355071
0.979875 0.04618493 0.3375297
0.9810234375 0.1449512 0.3098578
0.982171875 0.2321788 0.254666
0.9833203125 0.3005526 0.175661
0.98446875 0.343848 0.07875692
0.9856171875 0.3571343 -0.02822358
0.986765625 0.3379951 -0.1367487
0.9879140625 0.2867323 -0.2369108
0.9890625 0.206173 -0.3191639
0.9902109375 0.1023363 -0.3752618
0.991359375 -0.01659996 -0.3990652
0.9925078125 -0.1406999 -0.3857442
0.99365625 -0.2588344 -0.335426
0.9948046875 -0.3602941 -0.2495357
0.995953125 -0.4352328 -0.1331199
0.9971015625 -0.4742493 0.005160577
0.99825 -0.4714412 0.1561313
0.9993984375 -0.4223849 0.307871
1.000546875 -0.3262196 0.4470143
