# GHZ S RI R 50.0
0.3 -6.546185 -7.061791
0.3011484375 -9.986884 0.5095706
0.302296875 -5.33499 5.798749
0.3034453125 -0.9803303 5.680441
0.30459375 1.184243 4.180965
0.3057421875 2.081611 2.709849
0.306890625 2.339129 1.51486
0.3080390625 2.265893 0.5968881
0.3091875 2.019203 -0.08890343
0.3103359375 1.681716 -0.5861439
0.311484375 1.301922 -0.9288069
0.3126328125 0.907539 -1.144846
0.31378125 0.5164251 -1.251484
0.3149296875 0.1420242 -1.26255
0.316078125 -0.2027237 -1.188655
0.3172265625 -0.5061842 -1.039134
0.318375 -0.7552342 -0.8234753
0.3195234375 -0.9348223 -0.553209
0.320671875 -1.030624 -0.2461484
0.3218203125 -1.032136 0.07466041
0.32296875 -0.9374254 0.3780513
0.3241171875 -0.7548227 0.6311399
0.325265625 -0.5060145 0.8090857
0.3264140625 -0.2222475 0.8945282
0.3275625 0.0609335 0.884602
0.3287109375 0.3132691 0.791181
0.329859375 0.5127355 0.6339757
0.3310078125 0.6481429 0.4384253
0.33215625 0.7168344 0.2259518
0.3333046875 0.7253042 0.01507902
0.334453125 0.6802115 -0.1803889
0.3356015625 0.5906168 -0.3504493
0.33675 0.4655193 -0.4881134
0.3378984375 0.3135889 -0.5890526
0.339046875 0.1435172 -0.6488502
0.3401953125 -0.03672785 -0.6658198
0.34134375 -0.218079 -0.6376485
0.3424921875 -0.3910892 -0.5627156
0.343640625 -0.5448672 -0.4411737
0.3447890625 -0.6655117 -0.2764105
0.3459375 -0.7405012 -0.07531895
0.3470859375 -0.7554587 0.1515667
0.348234375 -0.6996181 0.3854002
0.3493828125 -0.5674847 0.6024677
0.35053125 -0.363819 0.7756408
0.3516796875 -0.1050487 0.8778718
0.352828125 0.1835312 0.8913792
0.3539765625 0.4675501 0.8091982
0.355125 0.716555 0.6374338
0.3562734375 0.9037088 0.3918245
0.357421875 1.010686 0.09664831
0.3585703125 1.028054 -0.2258795
0.35971875 0.9509134 -0.5514128
0.3608671875 0.7798974 -0.8590424
0.362015625 0.5140839 -1.128406
0.3631640625 0.1550396 -1.336445
0.3643125 -0.2989612 -1.456427
0.3654609375 -0.8521944 -1.447585
0.366609375 -1.501004 -1.238872
0.3677578125 -2.21219 -0.7112179
0.36890625 -2.840115 0.3423873
0.3700546875 -2.885261 2.139523
0.371203125 -1.218971 4.17674
0.3723515625 2.041937 4.048928
0.3735 3.630925 1.524137
0.3746484375 3.110134 -0.5789847
0.375796875 1.995216 -1.587411
0.3769453125 0.9424664 -1.879218
0.37809375 0.1097858 -1.769957
0.3792421875 -0.4833706 -1.443879
0.380390625 -0.8506242 -1.016779
0.3815390625 -1.018277 -0.5694771
0.3826875 -1.023953 -0.1580109
0.3838359375 -0.9091143 0.1810574
0.384984375 -0.7173379 0.4300738
0.3861328125 -0.4858831 0.58455
0.38728125 -0.2467418 0.6520567
0.3884296875 -0.02184804 0.6452613
0.389578125 0.1726086 0.5781906
0.3907265625 0.3275862 0.4664111
0.391875 0.4365798 0.3242102
0.3930234375 0.4979623 0.164981
0.394171875 0.5115819 0.0003500604
0.3953203125 0.4784853 -0.1587468
0.39646875 0.4019631 -0.3013268
0.3976171875 0.2862483 -0.4168367
0.398765625 0.1383511 -0.4950952
0.3999140625 -0.03201284 -0.5260423
0.4010625 -0.2118145 -0.5024151
0.4022109375 -0.3837218 -0.4184582
0.403359375 -0.527568 -0.2751706
0.4045078125 -0.6215533 -0.08038228
0.40565625 -0.6459808 0.1495936
0.4068046875 -0.586556 0.389386
0.407953125 -0.4386048 0.6089091
0.4091015625 -0.2091429 0.7757051
0.41025 0.08507689 0.8608226
0.4113984375 0.4153682 0.841989
0.412546875 0.7520503 0.7025691
0.4136953125 1.058498 0.4332092
0.41484375 1.29336 0.02455061
0.4159921875 1.398446 -0.5297617
0.417140625 1.276915 -1.229421
0.4182890625 0.7598814 -2.023434
0.4194375 -0.4248182 -2.647609
0.4205859375 -2.290575 -2.284657
0.421734375 -3.43821 -0.2154961
0.4228828125 -2.50013 1.825787
0.42403125 -0.90692 2.391067
0.4251796875 0.2437029 2.088567
0.426328125 0.901707 1.524293
0.4274765625 1.214634 0.9310209
0.428625 1.29662 0.3910299
0.4297734375 1.218299 -0.06838926
0.430921875 1.028715 -0.4330418
0.4320703125 0.7645366 -0.6925693
0.43321875 0.4605821 -0.8433045
0.4343671875 0.1502751 -0.887789
0.435515625 -0.1370566 -0.8359326
0.4366640625 -0.3748861 -0.7051237
0.4378125 -0.5473363 -0.519462
0.4389609375 -0.6464219 -0.3048851
0.440109375 -0.6729231 -0.08595601
0.4412578125 -0.6351635 0.1167049
0.44240625 -0.5453109 0.2880683
0.4435546875 -0.4178683 0.4187391
0.444703125 -0.2682742 0.5028094
0.4458515625 -0.108554 0.5411726
0.447 0.04877586 0.5351226
0.4481484375 0.1942302 0.4889182
0.449296875 0.3191805 0.4078504
0.4504453125 0.4169187 0.298517
0.45159375 0.4821784 0.1678503
0.4527421875 0.510053 0.02442664
0.453890625 0.4985558 -0.1226121
0.4550390625 0.4460275 -0.2628928
0.4561875 0.3546648 -0.3857524
0.4573359375 0.2291551 -0.4792621
0.458484375 0.07793479 -0.5338717
0.4596328125 -0.08675355 -0.540932
0.46078125 -0.2494645 -0.4967595
0.4619296875 -0.3936381 -0.4033269
0.463078125 -0.5034811 -0.2678916
0.4642265625 -0.5668937 -0.1034207
0.465375 -0.5767545 0.07366212
0.4665234375 -0.5322849 0.2456733
0.467671875 -0.4383029 0.3960468
0.4688203125 -0.3048833 0.5125985
0.46996875 -0.1434473 0.5853982
0.4711171875 0.0321373 0.6102268
0.472265625 0.2090246 0.5856822
0.4734140625 0.3749915 0.5131528
0.4745625 0.5191513 0.3966953
0.4757109375 0.630492 0.2428021
0.476859375 0.7003595 0.05762538
0.4780078125 0.720612 -0.1491052
0.47915625 0.683932 -0.3664359
0.4803046875 0.5843795 -0.5804664
0.481453125 0.4189433 -0.7741148
0.4826015625 0.1872455 -0.9293768
0.48375 -0.1050608 -1.022284
0.4848984375 -0.4467033 -1.029763
0.486046875 -0.8167524 -0.9277083
0.4871953125 -1.184356 -0.6931323
0.48834375 -1.506741 -0.307944
0.4894921875 -1.726584 0.2352591
0.490640625 -1.770107 0.9333535
0.4917890625 -1.538454 1.759822
0.4929375 -0.8874618 2.640293
0.4940859375 0.3834107 3.374264
0.495234375 2.450912 3.405354
0.4963828125 4.772591 1.607568
0.49753125 4.910398 -2.055982
0.4986796875 2.16259 -4.185685
0.499828125 -0.3829684 -3.779376
0.5009765625 -1.651147 -2.552878
0.502125 -2.068431 -1.382787
0.5032734375 -2.040908 -0.4576693
0.504421875 -1.78728 0.2206072
0.5055703125 -1.424285 0.6911212
0.50671875 -1.014933 0.9883831
0.5078671875 -0.6009042 1.137811
0.509015625 -0.2068854 1.164814
0.5101640625 0.1457796 1.090003
0.5113125 0.4396591 0.9319635
0.5124609375 0.6623843 0.7119472
0.513609375 0.8042836 0.4522018
0.5147578125 0.8622737 0.1762303
0.51590625 0.8360768 -0.09166977
0.5170546875 0.7357455 -0.3295067
0.518203125 0.5752215 -0.5179598
0.5193515625 0.3738069 -0.6436197
0.5205 0.1533418 -0.6997223
0.5216484375 -0.06414196 -0.6875415
0.522796875 -0.2595037 -0.6142663
0.5239453125 -0.4179494 -0.4915118
0.52509375 -0.5292758 -0.3346699
0.5262421875 -0.5884495 -0.1588367
0.527390625 -0.595324 0.02094365
0.5285390625 -0.5525551 0.1905332
0.5296875 -0.4664407 0.3386299
0.5308359375 -0.3442737 0.4555952
0.531984375 -0.1957506 0.5338371
0.5331328125 -0.03143725 0.5685582
0.53428125 0.1374413 0.556331
0.5354296875 0.2987556 0.4967403
0.536578125 0.4403112 0.3920861
0.5377265625 0.5491633 0.2473662
0.538875 0.6141762 0.07146017
0.5400234375 0.6254613 -0.1233071
0.541171875 0.5765308 -0.3216683
0.5423203125 0.4648643 -0.5050604
0.54346875 0.2940115 -0.6538354
0.5446171875 0.07325535 -0.7484514
0.545765625 -0.1809083 -0.7717753
0.5469140625 -0.4477023 -0.7110353
0.5480625 -0.7012314 -0.5597457
0.5492109375 -0.9131328 -0.3165402
0.550359375 -1.051878 0.01082195
0.5515078125 -1.085475 0.4114945
0.55265625 -0.974955 0.8646328
0.5538046875 -0.6702614 1.335112
0.554953125 -0.09950204 1.751782
0.5561015625 0.8140894 1.952796
0.55725 2.069918 1.557776
0.5583984375 3.077549 0.01025249
0.559546875 2.386733 -2.1525
0.5606953125 0.366297 -2.816716
0.56184375 -1.036206 -2.061341
0.5629921875 -1.533001 -1.065572
0.564140625 -1.523433 -0.2621721
0.5652890625 -1.278777 0.3021403
0.5664375 -0.9350203 0.6586142
0.5675859375 -0.5634632 0.8439746
0.568734375 -0.2065872 0.8918849
0.5698828125 0.1062358 0.8291041
0.57103125 0.3559556 0.6851459
0.5721796875 0.5294734 0.4869022
0.573328125 0.6222654 0.2618218
0.5744765625 0.6366581 0.03559277
0.575625 0.5819536 -0.1694903
0.5767734375 0.4714434 -0.3361885
0.577921875 0.3226621 -0.4530925
0.5790703125 0.153524 -0.5150329
0.58021875 -0.01884934 -0.5215417
0.5813671875 -0.1793437 -0.4772902
0.582515625 -0.3144469 -0.3902398
0.5836640625 -0.41562 -0.2698853
0.5848125 -0.4763635 -0.1268824
0.5859609375 -0.4932342 0.02545569
0.587109375 -0.4649877 0.1767363
0.5882578125 -0.3940181 0.3148592
0.58940625 -0.2842946 0.4284883
0.5905546875 -0.1430779 0.507799
0.591703125 0.02016285 0.5441328
0.5928515625 0.1940778 0.5302243
0.594 0.3628705 0.4633639
0.5951484375 0.5119208 0.3430159
0.596296875 0.6245505 0.1746288
0.5974453125 0.6841497 -0.03203201
0.59859375 0.67855 -0.2615316
0.5997421875 0.5974473 -0.4937189
0.600890625 0.4379693 -0.7054524
0.6020390625 0.2035151 -0.8717365
0.6031875 -0.09594039 -0.9665865
0.6043359375 -0.4424493 -0.9657977
0.605484375 -0.8126991 -0.8477643
0.6066328125 -1.174519 -0.5914136
0.60778125 -1.48608 -0.1729115
0.6089296875 -1.682088 0.4255225
0.610078125 -1.655211 1.224855
0.6112265625 -1.207361 2.195176
0.612375 -0.003894182 3.097715
0.6135234375 2.132569 3.069872
0.614671875 3.886247 1.021098
0.6158203125 3.304188 -1.541326
0.61696875 1.570196 -2.565588
0.6181171875 0.1611915 -2.442904
0.619265625 -0.7032856 -1.907108
0.6204140625 -1.157135 -1.283139
0.6215625 -1.332991 -0.692987
0.6227109375 -1.31763 -0.1809264
0.623859375 -1.172452 0.2342267
0.6250078125 -0.9409478 0.5447512
0.62615625 -0.6601757 0.7479566
0.6273046875 -0.3624307 0.8487226
0.628453125 -0.074356 0.855372
0.6296015625 0.1809801 0.7822564
0.63075 0.3869224 0.6469048
0.6318984375 0.5329828 0.4703425
0.633046875 0.6150768 0.2722892
0.6341953125 0.6345451 0.07203007
0.63534375 0.5977103 -0.1135521
0.6364921875 0.5142456 -0.2720878
0.637640625 0.3963084 -0.3934384
0.6387890625 0.2557288 -0.4734273
0.6399375 0.1049044 -0.5098872
0.6410859375 -0.04435184 -0.5038508
0.642234375 -0.1820637 -0.4586794
0.6433828125 -0.2991265 -0.3796554
0.64453125 -0.3884905 -0.2737896
0.6456796875 -0.4446259 -0.1494066
0.646828125 -0.4641518 -0.01570521
0.6479765625 -0.4461219 0.1175422
0.649125 -0.3914338 0.2406364
0.6502734375 -0.3043674 0.3432064
0.651421875 -0.1916111 0.4168305
0.6525703125 -0.06153826 0.4553275
0.65371875 0.07502383 0.4547106
0.6548671875 0.2064432 0.4139921
0.656015625 0.3207027 0.3362207
0.6571640625 0.4077336 0.2276956
0.6583125 0.4592427 0.09768149
0.6594609375 0.470932 -0.04234976
0.660609375 0.4408427 -0.1803589
0.6617578125 0.3718397 -0.304459
0.66290625 0.2695532 -0.4042135
0.6640546875 0.1416591 -0.4713584
0.665203125 -0.00162389 -0.499746
0.6663515625 -0.1493014 -0.4869986
0.6675 -0.2906204 -0.4321997
0.6686484375 -0.4137292 -0.3380574
0.669796875 -0.5090902 -0.2095384
0.6709453125 -0.5672512 -0.05421512
0.67209375 -0.5800611 0.1183307
0.6732421875 -0.5429271 0.2958723
0.674390625 -0.4525144 0.4648984
0.6755390625 -0.3093878 0.6098275
0.6766875 -0.1183734 0.7142836
0.6778359375 0.110906 0.7626303
0.678984375 0.363341 0.7404051
0.6801328125 0.6192017 0.6362374
0.68128125 0.8533779 0.4430954
0.6824296875 1.037373 0.1602112
0.683578125 1.136786 -0.2033672
0.6847265625 1.117061 -0.6334296
0.685875 0.9374563 -1.102095
0.6870234375 0.553444 -1.55859
0.688171875 -0.08781844 -1.922961
0.6893203125 -1.029979 -2.036582
0.69046875 -2.224167 -1.600654
0.6916171875 -3.243364 -0.1938337
0.692765625 -2.964265 1.991195
0.6939140625 -1.011128 3.271141
0.6950625 0.8955513 2.791507
0.6962109375 1.773069 1.632612
0.697359375 1.902878 0.5861762
0.6985078125 1.667477 -0.168444
0.69965625 1.282659 -0.6548997
0.7008046875 0.8556287 -0.9260741
0.701953125 0.4417999 -1.031491
0.7031015625 0.07151213 -1.010225
0.70425 -0.2362285 -0.8936425
0.7053984375 -0.4702721 -0.7105892
0.706546875 -0.6244516 -0.486779
0.7076953125 -0.6989298 -0.2459659
0.70884375 -0.6976861 -0.01210103
0.7099921875 -0.6301208 0.1980097
0.711140625 -0.5086385 0.368448
0.7122890625 -0.3505862 0.4864999
0.7134375 -0.1717134 0.5488409
0.7145859375 0.008379576 0.5532776
0.715734375 0.1753226 0.5050853
0.7168828125 0.3145562 0.4120953
0.71803125 0.4163975 0.2856149
0.7191796875 0.4742579 0.1387154
0.720328125 0.4853083 -0.01535691
0.7214765625 0.4509245 -0.1634855
0.722625 0.3753342 -0.2935125
0.7237734375 0.2650084 -0.3951873
0.724921875 0.1288812 -0.4602754
0.7260703125 -0.02141898 -0.4822519
0.72721875 -0.1745625 -0.4586598
0.7283671875 -0.3179968 -0.3888151
0.729515625 -0.4370019 -0.275776
0.7306640625 -0.5203733 -0.125725
0.7318125 -0.5559705 0.05033609
0.7329609375 -0.5348986 0.2392706
0.734109375 -0.4513903 0.4246893
0.7352578125 -0.3049141 0.5855995
0.73640625 -0.09929147 0.7023973
0.7375546875 0.1557037 0.7532358
0.738703125 0.4427274 0.7182244
0.7398515625 0.7379593 0.5767599
0.741 1.008332 0.3125392
0.7421484375 1.209132 -0.08976258
0.743296875 1.271353 -0.6420383
0.7444453125 1.079652 -1.338111
0.74559375 0.4237392 -2.091943
0.7467421875 -0.9692711 -2.496891
0.747890625 -2.781501 -1.517697
0.7490390625 -2.918986 0.8206931
0.7501875 -1.453415 2.092717
0.7513359375 -0.1010847 2.034863
0.752484375 0.6673784 1.511396
0.7536328125 1.014447 0.9333932
0.75478125 1.105745 0.4216157
0.7559296875 1.039594 0.004546333
0.757078125 0.8771505 -0.3127101
0.7582265625 0.6582379 -0.533823
0.759375 0.4127938 -0.6636345
0.7605234375 0.1645588 -0.7103016
0.761671875 -0.06711828 -0.6823842
0.7628203125 -0.2659693 -0.593192
0.76396875 -0.4199008 -0.4568467
0.7651171875 -0.5201485 -0.2894971
0.766265625 -0.5631555 -0.1080147
0.7674140625 -0.5505288 0.07013661
0.7685625 -0.4875165 0.2304418
0.7697109375 -0.3829521 0.3601218
0.770859375 -0.2489575 0.4499574
0.7720078125 -0.09841415 0.4951472
0.77315625 0.0549672 0.4945217
0.7743046875 0.1988969 0.4497465
0.775453125 0.3217311 0.3670431
0.7766015625 0.4147668 0.2537256
0.77775 0.4716096 0.1195603
0.7788984375 0.4880095 -0.02547573
0.780046875 0.4630395 -0.1697559
0.7811953125 0.3976641 -0.3027144
0.78234375 0.2954079 -0.4134108
0.7834921875 0.1636888 -0.49283
0.784640625 0.01065887 -0.5325003
0.7857890625 -0.1526864 -0.5267171
0.7869375 -0.3129301 -0.4723756
0.7880859375 -0.4567145 -0.370049
0.789234375 -0.5689842 -0.2239984
0.7903828125 -0.6371545 -0.04306013
0.79153125 -0.6501508 0.1600494
0.7926796875 -0.6000542 0.369261
0.793828125 -0.4831416 0.5660782
0.7949765625 -0.3027699 0.7295762
0.796125 -0.06620214 0.8402289
0.7972734375 0.214324 0.8801836
0.798421875 0.5194721 0.8311239
0.7995703125 0.8265852 0.6810512
0.80071875 1.108094 0.4177025
0.8018671875 1.325796 0.03276104
0.803015625 1.433353 -0.4813613
0.8041640625 1.354931 -1.12129
0.8053125 0.9690484 -1.854543
0.8064609375 0.08147179 -2.543048
0.807609375 -1.486516 -2.726059
0.8087578125 -3.266257 -1.508929
0.80990625 -3.490987 0.9741105
0.8110546875 -1.899096 2.514028
0.812203125 -0.264257 2.560814
0.8133515625 0.7316021 1.971827
0.8145 1.207673 1.269699
0.8156484375 1.351563 0.6327446
0.816796875 1.292236 0.1102686
0.8179453125 1.108281 -0.2881456
0.81909375 0.8541386 -0.5655862
0.8202421875 0.5692366 -0.7318698
0.821390625 0.2830891 -0.797621
0.8225390625 0.01952084 -0.7778797
0.8236875 -0.2044786 -0.690768
0.8248359375 -0.3772603 -0.5540066
0.825984375 -0.4927951 -0.3867649
0.8271328125 -0.5507356 -0.2076275
0.82828125 -0.5543751 -0.03187915
0.8294296875 -0.5110623 0.1268729
0.830578125 -0.429217 0.2585648
0.8317265625 -0.319801 0.3562475
0.832875 -0.1939417 0.4166259
0.8340234375 -0.06228961 0.4385132
0.835171875 0.06544492 0.4234981
0.8363203125 0.1802094 0.3755046
0.83746875 0.2742577 0.2995728
0.8386171875 0.3421183 0.2026381
0.839765625 0.379335 0.09272908
0.8409140625 0.3843276 -0.02178064
0.8420625 0.3568894 -0.131735
0.8432109375 0.2994581 -0.2285846
0.844359375 0.2170396 -0.3047521
0.8455078125 0.1163505 -0.3535701
0.84665625 0.005577263 -0.3709326
0.8478046875 -0.1050963 -0.3547532
0.848953125 -0.2063185 -0.3067585
0.8501015625 -0.2890602 -0.2306206
0.85125 -0.3453702 -0.1334494
0.8523984375 -0.3704062 -0.02358211
0.853546875 -0.3619748 0.08910176
0.8546953125 -0.3206109 0.1946315
0.85584375 -0.2498727 0.2839985
0.8569921875 -0.1552788 0.3495297
0.858140625 -0.04453985 0.3855502
0.8592890625 0.07357903 0.3880464
0.8604375 0.1901246 0.3562411
0.8615859375 0.2953155 0.2909351
0.862734375 0.3809087 0.1955322
0.8638828125 0.4379044 0.07490689
0.86503125 0.4595087 -0.06337559
0.8661796875 0.4397987 -0.2103929
0.867328125 0.3747114 -0.3542346
0.8684765625 0.262759 -0.4830694
0.869625 0.1050502 -0.5815361
0.8707734375 -0.09354461 -0.6340869
0.871921875 -0.323183 -0.6231777
0.8730703125 -0.5682095 -0.5317496
0.87421875 -0.8051863 -0.3403656
0.8753671875 -0.9977643 -0.03236688
0.876515625 -1.087126 0.4055527
0.8776640625 -0.9767301 0.968737
0.8788125 -0.5083248 1.577416
0.8799609375 0.4881711 1.926906
0.881109375 1.764763 1.381
0.8822578125 2.1998 -0.0950734
0.88340625 1.459974 -1.2116
0.8845546875 0.4985371 -1.466812
0.885703125 -0.1800781 -1.251387
0.8868515625 -0.5597748 -0.8888944
0.888 -0.7253643 -0.5203443
0.8891484375 -0.7484315 -0.1964091
0.890296875 -0.6795096 0.06483144
0.8914453125 -0.5539934 0.2592878
0.89259375 -0.3972449 0.3882434
0.8937421875 -0.2289628 0.4560108
0.894890625 -0.06444439 0.4692235
0.8960390625 0.08397785 0.4355958
0.8971875 0.2068639 0.3643698
0.8983359375 0.2969899 0.2655151
0.899484375 0.3505065 0.1499284
0.9006328125 0.3659732 0.0290575
0.90178125 0.3443919 -0.08668171
0.9029296875 0.2901804 -0.1869047
0.904078125 0.2097695 -0.2632707
0.9052265625 0.1120352 -0.3101307
0.906375 0.006810171 -0.323805
0.9075234375 -0.09567072 -0.3045594
0.908671875 -0.1856157 -0.2551843
0.9098203125 -0.2550185 -0.1814214
0.91096875 -0.297947 -0.09072473
0.9121171875 -0.3109771 0.008001075
0.913265625 -0.2933202 0.1057912
0.9144140625 -0.2468116 0.1936874
0.9155625 -0.1757735 0.2639648
0.9167109375 -0.08600302 0.3103334
0.917859375 0.01534614 0.328198
0.9190078125 0.1196585 0.3148168
0.92015625 0.2180449 0.2700273
0.9213046875 0.3018772 0.1954167
0.922453125 0.3623524 0.09510768
0.9236015625 0.3916293 -0.02442923
0.92475 0.3835142 -0.1543258
0.9258984375 0.3335705 -0.2839739
0.927046875 0.2401439 -0.4006046
0.9281953125 0.1052916 -0.4899659
0.92934375 -0.06499317 -0.5374025
0.9304921875 -0.2599223 -0.5286818
0.931640625 -0.4629378 -0.4501917
0.9327890625 -0.6516411 -0.2924918
0.9339375 -0.7967464 -0.04994009
0.9350859375 -0.8589617 0.2742931
0.936234375 -0.7885906 0.6629118
0.9373828125 -0.5244323 1.068827
0.93853125 -0.004058995 1.385357
0.9396796875 0.7683728 1.404546
0.940828125 1.560238 0.8705992
0.9419765625 1.84642 -0.1727008
0.943125 1.360771 -1.121093
0.9442734375 0.5153528 -1.483075
0.945421875 -0.2063332 -1.344574
0.9465703125 -0.6532904 -0.9776642
0.94771875 -0.8575162 -0.5638038
0.9488671875 -0.8886582 -0.1863344
0.950015625 -0.8036303 0.1217763
0.9511640625 -0.648765 0.3503237
0.9523125 -0.4556696 0.499487
0.9534609375 -0.2496058 0.5741723
0.954609375 -0.04952963 0.5824572
0.9557578125 0.1290651 0.5341855
0.95690625 0.274592 0.4417238
0.9580546875 0.3792147 0.3176579
0.959203125 0.4385321 0.1761554
0.9603515625 0.4524712 0.03046868
0.9615 0.4235546 -0.1059646
0.9626484375 0.3577239 -0.222814
0.963796875 0.2640523 -0.311358
0.9649453125 0.1524976 -0.3657571
0.96609375 0.03360025 -0.3843296
0.9672421875 -0.08151088 -0.3676843
0.968390625 -0.1839223 -0.3192339
0.9695390625 -0.265616 -0.2453982
0.9706875 -0.321219 -0.1528974
0.9718359375 -0.3477884 -0.05049923
0.972984375 -0.3440025 0.05365499
0.9741328125 -0.311219 0.1514011
0.97528125 -0.2525018 0.2355472
0.9764296875 -0.172622 0.2995754
0.977578125 -0.07758269 0.3384916
0.9787265625 0.02534727 0.349041
0.979875 0.1282393 0.3297992
0.9810234375 0.222905 0.2815949
0.982171875 0.3015715 0.2067395
0.9833203125 0.3565298 0.1101108
0.98446875 0.3820769 -0.0009769552
0.9856171875 0.3738437 -0.1181911
0.986765625 0.3304903 -0.2314049
0.9879140625 0.2532206 -0.3304118
0.9890625 0.1462779 -0.4048349
0.9902109375 0.01744248 -0.446126
0.991359375 -0.1237016 -0.4477567
0.9925078125 -0.2654918 -0.4056546
0.99365625 -0.3946642 -0.3197202
0.9948046875 -0.4982463 -0.1932046
0.995953125 -0.5644236 -0.03238541
0.9971015625 -0.5821506 0.1526693
0.99825 -0.5418571 0.3490328
0.9993984375 -0.4380049 0.5421823
1.000546875 -0.2653519 0.71257
