# GHZ S RI R 50.0
0.3 -2.418102 -6.468614
0.3011484375 -7.373104 -4.271513
0.302296875 -8.336262 2.47469
0.3034453125 -3.66294 6.068003
0.30459375 0.1032276 5.326862
0.3057421875 1.846206 3.646786
0.306890625 2.434972 2.14942
0.3080390625 2.48251 0.9910764
0.3091875 2.261156 0.1443659
0.3103359375 1.912089 -0.4689366
0.311484375 1.505375 -0.8872014
0.3126328125 1.078248 -1.154985
0.31378125 0.6539382 -1.295725
0.3149296875 0.2496702 -1.328702
0.316078125 -0.1255778 -1.26991
0.3172265625 -0.4560642 -1.126787
0.318375 -0.7321485 -0.911748
0.3195234375 -0.9342886 -0.6388305
0.320671875 -1.051754 -0.3233531
0.3218203125 -1.070833 0.00865244
0.32296875 -0.9890379 0.3272773
0.3241171875 -0.8146008 0.5990568
0.325265625 -0.5680877 0.795777
0.3264140625 -0.2822259 0.8983195
0.3275625 0.006650947 0.9030834
0.3287109375 0.2676615 0.8220015
0.329859375 0.4775007 0.6741603
0.3310078125 0.6251966 0.4834244
0.33215625 0.7069512 0.2725078
0.3333046875 0.7271318 0.06155113
0.334453125 0.6925232 -0.1369089
0.3356015625 0.6122579 -0.3110354
0.33675 0.4955942 -0.4549274
0.3378984375 0.3505179 -0.5630434
0.339046875 0.1860402 -0.6324359
0.3401953125 0.009687591 -0.6591548
0.34134375 -0.1699046 -0.6422979
0.3424921875 -0.3437636 -0.5787752
0.343640625 -0.5001783 -0.470784
0.3447890625 -0.6270509 -0.3182433
0.3459375 -0.7115747 -0.1284764
0.3470859375 -0.7399125 0.08814326
0.348234375 -0.7012324 0.3156469
0.3493828125 -0.5894856 0.5291973
0.35053125 -0.4089464 0.705058
0.3516796875 -0.1733315 0.8177528
0.352828125 0.09330998 0.8492007
0.3539765625 0.3606624 0.7927089
0.355125 0.5985446 0.6519285
0.3562734375 0.7829655 0.4440392
0.357421875 0.8967485 0.1878631
0.3585703125 0.9335205 -0.09279478
0.35971875 0.8873476 -0.3756256
0.3608671875 0.7645394 -0.643321
0.362015625 0.5670357 -0.8770093
0.3631640625 0.3006089 -1.062195
0.3643125 -0.02784879 -1.18226
0.3654609375 -0.4150365 -1.214731
0.366609375 -0.847877 -1.137929
0.3677578125 -1.308108 -0.9098841
0.36890625 -1.767458 -0.4869937
0.3700546875 -2.13865 0.2103871
0.371203125 -2.278551 1.246972
0.3723515625 -1.794956 2.609259
0.3735 -0.1759152 3.875918
0.3746484375 2.536509 3.581318
0.375796875 4.177661 1.048061
0.3769453125 3.426246 -1.44615
0.37809375 1.780129 -2.468103
0.3792421875 0.3661155 -2.468575
0.380390625 -0.5664506 -1.991197
0.3815390625 -1.096391 -1.360056
0.3826875 -1.296307 -0.7401033
0.3838359375 -1.277842 -0.1997212
0.384984375 -1.111456 0.2148919
0.3861328125 -0.8641239 0.5073143
0.38728125 -0.5845045 0.6795729
0.3884296875 -0.3052426 0.7495668
0.389578125 -0.0501169 0.7376828
0.3907265625 0.1658045 0.6605762
0.391875 0.33708 0.5385199
0.3930234375 0.4561584 0.3855954
0.394171875 0.5263487 0.2156528
0.3953203125 0.543928 0.042516
0.39646875 0.5147446 -0.1251255
0.3976171875 0.4400465 -0.2726178
0.398765625 0.3263401 -0.3935055
0.3999140625 0.1815121 -0.475086
0.4010625 0.01658763 -0.5084895
0.4022109375 -0.1547474 -0.4892145
0.403359375 -0.3141238 -0.41251
0.4045078125 -0.4444683 -0.284409
0.40565625 -0.5243746 -0.1144734
0.4068046875 -0.5432385 0.07869396
0.407953125 -0.4906563 0.2708624
0.4091015625 -0.3733508 0.4388347
0.41025 -0.1997884 0.5564783
0.4113984375 0.009058616 0.6114814
0.412546875 0.2300813 0.5923513
0.4136953125 0.4411428 0.4974067
0.41484375 0.6203855 0.3337354
0.4159921875 0.7445012 0.1049613
0.417140625 0.7997769 -0.1724489
0.4182890625 0.7550765 -0.4863298
0.4194375 0.6007302 -0.8145581
0.4205859375 0.2891904 -1.114815
0.421734375 -0.1973987 -1.340243
0.4228828125 -0.8860243 -1.334242
0.42403125 -1.702268 -0.9133695
0.4251796875 -2.27188 0.1618209
0.426328125 -1.902677 1.624514
0.4274765625 -0.5261176 2.425512
0.428625 0.8260952 2.064462
0.4297734375 1.531965 1.194025
0.430921875 1.64285 0.3365588
0.4320703125 1.434875 -0.331901
0.43321875 1.060762 -0.7597674
0.4343671875 0.6291101 -0.9909808
0.435515625 0.2124626 -1.042596
0.4366640625 -0.1512752 -0.9603319
0.4378125 -0.432171 -0.7838548
0.4389609375 -0.6180308 -0.5504116
0.440109375 -0.7105748 -0.2973523
0.4412578125 -0.7177289 -0.05275229
0.44240625 -0.6567779 0.1641275
0.4435546875 -0.5436928 0.3369665
0.444703125 -0.3966812 0.4621501
0.4458515625 -0.2317785 0.5346678
0.447 -0.06213726 0.5583105
0.4481484375 0.09940209 0.5359136
0.449296875 0.2439193 0.4726551
0.4504453125 0.3634715 0.3760223
0.45159375 0.4504449 0.252614
0.4527421875 0.501188 0.1111247
0.453890625 0.5107427 -0.03851593
0.4550390625 0.4788615 -0.186629
0.4561875 0.4048794 -0.320626
0.4573359375 0.2939294 -0.430421
0.458484375 0.153035 -0.5031468
0.4596328125 -0.00632012 -0.53157
0.46078125 -0.1693636 -0.5093237
0.4619296875 -0.3199134 -0.4367834
0.463078125 -0.4413579 -0.3201147
0.4642265625 -0.5208225 -0.1707463
0.465375 -0.5505269 -0.004108759
0.4665234375 -0.5272775 0.1628394
0.467671875 -0.4559966 0.3147403
0.4688203125 -0.3431523 0.4370756
0.46996875 -0.2016197 0.5215757
0.4711171875 -0.04195249 0.5616425
0.472265625 0.1225708 0.5565104
0.4734140625 0.2801635 0.5065899
0.4745625 0.4208918 0.415147
0.4757109375 0.5348122 0.2869487
0.476859375 0.6129147 0.1286599
0.4780078125 0.6492088 -0.05107034
0.47915625 0.6346901 -0.2432702
0.4803046875 0.5663397 -0.4348436
0.481453125 0.4414633 -0.6125072
0.4826015625 0.2601497 -0.7602844
0.48375 0.02669444 -0.8579093
0.4848984375 -0.247328 -0.8900648
0.486046875 -0.5453714 -0.8348815
0.4871953125 -0.8430758 -0.6817294
0.48834375 -1.107163 -0.4200945
0.4894921875 -1.300637 -0.05128387
0.490640625 -1.381905 0.4111902
0.4917890625 -1.303791 0.9429661
0.4929375 -1.026976 1.501109
0.4940859375 -0.4951947 2.020041
0.495234375 0.3311318 2.402521
0.4963828125 1.496042 2.45149
0.49753125 2.941308 1.850377
0.4986796875 4.146684 0.0774845
0.499828125 3.805638 -2.721695
0.5009765625 1.222978 -4.420363
0.502125 -1.356494 -3.719556
0.5032734375 -2.492943 -2.102193
0.504421875 -2.594575 -0.6940572
0.5055703125 -2.242002 0.2965853
0.50671875 -1.715152 0.9163256
0.5078671875 -1.14743 1.264819
0.509015625 -0.6064833 1.400331
0.5101640625 -0.11682 1.378864
0.5113125 0.2925375 1.234726
0.5124609375 0.6130409 1.002942
0.513609375 0.8345418 0.7133048
0.5147578125 0.9520999 0.3951971
0.51590625 0.970202 0.07700074
0.5170546875 0.8964674 -0.213199
0.518203125 0.7473484 -0.4551329
0.5193515625 0.544398 -0.6294898
0.5205 0.3109325 -0.7301959
0.5216484375 0.07204364 -0.7540454
0.522796875 -0.1516062 -0.7086799
0.5239453125 -0.3410264 -0.6055248
0.52509375 -0.4856771 -0.4591877
0.5262421875 -0.578132 -0.2859913
0.527390625 -0.6163068 -0.1023739
0.5285390625 -0.6026481 0.07816195
0.5296875 -0.5416077 0.2425774
0.5308359375 -0.4405532 0.3814202
0.531984375 -0.308659 0.4844289
0.5331328125 -0.1551476 0.5479519
0.53428125 0.008901353 0.5664367
0.5354296875 0.1722134 0.539654
0.536578125 0.3238659 0.4679756
0.5377265625 0.4496436 0.3555128
0.538875 0.5413207 0.2093879
0.5400234375 0.5873794 0.03952806
0.541171875 0.5823206 -0.1417933
0.5423203125 0.521991 -0.317889
0.54346875 0.4087701 -0.4721299
0.5446171875 0.2499247 -0.5890232
0.545765625 0.05680207 -0.6534392
0.5469140625 -0.1533908 -0.6571669
0.5480625 -0.3614213 -0.593843
0.5492109375 -0.5473961 -0.4665482
0.550359375 -0.6912638 -0.281503
0.5515078125 -0.7782164 -0.05183935
0.55265625 -0.791662 0.2064657
0.5538046875 -0.7255525 0.4750378
0.554953125 -0.5711116 0.7296248
0.5561015625 -0.3247289 0.9470003
0.55725 0.01051299 1.096589
0.5583984375 0.4312644 1.137368
0.559546875 0.9179273 1.025182
0.5606953125 1.423301 0.6812037
0.56184375 1.852397 0.03167682
0.5629921875 1.940968 -0.9804903
0.564140625 1.315184 -2.175694
0.5652890625 -0.2377542 -2.732439
0.5664375 -1.8283 -1.965292
0.5675859375 -2.317714 -0.4962194
0.568734375 -1.89217 0.6460034
0.5698828125 -1.165249 1.216348
0.57103125 -0.4655723 1.350803
0.5721796875 0.09432309 1.230635
0.573328125 0.4794528 0.9662597
0.5744765625 0.7113515 0.641349
0.575625 0.798736 0.3122505
0.5767734375 0.7776145 0.01107964
0.577921875 0.6717755 -0.2324486
0.5790703125 0.5106669 -0.4112516
0.58021875 0.3212292 -0.5195398
0.5813671875 0.1243325 -0.5590134
0.582515625 -0.06126068 -0.538618
0.5836640625 -0.2206665 -0.4670251
0.5848125 -0.3456422 -0.3572852
0.5859609375 -0.4270933 -0.2212747
0.587109375 -0.4646461 -0.07210818
0.5882578125 -0.4556069 0.07704994
0.58940625 -0.4040618 0.2160849
0.5905546875 -0.3139032 0.3316422
0.591703125 -0.1927239 0.4157369
0.5928515625 -0.0510524 0.4601358
0.594 0.1000434 0.4588535
0.5951484375 0.2470064 0.4109121
0.596296875 0.3746164 0.3170647
0.5974453125 0.470294 0.1846662
0.59859375 0.5206029 0.02328536
0.5997421875 0.5188844 -0.1521551
0.600890625 0.4581985 -0.3239625
0.6020390625 0.3432038 -0.4752943
0.6031875 0.1788567 -0.5871421
0.6043359375 -0.02203052 -0.6455082
0.605484375 -0.2424951 -0.6391721
0.6066328125 -0.4637826 -0.5596309
0.60778125 -0.6649566 -0.4077471
0.6089296875 -0.8228591 -0.1827739
0.610078125 -0.9165072 0.1048031
0.6112265625 -0.9156594 0.446377
0.612375 -0.7994828 0.8194515
0.6135234375 -0.524066 1.191455
0.614671875 -0.05919059 1.513708
0.6158203125 0.639973 1.668477
0.61696875 1.566082 1.471045
0.6181171875 2.506911 0.6105301
0.619265625 2.773429 -1.046478
0.6204140625 1.632302 -2.636109
0.6215625 -0.2251759 -2.8468
0.6227109375 -1.47546 -1.976935
0.623859375 -1.875249 -0.9026323
0.6250078125 -1.775639 -0.02718127
0.62615625 -1.426184 0.5659751
0.6273046875 -0.9850939 0.9196603
0.628453125 -0.5375396 1.071939
0.6296015625 -0.1296916 1.070836
0.63075 0.2094139 0.9577228
0.6318984375 0.4635759 0.7683027
0.633046875 0.6310681 0.5367345
0.6341953125 0.7116587 0.2913953
0.63534375 0.7166341 0.05395994
0.6364921875 0.6566413 -0.1548542
0.637640625 0.5477998 -0.3258578
0.6387890625 0.4052126 -0.4496937
0.6399375 0.2432368 -0.5245295
0.6410859375 0.07625835 -0.5497978
0.642234375 -0.08392027 -0.5288753
0.6433828125 -0.2261562 -0.4668296
0.64453125 -0.3424075 -0.3716345
0.6456796875 -0.4257162 -0.2507672
0.646828125 -0.4710579 -0.1145748
0.6479765625 -0.4767795 0.02660928
0.649125 -0.4428038 0.162012
0.6502734375 -0.3723899 0.2820706
0.651421875 -0.2719117 0.3756302
0.6525703125 -0.1484448 0.436813
0.65371875 -0.01316109 0.458937
0.6548671875 0.1228835 0.4409068
0.656015625 0.2471751 0.3839454
0.6571640625 0.348888 0.292962
0.6583125 0.419339 0.176407
0.6594609375 0.4523169 0.04475228
0.660609375 0.4456488 -0.09045352
0.6617578125 0.400133 -0.2174992
0.66290625 0.3203019 -0.3259594
0.6640546875 0.2125546 -0.4070947
0.665203125 0.08599436 -0.4548382
0.6663515625 -0.04966167 -0.4646878
0.6675 -0.184195 -0.436226
0.6686484375 -0.3069964 -0.3705858
0.669796875 -0.4087017 -0.2716782
0.6709453125 -0.480917 -0.1456951
0.67209375 -0.5158105 -0.0001351376
0.6732421875 -0.5090551 0.1543567
0.674390625 -0.4570705 0.306335
0.6755390625 -0.3607338 0.4434198
0.6766875 -0.2219874 0.5516292
0.6778359375 -0.05016045 0.6193942
0.678984375 0.144324 0.635126
0.6801328125 0.3463969 0.5909765
0.68128125 0.5370604 0.4825798
0.6824296875 0.6975747 0.3123142
0.683578125 0.8070097 0.08756892
0.6847265625 0.8470911 -0.1785134
0.685875 0.8035765 -0.4660127
0.6870234375 0.6629943 -0.7508107
0.688171875 0.4219723 -1.004886
0.6893203125 0.07965066 -1.192108
0.69046875 -0.3553627 -1.278394
0.6916171875 -0.867671 -1.211106
0.692765625 -1.421012 -0.9362081
0.6939140625 -1.934222 -0.370685
0.6950625 -2.247081 0.5537685
0.6962109375 -2.029683 1.813182
0.697359375 -0.8556895 2.98549
0.6985078125 1.096535 3.092635
0.69965625 2.538042 1.772533
0.7008046875 2.706172 0.1230853
0.701953125 2.07282 -0.9846355
0.7031015625 1.242932 -1.501257
0.70425 0.4902536 -1.603151
0.7053984375 -0.1116676 -1.459665
0.706546875 -0.5414942 -1.179291
0.7076953125 -0.8141741 -0.8312873
0.70884375 -0.9460214 -0.4669618
0.7099921875 -0.9574444 -0.1234744
0.711140625 -0.8720279 0.1756665
0.7122890625 -0.7159855 0.4122361
0.7134375 -0.5130215 0.5754302
0.7145859375 -0.2886059 0.6637469
0.715734375 -0.06463625 0.6788424
0.7168828125 0.1408306 0.6308055
0.71803125 0.3112692 0.5302156
0.7191796875 0.4384625 0.3915404
0.720328125 0.5151345 0.2303861
0.7214765625 0.5409933 0.0607234
0.722625 0.5176758 -0.102216
0.7237734375 0.4504548 -0.2474815
0.724921875 0.3468688 -0.3642017
0.7260703125 0.2163587 -0.4443532
0.72721875 0.07029568 -0.4832368
0.7283671875 -0.07980524 -0.4777952
0.729515625 -0.2219298 -0.4288204
0.7306640625 -0.3435718 -0.339353
0.7318125 -0.4341773 -0.2173637
0.7329609375 -0.4844314 -0.0711712
0.734109375 -0.4886468 0.08557086
0.7352578125 -0.443638 0.2395346
0.73640625 -0.3507729 0.3759665
0.7375546875 -0.2171976 0.4799152
0.738703125 -0.05170583 0.5390806
0.7398515625 0.1294997 0.5447606
0.741 0.3112133 0.4903376
0.7421484375 0.4753859 0.3779975
0.743296875 0.6024421 0.2101311
0.7444453125 0.6772383 -0.00188811
0.74559375 0.6816117 -0.2444194
0.7467421875 0.604497 -0.4999334
0.747890625 0.4323032 -0.7425336
0.7490390625 0.1504472 -0.9084778
0.7501875 -0.220231 -1.01794
0.7513359375 -0.6893799 -0.9868461
0.752484375 -1.230668 -0.7220716
0.7536328125 -1.70268 -0.08180434
0.75478125 -1.777307 0.991201
0.7559296875 -0.9326116 2.122666
0.757078125 0.6350362 2.221922
0.7582265625 1.64029 1.241269
0.759375 1.731757 0.1507755
0.7605234375 1.34084 -0.5642325
0.761671875 0.8350445 -0.9144198
0.7628203125 0.3559861 -1.015189
0.76396875 -0.04358209 -0.9496652
0.7651171875 -0.3405941 -0.7816947
0.766265625 -0.5389869 -0.5580577
0.7674140625 -0.6421404 -0.3122852
0.7685625 -0.6583138 -0.07369983
0.7697109375 -0.6048785 0.1386532
0.770859375 -0.496991 0.3105963
0.7720078125 -0.3513428 0.4311888
0.77315625 -0.1872615 0.4981586
0.7743046875 -0.01932764 0.5118976
0.775453125 0.1375287 0.4762232
0.7766015625 0.2711587 0.399181
0.77775 0.3731369 0.2897827
0.7788984375 0.4374713 0.1585599
0.780046875 0.459596 0.01742706
0.7811953125 0.4408406 -0.1227946
0.78234375 0.382237 -0.2512997
0.7834921875 0.2889724 -0.3565271
0.784640625 0.1683688 -0.4310114
0.7857890625 0.02951319 -0.4677081
0.7869375 -0.1166264 -0.4615517
0.7880859375 -0.2568682 -0.4117125
0.789234375 -0.379061 -0.3206348
0.7903828125 -0.4711736 -0.1935108
0.79153125 -0.5218701 -0.0401208
0.7926796875 -0.5249478 0.126332
0.793828125 -0.4770047 0.2921984
0.7949765625 -0.3761438 0.4406102
0.796125 -0.2302132 0.5564421
0.7972734375 -0.04960071 0.6271017
0.798421875 0.1537501 0.6412269
0.7995703125 0.3630057 0.5929248
0.80071875 0.5603062 0.4782496
0.8018671875 0.7273844 0.2993308
0.803015625 0.8433114 0.06070575
0.8041640625 0.8899227 -0.2261739
0.8053125 0.8469974 -0.5479895
0.8064609375 0.6893585 -0.8834774
0.807609375 0.3961634 -1.200207
0.8087578125 -0.0577317 -1.450921
0.80990625 -0.6992425 -1.54454
0.8110546875 -1.510533 -1.334622
0.812203125 -2.347929 -0.5873092
0.8133515625 -2.731011 0.8893448
0.8145 -1.795019 2.542517
0.8156484375 0.1240756 2.9887
0.816796875 1.546795 2.093017
0.8179453125 1.987484 0.8938174
0.81909375 1.822997 -0.04358612
0.8202421875 1.409347 -0.6411496
0.821390625 0.9283619 -0.9588775
0.8225390625 0.471683 -1.068892
0.8236875 0.07653934 -1.033898
0.8248359375 -0.238206 -0.8999362
0.825984375 -0.464774 -0.7038283
0.8271328125 -0.6046441 -0.4782962
0.82828125 -0.6653412 -0.2471167
0.8294296875 -0.6572227 -0.03073773
0.830578125 -0.5934319 0.1572097
0.8317265625 -0.4874755 0.3069186
0.832875 -0.3538729 0.4131358
0.8340234375 -0.2058884 0.4733289
0.835171875 -0.05538639 0.4894395
0.8363203125 0.08633047 0.4642107
0.83746875 0.2096668 0.4035017
0.8386171875 0.3076768 0.3144051
0.839765625 0.3749203 0.2047575
0.8409140625 0.4074278 0.08429003
0.8420625 0.4049314 -0.03777399
0.8432109375 0.3685747 -0.1522131
0.844359375 0.3020691 -0.2495222
0.8455078125 0.2114614 -0.3223478
0.84665625 0.1051137 -0.3655299
0.8478046875 -0.008280493 -0.3752926
0.848953125 -0.1180416 -0.3517069
0.8501015625 -0.2149306 -0.2973102
0.85125 -0.2910694 -0.2178814
0.8523984375 -0.3395713 -0.1204108
0.853546875 -0.3570943 -0.01411929
0.8546953125 -0.3433028 0.09163771
0.85584375 -0.2993162 0.187844
0.8569921875 -0.2301923 0.2669073
0.858140625 -0.1418351 0.3227229
0.8592890625 -0.04129946 0.3509275
0.8604375 0.06329085 0.3494237
0.8615859375 0.1638244 0.3185657
0.862734375 0.2525087 0.2600546
0.8638828125 0.3227033 0.1777057
0.86503125 0.3676327 0.07711329
0.8661796875 0.3833738 -0.03486905
0.867328125 0.3657652 -0.1504695
0.8684765625 0.3145572 -0.2602284
0.869625 0.2308508 -0.3547899
0.8707734375 0.1180735 -0.4243704
0.871921875 -0.01661016 -0.4599746
0.8730703125 -0.1640068 -0.4544573
0.87421875 -0.312447 -0.4024546
0.8753671875 -0.4471309 -0.3022073
0.876515625 -0.5530926 -0.155785
0.8776640625 -0.6152629 0.03049614
0.8788125 -0.616841 0.2452242
0.8799609375 -0.5464954 0.47161
0.881109375 -0.392798 0.6887354
0.8822578125 -0.1463722 0.8671305
0.88340625 0.1928741 0.9699246
0.8845546875 0.6182492 0.9460884
0.885703125 1.097004 0.7159815
0.8868515625 1.524166 0.1859226
0.888 1.64987 -0.6964226
0.8891484375 1.087745 -1.683482
0.890296875 -0.1361871 -2.016644
0.8914453125 -1.163723 -1.421696
0.89259375 -1.481052 -0.5148617
0.8937421875 -1.301057 0.1846632
0.894890625 -0.9376538 0.5987595
0.8960390625 -0.5465009 0.7862706
0.8971875 -0.1961055 0.8129171
0.8983359375 0.08954158 0.7367731
0.899484375 0.3020932 0.5957465
0.9006328125 0.4406444 0.4183186
0.90178125 0.5089667 0.2286495
0.9029296875 0.5149356 0.04521472
0.904078125 0.4677269 -0.1172287
0.9052265625 0.379361 -0.2458687
0.906375 0.2635646 -0.3352678
0.9075234375 0.1340533 -0.3814993
0.908671875 0.004489613 -0.3848405
0.9098203125 -0.1134642 -0.3499135
0.91096875 -0.2103344 -0.2839291
0.9121171875 -0.2789241 -0.195159
0.913265625 -0.3158169 -0.09403754
0.9144140625 -0.3204078 0.009936685
0.9155625 -0.2940701 0.107702
0.9167109375 -0.2408891 0.1905965
0.917859375 -0.1669456 0.2527921
0.9190078125 -0.07879923 0.2897865
0.92015625 0.01550072 0.2984439
0.9213046875 0.108191 0.2787838
0.922453125 0.1912354 0.2322612
0.9236015625 0.2569438 0.1619294
0.92475 0.2992992 0.07377897
0.9258984375 0.3134346 -0.02515112
0.927046875 0.296239 -0.1263977
0.9281953125 0.2472218 -0.2204925
0.92934375 0.1690139 -0.2977591
0.9304921875 0.06651846 -0.3490446
0.931640625 -0.05221996 -0.3663178
0.9327890625 -0.1763379 -0.3446492
0.9339375 -0.2936475 -0.2819532
0.9350859375 -0.3905191 -0.1789649
0.936234375 -0.4543115 -0.04219465
0.9373828125 -0.4730901 0.1192188
0.93853125 -0.4358799 0.2919564
0.9396796875 -0.3365688 0.4585313
0.940828125 -0.172255 0.5981799
0.9419765625 0.05587789 0.6860514
0.943125 0.3375329 0.690188
0.9442734375 0.6488236 0.576515
0.945421875 0.9441871 0.305606
0.9465703125 1.125747 -0.1526222
0.94771875 1.050462 -0.756348
0.9488671875 0.5721027 -1.317865
0.950015625 -0.24448 -1.480568
0.9511640625 -0.9827471 -1.081654
0.9523125 -1.286897 -0.3867604
0.9534609375 -1.171344 0.2395033
0.954609375 -0.8393438 0.6387351
0.9557578125 -0.4520704 0.818092
0.95690625 -0.09484528 0.8296742
0.9580546875 0.1918066 0.7284473
0.959203125 0.3970825 0.5600665
0.9603515625 0.5195039 0.358395
0.9615 0.5639821 0.1518829
0.9626484375 0.5432761 -0.03967028
0.963796875 0.4702311 -0.2010071
0.9649453125 0.3593658 -0.3215511
0.96609375 0.2265607 -0.397282
0.9672421875 0.08631872 -0.4271923
0.968390625 -0.04873321 -0.4141876
0.9695390625 -0.167099 -0.3643543
0.9706875 -0.2610846 -0.2855774
0.9718359375 -0.3255317 -0.1869009
0.972984375 -0.3568157 -0.07794651
0.9741328125 -0.3555535 0.03214471
0.97528125 -0.3237522 0.1347286
0.9764296875 -0.2649297 0.2218374
0.977578125 -0.1849307 0.287737
0.9787265625 -0.09022814 0.3275661
0.979875 0.01141678 0.3384279
0.9810234375 0.111721 0.3195985
0.982171875 0.2026815 0.2726319
0.9833203125 0.2767235 0.2007076
0.98446875 0.3267451 0.1093477
0.9856171875 0.3484796 0.006084014
0.986765625 0.3385278 -0.1006549
0.9879140625 0.2967688 -0.201041
0.9890625 0.2260172 -0.2864672
0.9902109375 0.1311206 -0.3481302
0.991359375 0.01975762 -0.3794182
0.9925078125 -0.09831512 -0.375983
0.99365625 -0.2131548 -0.3372331
0.9948046875 -0.3141211 -0.2642389
0.995953125 -0.3915891 -0.1617073
0.9971015625 -0.4369389 -0.03689476
0.99825 -0.4449216 0.1010322
0.9993984375 -0.4105392 0.2413352
1.000546875 -0.3336271 0.3723192
