# GHZ S RI R 50.0
0.3 -9.787838 -4.299347
0.3011484375 -8.155913 3.836606
0.302296875 -3.109098 5.796923
0.3034453125 -0.04949641 4.872192
0.30459375 1.429914 3.485121
0.3057421875 2.049981 2.230127
0.306890625 2.205446 1.208947
0.3080390625 2.103487 0.4134493
0.3091875 1.860246 -0.1901708
0.3103359375 1.538889 -0.6294155
0.311484375 1.178914 -0.9348924
0.3126328125 0.8062962 -1.122529
0.31378125 0.4359214 -1.211737
0.3149296875 0.08188233 -1.211465
0.316078125 -0.2442153 -1.130967
0.3172265625 -0.5310521 -0.978454
0.318375 -0.7627172 -0.7634661
0.3195234375 -0.9276938 -0.4960589
0.320671875 -1.010202 -0.1965606
0.3218203125 -1.001593 0.1144691
0.32296875 -0.8986285 0.406194
0.3241171875 -0.7107358 0.6485884
0.325265625 -0.4610522 0.8134123
0.3264140625 -0.1798013 0.886875
0.3275625 0.09844477 0.8668944
0.3287109375 0.3428553 0.765037
0.329859375 0.5334687 0.6028606
0.3310078125 0.6596514 0.4041725
0.33215625 0.7205228 0.190187
0.3333046875 0.7200509 -0.01906841
0.334453125 0.6671124 -0.2118587
0.3356015625 0.5706363 -0.3781569
0.33675 0.4395614 -0.5104783
0.3378984375 0.2829266 -0.6049089
0.339046875 0.1094793 -0.6576938
0.3401953125 -0.0730696 -0.6670331
0.34134375 -0.2561193 -0.6295167
0.3424921875 -0.4278257 -0.5455215
0.343640625 -0.5784565 -0.413914
0.3447890625 -0.6937312 -0.239223
0.3459375 -0.7596914 -0.02874908
0.3470859375 -0.7632842 0.2068384
0.348234375 -0.6919456 0.4456814
0.3493828125 -0.5411137 0.6645891
0.35053125 -0.3178886 0.8327494
0.3516796875 -0.03792243 0.9249701
0.352828125 0.26953 0.9209369
0.3539765625 0.5696141 0.8138464
0.355125 0.8281973 0.6103616
0.3562734375 1.016137 0.3276452
0.357421875 1.114013 -0.01054002
0.3585703125 1.108575 -0.3790258
0.35971875 0.9920655 -0.7529214
0.3608671875 0.7585731 -1.107516
0.362015625 0.3992946 -1.417074
0.3631640625 -0.09979603 -1.646649
0.3643125 -0.7607829 -1.737896
0.3654609375 -1.604332 -1.578525
0.366609375 -2.599568 -0.9338781
0.3677578125 -3.417736 0.612596
0.36890625 -2.813021 3.12865
0.3700546875 0.1567532 4.32969
0.371203125 2.492843 2.701829
0.3723515625 2.824067 0.7272925
0.3735 2.278172 -0.5185004
0.3746484375 1.536029 -1.165222
0.375796875 0.8209435 -1.4149
0.3769453125 0.2017598 -1.402424
0.37809375 -0.2855555 -1.214415
0.3792421875 -0.6269273 -0.9178341
0.380390625 -0.8204702 -0.5693144
0.3815390625 -0.8762254 -0.2200116
0.3826875 -0.8174655 0.09172399
0.3838359375 -0.6741862 0.335951
0.384984375 -0.4792595 0.502736
0.3861328125 -0.2630546 0.5890965
0.38728125 -0.05002082 0.6021669
0.3884296875 0.1413627 0.5535031
0.389578125 0.2987114 0.4565854
0.3907265625 0.4142016 0.324921
0.391875 0.4844313 0.1714268
0.3930234375 0.5065868 0.0089285
0.394171875 0.481979 -0.1518892
0.3953203125 0.4125737 -0.2998001
0.39646875 0.3015571 -0.4237868
0.3976171875 0.1547305 -0.5135992
0.398765625 -0.02048611 -0.5582569
0.3999140625 -0.2117928 -0.5478623
0.4010625 -0.4035905 -0.4742865
0.4022109375 -0.5760065 -0.3339489
0.403359375 -0.7045874 -0.1282163
0.4045078125 -0.7637647 0.1306349
0.40565625 -0.7299945 0.4217677
0.4068046875 -0.5875297 0.7115213
0.407953125 -0.3291817 0.9610424
0.4091015625 0.03804217 1.126007
0.41025 0.4932189 1.162809
0.4113984375 1.00349 1.025992
0.412546875 1.522815 0.6658145
0.4136953125 1.970507 0.01858445
0.41484375 2.185956 -1.003901
0.4159921875 1.780204 -2.431154
0.417140625 0.02440123 -3.724495
0.4182890625 -2.755745 -3.006291
0.4194375 -3.623613 -0.3362177
0.4205859375 -2.550312 1.422014
0.421734375 -1.275877 1.950218
0.4228828125 -0.3183383 1.889815
0.42403125 0.3304517 1.591853
0.4251796875 0.7453413 1.206316
0.426328125 0.9821948 0.7975762
0.4274765625 1.078468 0.39957
0.428625 1.060211 0.03349769
0.4297734375 0.9480747 -0.2824889
0.430921875 0.76262 -0.5335777
0.4320703125 0.5254748 -0.7069119
0.43321875 0.2619646 -0.7957041
0.4343671875 -0.002185209 -0.7984219
0.435515625 -0.2420981 -0.722688
0.4366640625 -0.4356309 -0.5834615
0.4378125 -0.5692484 -0.4007724
0.4389609375 -0.6360632 -0.1976971
0.440109375 -0.6377398 0.004500442
0.4412578125 -0.5828382 0.1872654
0.44240625 -0.4827271 0.3378966
0.4435546875 -0.350654 0.4476817
0.444703125 -0.2007398 0.5134712
0.4458515625 -0.04518104 0.5349478
0.447 0.1056208 0.5147161
0.4481484375 0.2414869 0.45712
0.449296875 0.3557427 0.3673902
0.4504453125 0.4417719 0.2518029
0.45159375 0.4943284 0.1180816
0.4527421875 0.5101115 -0.02609667
0.453890625 0.485761 -0.1710895
0.4550390625 0.4217001 -0.3066398
0.4561875 0.3200207 -0.4216846
0.4573359375 0.1862101 -0.5053405
0.458484375 0.02932495 -0.5478593
0.4596328125 -0.138153 -0.5417827
0.46078125 -0.3000403 -0.4837758
0.4619296875 -0.4398691 -0.3767919
0.463078125 -0.5416713 -0.2292527
0.4642265625 -0.5937122 -0.05508073
0.465375 -0.5898787 0.1283486
0.4665234375 -0.5301171 0.3032354
0.467671875 -0.4211637 0.4525424
0.4688203125 -0.272206 0.5636517
0.46996875 -0.09744606 0.6280355
0.4711171875 0.08978885 0.6410873
0.472265625 0.2756458 0.6016331
0.4734140625 0.4473646 0.5120759
0.4745625 0.5930707 0.3765845
0.4757109375 0.702832 0.2013449
0.476859375 0.7653112 -0.005770287
0.4780078125 0.7723663 -0.2350171
0.47915625 0.7151813 -0.4737257
0.4803046875 0.587579 -0.7064396
0.481453125 0.3843431 -0.9149633
0.4826015625 0.1048087 -1.075811
0.48375 -0.2465244 -1.162601
0.4848984375 -0.6577309 -1.143378
0.486046875 -1.105004 -0.9846199
0.4871953125 -1.550524 -0.6494116
0.48834375 -1.934279 -0.1016512
0.4894921875 -2.16295 0.6908038
0.490640625 -2.084232 1.745293
0.4917890625 -1.431714 3.008984
0.4929375 0.2339511 4.157789
0.4940859375 3.177157 4.014196
0.495234375 5.517441 0.930688
0.4963828125 4.250778 -2.695227
0.49753125 1.568639 -3.713716
0.4986796875 -0.2884802 -3.171096
0.499828125 -1.251446 -2.250761
0.5009765625 -1.651649 -1.361993
0.502125 -1.720497 -0.6122269
0.5032734375 -1.591952 -0.01762794
0.504421875 -1.346526 0.4298447
0.5055703125 -1.035796 0.7436851
0.50671875 -0.6967067 0.9347227
0.5078671875 -0.3528893 1.018726
0.509015625 -0.02933108 1.006688
0.5101640625 0.2583046 0.9127218
0.5113125 0.4943066 0.7517051
0.5124609375 0.666074 0.5409311
0.513609375 0.7660253 0.2998128
0.5147578125 0.7899743 0.04923119
0.51590625 0.739845 -0.1884438
0.5170546875 0.6239534 -0.3933091
0.518203125 0.456695 -0.5481802
0.5193515625 0.2571489 -0.6413407
0.5205 0.04583187 -0.6685159
0.5216484375 -0.1566703 -0.6314456
0.522796875 -0.3326949 -0.5380845
0.5239453125 -0.4678742 -0.4015464
0.52509375 -0.5543519 -0.2368132
0.5262421875 -0.5883383 -0.05893054
0.527390625 -0.5703995 0.1173867
0.5285390625 -0.5046489 0.2786831
0.5296875 -0.3972359 0.4135723
0.5308359375 -0.2567906 0.5127401
0.531984375 -0.09374955 0.5693141
0.5331328125 0.08095835 0.5783421
0.53428125 0.2551311 0.5372337
0.5354296875 0.4153279 0.4460911
0.536578125 0.5480834 0.3079523
0.5377265625 0.6396694 0.1293469
0.538875 0.6771185 -0.07986329
0.5400234375 0.6496121 -0.3038506
0.541171875 0.5493251 -0.52477
0.5423203125 0.3729719 -0.7195014
0.54346875 0.1239236 -0.8626645
0.5446171875 -0.1867465 -0.9275129
0.545765625 -0.5393991 -0.8865907
0.5469140625 -0.9056298 -0.7144431
0.5480625 -1.245482 -0.3861786
0.5492109375 -1.499459 0.1248287
0.550359375 -1.571404 0.8426259
0.5515078125 -1.274045 1.766238
0.55265625 -0.2545274 2.720861
0.5538046875 1.81544 2.831692
0.554953125 3.514564 0.7555046
0.5561015625 2.650938 -1.614184
0.55725 0.9743271 -2.231705
0.5583984375 -0.1656302 -1.913326
0.559546875 -0.7735087 -1.358811
0.5606953125 -1.039761 -0.8059883
0.56184375 -1.091486 -0.3232136
0.5629921875 -1.005381 0.07079464
0.564140625 -0.8308471 0.3715013
0.5652890625 -0.601445 0.5781463
0.5664375 -0.3463825 0.6927308
0.5675859375 -0.08999474 0.7219405
0.568734375 0.1461755 0.673416
0.5698828125 0.3441131 0.5602881
0.57103125 0.4892742 0.3985615
0.5721796875 0.571929 0.2082317
0.573328125 0.5895734 0.009303969
0.5744765625 0.5451192 -0.1778145
0.575625 0.4474128 -0.3361298
0.5767734375 0.3095918 -0.4519004
0.577921875 0.147666 -0.5176437
0.5790703125 -0.02221134 -0.5307017
0.58021875 -0.1846723 -0.492842
0.5813671875 -0.3261785 -0.4098318
0.582515625 -0.4360045 -0.2905868
0.5836640625 -0.5065424 -0.1453276
0.5848125 -0.5325515 0.01446951
0.5859609375 -0.5119891 0.1769373
0.587109375 -0.4451953 0.3292351
0.5882578125 -0.3352907 0.4606521
0.58940625 -0.1884145 0.5584456
0.5905546875 -0.01260486 0.6131307
0.591703125 0.1807973 0.615779
0.5928515625 0.3777969 0.5598322
0.594 0.5617844 0.4422737
0.5951484375 0.71331 0.2642809
0.596296875 0.8131984 0.0325687
0.5974453125 0.8421676 -0.240208
0.59859375 0.7834418 -0.5341626
0.5997421875 0.6236209 -0.8250572
0.600890625 0.3576047 -1.079038
0.6020390625 -0.0161047 -1.261395
0.6031875 -0.4883657 -1.329895
0.6043359375 -1.04165 -1.234609
0.605484375 -1.64125 -0.9106238
0.6066328125 -2.215888 -0.2654754
0.60778125 -2.596524 0.8280116
0.6089296875 -2.347652 2.454036
0.610078125 -0.6238397 4.10902
0.6112265625 2.463883 3.783257
0.612375 3.899858 1.103027
0.6135234375 3.109659 -1.026503
0.614671875 1.822626 -1.881137
0.6158203125 0.7475991 -2.010761
0.61696875 -0.03165091 -1.806293
0.6181171875 -0.5602542 -1.455459
0.619265625 -0.8879264 -1.048914
0.6204140625 -1.054751 -0.6355724
0.6215625 -1.090375 -0.2464207
0.6227109375 -1.022444 0.09627304
0.623859375 -0.873251 0.3776724
0.6250078125 -0.6666957 0.5855953
0.62615625 -0.4270476 0.7146909
0.6273046875 -0.1778528 0.7640675
0.628453125 0.05954605 0.7397761
0.6296015625 0.2673422 0.6515774
0.63075 0.4284456 0.5148844
0.6318984375 0.5369598 0.3458749
0.633046875 0.5884411 0.1627468
0.6341953125 0.5846822 -0.01770339
0.63534375 0.5323778 -0.1810838
0.6364921875 0.4398449 -0.3165001
0.637640625 0.3185394 -0.4160563
0.6387890625 0.1796807 -0.4755528
0.6399375 0.0350831 -0.4938703
0.6410859375 -0.1048201 -0.4725684
0.642234375 -0.2308373 -0.4151715
0.6433828125 -0.3342582 -0.3272053
0.64453125 -0.4087288 -0.2162455
0.6456796875 -0.4499907 -0.09006874
0.646828125 -0.4545689 0.04213783
0.6479765625 -0.4225314 0.1704955
0.649125 -0.3556809 0.2854496
0.6502734375 -0.2585611 0.3774109
0.651421875 -0.1378832 0.4387373
0.6525703125 -0.003782852 0.4628705
0.65371875 0.1333207 0.4470372
0.6548671875 0.2614534 0.3911729
0.656015625 0.3687218 0.2991549
0.6571640625 0.4453423 0.1783743
0.6583125 0.4834063 0.03882654
0.6594609375 0.4792747 -0.1071613
0.660609375 0.4319878 -0.2472622
0.6617578125 0.3448964 -0.3691546
0.66290625 0.2249974 -0.4621148
0.6640546875 0.08095093 -0.5180846
0.665203125 -0.07588066 -0.5310616
0.6663515625 -0.234039 -0.4987254
0.6675 -0.3812845 -0.4211844
0.6686484375 -0.5052223 -0.3016904
0.669796875 -0.5946456 -0.1456702
0.6709453125 -0.6395298 0.03843706
0.67209375 -0.6309694 0.2376498
0.6732421875 -0.5625072 0.4395864
0.674390625 -0.4303249 0.6269616
0.6755390625 -0.2345438 0.7813023
0.6766875 0.01978133 0.8808169
0.6778359375 0.3214432 0.9042436
0.678984375 0.6524599 0.8289348
0.6801328125 0.9855744 0.6332322
0.68128125 1.282727 0.2984051
0.6824296875 1.489946 -0.1908048
0.683578125 1.528988 -0.8398871
0.6847265625 1.274847 -1.627686
0.685875 0.5306236 -2.44182
0.6870234375 -0.9317569 -2.900258
0.688171875 -2.888801 -2.105671
0.6893203125 -3.690872 0.3035773
0.69046875 -2.36396 2.268367
0.6916171875 -0.6075572 2.600353
0.692765625 0.5396819 2.088254
0.6939140625 1.108647 1.38516
0.6950625 1.30329 0.7312317
0.6962109375 1.27236 0.1921184
0.697359375 1.10749 -0.2204084
0.6985078125 0.8671328 -0.5120574
0.69965625 0.591728 -0.6926417
0.7008046875 0.3096341 -0.7738394
0.701953125 0.0437124 -0.7694374
0.7031015625 -0.1888578 -0.694162
0.70425 -0.3750224 -0.5628725
0.7053984375 -0.505703 -0.3933081
0.706546875 -0.5760621 -0.2026335
0.7076953125 -0.5843801 -0.00890262
0.70884375 -0.5360612 0.1706039
0.7099921875 -0.4386151 0.3215405
0.711140625 -0.3038155 0.4316049
0.7122890625 -0.1462632 0.4927777
0.7134375 0.01811101 0.5020404
0.7145859375 0.1740074 0.4613671
0.715734375 0.3075488 0.3764488
0.7168828125 0.4070507 0.2565182
0.71803125 0.464869 0.1132145
0.7191796875 0.4767572 -0.03981646
0.720328125 0.4419104 -0.1896565
0.7214765625 0.3631283 -0.3231863
0.722625 0.246563 -0.4288037
0.7237734375 0.1000201 -0.4967498
0.724921875 -0.0641422 -0.5187435
0.7260703125 -0.2345585 -0.4899369
0.72721875 -0.396701 -0.4078529
0.7283671875 -0.5354897 -0.2735216
0.729515625 -0.6341308 -0.09149023
0.7306640625 -0.6766965 0.1292155
0.7318125 -0.6477425 0.3746481
0.7329609375 -0.5336232 0.6250082
0.734109375 -0.3231525 0.8550315
0.7352578125 -0.008685997 1.03146
0.73640625 0.411003 1.110341
0.7375546875 0.9284841 1.032179
0.738703125 1.513239 0.7053535
0.7398515625 2.069169 -0.01125925
0.741 2.291653 -1.308203
0.7421484375 1.352349 -3.060071
0.743296875 -1.335118 -3.515568
0.7444453125 -3.078559 -1.401884
0.74559375 -2.627414 0.5556041
0.7467421875 -1.598071 1.388368
0.747890625 -0.7069322 1.566361
0.7490390625 -0.04796894 1.38339
0.7501875 0.3837828 1.128703
0.7513359375 0.6553199 0.82075
0.752484375 0.7975176 0.5019541
0.7536328125 0.8351372 0.1992728
0.75478125 0.7894951 -0.06955395
0.7559296875 0.6798511 -0.2923518
0.757078125 0.5230955 -0.4606546
0.7582265625 0.3377292 -0.5696915
0.759375 0.1397244 -0.6180276
0.7605234375 -0.05423281 -0.6069745
0.761671875 -0.2295493 -0.5426275
0.7628203125 -0.3738179 -0.4340171
0.76396875 -0.4761292 -0.2915334
0.7651171875 -0.5303845 -0.1295958
0.766265625 -0.5344115 0.03699223
0.7674140625 -0.4895981 0.1942416
0.7685625 -0.4020045 0.3285311
0.7697109375 -0.2811849 0.429052
0.770859375 -0.1382817 0.4890853
0.7720078125 0.01383655 0.5044857
0.77315625 0.1627643 0.4758102
0.7743046875 0.2958337 0.4062449
0.775453125 0.4034233 0.3018712
0.7766015625 0.4768692 0.1710481
0.77775 0.5113574 0.02439683
0.7788984375 0.5031137 -0.1279867
0.780046875 0.4518322 -0.2741827
0.7811953125 0.3600683 -0.4031062
0.78234375 0.2324507 -0.5042251
0.7834921875 0.07668327 -0.5676207
0.784640625 -0.09747085 -0.5853738
0.7857890625 -0.2769912 -0.5515062
0.7869375 -0.4478279 -0.4642403
0.7880859375 -0.59403 -0.3240064
0.789234375 -0.6999139 -0.136981
0.7903828125 -0.7503168 0.08685037
0.79153125 -0.7316517 0.3319393
0.7926796875 -0.6351507 0.578739
0.793828125 -0.4562499 0.80474
0.7949765625 -0.1953764 0.9835101
0.796125 0.1389661 1.08786
0.7972734375 0.5330043 1.088167
0.798421875 0.9650004 0.9531986
0.7995703125 1.401204 0.6460168
0.80071875 1.785621 0.1204321
0.8018671875 2.012674 -0.679078
0.803015625 1.862461 -1.789072
0.8041640625 0.8985379 -3.045722
0.8053125 -1.268448 -3.532143
0.8064609375 -3.382166 -1.881818
0.807609375 -3.332413 0.5686275
0.8087578125 -2.039209 1.824715
0.80990625 -0.8093479 2.054524
0.8110546875 0.05664684 1.821089
0.812203125 0.6037639 1.417315
0.8133515625 0.9106133 0.9713761
0.8145 1.038906 0.5422419
0.8156484375 1.034779 0.1594905
0.816796875 0.9331912 -0.1591746
0.8179453125 0.7637732 -0.4050542
0.81909375 0.5529185 -0.5725987
0.8202421875 0.323821 -0.6626129
0.821390625 0.09821572 -0.6806312
0.8225390625 -0.1067234 -0.6351508
0.8236875 -0.2765367 -0.5387568
0.8248359375 -0.4022815 -0.4060403
0.825984375 -0.479032 -0.2526885
0.8271328125 -0.5063812 -0.09352533
0.82828125 -0.4876856 0.05819499
0.8294296875 -0.4298813 0.1911373
0.830578125 -0.3406819 0.2969382
0.8317265625 -0.2304336 0.3700119
0.832875 -0.1088931 0.4076685
0.8340234375 0.01432713 0.4098043
0.835171875 0.1295817 0.378323
0.8363203125 0.2290058 0.3174943
0.83746875 0.306343 0.2328648
0.8386171875 0.3559439 0.1317795
0.839765625 0.3748572 0.02150506
0.8409140625 0.3620776 -0.08906288
0.8420625 0.3184744 -0.1909946
0.8432109375 0.2470175 -0.276428
0.844359375 0.1536431 -0.337909
0.8455078125 0.04545806 -0.3695014
0.84665625 -0.06825561 -0.3676958
0.8478046875 -0.1774439 -0.3322186
0.848953125 -0.2720024 -0.2648501
0.8501015625 -0.3430533 -0.1713233
0.85125 -0.3833217 -0.05920633
0.8523984375 -0.388571 0.06131401
0.853546875 -0.3570632 0.1799234
0.8546953125 -0.2905803 0.2855312
0.85584375 -0.1938637 0.3687479
0.8569921875 -0.07379521 0.4211301
0.858140625 0.06007309 0.4371542
0.8592890625 0.1982288 0.4123451
0.8604375 0.328754 0.3460679
0.8615859375 0.4408041 0.2391843
0.862734375 0.5225888 0.09575925
0.8638828125 0.5625669 -0.07802713
0.86503125 0.5487945 -0.2731312
0.8661796875 0.4709409 -0.476036
0.867328125 0.317357 -0.6697339
0.8684765625 0.07851371 -0.8285585
0.869625 -0.2536283 -0.9183508
0.8707734375 -0.6794379 -0.8816335
0.871921875 -1.172988 -0.6288151
0.8730703125 -1.622343 -0.02146279
0.87421875 -1.679856 1.040404
0.8753671875 -0.7505003 2.127217
0.876515625 0.8432958 2.050422
0.8776640625 1.644971 0.9362506
0.8788125 1.53326 -0.05900715
0.8799609375 1.087085 -0.6122874
0.881109375 0.6141693 -0.8343012
0.8822578125 0.211572 -0.8536896
0.88340625 -0.09716759 -0.7552728
0.8845546875 -0.3127283 -0.5935953
0.885703125 -0.4434789 -0.4037588
0.8868515625 -0.5003663 -0.2110974
0.888 -0.4964474 -0.0323729
0.8891484375 -0.4446162 0.1204855
0.890296875 -0.3571598 0.239946
0.8914453125 -0.247102 0.3213803
0.89259375 -0.1256379 0.364004
0.8937421875 -0.004227256 0.3683865
0.894890625 0.1079679 0.3380962
0.8960390625 0.2024098 0.2782038
0.8971875 0.2728415 0.1953253
0.8983359375 0.3139543 0.09746685
0.899484375 0.3237711 -0.006404911
0.9006328125 0.3017533 -0.107027
0.90178125 0.2506256 -0.1953769
0.9029296875 0.1751844 -0.2637294
0.904078125 0.08254267 -0.3052034
0.9052265625 -0.01828103 -0.316351
0.906375 -0.1180118 -0.2955422
0.9075234375 -0.206899 -0.2449287
0.908671875 -0.2761982 -0.1688605
0.9098203125 -0.319314 -0.07432847
0.91096875 -0.3317044 0.03008571
0.9121171875 -0.3113338 0.1346913
0.913265625 -0.259742 0.2301915
0.9144140625 -0.180091 0.3076961
0.9155625 -0.07819485 0.3590615
0.9167109375 0.03821663 0.3788783
0.917859375 0.1596962 0.3630168
0.9190078125 0.2769543 0.3097089
0.92015625 0.378583 0.2196887
0.9213046875 0.4540293 0.0962663
0.922453125 0.4924276 -0.05449983
0.9236015625 0.4836337 -0.2232326
0.92475 0.4191437 -0.396752
0.9258984375 0.2923429 -0.5588148
0.927046875 0.1006511 -0.6881636
0.9281953125 -0.1539907 -0.7592903
0.92934375 -0.4607564 -0.7409742
0.9304921875 -0.7961697 -0.596642
0.931640625 -1.1127 -0.2844867
0.9327890625 -1.320975 0.2309654
0.9339375 -1.261744 0.9387145
0.9350859375 -0.7198815 1.670663
0.936234375 0.3564183 1.975856
0.9373828125 1.449154 1.422093
0.93853125 1.843505 0.340553
0.9396796875 1.536541 -0.5620399
0.940828125 0.9546178 -1.028062
0.9419765625 0.3846591 -1.143832
0.943125 -0.06938875 -1.047512
0.9442734375 -0.3884978 -0.8405404
0.945421875 -0.5839185 -0.5862799
0.9465703125 -0.6746245 -0.3251925
0.94771875 -0.6801555 -0.08162779
0.9488671875 -0.6198457 0.1281555
0.950015625 -0.5113134 0.2944124
0.9511640625 -0.3707573 0.4118877
0.9523125 -0.2138813 0.4788587
0.9534609375 -0.05429091 0.4958991
0.954609375 0.09524217 0.467474
0.9557578125 0.2240071 0.4001973
0.95690625 0.3231595 0.3021274
0.9580546875 0.3871344 0.1837829
0.959203125 0.4123426 0.05596944
0.9603515625 0.3991516 -0.06960707
0.9615 0.3505848 -0.1824358
0.9626484375 0.2730856 -0.2734598
0.963796875 0.1745487 -0.3361957
0.9649453125 0.06443537 -0.3662762
0.96609375 -0.0473787 -0.362679
0.9672421875 -0.1513796 -0.3275422
0.968390625 -0.2388451 -0.2645881
0.9695390625 -0.3036092 -0.1804097
0.9706875 -0.341135 -0.0824789
0.9718359375 -0.3490206 0.02126
0.972984375 -0.3272537 0.122698
0.9741328125 -0.2778615 0.2136749
0.97528125 -0.2043556 0.2873426
0.9764296875 -0.1126575 0.3378203
0.977578125 -0.009015708 0.3608356
0.9787265625 0.09870282 0.3534782
0.979875 0.2024053 0.3151989
0.9810234375 0.2933249 0.2473048
0.982171875 0.3631037 0.1535011
0.9833203125 0.404633 0.03978885
0.98446875 0.4117337 -0.08591728
0.9856171875 0.381148 -0.2137001
0.986765625 0.3112508 -0.3320908
0.9879140625 0.2047642 -0.4292824
0.9890625 0.06695639 -0.4945063
0.9902109375 -0.09258795 -0.5172729
0.991359375 -0.2620553 -0.4903142
0.9925078125 -0.4265273 -0.4093705
0.99365625 -0.5703356 -0.2735738
0.9948046875 -0.6761402 -0.08610728
0.995953125 -0.7265211 0.1455091
0.9971015625 -0.7032422 0.4092954
0.99825 -0.5871953 0.6871716
0.9993984375 -0.3591925 0.9539995
1.000546875 0.003216735 1.169312
1.0016953125 0.5206059 1.264972
