! MS46122B
! 2250307/22442219
! 6/13/2025 8:40:43 AM
! C:\USERS\SPARKY\DOCUMENTS\VNA_DATA\JUNE13_2025\ECAL_OPEN_B.S1P
! CHANNEL.1
! TR.MEASUREMENT
! RAW.DATA
# GHZ S RI R 50.0
! FREQ.GHZ         S11RE         S11IM         
!; PortSelection: Port_1
   0.001000000     1.0277530   -0.0529471  
   0.002999900     0.9424337   -0.2060745  
   0.004999800     0.8811507   -0.3460362  
   0.006999700     0.8080734   -0.4768391  
   0.008999600     0.7199049   -0.5895361  
   0.010999500     0.6207134   -0.6897425  
   0.012999400     0.5114076   -0.7772661  
   0.014999300     0.3931231   -0.8504392  
   0.016999200     0.2664600   -0.9064585  
   0.018999100     0.1335188   -0.9437587  
   0.020999000    -0.0036535   -0.9603715  
   0.022998900    -0.1421933   -0.9560422  
   0.024998800    -0.2549980   -0.9039343  
   0.026998700    -0.4099410   -0.8801160  
   0.028998600    -0.5326512   -0.8102459  
   0.030998500    -0.6432881   -0.7213992  
   0.032998400    -0.7066767   -0.6092207  
   0.034998300    -0.8179595   -0.4969029  
   0.036998200    -0.8773918   -0.3671936  
   0.038998100    -0.9169953   -0.2308288  
   0.040998000    -0.9358237   -0.0900694  
   0.042997900    -0.9343811    0.0505870  
   0.044997800    -0.8877392    0.1668142  
   0.046997700    -0.8704354    0.3226118  
   0.048997600    -0.8100235    0.4485745  
   0.050997500    -0.7317641    0.5641403  
   0.052997400    -0.6381949    0.6656096  
   0.054997300    -0.5276690    0.7535747  
   0.056997200    -0.4061559    0.8232950  
   0.058997100    -0.2755516    0.8731702  
   0.060997000    -0.1389300    0.9023144  
   0.062996900     0.0007933    0.9099948  
   0.064996800     0.1400728    0.8963467  
   0.066996700     0.2754259    0.8614787  
   0.068996600     0.4036172    0.8066162  
   0.070996500     0.5219064    0.7327229  
   0.072996400     0.6276157    0.6421347  
   0.074996300     0.7185303    0.5367319  
   0.076996200     0.7922593    0.4188657  
   0.078996100     0.8469235    0.2913880  
   0.080996000     0.8814680    0.1574391  
   0.082995900     0.8953090    0.0199636  
   0.084995800     0.8877674   -0.1175518  
   0.086995700     0.8597029   -0.2517499  
   0.088995600     0.8118176   -0.3796676  
   0.090995500     0.7450365   -0.4983137  
   0.092995400     0.6618754   -0.6051425  
   0.094995300     0.5637824   -0.6979070  
   0.096995200     0.4539782   -0.7747538  
   0.098995100     0.3340417   -0.8343052  
   0.100995000     0.2075697   -0.8753089  
   0.102994900     0.0770329   -0.8967404  
   0.104994800    -0.0548528   -0.8992859  
   0.106994700    -0.1850151   -0.8825819  
   0.108994600    -0.3108344   -0.8474246  
   0.110994500    -0.4301865   -0.7947164  
   0.112994400    -0.5400595   -0.7256472  
   0.114994300    -0.6386753   -0.6415183  
   0.116994200    -0.7241652   -0.5444482  
   0.118994100    -0.7946702   -0.4363593  
   0.120994000    -0.8483830   -0.3191087  
   0.122993900    -0.8852665   -0.1960164  
   0.124993800    -0.9042370   -0.0687550  
   0.126993700    -0.9046134    0.0600580  
   0.128993600    -0.8870515    0.1875302  
   0.130993500    -0.8509916    0.3116693  
   0.132993400    -0.7976949    0.4292078  
   0.134993300    -0.7277199    0.5384642  
   0.136993200    -0.6427019    0.6364694  
   0.138993100    -0.5438623    0.7217506  
   0.140993000    -0.4335762    0.7919134  
   0.142992900    -0.3132806    0.8452576  
   0.144992800    -0.1860924    0.8811088  
   0.146992700    -0.0544660    0.8977523  
   0.148992600     0.0787391    0.8945169  
   0.150992500     0.2102944    0.8713393  
   0.152992400     0.3379823    0.8288404  
   0.154992300     0.4578744    0.7672348  
   0.156992200     0.5676648    0.6877897  
   0.158992100     0.6645770    0.5925728  
   0.160992000     0.7459044    0.4834386  
   0.162991900     0.8102180    0.3626702  
   0.164991800     0.8550134    0.2328813  
   0.166991700     0.8793041    0.0980936  
   0.168991600     0.8823838   -0.0392631  
   0.170991500     0.8645576   -0.1757857  
   0.172991400     0.8254687   -0.3073563  
   0.174991300     0.7669697   -0.4311313  
   0.176991200     0.6896239   -0.5445709  
   0.178991100     0.5960502   -0.6442879  
   0.180991000     0.4887285   -0.7279734  
   0.182990900     0.3699216   -0.7941699  
   0.184990800     0.2428071   -0.8411348  
   0.186990700     0.1105665   -0.8677039  
   0.188990600     0.0010405   -0.8734331  
   0.190990500    -0.1524616   -0.8596662  
   0.192990400    -0.2843832   -0.8247548  
   0.194990300    -0.4057177   -0.7715926  
   0.196990200    -0.5163872   -0.7015359  
   0.198990100    -0.6149012   -0.6159738  
   0.200990000    -0.6991376   -0.5171825  
   0.202989900    -0.7677102   -0.4072011  
   0.204989800    -0.8191547   -0.2889370  
   0.206989700    -0.8521459   -0.1653423  
   0.208989600    -0.8667445   -0.0388146  
   0.210989500    -0.8627411    0.0883673  
   0.212989400    -0.8400636    0.2138435  
   0.214989300    -0.7994893    0.3340482  
   0.216989200    -0.7421120    0.4464193  
   0.218989100    -0.6695045    0.5492385  
   0.220989000    -0.5828156    0.6404858  
   0.222988900    -0.4833059    0.7188632  
   0.224988800    -0.3733750    0.7816858  
   0.226988700    -0.2556100    0.8277581  
   0.228988600    -0.1327138    0.8564514  
   0.230988500    -0.0067627    0.8668654  
   0.232988400     0.1194652    0.8591005  
   0.234988300     0.2438867    0.8327780  
   0.236988200     0.3637902    0.7884024  
   0.238988100     0.4760087    0.7271982  
   0.240988000     0.5780705    0.6500250  
   0.242987900     0.6673155    0.5588315  
   0.244987800     0.7427126    0.4554736  
   0.246987700     0.8025648    0.3412383  
   0.248987600     0.8449847    0.2191106  
   0.250987500     0.8688722    0.0912994  
   0.252987400     0.8734373   -0.0383130  
   0.254987300     0.8589445   -0.1668725  
   0.256987200     0.8255173   -0.2915953  
   0.258987100     0.7744375   -0.4100926  
   0.260987000     0.7057242   -0.5202687  
   0.262986900     0.6211483   -0.6193123  
   0.264986800     0.5227712   -0.7047687  
   0.266986700     0.4128687   -0.7745094  
   0.268986600     0.2941867   -0.8268967  
   0.270986500     0.1697555   -0.8610956  
   0.272986400     0.0419490   -0.8762336  
   0.274986300    -0.0864433   -0.8722928  
   0.276986200    -0.2125772   -0.8498641  
   0.278986100    -0.3341558   -0.8087960  
   0.280986000    -0.4485342   -0.7499983  
   0.282985900    -0.5528437   -0.6752018  
   0.284985800    -0.6448638   -0.5859528  
   0.286985700    -0.7220664   -0.4845889  
   0.288985600    -0.7831718   -0.3739726  
   0.290985500    -0.8272176   -0.2562405  
   0.292985400    -0.8534040   -0.1342060  
   0.294985300    -0.8615227   -0.0096070  
   0.296985200    -0.8517001    0.1154530  
   0.298985100    -0.8234521    0.2379702  
   0.300985000    -0.7776585    0.3556542  
   0.302984900    -0.7147150    0.4646049  
   0.304984800    -0.6369863    0.5629612  
   0.306984700    -0.5458675    0.6486791  
   0.308984600    -0.4435655    0.7195937  
   0.310984500    -0.3328126    0.7749947  
   0.312984400    -0.2148905    0.8133972  
   0.314984300    -0.0925732    0.8342788  
   0.316984200     0.0317896    0.8369773  
   0.318984100     0.1558343    0.8212976  
   0.320984000     0.2773386    0.7873184  
   0.322983900     0.3930058    0.7352651  
   0.324983800     0.4995541    0.6664206  
   0.326983700     0.5949005    0.5821816  
   0.328983600     0.6767264    0.4842072  
   0.330983500     0.7426565    0.3755447  
   0.332983400     0.7907014    0.2584935  
   0.334983300     0.8215330    0.1351222  
   0.336983200     0.8331998    0.0085073  
   0.338983100     0.8254796   -0.1185403  
   0.340983000     0.7990733   -0.2427870  
   0.342982900     0.7540565   -0.3619184  
   0.344982800     0.6912782   -0.4733713  
   0.346982700     0.6119723   -0.5743939  
   0.348982600     0.5179477   -0.6626566  
   0.350982500     0.4117364   -0.7352822  
   0.352982400     0.2955790   -0.7910852  
   0.354982300     0.1669360   -0.8297967  
   0.356982200     0.0189166   -0.8478743  
   0.358982100    -0.1290009   -0.8402532  
   0.360982000    -0.2722690   -0.8066087  
   0.362981900    -0.4069591   -0.7493668  
   0.364981800    -0.5294049   -0.6691718  
   0.366981700    -0.6353204   -0.5701681  
   0.368981600    -0.7223390   -0.4546103  
   0.370981500    -0.7880657   -0.3265847  
   0.372981400    -0.8306849   -0.1901736  
   0.374981300    -0.8497280   -0.0481253  
   0.376981200    -0.8365001   -0.1890800  
   0.378981100    -0.8558227   -0.0459042  
   0.380981000    -0.8506858    0.0984993  
   0.382980900    -0.8254241    0.2257691  
   0.384980800    -0.7842290    0.3419957  
   0.386980700    -0.7264880    0.4507241  
   0.388980600    -0.6536564    0.5496993  
   0.390980500    -0.5677435    0.6370260  
   0.392980400    -0.4707169    0.7104133  
   0.394980300    -0.3645884    0.7691272  
   0.396980200    -0.2512127    0.8119923  
   0.398980100    -0.1324833    0.8379730  
   0.400980000    -0.0116329    0.8465837  
   0.402979900     0.1103667    0.8378490  
   0.404979800     0.2293928    0.8115463  
   0.406979700     0.3438364    0.7682234  
   0.408979600     0.4509549    0.7082875  
   0.410979500     0.5491104    0.6328558  
   0.412979400     0.6358106    0.5429860  
   0.414979300     0.7083609    0.4403106  
   0.416979200     0.7648967    0.3277849  
   0.418979100     0.8038877    0.2074268  
   0.420979000     0.8244858    0.0820053  
   0.422978900     0.8253044   -0.0456933  
   0.424978800     0.8064350   -0.1724806  
   0.426978700     0.7680432   -0.2955481  
   0.428978600     0.7110417   -0.4110197  
   0.430978500     0.6368617   -0.5162128  
   0.432978400     0.5479125   -0.6080883  
   0.434978300     0.4455874   -0.6850168  
   0.436978200     0.3327453   -0.7453822  
   0.438978100     0.2124732   -0.7873302  
   0.440978000     0.0875435   -0.8099455  
   0.442977900    -0.0394481   -0.8130824  
   0.444977800    -0.1640846   -0.7969034  
   0.446977700    -0.2851953   -0.7619421  
   0.448977600    -0.3982823   -0.7092935  
   0.450977500    -0.5017006   -0.6402060  
   0.452977400    -0.5933285   -0.5567756  
   0.454977300    -0.6716357   -0.4601744  
   0.456977200    -0.7340629   -0.3533078  
   0.458977100    -0.7798177   -0.2384607  
   0.460977000    -0.8075401   -0.1190270  
   0.462976900    -0.8171260    0.0022475  
   0.464976800    -0.8087304    0.1232844  
   0.466976700    -0.7829868    0.2409904  
   0.468976600    -0.7400269    0.3534070  
   0.470976500    -0.6819062    0.4577040  
   0.472976400    -0.6091335    0.5519258  
   0.474976300    -0.5238989    0.6347580  
   0.476976200    -0.4280738    0.7040797  
   0.478976100    -0.3236968    0.7586845  
   0.480976000    -0.2133712    0.7977228  
   0.482975900    -0.0988146    0.8207938  
   0.484975800     0.0174390    0.8272682  
   0.486975700     0.1338762    0.8176354  
   0.488975600     0.2476975    0.7914040  
   0.490975500     0.3573079    0.7491821  
   0.492975400     0.4603137    0.6915023  
   0.494975300     0.5543346    0.6197556  
   0.496975200     0.6374824    0.5345500  
   0.498975100     0.7075709    0.4383960  
   0.500975000     0.7632928    0.3324825  
   0.502974900     0.8035854    0.2196462  
   0.504974800     0.8267767    0.1013230  
   0.506974700     0.8326772   -0.0202744  
   0.508974600     0.8202530   -0.1428388  
   0.510974500     0.7899115   -0.2628533  
   0.512974400     0.7415791   -0.3774979  
   0.514974300     0.6767723   -0.4831790  
   0.516974200     0.5966352   -0.5785705  
   0.518974100     0.5030833   -0.6605086  
   0.520974000     0.3984231   -0.7277163  
   0.522973900     0.2843150   -0.7785808  
   0.524973800     0.1643509   -0.8110929  
   0.526973700     0.0399201   -0.8257248  
   0.528973600    -0.0849236   -0.8212502  
   0.530973500    -0.2077222   -0.7978398  
   0.532973400    -0.3254775   -0.7562554  
   0.534973300    -0.4355215   -0.6972287  
   0.536973200    -0.5349293   -0.6223815  
   0.538973100    -0.6214911   -0.5338455  
   0.540973000    -0.6929430   -0.4339550  
   0.542972900    -0.7486881   -0.3249536  
   0.544972800    -0.7875654   -0.2091575  
   0.546972700    -0.8085487   -0.0887385  
   0.548972600    -0.8115360    0.0331760  
   0.550972500    -0.7961796    0.1537990  
   0.552972400    -0.7628740    0.2709794  
   0.554972300    -0.7127063    0.3815453  
   0.556972200    -0.6465377    0.4829708  
   0.558972100    -0.5660705    0.5732924  
   0.560972000    -0.4734503    0.6504286  
   0.562971900    -0.3706469    0.7126084  
   0.564971800    -0.2603023    0.7584334  
   0.566971700    -0.1445867    0.7875617  
   0.568971600    -0.0265692    0.7992067  
   0.570971500     0.0921498    0.7931045  
   0.572971400     0.2091902    0.7699534  
   0.574971300     0.3213469    0.7291698  
   0.576971200     0.4266346    0.6717724  
   0.578971100     0.5227411    0.5988134  
   0.580971000     0.6067067    0.5121496  
   0.582970900     0.6768003    0.4143798  
   0.584970800     0.7312764    0.3072146  
   0.586970700     0.7690049    0.1930449  
   0.588970600     0.7890999    0.0747130  
   0.590970500     0.7911885   -0.0456676  
   0.592970400     0.7757115   -0.1644950  
   0.594970300     0.7420803   -0.2803089  
   0.596970200     0.6916282   -0.3895946  
   0.598970100     0.6253351   -0.4900365  
   0.600970000     0.5447420   -0.5794847  
   0.602969900     0.4517316   -0.6560034  
   0.604969800     0.3475392   -0.7178510  
   0.606969700     0.2357860   -0.7635838  
   0.608969600     0.1182208   -0.7917781  
   0.610969500    -0.0021670   -0.8021770  
   0.612969400    -0.1224876   -0.7947178  
   0.614969300    -0.2395653   -0.7686467  
   0.616969200    -0.3510177   -0.7264675  
   0.618969100    -0.4541139   -0.6687121  
   0.620969000    -0.5474766   -0.5971529  
   0.622968900    -0.6290795   -0.5131299  
   0.624968800    -0.6974341   -0.4182833  
   0.626968700    -0.7517358   -0.3146750  
   0.628968600    -0.7902400   -0.2041883  
   0.630968500    -0.8128161   -0.0898460  
   0.632968400    -0.8186836    0.0265270  
   0.634968300    -0.8076056    0.1420789  
   0.636968200    -0.7804320    0.2550248  
   0.638968100    -0.7373847    0.3627577  
   0.640968000    -0.6794350    0.4626754  
   0.642967900    -0.6080475    0.5534397  
   0.644967800    -0.5243787    0.6330096  
   0.646967700    -0.4305947    0.6999375  
   0.648967600    -0.3280725    0.7527118  
   0.650967500    -0.2194655    0.7903307  
   0.652967400    -0.1074696    0.8122880  
   0.654967300     0.0070327    0.8179687  
   0.656967200     0.1212593    0.8076862  
   0.658967100     0.2325777    0.7809613  
   0.660967000     0.3399737    0.7381774  
   0.662966900     0.4403961    0.6804046  
   0.664966800     0.5326005    0.6076522  
   0.666966700     0.6138651    0.5221193  
   0.668966600     0.6817391    0.4246698  
   0.670966500     0.7348607    0.3179602  
   0.672966400     0.7715621    0.2046400  
   0.674966300     0.7908458    0.0865815  
   0.676966200     0.7925840   -0.0328275  
   0.678966100     0.7762805   -0.1511332  
   0.680966000     0.7423825   -0.2664391  
   0.682965900     0.6911925   -0.3748563  
   0.684965800     0.6245347   -0.4744254  
   0.686965700     0.5431373   -0.5630032  
   0.688965600     0.4493316   -0.6385480  
   0.690965500     0.3450428   -0.6987376  
   0.692965400     0.2333219   -0.7422237  
   0.694965300     0.1163058   -0.7683011  
   0.696965200    -0.0030205   -0.7762427  
   0.698965100    -0.1218210   -0.7657344  
   0.700965000    -0.2376322   -0.7376955  
   0.702964900    -0.3475789   -0.6923521  
   0.704964800    -0.4490986   -0.6309938  
   0.706964700    -0.5399055   -0.5554234  
   0.708964600    -0.6179628   -0.4670922  
   0.710964500    -0.6818833   -0.3681281  
   0.712964400    -0.7298847   -0.2611959  
   0.714964300    -0.7609887   -0.1488217  
   0.716964200    -0.7749838   -0.0338388  
   0.718964100    -0.7720371    0.0808999  
   0.720964000    -0.7523369    0.1934230  
   0.722963900    -0.7169989    0.3010143  
   0.724963800    -0.6666010    0.4018657  
   0.726963700    -0.6022378    0.4942456  
   0.728963600    -0.5255876    0.5764209  
   0.730963500    -0.4382282    0.6458530  
   0.732963400    -0.3416662    0.7026623  
   0.734963300    -0.2381832    0.7449828  
   0.736963200    -0.1105652    0.7746112  
   0.738963100     0.0210930    0.7827789  
   0.740963000     0.1534067    0.7692817  
   0.742962900     0.2814039    0.7331880  
   0.744962800     0.4026890    0.6762657  
   0.746962700     0.5128555    0.5997517  
   0.748962600     0.6090779    0.5052655  
   0.750962500     0.5009923    0.6018922  
   0.752962400     0.5972927    0.5073947  
   0.754962300     0.6764869    0.3982350  
   0.756962200     0.7362736    0.2768050  
   0.758962100     0.7747831    0.1467988  
   0.760962000     0.7901781    0.0112862  
   0.762961900     0.7830595   -0.1176489  
   0.764961800     0.7578542   -0.2327733  
   0.766961700     0.7157608   -0.3427342  
   0.768961600     0.6576848   -0.4457591  
   0.770961500     0.5847675   -0.5389129  
   0.772961400     0.4983441   -0.6201344  
   0.774961300     0.4010400   -0.6875759  
   0.776961200     0.2943934   -0.7399142  
   0.778961100     0.1806963   -0.7756332  
   0.780961000     0.0626778   -0.7939621  
   0.782960900    -0.0569155   -0.7940500  
   0.784960800    -0.1753397   -0.7760595  
   0.786960700    -0.2896234   -0.7401243  
   0.788960600    -0.3969976   -0.6873244  
   0.790960500    -0.4947176   -0.6191420  
   0.792960400    -0.5805976   -0.5372632  
   0.794960300    -0.6528071   -0.4436194  
   0.796960200    -0.7095900   -0.3411877  
   0.798960100    -0.7502435   -0.2319411  
   0.800960000    -0.7742489   -0.1184770  
   0.802959900    -0.7808632   -0.0033847  
   0.804959800    -0.7707486    0.1105346  
   0.806959700    -0.7440175    0.2211670  
   0.808959600    -0.7017141    0.3259278  
   0.810959500    -0.6448855    0.4234189  
   0.812959400    -0.5743565    0.5107242  
   0.814959300    -0.4926463    0.5870032  
   0.816959200    -0.4009263    0.6500050  
   0.818959100    -0.3011204    0.6994525  
   0.820959000    -0.1952753    0.7335044  
   0.822958900    -0.0855861    0.7521753  
   0.824958800     0.0258637    0.7544940  
   0.826958700     0.1363240    0.7406147  
   0.828958600     0.2438481    0.7109285  
   0.830958500     0.3460352    0.6657915  
   0.832958400     0.4408474    0.6061269  
   0.834958300     0.5256693    0.5329772  
   0.836958200     0.5991775    0.4483441  
   0.838958100     0.6595625    0.3531967  
   0.840958000     0.7054827    0.2499609  
   0.842957900     0.7360110    0.1401783  
   0.844957800     0.7498274    0.0270002  
   0.846957700     0.7461842   -0.0876459  
   0.848957600     0.7252479   -0.2010953  
   0.850957500     0.6874813   -0.3101272  
   0.852957400     0.6333926   -0.4126775  
   0.854957300     0.5640726   -0.5059072  
   0.856957200     0.4815716   -0.5876226  
   0.858957100     0.3874158   -0.6557952  
   0.860957000     0.2844482   -0.7086784  
   0.862956900     0.1750810   -0.7453613  
   0.864956800     0.0619160   -0.7654982  
   0.866956700    -0.0524297   -0.7682281  
   0.868956600    -0.1658329   -0.7542372  
   0.870956500    -0.2752427   -0.7236041  
   0.872956400    -0.3791109   -0.6773337  
   0.874956300    -0.4746714   -0.6165015  
   0.876956200    -0.5598556   -0.5423508  
   0.878956100    -0.6335740   -0.4567981  
   0.880956000    -0.6936457   -0.3613063  
   0.882955900    -0.7390086   -0.2585965  
   0.884955800    -0.7687268   -0.1505200  
   0.886955700    -0.7827467   -0.0394971  
   0.888955600    -0.7805491    0.0715431  
   0.890955500    -0.7624827    0.1812756  
   0.892955400    -0.7289135    0.2866544  
   0.894955300    -0.6808228    0.3861225  
