! MS46122B
! 2250307/22442219
! 6/14/2025 10:18:15 AM
! C:\USERS\SPARKY\DOCUMENTS\VNA_DATA\JUNE14_2025\295K\ECAL_SHORT_C.S1P
! CHANNEL.1
! TR.MEASUREMENT
! RAW.DATA
# GHZ S RI R 50.0
! FREQ.GHZ         S11RE         S11IM         
!; PortSelection: Port_1
   0.001000000    -0.9480522    0.0516471  
   0.002999900    -0.9192056    0.2564721  
   0.004999800    -0.8803285    0.4027332  
   0.006999700    -0.8153887    0.5326542  
   0.008999600    -0.7283494    0.6453529  
   0.010999500    -0.6232371    0.7393509  
   0.012999400    -0.5037413    0.8141493  
   0.014999300    -0.3738518    0.8683016  
   0.016999200    -0.2374122    0.9020217  
   0.018999100    -0.0979033    0.9156538  
   0.020999000     0.0414539    0.9095044  
   0.022998900     0.1777341    0.8846574  
   0.024998800     0.2812650    0.8205928  
   0.026998700     0.4309013    0.7827095  
   0.028998600     0.5435901    0.7079844  
   0.030998500     0.6441393    0.6192633  
   0.032998400     0.6960429    0.5141333  
   0.034998300     0.8021051    0.4053308  
   0.036998200     0.8560001    0.2834786  
   0.038998100     0.8916558    0.1547816  
   0.040998000     0.9074668    0.0215792  
   0.042997900     0.9030738   -0.1122247  
   0.044997800     0.8521542   -0.2207127  
   0.046997700     0.8333109   -0.3705933  
   0.048997600     0.7699291   -0.4891924  
   0.050997500     0.6897942   -0.5966069  
   0.052997400     0.5960340   -0.6895822  
   0.054997300     0.4879287   -0.7699555  
   0.056997200     0.3705245   -0.8327962  
   0.058997100     0.2461869   -0.8780484  
   0.060997000     0.1170180   -0.9049371  
   0.062996900    -0.0142755   -0.9130549  
   0.064996800    -0.1452834   -0.9023222  
   0.066996700    -0.2730767   -0.8728608  
   0.068996600    -0.3951334   -0.8255713  
   0.070996500    -0.5087914   -0.7611938  
   0.072996400    -0.6118033   -0.6809800  
   0.074996300    -0.7022857   -0.5869067  
   0.076996200    -0.7780098   -0.4811002  
   0.078996100    -0.8374547   -0.3652757  
   0.080996000    -0.8796369   -0.2420488  
   0.082995900    -0.9037375   -0.1140741  
   0.084995800    -0.9093580    0.0162224  
   0.086995700    -0.8961090    0.1461087  
   0.088995600    -0.8643283    0.2728187  
   0.090995500    -0.8144922    0.3939492  
   0.092995400    -0.7475653    0.5069641  
   0.094995300    -0.6643411    0.6093065  
   0.096995200    -0.5671730    0.6988055  
   0.098995100    -0.4571739    0.7732691  
   0.100995000    -0.3370250    0.8306502  
   0.102994900    -0.2091756    0.8697273  
   0.104994800    -0.0767582    0.8888865  
   0.106994700     0.0576001    0.8882562  
   0.108994600     0.1908190    0.8671332  
   0.110994500     0.3191427    0.8261005  
   0.112994400     0.4404267    0.7658007  
   0.114994300     0.5510593    0.6875641  
   0.116994200     0.6487749    0.5935675  
   0.118994100     0.7308579    0.4853106  
   0.120994000     0.7955922    0.3659528  
   0.122993900     0.8411403    0.2380118  
   0.124993800     0.8663206    0.1048224  
   0.126993700     0.8707254   -0.0305499  
   0.128993600     0.8547824   -0.1647946  
   0.130993500     0.8185859   -0.2945087  
   0.132993400     0.7628399   -0.4169890  
   0.134993300     0.6894150   -0.5288171  
   0.136993200     0.6000799   -0.6276491  
   0.138993100     0.4972913   -0.7114642  
   0.140993000     0.3840386   -0.7784140  
   0.142992900     0.2622612   -0.8274675  
   0.144992800     0.1354535   -0.8575294  
   0.146992700     0.0060278   -0.8683021  
   0.148992600    -0.1229242   -0.8601375  
   0.150992500    -0.2480560   -0.8331734  
   0.152992400    -0.3677931   -0.7880381  
   0.154992300    -0.4786413   -0.7267037  
   0.156992200    -0.5793251   -0.6500559  
   0.158992100    -0.6669837   -0.5599133  
   0.160992000    -0.7409532   -0.4590209  
   0.162991900    -0.7991513   -0.3484044  
   0.164991800    -0.8412270   -0.2309501  
   0.166991700    -0.8659853   -0.1095188  
   0.168991600    -0.8729680    0.0141840  
   0.170991500    -0.8622991    0.1376428  
   0.172991400    -0.8345820    0.2575011  
   0.174991300    -0.7900817    0.3725776  
   0.176991200    -0.7296014    0.4805121  
   0.178991100    -0.6542810    0.5787022  
   0.180991000    -0.5661861    0.6651984  
   0.182990900    -0.4664510    0.7382021  
   0.184990800    -0.3564492    0.7969630  
   0.186990700    -0.2391806    0.8393674  
   0.188990600    -0.1428248    0.8613589  
   0.190990500     0.0033398    0.8721116  
   0.192990400     0.1322548    0.8612471  
   0.194990300     0.2552680    0.8326431  
   0.196990200     0.3726273    0.7864318  
   0.198990100     0.4822400    0.7237073  
   0.200990000     0.5820040    0.6450902  
   0.202989900     0.6702351    0.5522164  
   0.204989800     0.7437053    0.4473704  
   0.206989700     0.8009036    0.3326609  
   0.208989600     0.8404262    0.2105872  
   0.210989500     0.8618807    0.0829047  
   0.212989400     0.8640096   -0.0467120  
   0.214989300     0.8467426   -0.1755326  
   0.216989200     0.8104185   -0.2999232  
   0.218989100     0.7558763   -0.4172114  
   0.220989000     0.6841684   -0.5255301  
   0.222988900     0.5965369   -0.6221763  
   0.224988800     0.4955363   -0.7043652  
   0.226988700     0.3835777   -0.7701994  
   0.228988600     0.2634931   -0.8181177  
   0.230988500     0.1377911   -0.8474900  
   0.232988400     0.0094574   -0.8576545  
   0.234988300    -0.1193669   -0.8480731  
   0.236988200    -0.2448220   -0.8194911  
   0.238988100    -0.3643928   -0.7725307  
   0.240988000    -0.4747208   -0.7085787  
   0.242987900    -0.5736246   -0.6292806  
   0.244987800    -0.6593386   -0.5363600  
   0.246987700    -0.7303080   -0.4317735  
   0.248987600    -0.7847023   -0.3177188  
   0.250987500    -0.8217658   -0.1970844  
   0.252987400    -0.8400700   -0.0730412  
   0.254987300    -0.8397765    0.0515041  
   0.256987200    -0.8213478    0.1741243  
   0.258987100    -0.7851085    0.2923477  
   0.260987000    -0.7318015    0.4041787  
   0.262986900    -0.6625504    0.5072421  
   0.264986800    -0.5786593    0.5989168  
   0.266986700    -0.4822190    0.6771172  
   0.268986600    -0.3756844    0.7402649  
   0.270986500    -0.2615276    0.7868432  
   0.272986400    -0.1418419    0.8157833  
   0.274986300    -0.0192227    0.8270675  
   0.276986200     0.1039917    0.8201263  
   0.278986100     0.2254750    0.7954125  
   0.280986000     0.3424658    0.7523046  
   0.282985900     0.4520916    0.6922454  
   0.284985800     0.5517331    0.6162052  
   0.286985700     0.6390820    0.5264296  
   0.288985600     0.7114862    0.4248492  
   0.290985500     0.7678614    0.3140175  
   0.292985400     0.8073306    0.1958901  
   0.294985300     0.8290564    0.0729540  
   0.296985200     0.8319010   -0.0523911  
   0.298985100     0.8161185   -0.1777877  
   0.300985000     0.7813442   -0.2994525  
   0.302984900     0.7288882   -0.4147290  
   0.304984800     0.6594584   -0.5206693  
   0.306984700     0.5755136   -0.6145747  
   0.308984600     0.4787366   -0.6945279  
   0.310984500     0.3719096   -0.7588191  
   0.312984400     0.2570584   -0.8066425  
   0.314984300     0.1365808   -0.8367505  
   0.316984200     0.0133282   -0.8488059  
   0.318984100    -0.1110070   -0.8424454  
   0.320984000    -0.2332017   -0.8176689  
   0.322983900    -0.3506283   -0.7753698  
   0.324983800    -0.4600454   -0.7160363  
   0.326983700    -0.5589882   -0.6416017  
   0.328983600    -0.6459979   -0.5539698  
   0.330983500    -0.7183884   -0.4551038  
   0.332983400    -0.7752311   -0.3475049  
   0.334983300    -0.8166905   -0.2336096  
   0.336983200    -0.8403854   -0.1151921  
   0.338983100    -0.8469280    0.0053725  
   0.340983000    -0.8362264    0.1246794  
   0.342982900    -0.8086197    0.2414622  
   0.344982800    -0.7643259    0.3534865  
   0.346982700    -0.7039829    0.4585520  
   0.348982600    -0.6288306    0.5539220  
   0.350982500    -0.5410752    0.6373812  
   0.352982400    -0.4416524    0.7073859  
   0.354982300    -0.3276786    0.7641489  
   0.356982200    -0.1924862    0.8056423  
   0.358982100    -0.0526481    0.8236071  
   0.360982000     0.0875238    0.8180249  
   0.362981900     0.2242482    0.7887064  
   0.364981800     0.3545722    0.7369342  
   0.366981700     0.4744367    0.6637317  
   0.368981600     0.5802408    0.5715327  
   0.370981500     0.6692719    0.4623201  
   0.372981400     0.7385011    0.3388070  
   0.374981300     0.7855422    0.2044231  
   0.376981200     0.7432930    0.3158683  
   0.378981100     0.7863415    0.1788331  
   0.380981000     0.8050335    0.0362197  
   0.382980900     0.7994861   -0.0949493  
   0.384980800     0.7743684   -0.2179285  
   0.386980700     0.7305100   -0.3356957  
   0.388980600     0.6691418   -0.4454803  
   0.390980500     0.5916210   -0.5438164  
   0.392980400     0.5006114   -0.6289871  
   0.394980300     0.3984371   -0.6984843  
   0.396980200     0.2875662   -0.7515925  
   0.398980100     0.1698949   -0.7872807  
   0.400980000     0.0490464   -0.8049164  
   0.402979900    -0.0730107   -0.8044752  
   0.404979800    -0.1925000   -0.7856819  
   0.406979700    -0.3071535   -0.7494503  
   0.408979600    -0.4147184   -0.6971731  
   0.410979500    -0.5134923   -0.6294203  
   0.412979400    -0.6014061   -0.5481134  
   0.414979300    -0.6760790   -0.4551222  
   0.416979200    -0.7360661   -0.3526049  
   0.418979100    -0.7804086   -0.2433289  
   0.420979000    -0.8083772   -0.1290093  
   0.422978900    -0.8197939   -0.0122651  
   0.424978800    -0.8143090    0.1048253  
   0.426978700    -0.7920128    0.2200617  
   0.428978600    -0.7537069    0.3303430  
   0.430978500    -0.7005787    0.4332957  
   0.432978400    -0.6337982    0.5274687  
   0.434978300    -0.5548807    0.6108340  
   0.436978200    -0.4646697    0.6820630  
   0.438978100    -0.3658788    0.7401136  
   0.440978000    -0.2594938    0.7842683  
   0.442977900    -0.1480814    0.8128965  
   0.444977800    -0.0335044    0.8257820  
   0.446977700     0.0820222    0.8221854  
   0.448977600     0.1959779    0.8025509  
   0.450977500     0.3064560    0.7669631  
   0.452977400     0.4115548    0.7152887  
   0.454977300     0.5090190    0.6486564  
   0.456977200     0.5966827    0.5677937  
   0.458977100     0.6718007    0.4746280  
   0.460977000     0.7328634    0.3709949  
   0.462976900     0.7781636    0.2594985  
   0.464976800     0.8063115    0.1413322  
   0.466976700     0.8170766    0.0203493  
   0.468976600     0.8091529   -0.1017357  
   0.470976500     0.7833470   -0.2218197  
   0.472976400     0.7391226   -0.3369421  
   0.474976300     0.6780828   -0.4439318  
   0.476976200     0.6013603   -0.5408593  
   0.478976100     0.5107167   -0.6246901  
   0.480976000     0.4089369   -0.6932358  
   0.482975900     0.2984254   -0.7456573  
   0.484975800     0.1812781   -0.7805207  
   0.486975700     0.0604147   -0.7973330  
   0.488975600    -0.0619688   -0.7955623  
   0.490975500    -0.1821149   -0.7753053  
   0.492975400    -0.2977392   -0.7373028  
   0.494975300    -0.4064258   -0.6820174  
   0.496975200    -0.5045134   -0.6115126  
   0.498975100    -0.5910692   -0.5269244  
   0.500975000    -0.6631573   -0.4309007  
   0.502974900    -0.7199307   -0.3256001  
   0.504974800    -0.7602245   -0.2134954  
   0.506974700    -0.7833986   -0.0965091  
   0.508974600    -0.7885841    0.0228993  
   0.510974500    -0.7756838    0.1411146  
   0.512974400    -0.7455837    0.2560715  
   0.514974300    -0.6995820    0.3639219  
   0.516974200    -0.6378887    0.4634321  
   0.518974100    -0.5627476    0.5522336  
   0.520974000    -0.4756396    0.6289517  
   0.522973900    -0.3789462    0.6918834  
   0.524973800    -0.2743197    0.7399152  
   0.526973700    -0.1635606    0.7722624  
   0.528973600    -0.0497865    0.7885020  
   0.530973500     0.0654592    0.7874888  
   0.532973400     0.1792850    0.7699379  
   0.534973300     0.2893973    0.7363327  
   0.536973200     0.3933456    0.6866852  
   0.538973100     0.4890669    0.6227465  
   0.540973000     0.5741144    0.5462229  
   0.542972900     0.6476930    0.4578807  
   0.544972800     0.7075771    0.3596942  
   0.546972700     0.7527367    0.2533702  
   0.548972600     0.7823985    0.1412739  
   0.550972500     0.7952619    0.0255594  
   0.552972400     0.7910078   -0.0912871  
   0.554972300     0.7697449   -0.2063919  
   0.556972200     0.7315987   -0.3178500  
   0.558972100     0.6774448   -0.4226373  
   0.560972000     0.6084735   -0.5184267  
   0.562971900     0.5263069   -0.6022943  
   0.564971800     0.4327337   -0.6736730  
   0.566971700     0.3302784   -0.7300702  
   0.568971600     0.2205229   -0.7712209  
   0.570971500     0.1061502   -0.7956957  
   0.572971400    -0.0104198   -0.8029199  
   0.574971300    -0.1276627   -0.7935625  
   0.576971200    -0.2425432   -0.7668341  
   0.578971100    -0.3522734   -0.7234234  
   0.580971000    -0.4543215   -0.6645847  
   0.582970900    -0.5460827   -0.5916355  
   0.584970800    -0.6261693   -0.5063651  
   0.586970700    -0.6925741   -0.4109485  
   0.588970600    -0.7445550   -0.3073614  
   0.590970500    -0.7805591   -0.1976167  
   0.592970400    -0.8004369   -0.0838085  
   0.594970300    -0.8037110    0.0312704  
   0.596970200    -0.7904442    0.1455260  
   0.598970100    -0.7609617    0.2565898  
   0.600970000    -0.7155200    0.3621964  
   0.602969900    -0.6557468    0.4599036  
   0.604969800    -0.5819979    0.5485420  
   0.606969700    -0.4964207    0.6251786  
   0.608969600    -0.3998239    0.6890430  
   0.610969500    -0.2951241    0.7379336  
   0.612969400    -0.1841188    0.7708262  
   0.614969300    -0.0697543    0.7875222  
   0.616969200     0.0456462    0.7867625  
   0.618969100     0.1594903    0.7695152  
   0.620969000     0.2691568    0.7356991  
   0.622968900     0.3729703    0.6861883  
   0.624968800     0.4689066    0.6215032  
   0.626968700     0.5542951    0.5427980  
   0.628968600     0.6276231    0.4518471  
   0.630968500     0.6866041    0.3506863  
   0.632968400     0.7300758    0.2412409  
   0.634968300     0.7560356    0.1262771  
   0.636968200     0.7642012    0.0085139  
   0.638968100     0.7546471   -0.1094148  
   0.640968000     0.7268998   -0.2245423  
   0.642967900     0.6816742   -0.3343050  
   0.644967800     0.6203488   -0.4359548  
   0.646967700     0.5439421   -0.5267541  
   0.648967600     0.4548123   -0.6044427  
   0.650967500     0.3554253   -0.6672942  
   0.652967400     0.2478170   -0.7136258  
   0.654967300     0.1346923   -0.7433160  
   0.656967200     0.0188716   -0.7555234  
   0.658967100    -0.0970784   -0.7501636  
   0.660967000    -0.2109488   -0.7272421  
   0.662966900    -0.3202792   -0.6874509  
   0.664966800    -0.4224697   -0.6317646  
   0.666966700    -0.5150023   -0.5610948  
   0.668966600    -0.5953117   -0.4777930  
   0.670966500    -0.6622490   -0.3834008  
   0.672966400    -0.7134517   -0.2807904  
   0.674966300    -0.7493142   -0.1722827  
   0.676966200    -0.7681162   -0.0601375  
   0.678966100    -0.7705141    0.0526744  
   0.680966000    -0.7563866    0.1644274  
   0.682965900    -0.7262248    0.2725460  
   0.684965800    -0.6811257    0.3746127  
   0.686965700    -0.6215956    0.4693361  
   0.688965600    -0.5491109    0.5539410  
   0.690965500    -0.4656943    0.6274149  
   0.692965400    -0.3722573    0.6879436  
   0.694965300    -0.2717093    0.7347953  
   0.696965200    -0.1654032    0.7663037  
   0.698965100    -0.0552632    0.7827163  
   0.700965000     0.0557119    0.7830426  
   0.702964900     0.1667065    0.7676169  
   0.704964800     0.2746641    0.7360872  
   0.706964700     0.3769818    0.6891943  
   0.708964600     0.4724173    0.6273459  
   0.710964500     0.5583848    0.5519298  
   0.712964400     0.6324289    0.4644547  
   0.714964300     0.6934160    0.3665034  
   0.716964200     0.7391017    0.2606593  
   0.718964100     0.7683892    0.1491986  
   0.720964000     0.7809072    0.0348723  
   0.722963900     0.7764093   -0.0803290  
   0.724963800     0.7546520   -0.1933803  
   0.726963700     0.7165391   -0.3026887  
   0.728963600     0.6623256   -0.4051652  
   0.730963500     0.5934454   -0.4987659  
   0.732963400     0.5110320   -0.5813010  
   0.734963300     0.4169305   -0.6505296  
   0.736963200     0.2975730   -0.7124964  
   0.738963100     0.1685039   -0.7522714  
   0.740963000     0.0349260   -0.7684134  
   0.742962900    -0.0992969   -0.7608661  
   0.744962800    -0.2295987   -0.7297417  
   0.746962700    -0.3517840   -0.6762213  
   0.748962600    -0.4622405   -0.6023281  
   0.750962500    -0.3816682   -0.6625443  
   0.752962400    -0.4899662   -0.5852630  
   0.754962300    -0.5822539   -0.4906405  
   0.756962200    -0.6564083   -0.3820007  
   0.758962100    -0.7100577   -0.2628264  
   0.760962000    -0.7421112   -0.1365897  
   0.762961900    -0.7522491   -0.0136910  
   0.764961800    -0.7445645    0.0980336  
   0.766961700    -0.7205228    0.2067035  
   0.768961600    -0.6813032    0.3101169  
   0.770961500    -0.6273600    0.4060177  
   0.772961400    -0.5607047    0.4923341  
   0.774961300    -0.4824972    0.5678566  
   0.776961200    -0.3945560    0.6311709  
   0.778961100    -0.2985652    0.6806023  
   0.780961000    -0.1962327    0.7160049  
   0.782960900    -0.0898719    0.7361513  
   0.784960800     0.0192038    0.7409915  
   0.786960700     0.1275757    0.7298842  
   0.788960600     0.2336199    0.7027684  
   0.790960500     0.3350544    0.6612145  
   0.792960400     0.4295159    0.6049325  
   0.794960300     0.5145074    0.5354763  
   0.796960200     0.5886764    0.4539547  
   0.798960100     0.6502063    0.3625329  
   0.800960000     0.6975095    0.2630539  
   0.802959900     0.7304410    0.1571364  
   0.804959800     0.7471173    0.0474892  
   0.806959700     0.7476127   -0.0637659  
   0.808959600     0.7315798   -0.1745450  
   0.810959500     0.6996703   -0.2815724  
   0.812959400     0.6514826   -0.3833957  
   0.814959300     0.5888038   -0.4774813  
   0.816959200     0.5124090   -0.5612717  
   0.818959100     0.4245178   -0.6328555  
   0.820959000     0.3260273   -0.6907025  
   0.822958900     0.2202100   -0.7333230  
   0.824958800     0.1089884   -0.7594780  
   0.826958700    -0.0048383   -0.7687703  
   0.828958600    -0.1190549   -0.7607554  
   0.830958500    -0.2306211   -0.7359149  
   0.832958400    -0.3366463   -0.6945424  
   0.834958300    -0.4351446   -0.6383125  
   0.836958200    -0.5238139   -0.5680143  
   0.838958100    -0.6010367   -0.4859165  
   0.840958000    -0.6649941   -0.3935296  
   0.842957900    -0.7145188   -0.2929080  
   0.844957800    -0.7489669   -0.1863804  
   0.846957700    -0.7669984   -0.0760959  
   0.848957600    -0.7687829    0.0348604  
   0.850957500    -0.7543092    0.1452831  
   0.852957400    -0.7241054    0.2520117  
   0.854957300    -0.6785946    0.3526691  
   0.856957200    -0.6189618    0.4457232  
   0.858957100    -0.5471083    0.5285614  
   0.860957000    -0.4640438    0.5996766  
   0.862956900    -0.3726036    0.6575022  
   0.864956800    -0.2740725    0.7015197  
   0.866956700    -0.1707971    0.7307331  
   0.868956600    -0.0645823    0.7450993  
   0.870956500     0.0428245    0.7440005  
   0.872956400     0.1492099    0.7274258  
   0.874956300     0.2525904    0.6955662  
   0.876956200     0.3509331    0.6486492  
   0.878956100     0.4418560    0.5874935  
   0.880956000     0.5230410    0.5133890  
   0.882955900     0.5935424    0.4274338  
   0.884955800     0.6500122    0.3314915  
   0.886955700     0.6914098    0.2274492  
   0.888955600     0.7169444    0.1182200  
   0.890955500     0.7254612    0.0058959  
   0.892955400     0.7168364   -0.1066303  
   0.894955300     0.6908168   -0.2170400  
