! MS46122B
! 2250307/22442219
! 6/16/2025 12:43:20 PM
! C:\USERS\SPARKY\DOCUMENTS\VNA_DATA\JUNE16_2025\295\ECAL_LOAD_E.S1P
! CHANNEL.1
! TR.MEASUREMENT
! RAW.DATA
# GHZ S RI R 50.0
! FREQ.GHZ         S11RE         S11IM         
!; PortSelection: Port_1
   0.001000000     0.0212275    0.0070555  
   0.002999900     0.0071472    0.0563807  
   0.004999800     0.0061214    0.0631356  
   0.006999700     0.0067050    0.0596764  
   0.008999600     0.0077136    0.0520482  
   0.010999500     0.0090380    0.0427018  
   0.012999400     0.0107749    0.0327380  
   0.014999300     0.0129495    0.0227808  
   0.016999200     0.0154543    0.0133427  
   0.018999100     0.0181164    0.0045905  
   0.020999000     0.0207547   -0.0033705  
   0.022998900     0.0231785   -0.0104479  
   0.024998800     0.0226810   -0.0151565  
   0.026998700     0.0266731   -0.0220707  
   0.028998600     0.0274806   -0.0267046  
   0.030998500     0.0275670   -0.0306356  
   0.032998400     0.0247317   -0.0322233  
   0.034998300     0.0255490   -0.0366188  
   0.036998200     0.0236526   -0.0388572  
   0.038998100     0.0211304   -0.0407152  
   0.040998000     0.0181768   -0.0421847  
   0.042997900     0.0148324   -0.0432041  
   0.044997800     0.0096405   -0.0422859  
   0.046997700     0.0072360   -0.0441329  
   0.048997600     0.0032383   -0.0441226  
   0.050997500    -0.0007880   -0.0438105  
   0.052997400    -0.0048392   -0.0431568  
   0.054997300    -0.0086796   -0.0423329  
   0.056997200    -0.0122826   -0.0414419  
   0.058997100    -0.0156485   -0.0403009  
   0.060997000    -0.0187894   -0.0390018  
   0.062996900    -0.0216743   -0.0375970  
   0.064996800    -0.0243275   -0.0362423  
   0.066996700    -0.0267012   -0.0348355  
   0.068996600    -0.0287562   -0.0332403  
   0.070996500    -0.0305692   -0.0315374  
   0.072996400    -0.0321395   -0.0296770  
   0.074996300    -0.0334964   -0.0277515  
   0.076996200    -0.0345957   -0.0257246  
   0.078996100    -0.0354877   -0.0236781  
   0.080996000    -0.0362004   -0.0215552  
   0.082995900    -0.0366849   -0.0193883  
   0.084995800    -0.0370621   -0.0172148  
   0.086995700    -0.0372552   -0.0150043  
   0.088995600    -0.0373154   -0.0127924  
   0.090995500    -0.0372079   -0.0106250  
   0.092995400    -0.0369569   -0.0085448  
   0.094995300    -0.0365920   -0.0065488  
   0.096995200    -0.0360095   -0.0046056  
   0.098995100    -0.0353818   -0.0027705  
   0.100995000    -0.0346237   -0.0010851  
   0.102994900    -0.0337210    0.0004957  
   0.104994800    -0.0327348    0.0018969  
   0.106994700    -0.0316259    0.0031375  
   0.108994600    -0.0304876    0.0042402  
   0.110994500    -0.0292623    0.0051096  
   0.112994400    -0.0279573    0.0058543  
   0.114994300    -0.0266654    0.0063940  
   0.116994200    -0.0253397    0.0067575  
   0.118994100    -0.0240141    0.0069422  
   0.120994000    -0.0227330    0.0069337  
   0.122993900    -0.0215412    0.0067978  
   0.124993800    -0.0203647    0.0064543  
   0.126993700    -0.0193625    0.0060025  
   0.128993600    -0.0184586    0.0053883  
   0.130993500    -0.0176750    0.0046965  
   0.132993400    -0.0171154    0.0038799  
   0.134993300    -0.0166925    0.0030074  
   0.136993200    -0.0164644    0.0020746  
   0.138993100    -0.0164224    0.0011498  
   0.140993000    -0.0166123    0.0001952  
   0.142992900    -0.0169744   -0.0007152  
   0.144992800    -0.0176098   -0.0015446  
   0.146992700    -0.0183779   -0.0022965  
   0.148992600    -0.0193285   -0.0029229  
   0.150992500    -0.0204749   -0.0033928  
   0.152992400    -0.0217411   -0.0036801  
   0.154992300    -0.0231476   -0.0037704  
   0.156992200    -0.0246451   -0.0036649  
   0.158992100    -0.0262048   -0.0032834  
   0.160992000    -0.0278028   -0.0026284  
   0.162991900    -0.0293958   -0.0017368  
   0.164991800    -0.0309262   -0.0005659  
   0.166991700    -0.0324006    0.0008672  
   0.168991600    -0.0337526    0.0026109  
   0.170991500    -0.0348830    0.0046021  
   0.172991400    -0.0358139    0.0068196  
   0.174991300    -0.0365490    0.0092291  
   0.176991200    -0.0369841    0.0118632  
   0.178991100    -0.0371061    0.0146165  
   0.180991000    -0.0369469    0.0175130  
   0.182990900    -0.0364211    0.0204922  
   0.184990800    -0.0354745    0.0234949  
   0.186990700    -0.0341300    0.0264805  
   0.188990600    -0.0339865    0.0288215  
   0.190990500    -0.0307017    0.0323438  
   0.192990400    -0.0279826    0.0350497  
   0.194990300    -0.0251425    0.0374292  
   0.196990200    -0.0220194    0.0395031  
   0.198990100    -0.0185965    0.0412477  
   0.200990000    -0.0148536    0.0426394  
   0.202989900    -0.0107871    0.0435972  
   0.204989800    -0.0065478    0.0440806  
   0.206989700    -0.0023518    0.0441488  
   0.208989600     0.0019320    0.0437830  
   0.210989500     0.0062226    0.0428932  
   0.212989400     0.0104619    0.0414745  
   0.214989300     0.0145841    0.0396098  
   0.216989200     0.0184522    0.0373194  
   0.218989100     0.0220313    0.0344558  
   0.220989000     0.0253683    0.0310888  
   0.222988900     0.0283643    0.0274234  
   0.224988800     0.0309391    0.0234709  
   0.226988700     0.0330090    0.0192539  
   0.228988600     0.0345170    0.0147898  
   0.230988500     0.0355389    0.0101723  
   0.232988400     0.0360096    0.0055116  
   0.234988300     0.0359341    0.0007755  
   0.236988200     0.0353538   -0.0038994  
   0.238988100     0.0341871   -0.0084800  
   0.240988000     0.0324781   -0.0128255  
   0.242987900     0.0302484   -0.0169026  
   0.244987800     0.0275747   -0.0206993  
   0.246987700     0.0244955   -0.0241103  
   0.248987600     0.0210704   -0.0270554  
   0.250987500     0.0173192   -0.0295885  
   0.252987400     0.0133211   -0.0315598  
   0.254987300     0.0092097   -0.0330303  
   0.256987200     0.0050068   -0.0339396  
   0.258987100     0.0007734   -0.0343285  
   0.260987000    -0.0033432   -0.0341097  
   0.262986900    -0.0073636   -0.0333990  
   0.264986800    -0.0111533   -0.0321009  
   0.266986700    -0.0146425   -0.0304058  
   0.268986600    -0.0177985   -0.0282905  
   0.270986500    -0.0205935   -0.0258239  
   0.272986400    -0.0229316   -0.0230836  
   0.274986300    -0.0248223   -0.0201160  
   0.276986200    -0.0261830   -0.0169810  
   0.278986100    -0.0270548   -0.0136979  
   0.280986000    -0.0274048   -0.0103990  
   0.282985900    -0.0272465   -0.0071384  
   0.284985800    -0.0265757   -0.0040305  
   0.286985700    -0.0254599   -0.0011251  
   0.288985600    -0.0239521    0.0014237  
   0.290985500    -0.0220950    0.0036669  
   0.292985400    -0.0199348    0.0054108  
   0.294985300    -0.0175283    0.0067893  
   0.296985200    -0.0149198    0.0077088  
   0.298985100    -0.0121758    0.0082229  
   0.300985000    -0.0094336    0.0082344  
   0.302984900    -0.0067100    0.0077041  
   0.304984800    -0.0041228    0.0067932  
   0.306984700    -0.0017198    0.0053071  
   0.308984600     0.0003372    0.0034138  
   0.310984500     0.0020879    0.0011011  
   0.312984400     0.0034396   -0.0015280  
   0.314984300     0.0043627   -0.0044352  
   0.316984200     0.0048192   -0.0075404  
   0.318984100     0.0047829   -0.0107398  
   0.320984000     0.0042116   -0.0139440  
   0.322983900     0.0031004   -0.0170809  
   0.324983800     0.0014730   -0.0200531  
   0.326983700    -0.0006391   -0.0228533  
   0.328983600    -0.0032601   -0.0253508  
   0.330983500    -0.0063244   -0.0275322  
   0.332983400    -0.0097125   -0.0293138  
   0.334983300    -0.0134211   -0.0306571  
   0.336983200    -0.0173469   -0.0315030  
   0.338983100    -0.0214735   -0.0317792  
   0.340983000    -0.0256268   -0.0315459  
   0.342982900    -0.0298460   -0.0306584  
   0.344982800    -0.0339754   -0.0292061  
   0.346982700    -0.0379866   -0.0270606  
   0.348982600    -0.0417575   -0.0243423  
   0.350982500    -0.0452033   -0.0211538  
   0.352982400    -0.0482705   -0.0174227  
   0.354982300    -0.0508869   -0.0130307  
   0.356982200    -0.0527991   -0.0073459  
   0.358982100    -0.0538855   -0.0015135  
   0.360982000    -0.0540975    0.0044813  
   0.362981900    -0.0534266    0.0103746  
   0.364981800    -0.0518765    0.0161910  
   0.366981700    -0.0495206    0.0216568  
   0.368981600    -0.0463482    0.0268038  
   0.370981500    -0.0424762    0.0313050  
   0.372981400    -0.0379906    0.0352805  
   0.374981300    -0.0329718    0.0385366  
   0.376981200    -0.0417458    0.0313596  
   0.378981100    -0.0368543    0.0347734  
   0.380981000    -0.0316455    0.0373592  
   0.382980900    -0.0269123    0.0387158  
   0.384980800    -0.0224078    0.0393270  
   0.386980700    -0.0179821    0.0392669  
   0.388980600    -0.0137444    0.0384991  
   0.390980500    -0.0097064    0.0371026  
   0.392980400    -0.0061047    0.0350874  
   0.394980300    -0.0028631    0.0325433  
   0.396980200    -0.0001383    0.0295150  
   0.398980100     0.0020802    0.0260985  
   0.400980000     0.0036955    0.0224423  
   0.402979900     0.0046152    0.0186435  
   0.404979800     0.0049961    0.0147385  
   0.406979700     0.0046632    0.0108291  
   0.408979600     0.0037064    0.0071121  
   0.410979500     0.0020899    0.0035610  
   0.412979400    -0.0001366    0.0003990  
   0.414979300    -0.0029579   -0.0023444  
   0.416979200    -0.0062441   -0.0045823  
   0.418979100    -0.0099184   -0.0062690  
   0.420979000    -0.0139142   -0.0072950  
   0.422978900    -0.0181220   -0.0076724  
   0.424978800    -0.0224638   -0.0072693  
   0.426978700    -0.0268360   -0.0061226  
   0.428978600    -0.0310918   -0.0042293  
   0.430978500    -0.0350758   -0.0016784  
   0.432978400    -0.0386644    0.0015582  
   0.434978300    -0.0418636    0.0053929  
   0.436978200    -0.0445364    0.0098235  
   0.438978100    -0.0465787    0.0147781  
   0.440978000    -0.0479334    0.0200265  
   0.442977900    -0.0485618    0.0256170  
   0.444977800    -0.0483637    0.0314183  
   0.446977700    -0.0473074    0.0372480  
   0.448977600    -0.0454387    0.0430160  
   0.450977500    -0.0427556    0.0486974  
   0.452977400    -0.0392402    0.0540349  
   0.454977300    -0.0349799    0.0590184  
   0.456977200    -0.0299168    0.0634470  
   0.458977100    -0.0242141    0.0673152  
   0.460977000    -0.0179836    0.0703854  
   0.462976900    -0.0112377    0.0726336  
   0.464976800    -0.0042179    0.0739675  
   0.466976700     0.0030097    0.0744137  
   0.468976600     0.0103957    0.0738257  
   0.470976500     0.0176703    0.0723080  
   0.472976400     0.0247203    0.0698575  
   0.474976300     0.0314626    0.0664608  
   0.476976200     0.0377290    0.0621671  
   0.478976100     0.0434484    0.0570934  
   0.480976000     0.0484328    0.0513857  
   0.482975900     0.0526838    0.0451087  
   0.484975800     0.0560690    0.0383607  
   0.486975700     0.0585888    0.0311793  
   0.488975600     0.0601047    0.0237948  
   0.490975500     0.0607153    0.0162014  
   0.492975400     0.0602699    0.0086569  
   0.494975300     0.0588250    0.0012242  
   0.496975200     0.0563670   -0.0058872  
   0.498975100     0.0531109   -0.0125913  
   0.500975000     0.0489424   -0.0187713  
   0.502974900     0.0439658   -0.0241929  
   0.504974800     0.0383278   -0.0287935  
   0.506974700     0.0321228   -0.0325859  
   0.508974600     0.0254012   -0.0355796  
   0.510974500     0.0183754   -0.0375442  
   0.512974400     0.0111581   -0.0383967  
   0.514974300     0.0040514   -0.0381986  
   0.516974200    -0.0028194   -0.0370196  
   0.518974100    -0.0092873   -0.0348730  
   0.520974000    -0.0153145   -0.0318030  
   0.522973900    -0.0207469   -0.0278554  
   0.524973800    -0.0254205   -0.0231820  
   0.526973700    -0.0293267   -0.0179385  
   0.528973600    -0.0323087   -0.0121718  
   0.530973500    -0.0343590   -0.0060477  
   0.532973400    -0.0353526    0.0002959  
   0.534973300    -0.0353572    0.0066381  
   0.536973200    -0.0343088    0.0129396  
   0.538973100    -0.0322602    0.0189300  
   0.540973000    -0.0291839    0.0246297  
   0.542972900    -0.0253007    0.0296641  
   0.544972800    -0.0206143    0.0340712  
   0.546972700    -0.0152386    0.0376512  
   0.548972600    -0.0092855    0.0403210  
   0.550972500    -0.0029764    0.0420452  
   0.552972400     0.0036871    0.0426443  
   0.554972300     0.0104369    0.0421718  
   0.556972200     0.0171228    0.0405671  
   0.558972100     0.0236601    0.0378627  
   0.560972000     0.0298872    0.0341568  
   0.562971900     0.0356148    0.0295286  
   0.564971800     0.0405026    0.0240080  
   0.566971700     0.0445928    0.0176525  
   0.568971600     0.0476861    0.0106278  
   0.570971500     0.0497281    0.0030722  
   0.572971400     0.0509106   -0.0050173  
   0.574971300     0.0507639   -0.0132754  
   0.576971200     0.0493366   -0.0216575  
   0.578971100     0.0466706   -0.0299824  
   0.580971000     0.0427993   -0.0379784  
   0.582970900     0.0377485   -0.0454872  
   0.584970800     0.0316396   -0.0522995  
   0.586970700     0.0245427   -0.0582838  
   0.588970600     0.0164602   -0.0633708  
   0.590970500     0.0076403   -0.0673813  
   0.592970400    -0.0017044   -0.0702102  
   0.594970300    -0.0114465   -0.0717859  
   0.596970200    -0.0215810   -0.0719905  
   0.598970100    -0.0317632   -0.0709263  
   0.600970000    -0.0417635   -0.0684640  
   0.602969900    -0.0515189   -0.0647653  
   0.604969800    -0.0607621   -0.0597225  
   0.606969700    -0.0693438   -0.0534612  
   0.608969600    -0.0771697   -0.0461114  
   0.610969500    -0.0840299   -0.0377356  
   0.612969400    -0.0896716   -0.0284553  
   0.614969300    -0.0941424   -0.0184887  
   0.616969200    -0.0972300   -0.0078672  
   0.618969100    -0.0989166    0.0030259  
   0.620969000    -0.0992122    0.0139935  
   0.622968900    -0.0981154    0.0249423  
   0.624968800    -0.0956308    0.0356142  
   0.626968700    -0.0917558    0.0459012  
   0.628968600    -0.0865466    0.0555432  
   0.630968500    -0.0801423    0.0644442  
   0.632968400    -0.0726569    0.0723902  
   0.634968300    -0.0642211    0.0794728  
   0.636968200    -0.0549945    0.0851245  
   0.638968100    -0.0450306    0.0896547  
   0.640968000    -0.0347359    0.0925895  
   0.642967900    -0.0242482    0.0941445  
   0.644967800    -0.0137188    0.0942507  
   0.646967700    -0.0034311    0.0929332  
   0.648967600     0.0065826    0.0903336  
   0.650967500     0.0160650    0.0864658  
   0.652967400     0.0246642    0.0813717  
   0.654967300     0.0323016    0.0751401  
   0.656967200     0.0389646    0.0680308  
   0.658967100     0.0444518    0.0603089  
   0.660967000     0.0486729    0.0519050  
   0.662966900     0.0517880    0.0428828  
   0.664966800     0.0534888    0.0336299  
   0.666966700     0.0539493    0.0241214  
   0.668966600     0.0530149    0.0148228  
   0.670966500     0.0507656    0.0058202  
   0.672966400     0.0473771   -0.0026408  
   0.674966300     0.0426597   -0.0105541  
   0.676966200     0.0368602   -0.0173371  
   0.678966100     0.0303292   -0.0230604  
   0.680966000     0.0228348   -0.0276337  
   0.682965900     0.0149696   -0.0309338  
   0.684965800     0.0065763   -0.0330314  
   0.686965700    -0.0018876   -0.0338790  
   0.688965600    -0.0103169   -0.0333316  
   0.690965500    -0.0184666   -0.0314279  
   0.692965400    -0.0262164   -0.0282406  
   0.694965300    -0.0333941   -0.0239154  
   0.696965200    -0.0397754   -0.0185356  
   0.698965100    -0.0452474   -0.0122124  
   0.700965000    -0.0497027   -0.0051063  
   0.702964900    -0.0529650    0.0026664  
   0.704964800    -0.0549510    0.0108358  
   0.706964700    -0.0557304    0.0193700  
   0.708964600    -0.0550846    0.0280029  
   0.710964500    -0.0531110    0.0363391  
   0.712964400    -0.0496870    0.0445603  
   0.714964300    -0.0450869    0.0520564  
   0.716964200    -0.0394214    0.0588164  
   0.718964100    -0.0329459    0.0648188  
   0.720964000    -0.0255268    0.0697928  
   0.722963900    -0.0175018    0.0737086  
   0.724963800    -0.0088733    0.0764515  
   0.726963700     0.0002172    0.0779736  
   0.728963600     0.0093985    0.0781686  
   0.730963500     0.0185000    0.0770168  
   0.732963400     0.0275408    0.0744661  
   0.734963300     0.0361522    0.0706019  
   0.736963200     0.0467322    0.0640792  
   0.738963100     0.0563369    0.0560014  
   0.740963000     0.0647332    0.0464656  
   0.742962900     0.0716707    0.0356467  
   0.744962800     0.0768837    0.0240456  
   0.746962700     0.0802124    0.0119718  
   0.748962600     0.0816638   -0.0003742  
   0.750962500     0.0645290    0.0178942  
   0.752962400     0.0662464    0.0058978  
   0.754962300     0.0660049   -0.0059597  
   0.756962200     0.0638861   -0.0174277  
   0.758962100     0.0600055   -0.0283990  
   0.760962000     0.0545720   -0.0381697  
   0.762961900     0.0476568   -0.0461478  
   0.764961800     0.0398269   -0.0519912  
   0.766961700     0.0311175   -0.0567747  
   0.768961600     0.0220339   -0.0601145  
   0.770961500     0.0125421   -0.0621162  
   0.772961400     0.0030091   -0.0627630  
   0.774961300    -0.0065223   -0.0620884  
   0.776961200    -0.0157997   -0.0600915  
   0.778961100    -0.0245933   -0.0568273  
   0.780961000    -0.0327620   -0.0524289  
   0.782960900    -0.0401197   -0.0469514  
   0.784960800    -0.0464445   -0.0404897  
   0.786960700    -0.0516491   -0.0332547  
   0.788960600    -0.0556306   -0.0253601  
   0.790960500    -0.0584654   -0.0169123  
   0.792960400    -0.0598868   -0.0082046  
   0.794960300    -0.0599940    0.0004249  
   0.796960200    -0.0588525    0.0089037  
   0.798960100    -0.0563601    0.0170260  
   0.800960000    -0.0527104    0.0248795  
   0.802959900    -0.0479905    0.0317567  
   0.804959800    -0.0424385    0.0377744  
   0.806959700    -0.0360007    0.0427819  
   0.808959600    -0.0288735    0.0467022  
   0.810959500    -0.0213697    0.0494647  
   0.812959400    -0.0133750    0.0509302  
   0.814959300    -0.0053456    0.0511333  
   0.816959200     0.0026555    0.0500227  
   0.818959100     0.0103710    0.0476958  
   0.820959000     0.0177469    0.0441008  
   0.822958900     0.0245749    0.0394456  
   0.824958800     0.0305874    0.0337467  
   0.826958700     0.0359084    0.0269523  
   0.828958600     0.0399157    0.0194855  
   0.830958500     0.0427115    0.0113480  
   0.832958400     0.0441696    0.0028824  
   0.834958300     0.0443694   -0.0059139  
   0.836958200     0.0432322   -0.0147159  
   0.838958100     0.0407958   -0.0234068  
   0.840958000     0.0370658   -0.0315444  
   0.842957900     0.0321047   -0.0391544  
   0.844957800     0.0260102   -0.0460385  
   0.846957700     0.0189109   -0.0520191  
   0.848957600     0.0109009   -0.0569160  
   0.850957500     0.0021564   -0.0606575  
   0.852957400    -0.0070591   -0.0630734  
   0.854957300    -0.0166274   -0.0641573  
   0.856957200    -0.0263479   -0.0638489  
   0.858957100    -0.0360305   -0.0621324  
   0.860957000    -0.0454569   -0.0590961  
   0.862956900    -0.0545515   -0.0547243  
   0.864956800    -0.0630430   -0.0492202  
   0.866956700    -0.0706180   -0.0426985  
   0.868956600    -0.0773806   -0.0350555  
   0.870956500    -0.0830081   -0.0266982  
   0.872956400    -0.0873311   -0.0177056  
   0.874956300    -0.0903970   -0.0082453  
   0.876956200    -0.0919953    0.0016468  
   0.878956100    -0.0922248    0.0116702  
   0.880956000    -0.0910085    0.0216308  
   0.882955900    -0.0884267    0.0313256  
   0.884955800    -0.0845252    0.0406987  
   0.886955700    -0.0793917    0.0493193  
   0.888955600    -0.0730614    0.0570378  
   0.890955500    -0.0657805    0.0637629  
   0.892955400    -0.0576646    0.0693560  
   0.894955300    -0.0489488    0.0737009  
