! MS46122B
! 2250307/22442219
! 6/16/2025 12:46:17 PM
! C:\USERS\SPARKY\DOCUMENTS\VNA_DATA\JUNE16_2025\295\ECAL_OPEN_E.S1P
! CHANNEL.1
! TR.MEASUREMENT
! RAW.DATA
# GHZ S RI R 50.0
! FREQ.GHZ         S11RE         S11IM         
!; PortSelection: Port_1
   0.001000000     1.0275930   -0.0529410  
   0.002999900     0.9423058   -0.2057854  
   0.004999800     0.8809700   -0.3457964  
   0.006999700     0.8079497   -0.4764279  
   0.008999600     0.7198375   -0.5893158  
   0.010999500     0.6207291   -0.6895691  
   0.012999400     0.5114627   -0.7771924  
   0.014999300     0.3931418   -0.8502263  
   0.016999200     0.2665329   -0.9063371  
   0.018999100     0.1336540   -0.9436631  
   0.020999000    -0.0034924   -0.9603457  
   0.022998900    -0.1420044   -0.9560470  
   0.024998800    -0.2547607   -0.9038406  
   0.026998700    -0.4097596   -0.8801821  
   0.028998600    -0.5323697   -0.8104739  
   0.030998500    -0.6431146   -0.7216735  
   0.032998400    -0.7065543   -0.6093623  
   0.034998300    -0.8179104   -0.4971679  
   0.036998200    -0.8774129   -0.3673438  
   0.038998100    -0.9170957   -0.2309672  
   0.040998000    -0.9359015   -0.0906072  
   0.042997900    -0.9345401    0.0504636  
   0.044997800    -0.8878810    0.1665585  
   0.046997700    -0.8706122    0.3221972  
   0.048997600    -0.8103080    0.4483083  
   0.050997500    -0.7321598    0.5639535  
   0.052997400    -0.6386681    0.6651796  
   0.054997300    -0.5280524    0.7535564  
   0.056997200    -0.4066104    0.8231878  
   0.058997100    -0.2760077    0.8731632  
   0.060997000    -0.1393819    0.9023772  
   0.062996900     0.0002749    0.9101211  
   0.064996800     0.1395442    0.8965915  
   0.066996700     0.2749102    0.8617612  
   0.068996600     0.4031868    0.8069442  
   0.070996500     0.5214406    0.7331966  
   0.072996400     0.6272011    0.6426623  
   0.074996300     0.7181337    0.5373288  
   0.076996200     0.7919862    0.4195582  
   0.078996100     0.8467111    0.2920273  
   0.080996000     0.8813429    0.1581933  
   0.082995900     0.8952310    0.0206739  
   0.084995800     0.8878694   -0.1167037  
   0.086995700     0.8598986   -0.2508972  
   0.088995600     0.8121381   -0.3788786  
   0.090995500     0.7455398   -0.4976211  
   0.092995400     0.6624910   -0.6044219  
   0.094995300     0.5644844   -0.6972016  
   0.096995200     0.4548185   -0.7743177  
   0.098995100     0.3348488   -0.8339008  
   0.100995000     0.2085153   -0.8749751  
   0.102994900     0.0780358   -0.8966135  
   0.104994800    -0.0539597   -0.8992960  
   0.106994700    -0.1841637   -0.8827021  
   0.108994600    -0.3100968   -0.8476616  
   0.110994500    -0.4292866   -0.7951967  
   0.112994400    -0.5393949   -0.7261483  
   0.114994300    -0.6380873   -0.6421055  
   0.116994200    -0.7236646   -0.5451025  
   0.118994100    -0.7943385   -0.4371077  
   0.120994000    -0.8480795   -0.3199005  
   0.122993900    -0.8852417   -0.1967772  
   0.124993800    -0.9042291   -0.0695417  
   0.126993700    -0.9047429    0.0592478  
   0.128993600    -0.8872721    0.1867839  
   0.130993500    -0.8513915    0.3110173  
   0.132993400    -0.7981341    0.4286402  
   0.134993300    -0.7282963    0.5379545  
   0.136993200    -0.6433316    0.6359935  
   0.138993100    -0.5446268    0.7213681  
   0.140993000    -0.4342072    0.7915881  
   0.142992900    -0.3140405    0.8451544  
   0.144992800    -0.1868353    0.8811370  
   0.146992700    -0.0551960    0.8978629  
   0.148992600     0.0780894    0.8948075  
   0.150992500     0.2095979    0.8717385  
   0.152992400     0.3373494    0.8292904  
   0.154992300     0.4573606    0.7678270  
   0.156992200     0.5672023    0.6884653  
   0.158992100     0.6641920    0.5932634  
   0.160992000     0.7457861    0.4842007  
   0.162991900     0.8100975    0.3634127  
   0.164991800     0.8549577    0.2337556  
   0.166991700     0.8794450    0.0987708  
   0.168991600     0.8826101   -0.0384457  
   0.170991500     0.8649793   -0.1748389  
   0.172991400     0.8258800   -0.3066148  
   0.174991300     0.7675352   -0.4302410  
   0.176991200     0.6903476   -0.5438982  
   0.178991100     0.5967909   -0.6438048  
   0.180991000     0.4895227   -0.7275934  
   0.182990900     0.3709527   -0.7938409  
   0.184990800     0.2438710   -0.8408808  
   0.186990700     0.1113736   -0.8678287  
   0.188990600     0.0021063   -0.8736638  
   0.190990500    -0.1515709   -0.8599760  
   0.192990400    -0.2835129   -0.8252316  
   0.194990300    -0.4049573   -0.7721667  
   0.196990200    -0.5156640   -0.7021685  
   0.198990100    -0.6142780   -0.6168380  
   0.200990000    -0.6986139   -0.5181501  
   0.202989900    -0.7673539   -0.4081794  
   0.204989800    -0.8189453   -0.2899630  
   0.206989700    -0.8520513   -0.1664304  
   0.208989600    -0.8668527   -0.0399174  
   0.210989500    -0.8630193    0.0872545  
   0.212989400    -0.8405269    0.2127674  
   0.214989300    -0.8000578    0.3329155  
   0.216989200    -0.7428775    0.4454962  
   0.218989100    -0.6704377    0.5484258  
   0.220989000    -0.5838828    0.6398067  
   0.222988900    -0.4844711    0.7183146  
   0.224988800    -0.3745373    0.7813354  
   0.226988700    -0.2567936    0.8275285  
   0.228988600    -0.1339306    0.8564301  
   0.230988500    -0.0080047    0.8670366  
   0.232988400     0.1182436    0.8594416  
   0.234988300     0.2426811    0.8333624  
   0.236988200     0.3626944    0.7891465  
   0.238988100     0.4749662    0.7281456  
   0.240988000     0.5771935    0.6511173  
   0.242987900     0.6666495    0.5599931  
   0.244987800     0.7422090    0.4567251  
   0.246987700     0.8020713    0.3426516  
   0.248987600     0.8447854    0.2205231  
   0.250987500     0.8687261    0.0928036  
   0.252987400     0.8738156   -0.0368042  
   0.254987300     0.8594237   -0.1654533  
   0.256987200     0.8262119   -0.2902858  
   0.258987100     0.7752528   -0.4089428  
   0.260987000     0.7067626   -0.5192303  
   0.262986900     0.6224723   -0.6183993  
   0.264986800     0.5241382   -0.7040264  
   0.266986700     0.4143301   -0.7740480  
   0.268986600     0.2957344   -0.8266593  
   0.270986500     0.1713461   -0.8610122  
   0.272986400     0.0434049   -0.8765542  
   0.274986300    -0.0849998   -0.8727608  
   0.276986200    -0.2111695   -0.8505239  
   0.278986100    -0.3329104   -0.8096605  
   0.280986000    -0.4474211   -0.7510654  
   0.282985900    -0.5518697   -0.6763818  
   0.284985800    -0.6441516   -0.5872816  
   0.286985700    -0.7214538   -0.4859952  
   0.288985600    -0.7827457   -0.3754385  
   0.290985500    -0.8268390   -0.2579317  
   0.292985400    -0.8534444   -0.1357835  
   0.294985300    -0.8618171   -0.0110486  
   0.296985200    -0.8523045    0.1139716  
   0.298985100    -0.8241182    0.2366791  
   0.300985000    -0.7785885    0.3543895  
   0.302984900    -0.7158000    0.4635872  
   0.304984800    -0.6383558    0.5619804  
   0.306984700    -0.5471068    0.6479957  
   0.308984600    -0.4448533    0.7192027  
   0.310984500    -0.3342209    0.7746662  
   0.312984400    -0.2165368    0.8132281  
   0.314984300    -0.0940277    0.8343606  
   0.316984200     0.0303544    0.8372864  
   0.318984100     0.1545395    0.8218237  
   0.320984000     0.2760332    0.7880503  
   0.322983900     0.3916698    0.7362459  
   0.324983800     0.4984030    0.6675618  
   0.326983700     0.5939477    0.5834416  
   0.328983600     0.6759806    0.4856887  
   0.330983500     0.7421361    0.3770579  
   0.332983400     0.7904360    0.2599713  
   0.334983300     0.8214620    0.1367714  
   0.336983200     0.8334259    0.0101998  
   0.338983100     0.8259447   -0.1169022  
   0.340983000     0.7997628   -0.2411813  
   0.342982900     0.7549992   -0.3604330  
   0.344982800     0.6925098   -0.4720397  
   0.346982700     0.6133781   -0.5731987  
   0.348982600     0.5194846   -0.6616591  
   0.350982500     0.4134936   -0.7346064  
   0.352982400     0.2974831   -0.7906553  
   0.354982300     0.1688796   -0.8296250  
   0.356982200     0.0208678   -0.8480295  
   0.358982100    -0.1270598   -0.8408043  
   0.360982000    -0.2704426   -0.8074649  
   0.362981900    -0.4055083   -0.7505568  
   0.364981800    -0.5279567   -0.6705833  
   0.366981700    -0.6343928   -0.5717701  
   0.368981600    -0.7215693   -0.4563780  
   0.370981500    -0.7876447   -0.3283526  
   0.372981400    -0.8306358   -0.1919220  
   0.374981300    -0.8499299   -0.0501359  
   0.376981200    -0.8363706   -0.1911329  
   0.378981100    -0.8561295   -0.0478462  
   0.380981000    -0.8511854    0.0966776  
   0.382980900    -0.8263152    0.2239480  
   0.384980800    -0.7852861    0.3404046  
   0.386980700    -0.7277035    0.4494987  
   0.388980600    -0.6551341    0.5485114  
   0.390980500    -0.5694458    0.6360255  
   0.392980400    -0.4724453    0.7097400  
   0.394980300    -0.3666352    0.7685584  
   0.396980200    -0.2531897    0.8117685  
   0.398980100    -0.1343834    0.8380958  
   0.400980000    -0.0133279    0.8470339  
   0.402979900     0.1086134    0.8385097  
   0.404979800     0.2276317    0.8124561  
   0.406979700     0.3423135    0.7693421  
   0.408979600     0.4496277    0.7096275  
   0.410979500     0.5479244    0.6344225  
   0.412979400     0.6348987    0.5447245  
   0.414979300     0.7076856    0.4422097  
   0.416979200     0.7645587    0.3297376  
   0.418979100     0.8037886    0.2095139  
   0.420979000     0.8246489    0.0841805  
   0.422978900     0.8257982   -0.0435753  
   0.424978800     0.8072646   -0.1704419  
   0.426978700     0.7692530   -0.2935264  
   0.428978600     0.7124707   -0.4092854  
   0.430978500     0.6384634   -0.5145860  
   0.432978400     0.5498031   -0.6068596  
   0.434978300     0.4476622   -0.6840067  
   0.436978200     0.3351615   -0.7445436  
   0.438978100     0.2148237   -0.7870559  
   0.440978000     0.0898664   -0.8100098  
   0.442977900    -0.0371933   -0.8135481  
   0.444977800    -0.1621736   -0.7976164  
   0.446977700    -0.2829883   -0.7631500  
   0.448977600    -0.3965794   -0.7106223  
   0.450977500    -0.4999100   -0.6419758  
   0.452977400    -0.5921202   -0.5586052  
   0.454977300    -0.6706818   -0.4620836  
   0.456977200    -0.7334804   -0.3552871  
   0.458977100    -0.7795047   -0.2405931  
   0.460977000    -0.8075367   -0.1211282  
   0.462976900    -0.8174890    0.0002691  
   0.464976800    -0.8093433    0.1212539  
   0.466976700    -0.7838981    0.2392150  
   0.468976600    -0.7412447    0.3516119  
   0.470976500    -0.6831837    0.4565034  
   0.472976400    -0.6106410    0.5508555  
   0.474976300    -0.5255154    0.6339114  
   0.476976200    -0.4297654    0.7035353  
   0.478976100    -0.3254158    0.7583931  
   0.480976000    -0.2150780    0.7976813  
   0.482975900    -0.1006925    0.8210179  
   0.484975800     0.0157649    0.8277434  
   0.486975700     0.1323702    0.8182778  
   0.488975600     0.2462932    0.7922933  
   0.490975500     0.3560742    0.7502818  
   0.492975400     0.4591767    0.6927799  
   0.494975300     0.5533922    0.6211450  
   0.496975200     0.6366923    0.5361463  
   0.498975100     0.7070786    0.4401221  
   0.500975000     0.7631392    0.3342887  
   0.502974900     0.8035519    0.2215049  
   0.504974800     0.8270222    0.1032004  
   0.506974700     0.8331476   -0.0184793  
   0.508974600     0.8209377   -0.1409484  
   0.510974500     0.7909281   -0.2612274  
   0.512974400     0.7428336   -0.3759974  
   0.514974300     0.6782573   -0.4817587  
   0.516974200     0.5982780   -0.5773254  
   0.518974100     0.5049689   -0.6596339  
   0.520974000     0.4004301   -0.7271582  
   0.522973900     0.2864730   -0.7782860  
   0.524973800     0.1663760   -0.8111828  
   0.526973700     0.0420881   -0.8260638  
   0.528973600    -0.0828031   -0.8218625  
   0.530973500    -0.2056976   -0.7988448  
   0.532973400    -0.3236713   -0.7575738  
   0.534973300    -0.4339646   -0.6987143  
   0.536973200    -0.5335831   -0.6241888  
   0.538973100    -0.6204774   -0.5357639  
   0.540973000    -0.6922487   -0.4361427  
   0.542972900    -0.7483182   -0.3270519  
   0.544972800    -0.7875543   -0.2113863  
   0.546972700    -0.8088899   -0.0908150  
   0.548972600    -0.8121671    0.0311119  
   0.550972500    -0.7971298    0.1519048  
   0.552972400    -0.7640864    0.2692979  
   0.554972300    -0.7141418    0.3800841  
   0.556972200    -0.6481943    0.4817545  
   0.558972100    -0.5678289    0.5724068  
   0.560972000    -0.4752087    0.6497970  
   0.562971900    -0.3726826    0.7122842  
   0.564971800    -0.2622105    0.7583990  
   0.566971700    -0.1464947    0.7878295  
   0.568971600    -0.0284397    0.7998365  
   0.570971500     0.0904550    0.7939067  
   0.572971400     0.2074288    0.7709880  
   0.574971300     0.3199514    0.7304759  
   0.576971200     0.4253780    0.6732753  
   0.578971100     0.5217019    0.6005003  
   0.580971000     0.6060467    0.5139377  
   0.582970900     0.6763945    0.4161526  
   0.584970800     0.7310801    0.3091739  
   0.586970700     0.7691735    0.1949287  
   0.588970600     0.7895170    0.0766580  
   0.590970500     0.7919265   -0.0436271  
   0.592970400     0.7766542   -0.1627854  
   0.594970300     0.7432351   -0.2786233  
   0.596970200     0.6929612   -0.3880182  
   0.598970100     0.6271809   -0.4885987  
   0.600970000     0.5465001   -0.5786872  
   0.602969900     0.4538905   -0.6553212  
   0.604969800     0.3497818   -0.7174651  
   0.606969700     0.2380147   -0.7634880  
   0.608969600     0.1204583   -0.7920246  
   0.610969500     0.0001332   -0.8027631  
   0.612969400    -0.1204613   -0.7956570  
   0.614969300    -0.2377975   -0.7699426  
   0.616969200    -0.3493113   -0.7279800  
   0.618969100    -0.4527380   -0.6706634  
   0.620969000    -0.5461504   -0.5991812  
   0.622968900    -0.6281465   -0.5152684  
   0.624968800    -0.6969935   -0.4205159  
   0.626968700    -0.7514988   -0.3169267  
   0.628968600    -0.7902772   -0.2065358  
   0.630968500    -0.8131769   -0.0922322  
   0.632968400    -0.8194158    0.0243080  
   0.634968300    -0.8086375    0.1400300  
   0.636968200    -0.7817004    0.2531236  
   0.638968100    -0.7389281    0.3610930  
   0.640968000    -0.6813089    0.4610850  
   0.642967900    -0.6100730    0.5522112  
   0.644967800    -0.5264159    0.6322233  
   0.646967700    -0.4327991    0.6994377  
   0.648967600    -0.3302890    0.7525103  
   0.650967500    -0.2219012    0.7903597  
   0.652967400    -0.1095974    0.8127457  
   0.654967300     0.0049909    0.8187165  
   0.656967200     0.1192362    0.8087031  
   0.658967100     0.2309039    0.7821715  
   0.660967000     0.3385763    0.7397318  
   0.662966900     0.4391386    0.6822971  
   0.664966800     0.5317261    0.6094680  
   0.666966700     0.6132592    0.5240144  
   0.668966600     0.6813723    0.4268698  
   0.670966500     0.7348907    0.3199872  
   0.672966400     0.7717479    0.2067957  
   0.674966300     0.7914891    0.0884410  
   0.676966200     0.7935009   -0.0310705  
   0.678966100     0.7774909   -0.1495500  
   0.680966000     0.7436401   -0.2651347  
   0.682965900     0.6927119   -0.3736250  
   0.684965800     0.6262013   -0.4735207  
   0.686965700     0.5449662   -0.5623106  
   0.688965600     0.4511651   -0.6381813  
   0.690965500     0.3468589   -0.6987082  
   0.692965400     0.2351976   -0.7423872  
   0.694965300     0.1182095   -0.7687300  
   0.696965200    -0.0012915   -0.7769731  
   0.698965100    -0.1201500   -0.7667261  
   0.700965000    -0.2361325   -0.7389168  
   0.702964900    -0.3462515   -0.6937933  
   0.704964800    -0.4480078   -0.6325496  
   0.706964700    -0.5391046   -0.5571927  
   0.708964600    -0.6173826   -0.4690107  
   0.710964500    -0.6815337   -0.3701150  
   0.712964400    -0.7298452   -0.2632709  
   0.714964300    -0.7612858   -0.1508151  
   0.716964200    -0.7755738   -0.0358413  
   0.718964100    -0.7729092    0.0790350  
   0.720964000    -0.7534971    0.1917409  
   0.722963900    -0.7184128    0.2995158  
   0.724963800    -0.6682312    0.4005734  
   0.726963700    -0.6040627    0.4931642  
   0.728963600    -0.5276259    0.5755806  
   0.730963500    -0.4401109    0.6455324  
   0.732963400    -0.3437947    0.7024779  
   0.734963300    -0.2400252    0.7451905  
   0.736963200    -0.1125308    0.7751178  
   0.738963100     0.0195296    0.7837627  
   0.740963000     0.1517923    0.7703291  
   0.742962900     0.2801175    0.7345018  
   0.744962800     0.4016749    0.6778708  
   0.746962700     0.5120186    0.6015128  
   0.748962600     0.6087094    0.5070968  
   0.750962500     0.5001084    0.6035306  
   0.752962400     0.5968812    0.5091318  
   0.754962300     0.6763301    0.4000648  
   0.756962200     0.7365121    0.2785652  
   0.758962100     0.7752687    0.1484294  
   0.760962000     0.7910446    0.0127230  
   0.762961900     0.7840331   -0.1162610  
   0.764961800     0.7591006   -0.2314423  
   0.766961700     0.7172373   -0.3417187  
   0.768961600     0.6592501   -0.4449107  
   0.770961500     0.5864000   -0.5383273  
   0.772961400     0.5002026   -0.6196553  
   0.774961300     0.4028760   -0.6874828  
   0.776961200     0.2962586   -0.7401362  
   0.778961100     0.1825132   -0.7759669  
   0.780961000     0.0645557   -0.7946215  
   0.782960900    -0.0551834   -0.7950727  
   0.784960800    -0.1738084   -0.7773297  
   0.786960700    -0.2881995   -0.7416965  
   0.788960600    -0.3957623   -0.6891460  
   0.790960500    -0.4938146   -0.6213637  
   0.792960400    -0.5799471   -0.5393445  
   0.794960300    -0.6522682   -0.4460324  
   0.796960200    -0.7095885   -0.3434663  
   0.798960100    -0.7505708   -0.2342520  
   0.800960000    -0.7749458   -0.1208594  
   0.802959900    -0.7818024   -0.0055936  
   0.804959800    -0.7720104    0.1084184  
   0.806959700    -0.7456365    0.2193083  
   0.808959600    -0.7034853    0.3245112  
   0.810959500    -0.6469114    0.4220519  
   0.812959400    -0.5765736    0.5096982  
   0.814959300    -0.4949970    0.5862163  
   0.816959200    -0.4033087    0.6496165  
   0.818959100    -0.3034531    0.6993692  
   0.820959000    -0.1975710    0.7337563  
   0.822958900    -0.0877033    0.7527989  
   0.824958800     0.0237947    0.7553111  
   0.826958700     0.1343190    0.7415772  
   0.828958600     0.2423113    0.7122996  
   0.830958500     0.3446135    0.6673779  
   0.832958400     0.4397599    0.6078601  
   0.834958300     0.5248362    0.5348892  
   0.836958200     0.5986491    0.4502885  
   0.838958100     0.6592527    0.3552662  
   0.840958000     0.7055386    0.2520019  
   0.842957900     0.7363112    0.1421763  
   0.844957800     0.7505491    0.0289098  
   0.846957700     0.7472136   -0.0857449  
   0.848957600     0.7265028   -0.1995583  
   0.850957500     0.6889413   -0.3088748  
   0.852957400     0.6351385   -0.4114861  
   0.854957300     0.5659724   -0.5049035  
   0.856957200     0.4836147   -0.5871121  
   0.858957100     0.3895172   -0.6555076  
   0.860957000     0.2865233   -0.7088423  
   0.862956900     0.1771055   -0.7458256  
   0.864956800     0.0638642   -0.7661933  
   0.866956700    -0.0506177   -0.7692572  
   0.868956600    -0.1641044   -0.7555202  
   0.870956500    -0.2736447   -0.7251157  
   0.872956400    -0.3778421   -0.6791179  
   0.874956300    -0.4735983   -0.6184524  
   0.876956200    -0.5591176   -0.5444620  
   0.878956100    -0.6331248   -0.4589354  
   0.880956000    -0.6934538   -0.3635885  
   0.882955900    -0.7391610   -0.2610475  
   0.884955800    -0.7692614   -0.1526983  
   0.886955700    -0.7835872   -0.0416624  
   0.888955600    -0.7816064    0.0697987  
   0.890955500    -0.7638404    0.1797035  
   0.892955400    -0.7304266    0.2851838  
   0.894955300    -0.6824513    0.3850399  
