! MS46122B
! 2250307/22442219
! 6/13/2025 8:41:39 AM
! C:\USERS\SPARKY\DOCUMENTS\VNA_DATA\JUNE13_2025\ECAL_SHORT_B.S1P
! CHANNEL.1
! TR.MEASUREMENT
! RAW.DATA
# GHZ S RI R 50.0
! FREQ.GHZ         S11RE         S11IM         
!; PortSelection: Port_1
   0.001000000    -0.9484771    0.0515611  
   0.002999900    -0.9194619    0.2564686  
   0.004999800    -0.8804951    0.4026887  
   0.006999700    -0.8156502    0.5327578  
   0.008999600    -0.7285870    0.6454225  
   0.010999500    -0.6232643    0.7396579  
   0.012999400    -0.5040475    0.8142498  
   0.014999300    -0.3740703    0.8685017  
   0.016999200    -0.2375234    0.9022296  
   0.018999100    -0.0981614    0.9158113  
   0.020999000     0.0413969    0.9097669  
   0.022998900     0.1776779    0.8849378  
   0.024998800     0.2812339    0.8208379  
   0.026998700     0.4309243    0.7829534  
   0.028998600     0.5436937    0.7082222  
   0.030998500     0.6442852    0.6194835  
   0.032998400     0.6962095    0.5143257  
   0.034998300     0.8023065    0.4055203  
   0.036998200     0.8562130    0.2836117  
   0.038998100     0.8919842    0.1547979  
   0.040998000     0.9077158    0.0216739  
   0.042997900     0.9033299   -0.1120749  
   0.044997800     0.8524244   -0.2206037  
   0.046997700     0.8334122   -0.3706749  
   0.048997600     0.7701566   -0.4892586  
   0.050997500     0.6900301   -0.5966880  
   0.052997400     0.5963157   -0.6897910  
   0.054997300     0.4882186   -0.7700793  
   0.056997200     0.3706838   -0.8329955  
   0.058997100     0.2463293   -0.8782965  
   0.060997000     0.1170940   -0.9051404  
   0.062996900    -0.0142105   -0.9131455  
   0.064996800    -0.1452214   -0.9025738  
   0.066996700    -0.2730630   -0.8730643  
   0.068996600    -0.3951356   -0.8257603  
   0.070996500    -0.5087898   -0.7614343  
   0.072996400    -0.6118694   -0.6811491  
   0.074996300    -0.7023579   -0.5870464  
   0.076996200    -0.7781075   -0.4812139  
   0.078996100    -0.8375019   -0.3654387  
   0.080996000    -0.8797834   -0.2421352  
   0.082995900    -0.9038928   -0.1141656  
   0.084995800    -0.9095190    0.0160612  
   0.086995700    -0.8962674    0.1460065  
   0.088995600    -0.8644900    0.2727707  
   0.090995500    -0.8146993    0.3938726  
   0.092995400    -0.7476507    0.5069295  
   0.094995300    -0.6643052    0.6094757  
   0.096995200    -0.5673125    0.6988594  
   0.098995100    -0.4573335    0.7733885  
   0.100995000    -0.3370888    0.8307991  
   0.102994900    -0.2092537    0.8698415  
   0.104994800    -0.0768076    0.8890178  
   0.106994700     0.0576135    0.8883574  
   0.108994600     0.1908024    0.8672272  
   0.110994500     0.3191657    0.8262489  
   0.112994400     0.4404470    0.7659639  
   0.114994300     0.5511573    0.6876919  
   0.116994200     0.6488900    0.5936479  
   0.118994100     0.7310301    0.4853735  
   0.120994000     0.7957424    0.3660013  
   0.122993900     0.8412890    0.2379706  
   0.124993800     0.8665040    0.1047152  
   0.126993700     0.8708377   -0.0306537  
   0.128993600     0.8549510   -0.1649940  
   0.130993500     0.8187454   -0.2947829  
   0.132993400     0.7629159   -0.4172056  
   0.134993300     0.6894596   -0.5290259  
   0.136993200     0.6002415   -0.6277012  
   0.138993100     0.4972208   -0.7116101  
   0.140993000     0.3838091   -0.7787414  
   0.142992900     0.2620251   -0.8276029  
   0.144992800     0.1352408   -0.8577395  
   0.146992700     0.0057598   -0.8685242  
   0.148992600    -0.1231117   -0.8602562  
   0.150992500    -0.2483187   -0.8332564  
   0.152992400    -0.3681525   -0.7880706  
   0.154992300    -0.4789930   -0.7267053  
   0.156992200    -0.5795988   -0.6500068  
   0.158992100    -0.6672827   -0.5598661  
   0.160992000    -0.7412575   -0.4588776  
   0.162991900    -0.7993864   -0.3481581  
   0.164991800    -0.8414415   -0.2307291  
   0.166991700    -0.8662239   -0.1092377  
   0.168991600    -0.8731387    0.0144386  
   0.170991500    -0.8624367    0.1379318  
   0.172991400    -0.8346262    0.2578169  
   0.174991300    -0.7901089    0.3728692  
   0.176991200    -0.7296118    0.4808114  
   0.178991100    -0.6542537    0.5789837  
   0.180991000    -0.5660591    0.6655418  
   0.182990900    -0.4662980    0.7385218  
   0.184990800    -0.3562813    0.7971779  
   0.186990700    -0.2391048    0.8396583  
   0.188990600    -0.1425575    0.8616016  
   0.190990500     0.0035991    0.8723080  
   0.192990400     0.1324902    0.8613822  
   0.194990300     0.2555055    0.8327455  
   0.196990200     0.3729277    0.7864712  
   0.198990100     0.4824516    0.7236937  
   0.200990000     0.5825597    0.6450207  
   0.202989900     0.6704320    0.5521359  
   0.204989800     0.7438676    0.4471927  
   0.206989700     0.8010862    0.3324811  
   0.208989600     0.8408425    0.2103059  
   0.210989500     0.8620175    0.0827292  
   0.212989400     0.8641382   -0.0469135  
   0.214989300     0.8466901   -0.1757338  
   0.216989200     0.8104641   -0.3001458  
   0.218989100     0.7558191   -0.4174392  
   0.220989000     0.6841438   -0.5257723  
   0.222988900     0.5965043   -0.6223021  
   0.224988800     0.4954414   -0.7046750  
   0.226988700     0.3834780   -0.7703364  
   0.228988600     0.2632891   -0.8183778  
   0.230988500     0.1377145   -0.8475838  
   0.232988400     0.0093381   -0.8578275  
   0.234988300    -0.1193909   -0.8481994  
   0.236988200    -0.2451394   -0.8195052  
   0.238988100    -0.3646393   -0.7725750  
   0.240988000    -0.4749793   -0.7085873  
   0.242987900    -0.5738514   -0.6292748  
   0.244987800    -0.6596216   -0.5364364  
   0.246987700    -0.7305778   -0.4315898  
   0.248987600    -0.7848958   -0.3176341  
   0.250987500    -0.8219752   -0.1969343  
   0.252987400    -0.8401860   -0.0729294  
   0.254987300    -0.8399320    0.0516799  
   0.256987200    -0.8214588    0.1743038  
   0.258987100    -0.7851745    0.2925946  
   0.260987000    -0.7319164    0.4043617  
   0.262986900    -0.6625955    0.5074230  
   0.264986800    -0.5786661    0.5991390  
   0.266986700    -0.4822521    0.6773598  
   0.268986600    -0.3756750    0.7404805  
   0.270986500    -0.2615144    0.7870490  
   0.272986400    -0.1417298    0.8159568  
   0.274986300    -0.0192595    0.8272620  
   0.276986200     0.1041186    0.8202757  
   0.278986100     0.2256925    0.7954155  
   0.280986000     0.3426234    0.7523667  
   0.282985900     0.4521081    0.6922089  
   0.284985800     0.5519181    0.6163944  
   0.286985700     0.6391678    0.5263624  
   0.288985600     0.7116935    0.4248166  
   0.290985500     0.7680275    0.3138983  
   0.292985400     0.8075426    0.1957696  
   0.294985300     0.8291473    0.0728044  
   0.296985200     0.8319938   -0.0525280  
   0.298985100     0.8162172   -0.1779767  
   0.300985000     0.7813929   -0.2996988  
   0.302984900     0.7287604   -0.4150106  
   0.304984800     0.6594449   -0.5208281  
   0.306984700     0.5754651   -0.6148025  
   0.308984600     0.4786492   -0.6946645  
   0.310984500     0.3718384   -0.7589259  
   0.312984400     0.2568782   -0.8068509  
   0.314984300     0.1364142   -0.8368692  
   0.316984200     0.0131964   -0.8488207  
   0.318984100    -0.1112288   -0.8424934  
   0.320984000    -0.2334099   -0.8176909  
   0.322983900    -0.3508420   -0.7752808  
   0.324983800    -0.4602266   -0.7160521  
   0.326983700    -0.5591574   -0.6416338  
   0.328983600    -0.6461447   -0.5538938  
   0.330983500    -0.7185693   -0.4550245  
   0.332983400    -0.7753839   -0.3474862  
   0.334983300    -0.8168226   -0.2334157  
   0.336983200    -0.8404995   -0.1151561  
   0.338983100    -0.8470360    0.0053888  
   0.340983000    -0.8363213    0.1247066  
   0.342982900    -0.8087082    0.2415883  
   0.344982800    -0.7644726    0.3535061  
   0.346982700    -0.7040686    0.4586080  
   0.348982600    -0.6289485    0.5539647  
   0.350982500    -0.5411561    0.6374460  
   0.352982400    -0.4416855    0.7074811  
   0.354982300    -0.3277552    0.7642652  
   0.356982200    -0.1924160    0.8057617  
   0.358982100    -0.0527230    0.8237215  
   0.360982000     0.0875076    0.8181868  
   0.362981900     0.2242775    0.7888092  
   0.364981800     0.3546211    0.7370430  
   0.366981700     0.4742866    0.6640324  
   0.368981600     0.5803046    0.5716900  
   0.370981500     0.6693668    0.4623858  
   0.372981400     0.7383616    0.3390235  
   0.374981300     0.7856565    0.2044874  
   0.376981200     0.7433982    0.3159145  
   0.378981100     0.7864513    0.1788458  
   0.380981000     0.8051746    0.0363176  
   0.382980900     0.7996181   -0.0950165  
   0.384980800     0.7744984   -0.2180530  
   0.386980700     0.7305457   -0.3360081  
   0.388980600     0.6692020   -0.4456279  
   0.390980500     0.5916504   -0.5440608  
   0.392980400     0.5007043   -0.6291167  
   0.394980300     0.3983794   -0.6987087  
   0.396980200     0.2875107   -0.7517937  
   0.398980100     0.1697888   -0.7874492  
   0.400980000     0.0488466   -0.8051274  
   0.402979900    -0.0732365   -0.8045739  
   0.404979800    -0.1927785   -0.7857574  
   0.406979700    -0.3074262   -0.7494436  
   0.408979600    -0.4149033   -0.6971819  
   0.410979500    -0.5137554   -0.6294077  
   0.412979400    -0.6017021   -0.5479488  
   0.414979300    -0.6763313   -0.4550774  
   0.416979200    -0.7362114   -0.3524985  
   0.418979100    -0.7806361   -0.2430180  
   0.420979000    -0.8085627   -0.1284571  
   0.422978900    -0.8199447   -0.0120552  
   0.424978800    -0.8143293    0.1053427  
   0.426978700    -0.7920450    0.2203270  
   0.428978600    -0.7537532    0.3305335  
   0.430978500    -0.7005188    0.4335219  
   0.432978400    -0.6336870    0.5277690  
   0.434978300    -0.5546683    0.6111205  
   0.436978200    -0.4644606    0.6822827  
   0.438978100    -0.3655757    0.7403467  
   0.440978000    -0.2592103    0.7844352  
   0.442977900    -0.1477460    0.8129804  
   0.444977800    -0.0331545    0.8258508  
   0.446977700     0.0822825    0.8221473  
   0.448977600     0.1963101    0.8024707  
   0.450977500     0.3068382    0.7668443  
   0.452977400     0.4118684    0.7151303  
   0.454977300     0.5094159    0.6484476  
   0.456977200     0.5970299    0.5674227  
   0.458977100     0.6720902    0.4742701  
   0.460977000     0.7330765    0.3706182  
   0.462976900     0.7783339    0.2590634  
   0.464976800     0.8064796    0.1409231  
   0.466976700     0.8172908    0.0196919  
   0.468976600     0.8091592   -0.1023023  
   0.470976500     0.7832514   -0.2223780  
   0.472976400     0.7389190   -0.3374953  
   0.474976300     0.6778197   -0.4444693  
   0.476976200     0.6010215   -0.5414015  
   0.478976100     0.5102586   -0.6251396  
   0.480976000     0.4083994   -0.6936119  
   0.482975900     0.2978841   -0.7459530  
   0.484975800     0.1805568   -0.7807915  
   0.486975700     0.0596567   -0.7974189  
   0.488975600    -0.0627457   -0.7956746  
   0.490975500    -0.1828506   -0.7753359  
   0.492975400    -0.2984426   -0.7371463  
   0.494975300    -0.4069993   -0.6818644  
   0.496975200    -0.5051401   -0.6111243  
   0.498975100    -0.5917918   -0.5263543  
   0.500975000    -0.6637481   -0.4302618  
   0.502974900    -0.7203621   -0.3249790  
   0.504974800    -0.7605120   -0.2129011  
   0.506974700    -0.7834115   -0.0958499  
   0.508974600    -0.7886776    0.0234917  
   0.510974500    -0.7757215    0.1417456  
   0.512974400    -0.7455303    0.2565009  
   0.514974300    -0.6994017    0.3644206  
   0.516974200    -0.6376759    0.4639090  
   0.518974100    -0.5625085    0.5526370  
   0.520974000    -0.4755048    0.6292892  
   0.522973900    -0.3786561    0.6921871  
   0.524973800    -0.2738875    0.7402436  
   0.526973700    -0.1631802    0.7724558  
   0.528973600    -0.0494466    0.7885649  
   0.530973500     0.0657808    0.7875276  
   0.532973400     0.1795771    0.7699296  
   0.534973300     0.2897395    0.7362830  
   0.536973200     0.3936754    0.6866214  
   0.538973100     0.4893660    0.6226010  
   0.540973000     0.5743631    0.5460120  
   0.542972900     0.6478957    0.4577151  
   0.544972800     0.7077395    0.3594424  
   0.546972700     0.7528231    0.2530768  
   0.548972600     0.7824783    0.1410196  
   0.550972500     0.7953253    0.0251658  
   0.552972400     0.7909150   -0.0917386  
   0.554972300     0.7696574   -0.2068102  
   0.556972200     0.7313793   -0.3182926  
   0.558972100     0.6772408   -0.4230660  
   0.560972000     0.6081810   -0.5187086  
   0.562971900     0.5259586   -0.6026300  
   0.564971800     0.4323149   -0.6739107  
   0.566971700     0.3295909   -0.7303473  
   0.568971600     0.2198900   -0.7712619  
   0.570971500     0.1056128   -0.7957224  
   0.572971400    -0.0112727   -0.8028964  
   0.574971300    -0.1282105   -0.7933629  
   0.576971200    -0.2432250   -0.7665616  
   0.578971100    -0.3529688   -0.7229986  
   0.580971000    -0.4548375   -0.6641156  
   0.582970900    -0.5465879   -0.5910788  
   0.584970800    -0.6265964   -0.5057486  
   0.586970700    -0.6928702   -0.4102813  
   0.588970600    -0.7446428   -0.3067089  
   0.590970500    -0.7807221   -0.1968590  
   0.592970400    -0.8004555   -0.0830346  
   0.594970300    -0.8036522    0.0320269  
   0.596970200    -0.7902369    0.1462554  
   0.598970100    -0.7606926    0.2572680  
   0.600970000    -0.7151659    0.3628311  
   0.602969900    -0.6551213    0.4604905  
   0.604969800    -0.5814457    0.5488661  
   0.606969700    -0.4958160    0.6256461  
   0.608969600    -0.3990461    0.6895250  
   0.610969500    -0.2943738    0.7381983  
   0.612969400    -0.1835148    0.7709441  
   0.614969300    -0.0689132    0.7875928  
   0.616969200     0.0462980    0.7866610  
   0.618969100     0.1601738    0.7692827  
   0.620969000     0.2698340    0.7353902  
   0.622968900     0.3735814    0.6858400  
   0.624968800     0.4695086    0.6210437  
   0.626968700     0.5547489    0.5421619  
   0.628968600     0.6279429    0.4512506  
   0.630968500     0.6869268    0.3500498  
   0.632968400     0.7302278    0.2406240  
   0.634968300     0.7559444    0.1255752  
   0.636968200     0.7640816    0.0078251  
   0.638968100     0.7543834   -0.1099532  
   0.640968000     0.7265313   -0.2253260  
   0.642967900     0.6811159   -0.3348148  
   0.644967800     0.6197585   -0.4365479  
   0.646967700     0.5432709   -0.5273176  
   0.648967600     0.4541306   -0.6047608  
   0.650967500     0.3545260   -0.6676510  
   0.652967400     0.2469648   -0.7136343  
   0.654967300     0.1338059   -0.7435325  
   0.656967200     0.0180296   -0.7555050  
   0.658967100    -0.0977205   -0.7498812  
   0.660967000    -0.2117688   -0.7268494  
   0.662966900    -0.3209850   -0.6870633  
   0.664966800    -0.4231182   -0.6312608  
   0.666966700    -0.5154867   -0.5605196  
   0.668966600    -0.5957138   -0.4772018  
   0.670966500    -0.6625691   -0.3827203  
   0.672966400    -0.7136942   -0.2801010  
   0.674966300    -0.7493676   -0.1715164  
   0.676966200    -0.7681041   -0.0594137  
   0.678966100    -0.7704581    0.0535062  
   0.680966000    -0.7561341    0.1652969  
   0.682965900    -0.7258998    0.2732058  
   0.684965800    -0.6806977    0.3752287  
   0.686965700    -0.6211072    0.4698919  
   0.688965600    -0.5485911    0.5543493  
   0.690965500    -0.4650574    0.6277684  
   0.692965400    -0.3716449    0.6882359  
   0.694965300    -0.2710212    0.7349750  
   0.696965200    -0.1647174    0.7663707  
   0.698965100    -0.0545332    0.7826910  
   0.700965000     0.0564002    0.7828730  
   0.702964900     0.1675190    0.7672766  
   0.704964800     0.2750471    0.7357768  
   0.706964700     0.3777167    0.6887125  
   0.708964600     0.4729066    0.6268419  
   0.710964500     0.5587539    0.5513158  
   0.712964400     0.6327370    0.4637020  
   0.714964300     0.6936634    0.3657782  
   0.716964200     0.7392063    0.2597684  
   0.718964100     0.7682531    0.1483536  
   0.720964000     0.7807226    0.0339783  
   0.722963900     0.7761410   -0.0811511  
   0.724963800     0.7542149   -0.1942032  
   0.726963700     0.7160330   -0.3034952  
   0.728963600     0.6617390   -0.4058565  
   0.730963500     0.5926681   -0.4994411  
   0.732963400     0.5101560   -0.5818620  
   0.734963300     0.4159188   -0.6510549  
   0.736963200     0.2964877   -0.7126762  
   0.738963100     0.1673283   -0.7523237  
   0.740963000     0.0337174   -0.7682824  
   0.742962900    -0.1005069   -0.7606310  
   0.744962800    -0.2307438   -0.7292308  
   0.746962700    -0.3528062   -0.6754838  
   0.748962600    -0.4631634   -0.6014715  
   0.750962500    -0.3827865   -0.6617466  
   0.752962400    -0.4908165   -0.5843822  
   0.754962300    -0.5830549   -0.4894961  
   0.756962200    -0.6569527   -0.3808336  
   0.758962100    -0.7104813   -0.2615698  
   0.760962000    -0.7422385   -0.1354331  
   0.762961900    -0.7522070   -0.0123703  
   0.764961800    -0.7443448    0.0993609  
   0.766961700    -0.7201548    0.2079445  
   0.768961600    -0.6807610    0.3113132  
   0.770961500    -0.6266146    0.4071524  
   0.772961400    -0.5598223    0.4932942  
   0.774961300    -0.4815460    0.5686559  
   0.776961200    -0.3935527    0.6318411  
   0.778961100    -0.2974460    0.6811393  
   0.780961000    -0.1949398    0.7163914  
   0.782960900    -0.0887310    0.7363072  
   0.784960800     0.0203466    0.7410224  
   0.786960700     0.1286850    0.7296631  
   0.788960600     0.2345582    0.7024757  
   0.790960500     0.3362623    0.6608223  
   0.792960400     0.4304394    0.6042624  
   0.794960300     0.5153240    0.5347096  
   0.796960200     0.5892364    0.4530702  
   0.798960100     0.6507768    0.3616255  
   0.800960000     0.6979267    0.2620142  
   0.802959900     0.7307410    0.1558652  
   0.804959800     0.7471509    0.0463338  
   0.806959700     0.7475293   -0.0649315  
   0.808959600     0.7312803   -0.1756658  
   0.810959500     0.6992095   -0.2827304  
   0.812959400     0.6508969   -0.3843786  
   0.814959300     0.5879893   -0.4785129  
   0.816959200     0.5115929   -0.5620182  
   0.818959100     0.4235615   -0.6335028  
   0.820959000     0.3248892   -0.6911361  
   0.822958900     0.2190433   -0.7337199  
   0.824958800     0.1077006   -0.7595782  
   0.826958700    -0.0062369   -0.7687198  
   0.828958600    -0.1203419   -0.7604371  
   0.830958500    -0.2316969   -0.7354187  
   0.832958400    -0.3376844   -0.6939471  
   0.834958300    -0.4360976   -0.6375292  
   0.836958200    -0.5246187   -0.5671706  
   0.838958100    -0.6017342   -0.4849543  
   0.840958000    -0.6655544   -0.3924933  
   0.842957900    -0.7149065   -0.2918225  
   0.844957800    -0.7492096   -0.1853413  
   0.846957700    -0.7671410   -0.0750892  
   0.848957600    -0.7688012    0.0359303  
   0.850957500    -0.7540233    0.1462765  
   0.852957400    -0.7236804    0.2528858  
   0.854957300    -0.6780506    0.3536440  
   0.856957200    -0.6183679    0.4466495  
   0.858957100    -0.5463999    0.5292833  
   0.860957000    -0.4632883    0.6004249  
   0.862956900    -0.3717100    0.6581047  
   0.864956800    -0.2731346    0.7018603  
   0.866956700    -0.1699164    0.7309502  
   0.868956600    -0.0634805    0.7451899  
   0.870956500     0.0436885    0.7440360  
   0.872956400     0.1501801    0.7273090  
   0.874956300     0.2534458    0.6952702  
   0.876956200     0.3517122    0.6482478  
   0.878956100     0.4425813    0.5869357  
   0.880956000     0.5238264    0.5127457  
   0.882955900     0.5939898    0.4266427  
   0.884955800     0.6504006    0.3305908  
   0.886955700     0.6916934    0.2265085  
   0.888955600     0.7170348    0.1172615  
   0.890955500     0.7253443    0.0049137  
   0.892955400     0.7166173   -0.1077721  
   0.894955300     0.6903344   -0.2180571  
