! MS46122B
! 2250307/22442219
! 6/14/2025 10:15:31 AM
! C:\USERS\SPARKY\DOCUMENTS\VNA_DATA\JUNE14_2025\295K\ECAL_LOAD_C.S1P
! CHANNEL.1
! TR.MEASUREMENT
! RAW.DATA
# GHZ S RI R 50.0
! FREQ.GHZ         S11RE         S11IM         
!; PortSelection: Port_1
   0.001000000     0.0213443    0.0070653  
   0.002999900     0.0072581    0.0563370  
   0.004999800     0.0062555    0.0631319  
   0.006999700     0.0068492    0.0596086  
   0.008999600     0.0078348    0.0519970  
   0.010999500     0.0091458    0.0426465  
   0.012999400     0.0109152    0.0326480  
   0.014999300     0.0130537    0.0227196  
   0.016999200     0.0155442    0.0132322  
   0.018999100     0.0181895    0.0044608  
   0.020999000     0.0207946   -0.0034836  
   0.022998900     0.0232415   -0.0105871  
   0.024998800     0.0227145   -0.0152764  
   0.026998700     0.0267139   -0.0222178  
   0.028998600     0.0275099   -0.0268560  
   0.030998500     0.0275697   -0.0307096  
   0.032998400     0.0247544   -0.0323070  
   0.034998300     0.0255656   -0.0367297  
   0.036998200     0.0236242   -0.0389618  
   0.038998100     0.0211056   -0.0407798  
   0.040998000     0.0181451   -0.0422488  
   0.042997900     0.0148082   -0.0432288  
   0.044997800     0.0096230   -0.0423107  
   0.046997700     0.0072350   -0.0441801  
   0.048997600     0.0032268   -0.0441456  
   0.050997500    -0.0007933   -0.0438504  
   0.052997400    -0.0047548   -0.0431751  
   0.054997300    -0.0087427   -0.0424362  
   0.056997200    -0.0122580   -0.0414396  
   0.058997100    -0.0156191   -0.0403293  
   0.060997000    -0.0187345   -0.0390068  
   0.062996900    -0.0216013   -0.0376128  
   0.064996800    -0.0242578   -0.0362900  
   0.066996700    -0.0265947   -0.0348649  
   0.068996600    -0.0286903   -0.0332935  
   0.070996500    -0.0305033   -0.0315704  
   0.072996400    -0.0320346   -0.0297665  
   0.074996300    -0.0334126   -0.0278279  
   0.076996200    -0.0345232   -0.0258466  
   0.078996100    -0.0354351   -0.0237878  
   0.080996000    -0.0361138   -0.0216983  
   0.082995900    -0.0366663   -0.0195128  
   0.084995800    -0.0370308   -0.0173358  
   0.086995700    -0.0372351   -0.0151486  
   0.088995600    -0.0373011   -0.0129601  
   0.090995500    -0.0372310   -0.0108675  
   0.092995400    -0.0369922   -0.0087214  
   0.094995300    -0.0366358   -0.0067153  
   0.096995200    -0.0361222   -0.0047709  
   0.098995100    -0.0354576   -0.0029237  
   0.100995000    -0.0347140   -0.0012609  
   0.102994900    -0.0338647    0.0003261  
   0.104994800    -0.0328692    0.0017497  
   0.106994700    -0.0317864    0.0030350  
   0.108994600    -0.0306533    0.0041453  
   0.110994500    -0.0294330    0.0050469  
   0.112994400    -0.0281282    0.0058080  
   0.114994300    -0.0268418    0.0063696  
   0.116994200    -0.0254996    0.0067500  
   0.118994100    -0.0241721    0.0069670  
   0.120994000    -0.0229043    0.0069811  
   0.122993900    -0.0216747    0.0068591  
   0.124993800    -0.0205031    0.0065408  
   0.126993700    -0.0194705    0.0061072  
   0.128993600    -0.0185500    0.0055183  
   0.130993500    -0.0177549    0.0048141  
   0.132993400    -0.0171800    0.0039950  
   0.134993300    -0.0167482    0.0031224  
   0.136993200    -0.0164989    0.0022226  
   0.138993100    -0.0164454    0.0012849  
   0.140993000    -0.0165932    0.0003188  
   0.142992900    -0.0169619   -0.0005785  
   0.144992800    -0.0175350   -0.0014232  
   0.146992700    -0.0183029   -0.0021909  
   0.148992600    -0.0192289   -0.0028117  
   0.150992500    -0.0203668   -0.0033272  
   0.152992400    -0.0216052   -0.0036188  
   0.154992300    -0.0230431   -0.0037189  
   0.156992200    -0.0244980   -0.0036289  
   0.158992100    -0.0260549   -0.0032702  
   0.160992000    -0.0276699   -0.0026592  
   0.162991900    -0.0292927   -0.0017617  
   0.164991800    -0.0307877   -0.0006237  
   0.166991700    -0.0322763    0.0008182  
   0.168991600    -0.0336360    0.0025122  
   0.170991500    -0.0347930    0.0044855  
   0.172991400    -0.0357375    0.0066818  
   0.174991300    -0.0364940    0.0091033  
   0.176991200    -0.0369606    0.0117350  
   0.178991100    -0.0370946    0.0145025  
   0.180991000    -0.0369410    0.0173893  
   0.182990900    -0.0364277    0.0203325  
   0.184990800    -0.0355288    0.0233461  
   0.186990700    -0.0341909    0.0263621  
   0.188990600    -0.0340603    0.0287224  
   0.190990500    -0.0308186    0.0322560  
   0.192990400    -0.0280977    0.0349950  
   0.194990300    -0.0252711    0.0373841  
   0.196990200    -0.0221152    0.0394960  
   0.198990100    -0.0187087    0.0412544  
   0.200990000    -0.0149681    0.0426805  
   0.202989900    -0.0108785    0.0436427  
   0.204989800    -0.0066498    0.0441688  
   0.206989700    -0.0024177    0.0442504  
   0.208989600     0.0018776    0.0438564  
   0.210989500     0.0061758    0.0429697  
   0.212989400     0.0104330    0.0416323  
   0.214989300     0.0145522    0.0397359  
   0.216989200     0.0184687    0.0374602  
   0.218989100     0.0220845    0.0346178  
   0.220989000     0.0254407    0.0312527  
   0.222988900     0.0284571    0.0275690  
   0.224988800     0.0310348    0.0236254  
   0.226988700     0.0331288    0.0193975  
   0.228988600     0.0346851    0.0149144  
   0.230988500     0.0356947    0.0102961  
   0.232988400     0.0362031    0.0055694  
   0.234988300     0.0361361    0.0008075  
   0.236988200     0.0355416   -0.0038839  
   0.238988100     0.0343759   -0.0084967  
   0.240988000     0.0326804   -0.0128618  
   0.242987900     0.0304307   -0.0169990  
   0.244987800     0.0277752   -0.0208129  
   0.246987700     0.0246769   -0.0242320  
   0.248987600     0.0212433   -0.0272187  
   0.250987500     0.0174674   -0.0297543  
   0.252987400     0.0134552   -0.0317700  
   0.254987300     0.0092934   -0.0332344  
   0.256987200     0.0050534   -0.0341556  
   0.258987100     0.0008318   -0.0345595  
   0.260987000    -0.0033503   -0.0343747  
   0.262986900    -0.0073888   -0.0336243  
   0.264986800    -0.0111848   -0.0323418  
   0.266986700    -0.0147167   -0.0306334  
   0.268986600    -0.0179091   -0.0284742  
   0.270986500    -0.0206962   -0.0260025  
   0.272986400    -0.0230874   -0.0232367  
   0.274986300    -0.0249888   -0.0202560  
   0.276986200    -0.0263921   -0.0170645  
   0.278986100    -0.0272585   -0.0138133  
   0.280986000    -0.0276230   -0.0104506  
   0.282985900    -0.0274738   -0.0071655  
   0.284985800    -0.0267980   -0.0040123  
   0.286985700    -0.0256703   -0.0010774  
   0.288985600    -0.0241799    0.0014891  
   0.290985500    -0.0223063    0.0037375  
   0.292985400    -0.0201004    0.0055578  
   0.294985300    -0.0176921    0.0069410  
   0.296985200    -0.0150629    0.0078842  
   0.298985100    -0.0122970    0.0084186  
   0.300985000    -0.0095071    0.0084614  
   0.302984900    -0.0067484    0.0079688  
   0.304984800    -0.0041383    0.0069720  
   0.306984700    -0.0017241    0.0055339  
   0.308984600     0.0004006    0.0036205  
   0.310984500     0.0021567    0.0012746  
   0.312984400     0.0035498   -0.0014061  
   0.314984300     0.0045023   -0.0042455  
   0.316984200     0.0049552   -0.0074163  
   0.318984100     0.0049276   -0.0106338  
   0.320984000     0.0043613   -0.0138475  
   0.322983900     0.0032868   -0.0170022  
   0.324983800     0.0016739   -0.0200318  
   0.326983700    -0.0004656   -0.0228602  
   0.328983600    -0.0030758   -0.0253678  
   0.330983500    -0.0061704   -0.0276055  
   0.332983400    -0.0095243   -0.0293835  
   0.334983300    -0.0132560   -0.0307775  
   0.336983200    -0.0171997   -0.0315980  
   0.338983100    -0.0213565   -0.0319231  
   0.340983000    -0.0255535   -0.0316687  
   0.342982900    -0.0297786   -0.0308157  
   0.344982800    -0.0339822   -0.0293751  
   0.346982700    -0.0380069   -0.0272150  
   0.348982600    -0.0417870   -0.0245618  
   0.350982500    -0.0452467   -0.0213036  
   0.352982400    -0.0483705   -0.0175943  
   0.354982300    -0.0509733   -0.0131787  
   0.356982200    -0.0529265   -0.0074995  
   0.358982100    -0.0540463   -0.0015700  
   0.360982000    -0.0542643    0.0043965  
   0.362981900    -0.0536264    0.0103429  
   0.364981800    -0.0521172    0.0161788  
   0.366981700    -0.0497044    0.0217332  
   0.368981600    -0.0465102    0.0268677  
   0.370981500    -0.0426293    0.0314362  
   0.372981400    -0.0381310    0.0354154  
   0.374981300    -0.0330623    0.0386986  
   0.376981200    -0.0418925    0.0314950  
   0.378981100    -0.0369892    0.0349640  
   0.380981000    -0.0317010    0.0375354  
   0.382980900    -0.0269336    0.0389483  
   0.384980800    -0.0224333    0.0395517  
   0.386980700    -0.0179903    0.0394559  
   0.388980600    -0.0136908    0.0386751  
   0.390980500    -0.0096616    0.0372901  
   0.392980400    -0.0060000    0.0352333  
   0.394980300    -0.0027205    0.0326623  
   0.396980200     0.0000264    0.0296452  
   0.398980100     0.0022579    0.0262382  
   0.400980000     0.0038688    0.0225614  
   0.402979900     0.0048381    0.0186825  
   0.404979800     0.0051804    0.0147555  
   0.406979700     0.0048765    0.0108104  
   0.408979600     0.0039186    0.0070355  
   0.410979500     0.0022857    0.0034842  
   0.412979400     0.0000172    0.0002483  
   0.414979300    -0.0027693   -0.0025363  
   0.416979200    -0.0060842   -0.0048095  
   0.418979100    -0.0097881   -0.0065028  
   0.420979000    -0.0138066   -0.0075774  
   0.422978900    -0.0180703   -0.0079259  
   0.424978800    -0.0224396   -0.0075799  
   0.426978700    -0.0268562   -0.0064550  
   0.428978600    -0.0311491   -0.0045637  
   0.430978500    -0.0351544   -0.0019987  
   0.432978400    -0.0388501    0.0012231  
   0.434978300    -0.0420664    0.0050981  
   0.436978200    -0.0447798    0.0095768  
   0.438978100    -0.0468618    0.0144877  
   0.440978000    -0.0482608    0.0198296  
   0.442977900    -0.0488704    0.0254394  
   0.444977800    -0.0487229    0.0312732  
   0.446977700    -0.0476866    0.0371213  
   0.448977600    -0.0458236    0.0429974  
   0.450977500    -0.0431480    0.0486732  
   0.452977400    -0.0396619    0.0540945  
   0.454977300    -0.0353484    0.0591140  
   0.456977200    -0.0303211    0.0636284  
   0.458977100    -0.0245837    0.0675155  
   0.460977000    -0.0183123    0.0706451  
   0.462976900    -0.0115479    0.0728805  
   0.464976800    -0.0044608    0.0742938  
   0.466976700     0.0028249    0.0747626  
   0.468976600     0.0102356    0.0742218  
   0.470976500     0.0175223    0.0727164  
   0.472976400     0.0246242    0.0702319  
   0.474976300     0.0314437    0.0668727  
   0.476976200     0.0377389    0.0625583  
   0.478976100     0.0435352    0.0574872  
   0.480976000     0.0485682    0.0517425  
   0.482975900     0.0528812    0.0454577  
   0.484975800     0.0563070    0.0386606  
   0.486975700     0.0588604    0.0314495  
   0.488975600     0.0603842    0.0240089  
   0.490975500     0.0610314    0.0164055  
   0.492975400     0.0605908    0.0087708  
   0.494975300     0.0591613    0.0013165  
   0.496975200     0.0567726   -0.0058526  
   0.498975100     0.0534561   -0.0126067  
   0.500975000     0.0493164   -0.0188201  
   0.502974900     0.0442878   -0.0242378  
   0.504974800     0.0386475   -0.0289431  
   0.506974700     0.0324656   -0.0327694  
   0.508974600     0.0256867   -0.0357744  
   0.510974500     0.0186388   -0.0377889  
   0.512974400     0.0113733   -0.0386907  
   0.514974300     0.0042151   -0.0385167  
   0.516974200    -0.0026952   -0.0373666  
   0.518974100    -0.0092051   -0.0351720  
   0.520974000    -0.0152620   -0.0321265  
   0.522973900    -0.0207376   -0.0282097  
   0.524973800    -0.0254584   -0.0235202  
   0.526973700    -0.0293871   -0.0182407  
   0.528973600    -0.0324286   -0.0124499  
   0.530973500    -0.0345097   -0.0063000  
   0.532973400    -0.0355774    0.0000516  
   0.534973300    -0.0355556    0.0064494  
   0.536973200    -0.0345608    0.0127161  
   0.538973100    -0.0325033    0.0187880  
   0.540973000    -0.0294440    0.0245028  
   0.542972900    -0.0255323    0.0296149  
   0.544972800    -0.0208525    0.0340386  
   0.546972700    -0.0154735    0.0376539  
   0.548972600    -0.0095315    0.0403614  
   0.550972500    -0.0031619    0.0420868  
   0.552972400     0.0035109    0.0427091  
   0.554972300     0.0102922    0.0422664  
   0.556972200     0.0170154    0.0406868  
   0.558972100     0.0235482    0.0379846  
   0.560972000     0.0298165    0.0342997  
   0.562971900     0.0355598    0.0296556  
   0.564971800     0.0404608    0.0241314  
   0.566971700     0.0445657    0.0177792  
   0.568971600     0.0476960    0.0107271  
   0.570971500     0.0498217    0.0031096  
   0.572971400     0.0510077   -0.0050047  
   0.574971300     0.0508168   -0.0132838  
   0.576971200     0.0494239   -0.0216730  
   0.578971100     0.0467608   -0.0300284  
   0.580971000     0.0428839   -0.0380379  
   0.582970900     0.0378449   -0.0455724  
   0.584970800     0.0317141   -0.0524020  
   0.586970700     0.0245991   -0.0584306  
   0.588970600     0.0164292   -0.0635095  
   0.590970500     0.0076418   -0.0675372  
   0.592970400    -0.0017321   -0.0704190  
   0.594970300    -0.0114879   -0.0719703  
   0.596970200    -0.0216196   -0.0721946  
   0.598970100    -0.0318438   -0.0710853  
   0.600970000    -0.0419196   -0.0686706  
   0.602969900    -0.0516931   -0.0649069  
   0.604969800    -0.0609451   -0.0598517  
   0.606969700    -0.0695576   -0.0536343  
   0.608969600    -0.0774241   -0.0462056  
   0.610969500    -0.0842839   -0.0378272  
   0.612969400    -0.0899667   -0.0285116  
   0.614969300    -0.0943914   -0.0184810  
   0.616969200    -0.0975808   -0.0078644  
   0.618969100    -0.0992166    0.0030675  
   0.620969000    -0.0995204    0.0140965  
   0.622968900    -0.0983855    0.0250779  
   0.624968800    -0.0958781    0.0358143  
   0.626968700    -0.0920073    0.0461284  
   0.628968600    -0.0867668    0.0558152  
   0.630968500    -0.0803773    0.0647458  
   0.632968400    -0.0728012    0.0727007  
   0.634968300    -0.0643124    0.0798283  
   0.636968200    -0.0550800    0.0855058  
   0.638968100    -0.0450531    0.0900035  
   0.640968000    -0.0347052    0.0929908  
   0.642967900    -0.0241619    0.0945321  
   0.644967800    -0.0136680    0.0946352  
   0.646967700    -0.0032625    0.0933277  
   0.648967600     0.0068031    0.0906810  
   0.650967500     0.0163148    0.0867875  
   0.652967400     0.0249545    0.0816510  
   0.654967300     0.0326203    0.0754091  
   0.656967200     0.0392790    0.0682619  
   0.658967100     0.0447490    0.0605204  
   0.660967000     0.0490731    0.0520094  
   0.662966900     0.0521290    0.0430071  
   0.664966800     0.0539291    0.0336632  
   0.666966700     0.0543474    0.0240948  
   0.668966600     0.0534152    0.0148082  
   0.670966500     0.0511176    0.0058012  
   0.672966400     0.0477761   -0.0027495  
   0.674966300     0.0429766   -0.0107567  
   0.676966200     0.0371923   -0.0175539  
   0.678966100     0.0306342   -0.0232381  
   0.680966000     0.0231032   -0.0278297  
   0.682965900     0.0151275   -0.0311572  
   0.684965800     0.0067638   -0.0332551  
   0.686965700    -0.0017575   -0.0340925  
   0.688965600    -0.0102401   -0.0335326  
   0.690965500    -0.0184211   -0.0316518  
   0.692965400    -0.0262135   -0.0284388  
   0.694965300    -0.0334317   -0.0240937  
   0.696965200    -0.0397974   -0.0186704  
   0.698965100    -0.0453414   -0.0123184  
   0.700965000    -0.0497799   -0.0051694  
   0.702964900    -0.0530322    0.0025988  
   0.704964800    -0.0550840    0.0108080  
   0.706964700    -0.0557787    0.0193794  
   0.708964600    -0.0552068    0.0280140  
   0.710964500    -0.0531730    0.0363912  
   0.712964400    -0.0497406    0.0446533  
   0.714964300    -0.0451490    0.0521672  
   0.716964200    -0.0394718    0.0589824  
   0.718964100    -0.0329196    0.0649975  
   0.720964000    -0.0254774    0.0699914  
   0.722963900    -0.0174628    0.0739570  
   0.724963800    -0.0088098    0.0766612  
   0.726963700     0.0003664    0.0782625  
   0.728963600     0.0095225    0.0784102  
   0.730963500     0.0187088    0.0772122  
   0.732963400     0.0277344    0.0746183  
   0.734963300     0.0364230    0.0708065  
   0.736963200     0.0470319    0.0642246  
   0.738963100     0.0566640    0.0560755  
   0.740963000     0.0650801    0.0464988  
   0.742962900     0.0720316    0.0356985  
   0.744962800     0.0772130    0.0240037  
   0.746962700     0.0805034    0.0118903  
   0.748962600     0.0819821   -0.0004810  
   0.750962500     0.0648760    0.0178261  
   0.752962400     0.0665433    0.0058152  
   0.754962300     0.0662924   -0.0060862  
   0.756962200     0.0641537   -0.0175557  
   0.758962100     0.0602624   -0.0285740  
   0.760962000     0.0547408   -0.0383788  
   0.762961900     0.0477971   -0.0464085  
   0.764961800     0.0399381   -0.0522929  
   0.766961700     0.0311601   -0.0570198  
   0.768961600     0.0220411   -0.0603682  
   0.770961500     0.0125224   -0.0623477  
   0.772961400     0.0029214   -0.0629719  
   0.774961300    -0.0066311   -0.0622864  
   0.776961200    -0.0159228   -0.0602274  
   0.778961100    -0.0247850   -0.0569750  
   0.780961000    -0.0329730   -0.0524932  
   0.782960900    -0.0403471   -0.0469730  
   0.784960800    -0.0467125   -0.0404952  
   0.786960700    -0.0519236   -0.0331639  
   0.788960600    -0.0559020   -0.0252178  
   0.790960500    -0.0586985   -0.0167253  
   0.792960400    -0.0601403   -0.0079646  
   0.794960300    -0.0602290    0.0006866  
   0.796960200    -0.0590256    0.0092042  
   0.798960100    -0.0565297    0.0173971  
   0.800960000    -0.0528181    0.0252705  
   0.802959900    -0.0480725    0.0321768  
   0.804959800    -0.0424161    0.0382190  
   0.806959700    -0.0359478    0.0432997  
   0.808959600    -0.0288137    0.0471974  
   0.810959500    -0.0212329    0.0499332  
   0.812959400    -0.0132090    0.0513981  
   0.814959300    -0.0051527    0.0516124  
   0.816959200     0.0029379    0.0505099  
   0.818959100     0.0106594    0.0481250  
   0.820959000     0.0180949    0.0445187  
   0.822958900     0.0249782    0.0398237  
   0.824958800     0.0310597    0.0341276  
   0.826958700     0.0363434    0.0272519  
   0.828958600     0.0404378    0.0197201  
   0.830958500     0.0432277    0.0116049  
   0.832958400     0.0447311    0.0030391  
   0.834958300     0.0449004   -0.0058259  
   0.836958200     0.0437537   -0.0147101  
   0.838958100     0.0412757   -0.0233659  
   0.840958000     0.0375181   -0.0316019  
   0.842957900     0.0325910   -0.0392693  
   0.844957800     0.0264841   -0.0461918  
   0.846957700     0.0193462   -0.0521836  
   0.848957600     0.0112647   -0.0571401  
   0.850957500     0.0025121   -0.0608959  
   0.852957400    -0.0067736   -0.0633330  
   0.854957300    -0.0163894   -0.0644107  
   0.856957200    -0.0261601   -0.0641086  
   0.858957100    -0.0359136   -0.0624029  
   0.860957000    -0.0453690   -0.0593721  
   0.862956900    -0.0545329   -0.0550237  
   0.864956800    -0.0630674   -0.0494654  
   0.866956700    -0.0706879   -0.0429450  
   0.868956600    -0.0774588   -0.0352764  
   0.870956500    -0.0830865   -0.0268581  
   0.872956400    -0.0874561   -0.0178502  
   0.874956300    -0.0905649   -0.0083019  
   0.876956200    -0.0921830    0.0015892  
   0.878956100    -0.0924360    0.0116476  
   0.880956000    -0.0911981    0.0216812  
   0.882955900    -0.0885971    0.0314198  
   0.884955800    -0.0846767    0.0407816  
   0.886955700    -0.0795243    0.0495070  
   0.888955600    -0.0732212    0.0572603  
   0.890955500    -0.0659344    0.0639857  
   0.892955400    -0.0577924    0.0696297  
   0.894955300    -0.0490359    0.0740011  
