! MS46122B
! 2250307/22442219
! 6/18/2025 1:20:10 PM
! C:\USERS\SPARKY\DOCUMENTS\VNA_DATA\JUNE18_2025\295K\ECAL_OPEN_F.S1P
! CHANNEL.1
! TR.MEASUREMENT
! RAW.DATA
# GHZ S RI R 50.0
! FREQ.GHZ         S11RE         S11IM         
!; PortSelection: Port_1
   0.001000000     1.0273380   -0.0528977  
   0.002999900     0.9421335   -0.2057165  
   0.004999800     0.8808113   -0.3456245  
   0.006999700     0.8078775   -0.4763704  
   0.008999600     0.7198849   -0.5893280  
   0.010999500     0.6206858   -0.6895527  
   0.012999400     0.5114908   -0.7770588  
   0.014999300     0.3932246   -0.8502207  
   0.016999200     0.2665671   -0.9064206  
   0.018999100     0.1336625   -0.9436554  
   0.020999000    -0.0034675   -0.9604243  
   0.022998900    -0.1417757   -0.9558696  
   0.024998800    -0.2548444   -0.9039580  
   0.026998700    -0.4098304   -0.8802946  
   0.028998600    -0.5326574   -0.8103868  
   0.030998500    -0.6432649   -0.7216959  
   0.032998400    -0.7066893   -0.6094890  
   0.034998300    -0.8180075   -0.4971810  
   0.036998200    -0.8774792   -0.3676155  
   0.038998100    -0.9171470   -0.2312285  
   0.040998000    -0.9360785   -0.0904578  
   0.042997900    -0.9346612    0.0504155  
   0.044997800    -0.8880519    0.1664601  
   0.046997700    -0.8707392    0.3222801  
   0.048997600    -0.8105112    0.4483343  
   0.050997500    -0.7323534    0.5639640  
   0.052997400    -0.6396461    0.6647304  
   0.054997300    -0.5282239    0.7535028  
   0.056997200    -0.4068016    0.8232849  
   0.058997100    -0.2761842    0.8732477  
   0.060997000    -0.1395921    0.9025191  
   0.062996900     0.0000842    0.9102434  
   0.064996800     0.1394363    0.8966424  
   0.066996700     0.2748107    0.8618886  
   0.068996600     0.4031145    0.8071142  
   0.070996500     0.5214180    0.7333388  
   0.072996400     0.6272235    0.6428149  
   0.074996300     0.7181977    0.5374764  
   0.076996200     0.7920024    0.4196956  
   0.078996100     0.8468286    0.2921942  
   0.080996000     0.8813815    0.1582624  
   0.082995900     0.8953454    0.0208421  
   0.084995800     0.8879821   -0.1166501  
   0.086995700     0.8600481   -0.2508964  
   0.088995600     0.8122967   -0.3789028  
   0.090995500     0.7456480   -0.4975897  
   0.092995400     0.6627012   -0.6044224  
   0.094995300     0.5647187   -0.6972564  
   0.096995200     0.4549966   -0.7742314  
   0.098995100     0.3352109   -0.8338521  
   0.100995000     0.2086553   -0.8750911  
   0.102994900     0.0782081   -0.8967570  
   0.104994800    -0.0537275   -0.8995039  
   0.106994700    -0.1840055   -0.8829141  
   0.108994600    -0.3099143   -0.8478569  
   0.110994500    -0.4292019   -0.7954018  
   0.112994400    -0.5393447   -0.7263969  
   0.114994300    -0.6381652   -0.6424040  
   0.116994200    -0.7236547   -0.5453561  
   0.118994100    -0.7943366   -0.4373422  
   0.120994000    -0.8483254   -0.3201864  
   0.122993900    -0.8853402   -0.1969731  
   0.124993800    -0.9043319   -0.0698213  
   0.126993700    -0.9048766    0.0591253  
   0.128993600    -0.8874005    0.1866960  
   0.130993500    -0.8515712    0.3108648  
   0.132993400    -0.7983173    0.4285383  
   0.134993300    -0.7284612    0.5379549  
   0.136993200    -0.6435640    0.6359255  
   0.138993100    -0.5447273    0.7213855  
   0.140993000    -0.4343738    0.7917254  
   0.142992900    -0.3141062    0.8452001  
   0.144992800    -0.1868523    0.8811960  
   0.146992700    -0.0551906    0.8979638  
   0.148992600     0.0780846    0.8948451  
   0.150992500     0.2096731    0.8717812  
   0.152992400     0.3374641    0.8293055  
   0.154992300     0.4575549    0.7677684  
   0.156992200     0.5673732    0.6883874  
   0.158992100     0.6643808    0.5932285  
   0.160992000     0.7458345    0.4841190  
   0.162991900     0.8102121    0.3632962  
   0.164991800     0.8551981    0.2334521  
   0.166991700     0.8795617    0.0986597  
   0.168991600     0.8827036   -0.0386038  
   0.170991500     0.8650325   -0.1750003  
   0.172991400     0.8259434   -0.3067627  
   0.174991300     0.7675912   -0.4305896  
   0.176991200     0.6903517   -0.5441409  
   0.178991100     0.5969384   -0.6437920  
   0.180991000     0.4894556   -0.7278786  
   0.182990900     0.3707440   -0.7940826  
   0.184990800     0.2439086   -0.8410649  
   0.186990700     0.1115344   -0.8678595  
   0.188990600     0.0019319   -0.8737283  
   0.190990500    -0.1515707   -0.8601745  
   0.192990400    -0.2835500   -0.8254353  
   0.194990300    -0.4049608   -0.7723291  
   0.196990200    -0.5157152   -0.7023351  
   0.198990100    -0.6142974   -0.6169677  
   0.200990000    -0.6987006   -0.5182698  
   0.202989900    -0.7674509   -0.4083425  
   0.204989800    -0.8190540   -0.2900930  
   0.206989700    -0.8522332   -0.1664979  
   0.208989600    -0.8669802   -0.0398829  
   0.210989500    -0.8631175    0.0872399  
   0.212989400    -0.8406351    0.2127973  
   0.214989300    -0.8001719    0.3331225  
   0.216989200    -0.7429469    0.4456202  
   0.218989100    -0.6704113    0.5485660  
   0.220989000    -0.5838875    0.6399245  
   0.222988900    -0.4843588    0.7183387  
   0.224988800    -0.3745099    0.7813907  
   0.226988700    -0.2567250    0.8276576  
   0.228988600    -0.1337854    0.8565012  
   0.230988500    -0.0079044    0.8671126  
   0.232988400     0.1184483    0.8595051  
   0.234988300     0.2428428    0.8333145  
   0.236988200     0.3628426    0.7891388  
   0.238988100     0.4751631    0.7280779  
   0.240988000     0.5772269    0.6509957  
   0.242987900     0.6668333    0.5598845  
   0.244987800     0.7422548    0.4566253  
   0.246987700     0.8023091    0.3425892  
   0.248987600     0.8449268    0.2204899  
   0.250987500     0.8688111    0.0927144  
   0.252987400     0.8739045   -0.0368153  
   0.254987300     0.8595608   -0.1653895  
   0.256987200     0.8263760   -0.2903027  
   0.258987100     0.7753877   -0.4089588  
   0.260987000     0.7069288   -0.5193060  
   0.262986900     0.6225132   -0.6184561  
   0.264986800     0.5242471   -0.7041172  
   0.266986700     0.4144995   -0.7741053  
   0.268986600     0.2959381   -0.8267578  
   0.270986500     0.1715161   -0.8611552  
   0.272986400     0.0434742   -0.8766173  
   0.274986300    -0.0848756   -0.8729468  
   0.276986200    -0.2112322   -0.8507807  
   0.278986100    -0.3328161   -0.8098067  
   0.280986000    -0.4472570   -0.7512499  
   0.282985900    -0.5518550   -0.6765715  
   0.284985800    -0.6440533   -0.5874739  
   0.286985700    -0.7216731   -0.4859532  
   0.288985600    -0.7829061   -0.3755000  
   0.290985500    -0.8269023   -0.2580509  
   0.292985400    -0.8535890   -0.1357918  
   0.294985300    -0.8619335   -0.0110813  
   0.296985200    -0.8524162    0.1140129  
   0.298985100    -0.8242590    0.2368845  
   0.300985000    -0.7786572    0.3544185  
   0.302984900    -0.7158607    0.4637059  
   0.304984800    -0.6384218    0.5619898  
   0.306984700    -0.5470282    0.6479588  
   0.308984600    -0.4448838    0.7192847  
   0.310984500    -0.3342673    0.7747600  
   0.312984400    -0.2163158    0.8133483  
   0.314984300    -0.0940238    0.8344620  
   0.316984200     0.0303028    0.8373719  
   0.318984100     0.1543137    0.8219308  
   0.320984000     0.2761790    0.7881075  
   0.322983900     0.3916645    0.7364150  
   0.324983800     0.4984602    0.6676771  
   0.326983700     0.5939180    0.5836599  
   0.328983600     0.6760337    0.4859882  
   0.330983500     0.7422201    0.3772377  
   0.332983400     0.7905323    0.2602345  
   0.334983300     0.8215637    0.1369729  
   0.336983200     0.8335355    0.0103201  
   0.338983100     0.8261150   -0.1167216  
   0.340983000     0.7999923   -0.2410256  
   0.342982900     0.7552772   -0.3602692  
   0.344982800     0.6928159   -0.4719106  
   0.346982700     0.6136935   -0.5731024  
   0.348982600     0.5197664   -0.6616263  
   0.350982500     0.4138120   -0.7345573  
   0.352982400     0.2977390   -0.7906945  
   0.354982300     0.1691226   -0.8296878  
   0.356982200     0.0211180   -0.8481884  
   0.358982100    -0.1269001   -0.8410030  
   0.360982000    -0.2704128   -0.8075786  
   0.362981900    -0.4052821   -0.7506751  
   0.364981800    -0.5279155   -0.6707628  
   0.366981700    -0.6342854   -0.5719568  
   0.368981600    -0.7215769   -0.4565205  
   0.370981500    -0.7875997   -0.3286333  
   0.372981400    -0.8305832   -0.1920883  
   0.374981300    -0.8499603   -0.0500430  
   0.376981200    -0.8364011   -0.1911777  
   0.378981100    -0.8560783   -0.0477920  
   0.380981000    -0.8512040    0.0966767  
   0.382980900    -0.8263914    0.2239368  
   0.384980800    -0.7853517    0.3403771  
   0.386980700    -0.7277928    0.4493593  
   0.388980600    -0.6551030    0.5486492  
   0.390980500    -0.5694351    0.6361042  
   0.392980400    -0.4723194    0.7098688  
   0.394980300    -0.3664287    0.7687390  
   0.396980200    -0.2530181    0.8119088  
   0.398980100    -0.1342670    0.8381958  
   0.400980000    -0.0132055    0.8472015  
   0.402979900     0.1086302    0.8385760  
   0.404979800     0.2277208    0.8125567  
   0.406979700     0.3423630    0.7694361  
   0.408979600     0.4497253    0.7097308  
   0.410979500     0.5480362    0.6345480  
   0.412979400     0.6349850    0.5447721  
   0.414979300     0.7077487    0.4422924  
   0.416979200     0.7645910    0.3298369  
   0.418979100     0.8039635    0.2095839  
   0.420979000     0.8247699    0.0841925  
   0.422978900     0.8258321   -0.0434891  
   0.424978800     0.8073890   -0.1704617  
   0.426978700     0.7693530   -0.2936877  
   0.428978600     0.7125538   -0.4093260  
   0.430978500     0.6384848   -0.5147550  
   0.432978400     0.5498397   -0.6069390  
   0.434978300     0.4477057   -0.6840442  
   0.436978200     0.3349335   -0.7448640  
   0.438978100     0.2146735   -0.7872275  
   0.440978000     0.0897006   -0.8100923  
   0.442977900    -0.0370964   -0.8135937  
   0.444977800    -0.1623649   -0.7976633  
   0.446977700    -0.2834037   -0.7630728  
   0.448977600    -0.3967409   -0.7106380  
   0.450977500    -0.5001726   -0.6419159  
   0.452977400    -0.5924120   -0.5584507  
   0.454977300    -0.6708164   -0.4620252  
   0.456977200    -0.7335823   -0.3552753  
   0.458977100    -0.7797298   -0.2403532  
   0.460977000    -0.8077146   -0.1210096  
   0.462976900    -0.8176239    0.0004485  
   0.464976800    -0.8094580    0.1216278  
   0.466976700    -0.7839229    0.2394308  
   0.468976600    -0.7413648    0.3519011  
   0.470976500    -0.6831850    0.4567079  
   0.472976400    -0.6106492    0.5510351  
   0.474976300    -0.5255198    0.6341016  
   0.476976200    -0.4297302    0.7037269  
   0.478976100    -0.3253978    0.7586634  
   0.480976000    -0.2150067    0.7978823  
   0.482975900    -0.1004404    0.8211977  
   0.484975800     0.0159335    0.8278934  
   0.486975700     0.1325068    0.8184265  
   0.488975600     0.2464800    0.7924307  
   0.490975500     0.3562763    0.7503029  
   0.492975400     0.4594684    0.6927698  
   0.494975300     0.5535922    0.6211618  
   0.496975200     0.6369528    0.5361110  
   0.498975100     0.7072296    0.4400381  
   0.500975000     0.7631644    0.3342438  
   0.502974900     0.8037127    0.2213197  
   0.504974800     0.8271019    0.1030030  
   0.506974700     0.8332451   -0.0186397  
   0.508974600     0.8209716   -0.1411671  
   0.510974500     0.7909489   -0.2613911  
   0.512974400     0.7427725   -0.3761959  
   0.514974300     0.6781496   -0.4819576  
   0.516974200     0.5981950   -0.5776261  
   0.518974100     0.5048340   -0.6598048  
   0.520974000     0.4003431   -0.7272751  
   0.522973900     0.2863062   -0.7783847  
   0.524973800     0.1661730   -0.8113156  
   0.526973700     0.0418965   -0.8262002  
   0.528973600    -0.0830094   -0.8220080  
   0.530973500    -0.2059101   -0.7989114  
   0.532973400    -0.3239159   -0.7575510  
   0.534973300    -0.4341622   -0.6988026  
   0.536973200    -0.5338065   -0.6241112  
   0.538973100    -0.6207097   -0.5356655  
   0.540973000    -0.6925274   -0.4360008  
   0.542972900    -0.7485589   -0.3269259  
   0.544972800    -0.7877655   -0.2110266  
   0.546972700    -0.8090695   -0.0906381  
   0.548972600    -0.8123386    0.0314320  
   0.550972500    -0.7972314    0.1522297  
   0.552972400    -0.7641512    0.2695774  
   0.554972300    -0.7141522    0.3803256  
   0.556972200    -0.6481819    0.4820447  
   0.558972100    -0.5677636    0.5726538  
   0.560972000    -0.4751028    0.6500731  
   0.562971900    -0.3725337    0.7125062  
   0.564971800    -0.2619766    0.7586094  
   0.566971700    -0.1462488    0.7879842  
   0.568971600    -0.0281538    0.7999443  
   0.570971500     0.0907873    0.7940006  
   0.572971400     0.2079611    0.7709883  
   0.574971300     0.3202437    0.7304139  
   0.576971200     0.4258389    0.6730790  
   0.578971100     0.5219488    0.6003593  
   0.580971000     0.6062254    0.5137197  
   0.582970900     0.6766273    0.4158760  
   0.584970800     0.7313442    0.3086400  
   0.586970700     0.7692395    0.1946269  
   0.588970600     0.7895848    0.0761632  
   0.590970500     0.7919542   -0.0440622  
   0.592970400     0.7766040   -0.1633554  
   0.594970300     0.7432197   -0.2790319  
   0.596970200     0.6928262   -0.3885191  
   0.598970100     0.6268867   -0.4890687  
   0.600970000     0.5462161   -0.5790921  
   0.602969900     0.4534782   -0.6556793  
   0.604969800     0.3493322   -0.7178383  
   0.606969700     0.2376206   -0.7637900  
   0.608969600     0.1201231   -0.7922109  
   0.610969500    -0.0005344   -0.8029719  
   0.612969400    -0.1208415   -0.7956771  
   0.614969300    -0.2383102   -0.7700011  
   0.616969200    -0.3498507   -0.7279511  
   0.618969100    -0.4532748   -0.6704625  
   0.620969000    -0.5466356   -0.5990233  
   0.622968900    -0.6286283   -0.5149843  
   0.624968800    -0.6973392   -0.4201541  
   0.626968700    -0.7518417   -0.3165393  
   0.628968600    -0.7906171   -0.2060882  
   0.630968500    -0.8134568   -0.0916949  
   0.632968400    -0.8196310    0.0248167  
   0.634968300    -0.8087272    0.1405082  
   0.636968200    -0.7817286    0.2536542  
   0.638968100    -0.7388834    0.3615626  
   0.640968000    -0.6810657    0.4616349  
   0.642967900    -0.6097314    0.5528069  
   0.644967800    -0.5259982    0.6327075  
   0.646967700    -0.4324011    0.6997966  
   0.648967600    -0.3297170    0.7528579  
   0.650967500    -0.2214174    0.7906548  
   0.652967400    -0.1091415    0.8128523  
   0.654967300     0.0054486    0.8187315  
   0.656967200     0.1199001    0.8086980  
   0.658967100     0.2314270    0.7821409  
   0.660967000     0.3389276    0.7395942  
   0.662966900     0.4396740    0.6818500  
   0.664966800     0.5319878    0.6092706  
   0.666966700     0.6135503    0.5237203  
   0.668966600     0.6817310    0.4262308  
   0.670966500     0.7351634    0.3195745  
   0.672966400     0.7719347    0.2063408  
   0.674966300     0.7916592    0.0880352  
   0.676966200     0.7936367   -0.0314788  
   0.678966100     0.7776124   -0.1500737  
   0.680966000     0.7435808   -0.2653218  
   0.682965900     0.6926682   -0.3741355  
   0.684965800     0.6261407   -0.4739008  
   0.686965700     0.5447973   -0.5627707  
   0.688965600     0.4509902   -0.6385897  
   0.690965500     0.3467522   -0.6989665  
   0.692965400     0.2349719   -0.7427461  
   0.694965300     0.1179628   -0.7690334  
   0.696965200    -0.0015908   -0.7772151  
   0.698965100    -0.1204641   -0.7669569  
   0.700965000    -0.2365035   -0.7390767  
   0.702964900    -0.3466521   -0.6938368  
   0.704964800    -0.4484100   -0.6324965  
   0.706964700    -0.5394650   -0.5571285  
   0.708964600    -0.6177289   -0.4689209  
   0.710964500    -0.6818919   -0.3699996  
   0.712964400    -0.7301395   -0.2630467  
   0.714964300    -0.7615486   -0.1505088  
   0.716964200    -0.7757683   -0.0354956  
   0.718964100    -0.7730305    0.0794052  
   0.720964000    -0.7535175    0.1921258  
   0.722963900    -0.7182289    0.3000108  
   0.724963800    -0.6680533    0.4009925  
   0.726963700    -0.6037955    0.4935874  
   0.728963600    -0.5272887    0.5759093  
   0.730963500    -0.4397314    0.6458839  
   0.732963400    -0.3434227    0.7026641  
   0.734963300    -0.2395419    0.7453338  
   0.736963200    -0.1121776    0.7751266  
   0.738963100     0.0199785    0.7835745  
   0.740963000     0.1523084    0.7701507  
   0.742962900     0.2805803    0.7344714  
   0.744962800     0.4022278    0.6775321  
   0.746962700     0.5127170    0.6009583  
   0.748962600     0.6091202    0.5067196  
   0.750962500     0.5010059    0.6031982  
   0.752962400     0.5973351    0.5085887  
   0.754962300     0.6769207    0.3993460  
   0.756962200     0.7369890    0.2780748  
   0.758962100     0.7755615    0.1477723  
   0.760962000     0.7912181    0.0122116  
   0.762961900     0.7841654   -0.1170228  
   0.764961800     0.7591026   -0.2322373  
   0.766961700     0.7170437   -0.3425954  
   0.768961600     0.6590158   -0.4457548  
   0.770961500     0.5861163   -0.5390538  
   0.772961400     0.4997454   -0.6204065  
   0.774961300     0.4024039   -0.6881305  
   0.776961200     0.2956773   -0.7406617  
   0.778961100     0.1818636   -0.7763786  
   0.780961000     0.0638329   -0.7949997  
   0.782960900    -0.0558366   -0.7952329  
   0.784960800    -0.1745650   -0.7773989  
   0.786960700    -0.2888304   -0.7416623  
   0.788960600    -0.3964745   -0.6889398  
   0.790960500    -0.4943464   -0.6209578  
   0.792960400    -0.5804600   -0.5390626  
   0.794960300    -0.6528131   -0.4455603  
   0.796960200    -0.7099568   -0.3430614  
   0.798960100    -0.7508305   -0.2337783  
   0.800960000    -0.7750858   -0.1203098  
   0.802959900    -0.7819038   -0.0049890  
   0.804959800    -0.7720238    0.1089967  
   0.806959700    -0.7454223    0.2197656  
   0.808959600    -0.7033269    0.3248973  
   0.810959500    -0.6466309    0.4225388  
   0.812959400    -0.5763638    0.5100975  
   0.814959300    -0.4946611    0.5865524  
   0.816959200    -0.4030443    0.6498163  
   0.818959100    -0.3030329    0.6996481  
   0.820959000    -0.1971280    0.7339956  
   0.822958900    -0.0872790    0.7529650  
   0.824958800     0.0242622    0.7554996  
   0.826958700     0.1348320    0.7416728  
   0.828958600     0.2427905    0.7123334  
   0.830958500     0.3450107    0.6673861  
   0.832958400     0.4401814    0.6077952  
   0.834958300     0.5252914    0.5347342  
   0.836958200     0.5990885    0.4501399  
   0.838958100     0.6597821    0.3550290  
   0.840958000     0.7059451    0.2517246  
   0.842957900     0.7366728    0.1418765  
   0.844957800     0.7507189    0.0286594  
   0.846957700     0.7474908   -0.0861280  
   0.848957600     0.7267332   -0.1998466  
   0.850957500     0.6891047   -0.3092166  
   0.852957400     0.6352252   -0.4118179  
   0.854957300     0.5660636   -0.5052860  
   0.856957200     0.4836225   -0.5874300  
   0.858957100     0.3896052   -0.6557586  
   0.860957000     0.2864752   -0.7092137  
   0.862956900     0.1769771   -0.7461196  
   0.864956800     0.0637191   -0.7664161  
   0.866956700    -0.0508623   -0.7694098  
   0.868956600    -0.1642753   -0.7556818  
   0.870956500    -0.2739274   -0.7252265  
   0.872956400    -0.3780723   -0.6791217  
   0.874956300    -0.4738962   -0.6183420  
   0.876956200    -0.5594270   -0.5442705  
   0.878956100    -0.6334526   -0.4587227  
   0.880956000    -0.6936402   -0.3633414  
   0.882955900    -0.7393419   -0.2605589  
   0.884955800    -0.7693434   -0.1524012  
   0.886955700    -0.7836090   -0.0411723  
   0.888955600    -0.7815970    0.0701600  
   0.890955500    -0.7637293    0.1801206  
   0.892955400    -0.7303163    0.2857197  
   0.894955300    -0.6822677    0.3853835  
