! MS46122B
! 2250307/22442219
! 6/15/2025 10:58:45 AM
! C:\USERS\SPARKY\DOCUMENTS\VNA_DATA\JUNE15_2025\295K\ECAL_SHORT_D.S1P
! CHANNEL.1
! TR.MEASUREMENT
! RAW.DATA
# GHZ S RI R 50.0
! FREQ.GHZ         S11RE         S11IM         
!; PortSelection: Port_1
   0.001000000    -0.9480900    0.0516873  
   0.002999900    -0.9191496    0.2562291  
   0.004999800    -0.8805122    0.4026785  
   0.006999700    -0.8153909    0.5323842  
   0.008999600    -0.7286713    0.6451990  
   0.010999500    -0.6233615    0.7394441  
   0.012999400    -0.5040573    0.8140925  
   0.014999300    -0.3741543    0.8683383  
   0.016999200    -0.2377241    0.9021114  
   0.018999100    -0.0982184    0.9157368  
   0.020999000     0.0411811    0.9096683  
   0.022998900     0.1774125    0.8848920  
   0.024998800     0.2811227    0.8208206  
   0.026998700     0.4307120    0.7830057  
   0.028998600     0.5434799    0.7082893  
   0.030998500     0.6440158    0.6196640  
   0.032998400     0.6959117    0.5145133  
   0.034998300     0.8021288    0.4056105  
   0.036998200     0.8560106    0.2837063  
   0.038998100     0.8917531    0.1549006  
   0.040998000     0.9075274    0.0218411  
   0.042997900     0.9031472   -0.1119648  
   0.044997800     0.8522406   -0.2205301  
   0.046997700     0.8332975   -0.3704837  
   0.048997600     0.7700246   -0.4890692  
   0.050997500     0.6898432   -0.5965112  
   0.052997400     0.5961557   -0.6897595  
   0.054997300     0.4879596   -0.7699240  
   0.056997200     0.3705451   -0.8327830  
   0.058997100     0.2462105   -0.8780394  
   0.060997000     0.1170328   -0.9049298  
   0.062996900    -0.0142939   -0.9130518  
   0.064996800    -0.1453439   -0.9023718  
   0.066996700    -0.2731664   -0.8727846  
   0.068996600    -0.3952445   -0.8254440  
   0.070996500    -0.5088876   -0.7611310  
   0.072996400    -0.6119632   -0.6808656  
   0.074996300    -0.7024370   -0.5867555  
   0.076996200    -0.7781475   -0.4808735  
   0.078996100    -0.8375364   -0.3650933  
   0.080996000    -0.8797811   -0.2417604  
   0.082995900    -0.9038361   -0.1137491  
   0.084995800    -0.9094148    0.0165186  
   0.086995700    -0.8961233    0.1463740  
   0.088995600    -0.8643804    0.2731605  
   0.090995500    -0.8144803    0.3942727  
   0.092995400    -0.7474996    0.5072126  
   0.094995300    -0.6642557    0.6096663  
   0.096995200    -0.5669708    0.6991057  
   0.098995100    -0.4570556    0.7735481  
   0.100995000    -0.3366895    0.8310228  
   0.102994900    -0.2090298    0.8697429  
   0.104994800    -0.0765226    0.8890886  
   0.106994700     0.0579704    0.8883301  
   0.108994600     0.1911473    0.8673317  
   0.110994500     0.3193685    0.8262506  
   0.112994400     0.4406620    0.7659733  
   0.114994300     0.5512961    0.6877189  
   0.116994200     0.6490139    0.5936562  
   0.118994100     0.7311319    0.4854504  
   0.120994000     0.7958198    0.3660451  
   0.122993900     0.8413288    0.2380669  
   0.124993800     0.8665821    0.1048641  
   0.126993700     0.8709756   -0.0304383  
   0.128993600     0.8550664   -0.1647113  
   0.130993500     0.8189868   -0.2945553  
   0.132993400     0.7632009   -0.4168968  
   0.134993300     0.6897711   -0.5288552  
   0.136993200     0.6004729   -0.6276705  
   0.138993100     0.4976149   -0.7115781  
   0.140993000     0.3843583   -0.7785900  
   0.142992900     0.2626077   -0.8276320  
   0.144992800     0.1358210   -0.8577331  
   0.146992700     0.0063690   -0.8685910  
   0.148992600    -0.1223883   -0.8605945  
   0.150992500    -0.2477897   -0.8335310  
   0.152992400    -0.3673834   -0.7885436  
   0.154992300    -0.4784903   -0.7270750  
   0.156992200    -0.5791780   -0.6505555  
   0.158992100    -0.6669273   -0.5604836  
   0.160992000    -0.7409933   -0.4595414  
   0.162991900    -0.7993651   -0.3491300  
   0.164991800    -0.8414078   -0.2315276  
   0.166991700    -0.8662446   -0.1100061  
   0.168991600    -0.8732868    0.0136851  
   0.170991500    -0.8627554    0.1371389  
   0.172991400    -0.8350872    0.2570567  
   0.174991300    -0.7905692    0.3722266  
   0.176991200    -0.7301920    0.4802227  
   0.178991100    -0.6548898    0.5785260  
   0.180991000    -0.5667843    0.6650179  
   0.182990900    -0.4670947    0.7382173  
   0.184990800    -0.3570409    0.7970652  
   0.186990700    -0.2396299    0.8395203  
   0.188990600    -0.1432970    0.8615929  
   0.190990500     0.0028694    0.8724198  
   0.192990400     0.1318824    0.8616655  
   0.194990300     0.2549685    0.8330909  
   0.196990200     0.3723684    0.7868973  
   0.198990100     0.4820608    0.7241410  
   0.200990000     0.5820304    0.6454660  
   0.202989900     0.6702579    0.5526091  
   0.204989800     0.7437074    0.4476618  
   0.206989700     0.8010348    0.3329498  
   0.208989600     0.8406672    0.2107352  
   0.210989500     0.8621223    0.0831119  
   0.212989400     0.8641909   -0.0465425  
   0.214989300     0.8468297   -0.1754623  
   0.216989200     0.8106174   -0.2998327  
   0.218989100     0.7559322   -0.4172731  
   0.220989000     0.6842492   -0.5256492  
   0.222988900     0.5966257   -0.6222806  
   0.224988800     0.4955569   -0.7045847  
   0.226988700     0.3835732   -0.7703592  
   0.228988600     0.2633500   -0.8183098  
   0.230988500     0.1377055   -0.8477421  
   0.232988400     0.0093986   -0.8578229  
   0.234988300    -0.1194855   -0.8482254  
   0.236988200    -0.2451119   -0.8195345  
   0.238988100    -0.3646476   -0.7725764  
   0.240988000    -0.4750264   -0.7085994  
   0.242987900    -0.5739422   -0.6292844  
   0.244987800    -0.6596509   -0.5363539  
   0.246987700    -0.7306179   -0.4316566  
   0.248987600    -0.7849641   -0.3176062  
   0.250987500    -0.8220471   -0.1968679  
   0.252987400    -0.8402932   -0.0728477  
   0.254987300    -0.8399776    0.0517857  
   0.256987200    -0.8215794    0.1744273  
   0.258987100    -0.7852286    0.2927478  
   0.260987000    -0.7319129    0.4044684  
   0.262986900    -0.6626545    0.5075607  
   0.264986800    -0.5787076    0.5992466  
   0.266986700    -0.4822081    0.6774561  
   0.268986600    -0.3756334    0.7405911  
   0.270986500    -0.2614369    0.7871646  
   0.272986400    -0.1417327    0.8161132  
   0.274986300    -0.0190879    0.8273513  
   0.276986200     0.1041461    0.8203914  
   0.278986100     0.2257546    0.7954424  
   0.280986000     0.3426074    0.7524925  
   0.282985900     0.4521685    0.6923552  
   0.284985800     0.5520128    0.6164364  
   0.286985700     0.6392172    0.5264835  
   0.288985600     0.7118003    0.4248708  
   0.290985500     0.7681316    0.3139969  
   0.292985400     0.8075684    0.1958857  
   0.294985300     0.8292805    0.0729265  
   0.296985200     0.8320915   -0.0524362  
   0.298985100     0.8163331   -0.1778401  
   0.300985000     0.7815533   -0.2995876  
   0.302984900     0.7290763   -0.4148408  
   0.304984800     0.6597290   -0.5206721  
   0.306984700     0.5756861   -0.6146978  
   0.308984600     0.4789498   -0.6946654  
   0.310984500     0.3721488   -0.7589555  
   0.312984400     0.2572548   -0.8068372  
   0.314984300     0.1367452   -0.8369478  
   0.316984200     0.0135459   -0.8490512  
   0.318984100    -0.1108229   -0.8427851  
   0.320984000    -0.2330789   -0.8180081  
   0.322983900    -0.3504965   -0.7756996  
   0.324983800    -0.4599441   -0.7164577  
   0.326983700    -0.5589305   -0.6421275  
   0.328983600    -0.6459562   -0.5543945  
   0.330983500    -0.7186459   -0.4554899  
   0.332983400    -0.7753936   -0.3479617  
   0.334983300    -0.8167873   -0.2341944  
   0.336983200    -0.8406491   -0.1156266  
   0.338983100    -0.8472423    0.0048957  
   0.340983000    -0.8365648    0.1244841  
   0.342982900    -0.8090824    0.2411492  
   0.344982800    -0.7648506    0.3532102  
   0.346982700    -0.7045149    0.4583673  
   0.348982600    -0.6293668    0.5538325  
   0.350982500    -0.5416290    0.6373364  
   0.352982400    -0.4421987    0.7074391  
   0.354982300    -0.3282037    0.7642816  
   0.356982200    -0.1927490    0.8058835  
   0.358982100    -0.0531849    0.8237879  
   0.360982000     0.0870521    0.8184261  
   0.362981900     0.2239731    0.7891135  
   0.364981800     0.3543888    0.7374044  
   0.366981700     0.4742857    0.6642491  
   0.368981600     0.5801817    0.5720218  
   0.370981500     0.6693070    0.4627638  
   0.372981400     0.7386544    0.3392280  
   0.374981300     0.7857312    0.2049508  
   0.376981200     0.7434429    0.3162776  
   0.378981100     0.7865269    0.1792139  
   0.380981000     0.8052654    0.0366409  
   0.382980900     0.7997851   -0.0947013  
   0.384980800     0.7747024   -0.2177381  
   0.386980700     0.7309228   -0.3357242  
   0.388980600     0.6694505   -0.4454230  
   0.390980500     0.5919803   -0.5438594  
   0.392980400     0.5009432   -0.6290284  
   0.394980300     0.3987329   -0.6986067  
   0.396980200     0.2878436   -0.7517576  
   0.398980100     0.1700280   -0.7876128  
   0.400980000     0.0491877   -0.8050778  
   0.402979900    -0.0728732   -0.8047014  
   0.404979800    -0.1924757   -0.7858862  
   0.406979700    -0.3071797   -0.7495831  
   0.408979600    -0.4147514   -0.6973283  
   0.410979500    -0.5135643   -0.6295753  
   0.412979400    -0.6015244   -0.5482169  
   0.414979300    -0.6763711   -0.4551404  
   0.416979200    -0.7361622   -0.3526046  
   0.418979100    -0.7806088   -0.2432580  
   0.420979000    -0.8086363   -0.1286573  
   0.422978900    -0.8199365   -0.0120939  
   0.424978800    -0.8144164    0.1051167  
   0.426978700    -0.7920682    0.2203019  
   0.428978600    -0.7537935    0.3305075  
   0.430978500    -0.7005898    0.4337946  
   0.432978400    -0.6336811    0.5278291  
   0.434978300    -0.5546350    0.6111888  
   0.436978200    -0.4643655    0.6824177  
   0.438978100    -0.3654609    0.7405232  
   0.440978000    -0.2588876    0.7845201  
   0.442977900    -0.1474987    0.8131117  
   0.444977800    -0.0328907    0.8259649  
   0.446977700     0.0826509    0.8221772  
   0.448977600     0.1966562    0.8025122  
   0.450977500     0.3071532    0.7667898  
   0.452977400     0.4121931    0.7150428  
   0.454977300     0.5097307    0.6482798  
   0.456977200     0.5973011    0.5673491  
   0.458977100     0.6723593    0.4740959  
   0.460977000     0.7333506    0.3703904  
   0.462976900     0.7785453    0.2587890  
   0.464976800     0.8066484    0.1406860  
   0.466976700     0.8172395    0.0195948  
   0.468976600     0.8092615   -0.1024491  
   0.470976500     0.7833074   -0.2225082  
   0.472976400     0.7389984   -0.3376195  
   0.474976300     0.6778948   -0.4445390  
   0.476976200     0.6010965   -0.5414641  
   0.478976100     0.5104843   -0.6251953  
   0.480976000     0.4086753   -0.6937138  
   0.482975900     0.2981834   -0.7460594  
   0.484975800     0.1809440   -0.7808973  
   0.486975700     0.0600169   -0.7976045  
   0.488975600    -0.0622481   -0.7958388  
   0.490975500    -0.1824445   -0.7756256  
   0.492975400    -0.2980695   -0.7375921  
   0.494975300    -0.4066306   -0.6822660  
   0.496975200    -0.5048993   -0.6116234  
   0.498975100    -0.5913460   -0.5271379  
   0.500975000    -0.6635842   -0.4309947  
   0.502974900    -0.7202647   -0.3257896  
   0.504974800    -0.7605371   -0.2136840  
   0.506974700    -0.7836773   -0.0966800  
   0.508974600    -0.7889470    0.0227326  
   0.510974500    -0.7760904    0.1409806  
   0.512974400    -0.7460286    0.2559281  
   0.514974300    -0.7000384    0.3637854  
   0.516974200    -0.6383951    0.4633781  
   0.518974100    -0.5632981    0.5522317  
   0.520974000    -0.4762334    0.6290495  
   0.522973900    -0.3795205    0.6920547  
   0.524973800    -0.2748549    0.7402157  
   0.526973700    -0.1641108    0.7725558  
   0.528973600    -0.0503679    0.7888222  
   0.530973500     0.0649194    0.7879182  
   0.532973400     0.1787393    0.7704675  
   0.534973300     0.2889561    0.7369549  
   0.536973200     0.3930380    0.6873647  
   0.538973100     0.4886967    0.6234821  
   0.540973000     0.5738423    0.5469967  
   0.542972900     0.6475309    0.4587102  
   0.544972800     0.7075114    0.3605334  
   0.546972700     0.7527459    0.2542638  
   0.548972600     0.7825954    0.1420115  
   0.550972500     0.7955635    0.0263877  
   0.552972400     0.7914162   -0.0904288  
   0.554972300     0.7702020   -0.2056571  
   0.556972200     0.7321485   -0.3172466  
   0.558972100     0.6779895   -0.4221479  
   0.560972000     0.6091614   -0.5178552  
   0.562971900     0.5270220   -0.6018734  
   0.564971800     0.4335526   -0.6734037  
   0.566971700     0.3310068   -0.7299173  
   0.568971600     0.2212866   -0.7708684  
   0.570971500     0.1070830   -0.7956297  
   0.572971400    -0.0099324   -0.8030353  
   0.574971300    -0.1270608   -0.7937436  
   0.576971200    -0.2420055   -0.7670707  
   0.578971100    -0.3517946   -0.7236056  
   0.580971000    -0.4538846   -0.6648218  
   0.582970900    -0.5458463   -0.5918544  
   0.584970800    -0.6259949   -0.5066139  
   0.586970700    -0.6924296   -0.4111934  
   0.588970600    -0.7444274   -0.3075758  
   0.590970500    -0.7805893   -0.1977276  
   0.592970400    -0.8004323   -0.0839166  
   0.594970300    -0.8037328    0.0312757  
   0.596970200    -0.7904671    0.1456265  
   0.598970100    -0.7609966    0.2567569  
   0.600970000    -0.7155340    0.3624974  
   0.602969900    -0.6556673    0.4602107  
   0.604969800    -0.5818485    0.5487674  
   0.606969700    -0.4961579    0.6255885  
   0.608969600    -0.3993580    0.6894751  
   0.610969500    -0.2945776    0.7382754  
   0.612969400    -0.1835363    0.7711264  
   0.614969300    -0.0690274    0.7877278  
   0.616969200     0.0464160    0.7868850  
   0.618969100     0.1603209    0.7694794  
   0.620969000     0.2700540    0.7355830  
   0.622968900     0.3737939    0.6860390  
   0.624968800     0.4698303    0.6210909  
   0.626968700     0.5550651    0.5422294  
   0.628968600     0.6282967    0.4512053  
   0.630968500     0.6872647    0.3499793  
   0.632968400     0.7306393    0.2404637  
   0.634968300     0.7563620    0.1254344  
   0.636968200     0.7644259    0.0075950  
   0.638968100     0.7547396   -0.1101945  
   0.640968000     0.7268264   -0.2254995  
   0.642967900     0.6814733   -0.3351534  
   0.644967800     0.6200153   -0.4367931  
   0.646967700     0.5434785   -0.5276510  
   0.648967600     0.4543870   -0.6050986  
   0.650967500     0.3549474   -0.6678529  
   0.652967400     0.2472041   -0.7140206  
   0.654967300     0.1341552   -0.7437271  
   0.656967200     0.0182975   -0.7558658  
   0.658967100    -0.0976093   -0.7503803  
   0.660967000    -0.2115462   -0.7273259  
   0.662966900    -0.3207323   -0.6876196  
   0.664966800    -0.4229363   -0.6318991  
   0.666966700    -0.5153537   -0.5612226  
   0.668966600    -0.5956433   -0.4779336  
   0.670966500    -0.6625017   -0.3835980  
   0.672966400    -0.7138242   -0.2809143  
   0.674966300    -0.7496365   -0.1724060  
   0.676966200    -0.7684582   -0.0603017  
   0.678966100    -0.7709285    0.0525822  
   0.680966000    -0.7567579    0.1644565  
   0.682965900    -0.7267053    0.2724636  
   0.684965800    -0.6816312    0.3745694  
   0.686965700    -0.6221129    0.4693052  
   0.688965600    -0.5497535    0.5538933  
   0.690965500    -0.4662265    0.6275269  
   0.692965400    -0.3728731    0.6881014  
   0.694965300    -0.2723275    0.7350118  
   0.696965200    -0.1659873    0.7665833  
   0.698965100    -0.0557901    0.7831016  
   0.700965000     0.0553994    0.7835422  
   0.702964900     0.1663761    0.7680783  
   0.704964800     0.2741454    0.7367032  
   0.706964700     0.3766955    0.6898269  
   0.708964600     0.4722025    0.6279092  
   0.710964500     0.5582299    0.5525821  
   0.712964400     0.6324065    0.4650035  
   0.714964300     0.6934875    0.3671205  
   0.716964200     0.7392237    0.2611553  
   0.718964100     0.7686417    0.1496656  
   0.720964000     0.7811500    0.0353283  
   0.722963900     0.7766811   -0.0798972  
   0.724963800     0.7549925   -0.1930072  
   0.726963700     0.7168881   -0.3023750  
   0.728963600     0.6628028   -0.4049222  
   0.730963500     0.5938158   -0.4985917  
   0.732963400     0.5114257   -0.5811905  
   0.734963300     0.4172256   -0.6505569  
   0.736963200     0.2978758   -0.7124549  
   0.738963100     0.1687360   -0.7522975  
   0.740963000     0.0351618   -0.7685339  
   0.742962900    -0.0991712   -0.7611118  
   0.744962800    -0.2295487   -0.7299172  
   0.746962700    -0.3517916   -0.6764097  
   0.748962600    -0.4623041   -0.6025034  
   0.750962500    -0.3817554   -0.6626516  
   0.752962400    -0.4899789   -0.5855173  
   0.754962300    -0.5824410   -0.4907521  
   0.756962200    -0.6566049   -0.3820520  
   0.758962100    -0.7103210   -0.2628362  
   0.760962000    -0.7423388   -0.1366705  
   0.762961900    -0.7525110   -0.0135856  
   0.764961800    -0.7448291    0.0982749  
   0.766961700    -0.7207792    0.2070092  
   0.768961600    -0.6814951    0.3104707  
   0.770961500    -0.6274918    0.4064470  
   0.772961400    -0.5607150    0.4927990  
   0.774961300    -0.4824815    0.5682932  
   0.776961200    -0.3944172    0.6316646  
   0.778961100    -0.2983002    0.6810632  
   0.780961000    -0.1957348    0.7165001  
   0.782960900    -0.0895136    0.7365556  
   0.784960800     0.0196957    0.7413005  
   0.786960700     0.1281214    0.7299939  
   0.788960600     0.2342259    0.7028970  
   0.790960500     0.3358890    0.6612505  
   0.792960400     0.4302140    0.6047505  
   0.794960300     0.5151731    0.5352373  
   0.796960200     0.5891685    0.4535256  
   0.798960100     0.6508121    0.3620186  
   0.800960000     0.6980479    0.2624501  
   0.802959900     0.7309496    0.1562672  
   0.804959800     0.7473248    0.0466962  
   0.806959700     0.7478051   -0.0646504  
   0.808959600     0.7314900   -0.1753814  
   0.810959500     0.6995866   -0.2824931  
   0.812959400     0.6512910   -0.3843386  
   0.814959300     0.5883371   -0.4784725  
   0.816959200     0.5119689   -0.5620521  
   0.818959100     0.4240017   -0.6335595  
   0.820959000     0.3254165   -0.6913198  
   0.822958900     0.2195116   -0.7338792  
   0.824958800     0.1083163   -0.7599583  
   0.826958700    -0.0056952   -0.7691433  
   0.828958600    -0.1199171   -0.7609922  
   0.830958500    -0.2312783   -0.7360442  
   0.832958400    -0.3373671   -0.6946540  
   0.834958300    -0.4358628   -0.6383195  
   0.836958200    -0.5244463   -0.5680201  
   0.838958100    -0.6016576   -0.4858916  
   0.840958000    -0.6655919   -0.3933706  
   0.842957900    -0.7150961   -0.2926939  
   0.844957800    -0.7495176   -0.1863066  
   0.846957700    -0.7675311   -0.0760717  
   0.848957600    -0.7692453    0.0350628  
   0.850957500    -0.7547584    0.1453307  
   0.852957400    -0.7245666    0.2521392  
   0.854957300    -0.6789904    0.3529937  
   0.856957200    -0.6194777    0.4459872  
   0.858957100    -0.5475985    0.5287836  
   0.860957000    -0.4644879    0.6000271  
   0.862956900    -0.3729845    0.6578372  
   0.864956800    -0.2744356    0.7018645  
   0.866956700    -0.1712515    0.7311257  
   0.868956600    -0.0648393    0.7454649  
   0.870956500     0.0423679    0.7445300  
   0.872956400     0.1488531    0.7278956  
   0.874956300     0.2522804    0.6960661  
   0.876956200     0.3506490    0.6492839  
   0.878956100     0.4416590    0.5880868  
   0.880956000     0.5231302    0.5140460  
   0.882955900     0.5934383    0.4281378  
   0.884955800     0.6500347    0.3321334  
   0.886955700     0.6915876    0.2280625  
   0.888955600     0.7171576    0.1188109  
   0.890955500     0.7258007    0.0064946  
   0.892955400     0.7172990   -0.1060956  
   0.894955300     0.6911994   -0.2166657  
