! MS46122B
! 2250307/22442219
! 6/13/2025 8:39:48 AM
! C:\USERS\SPARKY\DOCUMENTS\VNA_DATA\JUNE13_2025\ECAL_LOAD_B.S1P
! CHANNEL.1
! TR.MEASUREMENT
! RAW.DATA
# GHZ S RI R 50.0
! FREQ.GHZ         S11RE         S11IM         
!; PortSelection: Port_1
   0.001000000     0.0213141    0.0070291  
   0.002999900     0.0071949    0.0563800  
   0.004999800     0.0061755    0.0631534  
   0.006999700     0.0068039    0.0596723  
   0.008999600     0.0077978    0.0520521  
   0.010999500     0.0091014    0.0426982  
   0.012999400     0.0108684    0.0327154  
   0.014999300     0.0130011    0.0227923  
   0.016999200     0.0155070    0.0133396  
   0.018999100     0.0181695    0.0045448  
   0.020999000     0.0207890   -0.0033976  
   0.022998900     0.0232151   -0.0104955  
   0.024998800     0.0227277   -0.0151589  
   0.026998700     0.0267307   -0.0221152  
   0.028998600     0.0275316   -0.0267328  
   0.030998500     0.0276074   -0.0305923  
   0.032998400     0.0248020   -0.0322124  
   0.034998300     0.0256257   -0.0366249  
   0.036998200     0.0237282   -0.0388413  
   0.038998100     0.0212164   -0.0406951  
   0.040998000     0.0182692   -0.0421443  
   0.042997900     0.0149253   -0.0431856  
   0.044997800     0.0097341   -0.0422501  
   0.046997700     0.0073788   -0.0441229  
   0.048997600     0.0033859   -0.0441207  
   0.050997500    -0.0006421   -0.0438016  
   0.052997400    -0.0045525   -0.0430734  
   0.054997300    -0.0084910   -0.0424695  
   0.056997200    -0.0120924   -0.0414538  
   0.058997100    -0.0154658   -0.0403597  
   0.060997000    -0.0186029   -0.0390796  
   0.062996900    -0.0214739   -0.0377077  
   0.064996800    -0.0241375   -0.0363681  
   0.066996700    -0.0264804   -0.0349710  
   0.068996600    -0.0285753   -0.0333916  
   0.070996500    -0.0303937   -0.0316952  
   0.072996400    -0.0319949   -0.0299040  
   0.074996300    -0.0333255   -0.0279348  
   0.076996200    -0.0344747   -0.0259842  
   0.078996100    -0.0354050   -0.0239335  
   0.080996000    -0.0361208   -0.0218382  
   0.082995900    -0.0366598   -0.0196873  
   0.084995800    -0.0370484   -0.0174903  
   0.086995700    -0.0372572   -0.0153072  
   0.088995600    -0.0373406   -0.0130837  
   0.090995500    -0.0372982   -0.0109596  
   0.092995400    -0.0371029   -0.0088784  
   0.094995300    -0.0367557   -0.0068331  
   0.096995200    -0.0362235   -0.0048825  
   0.098995100    -0.0355807   -0.0030379  
   0.100995000    -0.0348642   -0.0013031  
   0.102994900    -0.0339777    0.0002959  
   0.104994800    -0.0330044    0.0017487  
   0.106994700    -0.0319379    0.0030357  
   0.108994600    -0.0307885    0.0041417  
   0.110994500    -0.0295641    0.0050992  
   0.112994400    -0.0282520    0.0058274  
   0.114994300    -0.0269414    0.0064181  
   0.116994200    -0.0256117    0.0068302  
   0.118994100    -0.0242865    0.0070425  
   0.120994000    -0.0229970    0.0070694  
   0.122993900    -0.0217775    0.0069340  
   0.124993800    -0.0205878    0.0066331  
   0.126993700    -0.0195089    0.0062057  
   0.128993600    -0.0186117    0.0056254  
   0.130993500    -0.0178181    0.0049323  
   0.132993400    -0.0171863    0.0041177  
   0.134993300    -0.0167421    0.0032588  
   0.136993200    -0.0164880    0.0023013  
   0.138993100    -0.0164102    0.0013708  
   0.140993000    -0.0165693    0.0004236  
   0.142992900    -0.0169216   -0.0004937  
   0.144992800    -0.0175140   -0.0013801  
   0.146992700    -0.0182714   -0.0021388  
   0.148992600    -0.0192045   -0.0027811  
   0.150992500    -0.0203320   -0.0033060  
   0.152992400    -0.0215638   -0.0035885  
   0.154992300    -0.0229788   -0.0037192  
   0.156992200    -0.0244979   -0.0036302  
   0.158992100    -0.0260479   -0.0032614  
   0.160992000    -0.0276734   -0.0026905  
   0.162991900    -0.0292767   -0.0017854  
   0.164991800    -0.0308072   -0.0006711  
   0.166991700    -0.0323108    0.0007895  
   0.168991600    -0.0336617    0.0024916  
   0.170991500    -0.0348477    0.0044448  
   0.172991400    -0.0357815    0.0066797  
   0.174991300    -0.0365744    0.0091107  
   0.176991200    -0.0370255    0.0117238  
   0.178991100    -0.0371916    0.0145078  
   0.180991000    -0.0370089    0.0174122  
   0.182990900    -0.0365090    0.0203716  
   0.184990800    -0.0356053    0.0234054  
   0.186990700    -0.0342902    0.0264468  
   0.188990600    -0.0341185    0.0288009  
   0.190990500    -0.0308804    0.0323619  
   0.192990400    -0.0281661    0.0350969  
   0.194990300    -0.0252985    0.0375302  
   0.196990200    -0.0221586    0.0396111  
   0.198990100    -0.0187400    0.0414104  
   0.200990000    -0.0149925    0.0428068  
   0.202989900    -0.0109130    0.0437948  
   0.204989800    -0.0066430    0.0443315  
   0.206989700    -0.0023745    0.0444129  
   0.208989600     0.0018802    0.0440205  
   0.210989500     0.0062249    0.0431052  
   0.212989400     0.0105213    0.0417243  
   0.214989300     0.0146849    0.0398990  
   0.216989200     0.0185778    0.0375899  
   0.218989100     0.0222108    0.0346803  
   0.220989000     0.0255892    0.0312828  
   0.222988900     0.0286115    0.0276280  
   0.224988800     0.0312052    0.0236285  
   0.226988700     0.0332897    0.0193694  
   0.228988600     0.0348381    0.0148858  
   0.230988500     0.0358354    0.0102550  
   0.232988400     0.0363280    0.0054867  
   0.234988300     0.0362479    0.0007281  
   0.236988200     0.0356564   -0.0040052  
   0.238988100     0.0344733   -0.0086134  
   0.240988000     0.0327438   -0.0130089  
   0.242987900     0.0305122   -0.0171409  
   0.244987800     0.0277976   -0.0209713  
   0.246987700     0.0246786   -0.0243937  
   0.248987600     0.0212022   -0.0273882  
   0.250987500     0.0174110   -0.0299234  
   0.252987400     0.0133894   -0.0319057  
   0.254987300     0.0092262   -0.0333933  
   0.256987200     0.0049338   -0.0342903  
   0.258987100     0.0006911   -0.0346594  
   0.260987000    -0.0034914   -0.0344639  
   0.262986900    -0.0075636   -0.0337043  
   0.264986800    -0.0113806   -0.0324325  
   0.266986700    -0.0149501   -0.0306629  
   0.268986600    -0.0181494   -0.0284749  
   0.270986500    -0.0209248   -0.0259952  
   0.272986400    -0.0233191   -0.0231927  
   0.274986300    -0.0252212   -0.0201631  
   0.276986200    -0.0266131   -0.0169740  
   0.278986100    -0.0274752   -0.0136556  
   0.280986000    -0.0277986   -0.0103031  
   0.282985900    -0.0276123   -0.0070167  
   0.284985800    -0.0269244   -0.0038285  
   0.286985700    -0.0258128   -0.0008959  
   0.288985600    -0.0242474    0.0017145  
   0.290985500    -0.0223543    0.0039904  
   0.292985400    -0.0201417    0.0058122  
   0.294985300    -0.0176714    0.0071791  
   0.296985200    -0.0150136    0.0080995  
   0.298985100    -0.0122085    0.0086025  
   0.300985000    -0.0093973    0.0086419  
   0.302984900    -0.0066146    0.0081500  
   0.304984800    -0.0040187    0.0071525  
   0.306984700    -0.0015584    0.0056511  
   0.308984600     0.0005774    0.0037149  
   0.310984500     0.0023432    0.0013616  
   0.312984400     0.0037448   -0.0013144  
   0.314984300     0.0046884   -0.0042595  
   0.316984200     0.0051625   -0.0074535  
   0.318984100     0.0051185   -0.0107021  
   0.320984000     0.0045891   -0.0139637  
   0.322983900     0.0034542   -0.0171166  
   0.324983800     0.0018241   -0.0201866  
   0.326983700    -0.0003368   -0.0230193  
   0.328983600    -0.0029683   -0.0255965  
   0.330983500    -0.0060697   -0.0278050  
   0.332983400    -0.0094799   -0.0296608  
   0.334983300    -0.0132375   -0.0310282  
   0.336983200    -0.0172164   -0.0318955  
   0.338983100    -0.0214263   -0.0321849  
   0.340983000    -0.0256455   -0.0319247  
   0.342982900    -0.0299204   -0.0310841  
   0.344982800    -0.0341681   -0.0295927  
   0.346982700    -0.0382226   -0.0274402  
   0.348982600    -0.0420455   -0.0246970  
   0.350982500    -0.0455211   -0.0214634  
   0.352982400    -0.0486495   -0.0177213  
   0.354982300    -0.0512810   -0.0132476  
   0.356982200    -0.0532638   -0.0075306  
   0.358982100    -0.0543679   -0.0015441  
   0.360982000    -0.0545891    0.0044866  
   0.362981900    -0.0539324    0.0104531  
   0.364981800    -0.0523946    0.0163711  
   0.366981700    -0.0499776    0.0219309  
   0.368981600    -0.0467927    0.0271457  
   0.370981500    -0.0428451    0.0317438  
   0.372981400    -0.0382879    0.0356990  
   0.374981300    -0.0332385    0.0390080  
   0.376981200    -0.0420630    0.0318033  
   0.378981100    -0.0371316    0.0352628  
   0.380981000    -0.0317857    0.0378427  
   0.382980900    -0.0269915    0.0392533  
   0.384980800    -0.0223969    0.0398505  
   0.386980700    -0.0179170    0.0397839  
   0.388980600    -0.0135842    0.0389902  
   0.390980500    -0.0095470    0.0375759  
   0.392980400    -0.0058420    0.0355226  
   0.394980300    -0.0025370    0.0329088  
   0.396980200     0.0002425    0.0298327  
   0.398980100     0.0024911    0.0263788  
   0.400980000     0.0041255    0.0226634  
   0.402979900     0.0050964    0.0187557  
   0.404979800     0.0054662    0.0147776  
   0.406979700     0.0051365    0.0107883  
   0.408979600     0.0041751    0.0069389  
   0.410979500     0.0025472    0.0033763  
   0.412979400     0.0002891    0.0001109  
   0.414979300    -0.0025577   -0.0026713  
   0.416979200    -0.0058863   -0.0050060  
   0.418979100    -0.0096330   -0.0067269  
   0.420979000    -0.0136784   -0.0078176  
   0.422978900    -0.0179632   -0.0082123  
   0.424978800    -0.0224096   -0.0078407  
   0.426978700    -0.0268353   -0.0067236  
   0.428978600    -0.0311543   -0.0048188  
   0.430978500    -0.0352144   -0.0022664  
   0.432978400    -0.0389426    0.0009755  
   0.434978300    -0.0422006    0.0048585  
   0.436978200    -0.0449321    0.0093322  
   0.438978100    -0.0470657    0.0142827  
   0.440978000    -0.0484640    0.0196470  
   0.442977900    -0.0491043    0.0252961  
   0.444977800    -0.0489430    0.0311258  
   0.446977700    -0.0479586    0.0370580  
   0.448977600    -0.0460901    0.0429166  
   0.450977500    -0.0434142    0.0486708  
   0.452977400    -0.0399011    0.0540934  
   0.454977300    -0.0356178    0.0591599  
   0.456977200    -0.0305717    0.0636710  
   0.458977100    -0.0247991    0.0676159  
   0.460977000    -0.0185287    0.0707081  
   0.462976900    -0.0117486    0.0730337  
   0.464976800    -0.0046284    0.0744510  
   0.466976700     0.0026685    0.0748997  
   0.468976600     0.0101069    0.0743634  
   0.470976500     0.0174566    0.0728865  
   0.472976400     0.0246092    0.0704277  
   0.474976300     0.0314416    0.0670091  
   0.476976200     0.0377396    0.0627028  
   0.478976100     0.0435672    0.0575759  
   0.480976000     0.0486262    0.0518692  
   0.482975900     0.0529293    0.0455508  
   0.484975800     0.0563916    0.0387544  
   0.486975700     0.0588958    0.0315079  
   0.488975600     0.0604553    0.0240341  
   0.490975500     0.0611056    0.0163946  
   0.492975400     0.0607111    0.0087291  
   0.494975300     0.0592896    0.0012633  
   0.496975200     0.0568264   -0.0059383  
   0.498975100     0.0535175   -0.0127418  
   0.500975000     0.0493511   -0.0189631  
   0.502974900     0.0443177   -0.0244068  
   0.504974800     0.0386349   -0.0291001  
   0.506974700     0.0324057   -0.0329683  
   0.508974600     0.0255974   -0.0360034  
   0.510974500     0.0184782   -0.0380001  
   0.512974400     0.0112195   -0.0389006  
   0.514974300     0.0040436   -0.0386665  
   0.516974200    -0.0029049   -0.0375316  
   0.518974100    -0.0094497   -0.0353464  
   0.520974000    -0.0155572   -0.0322456  
   0.522973900    -0.0210228   -0.0282936  
   0.524973800    -0.0257874   -0.0235870  
   0.526973700    -0.0297432   -0.0182805  
   0.528973600    -0.0327696   -0.0124303  
   0.530973500    -0.0348530   -0.0062541  
   0.532973400    -0.0359178    0.0001392  
   0.534973300    -0.0359160    0.0065800  
   0.536973200    -0.0348852    0.0128948  
   0.538973100    -0.0327973    0.0189841  
   0.540973000    -0.0297252    0.0247380  
   0.542972900    -0.0257925    0.0298752  
   0.544972800    -0.0210898    0.0343280  
   0.546972700    -0.0156652    0.0379381  
   0.548972600    -0.0096787    0.0407013  
   0.550972500    -0.0032988    0.0424315  
   0.552972400     0.0034287    0.0430739  
   0.554972300     0.0102238    0.0426231  
   0.556972200     0.0170091    0.0410224  
   0.558972100     0.0235578    0.0383140  
   0.560972000     0.0298804    0.0345808  
   0.562971900     0.0356897    0.0299692  
   0.564971800     0.0406513    0.0243749  
   0.566971700     0.0447814    0.0180302  
   0.568971600     0.0479565    0.0110159  
   0.570971500     0.0500258    0.0033391  
   0.572971400     0.0512042   -0.0048136  
   0.574971300     0.0511026   -0.0131184  
   0.576971200     0.0496582   -0.0215521  
   0.578971100     0.0470137   -0.0299478  
   0.580971000     0.0431334   -0.0380226  
   0.582970900     0.0380497   -0.0455526  
   0.584970800     0.0319187   -0.0524492  
   0.586970700     0.0248057   -0.0585010  
   0.588970600     0.0166147   -0.0636368  
   0.590970500     0.0077966   -0.0676931  
   0.592970400    -0.0016042   -0.0705527  
   0.594970300    -0.0113867   -0.0721420  
   0.596970200    -0.0215791   -0.0723682  
   0.598970100    -0.0318524   -0.0712592  
   0.600970000    -0.0419156   -0.0688532  
   0.602969900    -0.0517007   -0.0650952  
   0.604969800    -0.0610123   -0.0600105  
   0.606969700    -0.0696827   -0.0537593  
   0.608969600    -0.0775919   -0.0463595  
   0.610969500    -0.0844437   -0.0379336  
   0.612969400    -0.0901368   -0.0285949  
   0.614969300    -0.0946052   -0.0185586  
   0.616969200    -0.0977361   -0.0078801  
   0.618969100    -0.0994182    0.0030756  
   0.620969000    -0.0997211    0.0141615  
   0.622968900    -0.0985817    0.0251546  
   0.624968800    -0.0960778    0.0358966  
   0.626968700    -0.0921923    0.0462750  
   0.628968600    -0.0869266    0.0559642  
   0.630968500    -0.0804879    0.0649083  
   0.632968400    -0.0729262    0.0729171  
   0.634968300    -0.0644399    0.0800377  
   0.636968200    -0.0551162    0.0857326  
   0.638968100    -0.0450862    0.0902371  
   0.640968000    -0.0347357    0.0932196  
   0.642967900    -0.0241443    0.0947731  
   0.644967800    -0.0135915    0.0948494  
   0.646967700    -0.0031664    0.0935106  
   0.648967600     0.0069170    0.0909079  
   0.650967500     0.0164791    0.0869723  
   0.652967400     0.0250611    0.0818590  
   0.654967300     0.0327986    0.0755336  
   0.656967200     0.0394842    0.0683788  
   0.658967100     0.0449884    0.0605966  
   0.660967000     0.0492815    0.0520678  
   0.662966900     0.0523282    0.0430660  
   0.664966800     0.0541410    0.0336022  
   0.666966700     0.0545665    0.0241015  
   0.668966600     0.0535749    0.0147532  
   0.670966500     0.0512889    0.0057129  
   0.672966400     0.0478791   -0.0028913  
   0.674966300     0.0431313   -0.0109010  
   0.676966200     0.0372546   -0.0177096  
   0.678966100     0.0307138   -0.0234035  
   0.680966000     0.0230957   -0.0280114  
   0.682965900     0.0151780   -0.0313709  
   0.684965800     0.0067494   -0.0334800  
   0.686965700    -0.0018096   -0.0343037  
   0.688965600    -0.0103068   -0.0337686  
   0.690965500    -0.0185223   -0.0318520  
   0.692965400    -0.0263511   -0.0286216  
   0.694965300    -0.0335959   -0.0242791  
   0.696965200    -0.0400222   -0.0188209  
   0.698965100    -0.0455386   -0.0124468  
   0.700965000    -0.0499917   -0.0052987  
   0.702964900    -0.0532994    0.0024640  
   0.704964800    -0.0553344    0.0107390  
   0.706964700    -0.0560957    0.0193151  
   0.708964600    -0.0554913    0.0280225  
   0.710964500    -0.0534736    0.0364457  
   0.712964400    -0.0500264    0.0447311  
   0.714964300    -0.0453915    0.0522772  
   0.716964200    -0.0397146    0.0591198  
   0.718964100    -0.0331652    0.0651608  
   0.720964000    -0.0257311    0.0701458  
   0.722963900    -0.0177036    0.0741229  
   0.724963800    -0.0089759    0.0768835  
   0.726963700     0.0001950    0.0784462  
   0.728963600     0.0093658    0.0786147  
   0.730963500     0.0185707    0.0774048  
   0.732963400     0.0276023    0.0748781  
   0.734963300     0.0363253    0.0710376  
   0.736963200     0.0469591    0.0644566  
   0.738963100     0.0566052    0.0563591  
   0.740963000     0.0650229    0.0467029  
   0.742962900     0.0720275    0.0359491  
   0.744962800     0.0772179    0.0242264  
   0.746962700     0.0805744    0.0120954  
   0.748962600     0.0820161   -0.0002741  
   0.750962500     0.0648549    0.0180470  
   0.752962400     0.0665453    0.0059868  
   0.754962300     0.0663293   -0.0059497  
   0.756962200     0.0641537   -0.0174059  
   0.758962100     0.0602709   -0.0284334  
   0.760962000     0.0547984   -0.0382663  
   0.762961900     0.0478511   -0.0462425  
   0.764961800     0.0399574   -0.0521084  
   0.766961700     0.0311728   -0.0569319  
   0.768961600     0.0220631   -0.0602718  
   0.770961500     0.0125406   -0.0622234  
   0.772961400     0.0029457   -0.0628664  
   0.774961300    -0.0066404   -0.0621651  
   0.776961200    -0.0159261   -0.0601157  
   0.778961100    -0.0247660   -0.0568391  
   0.780961000    -0.0329516   -0.0523741  
   0.782960900    -0.0403063   -0.0468630  
   0.784960800    -0.0466591   -0.0403583  
   0.786960700    -0.0518798   -0.0330789  
   0.788960600    -0.0558683   -0.0251191  
   0.790960500    -0.0586889   -0.0166250  
   0.792960400    -0.0600753   -0.0078739  
   0.794960300    -0.0601861    0.0007925  
   0.796960200    -0.0589812    0.0093141  
   0.798960100    -0.0564786    0.0175161  
   0.800960000    -0.0527720    0.0253723  
   0.802959900    -0.0480792    0.0322816  
   0.804959800    -0.0423572    0.0383014  
   0.806959700    -0.0358768    0.0433314  
   0.808959600    -0.0287346    0.0472679  
   0.810959500    -0.0211593    0.0499805  
   0.812959400    -0.0131316    0.0514326  
   0.814959300    -0.0050189    0.0516347  
   0.816959200     0.0029832    0.0505047  
   0.818959100     0.0107599    0.0480968  
   0.820959000     0.0181676    0.0444974  
   0.822958900     0.0250275    0.0397866  
   0.824958800     0.0310885    0.0340706  
   0.826958700     0.0363689    0.0272112  
   0.828958600     0.0404478    0.0196727  
   0.830958500     0.0432024    0.0114985  
   0.832958400     0.0446951    0.0028994  
   0.834958300     0.0448268   -0.0059155  
   0.836958200     0.0436467   -0.0147923  
   0.838958100     0.0411863   -0.0234735  
   0.840958000     0.0374687   -0.0317017  
   0.842957900     0.0324454   -0.0393353  
   0.844957800     0.0263123   -0.0462891  
   0.846957700     0.0191340   -0.0522615  
   0.848957600     0.0110557   -0.0571665  
   0.850957500     0.0023308   -0.0609005  
   0.852957400    -0.0069608   -0.0633405  
   0.854957300    -0.0166056   -0.0644089  
   0.856957200    -0.0263745   -0.0640980  
   0.858957100    -0.0361511   -0.0623124  
   0.860957000    -0.0456108   -0.0592683  
   0.862956900    -0.0547721   -0.0548834  
   0.864956800    -0.0632960   -0.0493575  
   0.866956700    -0.0709229   -0.0427482  
   0.868956600    -0.0776637   -0.0350781  
   0.870956500    -0.0832856   -0.0267009  
   0.872956400    -0.0876303   -0.0176421  
   0.874956300    -0.0907159   -0.0080757  
   0.876956200    -0.0923455    0.0018214  
   0.878956100    -0.0925595    0.0118652  
   0.880956000    -0.0913180    0.0219070  
   0.882955900    -0.0886877    0.0316173  
   0.884955800    -0.0847309    0.0410387  
   0.886955700    -0.0795599    0.0496829  
   0.888955600    -0.0732349    0.0574556  
   0.890955500    -0.0659232    0.0641685  
   0.892955400    -0.0577422    0.0697828  
   0.894955300    -0.0489955    0.0741150  
