! MS46122B
! 2250307/22442219
! 6/15/2025 10:56:45 AM
! C:\USERS\SPARKY\DOCUMENTS\VNA_DATA\JUNE15_2025\295K\ECAL_LOAD_D.S1P
! CHANNEL.1
! TR.MEASUREMENT
! RAW.DATA
# GHZ S RI R 50.0
! FREQ.GHZ         S11RE         S11IM         
!; PortSelection: Port_1
   0.001000000     0.0213965    0.0070729  
   0.002999900     0.0072718    0.0563241  
   0.004999800     0.0062159    0.0630306  
   0.006999700     0.0068041    0.0595616  
   0.008999600     0.0077539    0.0519386  
   0.010999500     0.0090700    0.0425800  
   0.012999400     0.0108031    0.0326271  
   0.014999300     0.0129490    0.0226844  
   0.016999200     0.0154051    0.0132357  
   0.018999100     0.0180693    0.0044825  
   0.020999000     0.0206775   -0.0034661  
   0.022998900     0.0230861   -0.0105438  
   0.024998800     0.0225961   -0.0152489  
   0.026998700     0.0265533   -0.0221648  
   0.028998600     0.0273449   -0.0267566  
   0.030998500     0.0274169   -0.0306306  
   0.032998400     0.0245850   -0.0322833  
   0.034998300     0.0254306   -0.0366136  
   0.036998200     0.0234770   -0.0388270  
   0.038998100     0.0209839   -0.0406445  
   0.040998000     0.0180146   -0.0420839  
   0.042997900     0.0146712   -0.0430870  
   0.044997800     0.0095097   -0.0421844  
   0.046997700     0.0071032   -0.0440284  
   0.048997600     0.0031087   -0.0439653  
   0.050997500    -0.0009273   -0.0436503  
   0.052997400    -0.0047389   -0.0429521  
   0.054997300    -0.0088611   -0.0422272  
   0.056997200    -0.0123616   -0.0412260  
   0.058997100    -0.0157075   -0.0400851  
   0.060997000    -0.0188338   -0.0387608  
   0.062996900    -0.0217008   -0.0373898  
   0.064996800    -0.0243001   -0.0360323  
   0.066996700    -0.0266616   -0.0345779  
   0.068996600    -0.0287140   -0.0330033  
   0.070996500    -0.0305245   -0.0312789  
   0.072996400    -0.0320535   -0.0294630  
   0.074996300    -0.0333816   -0.0274920  
   0.076996200    -0.0345133   -0.0255257  
   0.078996100    -0.0353829   -0.0234483  
   0.080996000    -0.0360719   -0.0213777  
   0.082995900    -0.0365628   -0.0192061  
   0.084995800    -0.0369150   -0.0170481  
   0.086995700    -0.0370876   -0.0148563  
   0.088995600    -0.0371484   -0.0126853  
   0.090995500    -0.0370484   -0.0105213  
   0.092995400    -0.0368204   -0.0084517  
   0.094995300    -0.0364119   -0.0064650  
   0.096995200    -0.0359074   -0.0045329  
   0.098995100    -0.0352303   -0.0027111  
   0.100995000    -0.0344786   -0.0010173  
   0.102994900    -0.0335842    0.0005568  
   0.104994800    -0.0325833    0.0019609  
   0.106994700    -0.0315047    0.0031957  
   0.108994600    -0.0303548    0.0042834  
   0.110994500    -0.0291155    0.0051576  
   0.112994400    -0.0278290    0.0059119  
   0.114994300    -0.0265050    0.0064624  
   0.116994200    -0.0251758    0.0068303  
   0.118994100    -0.0238835    0.0069753  
   0.120994000    -0.0226094    0.0069937  
   0.122993900    -0.0213629    0.0068330  
   0.124993800    -0.0202180    0.0064920  
   0.126993700    -0.0191698    0.0060144  
   0.128993600    -0.0182911    0.0054200  
   0.130993500    -0.0175263    0.0046972  
   0.132993400    -0.0169231    0.0038848  
   0.134993300    -0.0165130    0.0030018  
   0.136993200    -0.0162819    0.0020766  
   0.138993100    -0.0162394    0.0011064  
   0.140993000    -0.0164305    0.0001247  
   0.142992900    -0.0168001   -0.0007684  
   0.144992800    -0.0174357   -0.0016195  
   0.146992700    -0.0182002   -0.0023993  
   0.148992600    -0.0191601   -0.0030614  
   0.150992500    -0.0202995   -0.0035449  
   0.152992400    -0.0215799   -0.0038567  
   0.154992300    -0.0230078   -0.0039589  
   0.156992200    -0.0245182   -0.0038565  
   0.158992100    -0.0260882   -0.0035051  
   0.160992000    -0.0276932   -0.0028701  
   0.162991900    -0.0293326   -0.0020077  
   0.164991800    -0.0308936   -0.0008319  
   0.166991700    -0.0324108    0.0006086  
   0.168991600    -0.0337618    0.0023094  
   0.170991500    -0.0349282    0.0042869  
   0.172991400    -0.0359007    0.0064989  
   0.174991300    -0.0366585    0.0089293  
   0.176991200    -0.0371375    0.0115791  
   0.178991100    -0.0372833    0.0143475  
   0.180991000    -0.0371301    0.0172398  
   0.182990900    -0.0366273    0.0202192  
   0.184990800    -0.0357535    0.0232712  
   0.186990700    -0.0344142    0.0262831  
   0.188990600    -0.0342592    0.0286309  
   0.190990500    -0.0310361    0.0322096  
   0.192990400    -0.0283458    0.0349448  
   0.194990300    -0.0255162    0.0373497  
   0.196990200    -0.0223695    0.0394555  
   0.198990100    -0.0189844    0.0412336  
   0.200990000    -0.0152567    0.0426687  
   0.202989900    -0.0111518    0.0436442  
   0.204989800    -0.0069361    0.0441981  
   0.206989700    -0.0027080    0.0443065  
   0.208989600     0.0015834    0.0439123  
   0.210989500     0.0058950    0.0430509  
   0.212989400     0.0101478    0.0417357  
   0.214989300     0.0143077    0.0398774  
   0.216989200     0.0182211    0.0376001  
   0.218989100     0.0218134    0.0347484  
   0.220989000     0.0251959    0.0313875  
   0.222988900     0.0282301    0.0277389  
   0.224988800     0.0308178    0.0237924  
   0.226988700     0.0329333    0.0195696  
   0.228988600     0.0344933    0.0151036  
   0.230988500     0.0355200    0.0105076  
   0.232988400     0.0360303    0.0057902  
   0.234988300     0.0359948    0.0010658  
   0.236988200     0.0353820   -0.0036404  
   0.238988100     0.0342560   -0.0082142  
   0.240988000     0.0325782   -0.0125869  
   0.242987900     0.0303705   -0.0167380  
   0.244987800     0.0276914   -0.0205250  
   0.246987700     0.0246554   -0.0239437  
   0.248987600     0.0212285   -0.0269726  
   0.250987500     0.0174774   -0.0294902  
   0.252987400     0.0134913   -0.0314984  
   0.254987300     0.0093456   -0.0329837  
   0.256987200     0.0051206   -0.0339245  
   0.258987100     0.0009213   -0.0343051  
   0.260987000    -0.0032262   -0.0341348  
   0.262986900    -0.0072528   -0.0334510  
   0.264986800    -0.0110528   -0.0321786  
   0.266986700    -0.0145798   -0.0304523  
   0.268986600    -0.0177346   -0.0283355  
   0.270986500    -0.0205362   -0.0258783  
   0.272986400    -0.0228957   -0.0231587  
   0.274986300    -0.0248074   -0.0201713  
   0.276986200    -0.0262019   -0.0170438  
   0.278986100    -0.0270641   -0.0137416  
   0.280986000    -0.0274296   -0.0104369  
   0.282985900    -0.0272765   -0.0071935  
   0.284985800    -0.0266408   -0.0040452  
   0.286985700    -0.0255017   -0.0011357  
   0.288985600    -0.0240002    0.0014441  
   0.290985500    -0.0221347    0.0036514  
   0.292985400    -0.0199362    0.0054543  
   0.294985300    -0.0175353    0.0068378  
   0.296985200    -0.0149145    0.0077243  
   0.298985100    -0.0121775    0.0082479  
   0.300985000    -0.0094148    0.0082783  
   0.302984900    -0.0066373    0.0077989  
   0.304984800    -0.0040573    0.0068247  
   0.306984700    -0.0016535    0.0053522  
   0.308984600     0.0004327    0.0034773  
   0.310984500     0.0021906    0.0010964  
   0.312984400     0.0035599   -0.0015217  
   0.314984300     0.0044903   -0.0044436  
   0.316984200     0.0049613   -0.0075585  
   0.318984100     0.0049286   -0.0108182  
   0.320984000     0.0043603   -0.0140423  
   0.322983900     0.0032654   -0.0171897  
   0.324983800     0.0016335   -0.0201910  
   0.326983700    -0.0005110   -0.0230397  
   0.328983600    -0.0031438   -0.0255620  
   0.330983500    -0.0062025   -0.0277456  
   0.332983400    -0.0096398   -0.0295893  
   0.334983300    -0.0133336   -0.0309131  
   0.336983200    -0.0172769   -0.0317790  
   0.338983100    -0.0214519   -0.0320610  
   0.340983000    -0.0256450   -0.0318153  
   0.342982900    -0.0298796   -0.0309907  
   0.344982800    -0.0341188   -0.0294865  
   0.346982700    -0.0381341   -0.0273736  
   0.348982600    -0.0419173   -0.0246675  
   0.350982500    -0.0453639   -0.0214399  
   0.352982400    -0.0485213   -0.0176954  
   0.354982300    -0.0511519   -0.0132805  
   0.356982200    -0.0530965   -0.0075960  
   0.358982100    -0.0542367   -0.0016597  
   0.360982000    -0.0544566    0.0043518  
   0.362981900    -0.0538284    0.0103474  
   0.364981800    -0.0522844    0.0161700  
   0.366981700    -0.0499075    0.0217364  
   0.368981600    -0.0467461    0.0269094  
   0.370981500    -0.0428455    0.0315067  
   0.372981400    -0.0383344    0.0354540  
   0.374981300    -0.0332417    0.0387379  
   0.376981200    -0.0420842    0.0315557  
   0.378981100    -0.0372025    0.0350137  
   0.380981000    -0.0319156    0.0376352  
   0.382980900    -0.0271404    0.0390822  
   0.384980800    -0.0225881    0.0396768  
   0.386980700    -0.0181516    0.0396359  
   0.388980600    -0.0138416    0.0388953  
   0.390980500    -0.0097971    0.0374933  
   0.392980400    -0.0060975    0.0354775  
   0.394980300    -0.0028344    0.0329062  
   0.396980200    -0.0000439    0.0299467  
   0.398980100     0.0022313    0.0265140  
   0.400980000     0.0038850    0.0228312  
   0.402979900     0.0048791    0.0189803  
   0.404979800     0.0052605    0.0150378  
   0.406979700     0.0049848    0.0111146  
   0.408979600     0.0040416    0.0073136  
   0.410979500     0.0024685    0.0037767  
   0.412979400     0.0002724    0.0005287  
   0.414979300    -0.0025231   -0.0022505  
   0.416979200    -0.0058130   -0.0045212  
   0.418979100    -0.0094807   -0.0062584  
   0.420979000    -0.0134387   -0.0073482  
   0.422978900    -0.0177039   -0.0077449  
   0.424978800    -0.0220314   -0.0073879  
   0.426978700    -0.0264289   -0.0062972  
   0.428978600    -0.0306896   -0.0044792  
   0.430978500    -0.0346812   -0.0019052  
   0.432978400    -0.0383722    0.0012507  
   0.434978300    -0.0415777    0.0050836  
   0.436978200    -0.0442953    0.0095184  
   0.438978100    -0.0463458    0.0143780  
   0.440978000    -0.0477714    0.0196637  
   0.442977900    -0.0483773    0.0252442  
   0.444977800    -0.0482074    0.0310308  
   0.446977700    -0.0472388    0.0368733  
   0.448977600    -0.0453791    0.0426534  
   0.450977500    -0.0427112    0.0483267  
   0.452977400    -0.0392551    0.0536936  
   0.454977300    -0.0350339    0.0586873  
   0.456977200    -0.0300173    0.0631546  
   0.458977100    -0.0243251    0.0670007  
   0.460977000    -0.0181030    0.0700948  
   0.462976900    -0.0113740    0.0723639  
   0.464976800    -0.0043301    0.0737512  
   0.466976700     0.0029002    0.0741928  
   0.468976600     0.0102561    0.0736549  
   0.470976500     0.0175397    0.0721399  
   0.472976400     0.0246019    0.0697307  
   0.474976300     0.0313477    0.0663393  
   0.476976200     0.0376391    0.0620414  
   0.478976100     0.0433410    0.0570064  
   0.480976000     0.0483366    0.0513144  
   0.482975900     0.0526231    0.0450163  
   0.484975800     0.0560302    0.0382868  
   0.486975700     0.0585241    0.0311000  
   0.488975600     0.0600400    0.0236908  
   0.490975500     0.0606773    0.0161134  
   0.492975400     0.0602430    0.0085044  
   0.494975300     0.0587835    0.0011439  
   0.496975200     0.0563691   -0.0060080  
   0.498975100     0.0530403   -0.0127550  
   0.500975000     0.0489093   -0.0188830  
   0.502974900     0.0439231   -0.0242903  
   0.504974800     0.0382459   -0.0289931  
   0.506974700     0.0320705   -0.0327484  
   0.508974600     0.0252695   -0.0357427  
   0.510974500     0.0182327   -0.0377187  
   0.512974400     0.0109989   -0.0385941  
   0.514974300     0.0038505   -0.0383675  
   0.516974200    -0.0030362   -0.0371884  
   0.518974100    -0.0095428   -0.0349822  
   0.520974000    -0.0155758   -0.0319206  
   0.522973900    -0.0210290   -0.0279572  
   0.524973800    -0.0257514   -0.0232441  
   0.526973700    -0.0296469   -0.0179314  
   0.528973600    -0.0326566   -0.0121646  
   0.530973500    -0.0347279   -0.0060052  
   0.532973400    -0.0357718    0.0003751  
   0.534973300    -0.0357407    0.0068009  
   0.536973200    -0.0346996    0.0130911  
   0.538973100    -0.0326355    0.0191604  
   0.540973000    -0.0295496    0.0249237  
   0.542972900    -0.0256543    0.0300323  
   0.544972800    -0.0209154    0.0344621  
   0.546972700    -0.0154867    0.0380682  
   0.548972600    -0.0095539    0.0407677  
   0.550972500    -0.0031787    0.0425274  
   0.552972400     0.0035229    0.0431789  
   0.554972300     0.0103296    0.0427167  
   0.556972200     0.0171179    0.0411479  
   0.558972100     0.0236239    0.0384823  
   0.560972000     0.0299725    0.0347561  
   0.562971900     0.0357216    0.0301598  
   0.564971800     0.0407230    0.0245335  
   0.566971700     0.0448272    0.0182907  
   0.568971600     0.0480242    0.0111901  
   0.570971500     0.0501317    0.0036049  
   0.572971400     0.0513183   -0.0045211  
   0.574971300     0.0512411   -0.0127823  
   0.576971200     0.0498553   -0.0212275  
   0.578971100     0.0472271   -0.0295898  
   0.580971000     0.0434094   -0.0376354  
   0.582970900     0.0383701   -0.0452412  
   0.584970800     0.0322928   -0.0520701  
   0.586970700     0.0252324   -0.0581401  
   0.588970600     0.0171124   -0.0632499  
   0.590970500     0.0082994   -0.0673550  
   0.592970400    -0.0010012   -0.0702419  
   0.594970300    -0.0107905   -0.0718768  
   0.596970200    -0.0209225   -0.0721505  
   0.598970100    -0.0311538   -0.0711129  
   0.600970000    -0.0412307   -0.0687155  
   0.602969900    -0.0509488   -0.0650380  
   0.604969800    -0.0602452   -0.0600214  
   0.606969700    -0.0688964   -0.0538476  
   0.608969600    -0.0767548   -0.0464950  
   0.610969500    -0.0836514   -0.0381721  
   0.612969400    -0.0893432   -0.0288831  
   0.614969300    -0.0938660   -0.0189273  
   0.616969200    -0.0970165   -0.0083239  
   0.618969100    -0.0987368    0.0025711  
   0.620969000    -0.0990527    0.0135711  
   0.622968900    -0.0980083    0.0245101  
   0.624968800    -0.0955781    0.0352477  
   0.626968700    -0.0917300    0.0455296  
   0.628968600    -0.0865364    0.0551804  
   0.630968500    -0.0802047    0.0640738  
   0.632968400    -0.0726871    0.0720575  
   0.634968300    -0.0642637    0.0791559  
   0.636968200    -0.0550929    0.0848564  
   0.638968100    -0.0450938    0.0893849  
   0.640968000    -0.0348801    0.0923428  
   0.642967900    -0.0243643    0.0939420  
   0.644967800    -0.0139083    0.0940752  
   0.646967700    -0.0035441    0.0927861  
   0.648967600     0.0064978    0.0902093  
   0.650967500     0.0159630    0.0863493  
   0.652967400     0.0245121    0.0812603  
   0.654967300     0.0322352    0.0750264  
   0.656967200     0.0388353    0.0679512  
   0.658967100     0.0442822    0.0602391  
   0.660967000     0.0486106    0.0517685  
   0.662966900     0.0516136    0.0428038  
   0.664966800     0.0534332    0.0334605  
   0.666966700     0.0538589    0.0240409  
   0.668966600     0.0528856    0.0147123  
   0.670966500     0.0505943    0.0057563  
   0.672966400     0.0472354   -0.0027564  
   0.674966300     0.0425363   -0.0106622  
   0.676966200     0.0366950   -0.0174616  
   0.678966100     0.0301519   -0.0231592  
   0.680966000     0.0226234   -0.0277194  
   0.682965900     0.0147248   -0.0310433  
   0.684965800     0.0063656   -0.0331144  
   0.686965700    -0.0021463   -0.0339400  
   0.688965600    -0.0105957   -0.0333853  
   0.690965500    -0.0187649   -0.0314564  
   0.692965400    -0.0265474   -0.0282240  
   0.694965300    -0.0337262   -0.0238802  
   0.696965200    -0.0400846   -0.0184471  
   0.698965100    -0.0455934   -0.0120704  
   0.700965000    -0.0500398   -0.0049561  
   0.702964900    -0.0533027    0.0028369  
   0.704964800    -0.0553054    0.0110185  
   0.706964700    -0.0560273    0.0196154  
   0.708964600    -0.0554106    0.0282767  
   0.710964500    -0.0533907    0.0366243  
   0.712964400    -0.0499528    0.0449567  
   0.714964300    -0.0453351    0.0524201  
   0.716964200    -0.0396729    0.0592589  
   0.718964100    -0.0330881    0.0652587  
   0.720964000    -0.0256733    0.0702732  
   0.722963900    -0.0176172    0.0742080  
   0.724963800    -0.0089818    0.0769778  
   0.726963700     0.0001935    0.0785673  
   0.728963600     0.0093346    0.0787249  
   0.730963500     0.0185719    0.0775302  
   0.732963400     0.0275984    0.0749954  
   0.734963300     0.0362785    0.0711579  
   0.736963200     0.0469391    0.0646149  
   0.738963100     0.0565810    0.0564776  
   0.740963000     0.0650366    0.0468453  
   0.742962900     0.0720248    0.0361315  
   0.744962800     0.0772735    0.0243978  
   0.746962700     0.0806369    0.0122681  
   0.748962600     0.0820853   -0.0001072  
   0.750962500     0.0649194    0.0181875  
   0.752962400     0.0666295    0.0061648  
   0.754962300     0.0664504   -0.0057589  
   0.756962200     0.0643472   -0.0172532  
   0.758962100     0.0604646   -0.0282739  
   0.760962000     0.0550024   -0.0381112  
   0.762961900     0.0480868   -0.0461416  
   0.764961800     0.0402578   -0.0520265  
   0.766961700     0.0315136   -0.0568496  
   0.768961600     0.0224413   -0.0602165  
   0.770961500     0.0129326   -0.0622447  
   0.772961400     0.0033393   -0.0629325  
   0.774961300    -0.0062412   -0.0622719  
   0.776961200    -0.0155195   -0.0602850  
   0.778961100    -0.0243784   -0.0571060  
   0.780961000    -0.0325258   -0.0526625  
   0.782960900    -0.0399475   -0.0472089  
   0.784960800    -0.0463312   -0.0407573  
   0.786960700    -0.0515786   -0.0335362  
   0.788960600    -0.0555922   -0.0256203  
   0.790960500    -0.0584269   -0.0171660  
   0.792960400    -0.0599046   -0.0084213  
   0.794960300    -0.0600421    0.0001978  
   0.796960200    -0.0588543    0.0086968  
   0.798960100    -0.0564613    0.0168479  
   0.800960000    -0.0528115    0.0247141  
   0.802959900    -0.0481159    0.0316051  
   0.804959800    -0.0425077    0.0376428  
   0.806959700    -0.0360571    0.0427144  
   0.808959600    -0.0289835    0.0466346  
   0.810959500    -0.0214475    0.0493660  
   0.812959400    -0.0134727    0.0508608  
   0.814959300    -0.0054916    0.0510780  
   0.816959200     0.0025073    0.0499917  
   0.818959100     0.0102236    0.0476636  
   0.820959000     0.0176615    0.0440610  
   0.822958900     0.0244666    0.0394181  
   0.824958800     0.0305088    0.0336965  
   0.826958700     0.0358143    0.0269079  
   0.828958600     0.0398141    0.0194635  
   0.830958500     0.0425734    0.0113258  
   0.832958400     0.0440977    0.0028179  
   0.834958300     0.0442410   -0.0059446  
   0.836958200     0.0431030   -0.0147745  
   0.838958100     0.0406792   -0.0234234  
   0.840958000     0.0368933   -0.0316114  
   0.842957900     0.0319812   -0.0392209  
   0.844957800     0.0258758   -0.0461217  
   0.846957700     0.0187306   -0.0520557  
   0.848957600     0.0107043   -0.0569646  
   0.850957500     0.0019611   -0.0606925  
   0.852957400    -0.0072584   -0.0631342  
   0.854957300    -0.0168710   -0.0641825  
   0.856957200    -0.0265938   -0.0638393  
   0.858957100    -0.0362927   -0.0620950  
   0.860957000    -0.0457198   -0.0590313  
   0.862956900    -0.0548215   -0.0546885  
   0.864956800    -0.0633588   -0.0491529  
   0.866956700    -0.0709388   -0.0425763  
   0.868956600    -0.0777019   -0.0348913  
   0.870956500    -0.0832479   -0.0265261  
   0.872956400    -0.0875887   -0.0174984  
   0.874956300    -0.0906420   -0.0079683  
   0.876956200    -0.0922339    0.0019477  
   0.878956100    -0.0924485    0.0119559  
   0.880956000    -0.0912066    0.0219298  
   0.882955900    -0.0885951    0.0316364  
   0.884955800    -0.0845978    0.0410368  
   0.886955700    -0.0794312    0.0497212  
   0.888955600    -0.0730991    0.0574750  
   0.890955500    -0.0658114    0.0641907  
   0.892955400    -0.0576328    0.0697916  
   0.894955300    -0.0488807    0.0741138  
