! MS46122B
! 2250307/22442219
! 6/15/2025 10:57:24 AM
! C:\USERS\SPARKY\DOCUMENTS\VNA_DATA\JUNE15_2025\295K\ECAL_OPEN_D.S1P
! CHANNEL.1
! TR.MEASUREMENT
! RAW.DATA
# GHZ S RI R 50.0
! FREQ.GHZ         S11RE         S11IM         
!; PortSelection: Port_1
   0.001000000     1.0274210   -0.0530258  
   0.002999900     0.9422172   -0.2058062  
   0.004999800     0.8809375   -0.3458720  
   0.006999700     0.8079042   -0.4765680  
   0.008999600     0.7197706   -0.5893493  
   0.010999500     0.6206037   -0.6895871  
   0.012999400     0.5113535   -0.7770150  
   0.014999300     0.3930970   -0.8502017  
   0.016999200     0.2664827   -0.9062750  
   0.018999100     0.1335881   -0.9436091  
   0.020999000    -0.0036213   -0.9604301  
   0.022998900    -0.1420601   -0.9558892  
   0.024998800    -0.2549452   -0.9037995  
   0.026998700    -0.4098634   -0.8800718  
   0.028998600    -0.5324086   -0.8103479  
   0.030998500    -0.6431300   -0.7215242  
   0.032998400    -0.7066579   -0.6092742  
   0.034998300    -0.8178598   -0.4969887  
   0.036998200    -0.8774103   -0.3672048  
   0.038998100    -0.9170125   -0.2310660  
   0.040998000    -0.9358736   -0.0902475  
   0.042997900    -0.9345022    0.0504165  
   0.044997800    -0.8878252    0.1666487  
   0.046997700    -0.8705336    0.3223166  
   0.048997600    -0.8102533    0.4484318  
   0.050997500    -0.7321250    0.5639932  
   0.052997400    -0.6382713    0.6656700  
   0.054997300    -0.5282229    0.7535473  
   0.056997200    -0.4066699    0.8232283  
   0.058997100    -0.2761150    0.8731748  
   0.060997000    -0.1394732    0.9024392  
   0.062996900     0.0001873    0.9102538  
   0.064996800     0.1394950    0.8966207  
   0.066996700     0.2748256    0.8618363  
   0.068996600     0.4031231    0.8070713  
   0.070996500     0.5213718    0.7333609  
   0.072996400     0.6271921    0.6428271  
   0.074996300     0.7181861    0.5375491  
   0.076996200     0.7920234    0.4197481  
   0.078996100     0.8467918    0.2922353  
   0.080996000     0.8814213    0.1583652  
   0.082995900     0.8953493    0.0208730  
   0.084995800     0.8879890   -0.1165894  
   0.086995700     0.8600256   -0.2508272  
   0.088995600     0.8122779   -0.3788837  
   0.090995500     0.7456461   -0.4975223  
   0.092995400     0.6626237   -0.6043586  
   0.094995300     0.5646716   -0.6972381  
   0.096995200     0.4548837   -0.7742158  
   0.098995100     0.3351299   -0.8338401  
   0.100995000     0.2085111   -0.8750312  
   0.102994900     0.0779339   -0.8966423  
   0.104994800    -0.0536948   -0.8993307  
   0.106994700    -0.1841612   -0.8827566  
   0.108994600    -0.3100775   -0.8476574  
   0.110994500    -0.4294131   -0.7951062  
   0.112994400    -0.5394737   -0.7260516  
   0.114994300    -0.6382114   -0.6419811  
   0.116994200    -0.7237282   -0.5449671  
   0.118994100    -0.7943138   -0.4369271  
   0.120994000    -0.8481105   -0.3196718  
   0.122993900    -0.8852528   -0.1964612  
   0.124993800    -0.9041858   -0.0692439  
   0.126993700    -0.9046475    0.0596065  
   0.128993600    -0.8871005    0.1870959  
   0.130993500    -0.8511556    0.3112918  
   0.132993400    -0.7978417    0.4288845  
   0.134993300    -0.7279031    0.5382388  
   0.136993200    -0.6429620    0.6362056  
   0.138993100    -0.5440905    0.7216524  
   0.140993000    -0.4337566    0.7916853  
   0.142992900    -0.3134929    0.8451787  
   0.144992800    -0.1862578    0.8810566  
   0.146992700    -0.0546140    0.8977377  
   0.148992600     0.0786745    0.8945579  
   0.150992500     0.2101441    0.8713854  
   0.152992400     0.3379162    0.8288572  
   0.154992300     0.4578484    0.7672877  
   0.156992200     0.5676079    0.6878814  
   0.158992100     0.6645580    0.5926524  
   0.160992000     0.7458572    0.4834681  
   0.162991900     0.8101810    0.3627135  
   0.164991800     0.8550538    0.2327436  
   0.166991700     0.8793870    0.0980267  
   0.168991600     0.8824281   -0.0392055  
   0.170991500     0.8646768   -0.1755883  
   0.172991400     0.8254384   -0.3073413  
   0.174991300     0.7670555   -0.4308608  
   0.176991200     0.6896611   -0.5445281  
   0.178991100     0.5962538   -0.6442214  
   0.180991000     0.4888218   -0.7279067  
   0.182990900     0.3700083   -0.7940660  
   0.184990800     0.2429448   -0.8410687  
   0.186990700     0.1106755   -0.8677193  
   0.188990600     0.0013307   -0.8735296  
   0.190990500    -0.1522172   -0.8597693  
   0.192990400    -0.2840843   -0.8249096  
   0.194990300    -0.4054847   -0.7717875  
   0.196990200    -0.5161235   -0.7017441  
   0.198990100    -0.6146685   -0.6163129  
   0.200990000    -0.6989059   -0.5176518  
   0.202989900    -0.7675824   -0.4076294  
   0.204989800    -0.8191182   -0.2894731  
   0.206989700    -0.8521647   -0.1658642  
   0.208989600    -0.8668362   -0.0394643  
   0.210989500    -0.8629612    0.0877226  
   0.212989400    -0.8404249    0.2131553  
   0.214989300    -0.7999129    0.3334255  
   0.216989200    -0.7427099    0.4458065  
   0.218989100    -0.6701867    0.5487261  
   0.220989000    -0.5836648    0.6400198  
   0.222988900    -0.4842034    0.7185135  
   0.224988800    -0.3743025    0.7814865  
   0.226988700    -0.2566441    0.8276713  
   0.228988600    -0.1338003    0.8564811  
   0.230988500    -0.0078213    0.8670778  
   0.232988400     0.1185961    0.8594362  
   0.234988300     0.2429979    0.8331668  
   0.236988200     0.3628074    0.7891560  
   0.238988100     0.4751667    0.7278926  
   0.240988000     0.5772601    0.6509334  
   0.242987900     0.6668428    0.5598106  
   0.244987800     0.7422518    0.4565402  
   0.246987700     0.8021070    0.3425072  
   0.248987600     0.8448294    0.2203637  
   0.250987500     0.8688141    0.0926918  
   0.252987400     0.8736734   -0.0371239  
   0.254987300     0.8593921   -0.1657076  
   0.256987200     0.8261179   -0.2904309  
   0.258987100     0.7751448   -0.4090774  
   0.260987000     0.7066095   -0.5194007  
   0.262986900     0.6221770   -0.6185424  
   0.264986800     0.5238570   -0.7041131  
   0.266986700     0.4140319   -0.7740842  
   0.268986600     0.2954056   -0.8266675  
   0.270986500     0.1710486   -0.8610128  
   0.272986400     0.0431123   -0.8764895  
   0.274986300    -0.0852481   -0.8726297  
   0.276986200    -0.2113806   -0.8504016  
   0.278986100    -0.3332050   -0.8094871  
   0.280986000    -0.4476720   -0.7508491  
   0.282985900    -0.5520545   -0.6761295  
   0.284985800    -0.6441741   -0.5870018  
   0.286985700    -0.7217160   -0.4855047  
   0.288985600    -0.7828280   -0.3749226  
   0.290985500    -0.8268020   -0.2576649  
   0.292985400    -0.8534181   -0.1354161  
   0.294985300    -0.8617485   -0.0107179  
   0.296985200    -0.8521663    0.1143789  
   0.298985100    -0.8239441    0.2370690  
   0.300985000    -0.7783577    0.3548021  
   0.302984900    -0.7155216    0.4638278  
   0.304984800    -0.6378895    0.5623142  
   0.306984700    -0.5467723    0.6482294  
   0.308984600    -0.4444642    0.7193282  
   0.310984500    -0.3337590    0.7747563  
   0.312984400    -0.2157531    0.8133222  
   0.314984300    -0.0934376    0.8343254  
   0.316984200     0.0308313    0.8371459  
   0.318984100     0.1549372    0.8216531  
   0.320984000     0.2766891    0.7876933  
   0.322983900     0.3922282    0.7358314  
   0.324983800     0.4989783    0.6669997  
   0.326983700     0.5944207    0.5828137  
   0.328983600     0.6763209    0.4850477  
   0.330983500     0.7423952    0.3762900  
   0.332983400     0.7905642    0.2592323  
   0.334983300     0.8215019    0.1358934  
   0.336983200     0.8333317    0.0093596  
   0.338983100     0.8256883   -0.1177541  
   0.340983000     0.7993954   -0.2420308  
   0.342982900     0.7545454   -0.3612275  
   0.344982800     0.6918832   -0.4727074  
   0.346982700     0.6126579   -0.5738240  
   0.348982600     0.5186409   -0.6622010  
   0.350982500     0.4125782   -0.7349934  
   0.352982400     0.2964979   -0.7909092  
   0.354982300     0.1678823   -0.8297147  
   0.356982200     0.0199072   -0.8479026  
   0.358982100    -0.1279761   -0.8405392  
   0.360982000    -0.2713753   -0.8070146  
   0.362981900    -0.4061641   -0.7499571  
   0.364981800    -0.5286343   -0.6699088  
   0.366981700    -0.6348844   -0.5710079  
   0.368981600    -0.7220126   -0.4555484  
   0.370981500    -0.7878503   -0.3275871  
   0.372981400    -0.8306130   -0.1912411  
   0.374981300    -0.8498173   -0.0491717  
   0.376981200    -0.8364754   -0.1902480  
   0.378981100    -0.8559209   -0.0469507  
   0.380981000    -0.8509936    0.0974624  
   0.382980900    -0.8260055    0.2247247  
   0.384980800    -0.7848839    0.3411128  
   0.386980700    -0.7272782    0.4498644  
   0.388980600    -0.6544507    0.5492461  
   0.390980500    -0.5688066    0.6364335  
   0.392980400    -0.4717847    0.7099743  
   0.394980300    -0.3659251    0.7687914  
   0.396980200    -0.2525930    0.8118150  
   0.398980100    -0.1336537    0.8380700  
   0.400980000    -0.0128217    0.8468440  
   0.402979900     0.1092226    0.8383039  
   0.404979800     0.2282032    0.8122275  
   0.406979700     0.3427370    0.7690169  
   0.408979600     0.4500202    0.7092379  
   0.410979500     0.5482843    0.6340299  
   0.412979400     0.6352098    0.5442368  
   0.414979300     0.7078798    0.4417648  
   0.416979200     0.7646096    0.3293222  
   0.418979100     0.8038654    0.2090146  
   0.420979000     0.8246847    0.0836809  
   0.422978900     0.8257782   -0.0440743  
   0.424978800     0.8072231   -0.1709102  
   0.426978700     0.7690680   -0.2940539  
   0.428978600     0.7122833   -0.4096182  
   0.430978500     0.6382397   -0.5149435  
   0.432978400     0.5495907   -0.6070824  
   0.434978300     0.4474406   -0.6841891  
   0.436978200     0.3347475   -0.7448747  
   0.438978100     0.2146469   -0.7871226  
   0.440978000     0.0897718   -0.8100468  
   0.442977900    -0.0371945   -0.8134835  
   0.444977800    -0.1622045   -0.7976120  
   0.446977700    -0.2831762   -0.7630205  
   0.448977600    -0.3966093   -0.7105818  
   0.450977500    -0.5001490   -0.6418427  
   0.452977400    -0.5920724   -0.5585231  
   0.454977300    -0.6706500   -0.4620108  
   0.456977200    -0.7334060   -0.3552884  
   0.458977100    -0.7795463   -0.2402615  
   0.460977000    -0.8074903   -0.1210311  
   0.462976900    -0.8174210    0.0003604  
   0.464976800    -0.8092652    0.1215847  
   0.466976700    -0.7837535    0.2393210  
   0.468976600    -0.7411173    0.3517645  
   0.470976500    -0.6830035    0.4564811  
   0.472976400    -0.6103690    0.5509402  
   0.474976300    -0.5252200    0.6339394  
   0.476976200    -0.4293738    0.7035831  
   0.478976100    -0.3250925    0.7584394  
   0.480976000    -0.2147632    0.7976361  
   0.482975900    -0.1002201    0.8209056  
   0.484975800     0.0161121    0.8275548  
   0.486975700     0.1326556    0.8180708  
   0.488975600     0.2466289    0.7920194  
   0.490975500     0.3564068    0.7499146  
   0.492975400     0.4594820    0.6923501  
   0.494975300     0.5537038    0.6206959  
   0.496975200     0.6369873    0.5356403  
   0.498975100     0.7072511    0.4394598  
   0.500975000     0.7631006    0.3336044  
   0.502974900     0.8035415    0.2206995  
   0.504974800     0.8269135    0.1022875  
   0.506974700     0.8329239   -0.0193214  
   0.508974600     0.8205780   -0.1418163  
   0.510974500     0.7904027   -0.2620098  
   0.512974400     0.7422247   -0.3767611  
   0.514974300     0.6775062   -0.4825979  
   0.516974200     0.5974087   -0.5779568  
   0.518974100     0.5039509   -0.6601243  
   0.520974000     0.3993607   -0.7275088  
   0.522973900     0.2852918   -0.7784812  
   0.524973800     0.1652787   -0.8111018  
   0.526973700     0.0408952   -0.8258846  
   0.528973600    -0.0839656   -0.8215163  
   0.530973500    -0.2068300   -0.7983242  
   0.532973400    -0.3247005   -0.7568160  
   0.534973300    -0.4347062   -0.6978920  
   0.536973200    -0.5344310   -0.6231405  
   0.538973100    -0.6209399   -0.5346037  
   0.540973000    -0.6927150   -0.4348995  
   0.542972900    -0.7486762   -0.3257863  
   0.544972800    -0.7876616   -0.2100668  
   0.546972700    -0.8088204   -0.0896082  
   0.548972600    -0.8119123    0.0323186  
   0.550972500    -0.7966872    0.1531444  
   0.552972400    -0.7634913    0.2703839  
   0.554972300    -0.7133969    0.3810222  
   0.556972200    -0.6473622    0.4825960  
   0.558972100    -0.5669066    0.5730652  
   0.560972000    -0.4742373    0.6503744  
   0.562971900    -0.3714990    0.7127181  
   0.564971800    -0.2611914    0.7586735  
   0.566971700    -0.1454400    0.7879204  
   0.568971600    -0.0273855    0.7997754  
   0.570971500     0.0913808    0.7938026  
   0.572971400     0.2084817    0.7707196  
   0.574971300     0.3206982    0.7301330  
   0.576971200     0.4261888    0.6727762  
   0.578971100     0.5223107    0.6000193  
   0.580971000     0.6064715    0.5134662  
   0.582970900     0.6766912    0.4157767  
   0.584970800     0.7313889    0.3084496  
   0.586970700     0.7693069    0.1945326  
   0.588970600     0.7896123    0.0762418  
   0.590970500     0.7919527   -0.0441162  
   0.592970400     0.7766225   -0.1630722  
   0.594970300     0.7433058   -0.2789147  
   0.596970200     0.6928554   -0.3884005  
   0.598970100     0.6269554   -0.4889263  
   0.600970000     0.5465122   -0.5786129  
   0.602969900     0.4535857   -0.6555666  
   0.604969800     0.3496734   -0.7174916  
   0.606969700     0.2378041   -0.7634482  
   0.608969600     0.1205904   -0.7919555  
   0.610969500    -0.0000632   -0.8027250  
   0.612969400    -0.1203224   -0.7954266  
   0.614969300    -0.2375948   -0.7698102  
   0.616969200    -0.3492012   -0.7279600  
   0.618969100    -0.4525809   -0.6706548  
   0.620969000    -0.5459940   -0.5991383  
   0.622968900    -0.6279334   -0.5152340  
   0.624968800    -0.6966581   -0.4204876  
   0.626968700    -0.7512798   -0.3169524  
   0.628968600    -0.7900931   -0.2065445  
   0.630968500    -0.8129896   -0.0921947  
   0.632968400    -0.8192409    0.0242626  
   0.634968300    -0.8084267    0.1399813  
   0.636968200    -0.7815256    0.2530652  
   0.638968100    -0.7388407    0.3608903  
   0.640968000    -0.6811193    0.4609862  
   0.642967900    -0.6098621    0.5521738  
   0.644967800    -0.5262402    0.6320933  
   0.646967700    -0.4325537    0.6993725  
   0.648967600    -0.3299959    0.7523801  
   0.650967500    -0.2216625    0.7903165  
   0.652967400    -0.1093730    0.8125455  
   0.654967300     0.0053808    0.8184587  
   0.656967200     0.1195900    0.8084475  
   0.658967100     0.2313014    0.7817902  
   0.660967000     0.3386261    0.7396348  
   0.662966900     0.4396470    0.6815521  
   0.664966800     0.5318873    0.6092082  
   0.666966700     0.6134878    0.5234423  
   0.668966600     0.6815295    0.4259742  
   0.670966500     0.7349590    0.3192950  
   0.672966400     0.7717451    0.2059681  
   0.674966300     0.7914952    0.0879370  
   0.676966200     0.7932309   -0.0318181  
   0.678966100     0.7770022   -0.1503113  
   0.680966000     0.7431843   -0.2658215  
   0.682965900     0.6920859   -0.3743518  
   0.684965800     0.6253315   -0.4741175  
   0.686965700     0.5440183   -0.5629224  
   0.688965600     0.4501800   -0.6385322  
   0.690965500     0.3459089   -0.6988660  
   0.692965400     0.2341525   -0.7424410  
   0.694965300     0.1171160   -0.7686532  
   0.696965200    -0.0023656   -0.7766855  
   0.698965100    -0.1212031   -0.7663192  
   0.700965000    -0.2371157   -0.7383125  
   0.702964900    -0.3472032   -0.6930926  
   0.704964800    -0.4488363   -0.6317117  
   0.706964700    -0.5398319   -0.5561520  
   0.708964600    -0.6179867   -0.4679450  
   0.710964500    -0.6820070   -0.3689587  
   0.712964400    -0.7301371   -0.2619635  
   0.714964300    -0.7613688   -0.1495272  
   0.716964200    -0.7755313   -0.0347199  
   0.718964100    -0.7726833    0.0802695  
   0.720964000    -0.7531337    0.1929168  
   0.722963900    -0.7177961    0.3005391  
   0.724963800    -0.6675123    0.4015093  
   0.726963700    -0.6032544    0.4940681  
   0.728963600    -0.5266513    0.5763628  
   0.730963500    -0.4392556    0.6459725  
   0.732963400    -0.3427200    0.7028921  
   0.734963300    -0.2390617    0.7454397  
   0.736963200    -0.1115009    0.7751085  
   0.738963100     0.0203263    0.7834741  
   0.740963000     0.1524966    0.7699186  
   0.742962900     0.2807873    0.7342630  
   0.744962800     0.4021304    0.6773722  
   0.746962700     0.5126743    0.6008409  
   0.748962600     0.6090689    0.5064220  
   0.750962500     0.5007081    0.6030058  
   0.752962400     0.5971547    0.5084835  
   0.754962300     0.6766039    0.3993542  
   0.756962200     0.7365822    0.2780668  
   0.758962100     0.7752160    0.1479704  
   0.760962000     0.7908798    0.0123736  
   0.762961900     0.7838521   -0.1166829  
   0.764961800     0.7588305   -0.2317659  
   0.766961700     0.7168979   -0.3419123  
   0.768961600     0.6589721   -0.4450891  
   0.770961500     0.5861432   -0.5383937  
   0.772961400     0.4998960   -0.6197316  
   0.774961300     0.4026734   -0.6874412  
   0.776961200     0.2960388   -0.7399579  
   0.778961100     0.1823284   -0.7758539  
   0.780961000     0.0643551   -0.7945037  
   0.782960900    -0.0552550   -0.7948442  
   0.784960800    -0.1738316   -0.7771642  
   0.786960700    -0.2882810   -0.7414594  
   0.788960600    -0.3958220   -0.6888704  
   0.790960500    -0.4937938   -0.6209298  
   0.792960400    -0.5799392   -0.5390760  
   0.794960300    -0.6523785   -0.4456539  
   0.796960200    -0.7094961   -0.3433089  
   0.798960100    -0.7505357   -0.2340888  
   0.800960000    -0.7748039   -0.1206995  
   0.802959900    -0.7816088   -0.0053529  
   0.804959800    -0.7717937    0.1086658  
   0.806959700    -0.7452828    0.2194391  
   0.808959600    -0.7032334    0.3244624  
   0.810959500    -0.6465544    0.4221744  
   0.812959400    -0.5762706    0.5098201  
   0.814959300    -0.4945561    0.5863287  
   0.816959200    -0.4028621    0.6496689  
   0.818959100    -0.3031200    0.6993045  
   0.820959000    -0.1971100    0.7337752  
   0.822958900    -0.0873906    0.7526451  
   0.824958800     0.0241403    0.7551924  
   0.826958700     0.1348179    0.7414133  
   0.828958600     0.2425287    0.7119646  
   0.830958500     0.3448581    0.6669768  
   0.832958400     0.4399875    0.6074131  
   0.834958300     0.5249994    0.5343855  
   0.836958200     0.5987819    0.4497409  
   0.838958100     0.6592326    0.3547726  
   0.840958000     0.7054728    0.2513698  
   0.842957900     0.7361971    0.1414869  
   0.844957800     0.7502455    0.0282955  
   0.846957700     0.7468636   -0.0865368  
   0.848957600     0.7260186   -0.2001429  
   0.850957500     0.6883356   -0.3094401  
   0.852957400     0.6343944   -0.4120892  
   0.854957300     0.5651478   -0.5054664  
   0.856957200     0.4827163   -0.5875035  
   0.858957100     0.3885340   -0.6557682  
   0.860957000     0.2855931   -0.7088706  
   0.862956900     0.1760530   -0.7458587  
   0.864956800     0.0627937   -0.7660536  
   0.866956700    -0.0516039   -0.7689490  
   0.868956600    -0.1650725   -0.7550572  
   0.870956500    -0.2746745   -0.7245387  
   0.872956400    -0.3787126   -0.6783763  
   0.874956300    -0.4744407   -0.6175410  
   0.876956200    -0.5598319   -0.5433747  
   0.878956100    -0.6337234   -0.4577272  
   0.880956000    -0.6938735   -0.3623053  
   0.882955900    -0.7393761   -0.2596560  
   0.884955800    -0.7692267   -0.1513770  
   0.886955700    -0.7833755   -0.0403128  
   0.888955600    -0.7812307    0.0709364  
   0.890955500    -0.7632955    0.1808864  
   0.892955400    -0.7297161    0.2864625  
   0.894955300    -0.6815394    0.3860375  
