! MS46122B
! 2250307/22442219
! 6/18/2025 1:18:24 PM
! C:\USERS\SPARKY\DOCUMENTS\VNA_DATA\JUNE18_2025\295K\ECAL_LOAD_F.S1P
! CHANNEL.1
! TR.MEASUREMENT
! RAW.DATA
# GHZ S RI R 50.0
! FREQ.GHZ         S11RE         S11IM         
!; PortSelection: Port_1
   0.001000000     0.0210496    0.0070391  
   0.002999900     0.0070086    0.0564199  
   0.004999800     0.0059967    0.0631967  
   0.006999700     0.0066411    0.0597050  
   0.008999600     0.0076077    0.0520908  
   0.010999500     0.0089585    0.0427469  
   0.012999400     0.0107176    0.0327848  
   0.014999300     0.0128996    0.0228457  
   0.016999200     0.0153600    0.0133918  
   0.018999100     0.0180794    0.0045808  
   0.020999000     0.0206913   -0.0033492  
   0.022998900     0.0231572   -0.0104641  
   0.024998800     0.0226185   -0.0151451  
   0.026998700     0.0266417   -0.0220835  
   0.028998600     0.0274502   -0.0267492  
   0.030998500     0.0275360   -0.0306345  
   0.032998400     0.0247114   -0.0322419  
   0.034998300     0.0255206   -0.0366745  
   0.036998200     0.0236093   -0.0389036  
   0.038998100     0.0211191   -0.0407618  
   0.040998000     0.0181403   -0.0422064  
   0.042997900     0.0147629   -0.0432342  
   0.044997800     0.0095864   -0.0423154  
   0.046997700     0.0072043   -0.0441951  
   0.048997600     0.0031966   -0.0441666  
   0.050997500    -0.0008706   -0.0438392  
   0.052997400    -0.0047566   -0.0430364  
   0.054997300    -0.0087113   -0.0424514  
   0.056997200    -0.0123290   -0.0414671  
   0.058997100    -0.0157112   -0.0403502  
   0.060997000    -0.0188741   -0.0390243  
   0.062996900    -0.0217436   -0.0376088  
   0.064996800    -0.0243889   -0.0362890  
   0.066996700    -0.0267489   -0.0348597  
   0.068996600    -0.0288401   -0.0332303  
   0.070996500    -0.0306283   -0.0314972  
   0.072996400    -0.0321948   -0.0296919  
   0.074996300    -0.0335666   -0.0277232  
   0.076996200    -0.0346726   -0.0257213  
   0.078996100    -0.0355625   -0.0236642  
   0.080996000    -0.0362306   -0.0215078  
   0.082995900    -0.0367732   -0.0193380  
   0.084995800    -0.0370783   -0.0171482  
   0.086995700    -0.0372755   -0.0149616  
   0.088995600    -0.0373226   -0.0127587  
   0.090995500    -0.0372125   -0.0105967  
   0.092995400    -0.0369730   -0.0084952  
   0.094995300    -0.0365758   -0.0064874  
   0.096995200    -0.0360442   -0.0045649  
   0.098995100    -0.0353680   -0.0027345  
   0.100995000    -0.0345734   -0.0010610  
   0.102994900    -0.0336635    0.0005122  
   0.104994800    -0.0326697    0.0019241  
   0.106994700    -0.0315787    0.0031391  
   0.108994600    -0.0303958    0.0042612  
   0.110994500    -0.0291407    0.0051309  
   0.112994400    -0.0278413    0.0058530  
   0.114994300    -0.0265298    0.0063889  
   0.116994200    -0.0252160    0.0067291  
   0.118994100    -0.0239065    0.0068866  
   0.120994000    -0.0226351    0.0068774  
   0.122993900    -0.0214214    0.0067210  
   0.124993800    -0.0202412    0.0063742  
   0.126993700    -0.0192295    0.0059114  
   0.128993600    -0.0183324    0.0052776  
   0.130993500    -0.0175951    0.0045491  
   0.132993400    -0.0170267    0.0037500  
   0.134993300    -0.0166101    0.0028422  
   0.136993200    -0.0164004    0.0019158  
   0.138993100    -0.0163752    0.0009696  
   0.140993000    -0.0165605    0.0000360  
   0.142992900    -0.0169490   -0.0008756  
   0.144992800    -0.0175986   -0.0017337  
   0.146992700    -0.0183577   -0.0024731  
   0.148992600    -0.0193343   -0.0030870  
   0.150992500    -0.0204911   -0.0035497  
   0.152992400    -0.0217812   -0.0038269  
   0.154992300    -0.0231749   -0.0039517  
   0.156992200    -0.0246915   -0.0037980  
   0.158992100    -0.0262551   -0.0034067  
   0.160992000    -0.0278544   -0.0027632  
   0.162991900    -0.0294861   -0.0018507  
   0.164991800    -0.0309889   -0.0006483  
   0.166991700    -0.0324707    0.0007947  
   0.168991600    -0.0338053    0.0025368  
   0.170991500    -0.0349409    0.0045193  
   0.172991400    -0.0358879    0.0067953  
   0.174991300    -0.0366196    0.0091903  
   0.176991200    -0.0370464    0.0118271  
   0.178991100    -0.0371497    0.0146441  
   0.180991000    -0.0369712    0.0174938  
   0.182990900    -0.0364205    0.0204484  
   0.184990800    -0.0354996    0.0235083  
   0.186990700    -0.0341172    0.0264738  
   0.188990600    -0.0339522    0.0288498  
   0.190990500    -0.0306849    0.0323730  
   0.192990400    -0.0279758    0.0350544  
   0.194990300    -0.0251129    0.0374578  
   0.196990200    -0.0219492    0.0395263  
   0.198990100    -0.0185192    0.0412813  
   0.200990000    -0.0147657    0.0426325  
   0.202989900    -0.0107052    0.0435962  
   0.204989800    -0.0064434    0.0440734  
   0.206989700    -0.0022631    0.0441543  
   0.208989600     0.0020124    0.0437274  
   0.210989500     0.0063029    0.0428375  
   0.212989400     0.0105629    0.0414194  
   0.214989300     0.0146742    0.0395898  
   0.216989200     0.0185348    0.0372456  
   0.218989100     0.0221362    0.0343659  
   0.220989000     0.0254424    0.0310093  
   0.222988900     0.0284504    0.0273750  
   0.224988800     0.0309939    0.0234118  
   0.226988700     0.0330715    0.0191832  
   0.228988600     0.0345974    0.0147158  
   0.230988500     0.0355663    0.0101282  
   0.232988400     0.0360452    0.0054509  
   0.234988300     0.0359768    0.0006907  
   0.236988200     0.0353558   -0.0039749  
   0.238988100     0.0342076   -0.0085349  
   0.240988000     0.0324743   -0.0128729  
   0.242987900     0.0302523   -0.0169854  
   0.244987800     0.0275800   -0.0207532  
   0.246987700     0.0245159   -0.0241233  
   0.248987600     0.0210578   -0.0271065  
   0.250987500     0.0173132   -0.0296086  
   0.252987400     0.0133451   -0.0315863  
   0.254987300     0.0092206   -0.0330316  
   0.256987200     0.0050059   -0.0339529  
   0.258987100     0.0008259   -0.0342891  
   0.260987000    -0.0033146   -0.0341000  
   0.262986900    -0.0072973   -0.0333438  
   0.264986800    -0.0110795   -0.0321242  
   0.266986700    -0.0145837   -0.0303629  
   0.268986600    -0.0177377   -0.0282521  
   0.270986500    -0.0204986   -0.0258042  
   0.272986400    -0.0228383   -0.0230438  
   0.274986300    -0.0247304   -0.0200796  
   0.276986200    -0.0261030   -0.0169580  
   0.278986100    -0.0269663   -0.0136870  
   0.280986000    -0.0273091   -0.0103836  
   0.282985900    -0.0271389   -0.0071700  
   0.284985800    -0.0264578   -0.0040340  
   0.286985700    -0.0253627   -0.0011577  
   0.288985600    -0.0238520    0.0013917  
   0.290985500    -0.0219843    0.0036127  
   0.292985400    -0.0198303    0.0053925  
   0.294985300    -0.0174362    0.0067600  
   0.296985200    -0.0148272    0.0076489  
   0.298985100    -0.0120848    0.0081510  
   0.300985000    -0.0093440    0.0081590  
   0.302984900    -0.0066375    0.0077021  
   0.304984800    -0.0040846    0.0066811  
   0.306984700    -0.0016910    0.0052218  
   0.308984600     0.0003462    0.0033355  
   0.310984500     0.0020817    0.0010205  
   0.312984400     0.0034254   -0.0015875  
   0.314984300     0.0043293   -0.0044893  
   0.316984200     0.0047922   -0.0076004  
   0.318984100     0.0047356   -0.0107782  
   0.320984000     0.0041557   -0.0139474  
   0.322983900     0.0030443   -0.0170689  
   0.324983800     0.0014384   -0.0200479  
   0.326983700    -0.0007034   -0.0228226  
   0.328983600    -0.0033445   -0.0253183  
   0.330983500    -0.0063829   -0.0274442  
   0.332983400    -0.0097529   -0.0292656  
   0.334983300    -0.0134494   -0.0305414  
   0.336983200    -0.0173714   -0.0313901  
   0.338983100    -0.0214929   -0.0316543  
   0.340983000    -0.0256680   -0.0313522  
   0.342982900    -0.0298149   -0.0305178  
   0.344982800    -0.0339403   -0.0290194  
   0.346982700    -0.0379412   -0.0268866  
   0.348982600    -0.0417058   -0.0241677  
   0.350982500    -0.0451287   -0.0209216  
   0.352982400    -0.0481676   -0.0172561  
   0.354982300    -0.0507148   -0.0128257  
   0.356982200    -0.0526482   -0.0072043  
   0.358982100    -0.0537002   -0.0013367  
   0.360982000    -0.0539207    0.0046243  
   0.362981900    -0.0532309    0.0105061  
   0.364981800    -0.0516468    0.0162805  
   0.366981700    -0.0492728    0.0217754  
   0.368981600    -0.0460879    0.0268393  
   0.370981500    -0.0422326    0.0313397  
   0.372981400    -0.0377451    0.0352464  
   0.374981300    -0.0327375    0.0384487  
   0.376981200    -0.0415254    0.0313721  
   0.378981100    -0.0366163    0.0347406  
   0.380981000    -0.0314177    0.0372791  
   0.382980900    -0.0266950    0.0386273  
   0.384980800    -0.0222180    0.0392169  
   0.386980700    -0.0178253    0.0390903  
   0.388980600    -0.0135966    0.0383652  
   0.390980500    -0.0096010    0.0369252  
   0.392980400    -0.0060352    0.0349156  
   0.394980300    -0.0028032    0.0323199  
   0.396980200    -0.0001067    0.0293457  
   0.398980100     0.0021071    0.0259416  
   0.400980000     0.0036726    0.0222611  
   0.402979900     0.0046068    0.0184655  
   0.404979800     0.0049136    0.0145785  
   0.406979700     0.0045630    0.0106820  
   0.408979600     0.0035704    0.0069528  
   0.410979500     0.0019285    0.0034690  
   0.412979400    -0.0003116    0.0002886  
   0.414979300    -0.0031189   -0.0024202  
   0.416979200    -0.0064268   -0.0046218  
   0.418979100    -0.0101043   -0.0062860  
   0.420979000    -0.0140899   -0.0072853  
   0.422978900    -0.0183077   -0.0076215  
   0.424978800    -0.0226537   -0.0071924  
   0.426978700    -0.0270039   -0.0060403  
   0.428978600    -0.0312320   -0.0041239  
   0.430978500    -0.0352391   -0.0015213  
   0.432978400    -0.0388039    0.0017122  
   0.434978300    -0.0419964    0.0055774  
   0.436978200    -0.0446428    0.0100265  
   0.438978100    -0.0466354    0.0149701  
   0.440978000    -0.0480339    0.0202871  
   0.442977900    -0.0485584    0.0258669  
   0.444977800    -0.0483407    0.0316147  
   0.446977700    -0.0472795    0.0374667  
   0.448977600    -0.0453763    0.0432619  
   0.450977500    -0.0426605    0.0489032  
   0.452977400    -0.0391247    0.0542513  
   0.454977300    -0.0348273    0.0592072  
   0.456977200    -0.0297697    0.0636334  
   0.458977100    -0.0240605    0.0674476  
   0.460977000    -0.0178138    0.0705031  
   0.462976900    -0.0110948    0.0727096  
   0.464976800    -0.0040271    0.0740577  
   0.466976700     0.0032083    0.0744269  
   0.468976600     0.0105729    0.0738275  
   0.470976500     0.0178336    0.0722935  
   0.472976400     0.0248775    0.0698158  
   0.474976300     0.0315846    0.0663932  
   0.476976200     0.0378666    0.0620482  
   0.478976100     0.0435535    0.0569794  
   0.480976000     0.0485251    0.0512570  
   0.482975900     0.0527679    0.0449495  
   0.484975800     0.0561320    0.0382043  
   0.486975700     0.0585717    0.0309957  
   0.488975600     0.0600782    0.0235798  
   0.490975500     0.0606793    0.0160536  
   0.492975400     0.0601830    0.0084685  
   0.494975300     0.0586853    0.0010788  
   0.496975200     0.0562411   -0.0060331  
   0.498975100     0.0529309   -0.0127702  
   0.500975000     0.0487503   -0.0188736  
   0.502974900     0.0437582   -0.0242451  
   0.504974800     0.0381203   -0.0288530  
   0.506974700     0.0319208   -0.0326243  
   0.508974600     0.0251837   -0.0356049  
   0.510974500     0.0181453   -0.0375331  
   0.512974400     0.0109425   -0.0383861  
   0.514974300     0.0038061   -0.0381319  
   0.516974200    -0.0030256   -0.0369215  
   0.518974100    -0.0094690   -0.0347379  
   0.520974000    -0.0155177   -0.0316457  
   0.522973900    -0.0209301   -0.0277123  
   0.524973800    -0.0255581   -0.0230451  
   0.526973700    -0.0294334   -0.0177633  
   0.528973600    -0.0323878   -0.0119549  
   0.530973500    -0.0344070   -0.0058419  
   0.532973400    -0.0354295    0.0004812  
   0.534973300    -0.0353528    0.0068589  
   0.536973200    -0.0342783    0.0131081  
   0.538973100    -0.0321965    0.0191169  
   0.540973000    -0.0291163    0.0247998  
   0.542972900    -0.0251896    0.0298352  
   0.544972800    -0.0204685    0.0342030  
   0.546972700    -0.0150833    0.0377540  
   0.548972600    -0.0091608    0.0404290  
   0.550972500    -0.0028163    0.0420593  
   0.552972400     0.0038710    0.0426273  
   0.554972300     0.0106225    0.0421426  
   0.556972200     0.0173500    0.0405285  
   0.558972100     0.0238150    0.0377673  
   0.560972000     0.0300041    0.0340310  
   0.562971900     0.0357886    0.0293551  
   0.564971800     0.0406180    0.0237756  
   0.566971700     0.0446978    0.0174550  
   0.568971600     0.0477900    0.0104109  
   0.570971500     0.0497739    0.0028093  
   0.572971400     0.0509368   -0.0053254  
   0.574971300     0.0507395   -0.0135535  
   0.576971200     0.0492576   -0.0219480  
   0.578971100     0.0465864   -0.0302777  
   0.580971000     0.0426534   -0.0382606  
   0.582970900     0.0376069   -0.0457753  
   0.584970800     0.0314233   -0.0525626  
   0.586970700     0.0243314   -0.0585162  
   0.588970600     0.0161875   -0.0635958  
   0.590970500     0.0073811   -0.0675936  
   0.592970400    -0.0019762   -0.0704013  
   0.594970300    -0.0117623   -0.0719523  
   0.596970200    -0.0218705   -0.0721383  
   0.598970100    -0.0321169   -0.0709658  
   0.600970000    -0.0420865   -0.0685114  
   0.602969900    -0.0518281   -0.0647337  
   0.604969800    -0.0610887   -0.0596910  
   0.606969700    -0.0697031   -0.0533933  
   0.608969600    -0.0775001   -0.0459744  
   0.610969500    -0.0843070   -0.0376085  
   0.612969400    -0.0899341   -0.0282875  
   0.614969300    -0.0943487   -0.0183115  
   0.616969200    -0.0974819   -0.0076601  
   0.618969100    -0.0990614    0.0032498  
   0.620969000    -0.0993496    0.0142264  
   0.622968900    -0.0981884    0.0251709  
   0.624968800    -0.0956699    0.0358767  
   0.626968700    -0.0917700    0.0461534  
   0.628968600    -0.0865248    0.0557930  
   0.630968500    -0.0800850    0.0646717  
   0.632968400    -0.0725537    0.0725971  
   0.634968300    -0.0640877    0.0796544  
   0.636968200    -0.0548275    0.0853013  
   0.638968100    -0.0448080    0.0897928  
   0.640968000    -0.0345490    0.0926806  
   0.642967900    -0.0241117    0.0942361  
   0.644967800    -0.0134912    0.0942917  
   0.646967700    -0.0031923    0.0929492  
   0.648967600     0.0068445    0.0903046  
   0.650967500     0.0163556    0.0864007  
   0.652967400     0.0248643    0.0812736  
   0.654967300     0.0325653    0.0750123  
   0.656967200     0.0391786    0.0678856  
   0.658967100     0.0446324    0.0601573  
   0.660967000     0.0488642    0.0516796  
   0.662966900     0.0518812    0.0426844  
   0.664966800     0.0536753    0.0333219  
   0.666966700     0.0540622    0.0238502  
   0.668966600     0.0530800    0.0145297  
   0.670966500     0.0508248    0.0055666  
   0.672966400     0.0473639   -0.0028845  
   0.674966300     0.0426106   -0.0108357  
   0.676966200     0.0368248   -0.0176032  
   0.678966100     0.0302868   -0.0232699  
   0.680966000     0.0227646   -0.0278215  
   0.682965900     0.0148405   -0.0311282  
   0.684965800     0.0064593   -0.0332103  
   0.686965700    -0.0020336   -0.0339971  
   0.688965600    -0.0104376   -0.0334132  
   0.690965500    -0.0186111   -0.0315016  
   0.692965400    -0.0263603   -0.0282779  
   0.694965300    -0.0335225   -0.0239370  
   0.696965200    -0.0398684   -0.0185179  
   0.698965100    -0.0453825   -0.0121690  
   0.700965000    -0.0498150   -0.0050275  
   0.702964900    -0.0530314    0.0027254  
   0.704964800    -0.0550234    0.0109130  
   0.706964700    -0.0557362    0.0194555  
   0.708964600    -0.0551056    0.0280555  
   0.710964500    -0.0530464    0.0364262  
   0.712964400    -0.0495922    0.0446533  
   0.714964300    -0.0449896    0.0521219  
   0.716964200    -0.0393047    0.0589263  
   0.718964100    -0.0327511    0.0648810  
   0.720964000    -0.0252973    0.0698402  
   0.722963900    -0.0172528    0.0737592  
   0.724963800    -0.0086144    0.0764406  
   0.726963700     0.0004803    0.0780422  
   0.728963600     0.0096620    0.0781210  
   0.730963500     0.0188078    0.0769016  
   0.732963400     0.0278152    0.0743097  
   0.734963300     0.0364752    0.0704691  
   0.736963200     0.0470406    0.0639141  
   0.738963100     0.0566346    0.0557793  
   0.740963000     0.0650232    0.0461674  
   0.742962900     0.0719089    0.0354092  
   0.744962800     0.0771045    0.0237325  
   0.746962700     0.0803662    0.0115937  
   0.748962600     0.0817549   -0.0007568  
   0.750962500     0.0647306    0.0175620  
   0.752962400     0.0663875    0.0055580  
   0.754962300     0.0661290   -0.0063366  
   0.756962200     0.0639589   -0.0178003  
   0.758962100     0.0600574   -0.0287785  
   0.760962000     0.0545553   -0.0385687  
   0.762961900     0.0475997   -0.0465150  
   0.764961800     0.0397010   -0.0524004  
   0.766961700     0.0309664   -0.0570980  
   0.768961600     0.0218984   -0.0604413  
   0.770961500     0.0124040   -0.0623879  
   0.772961400     0.0027800   -0.0630244  
   0.774961300    -0.0067388   -0.0622906  
   0.776961200    -0.0160227   -0.0602659  
   0.778961100    -0.0248299   -0.0569917  
   0.780961000    -0.0330283   -0.0525316  
   0.782960900    -0.0403644   -0.0470319  
   0.784960800    -0.0467108   -0.0405108  
   0.786960700    -0.0518786   -0.0332556  
   0.788960600    -0.0558665   -0.0253230  
   0.790960500    -0.0586775   -0.0168269  
   0.792960400    -0.0600954   -0.0080871  
   0.794960300    -0.0601644    0.0005683  
   0.796960200    -0.0589648    0.0090500  
   0.798960100    -0.0564985    0.0172141  
   0.800960000    -0.0527773    0.0250795  
   0.802959900    -0.0480333    0.0319616  
   0.804959800    -0.0424016    0.0380035  
   0.806959700    -0.0359278    0.0430127  
   0.808959600    -0.0288791    0.0469354  
   0.810959500    -0.0212649    0.0496766  
   0.812959400    -0.0132282    0.0511473  
   0.814959300    -0.0051909    0.0513372  
   0.816959200     0.0028300    0.0502012  
   0.818959100     0.0105578    0.0478375  
   0.820959000     0.0179636    0.0442528  
   0.822958900     0.0247972    0.0395801  
   0.824958800     0.0308375    0.0338390  
   0.826958700     0.0361289    0.0270343  
   0.828958600     0.0401819    0.0195756  
   0.830958500     0.0429586    0.0114031  
   0.832958400     0.0444567    0.0028976  
   0.834958300     0.0445823   -0.0059354  
   0.836958200     0.0434750   -0.0147462  
   0.838958100     0.0410196   -0.0234458  
   0.840958000     0.0372889   -0.0316239  
   0.842957900     0.0323258   -0.0392490  
   0.844957800     0.0262469   -0.0461351  
   0.846957700     0.0191037   -0.0521131  
   0.848957600     0.0110201   -0.0570443  
   0.850957500     0.0023105   -0.0607821  
   0.852957400    -0.0069271   -0.0631886  
   0.854957300    -0.0165348   -0.0642678  
   0.856957200    -0.0262798   -0.0639439  
   0.858957100    -0.0359534   -0.0622240  
   0.860957000    -0.0453904   -0.0591717  
   0.862956900    -0.0544849   -0.0547919  
   0.864956800    -0.0629986   -0.0492690  
   0.866956700    -0.0705801   -0.0427196  
   0.868956600    -0.0773519   -0.0350724  
   0.870956500    -0.0829480   -0.0267074  
   0.872956400    -0.0873000   -0.0176832  
   0.874956300    -0.0902842   -0.0082038  
   0.876956200    -0.0919298    0.0017428  
   0.878956100    -0.0921342    0.0117379  
   0.880956000    -0.0909239    0.0217103  
   0.882955900    -0.0883114    0.0313890  
   0.884955800    -0.0843944    0.0407803  
   0.886955700    -0.0792114    0.0494309  
   0.888955600    -0.0729064    0.0571850  
   0.890955500    -0.0656157    0.0638649  
   0.892955400    -0.0574784    0.0694771  
   0.894955300    -0.0487512    0.0738114  
