! MS46122B
! 2250307/22442219
! 6/11/2025 1:18:30 PM
! C:\USERS\SPARKY\DOCUMENTS\VNA_DATA\JUNE11_2025\ECAL-LOAD.S1P
! CHANNEL.1
! TR.MEASUREMENT
! RAW.DATA
# GHZ S RI R 50.0
! FREQ.GHZ         S11RE         S11IM         
!; PortSelection: Port_1
   0.001000000     0.0220240    0.0070230  
   0.002999900     0.0076567    0.0561121  
   0.004999800     0.0064666    0.0628839  
   0.006999700     0.0070698    0.0594721  
   0.008999600     0.0079983    0.0519126  
   0.010999500     0.0092895    0.0425574  
   0.012999400     0.0110377    0.0326032  
   0.014999300     0.0131863    0.0226831  
   0.016999200     0.0156341    0.0132705  
   0.018999100     0.0183034    0.0044954  
   0.020999000     0.0209236   -0.0034224  
   0.022998900     0.0233496   -0.0105235  
   0.024998800     0.0228440   -0.0151790  
   0.026998700     0.0268248   -0.0220743  
   0.028998600     0.0276423   -0.0266929  
   0.030998500     0.0277230   -0.0305544  
   0.032998400     0.0248989   -0.0321833  
   0.034998300     0.0257595   -0.0365506  
   0.036998200     0.0238611   -0.0387671  
   0.038998100     0.0213467   -0.0405842  
   0.040998000     0.0183960   -0.0420349  
   0.042997900     0.0150432   -0.0430601  
   0.044997800     0.0098761   -0.0421541  
   0.046997700     0.0075069   -0.0440003  
   0.048997600     0.0035024   -0.0439723  
   0.050997500    -0.0005108   -0.0436651  
   0.052997400    -0.0044354   -0.0430819  
   0.054997300    -0.0082997   -0.0421542  
   0.056997200    -0.0119006   -0.0412977  
   0.058997100    -0.0152795   -0.0401868  
   0.060997000    -0.0184392   -0.0389252  
   0.062996900    -0.0212962   -0.0375773  
   0.064996800    -0.0239396   -0.0362391  
   0.066996700    -0.0262683   -0.0348231  
   0.068996600    -0.0283387   -0.0332131  
   0.070996500    -0.0302154   -0.0315480  
   0.072996400    -0.0317848   -0.0297509  
   0.074996300    -0.0331447   -0.0278346  
   0.076996200    -0.0342725   -0.0258609  
   0.078996100    -0.0352388   -0.0238331  
   0.080996000    -0.0359280   -0.0217075  
   0.082995900    -0.0364807   -0.0195757  
   0.084995800    -0.0369013   -0.0173997  
   0.086995700    -0.0371165   -0.0152086  
   0.088995600    -0.0372104   -0.0129927  
   0.090995500    -0.0371595   -0.0108750  
   0.092995400    -0.0369406   -0.0087603  
   0.094995300    -0.0366135   -0.0067282  
   0.096995200    -0.0361289   -0.0047875  
   0.098995100    -0.0355117   -0.0029307  
   0.100995000    -0.0347769   -0.0012133  
   0.102994900    -0.0339328    0.0003838  
   0.104994800    -0.0329509    0.0018545  
   0.106994700    -0.0319057    0.0031521  
   0.108994600    -0.0307313    0.0042503  
   0.110994500    -0.0295314    0.0051946  
   0.112994400    -0.0282506    0.0059814  
   0.114994300    -0.0269558    0.0065674  
   0.116994200    -0.0256262    0.0069520  
   0.118994100    -0.0243177    0.0071934  
   0.120994000    -0.0230335    0.0072528  
   0.122993900    -0.0217921    0.0071436  
   0.124993800    -0.0206015    0.0068538  
   0.126993700    -0.0195909    0.0064123  
   0.128993600    -0.0186427    0.0058380  
   0.130993500    -0.0178407    0.0051698  
   0.132993400    -0.0172068    0.0043727  
   0.134993300    -0.0167763    0.0035040  
   0.136993200    -0.0165353    0.0026011  
   0.138993100    -0.0164335    0.0016254  
   0.140993000    -0.0165697    0.0007038  
   0.142992900    -0.0169226   -0.0002314  
   0.144992800    -0.0174790   -0.0010702  
   0.146992700    -0.0182565   -0.0018407  
   0.148992600    -0.0192019   -0.0024912  
   0.150992500    -0.0202875   -0.0030115  
   0.152992400    -0.0215588   -0.0033159  
   0.154992300    -0.0229407   -0.0034481  
   0.156992200    -0.0244331   -0.0033337  
   0.158992100    -0.0259795   -0.0030020  
   0.160992000    -0.0275796   -0.0024340  
   0.162991900    -0.0291816   -0.0015586  
   0.164991800    -0.0306980   -0.0004134  
   0.166991700    -0.0322075    0.0010160  
   0.168991600    -0.0335644    0.0026816  
   0.170991500    -0.0347165    0.0046291  
   0.172991400    -0.0356659    0.0068284  
   0.174991300    -0.0364686    0.0092499  
   0.176991200    -0.0369457    0.0118538  
   0.178991100    -0.0370931    0.0146028  
   0.180991000    -0.0369464    0.0174691  
   0.182990900    -0.0364486    0.0203984  
   0.184990800    -0.0355505    0.0234371  
   0.186990700    -0.0342407    0.0264389  
   0.188990600    -0.0341081    0.0287905  
   0.190990500    -0.0308794    0.0323415  
   0.192990400    -0.0282008    0.0350538  
   0.194990300    -0.0253385    0.0374746  
   0.196990200    -0.0222384    0.0395524  
   0.198990100    -0.0188403    0.0413247  
   0.200990000    -0.0151082    0.0427353  
   0.202989900    -0.0110472    0.0436761  
   0.204989800    -0.0068071    0.0442290  
   0.206989700    -0.0025975    0.0442990  
   0.208989600     0.0016680    0.0439285  
   0.210989500     0.0060013    0.0430594  
   0.212989400     0.0102614    0.0416648  
   0.214989300     0.0143915    0.0397870  
   0.216989200     0.0182773    0.0375250  
   0.218989100     0.0218788    0.0346345  
   0.220989000     0.0252446    0.0312602  
   0.222988900     0.0282427    0.0275945  
   0.224988800     0.0308215    0.0236408  
   0.226988700     0.0329038    0.0193909  
   0.228988600     0.0344452    0.0149272  
   0.230988500     0.0354633    0.0102808  
   0.232988400     0.0359244    0.0055768  
   0.234988300     0.0358856    0.0008029  
   0.236988200     0.0352325   -0.0038964  
   0.238988100     0.0340672   -0.0084909  
   0.240988000     0.0323699   -0.0128694  
   0.242987900     0.0301005   -0.0169988  
   0.244987800     0.0274071   -0.0208119  
   0.246987700     0.0243141   -0.0242367  
   0.248987600     0.0208761   -0.0272405  
   0.250987500     0.0170429   -0.0297738  
   0.252987400     0.0130398   -0.0317302  
   0.254987300     0.0088712   -0.0332178  
   0.256987200     0.0046287   -0.0341303  
   0.258987100     0.0003666   -0.0344852  
   0.260987000    -0.0038056   -0.0342816  
   0.262986900    -0.0078303   -0.0335334  
   0.264986800    -0.0116683   -0.0322521  
   0.266986700    -0.0152021   -0.0305197  
   0.268986600    -0.0183881   -0.0283300  
   0.270986500    -0.0211783   -0.0258348  
   0.272986400    -0.0235527   -0.0230682  
   0.274986300    -0.0254457   -0.0200605  
   0.276986200    -0.0268505   -0.0168750  
   0.278986100    -0.0277113   -0.0135624  
   0.280986000    -0.0280518   -0.0102016  
   0.282985900    -0.0278507   -0.0069305  
   0.284985800    -0.0271605   -0.0037355  
   0.286985700    -0.0260047   -0.0008203  
   0.288985600    -0.0244656    0.0017917  
   0.290985500    -0.0225610    0.0039989  
   0.292985400    -0.0203589    0.0058282  
   0.294985300    -0.0178947    0.0072247  
   0.296985200    -0.0152431    0.0081178  
   0.298985100    -0.0124305    0.0086671  
   0.300985000    -0.0096193    0.0086574  
   0.302984900    -0.0068621    0.0081536  
   0.304984800    -0.0042273    0.0071864  
   0.306984700    -0.0017699    0.0056771  
   0.308984600     0.0003314    0.0037629  
   0.310984500     0.0021382    0.0013473  
   0.312984400     0.0035186   -0.0013049  
   0.314984300     0.0044806   -0.0042700  
   0.316984200     0.0049615   -0.0074602  
   0.318984100     0.0049202   -0.0107161  
   0.320984000     0.0043557   -0.0139701  
   0.322983900     0.0032534   -0.0171688  
   0.324983800     0.0016267   -0.0201904  
   0.326983700    -0.0005297   -0.0230729  
   0.328983600    -0.0031808   -0.0256238  
   0.330983500    -0.0062560   -0.0278451  
   0.332983400    -0.0096469   -0.0296731  
   0.334983300    -0.0134539   -0.0310584  
   0.336983200    -0.0174333   -0.0319246  
   0.338983100    -0.0216176   -0.0322754  
   0.340983000    -0.0258610   -0.0319725  
   0.342982900    -0.0301283   -0.0311301  
   0.344982800    -0.0343064   -0.0296544  
   0.346982700    -0.0383720   -0.0274963  
   0.348982600    -0.0422137   -0.0247696  
   0.350982500    -0.0456869   -0.0215206  
   0.352982400    -0.0488214   -0.0177678  
   0.354982300    -0.0514908   -0.0133108  
   0.356982200    -0.0534327   -0.0075318  
   0.358982100    -0.0545267   -0.0016218  
   0.360982000    -0.0547621    0.0044295  
   0.362981900    -0.0540812    0.0104101  
   0.364981800    -0.0525465    0.0163402  
   0.366981700    -0.0501285    0.0218974  
   0.368981600    -0.0469019    0.0270846  
   0.370981500    -0.0429914    0.0316942  
   0.372981400    -0.0384060    0.0357271  
   0.374981300    -0.0332967    0.0390017  
   0.376981200    -0.0421503    0.0317987  
   0.378981100    -0.0371606    0.0352675  
   0.380981000    -0.0318293    0.0378746  
   0.382980900    -0.0269848    0.0392682  
   0.384980800    -0.0224415    0.0398896  
   0.386980700    -0.0179124    0.0397597  
   0.388980600    -0.0135780    0.0389807  
   0.390980500    -0.0094704    0.0375507  
   0.392980400    -0.0057338    0.0354742  
   0.394980300    -0.0023959    0.0328486  
   0.396980200     0.0004036    0.0297825  
   0.398980100     0.0026578    0.0263035  
   0.400980000     0.0043444    0.0225380  
   0.402979900     0.0053134    0.0186434  
   0.404979800     0.0056983    0.0146346  
   0.406979700     0.0053654    0.0106112  
   0.408979600     0.0044478    0.0067657  
   0.410979500     0.0028208    0.0031196  
   0.412979400     0.0005120   -0.0001331  
   0.414979300    -0.0022797   -0.0029690  
   0.416979200    -0.0056035   -0.0053154  
   0.418979100    -0.0093648   -0.0070683  
   0.420979000    -0.0134332   -0.0082207  
   0.422978900    -0.0177342   -0.0085966  
   0.424978800    -0.0221783   -0.0082683  
   0.426978700    -0.0266459   -0.0071812  
   0.428978600    -0.0310016   -0.0053440  
   0.430978500    -0.0350745   -0.0027434  
   0.432978400    -0.0388340    0.0004325  
   0.434978300    -0.0421080    0.0043050  
   0.436978200    -0.0449032    0.0087883  
   0.438978100    -0.0470256    0.0137359  
   0.440978000    -0.0484836    0.0191288  
   0.442977900    -0.0491659    0.0247810  
   0.444977800    -0.0490285    0.0306494  
   0.446977700    -0.0480613    0.0365749  
   0.448977600    -0.0462456    0.0424540  
   0.450977500    -0.0435667    0.0482312  
   0.452977400    -0.0401043    0.0537123  
   0.454977300    -0.0358408    0.0588176  
   0.456977200    -0.0307806    0.0633531  
   0.458977100    -0.0250353    0.0673304  
   0.460977000    -0.0187162    0.0705037  
   0.462976900    -0.0119535    0.0728554  
   0.464976800    -0.0048276    0.0743134  
   0.466976700     0.0025162    0.0748160  
   0.468976600     0.0099647    0.0743373  
   0.470976500     0.0173180    0.0728715  
   0.472976400     0.0244681    0.0704632  
   0.474976300     0.0313639    0.0670695  
   0.476976200     0.0377637    0.0628141  
   0.478976100     0.0435726    0.0577409  
   0.480976000     0.0487172    0.0520114  
   0.482975900     0.0530612    0.0456812  
   0.484975800     0.0565778    0.0389023  
   0.486975700     0.0591599    0.0316911  
   0.488975600     0.0607888    0.0241856  
   0.490975500     0.0614807    0.0165597  
   0.492975400     0.0611015    0.0088732  
   0.494975300     0.0596706    0.0013997  
   0.496975200     0.0573217   -0.0058310  
   0.498975100     0.0540583   -0.0126941  
   0.500975000     0.0499142   -0.0189567  
   0.502974900     0.0448977   -0.0244651  
   0.504974800     0.0392146   -0.0292131  
   0.506974700     0.0330104   -0.0331198  
   0.508974600     0.0261998   -0.0362146  
   0.510974500     0.0191249   -0.0382769  
   0.512974400     0.0118433   -0.0391925  
   0.514974300     0.0046044   -0.0390356  
   0.516974200    -0.0023537   -0.0379135  
   0.518974100    -0.0089299   -0.0357746  
   0.520974000    -0.0150624   -0.0327050  
   0.522973900    -0.0205723   -0.0287782  
   0.524973800    -0.0253891   -0.0241040  
   0.526973700    -0.0294048   -0.0188192  
   0.528973600    -0.0324492   -0.0130070  
   0.530973500    -0.0346032   -0.0068239  
   0.532973400    -0.0357205   -0.0004184  
   0.534973300    -0.0357429    0.0060443  
   0.536973200    -0.0347777    0.0123885  
   0.538973100    -0.0327681    0.0184994  
   0.540973000    -0.0297369    0.0242913  
   0.542972900    -0.0258665    0.0294517  
   0.544972800    -0.0211729    0.0339682  
   0.546972700    -0.0157533    0.0376462  
   0.548972600    -0.0098014    0.0404429  
   0.550972500    -0.0034318    0.0422245  
   0.552972400     0.0032952    0.0429313  
   0.554972300     0.0100975    0.0425444  
   0.556972200     0.0169180    0.0410151  
   0.558972100     0.0234887    0.0383825  
   0.560972000     0.0297613    0.0346921  
   0.562971900     0.0355832    0.0301126  
   0.564971800     0.0406095    0.0245793  
   0.566971700     0.0447985    0.0182959  
   0.568971600     0.0480118    0.0112493  
   0.570971500     0.0501685    0.0037059  
   0.572971400     0.0513626   -0.0044575  
   0.574971300     0.0513172   -0.0127388  
   0.576971200     0.0499474   -0.0212220  
   0.578971100     0.0473996   -0.0295941  
   0.580971000     0.0435399   -0.0376771  
   0.582970900     0.0385304   -0.0452609  
   0.584970800     0.0324622   -0.0521379  
   0.586970700     0.0253877   -0.0582219  
   0.588970600     0.0172384   -0.0633934  
   0.590970500     0.0084415   -0.0674847  
   0.592970400    -0.0009383   -0.0704286  
   0.594970300    -0.0107126   -0.0720851  
   0.596970200    -0.0209208   -0.0723537  
   0.598970100    -0.0311358   -0.0712790  
   0.600970000    -0.0412371   -0.0689459  
   0.602969900    -0.0510315   -0.0652246  
   0.604969800    -0.0603690   -0.0602521  
   0.606969700    -0.0690832   -0.0540268  
   0.608969600    -0.0769953   -0.0466347  
   0.610969500    -0.0839146   -0.0382610  
   0.612969400    -0.0895780   -0.0289600  
   0.614969300    -0.0941465   -0.0189422  
   0.616969200    -0.0973592   -0.0083064  
   0.618969100    -0.0990843    0.0026636  
   0.620969000    -0.0994210    0.0137148  
   0.622968900    -0.0983542    0.0247390  
   0.624968800    -0.0959051    0.0354846  
   0.626968700    -0.0920972    0.0458636  
   0.628968600    -0.0868701    0.0555838  
   0.630968500    -0.0804905    0.0645674  
   0.632968400    -0.0729677    0.0725974  
   0.634968300    -0.0645437    0.0797605  
   0.636968200    -0.0552374    0.0854637  
   0.638968100    -0.0452378    0.0900851  
   0.640968000    -0.0348850    0.0931068  
   0.642967900    -0.0243140    0.0947046  
   0.644967800    -0.0137672    0.0948409  
   0.646967700    -0.0033713    0.0936159  
   0.648967600     0.0067272    0.0910000  
   0.650967500     0.0163000    0.0871075  
   0.652967400     0.0248975    0.0820767  
   0.654967300     0.0327026    0.0757911  
   0.656967200     0.0393952    0.0686447  
   0.658967100     0.0449471    0.0608976  
   0.660967000     0.0492666    0.0523820  
   0.662966900     0.0524275    0.0433167  
   0.664966800     0.0542069    0.0339481  
   0.666966700     0.0546642    0.0243653  
   0.668966600     0.0537383    0.0149992  
   0.670966500     0.0514918    0.0059447  
   0.672966400     0.0481701   -0.0026461  
   0.674966300     0.0433774   -0.0106773  
   0.676966200     0.0375205   -0.0175224  
   0.678966100     0.0309943   -0.0233199  
   0.680966000     0.0234202   -0.0279562  
   0.682965900     0.0154903   -0.0313482  
   0.684965800     0.0070635   -0.0334767  
   0.686965700    -0.0015272   -0.0343831  
   0.688965600    -0.0100108   -0.0338586  
   0.690965500    -0.0182498   -0.0319823  
   0.692965400    -0.0260945   -0.0288009  
   0.694965300    -0.0333916   -0.0244646  
   0.696965200    -0.0398940   -0.0190925  
   0.698965100    -0.0454139   -0.0127015  
   0.700965000    -0.0499533   -0.0055841  
   0.702964900    -0.0533133    0.0022015  
   0.704964800    -0.0554269    0.0104468  
   0.706964700    -0.0562166    0.0190281  
   0.708964600    -0.0556580    0.0277290  
   0.710964500    -0.0537008    0.0361245  
   0.712964400    -0.0503268    0.0444798  
   0.714964300    -0.0457268    0.0520534  
   0.716964200    -0.0401230    0.0589432  
   0.718964100    -0.0335947    0.0649974  
   0.720964000    -0.0261902    0.0700542  
   0.722963900    -0.0182213    0.0740668  
   0.724963800    -0.0095581    0.0768684  
   0.726963700    -0.0003445    0.0785097  
   0.728963600     0.0088136    0.0787110  
   0.730963500     0.0180088    0.0776132  
   0.732963400     0.0270330    0.0751104  
   0.734963300     0.0357678    0.0713141  
   0.736963200     0.0464356    0.0647941  
   0.738963100     0.0561388    0.0567321  
   0.740963000     0.0646477    0.0471234  
   0.742962900     0.0716253    0.0363945  
   0.744962800     0.0769119    0.0247204  
   0.746962700     0.0802653    0.0125976  
   0.748962600     0.0818144    0.0002152  
   0.750962500     0.0645091    0.0184365  
   0.752962400     0.0662867    0.0064015  
   0.754962300     0.0660987   -0.0055044  
   0.756962200     0.0640055   -0.0170012  
   0.758962100     0.0601574   -0.0280407  
   0.760962000     0.0546984   -0.0378933  
   0.762961900     0.0477813   -0.0459236  
   0.764961800     0.0398766   -0.0519038  
   0.766961700     0.0311775   -0.0566837  
   0.768961600     0.0220559   -0.0600929  
   0.770961500     0.0125498   -0.0620741  
   0.772961400     0.0028993   -0.0627831  
   0.774961300    -0.0066903   -0.0621001  
   0.776961200    -0.0160308   -0.0601242  
   0.778961100    -0.0248902   -0.0569076  
   0.780961000    -0.0331150   -0.0524803  
   0.782960900    -0.0405135   -0.0469886  
   0.784960800    -0.0469263   -0.0404954  
   0.786960700    -0.0521778   -0.0331995  
   0.788960600    -0.0561995   -0.0252754  
   0.790960500    -0.0590804   -0.0167627  
   0.792960400    -0.0605525   -0.0080227  
   0.794960300    -0.0606603    0.0006754  
   0.796960200    -0.0595112    0.0092302  
   0.798960100    -0.0570938    0.0174317  
   0.800960000    -0.0534040    0.0253066  
   0.802959900    -0.0486672    0.0322403  
   0.804959800    -0.0430506    0.0383414  
   0.806959700    -0.0365944    0.0434192  
   0.808959600    -0.0294779    0.0473961  
   0.810959500    -0.0218765    0.0501688  
   0.812959400    -0.0138761    0.0516649  
   0.814959300    -0.0057925    0.0519227  
   0.816959200     0.0023038    0.0508347  
   0.818959100     0.0100254    0.0485039  
   0.820959000     0.0174857    0.0449318  
   0.822958900     0.0243751    0.0402805  
   0.824958800     0.0305337    0.0345404  
   0.826958700     0.0358972    0.0277534  
   0.828958600     0.0399729    0.0201757  
   0.830958500     0.0428084    0.0120496  
   0.832958400     0.0443481    0.0034756  
   0.834958300     0.0445574   -0.0053461  
   0.836958200     0.0434589   -0.0142199  
   0.838958100     0.0410686   -0.0229818  
   0.840958000     0.0373577   -0.0312146  
   0.842957900     0.0324192   -0.0389232  
   0.844957800     0.0263462   -0.0458681  
   0.846957700     0.0192099   -0.0518960  
   0.848957600     0.0111488   -0.0568875  
   0.850957500     0.0024331   -0.0606814  
   0.852957400    -0.0068484   -0.0631969  
   0.854957300    -0.0164900   -0.0643317  
   0.856957200    -0.0262506   -0.0640662  
   0.858957100    -0.0359957   -0.0623926  
   0.860957000    -0.0455021   -0.0593995  
   0.862956900    -0.0546569   -0.0550831  
   0.864956800    -0.0632306   -0.0495694  
   0.866956700    -0.0709062   -0.0430680  
   0.868956600    -0.0777201   -0.0354829  
   0.870956500    -0.0833935   -0.0271157  
   0.872956400    -0.0878122   -0.0181158  
   0.874956300    -0.0909655   -0.0086094  
   0.876956200    -0.0926488    0.0013109  
   0.878956100    -0.0928856    0.0113885  
   0.880956000    -0.0917844    0.0213416  
   0.882955900    -0.0891887    0.0310818  
   0.884955800    -0.0853058    0.0404755  
   0.886955700    -0.0801875    0.0492459  
   0.888955600    -0.0739060    0.0570052  
   0.890955500    -0.0666835    0.0637542  
   0.892955400    -0.0585225    0.0694683  
   0.894955300    -0.0498148    0.0738553  
