! MS46122B
! 2250307/22442219
! 6/11/2025 1:18:00 PM
! C:\USERS\SPARKY\DOCUMENTS\VNA_DATA\JUNE11_2025\ECAL-OPEN.S1P
! CHANNEL.1
! TR.MEASUREMENT
! RAW.DATA
# GHZ S RI R 50.0
! FREQ.GHZ         S11RE         S11IM         
!; PortSelection: Port_1
   0.001000000     1.0286000   -0.0540915  
   0.002999900     0.9433697   -0.2072506  
   0.004999800     0.8819008   -0.3476942  
   0.006999700     0.8082700   -0.4776272  
   0.008999600     0.7198792   -0.5900713  
   0.010999500     0.6205631   -0.6901981  
   0.012999400     0.5112730   -0.7775892  
   0.014999300     0.3928978   -0.8506656  
   0.016999200     0.2661818   -0.9066350  
   0.018999100     0.1332593   -0.9437754  
   0.020999000    -0.0040488   -0.9604817  
   0.022998900    -0.1422911   -0.9557578  
   0.024998800    -0.2551260   -0.9034398  
   0.026998700    -0.4100990   -0.8797404  
   0.028998600    -0.5328063   -0.8097833  
   0.030998500    -0.6432686   -0.7209590  
   0.032998400    -0.7064819   -0.6084510  
   0.034998300    -0.8177658   -0.4964243  
   0.036998200    -0.8772501   -0.3665850  
   0.038998100    -0.9167042   -0.2303728  
   0.040998000    -0.9353987   -0.0895952  
   0.042997900    -0.9338897    0.0510876  
   0.044997800    -0.8871014    0.1672284  
   0.046997700    -0.8699714    0.3231128  
   0.048997600    -0.8093612    0.4489745  
   0.050997500    -0.7310474    0.5644822  
   0.052997400    -0.6363004    0.6668211  
   0.054997300    -0.5284528    0.7529079  
   0.056997200    -0.4054841    0.8233458  
   0.058997100    -0.2747732    0.8731408  
   0.060997000    -0.1382049    0.9022045  
   0.062996900     0.0013953    0.9098597  
   0.064996800     0.1406130    0.8960602  
   0.066996700     0.2759249    0.8611099  
   0.068996600     0.4040411    0.8061709  
   0.070996500     0.5222198    0.7323506  
   0.072996400     0.6278389    0.6417623  
   0.074996300     0.7185258    0.5364084  
   0.076996200     0.7921481    0.4186452  
   0.078996100     0.8468171    0.2911038  
   0.080996000     0.8812456    0.1572412  
   0.082995900     0.8949897    0.0198893  
   0.084995800     0.8873821   -0.1175343  
   0.086995700     0.8593479   -0.2515954  
   0.088995600     0.8115434   -0.3795347  
   0.090995500     0.7447886   -0.4981476  
   0.092995400     0.6617371   -0.6048203  
   0.094995300     0.5636494   -0.6975765  
   0.096995200     0.4538669   -0.7743800  
   0.098995100     0.3340399   -0.8338528  
   0.100995000     0.2075126   -0.8747655  
   0.102994900     0.0769652   -0.8963388  
   0.104994800    -0.0549608   -0.8988598  
   0.106994700    -0.1851632   -0.8821098  
   0.108994600    -0.3109437   -0.8469324  
   0.110994500    -0.4302352   -0.7942354  
   0.112994400    -0.5400845   -0.7250691  
   0.114994300    -0.6386881   -0.6409290  
   0.116994200    -0.7240627   -0.5438174  
   0.118994100    -0.7945654   -0.4357545  
   0.120994000    -0.8484239   -0.3185244  
   0.122993900    -0.8851810   -0.1953358  
   0.124993800    -0.9038972   -0.0682547  
   0.126993700    -0.9042466    0.0606793  
   0.128993600    -0.8865893    0.1880517  
   0.130993500    -0.8505683    0.3121383  
   0.132993400    -0.7971498    0.4296338  
   0.134993300    -0.7271930    0.5388781  
   0.136993200    -0.6421692    0.6367323  
   0.138993100    -0.5433692    0.7218640  
   0.140993000    -0.4330876    0.7920769  
   0.142992900    -0.3127984    0.8452682  
   0.144992800    -0.1856269    0.8810164  
   0.146992700    -0.0541191    0.8976256  
   0.148992600     0.0790788    0.8943607  
   0.150992500     0.2104560    0.8711424  
   0.152992400     0.3381039    0.8286460  
   0.154992300     0.4578956    0.7670618  
   0.156992200     0.5675397    0.6876571  
   0.158992100     0.6644334    0.5924711  
   0.160992000     0.7460307    0.4834776  
   0.162991900     0.8099834    0.3626503  
   0.164991800     0.8547367    0.2328099  
   0.166991700     0.8790299    0.0981225  
   0.168991600     0.8821141   -0.0390055  
   0.170991500     0.8642315   -0.1755299  
   0.172991400     0.8251459   -0.3071320  
   0.174991300     0.7665900   -0.4308284  
   0.176991200     0.6893946   -0.5442465  
   0.178991100     0.5958200   -0.6439011  
   0.180991000     0.4883812   -0.7276323  
   0.182990900     0.3698245   -0.7936128  
   0.184990800     0.2426913   -0.8406405  
   0.186990700     0.1104087   -0.8671247  
   0.188990600     0.0009787   -0.8730382  
   0.190990500    -0.1525274   -0.8592960  
   0.192990400    -0.2844041   -0.8243300  
   0.194990300    -0.4057228   -0.7711688  
   0.196990200    -0.5162711   -0.7010894  
   0.198990100    -0.6147493   -0.6156676  
   0.200990000    -0.6989896   -0.5169391  
   0.202989900    -0.7675617   -0.4069470  
   0.204989800    -0.8189841   -0.2887253  
   0.206989700    -0.8519611   -0.1652069  
   0.208989600    -0.8665594   -0.0387832  
   0.210989500    -0.8625926    0.0883006  
   0.212989400    -0.8399799    0.2137464  
   0.214989300    -0.7993380    0.3338488  
   0.216989200    -0.7421532    0.4462998  
   0.218989100    -0.6695861    0.5490561  
   0.220989000    -0.5830247    0.6402702  
   0.222988900    -0.4835627    0.7186447  
   0.224988800    -0.3736375    0.7814544  
   0.226988700    -0.2558833    0.8275962  
   0.228988600    -0.1329858    0.8563510  
   0.230988500    -0.0071876    0.8668272  
   0.232988400     0.1190714    0.8590525  
   0.234988300     0.2434047    0.8327553  
   0.236988200     0.3634029    0.7884597  
   0.238988100     0.4755557    0.7272825  
   0.240988000     0.5776229    0.6499954  
   0.242987900     0.6669347    0.5588684  
   0.244987800     0.7421858    0.4554575  
   0.246987700     0.8020476    0.3413203  
   0.248987600     0.8445368    0.2191022  
   0.250987500     0.8683999    0.0913101  
   0.252987400     0.8730890   -0.0382422  
   0.254987300     0.8584539   -0.1669086  
   0.256987200     0.8249909   -0.2916074  
   0.258987100     0.7738332   -0.4101166  
   0.260987000     0.7050979   -0.5203092  
   0.262986900     0.6205425   -0.6192356  
   0.264986800     0.5222422   -0.7047523  
   0.266986700     0.4121236   -0.7743198  
   0.268986600     0.2935134   -0.8266317  
   0.270986500     0.1690163   -0.8606929  
   0.272986400     0.0412458   -0.8759558  
   0.274986300    -0.0869633   -0.8718247  
   0.276986200    -0.2131619   -0.8494735  
   0.278986100    -0.3345473   -0.8082554  
   0.280986000    -0.4488016   -0.7494686  
   0.282985900    -0.5530694   -0.6746341  
   0.284985800    -0.6450359   -0.5854114  
   0.286985700    -0.7222461   -0.4840305  
   0.288985600    -0.7831304   -0.3735910  
   0.290985500    -0.8269491   -0.2560860  
   0.292985400    -0.8532399   -0.1340725  
   0.294985300    -0.8613558   -0.0094861  
   0.296985200    -0.8516726    0.1153909  
   0.298985100    -0.8232726    0.2379151  
   0.300985000    -0.7776380    0.3554865  
   0.302984900    -0.7146775    0.4643053  
   0.304984800    -0.6370834    0.5627124  
   0.306984700    -0.5459145    0.6483021  
   0.308984600    -0.4437016    0.7193505  
   0.310984500    -0.3329077    0.7745886  
   0.312984400    -0.2151737    0.8130969  
   0.314984300    -0.0928388    0.8340101  
   0.316984200     0.0315404    0.8367242  
   0.318984100     0.1555382    0.8210589  
   0.320984000     0.2771155    0.7870904  
   0.322983900     0.3925904    0.7350927  
   0.324983800     0.4991478    0.6662547  
   0.326983700     0.5946393    0.5818697  
   0.328983600     0.6764237    0.4839986  
   0.330983500     0.7423183    0.3752342  
   0.332983400     0.7903789    0.2580956  
   0.334983300     0.8210727    0.1348246  
   0.336983200     0.8327581    0.0082740  
   0.338983100     0.8249866   -0.1187765  
   0.340983000     0.7985333   -0.2429586  
   0.342982900     0.7535214   -0.3619699  
   0.344982800     0.6906411   -0.4735206  
   0.346982700     0.6113179   -0.5744261  
   0.348982600     0.5172041   -0.6625876  
   0.350982500     0.4110910   -0.7352415  
   0.352982400     0.2950200   -0.7908897  
   0.354982300     0.1664350   -0.8294297  
   0.356982200     0.0186332   -0.8475252  
   0.358982100    -0.1290969   -0.8398078  
   0.360982000    -0.2724337   -0.8061219  
   0.362981900    -0.4071606   -0.7489229  
   0.364981800    -0.5292420   -0.6687877  
   0.366981700    -0.6352580   -0.5698201  
   0.368981600    -0.7219763   -0.4545041  
   0.370981500    -0.7876678   -0.3265179  
   0.372981400    -0.8304217   -0.1899232  
   0.374981300    -0.8493384   -0.0480921  
   0.376981200    -0.8361379   -0.1889368  
   0.378981100    -0.8554772   -0.0456683  
   0.380981000    -0.8502508    0.0985109  
   0.382980900    -0.8250754    0.2256686  
   0.384980800    -0.7838439    0.3419214  
   0.386980700    -0.7260043    0.4507517  
   0.388980600    -0.6532544    0.5495719  
   0.390980500    -0.5674062    0.6367915  
   0.392980400    -0.4702611    0.7101658  
   0.394980300    -0.3644262    0.7686806  
   0.396980200    -0.2509354    0.8116110  
   0.398980100    -0.1322597    0.8375866  
   0.400980000    -0.0112323    0.8461596  
   0.402979900     0.1107904    0.8373474  
   0.404979800     0.2296856    0.8110027  
   0.406979700     0.3441273    0.7676184  
   0.408979600     0.4512719    0.7075619  
   0.410979500     0.5493304    0.6321661  
   0.412979400     0.6359747    0.5421473  
   0.414979300     0.7084116    0.4394931  
   0.416979200     0.7648938    0.3268968  
   0.418979100     0.8037127    0.2065763  
   0.420979000     0.8241693    0.0812101  
   0.422978900     0.8248823   -0.0464437  
   0.424978800     0.8059887   -0.1731762  
   0.426978700     0.7675384   -0.2961125  
   0.428978600     0.7104318   -0.4114856  
   0.430978500     0.6361042   -0.5163416  
   0.432978400     0.5473633   -0.6081845  
   0.434978300     0.4450920   -0.6850820  
   0.436978200     0.3324206   -0.7452551  
   0.438978100     0.2122480   -0.7871233  
   0.440978000     0.0874183   -0.8097118  
   0.442977900    -0.0391132   -0.8128575  
   0.444977800    -0.1642155   -0.7965591  
   0.446977700    -0.2847607   -0.7617198  
   0.448977600    -0.3981170   -0.7090452  
   0.450977500    -0.5013191   -0.6400471  
   0.452977400    -0.5930341   -0.5566109  
   0.454977300    -0.6711279   -0.4601397  
   0.456977200    -0.7337233   -0.3531842  
   0.458977100    -0.7793304   -0.2385342  
   0.460977000    -0.8070486   -0.1191446  
   0.462976900    -0.8166408    0.0022073  
   0.464976800    -0.8082284    0.1230717  
   0.466976700    -0.7825069    0.2407496  
   0.468976600    -0.7396228    0.3530003  
   0.470976500    -0.6814075    0.4575418  
   0.472976400    -0.6086606    0.5516546  
   0.474976300    -0.5234270    0.6344180  
   0.476976200    -0.4276057    0.7037237  
   0.478976100    -0.3232592    0.7582642  
   0.480976000    -0.2129841    0.7973113  
   0.482975900    -0.0985374    0.8203573  
   0.484975800     0.0177337    0.8267836  
   0.486975700     0.1340815    0.8170787  
   0.488975600     0.2479139    0.7907872  
   0.490975500     0.3574823    0.7486737  
   0.492975400     0.4603197    0.6910368  
   0.494975300     0.5542979    0.6192330  
   0.496975200     0.6372988    0.5341428  
   0.498975100     0.7073844    0.4381053  
   0.500975000     0.7632257    0.3322090  
   0.502974900     0.8033053    0.2195617  
   0.504974800     0.8264989    0.1012718  
   0.506974700     0.8324103   -0.0202559  
   0.508974600     0.8199942   -0.1428500  
   0.510974500     0.7897059   -0.2626908  
   0.512974400     0.7414181   -0.3771778  
   0.514974300     0.6766449   -0.4826840  
   0.516974200     0.5965950   -0.5780163  
   0.518974100     0.5032262   -0.6600104  
   0.520974000     0.3987333   -0.7272527  
   0.522973900     0.2847193   -0.7781239  
   0.524973800     0.1647544   -0.8107010  
   0.526973700     0.0404638   -0.8253226  
   0.528973600    -0.0842381   -0.8209327  
   0.530973500    -0.2068882   -0.7975449  
   0.532973400    -0.3247014   -0.7561635  
   0.534973300    -0.4346991   -0.6972044  
   0.536973200    -0.5341307   -0.6224651  
   0.538973100    -0.6207204   -0.5341336  
   0.540973000    -0.6921272   -0.4342618  
   0.542972900    -0.7478926   -0.3253752  
   0.544972800    -0.7868268   -0.2096637  
   0.546972700    -0.8079472   -0.0893362  
   0.548972600    -0.8109670    0.0324977  
   0.550972500    -0.7957400    0.1531573  
   0.552972400    -0.7625091    0.2702945  
   0.554972300    -0.7124538    0.3808664  
   0.556972200    -0.6463846    0.4823159  
   0.558972100    -0.5659344    0.5726439  
   0.560972000    -0.4733321    0.6497378  
   0.562971900    -0.3707224    0.7119817  
   0.564971800    -0.2604657    0.7579408  
   0.566971700    -0.1447749    0.7870671  
   0.568971600    -0.0267900    0.7988091  
   0.570971500     0.0919336    0.7928734  
   0.572971400     0.2088717    0.7697181  
   0.574971300     0.3210664    0.7289768  
   0.576971200     0.4263631    0.6716384  
   0.578971100     0.5223885    0.5987285  
   0.580971000     0.6064476    0.5121769  
   0.582970900     0.6763745    0.4146351  
   0.584970800     0.7308887    0.3074922  
   0.586970700     0.7687376    0.1933076  
   0.588970600     0.7888331    0.0751891  
   0.590970500     0.7909877   -0.0448759  
   0.592970400     0.7755805   -0.1639808  
   0.594970300     0.7419453   -0.2794499  
   0.596970200     0.6915591   -0.3888044  
   0.598970100     0.6255862   -0.4891074  
   0.600970000     0.5448851   -0.5788409  
   0.602969900     0.4522065   -0.6551918  
   0.604969800     0.3480920   -0.7171117  
   0.606969700     0.2363853   -0.7628865  
   0.608969600     0.1190249   -0.7911536  
   0.610969500    -0.0014669   -0.8016191  
   0.612969400    -0.1215841   -0.7942457  
   0.614969300    -0.2387922   -0.7686775  
   0.616969200    -0.3499581   -0.7262964  
   0.618969100    -0.4530162   -0.6687915  
   0.620969000    -0.5461739   -0.5973932  
   0.622968900    -0.6279181   -0.5135036  
   0.624968800    -0.6964049   -0.4187938  
   0.626968700    -0.7507638   -0.3152916  
   0.628968600    -0.7893907   -0.2049554  
   0.630968500    -0.8120755   -0.0907477  
   0.632968400    -0.8181123    0.0255187  
   0.634968300    -0.8071516    0.1409412  
   0.636968200    -0.7801998    0.2539271  
   0.638968100    -0.7374263    0.3616357  
   0.640968000    -0.6796517    0.4614872  
   0.642967900    -0.6083756    0.5524204  
   0.644967800    -0.5247629    0.6322400  
   0.646967700    -0.4311461    0.6990695  
   0.648967600    -0.3285878    0.7521117  
   0.650967500    -0.2204601    0.7898860  
   0.652967400    -0.1081041    0.8119184  
   0.654967300     0.0062389    0.8176872  
   0.656967200     0.1203257    0.8074719  
   0.658967100     0.2318213    0.7809978  
   0.660967000     0.3392494    0.7383266  
   0.662966900     0.4397075    0.6806380  
   0.664966800     0.5319091    0.6079153  
   0.666966700     0.6132768    0.5222254  
   0.668966600     0.6812053    0.4250822  
   0.670966500     0.7344276    0.3181753  
   0.672966400     0.7710293    0.2050413  
   0.674966300     0.7905774    0.0869973  
   0.676966200     0.7922246   -0.0324554  
   0.678966100     0.7760351   -0.1508751  
   0.680966000     0.7418962   -0.2657742  
   0.682965900     0.6909941   -0.3743347  
   0.684965800     0.6243253   -0.4738331  
   0.686965700     0.5429928   -0.5624322  
   0.688965600     0.4492752   -0.6378533  
   0.690965500     0.3451282   -0.6980349  
   0.692965400     0.2335436   -0.7414401  
   0.694965300     0.1167609   -0.7675230  
   0.696965200    -0.0024914   -0.7755589  
   0.698965100    -0.1211049   -0.7651526  
   0.700965000    -0.2368609   -0.7371758  
   0.702964900    -0.3467211   -0.6920260  
   0.704964800    -0.4481849   -0.6307853  
   0.706964700    -0.5390751   -0.5553929  
   0.708964600    -0.6172044   -0.4674160  
   0.710964500    -0.6810068   -0.3686099  
   0.712964400    -0.7291127   -0.2618494  
   0.714964300    -0.7603489   -0.1495928  
   0.716964200    -0.7745193   -0.0348478  
   0.718964100    -0.7717428    0.0799484  
   0.720964000    -0.7522705    0.1923198  
   0.722963900    -0.7171447    0.2999066  
   0.724963800    -0.6669359    0.4007657  
   0.726963700    -0.6028383    0.4931882  
   0.728963600    -0.5265055    0.5754110  
   0.730963500    -0.4389952    0.6452001  
   0.732963400    -0.3426811    0.7020557  
   0.734963300    -0.2391048    0.7446038  
   0.736963200    -0.1116467    0.7743120  
   0.738963100     0.0202197    0.7828163  
   0.740963000     0.1523657    0.7692098  
   0.742962900     0.2803369    0.7335250  
   0.744962800     0.4018115    0.6766263  
   0.746962700     0.5120746    0.6000934  
   0.748962600     0.6081895    0.5057504  
   0.750962500     0.4998963    0.6022010  
   0.752962400     0.5964668    0.5078400  
   0.754962300     0.6756809    0.3987268  
   0.756962200     0.7355125    0.2774738  
   0.758962100     0.7740086    0.1474915  
   0.760962000     0.7895901    0.0120168  
   0.762961900     0.7824138   -0.1167649  
   0.764961800     0.7573239   -0.2317614  
   0.766961700     0.7153916   -0.3417544  
   0.768961600     0.6573591   -0.4447703  
   0.770961500     0.5845093   -0.5379075  
   0.772961400     0.4983127   -0.6190355  
   0.774961300     0.4010739   -0.6865452  
   0.776961200     0.2945518   -0.7389151  
   0.778961100     0.1809977   -0.7747092  
   0.780961000     0.0631491   -0.7930866  
   0.782960900    -0.0564165   -0.7934181  
   0.784960800    -0.1747411   -0.7754276  
   0.786960700    -0.2888849   -0.7396729  
   0.788960600    -0.3961812   -0.6871530  
   0.790960500    -0.4939992   -0.6192307  
   0.792960400    -0.5798979   -0.5372838  
   0.794960300    -0.6520092   -0.4440336  
   0.796960200    -0.7090747   -0.3415511  
   0.798960100    -0.7498016   -0.2325593  
   0.800960000    -0.7740073   -0.1192918  
   0.802959900    -0.7807072   -0.0041845  
   0.804959800    -0.7707689    0.1096106  
   0.806959700    -0.7442710    0.2203370  
   0.808959600    -0.7020648    0.3252288  
   0.810959500    -0.6454169    0.4225366  
   0.812959400    -0.5751007    0.5099444  
   0.814959300    -0.4936122    0.5861713  
   0.816959200    -0.4019071    0.6493171  
   0.818959100    -0.3022076    0.6989576  
   0.820959000    -0.1963872    0.7331075  
   0.822958900    -0.0867445    0.7519438  
   0.824958800     0.0246123    0.7544007  
   0.826958700     0.1350361    0.7404088  
   0.828958600     0.2427448    0.7110187  
   0.830958500     0.3447165    0.6660338  
   0.832958400     0.4395688    0.6065171  
   0.834958300     0.5243942    0.5335075  
   0.836958200     0.5979988    0.4489637  
   0.838958100     0.6583598    0.3540254  
   0.840958000     0.7043858    0.2508758  
   0.842957900     0.7349261    0.1412188  
   0.844957800     0.7490193    0.0280752  
   0.846957700     0.7453640   -0.0864518  
   0.848957600     0.7247162   -0.1999030  
   0.850957500     0.6870559   -0.3089323  
   0.852957400     0.6332745   -0.4113083  
   0.854957300     0.5641738   -0.5045980  
   0.856957200     0.4817060   -0.5864040  
   0.858957100     0.3878412   -0.6546618  
   0.860957000     0.2849191   -0.7077769  
   0.862956900     0.1757303   -0.7445943  
   0.864956800     0.0627594   -0.7647898  
   0.866956700    -0.0513303   -0.7677659  
   0.868956600    -0.1646599   -0.7539974  
   0.870956500    -0.2739830   -0.7236206  
   0.872956400    -0.3778957   -0.6775839  
   0.874956300    -0.4735622   -0.6170145  
   0.876956200    -0.5587744   -0.5430381  
   0.878956100    -0.6327287   -0.4576986  
   0.880956000    -0.6927959   -0.3624904  
   0.882955900    -0.7384705   -0.2599399  
   0.884955800    -0.7684380   -0.1518468  
   0.886955700    -0.7826995   -0.0409035  
   0.888955600    -0.7805864    0.0702430  
   0.890955500    -0.7628606    0.1799870  
   0.892955400    -0.7293932    0.2853109  
   0.894955300    -0.6815015    0.3849033  
