! MS46122B
! 2250307/22442219
! 6/18/2025 1:21:24 PM
! C:\USERS\SPARKY\DOCUMENTS\VNA_DATA\JUNE18_2025\295K\ECAL_SHORT_F.S1P
! CHANNEL.1
! TR.MEASUREMENT
! RAW.DATA
# GHZ S RI R 50.0
! FREQ.GHZ         S11RE         S11IM         
!; PortSelection: Port_1
   0.001000000    -0.9485979    0.0515305  
   0.002999900    -0.9195296    0.2563274  
   0.004999800    -0.8807760    0.4026406  
   0.006999700    -0.8158042    0.5325339  
   0.008999600    -0.7289054    0.6454388  
   0.010999500    -0.6237539    0.7395713  
   0.012999400    -0.5042847    0.8144297  
   0.014999300    -0.3743561    0.8686576  
   0.016999200    -0.2378037    0.9024713  
   0.018999100    -0.0982539    0.9160241  
   0.020999000     0.0411555    0.9099786  
   0.022998900     0.1774905    0.8852151  
   0.024998800     0.2809515    0.8210722  
   0.026998700     0.4308126    0.7831603  
   0.028998600     0.5436741    0.7084791  
   0.030998500     0.6441699    0.6198025  
   0.032998400     0.6961602    0.5143943  
   0.034998300     0.8023089    0.4056700  
   0.036998200     0.8562147    0.2837702  
   0.038998100     0.8919896    0.1549297  
   0.040998000     0.9077589    0.0218379  
   0.042997900     0.9033936   -0.1118600  
   0.044997800     0.8524010   -0.2205873  
   0.046997700     0.8336839   -0.3705420  
   0.048997600     0.7702312   -0.4892147  
   0.050997500     0.6901547   -0.5966902  
   0.052997400     0.5970693   -0.6892794  
   0.054997300     0.4881279   -0.7702549  
   0.056997200     0.3706897   -0.8330541  
   0.058997100     0.2463171   -0.8783625  
   0.060997000     0.1170943   -0.9052604  
   0.062996900    -0.0142276   -0.9134243  
   0.064996800    -0.1452856   -0.9026918  
   0.066996700    -0.2731644   -0.8731984  
   0.068996600    -0.3952912   -0.8259014  
   0.070996500    -0.5090199   -0.7615141  
   0.072996400    -0.6120747   -0.6812703  
   0.074996300    -0.7025971   -0.5871711  
   0.076996200    -0.7783675   -0.4812783  
   0.078996100    -0.8378420   -0.3654731  
   0.080996000    -0.8800860   -0.2420802  
   0.082995900    -0.9042271   -0.1141092  
   0.084995800    -0.9098246    0.0162828  
   0.086995700    -0.8965899    0.1461948  
   0.088995600    -0.8648615    0.2729940  
   0.090995500    -0.8149570    0.3942109  
   0.092995400    -0.7479303    0.5073282  
   0.094995300    -0.6646471    0.6097124  
   0.096995200    -0.5672526    0.6993954  
   0.098995100    -0.4573366    0.7737988  
   0.100995000    -0.3370827    0.8312003  
   0.102994900    -0.2092677    0.8700069  
   0.104994800    -0.0766263    0.8893790  
   0.106994700     0.0577565    0.8887842  
   0.108994600     0.1910938    0.8676147  
   0.110994500     0.3194993    0.8265237  
   0.112994400     0.4408115    0.7661749  
   0.114994300     0.5515037    0.6878641  
   0.116994200     0.6492659    0.5937822  
   0.118994100     0.7313983    0.4854383  
   0.120994000     0.7960876    0.3661170  
   0.122993900     0.8416802    0.2380400  
   0.124993800     0.8667617    0.1048584  
   0.126993700     0.8712030   -0.0306805  
   0.128993600     0.8553404   -0.1650543  
   0.130993500     0.8190984   -0.2948218  
   0.132993400     0.7632951   -0.4172033  
   0.134993300     0.6897846   -0.5291200  
   0.136993200     0.6005182   -0.6278622  
   0.138993100     0.4976377   -0.7118034  
   0.140993000     0.3841988   -0.7789463  
   0.142992900     0.2623857   -0.8279023  
   0.144992800     0.1356431   -0.8579891  
   0.146992700     0.0062318   -0.8688410  
   0.148992600    -0.1227310   -0.8606308  
   0.150992500    -0.2480384   -0.8337057  
   0.152992400    -0.3678366   -0.7886299  
   0.154992300    -0.4787203   -0.7273083  
   0.156992200    -0.5794444   -0.6506316  
   0.158992100    -0.6672016   -0.5605220  
   0.160992000    -0.7412696   -0.4595882  
   0.162991900    -0.7994882   -0.3488918  
   0.164991800    -0.8416446   -0.2314541  
   0.166991700    -0.8665242   -0.1098879  
   0.168991600    -0.8734967    0.0138450  
   0.170991500    -0.8629099    0.1373664  
   0.172991400    -0.8351692    0.2573133  
   0.174991300    -0.7907100    0.3724924  
   0.176991200    -0.7302279    0.4805440  
   0.178991100    -0.6548957    0.5788577  
   0.180991000    -0.5667745    0.6653369  
   0.182990900    -0.4669694    0.7385525  
   0.184990800    -0.3569088    0.7973307  
   0.186990700    -0.2394380    0.8397965  
   0.188990600    -0.1430474    0.8619191  
   0.190990500     0.0031309    0.8726963  
   0.192990400     0.1321811    0.8618456  
   0.194990300     0.2552290    0.8332636  
   0.196990200     0.3727231    0.7870223  
   0.198990100     0.4824149    0.7242165  
   0.200990000     0.5825981    0.6455581  
   0.202989900     0.6705472    0.5527266  
   0.204989800     0.7441599    0.4477597  
   0.206989700     0.8014086    0.3329679  
   0.208989600     0.8410383    0.2107087  
   0.210989500     0.8624918    0.0830915  
   0.212989400     0.8645725   -0.0466092  
   0.214989300     0.8473625   -0.1755170  
   0.216989200     0.8110104   -0.2999413  
   0.218989100     0.7564504   -0.4173502  
   0.220989000     0.6846603   -0.5257996  
   0.222988900     0.5971376   -0.6224724  
   0.224988800     0.4960389   -0.7047920  
   0.226988700     0.3840644   -0.7706177  
   0.228988600     0.2638186   -0.8186939  
   0.230988500     0.1381089   -0.8480901  
   0.232988400     0.0096818   -0.8582375  
   0.234988300    -0.1192492   -0.8486803  
   0.236988200    -0.2448429   -0.8201297  
   0.238988100    -0.3644929   -0.7732055  
   0.240988000    -0.4749176   -0.7092130  
   0.242987900    -0.5739614   -0.6298844  
   0.244987800    -0.6597454   -0.5368907  
   0.246987700    -0.7308211   -0.4321507  
   0.248987600    -0.7852311   -0.3180987  
   0.250987500    -0.8223067   -0.1973482  
   0.252987400    -0.8406236   -0.0732266  
   0.254987300    -0.8404154    0.0514706  
   0.256987200    -0.8219908    0.1742226  
   0.258987100    -0.7856626    0.2925677  
   0.260987000    -0.7323315    0.4044406  
   0.262986900    -0.6630115    0.5075878  
   0.264986800    -0.5791143    0.5993846  
   0.266986700    -0.4825931    0.6776452  
   0.268986600    -0.3759291    0.7407989  
   0.270986500    -0.2616990    0.7874253  
   0.272986400    -0.1419547    0.8163792  
   0.274986300    -0.0191924    0.8276479  
   0.276986200     0.1040999    0.8207575  
   0.278986100     0.2256411    0.7960353  
   0.280986000     0.3427230    0.7528318  
   0.282985900     0.4522581    0.6927992  
   0.284985800     0.5521237    0.6166262  
   0.286985700     0.6394858    0.5268477  
   0.288985600     0.7119991    0.4252342  
   0.290985500     0.7684153    0.3143209  
   0.292985400     0.8078902    0.1961235  
   0.294985300     0.8296750    0.0731236  
   0.296985200     0.8325464   -0.0522986  
   0.298985100     0.8167483   -0.1777744  
   0.300985000     0.7820149   -0.2995345  
   0.302984900     0.7293651   -0.4149062  
   0.304984800     0.6600490   -0.5208758  
   0.306984700     0.5761230   -0.6149104  
   0.308984600     0.4792747   -0.6949722  
   0.310984500     0.3724160   -0.7593362  
   0.312984400     0.2573921   -0.8071901  
   0.314984300     0.1368357   -0.8373045  
   0.316984200     0.0135557   -0.8494448  
   0.318984100    -0.1108627   -0.8431098  
   0.320984000    -0.2331928   -0.8183290  
   0.322983900    -0.3507234   -0.7759750  
   0.324983800    -0.4602571   -0.7167050  
   0.326983700    -0.5592812   -0.6423411  
   0.328983600    -0.6463416   -0.5544201  
   0.330983500    -0.7188989   -0.4555348  
   0.332983400    -0.7758029   -0.3478500  
   0.334983300    -0.8172339   -0.2339039  
   0.336983200    -0.8410087   -0.1151178  
   0.338983100    -0.8475462    0.0054191  
   0.340983000    -0.8367996    0.1248684  
   0.342982900    -0.8092027    0.2417186  
   0.344982800    -0.7648993    0.3538247  
   0.346982700    -0.7045554    0.4588437  
   0.348982600    -0.6292394    0.5544819  
   0.350982500    -0.5414059    0.6379105  
   0.352982400    -0.4418586    0.7080306  
   0.354982300    -0.3278401    0.7648298  
   0.356982200    -0.1925246    0.8063107  
   0.358982100    -0.0525688    0.8242577  
   0.360982000     0.0876836    0.8187106  
   0.362981900     0.2246266    0.7893408  
   0.364981800     0.3550469    0.7375055  
   0.366981700     0.4749480    0.6642340  
   0.368981600     0.5808001    0.5719638  
   0.370981500     0.6699163    0.4626610  
   0.372981400     0.7391176    0.3390899  
   0.374981300     0.7862062    0.2046699  
   0.376981200     0.7440056    0.3161378  
   0.378981100     0.7870709    0.1790062  
   0.380981000     0.8057880    0.0362348  
   0.382980900     0.8002805   -0.0950085  
   0.384980800     0.7751137   -0.2180240  
   0.386980700     0.7312469   -0.3360512  
   0.388980600     0.6697939   -0.4457781  
   0.390980500     0.5922679   -0.5443156  
   0.392980400     0.5012003   -0.6294499  
   0.394980300     0.3988764   -0.6990715  
   0.396980200     0.2878988   -0.7522110  
   0.398980100     0.1701248   -0.7879695  
   0.400980000     0.0491480   -0.8055924  
   0.402979900    -0.0730034   -0.8051691  
   0.404979800    -0.1926829   -0.7863530  
   0.406979700    -0.3074163   -0.7500744  
   0.408979600    -0.4151891   -0.6976785  
   0.410979500    -0.5138342   -0.6299372  
   0.412979400    -0.6019194   -0.5485248  
   0.414979300    -0.6765898   -0.4555881  
   0.416979200    -0.7366693   -0.3528460  
   0.418979100    -0.7810439   -0.2435270  
   0.420979000    -0.8090663   -0.1291185  
   0.422978900    -0.8204857   -0.0120963  
   0.424978800    -0.8149457    0.1049378  
   0.426978700    -0.7926804    0.2202363  
   0.428978600    -0.7542928    0.3307197  
   0.430978500    -0.7010193    0.4338643  
   0.432978400    -0.6343746    0.5279276  
   0.434978300    -0.5552331    0.6114661  
   0.436978200    -0.4649274    0.6827610  
   0.438978100    -0.3660457    0.7408786  
   0.440978000    -0.2594027    0.7849540  
   0.442977900    -0.1480191    0.8136158  
   0.444977800    -0.0332925    0.8265272  
   0.446977700     0.0822936    0.8228680  
   0.448977600     0.1963106    0.8031672  
   0.450977500     0.3068361    0.7675748  
   0.452977400     0.4119662    0.7158229  
   0.454977300     0.5095972    0.6491643  
   0.456977200     0.5972211    0.5682804  
   0.458977100     0.6724179    0.4749803  
   0.460977000     0.7334614    0.3712747  
   0.462976900     0.7788504    0.2596963  
   0.464976800     0.8070009    0.1414383  
   0.466976700     0.8177837    0.0203720  
   0.468976600     0.8098841   -0.1017866  
   0.470976500     0.7839973   -0.2218436  
   0.472976400     0.7397691   -0.3371194  
   0.474976300     0.6786695   -0.4442351  
   0.476976200     0.6018795   -0.5412413  
   0.478976100     0.5112410   -0.6251284  
   0.480976000     0.4093468   -0.6937600  
   0.482975900     0.2987159   -0.7462956  
   0.484975800     0.1814888   -0.7811992  
   0.486975700     0.0604182   -0.7979392  
   0.488975600    -0.0618997   -0.7962579  
   0.490975500    -0.1821764   -0.7760798  
   0.492975400    -0.2979611   -0.7379678  
   0.494975300    -0.4066139   -0.6827530  
   0.496975200    -0.5049427   -0.6121721  
   0.498975100    -0.5915418   -0.5275223  
   0.500975000    -0.6637583   -0.4313633  
   0.502974900    -0.7205681   -0.3262498  
   0.504974800    -0.7609214   -0.2138326  
   0.506974700    -0.7842556   -0.0967781  
   0.508974600    -0.7893683    0.0227361  
   0.510974500    -0.7765547    0.1410685  
   0.512974400    -0.7464839    0.2559356  
   0.514974300    -0.7003492    0.3640783  
   0.516974200    -0.6387026    0.4637375  
   0.518974100    -0.5634897    0.5526555  
   0.520974000    -0.4764027    0.6295310  
   0.522973900    -0.3795867    0.6924804  
   0.524973800    -0.2749046    0.7406164  
   0.526973700    -0.1640127    0.7730474  
   0.528973600    -0.0501167    0.7891594  
   0.530973500     0.0651839    0.7883580  
   0.532973400     0.1790447    0.7708287  
   0.534973300     0.2892037    0.7372603  
   0.536973200     0.3933829    0.6876029  
   0.538973100     0.4891589    0.6236107  
   0.540973000     0.5743195    0.5470424  
   0.542972900     0.6480130    0.4586430  
   0.544972800     0.7079766    0.3604104  
   0.546972700     0.7532141    0.2540582  
   0.548972600     0.7829944    0.1417091  
   0.550972500     0.7959258    0.0260328  
   0.552972400     0.7917190   -0.0908881  
   0.554972300     0.7704611   -0.2062689  
   0.556972200     0.7323846   -0.3176345  
   0.558972100     0.6782348   -0.4225365  
   0.560972000     0.6092259   -0.5184544  
   0.562971900     0.5271127   -0.6024104  
   0.564971800     0.4334871   -0.6739964  
   0.566971700     0.3309755   -0.7305333  
   0.568971600     0.2213577   -0.7716287  
   0.570971500     0.1066859   -0.7962999  
   0.572971400    -0.0098917   -0.8036107  
   0.574971300    -0.1272193   -0.7942622  
   0.576971200    -0.2421474   -0.7677554  
   0.578971100    -0.3520319   -0.7241715  
   0.580971000    -0.4542090   -0.6654488  
   0.582970900    -0.5462078   -0.5923890  
   0.584970800    -0.6264449   -0.5072326  
   0.586970700    -0.6929253   -0.4118069  
   0.588970600    -0.7450365   -0.3081110  
   0.590970500    -0.7812508   -0.1982952  
   0.592970400    -0.8011453   -0.0844398  
   0.594970300    -0.8045234    0.0307715  
   0.596970200    -0.7913470    0.1451300  
   0.598970100    -0.7618750    0.2562906  
   0.600970000    -0.7165170    0.3621181  
   0.602969900    -0.6566948    0.4598815  
   0.604969800    -0.5829905    0.5486912  
   0.606969700    -0.4972470    0.6254248  
   0.608969600    -0.4006938    0.6895002  
   0.610969500    -0.2960751    0.7384041  
   0.612969400    -0.1848794    0.7714656  
   0.614969300    -0.0703691    0.7882486  
   0.616969200     0.0452531    0.7875165  
   0.618969100     0.1591912    0.7702892  
   0.620969000     0.2690267    0.7365356  
   0.622968900     0.3730357    0.6870630  
   0.624968800     0.4690396    0.6223440  
   0.626968700     0.5545426    0.5435479  
   0.628968600     0.6279536    0.4526091  
   0.630968500     0.6870950    0.3513571  
   0.632968400     0.7306843    0.2418894  
   0.634968300     0.7565791    0.1268350  
   0.636968200     0.7649027    0.0088838  
   0.638968100     0.7553781   -0.1090645  
   0.640968000     0.7276756   -0.2245488  
   0.642967900     0.6824879   -0.3343164  
   0.644967800     0.6211190   -0.4360846  
   0.646967700     0.5446543   -0.5270892  
   0.648967600     0.4554178   -0.6050413  
   0.650967500     0.3560510   -0.6677912  
   0.652967400     0.2483753   -0.7141915  
   0.654967300     0.1351148   -0.7440500  
   0.656967200     0.0192955   -0.7562838  
   0.658967100    -0.0966778   -0.7509900  
   0.660967000    -0.2107970   -0.7281537  
   0.662966900    -0.3201865   -0.6884550  
   0.664966800    -0.4224806   -0.6327679  
   0.666966700    -0.5150660   -0.5621286  
   0.668966600    -0.5955080   -0.4788164  
   0.670966500    -0.6626165   -0.3844118  
   0.672966400    -0.7140152   -0.2817266  
   0.674966300    -0.7499515   -0.1731226  
   0.676966200    -0.7688340   -0.0609016  
   0.678966100    -0.7713817    0.0520248  
   0.680966000    -0.7573210    0.1638655  
   0.682965900    -0.7272481    0.2720959  
   0.684965800    -0.6821728    0.3743274  
   0.686965700    -0.6226634    0.4691608  
   0.688965600    -0.5502414    0.5538679  
   0.690965500    -0.4667321    0.6275539  
   0.692965400    -0.3732966    0.6882281  
   0.694965300    -0.2728405    0.7351997  
   0.696965200    -0.1662790    0.7669088  
   0.698965100    -0.0560711    0.7834035  
   0.700965000     0.0552827    0.7838367  
   0.702964900     0.1661649    0.7684321  
   0.704964800     0.2740566    0.7370543  
   0.706964700     0.3767579    0.6901723  
   0.708964600     0.4724251    0.6283023  
   0.710964500     0.5584877    0.5529312  
   0.712964400     0.6327304    0.4652840  
   0.714964300     0.6938803    0.3673702  
   0.716964200     0.7396693    0.2613927  
   0.718964100     0.7690130    0.1497676  
   0.720964000     0.7817356    0.0353002  
   0.722963900     0.7771473   -0.0798528  
   0.724963800     0.7555387   -0.1932744  
   0.726963700     0.7174898   -0.3026979  
   0.728963600     0.6632401   -0.4053596  
   0.730963500     0.5943336   -0.4990969  
   0.732963400     0.5118998   -0.5817135  
   0.734963300     0.4176771   -0.6511483  
   0.736963200     0.2983020   -0.7131072  
   0.738963100     0.1691135   -0.7530501  
   0.740963000     0.0354327   -0.7693317  
   0.742962900    -0.0989558   -0.7618859  
   0.744962800    -0.2293681   -0.7307693  
   0.746962700    -0.3516918   -0.6772651  
   0.748962600    -0.4623018   -0.6034191  
   0.750962500    -0.3815197   -0.6635998  
   0.752962400    -0.4899463   -0.5864351  
   0.754962300    -0.5824241   -0.4917291  
   0.756962200    -0.6567540   -0.3831039  
   0.758962100    -0.7106021   -0.2638610  
   0.760962000    -0.7427742   -0.1376238  
   0.762961900    -0.7530540   -0.0145497  
   0.764961800    -0.7454887    0.0972680  
   0.766961700    -0.7215272    0.2061342  
   0.768961600    -0.6824133    0.3096117  
   0.770961500    -0.6284720    0.4057938  
   0.772961400    -0.5617887    0.4922498  
   0.774961300    -0.4836084    0.5679110  
   0.776961200    -0.3957210    0.6313672  
   0.778961100    -0.2995669    0.6810023  
   0.780961000    -0.1970139    0.7165268  
   0.782960900    -0.0907222    0.7368195  
   0.784960800     0.0184672    0.7417702  
   0.786960700     0.1270584    0.7307350  
   0.788960600     0.2331822    0.7036873  
   0.790960500     0.3349019    0.6621683  
   0.792960400     0.4295202    0.6058176  
   0.794960300     0.5146968    0.5363932  
   0.796960200     0.5890087    0.4547895  
   0.798960100     0.6506911    0.3632561  
   0.800960000     0.6981605    0.2636608  
   0.802959900     0.7312171    0.1575683  
   0.804959800     0.7478551    0.0478347  
   0.806959700     0.7484708   -0.0635729  
   0.808959600     0.7324280   -0.1745015  
   0.810959500     0.7005182   -0.2816347  
   0.812959400     0.6523479   -0.3836320  
   0.814959300     0.5895332   -0.4779975  
   0.816959200     0.5131914   -0.5618178  
   0.818959100     0.4252001   -0.6334271  
   0.820959000     0.3265871   -0.6913776  
   0.822958900     0.2206649   -0.7341570  
   0.824958800     0.1093540   -0.7603089  
   0.826958700    -0.0046149   -0.7695796  
   0.828958600    -0.1189420   -0.7616075  
   0.830958500    -0.2305499   -0.7367930  
   0.832958400    -0.3367076   -0.6954287  
   0.834958300    -0.4353619   -0.6391464  
   0.836958200    -0.5240642   -0.5688906  
   0.838958100    -0.6014097   -0.4867510  
   0.840958000    -0.6654938   -0.3942282  
   0.842957900    -0.7151132   -0.2935382  
   0.844957800    -0.7497125   -0.1868883  
   0.846957700    -0.7677816   -0.0766897  
   0.848957600    -0.7696316    0.0344108  
   0.850957500    -0.7551847    0.1447790  
   0.852957400    -0.7249661    0.2516138  
   0.854957300    -0.6795341    0.3525775  
   0.856957200    -0.6199393    0.4456574  
   0.858957100    -0.5480906    0.5286850  
   0.860957000    -0.4649755    0.6000282  
   0.862956900    -0.3733929    0.6580492  
   0.864956800    -0.2747531    0.7021177  
   0.866956700    -0.1714915    0.7316187  
   0.868956600    -0.0649095    0.7458217  
   0.870956500     0.0423788    0.7449020  
   0.872956400     0.1490630    0.7284260  
   0.874956300     0.2524943    0.6965058  
   0.876956200     0.3509862    0.6496498  
   0.878956100     0.4420537    0.5884352  
   0.880956000     0.5235410    0.5143285  
   0.882955900     0.5939183    0.4283012  
   0.884955800     0.6505773    0.3323059  
   0.886955700     0.6921970    0.2281329  
   0.888955600     0.7177468    0.1188256  
   0.890955500     0.7263764    0.0063607  
   0.892955400     0.7178731   -0.1062313  
   0.894955300     0.6918012   -0.2168706  
