! MS46122B
! 2250307/22442219
! 6/11/2025 1:17:27 PM
! C:\USERS\SPARKY\DOCUMENTS\VNA_DATA\JUNE11_2025\ECAL-SHORT.S1P
! CHANNEL.1
! TR.MEASUREMENT
! RAW.DATA
# GHZ S RI R 50.0
! FREQ.GHZ         S11RE         S11IM         
!; PortSelection: Port_1
   0.001000000    -0.9481027    0.0517828  
   0.002999900    -0.9193501    0.2564580  
   0.004999800    -0.8806910    0.4032094  
   0.006999700    -0.8152454    0.5328933  
   0.008999600    -0.7283996    0.6457110  
   0.010999500    -0.6229822    0.7399793  
   0.012999400    -0.5036077    0.8145841  
   0.014999300    -0.3736235    0.8687760  
   0.016999200    -0.2370427    0.9024903  
   0.018999100    -0.0974744    0.9159307  
   0.020999000     0.0418368    0.9099460  
   0.022998900     0.1781029    0.8850552  
   0.024998800     0.2815447    0.8209007  
   0.026998700     0.4314726    0.7830893  
   0.028998600     0.5442518    0.7083254  
   0.030998500     0.6447566    0.6196504  
   0.032998400     0.6964740    0.5143795  
   0.034998300     0.8028966    0.4054451  
   0.036998200     0.8567970    0.2835400  
   0.038998100     0.8924156    0.1547753  
   0.040998000     0.9081853    0.0216030  
   0.042997900     0.9037089   -0.1121089  
   0.044997800     0.8526905   -0.2207487  
   0.046997700     0.8340096   -0.3708042  
   0.048997600     0.7705135   -0.4894311  
   0.050997500     0.6902645   -0.5968492  
   0.052997400     0.5955849   -0.6911577  
   0.054997300     0.4895453   -0.7696036  
   0.056997200     0.3708965   -0.8331370  
   0.058997100     0.2464656   -0.8784192  
   0.060997000     0.1172732   -0.9053182  
   0.062996900    -0.0140986   -0.9133650  
   0.064996800    -0.1451570   -0.9027529  
   0.066996700    -0.2730272   -0.8731619  
   0.068996600    -0.3952115   -0.8258754  
   0.070996500    -0.5089332   -0.7614610  
   0.072996400    -0.6120241   -0.6811851  
   0.074996300    -0.7025338   -0.5870602  
   0.076996200    -0.7782350   -0.4811278  
   0.078996100    -0.8376577   -0.3653061  
   0.080996000    -0.8799618   -0.2419416  
   0.082995900    -0.9039761   -0.1138390  
   0.084995800    -0.9095800    0.0164007  
   0.086995700    -0.8963455    0.1463649  
   0.088995600    -0.8645049    0.2731398  
   0.090995500    -0.8147373    0.3942938  
   0.092995400    -0.7475471    0.5073301  
   0.094995300    -0.6642899    0.6098373  
   0.096995200    -0.5671477    0.6992698  
   0.098995100    -0.4570753    0.7738648  
   0.100995000    -0.3367243    0.8312663  
   0.102994900    -0.2090526    0.8700281  
   0.104994800    -0.0765062    0.8893334  
   0.106994700     0.0578882    0.8887278  
   0.108994600     0.1911841    0.8675088  
   0.110994500     0.3196015    0.8264986  
   0.112994400     0.4408102    0.7662164  
   0.114994300     0.5515074    0.6879303  
   0.116994200     0.6492463    0.5937965  
   0.118994100     0.7313468    0.4855535  
   0.120994000     0.7960914    0.3661540  
   0.122993900     0.8415589    0.2380866  
   0.124993800     0.8668432    0.1048158  
   0.126993700     0.8712231   -0.0305888  
   0.128993600     0.8554795   -0.1650300  
   0.130993500     0.8189929   -0.2946470  
   0.132993400     0.7631151   -0.4170759  
   0.134993300     0.6896616   -0.5290507  
   0.136993200     0.6004402   -0.6277556  
   0.138993100     0.4972515   -0.7118467  
   0.140993000     0.3838426   -0.7788583  
   0.142992900     0.2620231   -0.8276973  
   0.144992800     0.1350480   -0.8578467  
   0.146992700     0.0055155   -0.8685792  
   0.148992600    -0.1232793   -0.8603647  
   0.150992500    -0.2484742   -0.8332416  
   0.152992400    -0.3683657   -0.7880604  
   0.154992300    -0.4793507   -0.7264397  
   0.156992200    -0.5799325   -0.6497901  
   0.158992100    -0.6675983   -0.5596160  
   0.160992000    -0.7415891   -0.4585821  
   0.162991900    -0.7996858   -0.3479335  
   0.164991800    -0.8416982   -0.2303405  
   0.166991700    -0.8663979   -0.1087796  
   0.168991600    -0.8732707    0.0149253  
   0.170991500    -0.8625761    0.1384063  
   0.172991400    -0.8346563    0.2583453  
   0.174991300    -0.7901319    0.3734243  
   0.176991200    -0.7295802    0.4813403  
   0.178991100    -0.6541680    0.5794941  
   0.180991000    -0.5659826    0.6659595  
   0.182990900    -0.4661580    0.7388992  
   0.184990800    -0.3561010    0.7975602  
   0.186990700    -0.2389301    0.8400130  
   0.188990600    -0.1422940    0.8619210  
   0.190990500     0.0038675    0.8725865  
   0.192990400     0.1328206    0.8616775  
   0.194990300     0.2558831    0.8329971  
   0.196990200     0.3732916    0.7867136  
   0.198990100     0.4828151    0.7237953  
   0.200990000     0.5828649    0.6450720  
   0.202989900     0.6707900    0.5520788  
   0.204989800     0.7442071    0.4470479  
   0.206989700     0.8013334    0.3322799  
   0.208989600     0.8410103    0.2099970  
   0.210989500     0.8621247    0.0823923  
   0.212989400     0.8641495   -0.0473853  
   0.214989300     0.8466069   -0.1762964  
   0.216989200     0.8102401   -0.3005206  
   0.218989100     0.7554631   -0.4179473  
   0.220989000     0.6837716   -0.5262210  
   0.222988900     0.5959697   -0.6227434  
   0.224988800     0.4948101   -0.7050977  
   0.226988700     0.3827633   -0.7706607  
   0.228988600     0.2625396   -0.8185167  
   0.230988500     0.1369093   -0.8476737  
   0.232988400     0.0083417   -0.8576726  
   0.234988300    -0.1201686   -0.8480964  
   0.236988200    -0.2459396   -0.8192802  
   0.238988100    -0.3653631   -0.7722950  
   0.240988000    -0.4756359   -0.7081749  
   0.242987900    -0.5743324   -0.6287901  
   0.244987800    -0.6600738   -0.5360402  
   0.246987700    -0.7310135   -0.4313059  
   0.248987600    -0.7853761   -0.3172533  
   0.250987500    -0.8222352   -0.1965506  
   0.252987400    -0.8405144   -0.0725252  
   0.254987300    -0.8402128    0.0520047  
   0.256987200    -0.8217894    0.1745295  
   0.258987100    -0.7853742    0.2929177  
   0.260987000    -0.7323615    0.4046387  
   0.262986900    -0.6628535    0.5076042  
   0.264986800    -0.5789725    0.5993708  
   0.266986700    -0.4825259    0.6775521  
   0.268986600    -0.3759350    0.7406819  
   0.270986500    -0.2617556    0.7873021  
   0.272986400    -0.1420240    0.8162572  
   0.274986300    -0.0193994    0.8275368  
   0.276986200     0.1038108    0.8206790  
   0.278986100     0.2254882    0.7957793  
   0.280986000     0.3424847    0.7527087  
   0.282985900     0.4520367    0.6924711  
   0.284985800     0.5519054    0.6166161  
   0.286985700     0.6391996    0.5264899  
   0.288985600     0.7116984    0.4249728  
   0.290985500     0.7680932    0.3139876  
   0.292985400     0.8075117    0.1957594  
   0.294985300     0.8291622    0.0727433  
   0.296985200     0.8318753   -0.0526252  
   0.298985100     0.8160865   -0.1780940  
   0.300985000     0.7811736   -0.2997343  
   0.302984900     0.7284830   -0.4150883  
   0.304984800     0.6590976   -0.5210044  
   0.306984700     0.5751088   -0.6149247  
   0.308984600     0.4782797   -0.6946286  
   0.310984500     0.3714281   -0.7590173  
   0.312984400     0.2565956   -0.8067650  
   0.314984300     0.1360966   -0.8368069  
   0.316984200     0.0128720   -0.8487929  
   0.318984100    -0.1114985   -0.8424088  
   0.320984000    -0.2336540   -0.8175966  
   0.322983900    -0.3510582   -0.7751563  
   0.324983800    -0.4603464   -0.7159002  
   0.326983700    -0.5592623   -0.6415417  
   0.328983600    -0.6460972   -0.5539644  
   0.330983500    -0.7187303   -0.4550433  
   0.332983400    -0.7755730   -0.3477091  
   0.334983300    -0.8168107   -0.2336471  
   0.336983200    -0.8405423   -0.1154697  
   0.338983100    -0.8471200    0.0050657  
   0.340983000    -0.8364195    0.1243109  
   0.342982900    -0.8088748    0.2412133  
   0.344982800    -0.7645448    0.3531525  
   0.346982700    -0.7043708    0.4581480  
   0.348982600    -0.6292651    0.5536568  
   0.350982500    -0.5415182    0.6371843  
   0.352982400    -0.4420789    0.7072304  
   0.354982300    -0.3281694    0.7640758  
   0.356982200    -0.1928486    0.8056791  
   0.358982100    -0.0531592    0.8235800  
   0.360982000     0.0870415    0.8182126  
   0.362981900     0.2238970    0.7888707  
   0.364981800     0.3542758    0.7371542  
   0.366981700     0.4739316    0.6641182  
   0.368981600     0.5800655    0.5718430  
   0.370981500     0.6691105    0.4625941  
   0.372981400     0.7384074    0.3390343  
   0.374981300     0.7854901    0.2046237  
   0.376981200     0.7433246    0.3159922  
   0.378981100     0.7864111    0.1789289  
   0.380981000     0.8050545    0.0363870  
   0.382980900     0.7995891   -0.0949521  
   0.384980800     0.7744832   -0.2178957  
   0.386980700     0.7305219   -0.3357634  
   0.388980600     0.6692634   -0.4454205  
   0.390980500     0.5918161   -0.5438245  
   0.392980400     0.5007943   -0.6288441  
   0.394980300     0.3987373   -0.6984609  
   0.396980200     0.2879596   -0.7515201  
   0.398980100     0.1702470   -0.7874043  
   0.400980000     0.0495035   -0.8051917  
   0.402979900    -0.0725784   -0.8046384  
   0.404979800    -0.1920143   -0.7858968  
   0.406979700    -0.3066477   -0.7496557  
   0.408979600    -0.4141082   -0.6975418  
   0.410979500    -0.5130045   -0.6299065  
   0.412979400    -0.6009684   -0.5486194  
   0.414979300    -0.6756995   -0.4558080  
   0.416979200    -0.7356580   -0.3533165  
   0.418979100    -0.7801483   -0.2439137  
   0.420979000    -0.8082493   -0.1294630  
   0.422978900    -0.8197694   -0.0129024  
   0.424978800    -0.8142000    0.1044577  
   0.426978700    -0.7921068    0.2195176  
   0.428978600    -0.7537201    0.3297842  
   0.430978500    -0.7007261    0.4327698  
   0.432978400    -0.6339746    0.5270222  
   0.434978300    -0.5550552    0.6104109  
   0.436978200    -0.4648930    0.6817331  
   0.438978100    -0.3660938    0.7398440  
   0.440978000    -0.2595874    0.7839239  
   0.442977900    -0.1482401    0.8126173  
   0.444977800    -0.0336561    0.8255637  
   0.446977700     0.0818024    0.8219692  
   0.448977600     0.1958737    0.8023121  
   0.450977500     0.3064155    0.7666746  
   0.452977400     0.4115143    0.7150782  
   0.454977300     0.5090974    0.6483871  
   0.456977200     0.5967387    0.5674993  
   0.458977100     0.6718296    0.4743029  
   0.460977000     0.7327830    0.3707101  
   0.462976900     0.7781783    0.2590709  
   0.464976800     0.8064069    0.1411719  
   0.466976700     0.8171048    0.0199014  
   0.468976600     0.8091452   -0.1019672  
   0.470976500     0.7832305   -0.2220684  
   0.472976400     0.7390451   -0.3371100  
   0.474976300     0.6779636   -0.4441021  
   0.476976200     0.6012469   -0.5409698  
   0.478976100     0.5107910   -0.6247454  
   0.480976000     0.4089856   -0.6932042  
   0.482975900     0.2984247   -0.7456362  
   0.484975800     0.1814272   -0.7805431  
   0.486975700     0.0606524   -0.7972781  
   0.488975600    -0.0616821   -0.7956061  
   0.490975500    -0.1818158   -0.7754263  
   0.492975400    -0.2974111   -0.7374446  
   0.494975300    -0.4060225   -0.6822121  
   0.496975200    -0.5042033   -0.6116272  
   0.498975100    -0.5909384   -0.5270312  
   0.500975000    -0.6627775   -0.4311315  
   0.502974900    -0.7197219   -0.3257558  
   0.504974800    -0.7599421   -0.2136415  
   0.506974700    -0.7831379   -0.0965934  
   0.508974600    -0.7883556    0.0227517  
   0.510974500    -0.7754671    0.1409946  
   0.512974400    -0.7454256    0.2558208  
   0.514974300    -0.6993225    0.3637939  
   0.516974200    -0.6375865    0.4632920  
   0.518974100    -0.5624691    0.5521600  
   0.520974000    -0.4754477    0.6287873  
   0.522973900    -0.3786652    0.6917578  
   0.524973800    -0.2738748    0.7398973  
   0.526973700    -0.1632110    0.7720947  
   0.528973600    -0.0494488    0.7882232  
   0.530973500     0.0657948    0.7872563  
   0.532973400     0.1796278    0.7697157  
   0.534973300     0.2897010    0.7360632  
   0.536973200     0.3936872    0.6864361  
   0.538973100     0.4893796    0.6224800  
   0.540973000     0.5743085    0.5459625  
   0.542972900     0.6477913    0.4577048  
   0.544972800     0.7076703    0.3594808  
   0.546972700     0.7527325    0.2532104  
   0.548972600     0.7823879    0.1412359  
   0.550972500     0.7952798    0.0254583  
   0.552972400     0.7909031   -0.0914100  
   0.554972300     0.7696677   -0.2064601  
   0.556972200     0.7315228   -0.3178286  
   0.558972100     0.6774005   -0.4225397  
   0.560972000     0.6083651   -0.5183673  
   0.562971900     0.5263315   -0.6020957  
   0.564971800     0.4328275   -0.6734342  
   0.566971700     0.3302498   -0.7298149  
   0.568971600     0.2205831   -0.7707188  
   0.570971500     0.1062243   -0.7954327  
   0.572971400    -0.0104746   -0.8026603  
   0.574971300    -0.1274201   -0.7931853  
   0.576971200    -0.2422031   -0.7665598  
   0.578971100    -0.3520176   -0.7229698  
   0.580971000    -0.4539922   -0.6642392  
   0.582970900    -0.5458090   -0.5913224  
   0.584970800    -0.6258188   -0.5060914  
   0.586970700    -0.6921626   -0.4106652  
   0.588970600    -0.7441217   -0.3070930  
   0.590970500    -0.7801840   -0.1973815  
   0.592970400    -0.7999662   -0.0835886  
   0.594970300    -0.8032168    0.0314248  
   0.596970200    -0.7899828    0.1457631  
   0.598970100    -0.7604607    0.2567683  
   0.600970000    -0.7150221    0.3623889  
   0.602969900    -0.6552147    0.4600511  
   0.604969800    -0.5814639    0.5486961  
   0.606969700    -0.4957808    0.6253380  
   0.608969600    -0.3991572    0.6891950  
   0.610969500    -0.2944321    0.7379837  
   0.612969400    -0.1834592    0.7708434  
   0.614969300    -0.0688625    0.7874936  
   0.616969200     0.0463254    0.7866008  
   0.618969100     0.1601540    0.7692565  
   0.620969000     0.2698489    0.7353384  
   0.622968900     0.3735534    0.6859266  
   0.624968800     0.4695348    0.6210609  
   0.626968700     0.5547624    0.5422525  
   0.628968600     0.6280580    0.4513009  
   0.630968500     0.6870267    0.3501063  
   0.632968400     0.7301920    0.2407633  
   0.634968300     0.7559643    0.1258137  
   0.636968200     0.7640741    0.0080582  
   0.638968100     0.7544577   -0.1097298  
   0.640968000     0.7266040   -0.2249212  
   0.642967900     0.6811991   -0.3345345  
   0.644967800     0.6198931   -0.4362276  
   0.646967700     0.5435134   -0.5268073  
   0.648967600     0.4544668   -0.6042970  
   0.650967500     0.3550216   -0.6671020  
   0.652967400     0.2474964   -0.7132303  
   0.654967300     0.1344706   -0.7431216  
   0.656967200     0.0187316   -0.7551691  
   0.658967100    -0.0969425   -0.7496434  
   0.660967000    -0.2109573   -0.7267405  
   0.662966900    -0.3201534   -0.6870552  
   0.664966800    -0.4222395   -0.6313078  
   0.666966700    -0.5145853   -0.5606903  
   0.668966600    -0.5949401   -0.4775686  
   0.670966500    -0.6618694   -0.3832147  
   0.672966400    -0.7131829   -0.2807318  
   0.674966300    -0.7489873   -0.1721869  
   0.676966200    -0.7678230   -0.0601447  
   0.678966100    -0.7703105    0.0527258  
   0.680966000    -0.7561344    0.1645764  
   0.682965900    -0.7260181    0.2725651  
   0.684965800    -0.6809576    0.3746078  
   0.686965700    -0.6214927    0.4693495  
   0.688965600    -0.5490148    0.5540037  
   0.690965500    -0.4655300    0.6274663  
   0.692965400    -0.3721914    0.6879886  
   0.694965300    -0.2716364    0.7348366  
   0.696965200    -0.1652609    0.7663352  
   0.698965100    -0.0551175    0.7828022  
   0.700965000     0.0559236    0.7830542  
   0.702964900     0.1669860    0.7675062  
   0.704964800     0.2747982    0.7359726  
   0.706964700     0.3774244    0.6889907  
   0.708964600     0.4727190    0.6270627  
   0.710964500     0.5585096    0.5515659  
   0.712964400     0.6326134    0.4638961  
   0.714964300     0.6934258    0.3659903  
   0.716964200     0.7390835    0.2600975  
   0.718964100     0.7682220    0.1485002  
   0.720964000     0.7805687    0.0341998  
   0.722963900     0.7759562   -0.0808291  
   0.724963800     0.7540630   -0.1939088  
   0.726963700     0.7158633   -0.3030501  
   0.728963600     0.6615627   -0.4054534  
   0.730963500     0.5925524   -0.4989770  
   0.732963400     0.5100644   -0.5813861  
   0.734963300     0.4158862   -0.6505293  
   0.736963200     0.2965425   -0.7121824  
   0.738963100     0.1675223   -0.7518762  
   0.740963000     0.0339785   -0.7679138  
   0.742962900    -0.1001582   -0.7601580  
   0.744962800    -0.2303486   -0.7289816  
   0.746962700    -0.3523985   -0.6753517  
   0.748962600    -0.4626988   -0.6014783  
   0.750962500    -0.3822274   -0.6618065  
   0.752962400    -0.4903298   -0.5846051  
   0.754962300    -0.5826515   -0.4898192  
   0.756962200    -0.6566776   -0.3812949  
   0.758962100    -0.7102802   -0.2621420  
   0.760962000    -0.7422317   -0.1360619  
   0.762961900    -0.7523690   -0.0130810  
   0.764961800    -0.7446722    0.0986546  
   0.766961700    -0.7206194    0.2072370  
   0.768961600    -0.6813871    0.3106828  
   0.770961500    -0.6273088    0.4065764  
   0.772961400    -0.5605952    0.4928608  
   0.774961300    -0.4824351    0.5682921  
   0.776961200    -0.3944912    0.6316810  
   0.778961100    -0.2984612    0.6810458  
   0.780961000    -0.1958922    0.7164063  
   0.782960900    -0.0897060    0.7364461  
   0.784960800     0.0194167    0.7412442  
   0.786960700     0.1278648    0.7300340  
   0.788960600     0.2337855    0.7028221  
   0.790960500     0.3353148    0.6612224  
   0.792960400     0.4297232    0.6047565  
   0.794960300     0.5146294    0.5352702  
   0.796960200     0.5886173    0.4536545  
   0.798960100     0.6501309    0.3622294  
   0.800960000     0.6973990    0.2626581  
   0.802959900     0.7302105    0.1565998  
   0.804959800     0.7467172    0.0470441  
   0.806959700     0.7471271   -0.0641552  
   0.808959600     0.7308379   -0.1747929  
   0.810959500     0.6989171   -0.2818734  
   0.812959400     0.6507438   -0.3835498  
   0.814959300     0.5878920   -0.4777202  
   0.816959200     0.5115423   -0.5613063  
   0.818959100     0.4236780   -0.6327971  
   0.820959000     0.3250895   -0.6905470  
   0.822958900     0.2193522   -0.7330582  
   0.824958800     0.1079570   -0.7591668  
   0.826958700    -0.0057452   -0.7683139  
   0.828958600    -0.1199202   -0.7602544  
   0.830958500    -0.2312610   -0.7353702  
   0.832958400    -0.3372722   -0.6940138  
   0.834958300    -0.4358269   -0.6376314  
   0.836958200    -0.5243353   -0.5674120  
   0.838958100    -0.6015998   -0.4852824  
   0.840958000    -0.6654128   -0.3928837  
   0.842957900    -0.7148445   -0.2922446  
   0.844957800    -0.7493680   -0.1856751  
   0.846957700    -0.7672960   -0.0754874  
   0.848957600    -0.7689542    0.0357063  
   0.850957500    -0.7544505    0.1459535  
   0.852957400    -0.7240245    0.2525317  
   0.854957300    -0.6785076    0.3534972  
   0.856957200    -0.6188197    0.4463867  
   0.858957100    -0.5469001    0.5291685  
   0.860957000    -0.4639095    0.6003326  
   0.862956900    -0.3723007    0.6579642  
   0.864956800    -0.2737567    0.7018176  
   0.866956700    -0.1706883    0.7308843  
   0.868956600    -0.0642633    0.7451883  
   0.870956500     0.0429370    0.7439910  
   0.872956400     0.1494427    0.7273540  
   0.874956300     0.2527197    0.6954048  
   0.876956200     0.3509556    0.6484417  
   0.878956100     0.4418407    0.5871938  
   0.880956000     0.5230474    0.5129881  
   0.882955900     0.5933838    0.4270532  
   0.884955800     0.6497576    0.3309325  
   0.886955700     0.6911168    0.2269447  
   0.888955600     0.7165318    0.1175934  
   0.890955500     0.7248473    0.0053431  
   0.892955400     0.7162486   -0.1072550  
   0.894955300     0.6900214   -0.2175961  
