! MS46122B
! 2250307/22442219
! 6/16/2025 12:47:39 PM
! C:\USERS\SPARKY\DOCUMENTS\VNA_DATA\JUNE16_2025\295K\ECAL_SHORT_E.S1P
! CHANNEL.1
! TR.MEASUREMENT
! RAW.DATA
# GHZ S RI R 50.0
! FREQ.GHZ         S11RE         S11IM         
!; PortSelection: Port_1
   0.001000000    -0.9485763    0.0516455  
   0.002999900    -0.9193876    0.2560948  
   0.004999800    -0.8807132    0.4026845  
   0.006999700    -0.8158162    0.5327524  
   0.008999600    -0.7288284    0.6454368  
   0.010999500    -0.6235213    0.7397547  
   0.012999400    -0.5041503    0.8144026  
   0.014999300    -0.3742160    0.8686503  
   0.016999200    -0.2377105    0.9023616  
   0.018999100    -0.0981016    0.9160384  
   0.020999000     0.0412249    0.9099171  
   0.022998900     0.1775512    0.8851772  
   0.024998800     0.2810913    0.8210346  
   0.026998700     0.4308755    0.7831631  
   0.028998600     0.5436410    0.7084228  
   0.030998500     0.6441827    0.6198164  
   0.032998400     0.6962203    0.5144242  
   0.034998300     0.8023614    0.4056944  
   0.036998200     0.8562309    0.2838269  
   0.038998100     0.8919832    0.1551162  
   0.040998000     0.9077848    0.0218945  
   0.042997900     0.9033994   -0.1119912  
   0.044997800     0.8524719   -0.2204459  
   0.046997700     0.8337088   -0.3705318  
   0.048997600     0.7703003   -0.4891854  
   0.050997500     0.6902158   -0.5966488  
   0.052997400     0.5965014   -0.6896600  
   0.054997300     0.4882217   -0.7701377  
   0.056997200     0.3708203   -0.8329655  
   0.058997100     0.2464037   -0.8783118  
   0.060997000     0.1172880   -0.9052262  
   0.062996900    -0.0141108   -0.9133469  
   0.064996800    -0.1451321   -0.9027427  
   0.066996700    -0.2730178   -0.8732181  
   0.068996600    -0.3952025   -0.8259119  
   0.070996500    -0.5089006   -0.7616052  
   0.072996400    -0.6119780   -0.6813611  
   0.074996300    -0.7025375   -0.5872403  
   0.076996200    -0.7782796   -0.4814076  
   0.078996100    -0.8377299   -0.3655377  
   0.080996000    -0.8800229   -0.2422057  
   0.082995900    -0.9042076   -0.1142007  
   0.084995800    -0.9098451    0.0161588  
   0.086995700    -0.8965617    0.1461132  
   0.088995600    -0.8648445    0.2728828  
   0.090995500    -0.8149767    0.3941378  
   0.092995400    -0.7480458    0.5071342  
   0.094995300    -0.6646345    0.6096595  
   0.096995200    -0.5675573    0.6991921  
   0.098995100    -0.4574356    0.7737907  
   0.100995000    -0.3371320    0.8312536  
   0.102994900    -0.2093754    0.8701344  
   0.104994800    -0.0768208    0.8894578  
   0.106994700     0.0577050    0.8887790  
   0.108994600     0.1909671    0.8676394  
   0.110994500     0.3193342    0.8265900  
   0.112994400     0.4406278    0.7663076  
   0.114994300     0.5513777    0.6880249  
   0.116994200     0.6491330    0.5939887  
   0.118994100     0.7312455    0.4857600  
   0.120994000     0.7960264    0.3662599  
   0.122993900     0.8415936    0.2382118  
   0.124993800     0.8667921    0.1049356  
   0.126993700     0.8712469   -0.0304477  
   0.128993600     0.8552977   -0.1647604  
   0.130993500     0.8191828   -0.2946354  
   0.132993400     0.7633909   -0.4171107  
   0.134993300     0.6898825   -0.5289845  
   0.136993200     0.6005504   -0.6278092  
   0.138993100     0.4976733   -0.7117385  
   0.140993000     0.3842842   -0.7788698  
   0.142992900     0.2624185   -0.8277920  
   0.144992800     0.1357076   -0.8579286  
   0.146992700     0.0062581   -0.8687616  
   0.148992600    -0.1225791   -0.8606887  
   0.150992500    -0.2480022   -0.8336550  
   0.152992400    -0.3678852   -0.7885263  
   0.154992300    -0.4788611   -0.7270532  
   0.156992200    -0.5794817   -0.6505334  
   0.158992100    -0.6671886   -0.5603954  
   0.160992000    -0.7412962   -0.4594559  
   0.162991900    -0.7996753   -0.3490750  
   0.164991800    -0.8416687   -0.2313136  
   0.166991700    -0.8664581   -0.1097304  
   0.168991600    -0.8734391    0.0139649  
   0.170991500    -0.8628776    0.1374879  
   0.172991400    -0.8351744    0.2574622  
   0.174991300    -0.7906476    0.3726167  
   0.176991200    -0.7301928    0.4805768  
   0.178991100    -0.6548761    0.5788954  
   0.180991000    -0.5667113    0.6653809  
   0.182990900    -0.4669861    0.7385712  
   0.184990800    -0.3569444    0.7973664  
   0.186990700    -0.2397093    0.8399339  
   0.188990600    -0.1431257    0.8618723  
   0.190990500     0.0031526    0.8727228  
   0.192990400     0.1320441    0.8618651  
   0.194990300     0.2552025    0.8332942  
   0.196990200     0.3726527    0.7870770  
   0.198990100     0.4823366    0.7243212  
   0.200990000     0.5825269    0.6456667  
   0.202989900     0.6704490    0.5528058  
   0.204989800     0.7441261    0.4478150  
   0.206989700     0.8013326    0.3330543  
   0.208989600     0.8410213    0.2108236  
   0.210989500     0.8624058    0.0831779  
   0.212989400     0.8646628   -0.0465946  
   0.214989300     0.8471149   -0.1754441  
   0.216989200     0.8109703   -0.2999443  
   0.218989100     0.7562941   -0.4173703  
   0.220989000     0.6845126   -0.5257826  
   0.222988900     0.5971673   -0.6222834  
   0.224988800     0.4959583   -0.7047252  
   0.226988700     0.3839572   -0.7706075  
   0.228988600     0.2637145   -0.8186737  
   0.230988500     0.1380614   -0.8479795  
   0.232988400     0.0096755   -0.8582253  
   0.234988300    -0.1191502   -0.8486819  
   0.236988200    -0.2448198   -0.8201109  
   0.238988100    -0.3645154   -0.7730740  
   0.240988000    -0.4749791   -0.7090866  
   0.242987900    -0.5738968   -0.6297630  
   0.244987800    -0.6597455   -0.5369752  
   0.246987700    -0.7307900   -0.4321253  
   0.248987600    -0.7851524   -0.3181200  
   0.250987500    -0.8223321   -0.1973475  
   0.252987400    -0.8406128   -0.0732784  
   0.254987300    -0.8403876    0.0514107  
   0.256987200    -0.8219680    0.1740793  
   0.258987100    -0.7856488    0.2925794  
   0.260987000    -0.7325095    0.4043322  
   0.262986900    -0.6631755    0.5074489  
   0.264986800    -0.5792209    0.5992596  
   0.266986700    -0.4827640    0.6775253  
   0.268986600    -0.3761295    0.7408007  
   0.270986500    -0.2619603    0.7873707  
   0.272986400    -0.1421387    0.8163555  
   0.274986300    -0.0196899    0.8277794  
   0.276986200     0.1038502    0.8207685  
   0.278986100     0.2254425    0.7960261  
   0.280986000     0.3424030    0.7529711  
   0.282985900     0.4520402    0.6927485  
   0.284985800     0.5519433    0.6168953  
   0.286985700     0.6392388    0.5269330  
   0.288985600     0.7118691    0.4253730  
   0.290985500     0.7682986    0.3144401  
   0.292985400     0.8078533    0.1962994  
   0.294985300     0.8293836    0.0733435  
   0.296985200     0.8324388   -0.0521301  
   0.298985100     0.8167456   -0.1776132  
   0.300985000     0.7819703   -0.2994224  
   0.302984900     0.7293265   -0.4148414  
   0.304984800     0.6600495   -0.5207554  
   0.306984700     0.5761401   -0.6147968  
   0.308984600     0.4793057   -0.6947896  
   0.310984500     0.3725990   -0.7591077  
   0.312984400     0.2575125   -0.8071109  
   0.314984300     0.1370013   -0.8372649  
   0.316984200     0.0137732   -0.8493249  
   0.318984100    -0.1107126   -0.8431329  
   0.320984000    -0.2330424   -0.8183361  
   0.322983900    -0.3505559   -0.7759132  
   0.324983800    -0.4600591   -0.7168067  
   0.326983700    -0.5591564   -0.6422274  
   0.328983600    -0.6461921   -0.5546588  
   0.330983500    -0.7187331   -0.4557079  
   0.332983400    -0.7757611   -0.3480151  
   0.334983300    -0.8172300   -0.2340714  
   0.336983200    -0.8409480   -0.1156980  
   0.338983100    -0.8475745    0.0049907  
   0.340983000    -0.8369188    0.1245116  
   0.342982900    -0.8093446    0.2413755  
   0.344982800    -0.7650930    0.3534557  
   0.346982700    -0.7047324    0.4585841  
   0.348982600    -0.6295664    0.5540662  
   0.350982500    -0.5417584    0.6376508  
   0.352982400    -0.4422453    0.7077562  
   0.354982300    -0.3281898    0.7646680  
   0.356982200    -0.1928514    0.8062204  
   0.358982100    -0.0530281    0.8241112  
   0.360982000     0.0872968    0.8187768  
   0.362981900     0.2242119    0.7893879  
   0.364981800     0.3547073    0.7376209  
   0.366981700     0.4744875    0.6644893  
   0.368981600     0.5805000    0.5721827  
   0.370981500     0.6695587    0.4629421  
   0.372981400     0.7389895    0.3392881  
   0.374981300     0.7860923    0.2049016  
   0.376981200     0.7437448    0.3163607  
   0.378981100     0.7869067    0.1792419  
   0.380981000     0.8056396    0.0366118  
   0.382980900     0.8001803   -0.0948496  
   0.384980800     0.7750894   -0.2178226  
   0.386980700     0.7312132   -0.3358247  
   0.388980600     0.6698260   -0.4456303  
   0.390980500     0.5922795   -0.5440965  
   0.392980400     0.5013880   -0.6292022  
   0.394980300     0.3990166   -0.6989049  
   0.396980200     0.2881448   -0.7520678  
   0.398980100     0.1703407   -0.7878788  
   0.400980000     0.0493508   -0.8056003  
   0.402979900    -0.0727599   -0.8051235  
   0.404979800    -0.1923956   -0.7863615  
   0.406979700    -0.3070988   -0.7501991  
   0.408979600    -0.4148565   -0.6978462  
   0.410979500    -0.5137350   -0.6301636  
   0.412979400    -0.6015842   -0.5488868  
   0.414979300    -0.6764209   -0.4557918  
   0.416979200    -0.7363873   -0.3532582  
   0.418979100    -0.7809430   -0.2437691  
   0.420979000    -0.8089573   -0.1292244  
   0.422978900    -0.8204574   -0.0124333  
   0.424978800    -0.8149368    0.1049063  
   0.426978700    -0.7926890    0.2200616  
   0.428978600    -0.7543896    0.3304294  
   0.430978500    -0.7012262    0.4335426  
   0.432978400    -0.6343248    0.5277430  
   0.434978300    -0.5552790    0.6113216  
   0.436978200    -0.4650100    0.6827597  
   0.438978100    -0.3661397    0.7407452  
   0.440978000    -0.2596923    0.7848636  
   0.442977900    -0.1480584    0.8135709  
   0.444977800    -0.0334994    0.8264310  
   0.446977700     0.0820978    0.8227830  
   0.448977600     0.1961397    0.8031452  
   0.450977500     0.3067589    0.7675012  
   0.452977400     0.4118876    0.7157998  
   0.454977300     0.5094890    0.6491259  
   0.456977200     0.5972138    0.5682170  
   0.458977100     0.6723459    0.4749442  
   0.460977000     0.7334707    0.3713225  
   0.462976900     0.7787207    0.2596595  
   0.464976800     0.8070289    0.1416629  
   0.466976700     0.8177112    0.0204431  
   0.468976600     0.8098308   -0.1016888  
   0.470976500     0.7839881   -0.2219100  
   0.472976400     0.7397240   -0.3370694  
   0.474976300     0.6786726   -0.4441796  
   0.476976200     0.6019844   -0.5411624  
   0.478976100     0.5114117   -0.6249703  
   0.480976000     0.4094240   -0.6936956  
   0.482975900     0.2989871   -0.7461348  
   0.484975800     0.1815937   -0.7811353  
   0.486975700     0.0607688   -0.7979732  
   0.488975600    -0.0617734   -0.7962902  
   0.490975500    -0.1820295   -0.7760875  
   0.492975400    -0.2977916   -0.7380552  
   0.494975300    -0.4064014   -0.6828439  
   0.496975200    -0.5047271   -0.6122193  
   0.498975100    -0.5914359   -0.5275342  
   0.500975000    -0.6635894   -0.4315096  
   0.502974900    -0.7204306   -0.3262759  
   0.504974800    -0.7608066   -0.2139694  
   0.506974700    -0.7841640   -0.0968893  
   0.508974600    -0.7892672    0.0225626  
   0.510974500    -0.7764475    0.1409252  
   0.512974400    -0.7464128    0.2557849  
   0.514974300    -0.7003344    0.3639558  
   0.516974200    -0.6386017    0.4635921  
   0.518974100    -0.5635216    0.5525054  
   0.520974000    -0.4764192    0.6293155  
   0.522973900    -0.3796324    0.6923727  
   0.524973800    -0.2748145    0.7405620  
   0.526973700    -0.1640564    0.7729121  
   0.528973600    -0.0499839    0.7889560  
   0.530973500     0.0651252    0.7882527  
   0.532973400     0.1789903    0.7707433  
   0.534973300     0.2891378    0.7372732  
   0.536973200     0.3933451    0.6875473  
   0.538973100     0.4891785    0.6235760  
   0.540973000     0.5742831    0.5470522  
   0.542972900     0.6479329    0.4587294  
   0.544972800     0.7079355    0.3605023  
   0.546972700     0.7531824    0.2540838  
   0.548972600     0.7829269    0.1419977  
   0.550972500     0.7959099    0.0260672  
   0.552972400     0.7916863   -0.0907731  
   0.554972300     0.7705002   -0.2062022  
   0.556972200     0.7324122   -0.3177299  
   0.558972100     0.6782563   -0.4226046  
   0.560972000     0.6093683   -0.5181634  
   0.562971900     0.5271971   -0.6023169  
   0.564971800     0.4336860   -0.6737090  
   0.566971700     0.3309996   -0.7303492  
   0.568971600     0.2213316   -0.7715691  
   0.570971500     0.1068055   -0.7962321  
   0.572971400    -0.0100482   -0.8035545  
   0.574971300    -0.1273451   -0.7942236  
   0.576971200    -0.2420363   -0.7675798  
   0.578971100    -0.3519486   -0.7241099  
   0.580971000    -0.4541188   -0.6653811  
   0.582970900    -0.5461011   -0.5923873  
   0.584970800    -0.6262748   -0.5071413  
   0.586970700    -0.6927969   -0.4116985  
   0.588970600    -0.7448348   -0.3081158  
   0.590970500    -0.7810683   -0.1982291  
   0.592970400    -0.8009903   -0.0843320  
   0.594970300    -0.8043590    0.0308265  
   0.596970200    -0.7911462    0.1452200  
   0.598970100    -0.7616885    0.2564414  
   0.600970000    -0.7163358    0.3621418  
   0.602969900    -0.6564246    0.4599888  
   0.604969800    -0.5828345    0.5486785  
   0.606969700    -0.4970043    0.6257704  
   0.608969600    -0.4004059    0.6895741  
   0.610969500    -0.2956158    0.7384833  
   0.612969400    -0.1846930    0.7714558  
   0.614969300    -0.0699046    0.7882472  
   0.616969200     0.0453185    0.7874861  
   0.618969100     0.1594633    0.7702063  
   0.620969000     0.2692253    0.7364607  
   0.622968900     0.3731142    0.6869521  
   0.624968800     0.4692549    0.6221665  
   0.626968700     0.5546585    0.5433536  
   0.628968600     0.6280517    0.4524170  
   0.630968500     0.6871735    0.3512203  
   0.632968400     0.7307351    0.2417909  
   0.634968300     0.7565948    0.1266539  
   0.636968200     0.7649672    0.0085737  
   0.638968100     0.7552849   -0.1091089  
   0.640968000     0.7275562   -0.2246007  
   0.642967900     0.6822587   -0.3342278  
   0.644967800     0.6209214   -0.4361742  
   0.646967700     0.5445454   -0.5270583  
   0.648967600     0.4553827   -0.6048090  
   0.650967500     0.3557441   -0.6678356  
   0.652967400     0.2481916   -0.7140378  
   0.654967300     0.1349804   -0.7439939  
   0.656967200     0.0191074   -0.7562202  
   0.658967100    -0.0967986   -0.7507976  
   0.660967000    -0.2108928   -0.7278861  
   0.662966900    -0.3202153   -0.6882196  
   0.664966800    -0.4224956   -0.6325720  
   0.666966700    -0.5150726   -0.5619203  
   0.668966600    -0.5955294   -0.4786608  
   0.670966500    -0.6624917   -0.3842797  
   0.672966400    -0.7139428   -0.2815571  
   0.674966300    -0.7498170   -0.1730360  
   0.676966200    -0.7687607   -0.0607766  
   0.678966100    -0.7712708    0.0521217  
   0.680966000    -0.7571880    0.1639779  
   0.682965900    -0.7271382    0.2721518  
   0.684965800    -0.6820745    0.3743845  
   0.686965700    -0.6226336    0.4692073  
   0.688965600    -0.5501351    0.5539240  
   0.690965500    -0.4667043    0.6276022  
   0.692965400    -0.3732956    0.6882606  
   0.694965300    -0.2726193    0.7352877  
   0.696965200    -0.1662935    0.7669191  
   0.698965100    -0.0560660    0.7834898  
   0.700965000     0.0552758    0.7838699  
   0.702964900     0.1662199    0.7685056  
   0.704964800     0.2740060    0.7370707  
   0.706964700     0.3768525    0.6901898  
   0.708964600     0.4723703    0.6283732  
   0.710964500     0.5585033    0.5528722  
   0.712964400     0.6327200    0.4653066  
   0.714964300     0.6938568    0.3673156  
   0.716964200     0.7396612    0.2613299  
   0.718964100     0.7689878    0.1498467  
   0.720964000     0.7815652    0.0352475  
   0.722963900     0.7771942   -0.0799996  
   0.724963800     0.7553959   -0.1932170  
   0.726963700     0.7173221   -0.3026582  
   0.728963600     0.6631850   -0.4052019  
   0.730963500     0.5941519   -0.4989861  
   0.732963400     0.5116971   -0.5815943  
   0.734963300     0.4175317   -0.6509434  
   0.736963200     0.2981074   -0.7129300  
   0.738963100     0.1689029   -0.7528398  
   0.740963000     0.0352445   -0.7690392  
   0.742962900    -0.0990758   -0.7615917  
   0.744962800    -0.2295458   -0.7305238  
   0.746962700    -0.3518099   -0.6769686  
   0.748962600    -0.4624184   -0.6031064  
   0.750962500    -0.3816589   -0.6633188  
   0.752962400    -0.4901175   -0.5860313  
   0.754962300    -0.5825416   -0.4914612  
   0.756962200    -0.6568525   -0.3827316  
   0.758962100    -0.7106372   -0.2635276  
   0.760962000    -0.7427145   -0.1373481  
   0.762961900    -0.7529629   -0.0142571  
   0.764961800    -0.7453900    0.0977638  
   0.766961700    -0.7214264    0.2064497  
   0.768961600    -0.6822521    0.3099094  
   0.770961500    -0.6282750    0.4060694  
   0.772961400    -0.5616177    0.4924494  
   0.774961300    -0.4834020    0.5681323  
   0.776961200    -0.3954737    0.6315932  
   0.778961100    -0.2993998    0.6810923  
   0.780961000    -0.1968741    0.7166128  
   0.782960900    -0.0904855    0.7367854  
   0.784960800     0.0187293    0.7417926  
   0.786960700     0.1272800    0.7306396  
   0.788960600     0.2336176    0.7036623  
   0.790960500     0.3351773    0.6620594  
   0.792960400     0.4297063    0.6056572  
   0.794960300     0.5148597    0.5361517  
   0.796960200     0.5889601    0.4545197  
   0.798960100     0.6506746    0.3630721  
   0.800960000     0.6980760    0.2634778  
   0.802959900     0.7311044    0.1573175  
   0.804959800     0.7476953    0.0476247  
   0.806959700     0.7482498   -0.0637761  
   0.808959600     0.7321326   -0.1745929  
   0.810959500     0.7002771   -0.2817811  
   0.812959400     0.6520828   -0.3837150  
   0.814959300     0.5892754   -0.4779534  
   0.816959200     0.5129098   -0.5617701  
   0.818959100     0.4249292   -0.6334102  
   0.820959000     0.3263457   -0.6912957  
   0.822958900     0.2204904   -0.7340120  
   0.824958800     0.1091822   -0.7602323  
   0.826958700    -0.0047603   -0.7695315  
   0.828958600    -0.1190172   -0.7614757  
   0.830958500    -0.2306005   -0.7366743  
   0.832958400    -0.3367296   -0.6953024  
   0.834958300    -0.4354604   -0.6390153  
   0.836958200    -0.5242033   -0.5687280  
   0.838958100    -0.6014534   -0.4867311  
   0.840958000    -0.6655164   -0.3943249  
   0.842957900    -0.7151031   -0.2936556  
   0.844957800    -0.7496346   -0.1870971  
   0.846957700    -0.7678416   -0.0767920  
   0.848957600    -0.7697918    0.0343431  
   0.850957500    -0.7552818    0.1449036  
   0.852957400    -0.7250001    0.2514966  
   0.854957300    -0.6796209    0.3525899  
   0.856957200    -0.6200515    0.4457399  
   0.858957100    -0.5481943    0.5286176  
   0.860957000    -0.4650449    0.5998849  
   0.862956900    -0.3734807    0.6579796  
   0.864956800    -0.2748352    0.7019908  
   0.866956700    -0.1715712    0.7315343  
   0.868956600    -0.0651960    0.7459036  
   0.870956500     0.0421018    0.7449299  
   0.872956400     0.1487859    0.7282898  
   0.874956300     0.2522433    0.6964560  
   0.876956200     0.3506822    0.6496052  
   0.878956100     0.4418172    0.5884054  
   0.880956000     0.5231302    0.5142762  
   0.882955900     0.5937583    0.4283918  
   0.884955800     0.6503537    0.3323153  
   0.886955700     0.6918458    0.2283194  
   0.888955600     0.7174761    0.1189471  
   0.890955500     0.7260820    0.0063269  
   0.892955400     0.7176198   -0.1062067  
   0.894955300     0.6915663   -0.2167519  
