! MS46122B
! 2250307/22442219
! 6/14/2025 10:16:58 AM
! C:\USERS\SPARKY\DOCUMENTS\VNA_DATA\JUNE14_2025\295K\ECAL_OPEN_C.S1P
! CHANNEL.1
! TR.MEASUREMENT
! RAW.DATA
# GHZ S RI R 50.0
! FREQ.GHZ         S11RE         S11IM         
!; PortSelection: Port_1
   0.001000000     1.0272820   -0.0527658  
   0.002999900     0.9422042   -0.2057853  
   0.004999800     0.8808382   -0.3457915  
   0.006999700     0.8078536   -0.4764778  
   0.008999600     0.7198110   -0.5893452  
   0.010999500     0.6206082   -0.6896094  
   0.012999400     0.5113736   -0.7771084  
   0.014999300     0.3930533   -0.8502499  
   0.016999200     0.2664371   -0.9062981  
   0.018999100     0.1335562   -0.9436121  
   0.020999000    -0.0035876   -0.9603652  
   0.022998900    -0.1421796   -0.9558765  
   0.024998800    -0.2549902   -0.9037567  
   0.026998700    -0.4098957   -0.8800216  
   0.028998600    -0.5326265   -0.8100894  
   0.030998500    -0.6431692   -0.7214358  
   0.032998400    -0.7066466   -0.6091210  
   0.034998300    -0.8178539   -0.4969055  
   0.036998200    -0.8773073   -0.3671018  
   0.038998100    -0.9168779   -0.2309032  
   0.040998000    -0.9357197   -0.0901519  
   0.042997900    -0.9342596    0.0505860  
   0.044997800    -0.8876390    0.1667794  
   0.046997700    -0.8702875    0.3223826  
   0.048997600    -0.8099986    0.4483709  
   0.050997500    -0.7317670    0.5640047  
   0.052997400    -0.6382941    0.6653488  
   0.054997300    -0.5278208    0.7534332  
   0.056997200    -0.4062506    0.8231025  
   0.058997100    -0.2757013    0.8729784  
   0.060997000    -0.1390651    0.9021335  
   0.062996900     0.0006054    0.9098564  
   0.064996800     0.1397810    0.8962163  
   0.066996700     0.2751850    0.8613714  
   0.068996600     0.4034462    0.8065480  
   0.070996500     0.5216954    0.7327315  
   0.072996400     0.6273730    0.6421596  
   0.074996300     0.7182662    0.5368409  
   0.076996200     0.7920681    0.4190060  
   0.078996100     0.8467360    0.2914977  
   0.080996000     0.8812686    0.1576530  
   0.082995900     0.8950770    0.0201584  
   0.084995800     0.8876576   -0.1172708  
   0.086995700     0.8595781   -0.2514045  
   0.088995600     0.8117211   -0.3793823  
   0.090995500     0.7450421   -0.4979729  
   0.092995400     0.6620042   -0.6047438  
   0.094995300     0.5639333   -0.6975568  
   0.096995200     0.4542643   -0.7743921  
   0.098995100     0.3343889   -0.8338729  
   0.100995000     0.2077543   -0.8750597  
   0.102994900     0.0772968   -0.8965410  
   0.104994800    -0.0543838   -0.8991181  
   0.106994700    -0.1847200   -0.8824880  
   0.108994600    -0.3103728   -0.8473672  
   0.110994500    -0.4298283   -0.7947209  
   0.112994400    -0.5397951   -0.7256945  
   0.114994300    -0.6384314   -0.6415812  
   0.116994200    -0.7238823   -0.5445197  
   0.118994100    -0.7944374   -0.4365520  
   0.120994000    -0.8482211   -0.3193166  
   0.122993900    -0.8851376   -0.1961941  
   0.124993800    -0.9039800   -0.0689572  
   0.126993700    -0.9045043    0.0598155  
   0.128993600    -0.8868958    0.1872943  
   0.130993500    -0.8509519    0.3113348  
   0.132993400    -0.7976525    0.4289403  
   0.134993300    -0.7277503    0.5382220  
   0.136993200    -0.6427784    0.6361523  
   0.138993100    -0.5440342    0.7214375  
   0.140993000    -0.4337114    0.7916570  
   0.142992900    -0.3134411    0.8450598  
   0.144992800    -0.1862529    0.8809100  
   0.146992700    -0.0546828    0.8975642  
   0.148992600     0.0785098    0.8943785  
   0.150992500     0.2100657    0.8712701  
   0.152992400     0.3375304    0.8287823  
   0.154992300     0.4576598    0.7672443  
   0.156992200     0.5674441    0.6878656  
   0.158992100     0.6643540    0.5926785  
   0.160992000     0.7457001    0.4836028  
   0.162991900     0.8100390    0.3627620  
   0.164991800     0.8548433    0.2331813  
   0.166991700     0.8791494    0.0983648  
   0.168991600     0.8823029   -0.0390406  
   0.170991500     0.8646067   -0.1753231  
   0.172991400     0.8254395   -0.3070948  
   0.174991300     0.7670175   -0.4308686  
   0.176991200     0.6897233   -0.5443293  
   0.178991100     0.5961980   -0.6440013  
   0.180991000     0.4888012   -0.7278661  
   0.182990900     0.3702976   -0.7938652  
   0.184990800     0.2430517   -0.8409145  
   0.186990700     0.1107564   -0.8676751  
   0.188990600     0.0014094   -0.8733048  
   0.190990500    -0.1521110   -0.8596459  
   0.192990400    -0.2839829   -0.8247768  
   0.194990300    -0.4053789   -0.7716779  
   0.196990200    -0.5159540   -0.7015906  
   0.198990100    -0.6145452   -0.6161912  
   0.200990000    -0.6987292   -0.5174904  
   0.202989900    -0.7674305   -0.4074868  
   0.204989800    -0.8188360   -0.2893153  
   0.206989700    -0.8519326   -0.1656744  
   0.208989600    -0.8665298   -0.0392497  
   0.210989500    -0.8626335    0.0878886  
   0.212989400    -0.8400889    0.2133078  
   0.214989300    -0.7995143    0.3335012  
   0.216989200    -0.7422482    0.4459560  
   0.218989100    -0.6697268    0.5487254  
   0.220989000    -0.5830993    0.6400383  
   0.222988900    -0.4836041    0.7184189  
   0.224988800    -0.3737561    0.7813194  
   0.226988700    -0.2560949    0.8274730  
   0.228988600    -0.1331575    0.8561975  
   0.230988500    -0.0072706    0.8667316  
   0.232988400     0.1189889    0.8590140  
   0.234988300     0.2433339    0.8328523  
   0.236988200     0.3632542    0.7884757  
   0.238988100     0.4754669    0.7274112  
   0.240988000     0.5774629    0.6502720  
   0.242987900     0.6668345    0.5592225  
   0.244987800     0.7422537    0.4558701  
   0.246987700     0.8021713    0.3417797  
   0.248987600     0.8446831    0.2197016  
   0.250987500     0.8686436    0.0919620  
   0.252987400     0.8733444   -0.0376657  
   0.254987300     0.8589782   -0.1662062  
   0.256987200     0.8256582   -0.2909144  
   0.258987100     0.7746408   -0.4094519  
   0.260987000     0.7060506   -0.5196921  
   0.262986900     0.6216736   -0.6187426  
   0.264986800     0.5232740   -0.7042323  
   0.266986700     0.4134439   -0.7740998  
   0.268986600     0.2949082   -0.8265649  
   0.270986500     0.1705078   -0.8608554  
   0.272986400     0.0426296   -0.8762137  
   0.274986300    -0.0856539   -0.8723159  
   0.276986200    -0.2117631   -0.8499767  
   0.278986100    -0.3334407   -0.8090321  
   0.280986000    -0.4478857   -0.7503719  
   0.282985900    -0.5521918   -0.6756257  
   0.284985800    -0.6442537   -0.5865005  
   0.286985700    -0.7216281   -0.4850273  
   0.288985600    -0.7827469   -0.3745307  
   0.290985500    -0.8267201   -0.2571025  
   0.292985400    -0.8531649   -0.1349434  
   0.294985300    -0.8614054   -0.0103814  
   0.296985200    -0.8516809    0.1147928  
   0.298985100    -0.8235260    0.2372313  
   0.300985000    -0.7779363    0.3549087  
   0.302984900    -0.7149791    0.4639732  
   0.304984800    -0.6373581    0.5623520  
   0.306984700    -0.5463830    0.6480973  
   0.308984600    -0.4440915    0.7191443  
   0.310984500    -0.3334371    0.7745696  
   0.312984400    -0.2156082    0.8130410  
   0.314984300    -0.0933482    0.8340611  
   0.316984200     0.0310179    0.8368374  
   0.318984100     0.1550097    0.8213226  
   0.320984000     0.2766121    0.7874086  
   0.322983900     0.3922538    0.7355292  
   0.324983800     0.4986753    0.6668946  
   0.326983700     0.5942369    0.5826173  
   0.328983600     0.6759611    0.4850493  
   0.330983500     0.7421037    0.3762846  
   0.332983400     0.7903205    0.2592117  
   0.334983300     0.8211558    0.1361056  
   0.336983200     0.8331039    0.0096878  
   0.338983100     0.8254751   -0.1175453  
   0.340983000     0.7992108   -0.2418071  
   0.342982900     0.7543992   -0.3608777  
   0.344982800     0.6917531   -0.4724475  
   0.346982700     0.6126103   -0.5735577  
   0.348982600     0.5186398   -0.6618457  
   0.350982500     0.4126801   -0.7346374  
   0.352982400     0.2965464   -0.7906085  
   0.354982300     0.1679816   -0.8293841  
   0.356982200     0.0200528   -0.8476509  
   0.358982100    -0.1278161   -0.8403065  
   0.360982000    -0.2712138   -0.8067625  
   0.362981900    -0.4061047   -0.7497981  
   0.364981800    -0.5284387   -0.6697745  
   0.366981700    -0.6344916   -0.5709604  
   0.368981600    -0.7217019   -0.4554078  
   0.370981500    -0.7874879   -0.3275023  
   0.372981400    -0.8303362   -0.1911342  
   0.374981300    -0.8495086   -0.0491038  
   0.376981200    -0.8361922   -0.1901351  
   0.378981100    -0.8556530   -0.0468689  
   0.380981000    -0.8505992    0.0974625  
   0.382980900    -0.8256578    0.2247047  
   0.384980800    -0.7844926    0.3410475  
   0.386980700    -0.7268720    0.4498684  
   0.388980600    -0.6541902    0.5489125  
   0.390980500    -0.5684162    0.6363468  
   0.392980400    -0.4713009    0.7098917  
   0.394980300    -0.3655200    0.7686175  
   0.396980200    -0.2523105    0.8115489  
   0.398980100    -0.1334409    0.8377772  
   0.400980000    -0.0125935    0.8464799  
   0.402979900     0.1092484    0.8378171  
   0.404979800     0.2283831    0.8117560  
   0.406979700     0.3428786    0.7685735  
   0.408979600     0.4500706    0.7087009  
   0.410979500     0.5482488    0.6334919  
   0.412979400     0.6350899    0.5436599  
   0.414979300     0.7077260    0.4411297  
   0.416979200     0.7644098    0.3286877  
   0.418979100     0.8035151    0.2084191  
   0.420979000     0.8242589    0.0830587  
   0.422978900     0.8252383   -0.0446644  
   0.424978800     0.8065633   -0.1714159  
   0.426978700     0.7683477   -0.2945225  
   0.428978600     0.7114275   -0.4100515  
   0.430978500     0.6374363   -0.5152827  
   0.432978400     0.5485681   -0.6072490  
   0.434978300     0.4464034   -0.6843272  
   0.436978200     0.3336398   -0.7447440  
   0.438978100     0.2134340   -0.7868490  
   0.440978000     0.0885266   -0.8096444  
   0.442977900    -0.0383244   -0.8129602  
   0.444977800    -0.1631470   -0.7968917  
   0.446977700    -0.2841772   -0.7621165  
   0.448977600    -0.3972689   -0.7096260  
   0.450977500    -0.5005696   -0.6408113  
   0.452977400    -0.5926588   -0.5572780  
   0.454977300    -0.6708881   -0.4608930  
   0.456977200    -0.7334945   -0.3540806  
   0.458977100    -0.7793533   -0.2393178  
   0.460977000    -0.8071954   -0.1199280  
   0.462976900    -0.8169658    0.0013792  
   0.464976800    -0.8087369    0.1224547  
   0.466976700    -0.7830864    0.2400478  
   0.468976600    -0.7402688    0.3525548  
   0.470976500    -0.6822543    0.4570051  
   0.472976400    -0.6095985    0.5512432  
   0.474976300    -0.5245138    0.6341186  
   0.476976200    -0.4287531    0.7035275  
   0.478976100    -0.3243771    0.7583440  
   0.480976000    -0.2141341    0.7974200  
   0.482975900    -0.0996606    0.8206636  
   0.484975800     0.0165401    0.8272402  
   0.486975700     0.1330453    0.8176904  
   0.488975600     0.2469796    0.7915149  
   0.490975500     0.3566447    0.7494882  
   0.492975400     0.4595609    0.6919286  
   0.494975300     0.5537069    0.6203328  
   0.496975200     0.6368648    0.5351557  
   0.498975100     0.7070895    0.4391592  
   0.500975000     0.7629962    0.3333561  
   0.502974900     0.8032691    0.2206859  
   0.504974800     0.8266474    0.1022953  
   0.506974700     0.8326558   -0.0192845  
   0.508974600     0.8203269   -0.1416984  
   0.510974500     0.7902406   -0.2617984  
   0.512974400     0.7420862   -0.3763600  
   0.514974300     0.6774120   -0.4822917  
   0.516974200     0.5974228   -0.5776633  
   0.518974100     0.5040314   -0.6597512  
   0.520974000     0.3995581   -0.7271017  
   0.522973900     0.2855746   -0.7781639  
   0.524973800     0.1654924   -0.8108601  
   0.526973700     0.0412787   -0.8256585  
   0.528973600    -0.0834703   -0.8213291  
   0.530973500    -0.2062975   -0.7982132  
   0.532973400    -0.3241467   -0.7568374  
   0.534973300    -0.4342926   -0.6980082  
   0.536973200    -0.5338565   -0.6233166  
   0.538973100    -0.6205124   -0.5348743  
   0.540973000    -0.6921995   -0.4351428  
   0.542972900    -0.7480709   -0.3262274  
   0.544972800    -0.7871981   -0.2105711  
   0.546972700    -0.8083988   -0.0901074  
   0.548972600    -0.8115557    0.0318202  
   0.550972500    -0.7964289    0.1524618  
   0.552972400    -0.7633178    0.2697146  
   0.554972300    -0.7132992    0.3803384  
   0.556972200    -0.6473400    0.4818766  
   0.558972100    -0.5669721    0.5723670  
   0.560972000    -0.4744619    0.6496568  
   0.562971900    -0.3718349    0.7119483  
   0.564971800    -0.2614381    0.7579654  
   0.566971700    -0.1457740    0.7873039  
   0.568971600    -0.0277839    0.7991876  
   0.570971500     0.0909658    0.7932127  
   0.572971400     0.2081385    0.7701949  
   0.574971300     0.3203470    0.7295933  
   0.576971200     0.4256117    0.6723702  
   0.578971100     0.5218887    0.5994487  
   0.580971000     0.6060374    0.5129303  
   0.582970900     0.6762368    0.4151845  
   0.584970800     0.7308855    0.3081492  
   0.586970700     0.7686728    0.1940584  
   0.588970600     0.7890247    0.0758521  
   0.590970500     0.7912912   -0.0446522  
   0.592970400     0.7759033   -0.1634929  
   0.594970300     0.7424743   -0.2793536  
   0.596970200     0.6921162   -0.3885874  
   0.598970100     0.6261427   -0.4890187  
   0.600970000     0.5454189   -0.5790212  
   0.602969900     0.4527578   -0.6553953  
   0.604969800     0.3486263   -0.7174692  
   0.606969700     0.2369102   -0.7633724  
   0.608969600     0.1194914   -0.7916490  
   0.610969500    -0.0011478   -0.8022841  
   0.612969400    -0.1213664   -0.7949776  
   0.614969300    -0.2385912   -0.7691072  
   0.616969200    -0.3500523   -0.7270650  
   0.618969100    -0.4533092   -0.6695869  
   0.620969000    -0.5466798   -0.5980033  
   0.622968900    -0.6283689   -0.5140392  
   0.624968800    -0.6971331   -0.4192274  
   0.626968700    -0.7514046   -0.3156536  
   0.628968600    -0.7900109   -0.2053187  
   0.630968500    -0.8127615   -0.0909755  
   0.632968400    -0.8187819    0.0253971  
   0.634968300    -0.8078576    0.1410508  
   0.636968200    -0.7808360    0.2539488  
   0.638968100    -0.7379419    0.3617233  
   0.640968000    -0.6802053    0.4616177  
   0.642967900    -0.6086997    0.5527493  
   0.644967800    -0.5252285    0.6324248  
   0.646967700    -0.4313955    0.6994551  
   0.648967600    -0.3290637    0.7523473  
   0.650967500    -0.2204917    0.7901122  
   0.652967400    -0.1085660    0.8122059  
   0.654967300     0.0059140    0.8180454  
   0.656967200     0.1201745    0.8079672  
   0.658967100     0.2315680    0.7814028  
   0.660967000     0.3389342    0.7389455  
   0.662966900     0.4395502    0.6811941  
   0.664966800     0.5318046    0.6085033  
   0.666966700     0.6132317    0.5229652  
   0.668966600     0.6813085    0.4255098  
   0.670966500     0.7345967    0.3190322  
   0.672966400     0.7714444    0.2057203  
   0.674966300     0.7910373    0.0879528  
   0.676966200     0.7928507   -0.0316907  
   0.678966100     0.7766879   -0.1500439  
   0.680966000     0.7427588   -0.2652622  
   0.682965900     0.6918867   -0.3739547  
   0.684965800     0.6253372   -0.4736018  
   0.686965700     0.5441020   -0.5623412  
   0.688965600     0.4503635   -0.6380044  
   0.690965500     0.3461380   -0.6983404  
   0.692965400     0.2344797   -0.7419817  
   0.694965300     0.1174430   -0.7683129  
   0.696965200    -0.0018443   -0.7763783  
   0.698965100    -0.1206284   -0.7660288  
   0.700965000    -0.2365462   -0.7381416  
   0.702964900    -0.3466095   -0.6929269  
   0.704964800    -0.4482244   -0.6317022  
   0.706964700    -0.5391941   -0.5562407  
   0.708964600    -0.6173477   -0.4680234  
   0.710964500    -0.6814137   -0.3691123  
   0.712964400    -0.7295560   -0.2621767  
   0.714964300    -0.7607802   -0.1498078  
   0.716964200    -0.7749437   -0.0348836  
   0.718964100    -0.7721468    0.0798957  
   0.720964000    -0.7526105    0.1924725  
   0.722963900    -0.7173890    0.3001604  
   0.724963800    -0.6670961    0.4010744  
   0.726963700    -0.6029189    0.4935109  
   0.728963600    -0.5262438    0.5758724  
   0.730963500    -0.4387825    0.6455399  
   0.732963400    -0.3424219    0.7023177  
   0.734963300    -0.2388086    0.7448022  
   0.736963200    -0.1115391    0.7744982  
   0.738963100     0.0204927    0.7828775  
   0.740963000     0.1527230    0.7694187  
   0.742962900     0.2807488    0.7334533  
   0.744962800     0.4020851    0.6766962  
   0.746962700     0.5124756    0.6001666  
   0.748962600     0.6086990    0.5058445  
   0.750962500     0.5003607    0.6023819  
   0.752962400     0.5967541    0.5079469  
   0.754962300     0.6762034    0.3989013  
   0.756962200     0.7361746    0.2775198  
   0.758962100     0.7747371    0.1474382  
   0.760962000     0.7903569    0.0119718  
   0.762961900     0.7832490   -0.1169678  
   0.764961800     0.7582034   -0.2320173  
   0.766961700     0.7162341   -0.3421265  
   0.768961600     0.6582531   -0.4452374  
   0.770961500     0.5853930   -0.5384505  
   0.772961400     0.4991278   -0.6198109  
   0.774961300     0.4018888   -0.6873258  
   0.776961200     0.2952352   -0.7397724  
   0.778961100     0.1815257   -0.7755241  
   0.780961000     0.0635880   -0.7940797  
   0.782960900    -0.0560812   -0.7943307  
   0.784960800    -0.1745493   -0.7764202  
   0.786960700    -0.2888263   -0.7406778  
   0.788960600    -0.3963284   -0.6879511  
   0.790960500    -0.4941616   -0.6200818  
   0.792960400    -0.5801308   -0.5381070  
   0.794960300    -0.6523803   -0.4445575  
   0.796960200    -0.7093983   -0.3420995  
   0.798960100    -0.7501708   -0.2328954  
   0.800960000    -0.7742554   -0.1194558  
   0.802959900    -0.7810286   -0.0043032  
   0.804959800    -0.7710397    0.1095978  
   0.806959700    -0.7444100    0.2203099  
   0.808959600    -0.7022368    0.3252157  
   0.810959500    -0.6455001    0.4226596  
   0.812959400    -0.5751329    0.5101284  
   0.814959300    -0.4934697    0.5864477  
   0.816959200    -0.4017349    0.6496216  
   0.818959100    -0.3020951    0.6991696  
   0.820959000    -0.1962530    0.7333541  
   0.822958900    -0.0866181    0.7521210  
   0.824958800     0.0249171    0.7546173  
   0.826958700     0.1351866    0.7406554  
   0.828958600     0.2429200    0.7113847  
   0.830958500     0.3452128    0.6662997  
   0.832958400     0.4401169    0.6067828  
   0.834958300     0.5249947    0.5337819  
   0.836958200     0.5986581    0.4492062  
   0.838958100     0.6592333    0.3541957  
   0.840958000     0.7052693    0.2509732  
   0.842957900     0.7360213    0.1411961  
   0.844957800     0.7499816    0.0281171  
   0.846957700     0.7465234   -0.0865534  
   0.848957600     0.7257138   -0.2000338  
   0.850957500     0.6881593   -0.3092035  
   0.852957400     0.6342700   -0.4116187  
   0.854957300     0.5650761   -0.5050597  
   0.856957200     0.4826343   -0.5867649  
   0.858957100     0.3886338   -0.6552799  
   0.860957000     0.2857549   -0.7083903  
   0.862956900     0.1763902   -0.7452976  
   0.864956800     0.0631572   -0.7655930  
   0.866956700    -0.0510967   -0.7684793  
   0.868956600    -0.1644877   -0.7547549  
   0.870956500    -0.2741668   -0.7241764  
   0.872956400    -0.3780021   -0.6781401  
   0.874956300    -0.4737253   -0.6174139  
   0.876956200    -0.5590655   -0.5434396  
   0.878956100    -0.6329733   -0.4578770  
   0.880956000    -0.6931981   -0.3624082  
   0.882955900    -0.7387055   -0.2598185  
   0.884955800    -0.7686699   -0.1517642  
   0.886955700    -0.7828301   -0.0406453  
   0.888955600    -0.7807298    0.0705703  
   0.890955500    -0.7628503    0.1800950  
   0.892955400    -0.7294010    0.2857970  
   0.894955300    -0.6814049    0.3852108  
