! MS46122B
! 2250307/22442219
! 6/15/2025 11:01:28 AM
! C:\USERS\SPARKY\DOCUMENTS\VNA_DATA\JUNE15_2025\295K\PORT2_MOS5.S1P
! CHANNEL.1
! TR.MEASUREMENT
! RAW.DATA
# GHZ S RI R 50.0
! FREQ.GHZ         S11RE         S11IM         
!; PortSelection: Port_1
   0.001000000    -0.8927581    0.0552551  
   0.002999900    -0.8628932    0.2599553  
   0.004999800    -0.8204117    0.4052438  
   0.006999700    -0.7512916    0.5321816  
   0.008999600    -0.6599168    0.6405870  
   0.010999500    -0.5504634    0.7288532  
   0.012999400    -0.4274221    0.7959034  
   0.014999300    -0.2943434    0.8411627  
   0.016999200    -0.1564250    0.8646271  
   0.018999100    -0.0165859    0.8667682  
   0.020999000     0.1212433    0.8485972  
   0.022998900     0.2540896    0.8109092  
   0.024998800     0.3513971    0.7376065  
   0.026998700     0.4941890    0.6828790  
   0.028998600     0.5967647    0.5955413  
   0.030998500     0.6847124    0.4949001  
   0.032998400     0.7230839    0.3839706  
   0.034998300     0.8102721    0.2610407  
   0.036998200     0.8444391    0.1323622  
   0.038998100     0.8580240   -0.0001580  
   0.040998000     0.8505028   -0.1333113  
   0.042997900     0.8213406   -0.2640419  
   0.044997800     0.7520696   -0.3620824  
   0.046997700     0.7027863   -0.5033957  
   0.048997600     0.6167287   -0.6056284  
   0.050997500     0.5158676   -0.6932681  
   0.052997400     0.4043757   -0.7633744  
   0.054997300     0.2814477   -0.8164921  
   0.056997200     0.1530165   -0.8498278  
   0.058997100     0.0218924   -0.8634897  
   0.060997000    -0.1094101   -0.8571075  
   0.062996900    -0.2380432   -0.8312171  
   0.064996800    -0.3609025   -0.7861660  
   0.066996700    -0.4752821   -0.7229924  
   0.068996600    -0.5786780   -0.6431037  
   0.070996500    -0.6684898   -0.5484706  
   0.072996400    -0.7426066   -0.4413751  
   0.074996300    -0.7993769   -0.3242937  
   0.076996200    -0.8374733   -0.1996325  
   0.078996100    -0.8559605   -0.0707853  
   0.080996000    -0.8547115    0.0594705  
   0.082995900    -0.8334961    0.1881635  
   0.084995800    -0.7927457    0.3123587  
   0.086995700    -0.7332656    0.4287048  
   0.088995600    -0.6565247    0.5352890  
   0.090995500    -0.5641468    0.6285580  
   0.092995400    -0.4578445    0.7065172  
   0.094995300    -0.3402926    0.7674370  
   0.096995200    -0.2145601    0.8093084  
   0.098995100    -0.0830938    0.8303242  
   0.100995000     0.0503529    0.8306055  
   0.102994900     0.1818851    0.8088832  
   0.104994800     0.3089746    0.7667540  
   0.106994700     0.4276361    0.7041561  
   0.108994600     0.5348725    0.6235850  
   0.110994500     0.6276410    0.5266078  
   0.112994400     0.7035335    0.4158718  
   0.114994300     0.7603193    0.2943594  
   0.116994200     0.7968537    0.1653710  
   0.118994100     0.8118464    0.0328362  
   0.120994000     0.8051801   -0.1004906  
   0.122993900     0.7771417   -0.2305975  
   0.124993800     0.7289104   -0.3537790  
   0.126993700     0.6613612   -0.4675035  
   0.128993600     0.5772617   -0.5685839  
   0.130993500     0.4784089   -0.6541415  
   0.132993400     0.3677379   -0.7228030  
   0.134993300     0.2482216   -0.7725387  
   0.136993200     0.1230043   -0.8026333  
   0.138993100    -0.0044875   -0.8126505  
   0.140993000    -0.1314528   -0.8028556  
   0.142992900    -0.2545770   -0.7735251  
   0.144992800    -0.3711034   -0.7257461  
   0.146992700    -0.4784416   -0.6612144  
   0.148992600    -0.5743786   -0.5811590  
   0.150992500    -0.6561637   -0.4877957  
   0.152992400    -0.7228296   -0.3834850  
   0.154992300    -0.7728142   -0.2708056  
   0.156992200    -0.8051744   -0.1519422  
   0.158992100    -0.8192489   -0.0299064  
   0.160992000    -0.8149014    0.0927077  
   0.162991900    -0.7921222    0.2132745  
   0.164991800    -0.7513090    0.3290408  
   0.166991700    -0.6938686    0.4371462  
   0.168991600    -0.6207665    0.5358528  
   0.170991500    -0.5329806    0.6225535  
   0.172991400    -0.4333914    0.6947995  
   0.174991300    -0.3236424    0.7513955  
   0.176991200    -0.2061908    0.7910621  
   0.178991100    -0.0833191    0.8122496  
   0.180991000     0.0414066    0.8144248  
   0.182990900     0.1650705    0.7975040  
   0.184990800     0.2860916    0.7612420  
   0.186990700     0.4006356    0.7065973  
   0.188990600     0.4857292    0.6490362  
   0.190990500     0.5939984    0.5495561  
   0.192990400     0.6738416    0.4457668  
   0.194990300     0.7346718    0.3327624  
   0.196990200     0.7766160    0.2117677  
   0.198990100     0.7991185    0.0854903  
   0.200990000     0.8008675   -0.0434366  
   0.202989900     0.7819700   -0.1715835  
   0.204989800     0.7429417   -0.2947575  
   0.206989700     0.6846975   -0.4098840  
   0.208989600     0.6084861   -0.5137950  
   0.210989500     0.5164142   -0.6046152  
   0.212989400     0.4109006   -0.6793379  
   0.214989300     0.2951297   -0.7357548  
   0.216989200     0.1722872   -0.7724113  
   0.218989100     0.0456870   -0.7889997  
   0.220989000    -0.0817598   -0.7850754  
   0.222988900    -0.2068967   -0.7607237  
   0.224988800    -0.3262406   -0.7162828  
   0.226988700    -0.4361968   -0.6538689  
   0.228988600    -0.5342535   -0.5752990  
   0.230988500    -0.6180879   -0.4823160  
   0.232988400    -0.6859699   -0.3775870  
   0.234988300    -0.7362642   -0.2630925  
   0.236988200    -0.7677600   -0.1425601  
   0.238988100    -0.7796530   -0.0189730  
   0.240988000    -0.7716315    0.1041336  
   0.242987900    -0.7447289    0.2239590  
   0.244987800    -0.6997147    0.3376156  
   0.246987700    -0.6369815    0.4431600  
   0.248987600    -0.5583329    0.5377215  
   0.250987500    -0.4657329    0.6188363  
   0.252987400    -0.3616841    0.6839040  
   0.254987300    -0.2493754    0.7317926  
   0.256987200    -0.1311886    0.7614553  
   0.258987100    -0.0098063    0.7724098  
   0.260987000     0.1124288    0.7641764  
   0.262986900     0.2325207    0.7366256  
   0.264986800     0.3466584    0.6906696  
   0.266986700     0.4527638    0.6271611  
   0.268986600     0.5472274    0.5474244  
   0.270986500     0.6278087    0.4540641  
   0.272986400     0.6928412    0.3492562  
   0.274986300     0.7407681    0.2354048  
   0.276986200     0.7699439    0.1150113  
   0.278986100     0.7800455   -0.0089454  
   0.280986000     0.7700568   -0.1335394  
   0.282985900     0.7407050   -0.2551804  
   0.284985800     0.6918938   -0.3707228  
   0.286985700     0.6255100   -0.4768750  
   0.288985600     0.5437370   -0.5707728  
   0.290985500     0.4482855   -0.6500462  
   0.292985400     0.3420134   -0.7133194  
   0.294985300     0.2269373   -0.7587566  
   0.296985200     0.1058519   -0.7859767  
   0.298985100    -0.0183663   -0.7937933  
   0.300985000    -0.1423809   -0.7815250  
   0.302984900    -0.2625996   -0.7501634  
   0.304984800    -0.3756714   -0.7000494  
   0.306984700    -0.4792315   -0.6333244  
   0.308984600    -0.5702738   -0.5523698  
   0.310984500    -0.6470572   -0.4584388  
   0.312984400    -0.7082742   -0.3544892  
   0.314984300    -0.7526512   -0.2424167  
   0.316984200    -0.7790029   -0.1253019  
   0.318984100    -0.7875361   -0.0044816  
   0.320984000    -0.7767636    0.1159400  
   0.322983900    -0.7475705    0.2339417  
   0.324983800    -0.7003553    0.3455308  
   0.326983700    -0.6363757    0.4480784  
   0.328983600    -0.5573370    0.5397133  
   0.330983500    -0.4651170    0.6175795  
   0.332983400    -0.3630550    0.6799552  
   0.334983300    -0.2520955    0.7255321  
   0.336983200    -0.1354259    0.7534554  
   0.338983100    -0.0160637    0.7629010  
   0.340983000     0.1040447    0.7535670  
   0.342982900     0.2214385    0.7256303  
   0.344982800     0.3333473    0.6791614  
   0.346982700     0.4376168    0.6151553  
   0.348982600     0.5306776    0.5348297  
   0.350982500     0.6099602    0.4406040  
   0.352982400     0.6727402    0.3340746  
   0.354982300     0.7195119    0.2140318  
   0.356982200     0.7469652    0.0743757  
   0.358982100     0.7478844   -0.0676307  
   0.360982000     0.7225975   -0.2072271  
   0.362981900     0.6719764   -0.3393466  
   0.364981800     0.5975790   -0.4603576  
   0.366981700     0.5018849   -0.5654464  
   0.368981600     0.3880814   -0.6509363  
   0.370981500     0.2607805   -0.7135227  
   0.372981400     0.1236191   -0.7514032  
   0.374981300    -0.0183902   -0.7628818  
   0.376981200     0.0913947   -0.7538393  
   0.378981100    -0.0503751   -0.7602534  
   0.380981000    -0.1906286   -0.7402621  
   0.382980900    -0.3126755   -0.6999275  
   0.384980800    -0.4213307   -0.6426564  
   0.386980700    -0.5192872   -0.5689827  
   0.388980600    -0.6034880   -0.4814170  
   0.390980500    -0.6725091   -0.3822475  
   0.392980400    -0.7251766   -0.2745322  
   0.394980300    -0.7595331   -0.1611949  
   0.396980200    -0.7764787   -0.0441071  
   0.398980100    -0.7752214    0.0736579  
   0.400980000    -0.7561070    0.1891441  
   0.402979900    -0.7196655    0.3008941  
   0.404979800    -0.6670343    0.4047831  
   0.406979700    -0.5994257    0.4996253  
   0.408979600    -0.5183308    0.5830967  
   0.410979500    -0.4251052    0.6540382  
   0.412979400    -0.3215736    0.7097907  
   0.414979300    -0.2102469    0.7496616  
   0.416979200    -0.0939592    0.7715496  
   0.418979100     0.0243624    0.7758967  
   0.420979000     0.1426616    0.7615917  
   0.422978900     0.2579879    0.7290071  
   0.424978800     0.3674343    0.6785982  
   0.426978700     0.4681202    0.6111529  
   0.428978600     0.5570683    0.5282226  
   0.430978500     0.6321883    0.4320569  
   0.432978400     0.6909474    0.3250853  
   0.434978300     0.7317025    0.2095387  
   0.436978200     0.7535314    0.0887573  
   0.438978100     0.7558715   -0.0347856  
   0.440978000     0.7377362   -0.1573948  
   0.442977900     0.6998224   -0.2755298  
   0.444977800     0.6430560   -0.3862289  
   0.446977700     0.5686522   -0.4862410  
   0.448977600     0.4788882   -0.5725213  
   0.450977500     0.3761438   -0.6433116  
   0.452977400     0.2625501   -0.6958966  
   0.454977300     0.1416614   -0.7289094  
   0.456977200     0.0163175   -0.7415439  
   0.458977100    -0.1091584   -0.7329429  
   0.460977000    -0.2309842   -0.7034239  
   0.462976900    -0.3455472   -0.6551524  
   0.464976800    -0.4498912   -0.5884715  
   0.466976700    -0.5417033   -0.5059290  
   0.468976600    -0.6182176   -0.4099195  
   0.470976500    -0.6779531   -0.3032617  
   0.472976400    -0.7193705   -0.1889855  
   0.474976300    -0.7416403   -0.0703006  
   0.476976200    -0.7445189    0.0495346  
   0.478976100    -0.7283975    0.1677010  
   0.480976000    -0.6944488    0.2803400  
   0.482975900    -0.6432995    0.3856784  
   0.484975800    -0.5769723    0.4815512  
   0.486975700    -0.4968972    0.5662044  
   0.488975600    -0.4047223    0.6367851  
   0.490975500    -0.3030070    0.6928723  
   0.492975400    -0.1936718    0.7327003  
   0.494975300    -0.0798347    0.7551662  
   0.496975200     0.0363523    0.7598631  
   0.498975100     0.1521222    0.7466792  
   0.500975000     0.2645015    0.7161036  
   0.502974900     0.3708625    0.6687068  
   0.504974800     0.4689936    0.6050544  
   0.506974700     0.5569913    0.5266226  
   0.508974600     0.6324291    0.4342427  
   0.510974500     0.6929606    0.3309902  
   0.512974400     0.7367676    0.2188243  
   0.514974300     0.7623449    0.1012067  
   0.516974200     0.7689316   -0.0192704  
   0.518974100     0.7565612   -0.1394923  
   0.520974000     0.7254459   -0.2568014  
   0.522973900     0.6756250   -0.3679121  
   0.524973800     0.6088245   -0.4698915  
   0.526973700     0.5261167   -0.5603419  
   0.528973600     0.4300832   -0.6366423  
   0.530973500     0.3221391   -0.6971437  
   0.532973400     0.2063160   -0.7389271  
   0.534973300     0.0849735   -0.7619393  
   0.536973200    -0.0390602   -0.7648274  
   0.538973100    -0.1610121   -0.7480110  
   0.540973000    -0.2782409   -0.7116902  
   0.542972900    -0.3881699   -0.6571425  
   0.544972800    -0.4873891   -0.5858900  
   0.546972700    -0.5742438   -0.4994883  
   0.548972600    -0.6461242   -0.4003305  
   0.550972500    -0.7011167   -0.2911337  
   0.552972400    -0.7376601   -0.1745409  
   0.554972300    -0.7551981   -0.0535948  
   0.556972200    -0.7529200    0.0681959  
   0.558972100    -0.7310624    0.1879697  
   0.560972000    -0.6904608    0.3019063  
   0.562971900    -0.6323747    0.4076300  
   0.564971800    -0.5585455    0.5023617  
   0.566971700    -0.4707141    0.5837452  
   0.568971600    -0.3713748    0.6499725  
   0.570971500    -0.2632928    0.6996148  
   0.572971400    -0.1484821    0.7314814  
   0.574971300    -0.0295939    0.7445017  
   0.576971200     0.0902785    0.7383633  
   0.578971100     0.2078458    0.7132718  
   0.580971000     0.3201801    0.6690292  
   0.582970900     0.4236072    0.6077538  
   0.584970800     0.5157347    0.5304979  
   0.586970700     0.5941327    0.4400700  
   0.588970600     0.6572972    0.3376587  
   0.590970500     0.7029511    0.2267160  
   0.592970400     0.7304742    0.1095028  
   0.594970300     0.7386256   -0.0105140  
   0.596970200     0.7274387   -0.1304258  
   0.598970100     0.6971146   -0.2473340  
   0.600970000     0.6482316   -0.3579457  
   0.602969900     0.5822975   -0.4593495  
   0.604969800     0.5007054   -0.5490351  
   0.606969700     0.4055686   -0.6246156  
   0.608969600     0.2995066   -0.6839403  
   0.610969500     0.1851625   -0.7255130  
   0.612969400     0.0658005   -0.7479436  
   0.614969300    -0.0547170   -0.7508269  
   0.616969200    -0.1740827   -0.7350288  
   0.618969100    -0.2880783   -0.7005211  
   0.620969000    -0.3947603   -0.6489334  
   0.622968900    -0.4921665   -0.5815756  
   0.624968800    -0.5778984   -0.5001499  
   0.626968700    -0.6497713   -0.4068401  
   0.628968600    -0.7062166   -0.3034224  
   0.630968500    -0.7465500   -0.1927139  
   0.632968400    -0.7691397   -0.0774863  
   0.634968300    -0.7735256    0.0396749  
   0.636968200    -0.7604533    0.1559635  
   0.638968100    -0.7297525    0.2684222  
   0.640968000    -0.6821585    0.3751123  
   0.642967900    -0.6191634    0.4727884  
   0.644967800    -0.5420005    0.5599728  
   0.646967700    -0.4527829    0.6343048  
   0.648967600    -0.3532875    0.6941916  
   0.650967500    -0.2464637    0.7384732  
   0.652967400    -0.1344323    0.7660093  
   0.654967300    -0.0195796    0.7762610  
   0.656967200     0.0956004    0.7690378  
   0.658967100     0.2086958    0.7446839  
   0.660967000     0.3173086    0.7028212  
   0.662966900     0.4187763    0.6444580  
   0.664966800     0.5109814    0.5707560  
   0.666966700     0.5915279    0.4826607  
   0.668966600     0.6572603    0.3832304  
   0.670966500     0.7069107    0.2737928  
   0.672966400     0.7386004    0.1579109  
   0.674966300     0.7515781    0.0382345  
   0.676966200     0.7457343   -0.0823462  
   0.678966100     0.7201471   -0.1999346  
   0.680966000     0.6762304   -0.3125280  
   0.682965900     0.6149501   -0.4163922  
   0.684965800     0.5377305   -0.5092426  
   0.686965700     0.4462462   -0.5889873  
   0.688965600     0.3432341   -0.6524621  
   0.690965500     0.2314985   -0.6987781  
   0.692965400     0.1139101   -0.7262830  
   0.694965300    -0.0062319   -0.7345273  
   0.696965200    -0.1256065   -0.7232571  
   0.698965100    -0.2416749   -0.6929606  
   0.700965000    -0.3507960   -0.6444966  
   0.702964900    -0.4506568   -0.5796281  
   0.704964800    -0.5384938   -0.4997379  
   0.706964700    -0.6121998   -0.4071335  
   0.708964600    -0.6704867   -0.3041905  
   0.710964500    -0.7112326   -0.1937821  
   0.712964400    -0.7336283   -0.0786682  
   0.714964300    -0.7378873    0.0382461  
   0.716964200    -0.7237595    0.1531381  
   0.718964100    -0.6921524    0.2641195  
   0.720964000    -0.6440049    0.3681163  
   0.722963900    -0.5812595    0.4630387  
   0.724963800    -0.5052928    0.5469981  
   0.726963700    -0.4170447    0.6182920  
   0.728963600    -0.3194250    0.6752396  
   0.730963500    -0.2143027    0.7165617  
   0.732963400    -0.1043069    0.7415227  
   0.734963300     0.0088154    0.7499710  
   0.736963200     0.1402487    0.7373078  
   0.738963100     0.2687658    0.7021187  
   0.740963000     0.3899469    0.6446512  
   0.742962900     0.4994628    0.5661896  
   0.744962800     0.5937078    0.4694293  
   0.746962700     0.6701201    0.3572317  
   0.748962600     0.7252709    0.2327739  
   0.750962500     0.6639008    0.3474406  
   0.752962400     0.7173331    0.2217792  
   0.754962300     0.7469645    0.0882360  
   0.756962200     0.7523543   -0.0487423  
   0.758962100     0.7327135   -0.1845645  
   0.760962000     0.6884069   -0.3149853  
   0.762961900     0.6245568   -0.4295591  
   0.764961800     0.5490820   -0.5233420  
   0.766961700     0.4600239   -0.6033617  
   0.768961600     0.3586471   -0.6688027  
   0.770961500     0.2482621   -0.7168475  
   0.772961400     0.1319035   -0.7468882  
   0.774961300     0.0124824   -0.7579591  
   0.776961200    -0.1071845   -0.7497860  
   0.778961100    -0.2240765   -0.7228275  
   0.780961000    -0.3350638   -0.6773791  
   0.782960900    -0.4370925   -0.6148568  
   0.784960800    -0.5278389   -0.5370019  
   0.786960700    -0.6046880   -0.4456809  
   0.788960600    -0.6656174   -0.3439550  
   0.790960500    -0.7095672   -0.2341701  
   0.792960400    -0.7354075   -0.1193415  
   0.794960300    -0.7425615   -0.0025636  
   0.796960200    -0.7314888    0.1128228  
   0.798960100    -0.7029318    0.2244890  
   0.800960000    -0.6574971    0.3298613  
   0.802959900    -0.5965650    0.4261505  
   0.804959800    -0.5218893    0.5115334  
   0.806959700    -0.4354590    0.5839641  
   0.808959600    -0.3392720    0.6421849  
   0.810959500    -0.2357669    0.6847275  
   0.812959400    -0.1268596    0.7111486  
   0.814959300    -0.0153997    0.7204508  
   0.816959200     0.0963288    0.7125136  
   0.818959100     0.2050551    0.6872879  
   0.820959000     0.3096350    0.6458959  
   0.822958900     0.4063025    0.5889561  
   0.824958800     0.4935525    0.5174934  
   0.826958700     0.5688093    0.4328715  
   0.828958600     0.6305114    0.3373531  
   0.830958500     0.6766552    0.2330718  
   0.832958400     0.7057794    0.1224001  
   0.834958300     0.7176247    0.0083493  
   0.836958200     0.7113134   -0.1063420  
   0.838958100     0.6868194   -0.2189730  
   0.840958000     0.6447932   -0.3267654  
   0.842957900     0.5857582   -0.4269144  
   0.844957800     0.5114517   -0.5168052  
   0.846957700     0.4236094   -0.5938346  
   0.848957600     0.3245340   -0.6562198  
   0.850957500     0.2165521   -0.7016944  
   0.852957400     0.1027267   -0.7296205  
   0.854957300    -0.0139236   -0.7389353  
   0.856957200    -0.1305790   -0.7297060  
   0.858957100    -0.2440663   -0.7019320  
   0.860957000    -0.3508571   -0.6572630  
   0.862956900    -0.4489038   -0.5968555  
   0.864956800    -0.5358386   -0.5223305  
   0.866956700    -0.6096302   -0.4360604  
   0.868956600    -0.6692661   -0.3401538  
   0.870956500    -0.7133105   -0.2365593  
   0.872956400    -0.7406635   -0.1280126  
   0.874956300    -0.7516069   -0.0165687  
   0.876956200    -0.7454504    0.0953571  
   0.878956100    -0.7224859    0.2043659  
   0.880956000    -0.6834617    0.3090922  
   0.882955900    -0.6287531    0.4061534  
   0.884955800    -0.5602393    0.4938720  
   0.886955700    -0.4790531    0.5706761  
   0.888955600    -0.3875960    0.6341321  
   0.890955500    -0.2871294    0.6833738  
   0.892955400    -0.1805622    0.7167100  
   0.894955300    -0.0699755    0.7334297  
