! MS46122B
! 2250307/22442219
! 6/13/2025 8:47:16 AM
! C:\USERS\SPARKY\DOCUMENTS\VNA_DATA\JUNE13_2025\PORT5_MOS4.S1P
! CHANNEL.1
! TR.MEASUREMENT
! RAW.DATA
# GHZ S RI R 50.0
! FREQ.GHZ         S11RE         S11IM         
!; PortSelection: Port_1
   0.001000000    -0.8943934    0.0547908  
   0.002999900    -0.8648762    0.2588571  
   0.004999800    -0.8227185    0.4034868  
   0.006999700    -0.7543539    0.5300369  
   0.008999600    -0.6637761    0.6383447  
   0.010999500    -0.5554953    0.7266075  
   0.012999400    -0.4334890    0.7942514  
   0.014999300    -0.3015649    0.8400443  
   0.016999200    -0.1645042    0.8645221  
   0.018999100    -0.0255776    0.8679540  
   0.020999000     0.1118072    0.8512143  
   0.022998900     0.2444068    0.8152474  
   0.024998800     0.3418064    0.7433662  
   0.026998700     0.4849720    0.6907782  
   0.028998600     0.5881559    0.6053954  
   0.030998500     0.6773403    0.5066088  
   0.032998400     0.7169448    0.3969266  
   0.034998300     0.8060797    0.2761120  
   0.036998200     0.8424015    0.1487753  
   0.038998100     0.8585708    0.0172038  
   0.040998000     0.8538921   -0.1153941  
   0.042997900     0.8276454   -0.2459452  
   0.044997800     0.7609234   -0.3446764  
   0.046997700     0.7155076   -0.4864251  
   0.048997600     0.6324571   -0.5904658  
   0.050997500     0.5343338   -0.6800846  
   0.052997400     0.4253311   -0.7527163  
   0.054997300     0.3043834   -0.8090557  
   0.056997200     0.1777464   -0.8458381  
   0.058997100     0.0477955   -0.8632427  
   0.060997000    -0.0829243   -0.8609336  
   0.062996900    -0.2114801   -0.8392408  
   0.064996800    -0.3350961   -0.7984371  
   0.066996700    -0.4509113   -0.7395896  
   0.068996600    -0.5563952   -0.6637580  
   0.070996500    -0.6489593   -0.5729738  
   0.072996400    -0.7266082   -0.4693907  
   0.074996300    -0.7875150   -0.3551855  
   0.076996200    -0.8302187   -0.2328929  
   0.078996100    -0.8537624   -0.1058962  
   0.080996000    -0.8579397    0.0236361  
   0.082995900    -0.8423679    0.1523065  
   0.084995800    -0.8073055    0.2770528  
   0.086995700    -0.7535810    0.3955407  
   0.088995600    -0.6822347    0.5046158  
   0.090995500    -0.5951031    0.6017348  
   0.092995400    -0.4936629    0.6841558  
   0.094995300    -0.3800894    0.7503215  
   0.096995200    -0.2576703    0.7984065  
   0.098995100    -0.1282011    0.8266414  
   0.100995000     0.0038916    0.8337671  
   0.102994900     0.1357300    0.8198333  
   0.104994800     0.2639266    0.7851786  
   0.106994700     0.3855121    0.7303069  
   0.108994600     0.4968233    0.6565580  
   0.110994500     0.5945074    0.5662370  
   0.112994400     0.6765715    0.4609804  
   0.114994300     0.7407797    0.3441232  
   0.116994200     0.7853807    0.2184449  
   0.118994100     0.8090276    0.0874972  
   0.120994000     0.8113109   -0.0452828  
   0.122993900     0.7922437   -0.1762311  
   0.124993800     0.7527797   -0.3020522  
   0.126993700     0.6935341   -0.4196045  
   0.128993600     0.6170660   -0.5259544  
   0.130993500     0.5248185   -0.6181076  
   0.132993400     0.4196235   -0.6940891  
   0.134993300     0.3045657   -0.7523247  
   0.136993200     0.1824033   -0.7911575  
   0.138993100     0.0562767   -0.8106569  
   0.140993000    -0.0704642   -0.8102309  
   0.142992900    -0.1950720   -0.7906138  
   0.144992800    -0.3143854   -0.7519221  
   0.146992700    -0.4258447   -0.6959382  
   0.148992600    -0.5272043   -0.6237370  
   0.150992500    -0.6156925   -0.5378373  
   0.152992400    -0.6900352   -0.4393608  
   0.154992300    -0.7484739   -0.3314536  
   0.156992200    -0.7898997   -0.2162557  
   0.158992100    -0.8139417   -0.0965927  
   0.160992000    -0.8195447    0.0252645  
   0.162991900    -0.8071283    0.1463691  
   0.164991800    -0.7764690    0.2645154  
   0.166991700    -0.7288362    0.3762977  
   0.168991600    -0.6650923    0.4800861  
   0.170991500    -0.5862007    0.5731865  
   0.172991400    -0.4941922    0.6532191  
   0.174991300    -0.3913003    0.7190087  
   0.176991200    -0.2788107    0.7688294  
   0.178991100    -0.1597157    0.8013750  
   0.180991000    -0.0371330    0.8154192  
   0.182990900     0.0861677    0.8106580  
   0.184990800     0.2087320    0.7868913  
   0.186990700     0.3267522    0.7448099  
   0.188990600     0.4163076    0.6969281  
   0.190990500     0.5332137    0.6101661  
   0.192990400     0.6226295    0.5164317  
   0.194990300     0.6946230    0.4120561  
   0.196990200     0.7492761    0.2977743  
   0.198990100     0.7852472    0.1761711  
   0.200990000     0.8019403    0.0496324  
   0.202989900     0.7981439   -0.0783460  
   0.204989800     0.7738957   -0.2041123  
   0.206989700     0.7303643   -0.3242259  
   0.208989600     0.6680772   -0.4356928  
   0.210989500     0.5888591   -0.5360913  
   0.212989400     0.4942920   -0.6227368  
   0.214989300     0.3873946   -0.6929703  
   0.216989200     0.2710852   -0.7447231  
   0.218989100     0.1486507   -0.7773873  
   0.220989000     0.0227601   -0.7899575  
   0.222988900    -0.1037110   -0.7822953  
   0.224988800    -0.2270974   -0.7546344  
   0.226988700    -0.3436698   -0.7077931  
   0.228988600    -0.4509051   -0.6434425  
   0.230988500    -0.5459259   -0.5634131  
   0.232988400    -0.6271344   -0.4696157  
   0.234988300    -0.6923735   -0.3640113  
   0.236988200    -0.7400241   -0.2498143  
   0.238988100    -0.7690695   -0.1298696  
   0.240988000    -0.7786984   -0.0078346  
   0.242987900    -0.7692372    0.1137393  
   0.244987800    -0.7409981    0.2318618  
   0.246987700    -0.6947953    0.3442343  
   0.248987600    -0.6313300    0.4482944  
   0.250987500    -0.5523065    0.5413188  
   0.252987400    -0.4601798    0.6204966  
   0.254987300    -0.3572077    0.6838278  
   0.256987200    -0.2460345    0.7306255  
   0.258987100    -0.1288207    0.7596090  
   0.260987000    -0.0082783    0.7699690  
   0.262986900     0.1130888    0.7614813  
   0.264986800     0.2317636    0.7341892  
   0.266986700     0.3450289    0.6883813  
   0.268986600     0.4495907    0.6257960  
   0.270986500     0.5428283    0.5475013  
   0.272986400     0.6229411    0.4554792  
   0.274986300     0.6877275    0.3523931  
   0.276986200     0.7358749    0.2399428  
   0.278986100     0.7657692    0.1207714  
   0.280986000     0.7766971   -0.0022683  
   0.282985900     0.7681191   -0.1254001  
   0.284985800     0.7402660   -0.2460858  
   0.286985700     0.6932263   -0.3605779  
   0.288985600     0.6295395   -0.4658467  
   0.290985500     0.5503823   -0.5595308  
   0.292985400     0.4575630   -0.6393057  
   0.294985300     0.3535608   -0.7037793  
   0.296985200     0.2404045   -0.7513519  
   0.298985100     0.1204647   -0.7804245  
   0.300985000    -0.0023977   -0.7904348  
   0.302984900    -0.1250555   -0.7811726  
   0.304984800    -0.2442994   -0.7528675  
   0.306984700    -0.3568668   -0.7062380  
   0.308984600    -0.4601964   -0.6435239  
   0.310984500    -0.5520892   -0.5664328  
   0.312984400    -0.6304694   -0.4761822  
   0.314984300    -0.6940590   -0.3752962  
   0.316984200    -0.7415823   -0.2663927  
   0.318984100    -0.7716847   -0.1509949  
   0.320984000    -0.7841993   -0.0313589  
   0.322983900    -0.7777287    0.0881687  
   0.324983800    -0.7532710    0.2053451  
   0.326983700    -0.7109546    0.3171116  
   0.328983600    -0.6519123    0.4205719  
   0.330983500    -0.5780899    0.5137891  
   0.332983400    -0.4912284    0.5938158  
   0.334983300    -0.3934012    0.6596631  
   0.336983200    -0.2866519    0.7097859  
   0.338983100    -0.1733953    0.7429166  
   0.340983000    -0.0563554    0.7582128  
   0.342982900     0.0621589    0.7552642  
   0.344982800     0.1795884    0.7340362  
   0.346982700     0.2927426    0.6941878  
   0.348982600     0.3988794    0.6369593  
   0.350982500     0.4947515    0.5633611  
   0.352982400     0.5783911    0.4751558  
   0.354982300     0.6487105    0.3700725  
   0.356982200     0.7055960    0.2423788  
   0.358982100     0.7379926    0.1066806  
   0.360982000     0.7451774   -0.0326376  
   0.362981900     0.7265822   -0.1705498  
   0.364981800     0.6828663   -0.3032411  
   0.366981700     0.6155367   -0.4258804  
   0.368981600     0.5264741   -0.5339708  
   0.370981500     0.4190244   -0.6235396  
   0.372981400     0.2967620   -0.6920599  
   0.374981300     0.1633128   -0.7364712  
   0.376981200     0.2654530   -0.7011161  
   0.378981100     0.1314178   -0.7403910  
   0.380981000    -0.0077983   -0.7541761  
   0.382980900    -0.1343965   -0.7439774  
   0.384980800    -0.2522847   -0.7150519  
   0.386980700    -0.3634908   -0.6675572  
   0.388980600    -0.4650065   -0.6033435  
   0.390980500    -0.5549225   -0.5245010  
   0.392980400    -0.6303841   -0.4338013  
   0.394980300    -0.6907424   -0.3333625  
   0.396980200    -0.7346277   -0.2251962  
   0.398980100    -0.7613181   -0.1122588  
   0.400980000    -0.7706581    0.0028429  
   0.402979900    -0.7625450    0.1179277  
   0.404979800    -0.7373959    0.2299961  
   0.406979700    -0.6957961    0.3363359  
   0.408979600    -0.6389265    0.4351610  
   0.410979500    -0.5673517    0.5250565  
   0.412979400    -0.4833193    0.6033188  
   0.414979300    -0.3875298    0.6682230  
   0.416979200    -0.2832849    0.7182177  
   0.418979100    -0.1728677    0.7513142  
   0.420979000    -0.0579872    0.7679336  
   0.422978900     0.0586962    0.7665724  
   0.424978800     0.1742590    0.7473392  
   0.426978700     0.2859663    0.7102598  
   0.428978600     0.3912600    0.6562080  
   0.430978500     0.4867548    0.5864046  
   0.432978400     0.5701825    0.5025745  
   0.434978300     0.6397938    0.4062231  
   0.436978200     0.6935408    0.2994752  
   0.438978100     0.7299840    0.1855022  
   0.440978000     0.7478524    0.0664732  
   0.442977900     0.7463421   -0.0543773  
   0.444977800     0.7254897   -0.1738468  
   0.446977700     0.6856321   -0.2883697  
   0.448977600     0.6276637   -0.3950054  
   0.450977500     0.5527958   -0.4911063  
   0.452977400     0.4627324   -0.5741261  
   0.454977300     0.3601864   -0.6417217  
   0.456977200     0.2470203   -0.6916096  
   0.458977100     0.1273301   -0.7218253  
   0.460977000     0.0044068   -0.7319078  
   0.462976900    -0.1176926   -0.7215227  
   0.464976800    -0.2360171   -0.6912492  
   0.466976700    -0.3475194   -0.6422610  
   0.468976600    -0.4491156   -0.5760410  
   0.470976500    -0.5378377   -0.4942658  
   0.472976400    -0.6120011   -0.3998967  
   0.474976300    -0.6693537   -0.2953294  
   0.476976200    -0.7091362   -0.1836293  
   0.478976100    -0.7303045   -0.0678484  
   0.480976000    -0.7327073    0.0486350  
   0.482975900    -0.7172366    0.1631215  
   0.484975800    -0.6842877    0.2730049  
   0.486975700    -0.6346510    0.3763815  
   0.488975600    -0.5702347    0.4705698  
   0.490975500    -0.4920431    0.5539930  
   0.492975400    -0.4023196    0.6239555  
   0.494975300    -0.3030948    0.6792926  
   0.496975200    -0.1961309    0.7190078  
   0.498975100    -0.0848614    0.7418359  
   0.500975000     0.0284743    0.7474622  
   0.502974900     0.1412972    0.7358145  
   0.504974800     0.2515242    0.7071264  
   0.506974700     0.3565317    0.6617588  
   0.508974600     0.4542176    0.5998561  
   0.510974500     0.5415686    0.5234674  
   0.512974400     0.6165985    0.4342145  
   0.514974300     0.6767682    0.3346646  
   0.516974200     0.7206823    0.2264624  
   0.518974100     0.7474253    0.1125926  
   0.520974000     0.7560359   -0.0043182  
   0.522973900     0.7463312   -0.1217245  
   0.524973800     0.7184489   -0.2364654  
   0.526973700     0.6726204   -0.3457859  
   0.528973600     0.6099985   -0.4469495  
   0.530973500     0.5315478   -0.5375573  
   0.532973400     0.4400002   -0.6144924  
   0.534973300     0.3367667   -0.6758579  
   0.536973200     0.2249334   -0.7202532  
   0.538973100     0.1081327   -0.7462420  
   0.540973000    -0.0112726   -0.7532302  
   0.542972900    -0.1300684   -0.7411590  
   0.544972800    -0.2454875   -0.7106417  
   0.546972700    -0.3548768   -0.6618975  
   0.548972600    -0.4552051   -0.5964533  
   0.550972500    -0.5431640   -0.5158349  
   0.552972400    -0.6178818   -0.4221843  
   0.554972300    -0.6763167   -0.3180001  
   0.556972200    -0.7173274   -0.2057520  
   0.558972100    -0.7399497   -0.0888133  
   0.560972000    -0.7435147    0.0298020  
   0.562971900    -0.7282693    0.1469604  
   0.564971800    -0.6946841    0.2594776  
   0.566971700    -0.6440353    0.3652017  
   0.568971600    -0.5775049    0.4610403  
   0.570971500    -0.4968134    0.5452056  
   0.572971400    -0.4038291    0.6153663  
   0.574971300    -0.3007864    0.6702759  
   0.576971200    -0.1899147    0.7080405  
   0.578971100    -0.0742214    0.7276940  
   0.580971000     0.0431130    0.7287493  
   0.582970900     0.1591008    0.7112270  
   0.584970800     0.2704411    0.6751198  
   0.586970700     0.3746483    0.6220150  
   0.588970600     0.4687867    0.5528950  
   0.590970500     0.5511655    0.4694147  
   0.592970400     0.6190048    0.3738778  
   0.594970300     0.6706375    0.2687660  
   0.596970200     0.7050045    0.1563815  
   0.598970100     0.7208682    0.0394373  
   0.600970000     0.7173660   -0.0781859  
   0.602969900     0.6955071   -0.1946733  
   0.604969800     0.6548385   -0.3060410  
   0.606969700     0.5967734   -0.4094868  
   0.608969600     0.5224665   -0.5027940  
   0.610969500     0.4336874   -0.5824518  
   0.612969400     0.3338786   -0.6471925  
   0.614969300     0.2250226   -0.6944254  
   0.616969200     0.1104040   -0.7237038  
   0.618969100    -0.0065967   -0.7340688  
   0.620969000    -0.1229215   -0.7260218  
   0.622968900    -0.2364220   -0.6998312  
   0.624968800    -0.3443214   -0.6563223  
   0.626968700    -0.4442621   -0.5966350  
   0.628968600    -0.5335308   -0.5222400  
   0.630968500    -0.6100288   -0.4348927  
   0.632968400    -0.6718741   -0.3372838  
   0.634968300    -0.7175665   -0.2312898  
   0.636968200    -0.7465673   -0.1199240  
   0.638968100    -0.7582773   -0.0057773  
   0.640968000    -0.7524850    0.1086001  
   0.642967900    -0.7290491    0.2204841  
   0.644967800    -0.6891593    0.3273424  
   0.646967700    -0.6337471    0.4267958  
   0.648967600    -0.5643145    0.5161766  
   0.650967500    -0.4821435    0.5940120  
   0.652967400    -0.3899075    0.6586016  
   0.654967300    -0.2891639    0.7084358  
   0.656967200    -0.1818837    0.7428054  
   0.658967100    -0.0708695    0.7606201  
   0.660967000     0.0420512    0.7611678  
   0.662966900     0.1546382    0.7452407  
   0.664966800     0.2642013    0.7115835  
   0.666966700     0.3683779    0.6615770  
   0.668966600     0.4634847    0.5959880  
   0.670966500     0.5477608    0.5154839  
   0.672966400     0.6191223    0.4233291  
   0.674966300     0.6752071    0.3209264  
   0.676966200     0.7145331    0.2108624  
   0.678966100     0.7364195    0.0957252  
   0.680966000     0.7398461   -0.0216298  
   0.682965900     0.7243339   -0.1382491  
   0.684965800     0.6907843   -0.2509012  
   0.686965700     0.6394404   -0.3574170  
   0.688965600     0.5718587   -0.4548877  
   0.690965500     0.4896233   -0.5400068  
   0.692965400     0.3946586   -0.6106142  
   0.694965300     0.2899282   -0.6652980  
   0.696965200     0.1776101   -0.7024714  
   0.698965100     0.0611300   -0.7207941  
   0.700965000    -0.0568541   -0.7206703  
   0.702964900    -0.1730210   -0.7013314  
   0.704964800    -0.2845825   -0.6637475  
   0.706964700    -0.3881504   -0.6091016  
   0.708964600    -0.4814859   -0.5386111  
   0.710964500    -0.5623564   -0.4541797  
   0.712964400    -0.6282411   -0.3583517  
   0.714964300    -0.6777388   -0.2538612  
   0.716964200    -0.7100224   -0.1433278  
   0.718964100    -0.7246457   -0.0301131  
   0.720964000    -0.7212299    0.0832195  
   0.722963900    -0.7008359    0.1936632  
   0.724963800    -0.6639622    0.2994105  
   0.726963700    -0.6113279    0.3980978  
   0.728963600    -0.5442758    0.4870611  
   0.730963500    -0.4648764    0.5649484  
   0.732963400    -0.3746804    0.6297179  
   0.734963300    -0.2761021    0.6797717  
   0.736963200    -0.1528042    0.7183111  
   0.738963100    -0.0241551    0.7347457  
   0.740963000     0.1063974    0.7286807  
   0.742962900     0.2341581    0.6996314  
   0.744962800     0.3555211    0.6486406  
   0.746962700     0.4663882    0.5768506  
   0.748962600     0.5633621    0.4862633  
   0.750962500     0.4640539    0.5721250  
   0.752962400     0.5596504    0.4799647  
   0.754962300     0.6376365    0.3724531  
   0.756962200     0.6954539    0.2524240  
   0.758962100     0.7314029    0.1239001  
   0.760962000     0.7436600   -0.0097927  
   0.762961900     0.7323647   -0.1369822  
   0.764961800     0.7029166   -0.2499884  
   0.766961700     0.6559653   -0.3571692  
   0.768961600     0.5926030   -0.4556432  
   0.770961500     0.5142052   -0.5434318  
   0.772961400     0.4231033   -0.6175557  
   0.774961300     0.3211397   -0.6764367  
   0.776961200     0.2111610   -0.7186073  
   0.778961100     0.0956037   -0.7431103  
   0.780961000    -0.0226351   -0.7485768  
   0.782960900    -0.1402207   -0.7354611  
   0.784960800    -0.2543028   -0.7033601  
   0.786960700    -0.3617925   -0.6536168  
   0.788960600    -0.4596551   -0.5873510  
   0.790960500    -0.5455793   -0.5066512  
   0.792960400    -0.6168923   -0.4137976  
   0.794960300    -0.6724813   -0.3111032  
   0.796960200    -0.7109854   -0.2021481  
   0.798960100    -0.7316995   -0.0887524  
   0.800960000    -0.7346296    0.0253391  
   0.802959900    -0.7193955    0.1382610  
   0.804959800    -0.6876237    0.2466389  
   0.806959700    -0.6395414    0.3481198  
   0.808959600    -0.5765348    0.4408286  
   0.810959500    -0.5009255    0.5220257  
   0.812959400    -0.4135450    0.5907504  
   0.814959300    -0.3169249    0.6451438  
   0.816959200    -0.2136377    0.6842258  
   0.818959100    -0.1059075    0.7067893  
   0.820959000     0.0047122    0.7127193  
   0.822958900     0.1147135    0.7017438  
   0.824958800     0.2218066    0.6738431  
   0.826958700     0.3239522    0.6300250  
   0.828958600     0.4183129    0.5708219  
   0.830958500     0.5023756    0.4974818  
   0.832958400     0.5745080    0.4119260  
   0.834958300     0.6323040    0.3160670  
   0.836958200     0.6748547    0.2123141  
   0.838958100     0.7005423    0.1024612  
   0.840958000     0.7093281   -0.0104645  
   0.842957900     0.6998811   -0.1239958  
   0.844957800     0.6728091   -0.2351038  
   0.846957700     0.6280088   -0.3406922  
   0.848957600     0.5670151   -0.4381438  
   0.850957500     0.4910489   -0.5249562  
   0.852957400     0.4020835   -0.5987460  
   0.854957300     0.3024707   -0.6575106  
   0.856957200     0.1944229   -0.6996147  
   0.858957100     0.0817835   -0.7238169  
   0.860957000    -0.0333354   -0.7301692  
   0.862956900    -0.1471784   -0.7182572  
   0.864956800    -0.2571844   -0.6889800  
   0.866956700    -0.3610538   -0.6433293  
   0.868956600    -0.4558411   -0.5824636  
   0.870956500    -0.5398782   -0.5082493  
   0.872956400    -0.6114476   -0.4220026  
   0.874956300    -0.6691517   -0.3262851  
   0.876956200    -0.7110259   -0.2231206  
   0.878956100    -0.7370983   -0.1145527  
   0.880956000    -0.7461247   -0.0038408  
   0.882955900    -0.7385349    0.1068004  
   0.884955800    -0.7142111    0.2148470  
   0.886955700    -0.6738450    0.3177945  
   0.888955600    -0.6187227    0.4135143  
   0.890955500    -0.5498106    0.4997091  
   0.892955400    -0.4688359    0.5747076  
   0.894955300    -0.3775680    0.6365433  
