! MS46122B
! 2250307/22442219
! 6/11/2025 1:22:50 PM
! C:\USERS\SPARKY\DOCUMENTS\VNA_DATA\JUNE11_2025\PORT5.S1P
! CHANNEL.1
! TR.MEASUREMENT
! RAW.DATA
# GHZ S RI R 50.0
! FREQ.GHZ         S11RE         S11IM         
!; PortSelection: Port_1
   0.001000000    -0.8951769    0.0553543  
   0.002999900    -0.8653351    0.2605140  
   0.004999800    -0.8225413    0.4063843  
   0.006999700    -0.7532293    0.5338786  
   0.008999600    -0.6613474    0.6426215  
   0.010999500    -0.5514609    0.7311269  
   0.012999400    -0.4281133    0.7983813  
   0.014999300    -0.2949710    0.8437241  
   0.016999200    -0.1563883    0.8671475  
   0.018999100    -0.0162237    0.8692259  
   0.020999000     0.1220021    0.8509754  
   0.022998900     0.2551742    0.8132415  
   0.024998800     0.3525381    0.7396387  
   0.026998700     0.4959592    0.6848353  
   0.028998600     0.5988302    0.5972683  
   0.030998500     0.6869925    0.4963237  
   0.032998400     0.7252526    0.3850927  
   0.034998300     0.8127860    0.2620042  
   0.036998200     0.8471288    0.1328213  
   0.038998100     0.8608738   -0.0000129  
   0.040998000     0.8532063   -0.1337161  
   0.042997900     0.8239695   -0.2646256  
   0.044997800     0.7545745   -0.3626959  
   0.046997700     0.7051780   -0.5047491  
   0.048997600     0.6189465   -0.6072902  
   0.050997500     0.5178726   -0.6952602  
   0.052997400     0.4048189   -0.7661432  
   0.054997300     0.2836393   -0.8184112  
   0.056997200     0.1539290   -0.8522736  
   0.058997100     0.0224969   -0.8660659  
   0.060997000    -0.1092159   -0.8596690  
   0.062996900    -0.2381995   -0.8337142  
   0.064996800    -0.3613691   -0.7886541  
   0.066996700    -0.4761554   -0.7252859  
   0.068996600    -0.5799028   -0.6452732  
   0.070996500    -0.6700084   -0.5503500  
   0.072996400    -0.7444204   -0.4430095  
   0.074996300    -0.8014478   -0.3256116  
   0.076996200    -0.8396479   -0.2006816  
   0.078996100    -0.8582937   -0.0713666  
   0.080996000    -0.8570618    0.0592685  
   0.082995900    -0.8359365    0.1882812  
   0.084995800    -0.7950497    0.3129041  
   0.086995700    -0.7354624    0.4296378  
   0.088995600    -0.6585613    0.5365348  
   0.090995500    -0.5658982    0.6301464  
   0.092995400    -0.4593578    0.7083508  
   0.094995300    -0.3416217    0.7695658  
   0.096995200    -0.2151458    0.8116289  
   0.098995100    -0.0834693    0.8327661  
   0.100995000     0.0500936    0.8329369  
   0.102994900     0.1822291    0.8112873  
   0.104994800     0.3098022    0.7689916  
   0.106994700     0.4288434    0.7064925  
   0.108994600     0.5363695    0.6255761  
   0.110994500     0.6294802    0.5283930  
   0.112994400     0.7055894    0.4172265  
   0.114994300     0.7625919    0.2953590  
   0.116994200     0.7992852    0.1659768  
   0.118994100     0.8142760    0.0329993  
   0.120994000     0.8075816   -0.1007475  
   0.122993900     0.7794514   -0.2312672  
   0.124993800     0.7310329   -0.3548089  
   0.126993700     0.6632316   -0.4689110  
   0.128993600     0.5788023   -0.5702512  
   0.130993500     0.4796812   -0.6559532  
   0.132993400     0.3685512   -0.7248536  
   0.134993300     0.2486169   -0.7746739  
   0.136993200     0.1229940   -0.8048066  
   0.138993100    -0.0048599   -0.8147694  
   0.140993000    -0.1322017   -0.8048570  
   0.142992900    -0.2557399   -0.7754115  
   0.144992800    -0.3724419   -0.7274684  
   0.146992700    -0.4801412   -0.6625541  
   0.148992600    -0.5763358   -0.5821774  
   0.150992500    -0.6584203   -0.4885269  
   0.152992400    -0.7250147   -0.3839686  
   0.154992300    -0.7750359   -0.2707810  
   0.156992200    -0.8074560   -0.1516131  
   0.158992100    -0.8213770   -0.0290532  
   0.160992000    -0.8169604    0.0937627  
   0.162991900    -0.7940421    0.2145883  
   0.164991800    -0.7530545    0.3307044  
   0.166991700    -0.6953460    0.4390319  
   0.168991600    -0.6220171    0.5378138  
   0.170991500    -0.5339333    0.6247187  
   0.172991400    -0.4340486    0.6971307  
   0.174991300    -0.3240055    0.7537023  
   0.176991200    -0.2062009    0.7933950  
   0.178991100    -0.0830778    0.8146382  
   0.180991000     0.0419817    0.8167101  
   0.182990900     0.1659842    0.7997838  
   0.184990800     0.2874034    0.7636246  
   0.186990700     0.4018364    0.7084934  
   0.188990600     0.4875310    0.6507605  
   0.190990500     0.5957756    0.5511105  
   0.192990400     0.6758760    0.4469048  
   0.194990300     0.7367533    0.3336023  
   0.196990200     0.7788212    0.2122747  
   0.198990100     0.8013771    0.0856428  
   0.200990000     0.8031286   -0.0434805  
   0.202989900     0.7842901   -0.1722023  
   0.204989800     0.7450137   -0.2956224  
   0.206989700     0.6865776   -0.4109306  
   0.208989600     0.6102487   -0.5151669  
   0.210989500     0.5180650   -0.6063139  
   0.212989400     0.4120587   -0.6812194  
   0.214989300     0.2960493   -0.7378243  
   0.216989200     0.1727894   -0.7746174  
   0.218989100     0.0458674   -0.7912499  
   0.220989000    -0.0819171   -0.7872515  
   0.222988900    -0.2074203   -0.7629645  
   0.224988800    -0.3271294   -0.7183850  
   0.226988700    -0.4373712   -0.6558031  
   0.228988600    -0.5357003   -0.5771112  
   0.230988500    -0.6197824   -0.4838423  
   0.232988400    -0.6879166   -0.3788246  
   0.234988300    -0.7382858   -0.2641241  
   0.236988200    -0.7699495   -0.1432438  
   0.238988100    -0.7819688   -0.0193465  
   0.240988000    -0.7739572    0.1040611  
   0.242987900    -0.7470583    0.2242128  
   0.244987800    -0.7019922    0.3381589  
   0.246987700    -0.6392742    0.4440596  
   0.248987600    -0.5604030    0.5388367  
   0.250987500    -0.4675271    0.6202199  
   0.252987400    -0.3633190    0.6855767  
   0.254987300    -0.2507262    0.7335886  
   0.256987200    -0.1322691    0.7634425  
   0.258987100    -0.0106058    0.7745180  
   0.260987000     0.1120529    0.7663147  
   0.262986900     0.2322703    0.7389663  
   0.264986800     0.3469751    0.6926611  
   0.266986700     0.4533550    0.6291124  
   0.268986600     0.5481349    0.5491471  
   0.270986500     0.6290056    0.4554878  
   0.272986400     0.6941966    0.3505139  
   0.274986300     0.7422608    0.2363064  
   0.276986200     0.7716402    0.1156123  
   0.278986100     0.7817323   -0.0087835  
   0.280986000     0.7717110   -0.1336245  
   0.282985900     0.7422479   -0.2556240  
   0.284985800     0.6933016   -0.3714392  
   0.286985700     0.6267372   -0.4778470  
   0.288985600     0.5447390   -0.5719253  
   0.290985500     0.4490656   -0.6513793  
   0.292985400     0.3425354   -0.7146837  
   0.294985300     0.2271341   -0.7603933  
   0.296985200     0.1058455   -0.7875322  
   0.298985100    -0.0185921   -0.7953578  
   0.300985000    -0.1429749   -0.7829964  
   0.302984900    -0.2632957   -0.7515154  
   0.304984800    -0.3765281   -0.7013032  
   0.306984700    -0.4802789   -0.6344891  
   0.308984600    -0.5714343   -0.5533817  
   0.310984500    -0.6482671   -0.4596105  
   0.312984400    -0.7096109   -0.3552068  
   0.314984300    -0.7541283   -0.2430528  
   0.316984200    -0.7805253   -0.1257148  
   0.318984100    -0.7890298   -0.0047047  
   0.320984000    -0.7783628    0.1159122  
   0.322983900    -0.7491546    0.2339966  
   0.324983800    -0.7019099    0.3458007  
   0.326983700    -0.6379064    0.4485154  
   0.328983600    -0.5588113    0.5403811  
   0.330983500    -0.4667069    0.6183395  
   0.332983400    -0.3644014    0.6808916  
   0.334983300    -0.2532541    0.7266151  
   0.336983200    -0.1364890    0.7547302  
   0.338983100    -0.0168092    0.7643208  
   0.340983000     0.1036359    0.7550458  
   0.342982900     0.2211802    0.7270839  
   0.344982800     0.3333403    0.6807313  
   0.346982700     0.4378516    0.6166222  
   0.348982600     0.5311092    0.5362021  
   0.350982500     0.6106530    0.4418494  
   0.352982400     0.6736525    0.3353432  
   0.354982300     0.7205213    0.2149835  
   0.356982200     0.7481160    0.0751061  
   0.358982100     0.7491430   -0.0671343  
   0.360982000     0.7239184   -0.2069452  
   0.362981900     0.6733438   -0.3392872  
   0.364981800     0.5989366   -0.4605790  
   0.366981700     0.5031719   -0.5659388  
   0.368981600     0.3891805   -0.6515449  
   0.370981500     0.2618364   -0.7143407  
   0.372981400     0.1244242   -0.7524672  
   0.374981300    -0.0177107   -0.7642684  
   0.376981200     0.0922632   -0.7547650  
   0.378981100    -0.0496985   -0.7613732  
   0.380981000    -0.1901062   -0.7414724  
   0.382980900    -0.3123528   -0.7013163  
   0.384980800    -0.4211629   -0.6439962  
   0.386980700    -0.5192500   -0.5703481  
   0.388980600    -0.6035997   -0.4827654  
   0.390980500    -0.6728403   -0.3835582  
   0.392980400    -0.7256432   -0.2758099  
   0.394980300    -0.7602413   -0.1623885  
   0.396980200    -0.7772855   -0.0453060  
   0.398980100    -0.7761111    0.0727765  
   0.400980000    -0.7571064    0.1884299  
   0.402979900    -0.7207457    0.3001674  
   0.404979800    -0.6681641    0.4042501  
   0.406979700    -0.6006662    0.4992413  
   0.408979600    -0.5194923    0.5829391  
   0.410979500    -0.4263571    0.6540004  
   0.412979400    -0.3225597    0.7100086  
   0.414979300    -0.2112496    0.7499929  
   0.416979200    -0.0948294    0.7720237  
   0.418979100     0.0236307    0.7764180  
   0.420979000     0.1420859    0.7622670  
   0.422978900     0.2575526    0.7296790  
   0.424978800     0.3671991    0.6793316  
   0.426978700     0.4680952    0.6118048  
   0.428978600     0.5571481    0.5289585  
   0.430978500     0.6323221    0.4327418  
   0.432978400     0.6911908    0.3257333  
   0.434978300     0.7321584    0.2100909  
   0.436978200     0.7539893    0.0892878  
   0.438978100     0.7564306   -0.0343169  
   0.440978000     0.7383832   -0.1570149  
   0.442977900     0.7005152   -0.2752108  
   0.444977800     0.6437737   -0.3860648  
   0.446977700     0.5693911   -0.4861402  
   0.448977600     0.4796674   -0.5725716  
   0.450977500     0.3769106   -0.6434248  
   0.452977400     0.2632899   -0.6961133  
   0.454977300     0.1424142   -0.7292207  
   0.456977200     0.0170784   -0.7419162  
   0.458977100    -0.1085466   -0.7334849  
   0.460977000    -0.2303329   -0.7041035  
   0.462976900    -0.3449452   -0.6556776  
   0.464976800    -0.4494056   -0.5892212  
   0.466976700    -0.5413958   -0.5066926  
   0.468976600    -0.6179465   -0.4107628  
   0.470976500    -0.6778277   -0.3041292  
   0.472976400    -0.7193401   -0.1898952  
   0.474976300    -0.7416229   -0.0712354  
   0.476976200    -0.7446734    0.0485349  
   0.478976100    -0.7286709    0.1665755  
   0.480976000    -0.6948536    0.2794247  
   0.482975900    -0.6439990    0.3849353  
   0.484975800    -0.5776333    0.4807509  
   0.486975700    -0.4976847    0.5654663  
   0.488975600    -0.4056498    0.6361352  
   0.490975500    -0.3040431    0.6923208  
   0.492975400    -0.1948170    0.7323441  
   0.494975300    -0.0810942    0.7549732  
   0.496975200     0.0350325    0.7598127  
   0.498975100     0.1508002    0.7468870  
   0.500975000     0.2631542    0.7164999  
   0.502974900     0.3695373    0.6693416  
   0.504974800     0.4677321    0.6060032  
   0.506974700     0.5558251    0.5277382  
   0.508974600     0.6315430    0.4357028  
   0.510974500     0.6921824    0.3326710  
   0.512974400     0.7362193    0.2207321  
   0.514974300     0.7620826    0.1032835  
   0.516974200     0.7690419   -0.0170123  
   0.518974100     0.7570607   -0.1371209  
   0.520974000     0.7263866   -0.2544015  
   0.522973900     0.6769164   -0.3655363  
   0.524973800     0.6106422   -0.4677072  
   0.526973700     0.5282713   -0.5585054  
   0.528973600     0.4326893   -0.6349574  
   0.530973500     0.3250864   -0.6958110  
   0.532973400     0.2094612   -0.7380195  
   0.534973300     0.0884147   -0.7614697  
   0.536973200    -0.0353940   -0.7650016  
   0.538973100    -0.1572177   -0.7487464  
   0.540973000    -0.2747184   -0.7129135  
   0.542972900    -0.3845886   -0.6590471  
   0.544972800    -0.4841805   -0.5883304  
   0.546972700    -0.5712533   -0.5025057  
   0.548972600    -0.6435440   -0.4038377  
   0.550972500    -0.6990929   -0.2950684  
   0.552972400    -0.7362353   -0.1788042  
   0.554972300    -0.7543407   -0.0581127  
   0.556972200    -0.7528868    0.0635380  
   0.558972100    -0.7317340    0.1833387  
   0.560972000    -0.6919056    0.2972576  
   0.562971900    -0.6344988    0.4033294  
   0.564971800    -0.5613515    0.4983042  
   0.566971700    -0.4741181    0.5802940  
   0.568971600    -0.3753457    0.6470075  
   0.570971500    -0.2676381    0.6972983  
   0.572971400    -0.1532484    0.7298582  
   0.574971300    -0.0345190    0.7436342  
   0.576971200     0.0855008    0.7384416  
   0.578971100     0.2029766    0.7139914  
   0.580971000     0.3152681    0.6706107  
   0.582970900     0.4191311    0.6100468  
   0.584970800     0.5114973    0.5336459  
   0.586970700     0.5903840    0.4437589  
   0.588970600     0.6541935    0.3419082  
   0.590970500     0.7004961    0.2316242  
   0.592970400     0.7288301    0.1146389  
   0.594970300     0.7378454   -0.0051048  
   0.596970200     0.7275033   -0.1249753  
   0.598970100     0.6980495   -0.2418627  
   0.600970000     0.6500306   -0.3524958  
   0.602969900     0.5848902   -0.4543279  
   0.604969800     0.5040393   -0.5445741  
   0.606969700     0.4094464   -0.6205452  
   0.608969600     0.3041985   -0.6805543  
   0.610969500     0.1901823   -0.7229300  
   0.612969400     0.0713600   -0.7461186  
   0.614969300    -0.0492012   -0.7499824  
   0.616969200    -0.1682809   -0.7350559  
   0.618969100    -0.2824573   -0.7014769  
   0.620969000    -0.3891457   -0.6507401  
   0.622968900    -0.4869951   -0.5842597  
   0.624968800    -0.5731562   -0.5036141  
   0.626968700    -0.6456079   -0.4109725  
   0.628968600    -0.7028912   -0.3082352  
   0.630968500    -0.7438048   -0.1980443  
   0.632968400    -0.7672302   -0.0832546  
   0.634968300    -0.7726076    0.0336544  
   0.636968200    -0.7604823    0.1498038  
   0.638968100    -0.7308133    0.2622760  
   0.640968000    -0.6841450    0.3691017  
   0.642967900    -0.6220765    0.4671682  
   0.644967800    -0.5458038    0.5548787  
   0.646967700    -0.4573951    0.6297822  
   0.648967600    -0.3587361    0.6904274  
   0.650967500    -0.2526234    0.7356008  
   0.652967400    -0.1411011    0.7639747  
   0.654967300    -0.0264311    0.7753321  
   0.656967200     0.0885343    0.7691677  
   0.658967100     0.2016266    0.7459475  
   0.660967000     0.3103552    0.7053568  
   0.662966900     0.4122843    0.6479039  
   0.664966800     0.5049004    0.5752773  
   0.666966700     0.5858020    0.4881649  
   0.668966600     0.6527100    0.3897199  
   0.670966500     0.7031671    0.2809435  
   0.672966400     0.7361026    0.1657496  
   0.674966300     0.7504098    0.0464662  
   0.676966200     0.7457161   -0.0736566  
   0.678966100     0.7215986   -0.1913638  
   0.680966000     0.6793714   -0.3043858  
   0.682965900     0.6192639   -0.4085481  
   0.684965800     0.5432151   -0.5020482  
   0.686965700     0.4530208   -0.5826975  
   0.688965600     0.3510520   -0.6472557  
   0.690965500     0.2402619   -0.6947571  
   0.692965400     0.1232647   -0.7237802  
   0.694965300     0.0035060   -0.7334308  
   0.696965200    -0.1156910   -0.7238157  
   0.698965100    -0.2317770   -0.6952503  
   0.700965000    -0.3413965   -0.6482191  
   0.702964900    -0.4419094   -0.5849769  
   0.704964800    -0.5308062   -0.5063352  
   0.706964700    -0.6056532   -0.4151099  
   0.708964600    -0.6649636   -0.3131637  
   0.710964500    -0.7072466   -0.2034705  
   0.712964400    -0.7312398   -0.0890237  
   0.714964300    -0.7371700    0.0276200  
   0.716964200    -0.7247761    0.1425003  
   0.718964100    -0.6948572    0.2535214  
   0.720964000    -0.6482926    0.3581004  
   0.722963900    -0.5870592    0.4538382  
   0.724963800    -0.5126430    0.5384902  
   0.726963700    -0.4254925    0.6111115  
   0.728963600    -0.3288337    0.6694191  
   0.730963500    -0.2246014    0.7122804  
   0.732963400    -0.1149314    0.7390462  
   0.734963300    -0.0023881    0.7489581  
   0.736963200     0.1290216    0.7384412  
   0.738963100     0.2577385    0.7048389  
   0.740963000     0.3794778    0.6492875  
   0.742962900     0.4900694    0.5727543  
   0.744962800     0.5855638    0.4775786  
   0.746962700     0.6634916    0.3668348  
   0.748962600     0.7203264    0.2434650  
   0.750962500     0.6573282    0.3571692  
   0.752962400     0.7124941    0.2325663  
   0.754962300     0.7441644    0.0998030  
   0.756962200     0.7516099   -0.0367447  
   0.758962100     0.7341804   -0.1726196  
   0.760962000     0.6919733   -0.3033632  
   0.762961900     0.6301405   -0.4186884  
   0.764961800     0.5564044   -0.5133231  
   0.766961700     0.4688844   -0.5947684  
   0.768961600     0.3690041   -0.6616324  
   0.770961500     0.2593652   -0.7114372  
   0.772961400     0.1439695   -0.7430844  
   0.774961300     0.0251044   -0.7562643  
   0.776961200    -0.0947465   -0.7502151  
   0.778961100    -0.2117143   -0.7253319  
   0.780961000    -0.3230532   -0.6818832  
   0.782960900    -0.4261607   -0.6212301  
   0.784960800    -0.5179754   -0.5453132  
   0.786960700    -0.5962374   -0.4555688  
   0.788960600    -0.6589754   -0.3549705  
   0.790960500    -0.7048000   -0.2462667  
   0.792960400    -0.7326635   -0.1321476  
   0.794960300    -0.7418998   -0.0157385  
   0.796960200    -0.7329795    0.0994958  
   0.798960100    -0.7064682    0.2114810  
   0.800960000    -0.6631964    0.3174975  
   0.802959900    -0.6041827    0.4148048  
   0.804959800    -0.5314130    0.5013757  
   0.806959700    -0.4464234    0.5754155  
   0.808959600    -0.3516091    0.6352502  
   0.810959500    -0.2489298    0.6798840  
   0.812959400    -0.1408028    0.7082499  
   0.814959300    -0.0298617    0.7197159  
   0.816959200     0.0814987    0.7138780  
   0.818959100     0.1907377    0.6910380  
   0.820959000     0.2956780    0.6518860  
   0.822958900     0.3936312    0.5969718  
   0.824958800     0.4820751    0.5274097  
   0.826958700     0.5588183    0.4445990  
   0.828958600     0.6223193    0.3506202  
   0.830958500     0.6706010    0.2474397  
   0.832958400     0.7018421    0.1378806  
   0.834958300     0.7163740    0.0243833  
   0.836958200     0.7123289   -0.0901694  
   0.838958100     0.6901731   -0.2029109  
   0.840958000     0.6508905   -0.3114267  
   0.842957900     0.5942709   -0.4125961  
   0.844957800     0.5220879   -0.5039842  
   0.846957700     0.4363591   -0.5827847  
   0.848957600     0.3388255   -0.6473829  
   0.850957500     0.2322784   -0.6952581  
   0.852957400     0.1192899   -0.7257221  
   0.854957300     0.0030810   -0.7377944  
   0.856957200    -0.1134895   -0.7313944  
   0.858957100    -0.2273502   -0.7063400  
   0.860957000    -0.3349482   -0.6643175  
   0.862956900    -0.4343998   -0.6063854  
   0.864956800    -0.5227700   -0.5341386  
   0.866956700    -0.5986789   -0.4497530  
   0.868956600    -0.6605417   -0.3553760  
   0.870956500    -0.7070079   -0.2532316  
   0.872956400    -0.7371188   -0.1453945  
   0.874956300    -0.7508033   -0.0343697  
   0.876956200    -0.7473397    0.0774897  
   0.878956100    -0.7271282    0.1869599  
   0.880956000    -0.6906602    0.2925240  
   0.882955900    -0.6385085    0.3907652  
   0.884955800    -0.5723906    0.4800407  
   0.886955700    -0.4932069    0.5588344  
   0.888955600    -0.4034511    0.6244833  
   0.890955500    -0.3044516    0.6761597  
   0.892955400    -0.1989528    0.7120794  
   0.894955300    -0.0888601    0.7316279  
   0.896955200     0.0229792    0.7342470  
