! MS46122B
! 2250307/22442219
! 6/18/2025 1:24:55 PM
! C:\USERS\SPARKY\DOCUMENTS\VNA_DATA\JUNE18_2025\295K\PORT3_MOS4.S1P
! CHANNEL.1
! TR.MEASUREMENT
! RAW.DATA
# GHZ S RI R 50.0
! FREQ.GHZ         S11RE         S11IM         
!; PortSelection: Port_1
   0.001000000    -0.8943644    0.0547266  
   0.002999900    -0.8647012    0.2586754  
   0.004999800    -0.8228073    0.4032290  
   0.006999700    -0.7544071    0.5299863  
   0.008999600    -0.6638559    0.6383523  
   0.010999500    -0.5555968    0.7266396  
   0.012999400    -0.4333130    0.7942612  
   0.014999300    -0.3016164    0.8400739  
   0.016999200    -0.1644601    0.8645908  
   0.018999100    -0.0254081    0.8678997  
   0.020999000     0.1118870    0.8512313  
   0.022998900     0.2444326    0.8152605  
   0.024998800     0.3419462    0.7432427  
   0.026998700     0.4850804    0.6906918  
   0.028998600     0.5883698    0.6052237  
   0.030998500     0.6773898    0.5063900  
   0.032998400     0.7170266    0.3965529  
   0.034998300     0.8061061    0.2757905  
   0.036998200     0.8424147    0.1484309  
   0.038998100     0.8584702    0.0168423  
   0.040998000     0.8536498   -0.1158959  
   0.042997900     0.8274332   -0.2463811  
   0.044997800     0.7605503   -0.3451504  
   0.046997700     0.7151310   -0.4868858  
   0.048997600     0.6320162   -0.5908783  
   0.050997500     0.5337728   -0.6804451  
   0.052997400     0.4251965   -0.7526463  
   0.054997300     0.3036501   -0.8092960  
   0.056997200     0.1770157   -0.8460234  
   0.058997100     0.0469893   -0.8633415  
   0.060997000    -0.0837050   -0.8608620  
   0.062996900    -0.2123455   -0.8390188  
   0.064996800    -0.3359748   -0.7981941  
   0.066996700    -0.4517537   -0.7391562  
   0.068996600    -0.5572370   -0.6631806  
   0.070996500    -0.6497393   -0.5723110  
   0.072996400    -0.7273325   -0.4685757  
   0.074996300    -0.7881388   -0.3542678  
   0.076996200    -0.8306862   -0.2318395  
   0.078996100    -0.8541268   -0.1047070  
   0.080996000    -0.8581237    0.0249034  
   0.082995900    -0.8423750    0.1535612  
   0.084995800    -0.8070667    0.2783631  
   0.086995700    -0.7531645    0.3968445  
   0.088995600    -0.6817527    0.5059124  
   0.090995500    -0.5942895    0.6029147  
   0.092995400    -0.4926639    0.6852205  
   0.094995300    -0.3789036    0.7513351  
   0.096995200    -0.2562920    0.7991580  
   0.098995100    -0.1269157    0.8270432  
   0.100995000     0.0054379    0.8339812  
   0.102994900     0.1373231    0.8198640  
   0.104994800     0.2655362    0.7849525  
   0.106994700     0.3870708    0.7297021  
   0.108994600     0.4982290    0.6558626  
   0.110994500     0.5959213    0.5652701  
   0.112994400     0.6776691    0.4597883  
   0.114994300     0.7416545    0.3427425  
   0.116994200     0.7861245    0.2170208  
   0.118994100     0.8095170    0.0859190  
   0.120994000     0.8114685   -0.0468640  
   0.122993900     0.7922406   -0.1778766  
   0.124993800     0.7524725   -0.3036582  
   0.126993700     0.6929423   -0.4210572  
   0.128993600     0.6163656   -0.5271901  
   0.130993500     0.5239014   -0.6192749  
   0.132993400     0.4185131   -0.6950943  
   0.134993300     0.3034152   -0.7530833  
   0.136993200     0.1811101   -0.7917253  
   0.138993100     0.0549283   -0.8110371  
   0.140993000    -0.0718188   -0.8103967  
   0.142992900    -0.1964314   -0.7905339  
   0.144992800    -0.3155205   -0.7517430  
   0.146992700    -0.4272217   -0.6954116  
   0.148992600    -0.5283945   -0.6230641  
   0.150992500    -0.6168762   -0.5370005  
   0.152992400    -0.6909895   -0.4384026  
   0.154992300    -0.7492964   -0.3303663  
   0.156992200    -0.7907012   -0.2150263  
   0.158992100    -0.8143911   -0.0953353  
   0.160992000    -0.8199292    0.0266355  
   0.162991900    -0.8071828    0.1478054  
   0.164991800    -0.7763587    0.2658772  
   0.166991700    -0.7284584    0.3777456  
   0.168991600    -0.6644824    0.4814391  
   0.170991500    -0.5852995    0.5744951  
   0.172991400    -0.4931526    0.6544324  
   0.174991300    -0.3900229    0.7201138  
   0.176991200    -0.2773356    0.7697081  
   0.178991100    -0.1581477    0.8020207  
   0.180991000    -0.0354097    0.8157423  
   0.182990900     0.0879882    0.8108165  
   0.184990800     0.2105816    0.7867270  
   0.186990700     0.3285615    0.7443287  
   0.188990600     0.4180627    0.6961834  
   0.190990500     0.5348957    0.6091256  
   0.192990400     0.6241827    0.5150934  
   0.194990300     0.6959419    0.4103972  
   0.196990200     0.7503380    0.2959386  
   0.198990100     0.7861000    0.1740699  
   0.200990000     0.8023457    0.0475309  
   0.202989900     0.7983156   -0.0805950  
   0.204989800     0.7737179   -0.2063563  
   0.206989700     0.7297480   -0.3263529  
   0.208989600     0.6671822   -0.4377660  
   0.210989500     0.5875137   -0.5378287  
   0.212989400     0.4928926   -0.6244223  
   0.214989300     0.3855535   -0.6943803  
   0.216989200     0.2690400   -0.7458305  
   0.218989100     0.1465033   -0.7781853  
   0.220989000     0.0205389   -0.7903879  
   0.222988900    -0.1059536   -0.7823572  
   0.224988800    -0.2293553   -0.7542862  
   0.226988700    -0.3460021   -0.7071280  
   0.228988600    -0.4528942   -0.6424358  
   0.230988500    -0.5478764   -0.5619826  
   0.232988400    -0.6287877   -0.4680159  
   0.234988300    -0.6936273   -0.3621856  
   0.236988200    -0.7410764   -0.2477653  
   0.238988100    -0.7697469   -0.1276877  
   0.240988000    -0.7791744   -0.0055620  
   0.242987900    -0.7692450    0.1161090  
   0.244987800    -0.7405925    0.2341917  
   0.246987700    -0.6940679    0.3464999  
   0.248987600    -0.6301758    0.4506271  
   0.250987500    -0.5508797    0.5432227  
   0.252987400    -0.4584512    0.6221391  
   0.254987300    -0.3552812    0.6852389  
   0.256987200    -0.2439088    0.7318451  
   0.258987100    -0.1266167    0.7602380  
   0.260987000    -0.0059118    0.7703785  
   0.262986900     0.1154245    0.7614782  
   0.264986800     0.2339755    0.7338840  
   0.266986700     0.3473189    0.6876373  
   0.268986600     0.4517397    0.6248037  
   0.270986500     0.5447844    0.5462779  
   0.272986400     0.6246520    0.4537655  
   0.274986300     0.6891314    0.3505041  
   0.276986200     0.7370237    0.2379029  
   0.278986100     0.7665805    0.1186155  
   0.280986000     0.7771793   -0.0044769  
   0.282985900     0.7681840   -0.1276348  
   0.284985800     0.7400423   -0.2482406  
   0.286985700     0.6927705   -0.3628108  
   0.288985600     0.6287053   -0.4678001  
   0.290985500     0.5492427   -0.5613078  
   0.292985400     0.4561909   -0.6409485  
   0.294985300     0.3520561   -0.7050273  
   0.296985200     0.2386646   -0.7524132  
   0.298985100     0.1185816   -0.7812297  
   0.300985000    -0.0044059   -0.7909294  
   0.302984900    -0.1270207   -0.7813339  
   0.304984800    -0.2462363   -0.7527098  
   0.306984700    -0.3588229   -0.7057878  
   0.308984600    -0.4620698   -0.6426971  
   0.310984500    -0.5537806   -0.5653520  
   0.312984400    -0.6320646   -0.4748107  
   0.314984300    -0.6955147   -0.3737442  
   0.316984200    -0.7426703   -0.2646504  
   0.318984100    -0.7725171   -0.1490501  
   0.320984000    -0.7846555   -0.0295344  
   0.322983900    -0.7779545    0.0902711  
   0.324983800    -0.7531335    0.2074164  
   0.326983700    -0.7105600    0.3189768  
   0.328983600    -0.6510767    0.4226680  
   0.330983500    -0.5771457    0.5153785  
   0.332983400    -0.4899606    0.5954455  
   0.334983300    -0.3921532    0.6611624  
   0.336983200    -0.2849791    0.7110268  
   0.338983100    -0.1715676    0.7438268  
   0.340983000    -0.0542838    0.7588611  
   0.342982900     0.0641263    0.7555578  
   0.344982800     0.1816138    0.7341096  
   0.346982700     0.2945755    0.6939459  
   0.348982600     0.4005169    0.6364699  
   0.350982500     0.4963757    0.5626155  
   0.352982400     0.5798692    0.4742664  
   0.354982300     0.6498830    0.3690041  
   0.356982200     0.7066299    0.2411141  
   0.358982100     0.7387955    0.1052654  
   0.360982000     0.7457804   -0.0339630  
   0.362981900     0.7267473   -0.1720165  
   0.364981800     0.6828551   -0.3046041  
   0.366981700     0.6153533   -0.4271433  
   0.368981600     0.5260459   -0.5351668  
   0.370981500     0.4183923   -0.6245737  
   0.372981400     0.2960925   -0.6929705  
   0.374981300     0.1625210   -0.7372427  
   0.376981200     0.2648659   -0.7019242  
   0.378981100     0.1307911   -0.7410718  
   0.380981000    -0.0085282   -0.7547581  
   0.382980900    -0.1351562   -0.7444069  
   0.384980800    -0.2530667   -0.7153580  
   0.386980700    -0.3642402   -0.6677563  
   0.388980600    -0.4657598   -0.6033825  
   0.390980500    -0.5556729   -0.5245031  
   0.392980400    -0.6311285   -0.4336573  
   0.394980300    -0.6913295   -0.3333199  
   0.396980200    -0.7352170   -0.2249324  
   0.398980100    -0.7619321   -0.1119699  
   0.400980000    -0.7712108    0.0032598  
   0.402979900    -0.7630576    0.1183717  
   0.404979800    -0.7379002    0.2304281  
   0.406979700    -0.6961422    0.3368550  
   0.408979600    -0.6391355    0.4358225  
   0.410979500    -0.5678005    0.5254632  
   0.412979400    -0.4835815    0.6038796  
   0.414979300    -0.3877920    0.6688272  
   0.416979200    -0.2835914    0.7187999  
   0.418979100    -0.1729870    0.7520250  
   0.420979000    -0.0580557    0.7685928  
   0.422978900     0.0586474    0.7672674  
   0.424978800     0.1742421    0.7479646  
   0.426978700     0.2860672    0.7109774  
   0.428978600     0.3913620    0.6569234  
   0.430978500     0.4868141    0.5872120  
   0.432978400     0.5705323    0.5033863  
   0.434978300     0.6401377    0.4069629  
   0.436978200     0.6939446    0.3002266  
   0.438978100     0.7304962    0.1862502  
   0.440978000     0.7484468    0.0671962  
   0.442977900     0.7470649   -0.0536218  
   0.444977800     0.7263249   -0.1731788  
   0.446977700     0.6866468   -0.2878486  
   0.448977600     0.6286806   -0.3945570  
   0.450977500     0.5539736   -0.4907202  
   0.452977400     0.4640631   -0.5740448  
   0.454977300     0.3616341   -0.6415831  
   0.456977200     0.2483072   -0.6917670  
   0.458977100     0.1288120   -0.7222059  
   0.460977000     0.0058218   -0.7325444  
   0.462976900    -0.1163185   -0.7223727  
   0.464976800    -0.2348368   -0.6922529  
   0.466976700    -0.3463884   -0.6435197  
   0.468976600    -0.4482628   -0.5774288  
   0.470976500    -0.5372247   -0.4958533  
   0.472976400    -0.6114783   -0.4016163  
   0.474976300    -0.6692548   -0.2969992  
   0.476976200    -0.7092552   -0.1855020  
   0.478976100    -0.7307199   -0.0696365  
   0.480976000    -0.7333922    0.0469519  
   0.482975900    -0.7181866    0.1615451  
   0.484975800    -0.6854821    0.2715604  
   0.486975700    -0.6361169    0.3751249  
   0.488975600    -0.5718612    0.4696365  
   0.490975500    -0.4938634    0.5532861  
   0.492975400    -0.4040310    0.6234094  
   0.494975300    -0.3049572    0.6791924  
   0.496975200    -0.1981281    0.7191387  
   0.498975100    -0.0868872    0.7423006  
   0.500975000     0.0264455    0.7481551  
   0.502974900     0.1394423    0.7368568  
   0.504974800     0.2497978    0.7084479  
   0.506974700     0.3549828    0.6633980  
   0.508974600     0.4527845    0.6017872  
   0.510974500     0.5404626    0.5256147  
   0.512974400     0.6157340    0.4364986  
   0.514974300     0.6762008    0.3371898  
   0.516974200     0.7205718    0.2290596  
   0.518974100     0.7476717    0.1152721  
   0.520974000     0.7566350   -0.0016749  
   0.522973900     0.7473778   -0.1189812  
   0.524973800     0.7199713   -0.2339074  
   0.526973700     0.6745343   -0.3433938  
   0.528973600     0.6123701   -0.4448031  
   0.530973500     0.5342616   -0.5357357  
   0.532973400     0.4432505   -0.6127955  
   0.534973300     0.3401369   -0.6749575  
   0.536973200     0.2284813   -0.7198461  
   0.538973100     0.1118250   -0.7463341  
   0.540973000    -0.0076010   -0.7539794  
   0.542972900    -0.1265096   -0.7425720  
   0.544972800    -0.2421470   -0.7125279  
   0.546972700    -0.3519694   -0.6643936  
   0.548972600    -0.4524719   -0.5994281  
   0.550972500    -0.5409073   -0.5192885  
   0.552972400    -0.6162368   -0.4258543  
   0.554972300    -0.6752765   -0.3220259  
   0.556972200    -0.7169701   -0.2100559  
   0.558972100    -0.7402045   -0.0930733  
   0.560972000    -0.7445079    0.0256320  
   0.562971900    -0.7298614    0.1428858  
   0.564971800    -0.6970350    0.2556852  
   0.566971700    -0.6469209    0.3618774  
   0.568971600    -0.5809430    0.4581273  
   0.570971500    -0.5005974    0.5429018  
   0.572971400    -0.4078828    0.6137336  
   0.574971300    -0.3052602    0.6691909  
   0.576971200    -0.1945053    0.7076248  
   0.578971100    -0.0788655    0.7281165  
   0.580971000     0.0388016    0.7299791  
   0.582970900     0.1547928    0.7130342  
   0.584970800     0.2663582    0.6776373  
   0.586970700     0.3709456    0.6251121  
   0.588970600     0.4656036    0.5565396  
   0.590970500     0.5484121    0.4738003  
   0.592970400     0.6171412    0.3784820  
   0.594970300     0.6694320    0.2737549  
   0.596970200     0.7045925    0.1613833  
   0.598970100     0.7212296    0.0447769  
   0.600970000     0.7187001   -0.0731247  
   0.602969900     0.6976367   -0.1895543  
   0.604969800     0.6577784   -0.3014025  
   0.606969700     0.6004043   -0.4053222  
   0.608969600     0.5268208   -0.4992093  
   0.610969500     0.4385435   -0.5796481  
   0.612969400     0.3393787   -0.6450604  
   0.614969300     0.2307104   -0.6932723  
   0.616969200     0.1164276   -0.7234431  
   0.618969100    -0.0006498   -0.7347503  
   0.620969000    -0.1170183   -0.7276384  
   0.622968900    -0.2309230   -0.7023523  
   0.624968800    -0.3393236   -0.6597114  
   0.626968700    -0.4396769   -0.6008671  
   0.628968600    -0.5296440   -0.5271184  
   0.630968500    -0.6066672   -0.4404967  
   0.632968400    -0.6695792   -0.3432235  
   0.634968300    -0.7163840   -0.2376075  
   0.636968200    -0.7462505   -0.1263481  
   0.638968100    -0.7590274   -0.0121138  
   0.640968000    -0.7541761    0.1024012  
   0.642967900    -0.7316539    0.2144794  
   0.644967800    -0.6927249    0.3216753  
   0.646967700    -0.6381273    0.4217332  
   0.648967600    -0.5692992    0.5118940  
   0.650967500    -0.4879762    0.5903161  
   0.652967400    -0.3960487    0.6559479  
   0.654967300    -0.2958832    0.7066267  
   0.656967200    -0.1888054    0.7420182  
   0.658967100    -0.0778598    0.7608269  
   0.660967000     0.0351287    0.7626208  
   0.662966900     0.1479661    0.7475379  
   0.664966800     0.2579437    0.7150144  
   0.666966700     0.3625453    0.6657827  
   0.668966600     0.4584784    0.6012342  
   0.670966500     0.5435452    0.5214697  
   0.672966400     0.6158212    0.4301303  
   0.674966300     0.6730995    0.3279742  
   0.676966200     0.7135458    0.2185037  
   0.678966100     0.7365065    0.1034952  
   0.680966000     0.7412114   -0.0139117  
   0.682965900     0.7270210   -0.1307558  
   0.684965800     0.6945875   -0.2439928  
   0.686965700     0.6443089   -0.3510595  
   0.688965600     0.5777135   -0.4493020  
   0.690965500     0.4963298   -0.5355037  
   0.692965400     0.4021506   -0.6071461  
   0.694965300     0.2979544   -0.6630349  
   0.696965200     0.1860087   -0.7015092  
   0.698965100     0.0696892   -0.7211696  
   0.700965000    -0.0484007   -0.7224085  
   0.702964900    -0.1648234   -0.7045059  
   0.704964800    -0.2769599   -0.6681154  
   0.706964700    -0.3812907   -0.6146598  
   0.708964600    -0.4754526   -0.5451737  
   0.710964500    -0.5574597   -0.4616988  
   0.712964400    -0.6245466   -0.3665842  
   0.714964300    -0.6753972   -0.2625540  
   0.716964200    -0.7090275   -0.1522368  
   0.718964100    -0.7250313   -0.0391934  
   0.720964000    -0.7230279    0.0742914  
   0.722963900    -0.7039173    0.1850767  
   0.724963800    -0.6683681    0.2914646  
   0.726963700    -0.6167828    0.3908911  
   0.728963600    -0.5509427    0.4806390  
   0.730963500    -0.4723981    0.5595798  
   0.732963400    -0.3830832    0.6255055  
   0.734963300    -0.2847413    0.6769607  
   0.736963200    -0.1619451    0.7170633  
   0.738963100    -0.0334005    0.7351148  
   0.740963000     0.0973402    0.7306460  
   0.742962900     0.2254913    0.7031379  
   0.744962800     0.3475285    0.6535984  
   0.746962700     0.4595374    0.5832313  
   0.748962600     0.5577344    0.4938217  
   0.750962500     0.4572546    0.5786394  
   0.752962400     0.5539692    0.4876345  
   0.754962300     0.6335131    0.3811337  
   0.756962200     0.6929963    0.2617165  
   0.758962100     0.7305681    0.1336613  
   0.760962000     0.7445661   -0.0000330  
   0.762961900     0.7350205   -0.1273850  
   0.764961800     0.7071323   -0.2408123  
   0.766961700     0.6617817   -0.3484831  
   0.768961600     0.5997435   -0.4480618  
   0.770961500     0.5225686   -0.5370210  
   0.772961400     0.4324003   -0.6123936  
   0.774961300     0.3313873   -0.6727511  
   0.776961200     0.2220336   -0.7165904  
   0.778961100     0.1067347   -0.7428691  
   0.780961000    -0.0114800   -0.7501311  
   0.782960900    -0.1293686   -0.7387964  
   0.784960800    -0.2440217   -0.7083830  
   0.786960700    -0.3523409   -0.6603439  
   0.788960600    -0.4513287   -0.5955151  
   0.790960500    -0.5385856   -0.5162216  
   0.792960400    -0.6113710   -0.4244693  
   0.794960300    -0.6686972   -0.3225229  
   0.796960200    -0.7088491   -0.2141007  
   0.798960100    -0.7315477   -0.1011454  
   0.800960000    -0.7363458    0.0132789  
   0.802959900    -0.7230028    0.1265393  
   0.804959800    -0.6930214    0.2353943  
   0.806959700    -0.6465687    0.3380452  
   0.808959600    -0.5849357    0.4317248  
   0.810959500    -0.5107469    0.5142633  
   0.812959400    -0.4243494    0.5846819  
   0.814959300    -0.3288160    0.6406422  
   0.816959200    -0.2261533    0.6815715  
   0.818959100    -0.1184528    0.7060639  
   0.820959000    -0.0079226    0.7139205  
   0.822958900     0.1024148    0.7049845  
   0.824958800     0.2099155    0.6788261  
   0.826958700     0.3128960    0.6367083  
   0.828958600     0.4083153    0.5793261  
   0.830958500     0.4938357    0.5073772  
   0.832958400     0.5675766    0.4230876  
   0.834958300     0.6271795    0.3282374  
   0.836958200     0.6716315    0.2251882  
   0.838958100     0.6994261    0.1158098  
   0.840958000     0.7102360    0.0032254  
   0.842957900     0.7029052   -0.1105782  
   0.844957800     0.6779703   -0.2223941  
   0.846957700     0.6352944   -0.3288656  
   0.848957600     0.5762864   -0.4274310  
   0.850957500     0.5017850   -0.5158319  
   0.852957400     0.4142857   -0.5912663  
   0.854957300     0.3157591   -0.6521265  
   0.856957200     0.2085137   -0.6962911  
   0.858957100     0.0961863   -0.7228135  
   0.860957000    -0.0189222   -0.7314237  
   0.862956900    -0.1328243   -0.7217557  
   0.864956800    -0.2436938   -0.6945974  
   0.866956700    -0.3482844   -0.6511214  
   0.868956600    -0.4444766   -0.5920736  
   0.870956500    -0.5301796   -0.5194542  
   0.872956400    -0.6036112   -0.4345948  
   0.874956300    -0.6632794   -0.3399339  
   0.876956200    -0.7074085   -0.2373923  
   0.878956100    -0.7355506   -0.1293232  
   0.880956000    -0.7468435   -0.0188869  
   0.882955900    -0.7415461    0.0920792  
   0.884955800    -0.7192525    0.2010127  
   0.886955700    -0.6809988    0.3047768  
   0.888955600    -0.6278253    0.4016782  
   0.890955500    -0.5608563    0.4893475  
   0.892955400    -0.4812438    0.5660388  
   0.894955300    -0.3910766    0.6297405  
