! MS46122B
! 2250307/22442219
! 6/13/2025 8:48:10 AM
! C:\USERS\SPARKY\DOCUMENTS\VNA_DATA\JUNE13_2025\PORT6_MOS5.S1P
! CHANNEL.1
! TR.MEASUREMENT
! RAW.DATA
# GHZ S RI R 50.0
! FREQ.GHZ         S11RE         S11IM         
!; PortSelection: Port_1
   0.001000000    -0.8910275    0.0553700  
   0.002999900    -0.8609932    0.2596999  
   0.004999800    -0.8185285    0.4048776  
   0.006999700    -0.7494452    0.5316293  
   0.008999600    -0.6580007    0.6398125  
   0.010999500    -0.5486526    0.7277682  
   0.012999400    -0.4257424    0.7946743  
   0.014999300    -0.2930772    0.8395752  
   0.016999200    -0.1553440    0.8628800  
   0.018999100    -0.0157238    0.8648977  
   0.020999000     0.1218082    0.8465913  
   0.022998900     0.2543713    0.8089254  
   0.024998800     0.3513126    0.7357161  
   0.026998700     0.4940835    0.6808161  
   0.028998600     0.5963015    0.5934875  
   0.030998500     0.6839277    0.4930766  
   0.032998400     0.7222055    0.3821215  
   0.034998300     0.8091042    0.2593217  
   0.036998200     0.8429940    0.1308134  
   0.038998100     0.8563539   -0.0016103  
   0.040998000     0.8487251   -0.1344926  
   0.042997900     0.8193685   -0.2649168  
   0.044997800     0.7500614   -0.3625414  
   0.046997700     0.7006173   -0.5036292  
   0.048997600     0.6144640   -0.6056312  
   0.050997500     0.5137240   -0.6929557  
   0.052997400     0.4022253   -0.7622741  
   0.054997300     0.2791912   -0.8155327  
   0.056997200     0.1511180   -0.8486069  
   0.058997100     0.0202433   -0.8619488  
   0.060997000    -0.1108181   -0.8553210  
   0.062996900    -0.2392246   -0.8292181  
   0.064996800    -0.3617681   -0.7840426  
   0.066996700    -0.4758324   -0.7207298  
   0.068996600    -0.5788706   -0.6407375  
   0.070996500    -0.6683578   -0.5459995  
   0.072996400    -0.7420517   -0.4390191  
   0.074996300    -0.7984964   -0.3219161  
   0.076996200    -0.8362094   -0.1974841  
   0.078996100    -0.8543931   -0.0687565  
   0.080996000    -0.8528628    0.0612631  
   0.082995900    -0.8313540    0.1896625  
   0.084995800    -0.7902660    0.3137155  
   0.086995700    -0.7306096    0.4295908  
   0.088995600    -0.6537106    0.5357685  
   0.090995500    -0.5611421    0.6286334  
   0.092995400    -0.4548576    0.7060736  
   0.094995300    -0.3372103    0.7666076  
   0.096995200    -0.2114730    0.8080234  
   0.098995100    -0.0801800    0.8285261  
   0.100995000     0.0530234    0.8284124  
   0.102994900     0.1841071    0.8063104  
   0.104994800     0.3109745    0.7636098  
   0.106994700     0.4291723    0.7007910  
   0.108994600     0.5359256    0.6199574  
   0.110994500     0.6281288    0.5226807  
   0.112994400     0.7034320    0.4118265  
   0.114994300     0.7596436    0.2903364  
   0.116994200     0.7955489    0.1614684  
   0.118994100     0.8099409    0.0290016  
   0.120994000     0.8026770   -0.1039637  
   0.122993900     0.7741243   -0.2337137  
   0.124993800     0.7254063   -0.3565647  
   0.126993700     0.6574603   -0.4696642  
   0.128993600     0.5729780   -0.5701990  
   0.130993500     0.4738894   -0.6551135  
   0.132993400     0.3631592   -0.7229289  
   0.134993300     0.2436557   -0.7720569  
   0.136993200     0.1183642   -0.8015260  
   0.138993100    -0.0086908   -0.8108025  
   0.140993000    -0.1355256   -0.8004181  
   0.142992900    -0.2583019   -0.7705332  
   0.144992800    -0.3743326   -0.7222596  
   0.146992700    -0.4809527   -0.6572787  
   0.148992600    -0.5764806   -0.5767795  
   0.150992500    -0.6576238   -0.4831355  
   0.152992400    -0.7235378   -0.3786339  
   0.154992300    -0.7727576   -0.2658705  
   0.156992200    -0.8043954   -0.1469975  
   0.158992100    -0.8177415   -0.0249872  
   0.160992000    -0.8127693    0.0972543  
   0.162991900    -0.7893401    0.2174119  
   0.164991800    -0.7479562    0.3328070  
   0.166991700    -0.6899429    0.4403793  
   0.168991600    -0.6163599    0.5384831  
   0.170991500    -0.5282404    0.6245285  
   0.172991400    -0.4284058    0.6960210  
   0.174991300    -0.3184619    0.7518098  
   0.176991200    -0.2008639    0.7908347  
   0.178991100    -0.0781986    0.8111582  
   0.180991000     0.0463382    0.8125449  
   0.182990900     0.1696725    0.7948583  
   0.184990800     0.2904444    0.7581476  
   0.186990700     0.4043048    0.7027304  
   0.188990600     0.4889946    0.6446546  
   0.190990500     0.5963084    0.5447755  
   0.192990400     0.6753573    0.4405831  
   0.194990300     0.7353725    0.3273831  
   0.196990200     0.7765296    0.2062924  
   0.198990100     0.7981933    0.0800322  
   0.200990000     0.7990413   -0.0486485  
   0.202989900     0.7793244   -0.1764628  
   0.204989800     0.7395057   -0.2992789  
   0.206989700     0.6805860   -0.4135968  
   0.208989600     0.6039042   -0.5169194  
   0.210989500     0.5115342   -0.6069857  
   0.212989400     0.4055702   -0.6809023  
   0.214989300     0.2894240   -0.7363876  
   0.216989200     0.1666465   -0.7721673  
   0.218989100     0.0401280   -0.7879078  
   0.220989000    -0.0870585   -0.7830931  
   0.222988900    -0.2118922   -0.7579321  
   0.224988800    -0.3306637   -0.7127435  
   0.226988700    -0.4400618   -0.6495582  
   0.228988600    -0.5373897   -0.5703440  
   0.230988500    -0.6204497   -0.4770466  
   0.232988400    -0.6875060   -0.3719128  
   0.234988300    -0.7368467   -0.2572626  
   0.236988200    -0.7674559   -0.1366749  
   0.238988100    -0.7784655   -0.0131509  
   0.240988000    -0.7695311    0.1096550  
   0.242987900    -0.7417929    0.2292746  
   0.244987800    -0.6959659    0.3423730  
   0.246987700    -0.6325686    0.4473324  
   0.248987600    -0.5532982    0.5411029  
   0.250987500    -0.4601495    0.6213885  
   0.252987400    -0.3556781    0.6856112  
   0.254987300    -0.2432034    0.7327754  
   0.256987200    -0.1248854    0.7613508  
   0.258987100    -0.0034440    0.7713346  
   0.260987000     0.1185453    0.7620898  
   0.262986900     0.2381091    0.7338419  
   0.264986800     0.3519708    0.6867765  
   0.266986700     0.4573380    0.6225221  
   0.268986600     0.5510603    0.5420063  
   0.270986500     0.6308817    0.4479570  
   0.272986400     0.6949223    0.3428588  
   0.274986300     0.7418186    0.2288670  
   0.276986200     0.7699801    0.1081935  
   0.278986100     0.7789192   -0.0159218  
   0.280986000     0.7679890   -0.1400590  
   0.282985900     0.7376013   -0.2613996  
   0.284985800     0.6877825   -0.3764106  
   0.286985700     0.6206492   -0.4818715  
   0.288985600     0.5380557   -0.5749135  
   0.290985500     0.4420321   -0.6532868  
   0.292985400     0.3352593   -0.7154353  
   0.294985300     0.2197816   -0.7600175  
   0.296985200     0.0987304   -0.7859985  
   0.298985100    -0.0254484   -0.7927437  
   0.300985000    -0.1493460   -0.7793733  
   0.302984900    -0.2689956   -0.7469139  
   0.304984800    -0.3815098   -0.6958987  
   0.306984700    -0.4843083   -0.6282712  
   0.308984600    -0.5745566   -0.5465577  
   0.310984500    -0.6504238   -0.4520704  
   0.312984400    -0.7105735   -0.3474903  
   0.314984300    -0.7540630   -0.2352515  
   0.316984200    -0.7791967   -0.1181207  
   0.318984100    -0.7865432    0.0026496  
   0.320984000    -0.7746971    0.1229516  
   0.322983900    -0.7444960    0.2405032  
   0.324983800    -0.6963199    0.3515313  
   0.326983700    -0.6314281    0.4534236  
   0.328983600    -0.5517700    0.5440188  
   0.330983500    -0.4588634    0.6210986  
   0.332983400    -0.3564385    0.6823946  
   0.334983300    -0.2450570    0.7269753  
   0.336983200    -0.1282883    0.7539064  
   0.338983100    -0.0086945    0.7621952  
   0.340983000     0.1109776    0.7517272  
   0.342982900     0.2280196    0.7226843  
   0.344982800     0.3396566    0.6752288  
   0.346982700     0.4430398    0.6103252  
   0.348982600     0.5353613    0.5291579  
   0.350982500     0.6136752    0.4342884  
   0.352982400     0.6754895    0.3272368  
   0.354982300     0.7209553    0.2069440  
   0.356982200     0.7471068    0.0670657  
   0.358982100     0.7466962   -0.0748951  
   0.360982000     0.7200682   -0.2141470  
   0.362981900     0.6682001   -0.3457268  
   0.364981800     0.5927041   -0.4659720  
   0.366981700     0.4960698   -0.5700358  
   0.368981600     0.3814502   -0.6543524  
   0.370981500     0.2537627   -0.7156827  
   0.372981400     0.1162408   -0.7522807  
   0.374981300    -0.0257306   -0.7623664  
   0.376981200     0.0842455   -0.7544143  
   0.378981100    -0.0574908   -0.7594179  
   0.380981000    -0.1974867   -0.7381519  
   0.382980900    -0.3191476   -0.6968954  
   0.384980800    -0.4270918   -0.6385531  
   0.386980700    -0.5242794   -0.5640128  
   0.388980600    -0.6077430   -0.4756252  
   0.390980500    -0.6757178   -0.3760173  
   0.392980400    -0.7274147   -0.2678819  
   0.394980300    -0.7607530   -0.1542972  
   0.396980200    -0.7765626   -0.0373701  
   0.398980100    -0.7742629    0.0804147  
   0.400980000    -0.7541939    0.1956657  
   0.402979900    -0.7167346    0.3069984  
   0.404979800    -0.6631911    0.4103523  
   0.406979700    -0.5949167    0.5045016  
   0.408979600    -0.5132217    0.5871351  
   0.410979500    -0.4193183    0.6573339  
   0.412979400    -0.3152264    0.7121928  
   0.414979300    -0.2037552    0.7510619  
   0.416979200    -0.0873411    0.7719217  
   0.418979100     0.0310493    0.7750112  
   0.420979000     0.1490939    0.7599132  
   0.422978900     0.2641613    0.7262893  
   0.424978800     0.3731091    0.6749407  
   0.426978700     0.4732267    0.6065531  
   0.428978600     0.5613729    0.5228872  
   0.430978500     0.6355468    0.4260419  
   0.432978400     0.6933551    0.3185412  
   0.434978300     0.7331394    0.2025940  
   0.436978200     0.7538262    0.0816236  
   0.438978100     0.7549469   -0.0418894  
   0.440978000     0.7356812   -0.1642927  
   0.442977900     0.6966552   -0.2820224  
   0.444977800     0.6388408   -0.3922102  
   0.446977700     0.5634619   -0.4914855  
   0.448977600     0.4729447   -0.5767056  
   0.450977500     0.3694569   -0.6466362  
   0.452977400     0.2557163   -0.6980003  
   0.454977300     0.1342737   -0.7299204  
   0.456977200     0.0089862   -0.7413071  
   0.458977100    -0.1164268   -0.7314667  
   0.460977000    -0.2379114   -0.7008229  
   0.462976900    -0.3517801   -0.6514640  
   0.464976800    -0.4554449   -0.5839205  
   0.466976700    -0.5464349   -0.5005370  
   0.468976600    -0.6219578   -0.4039506  
   0.470976500    -0.6806022   -0.2969048  
   0.472976400    -0.7209529   -0.1824099  
   0.474976300    -0.7421059   -0.0638004  
   0.476976200    -0.7439803    0.0561282  
   0.478976100    -0.7270103    0.1738734  
   0.480976000    -0.6919591    0.2862556  
   0.482975900    -0.6400352    0.3910666  
   0.484975800    -0.5729384    0.4863644  
   0.486975700    -0.4922559    0.5702021  
   0.488975600    -0.3996890    0.6399944  
   0.490975500    -0.2976005    0.6951392  
   0.492975400    -0.1881637    0.7340987  
   0.494975300    -0.0742041    0.7557518  
   0.496975200     0.0419638    0.7596139  
   0.498975100     0.1574346    0.7455687  
   0.500975000     0.2695708    0.7142420  
   0.502974900     0.3754663    0.6661021  
   0.504974800     0.4730929    0.6018489  
   0.506974700     0.5605437    0.5228101  
   0.508974600     0.6353576    0.4300966  
   0.510974500     0.6952270    0.3264820  
   0.512974400     0.7382188    0.2141065  
   0.514974300     0.7629759    0.0963218  
   0.516974200     0.7688692   -0.0240138  
   0.518974100     0.7558322   -0.1441952  
   0.520974000     0.7239755   -0.2612672  
   0.522973900     0.6734811   -0.3718696  
   0.524973800     0.6061507   -0.4734622  
   0.526973700     0.5228502   -0.5637429  
   0.528973600     0.4265817   -0.6391413  
   0.530973500     0.3183541   -0.6989620  
   0.532973400     0.2022330   -0.7400852  
   0.534973300     0.0808830   -0.7624232  
   0.536973200    -0.0430468   -0.7647328  
   0.538973100    -0.1649681   -0.7473232  
   0.540973000    -0.2817796   -0.7103880  
   0.542972900    -0.3913965   -0.6553395  
   0.544972800    -0.4902213   -0.5836381  
   0.546972700    -0.5765356   -0.4968852  
   0.548972600    -0.6479130   -0.3974797  
   0.550972500    -0.7024219   -0.2881810  
   0.552972400    -0.7384300   -0.1715101  
   0.554972300    -0.7553304   -0.0506378  
   0.556972200    -0.7526566    0.0710291  
   0.558972100    -0.7303629    0.1906385  
   0.560972000    -0.6893924    0.3041959  
   0.562971900    -0.6309924    0.4097275  
   0.564971800    -0.5568791    0.5040483  
   0.566971700    -0.4688661    0.5851262  
   0.568971600    -0.3694055    0.6509697  
   0.570971500    -0.2612919    0.7002184  
   0.572971400    -0.1463772    0.7316301  
   0.574971300    -0.0275971    0.7443942  
   0.576971200     0.0923715    0.7380241  
   0.578971100     0.2097010    0.7125273  
   0.580971000     0.3216758    0.6680413  
   0.582970900     0.4248510    0.6065388  
   0.584970800     0.5167308    0.5291536  
   0.586970700     0.5948728    0.4385419  
   0.588970600     0.6578721    0.3359601  
   0.590970500     0.7032230    0.2249914  
   0.592970400     0.7303905    0.1080598  
   0.594970300     0.7383498   -0.0121259  
   0.596970200     0.7268658   -0.1318046  
   0.598970100     0.6963979   -0.2487701  
   0.600970000     0.6473485   -0.3590154  
   0.602969900     0.5811421   -0.4603582  
   0.604969800     0.4994568   -0.5499691  
   0.606969700     0.4041211   -0.6251882  
   0.608969600     0.2981845   -0.6843210  
   0.610969500     0.1838081   -0.7256209  
   0.612969400     0.0645631   -0.7479077  
   0.614969300    -0.0561867   -0.7506388  
   0.616969200    -0.1753654   -0.7345822  
   0.618969100    -0.2893183   -0.6999338  
   0.620969000    -0.3958098   -0.6481283  
   0.622968900    -0.4930525   -0.5807350  
   0.624968800    -0.5786130   -0.4992585  
   0.626968700    -0.6503010   -0.4058987  
   0.628968600    -0.7065776   -0.3024355  
   0.630968500    -0.7467329   -0.1917932  
   0.632968400    -0.7691441   -0.0766805  
   0.634968300    -0.7734606    0.0404047  
   0.636968200    -0.7603194    0.1565153  
   0.638968100    -0.7294908    0.2690033  
   0.640968000    -0.6819539    0.3754550  
   0.642967900    -0.6189436    0.4729902  
   0.644967800    -0.5418193    0.5601757  
   0.646967700    -0.4526772    0.6342657  
   0.648967600    -0.3534013    0.6941631  
   0.650967500    -0.2466938    0.7383959  
   0.652967400    -0.1349799    0.7658818  
   0.654967300    -0.0200939    0.7762468  
   0.656967200     0.0949957    0.7691951  
   0.658967100     0.2080384    0.7447947  
   0.660967000     0.3164456    0.7032210  
   0.662966900     0.4180053    0.6450974  
   0.664966800     0.5101016    0.5717621  
   0.666966700     0.5903888    0.4840431  
   0.668966600     0.6564791    0.3848759  
   0.670966500     0.7063048    0.2755653  
   0.672966400     0.7381468    0.1599376  
   0.674966300     0.7515384    0.0402778  
   0.676966200     0.7460570   -0.0800640  
   0.678966100     0.7208352   -0.1974529  
   0.680966000     0.6773459   -0.3102215  
   0.682965900     0.6166058   -0.4142287  
   0.684965800     0.5397050   -0.5073089  
   0.686965700     0.4487164   -0.5872795  
   0.688965600     0.3460961   -0.6511609  
   0.690965500     0.2347255   -0.6978338  
   0.692965400     0.1172440   -0.7259561  
   0.694965300    -0.0027941   -0.7346731  
   0.696965200    -0.1221521   -0.7239900  
   0.698965100    -0.2383540   -0.6942877  
   0.700965000    -0.3476420   -0.6463510  
   0.702964900    -0.4478411   -0.5818977  
   0.704964800    -0.5359768   -0.5024976  
   0.706964700    -0.6102418   -0.4103077  
   0.708964600    -0.6687718   -0.3078218  
   0.710964500    -0.7101771   -0.1975282  
   0.712964400    -0.7331374   -0.0825893  
   0.714964300    -0.7379758    0.0342797  
   0.716964200    -0.7244965    0.1491576  
   0.718964100    -0.6935138    0.2600638  
   0.720964000    -0.6458809    0.3643824  
   0.722963900    -0.5836905    0.4596971  
   0.724963800    -0.5082990    0.5438502  
   0.726963700    -0.4204607    0.6156290  
   0.728963600    -0.3232446    0.6731211  
   0.730963500    -0.2185814    0.7150594  
   0.732963400    -0.1086734    0.7406548  
   0.734963300     0.0042719    0.7497401  
   0.736963200     0.1355924    0.7378985  
   0.738963100     0.2641676    0.7034851  
   0.740963000     0.3855377    0.6468366  
   0.742962900     0.4955693    0.5691962  
   0.744962800     0.5903639    0.4731835  
   0.746962700     0.6674664    0.3615900  
   0.748962600     0.7233347    0.2376479  
   0.750962500     0.6611870    0.3520863  
   0.752962400     0.7155523    0.2267602  
   0.754962300     0.7462033    0.0935762  
   0.756962200     0.7525351   -0.0432347  
   0.758962100     0.7339069   -0.1791720  
   0.760962000     0.6906275   -0.3097955  
   0.762961900     0.6276411   -0.4248184  
   0.764961800     0.5530285   -0.5190791  
   0.766961700     0.4645619   -0.5997907  
   0.768961600     0.3639364   -0.6659541  
   0.770961500     0.2537581   -0.7148883  
   0.772961400     0.1377320   -0.7456577  
   0.774961300     0.0184632   -0.7577422  
   0.776961200    -0.1014400   -0.7505130  
   0.778961100    -0.2183471   -0.7245366  
   0.780961000    -0.3295682   -0.6799944  
   0.782960900    -0.4322196   -0.6182646  
   0.784960800    -0.5234874   -0.5412230  
   0.786960700    -0.6010189   -0.4505289  
   0.788960600    -0.6628294   -0.3493247  
   0.790960500    -0.7076825   -0.2399904  
   0.792960400    -0.7343879   -0.1253562  
   0.794960300    -0.7425327   -0.0088024  
   0.796960200    -0.7324789    0.1065232  
   0.798960100    -0.7048919    0.2183424  
   0.800960000    -0.6604270    0.3240980  
   0.802959900    -0.6003457    0.4209254  
   0.804959800    -0.5266125    0.5069260  
   0.806959700    -0.4407702    0.5801057  
   0.808959600    -0.3452966    0.6390515  
   0.810959500    -0.2421198    0.6826222  
   0.812959400    -0.1336408    0.7100170  
   0.814959300    -0.0224494    0.7203636  
   0.816959200     0.0891073    0.7135398  
   0.818959100     0.1980798    0.6894544  
   0.820959000     0.3027979    0.6491836  
   0.822958900     0.4001442    0.5932873  
   0.824958800     0.4880500    0.5228149  
   0.826958700     0.5640672    0.4391605  
   0.828958600     0.6267682    0.3444811  
   0.830958500     0.6740872    0.2406930  
   0.832958400     0.7042360    0.1306989  
   0.834958300     0.7176802    0.0168276  
   0.836958200     0.7125075   -0.0978418  
   0.838958100     0.6892801   -0.2105924  
   0.840958000     0.6486780   -0.3187905  
   0.842957900     0.5908722   -0.4195215  
   0.844957800     0.5175939   -0.5104685  
   0.846957700     0.4310761   -0.5882955  
   0.848957600     0.3325919   -0.6519732  
   0.850957500     0.2253725   -0.6985618  
   0.852957400     0.1119346   -0.7280194  
   0.854957300    -0.0046345   -0.7388345  
   0.856957200    -0.1212917   -0.7310927  
   0.858957100    -0.2350132   -0.7047141  
   0.860957000    -0.3423372   -0.6614900  
   0.862956900    -0.4412169   -0.6022986  
   0.864956800    -0.5288784   -0.5289468  
   0.866956700    -0.6038978   -0.4435295  
   0.868956600    -0.6648096   -0.3483330  
   0.870956500    -0.7100530   -0.2455896  
   0.872956400    -0.7388850   -0.1372732  
   0.874956300    -0.7512556   -0.0260811  
   0.876956200    -0.7466260    0.0858189  
   0.878956100    -0.7250409    0.1950912  
   0.880956000    -0.6873006    0.3002442  
   0.882955900    -0.6340112    0.3980160  
   0.884955800    -0.5666970    0.4866519  
   0.886955700    -0.4866455    0.5644732  
   0.888955600    -0.3960167    0.6291429  
   0.890955500    -0.2963054    0.6796621  
   0.892955400    -0.1903592    0.7144864  
   0.894955300    -0.0800317    0.7326585  
