! MS46122B
! 2250307/22442219
! 6/14/2025 10:21:35 AM
! C:\USERS\SPARKY\DOCUMENTS\VNA_DATA\JUNE14_2025\295K\PORT3_MOS1.S1P
! CHANNEL.1
! TR.MEASUREMENT
! RAW.DATA
# GHZ S RI R 50.0
! FREQ.GHZ         S11RE         S11IM         
!; PortSelection: Port_1
   0.001000000    -0.8934890    0.0541179  
   0.002999900    -0.8643981    0.2566172  
   0.004999800    -0.8232170    0.3999916  
   0.006999700    -0.7561206    0.5254831  
   0.008999600    -0.6672206    0.6331909  
   0.010999500    -0.5607472    0.7212418  
   0.012999400    -0.4406382    0.7892175  
   0.014999300    -0.3106172    0.8357794  
   0.016999200    -0.1753457    0.8615639  
   0.018999100    -0.0377928    0.8666009  
   0.020999000     0.0982653    0.8520293  
   0.022998900     0.2300275    0.8184468  
   0.024998800     0.3276096    0.7487428  
   0.026998700     0.4702266    0.6996379  
   0.028998600     0.5741673    0.6168960  
   0.030998500     0.6643150    0.5210587  
   0.032998400     0.7059050    0.4132739  
   0.034998300     0.7971125    0.2960366  
   0.036998200     0.8361621    0.1710945  
   0.038998100     0.8559206    0.0413187  
   0.040998000     0.8548855   -0.0898002  
   0.042997900     0.8332416   -0.2194385  
   0.044997800     0.7699535   -0.3193275  
   0.046997700     0.7297782   -0.4611270  
   0.048997600     0.6513429   -0.5669188  
   0.050997500     0.5574716   -0.6589580  
   0.052997400     0.4522768   -0.7347561  
   0.054997300     0.3349991   -0.7950758  
   0.056997200     0.2111392   -0.8363942  
   0.058997100     0.0834787   -0.8588491  
   0.060997000    -0.0458805   -0.8620102  
   0.062996900    -0.1737673   -0.8460577  
   0.064996800    -0.2978062   -0.8114046  
   0.066996700    -0.4151316   -0.7586462  
   0.068996600    -0.5229298   -0.6887835  
   0.070996500    -0.6187242   -0.6038018  
   0.072996400    -0.7008007   -0.5053563  
   0.074996300    -0.7667822   -0.3957456  
   0.076996200    -0.8154332   -0.2774841  
   0.078996100    -0.8458059   -0.1533000  
   0.080996000    -0.8571998   -0.0258399  
   0.082995900    -0.8495449    0.1018933  
   0.084995800    -0.8223226    0.2271824  
   0.086995700    -0.7768672    0.3471022  
   0.088995600    -0.7136120    0.4590393  
   0.090995500    -0.6339549    0.5604186  
   0.092995400    -0.5394838    0.6486409  
   0.094995300    -0.4326225    0.7215875  
   0.096995200    -0.3150484    0.7776812  
   0.098995100    -0.1900468    0.8148488  
   0.100995000    -0.0602527    0.8318107  
   0.102994900     0.0704953    0.8282508  
   0.104994800     0.1994904    0.8042485  
   0.106994700     0.3233407    0.7599531  
   0.108994600     0.4387623    0.6966197  
   0.110994500     0.5429482    0.6158418  
   0.112994400     0.6327683    0.5194947  
   0.114994300     0.7062187    0.4099149  
   0.116994200     0.7612448    0.2901579  
   0.118994100     0.7966673    0.1633222  
   0.120994000     0.8112837    0.0328090  
   0.122993900     0.8048013   -0.0980328  
   0.124993800     0.7778940   -0.2260356  
   0.126993700     0.7310640   -0.3474498  
   0.128993600     0.6659698   -0.4600908  
   0.130993500     0.5840303   -0.5601515  
   0.132993400     0.4881281   -0.6454758  
   0.134993300     0.3804358   -0.7147478  
   0.136993200     0.2639972   -0.7657436  
   0.138993100     0.1415265   -0.7980331  
   0.140993000     0.0165378   -0.8108800  
   0.142992900    -0.1086860   -0.8044988  
   0.144992800    -0.2304736   -0.7792142  
   0.146992700    -0.3462878   -0.7358651  
   0.148992600    -0.4539045   -0.6759601  
   0.150992500    -0.5507676   -0.6007098  
   0.152992400    -0.6349378   -0.5119079  
   0.154992300    -0.7042465   -0.4125518  
   0.156992200    -0.7580049   -0.3036647  
   0.158992100    -0.7951781   -0.1887594  
   0.160992000    -0.8146301   -0.0695200  
   0.162991900    -0.8164367    0.0506995  
   0.164991800    -0.8003560    0.1699803  
   0.166991700    -0.7668613    0.2852738  
   0.168991600    -0.7168212    0.3943530  
   0.170991500    -0.6510368    0.4953993  
   0.172991400    -0.5710551    0.5851326  
   0.174991300    -0.4786644    0.6620029  
   0.176991200    -0.3752815    0.7250325  
   0.178991100    -0.2633918    0.7718868  
   0.180991000    -0.1457642    0.8018007  
   0.182990900    -0.0246462    0.8135867  
   0.184990800     0.0975173    0.8071942  
   0.186990700     0.2181523    0.7825204  
   0.188990600     0.3114613    0.7487621  
   0.190990500     0.4378373    0.6809945  
   0.192990400     0.5384110    0.6027592  
   0.194990300     0.6236867    0.5121512  
   0.196990200     0.6937936    0.4093768  
   0.198990100     0.7472365    0.2968200  
   0.200990000     0.7830769    0.1767727  
   0.202989900     0.7996588    0.0518750  
   0.204989800     0.7966584   -0.0740895  
   0.206989700     0.7737070   -0.1975119  
   0.208989600     0.7319297   -0.3159043  
   0.210989500     0.6717575   -0.4266821  
   0.212989400     0.5946761   -0.5267940  
   0.214989300     0.5029732   -0.6134413  
   0.216989200     0.3993083   -0.6841207  
   0.218989100     0.2860077   -0.7371763  
   0.220989000     0.1659092   -0.7720453  
   0.222988900     0.0416906   -0.7873843  
   0.224988800    -0.0829177   -0.7828460  
   0.226988700    -0.2048845   -0.7589626  
   0.228988600    -0.3208414   -0.7163340  
   0.230988500    -0.4280262   -0.6563950  
   0.232988400    -0.5244882   -0.5806408  
   0.234988300    -0.6079125   -0.4907696  
   0.236988200    -0.6760262   -0.3891334  
   0.238988100    -0.7271121   -0.2783812  
   0.240988000    -0.7602637   -0.1620170  
   0.242987900    -0.7748183   -0.0424603  
   0.244987800    -0.7708104    0.0772600  
   0.246987700    -0.7482240    0.1951017  
   0.248987600    -0.7077857    0.3085142  
   0.250987500    -0.6502362    0.4137263  
   0.252987400    -0.5774424    0.5087759  
   0.254987300    -0.4914729    0.5908805  
   0.256987200    -0.3939792    0.6586180  
   0.258987100    -0.2873690    0.7106295  
   0.260987000    -0.1736510    0.7457657  
   0.262986900    -0.0556563    0.7631960  
   0.264986800     0.0641502    0.7621538  
   0.266986700     0.1824127    0.7424966  
   0.268986600     0.2957810    0.7049419  
   0.270986500     0.4020579    0.6507996  
   0.272986400     0.4985899    0.5805359  
   0.274986300     0.5832857    0.4961157  
   0.276986200     0.6542879    0.3993421  
   0.278986100     0.7095280    0.2925609  
   0.280986000     0.7480283    0.1777996  
   0.282985900     0.7680947    0.0583094  
   0.284985800     0.7690627   -0.0632966  
   0.286985700     0.7513471   -0.1832588  
   0.288985600     0.7149088   -0.2984788  
   0.290985500     0.6614556   -0.4063372  
   0.292985400     0.5921366   -0.5045145  
   0.294985300     0.5083835   -0.5909261  
   0.296985200     0.4118723   -0.6635070  
   0.298985100     0.3048767   -0.7205179  
   0.300985000     0.1901250   -0.7598166  
   0.302984900     0.0709485   -0.7809541  
   0.304984800    -0.0495029   -0.7836072  
   0.306984700    -0.1685172   -0.7672034  
   0.308984600    -0.2827720   -0.7331131  
   0.310984500    -0.3894931   -0.6824800  
   0.312984400    -0.4870036   -0.6164102  
   0.314984300    -0.5733075   -0.5366607  
   0.316984200    -0.6462041   -0.4450312  
   0.318984100    -0.7043648   -0.3430550  
   0.320984000    -0.7467051   -0.2330446  
   0.322983900    -0.7718817   -0.1179882  
   0.324983800    -0.7790930   -0.0003782  
   0.326983700    -0.7682636    0.1165414  
   0.328983600    -0.7400751    0.2300158  
   0.330983500    -0.6950883    0.3377083  
   0.332983400    -0.6348011    0.4361479  
   0.334983300    -0.5604377    0.5246627  
   0.336983200    -0.4737820    0.6007593  
   0.338983100    -0.3766994    0.6631544  
   0.340983000    -0.2710111    0.7098222  
   0.342982900    -0.1594032    0.7402385  
   0.344982800    -0.0442629    0.7530681  
   0.346982700     0.0727753    0.7483906  
   0.348982600     0.1879860    0.7256002  
   0.350982500     0.2985057    0.6850358  
   0.352982400     0.4017327    0.6276617  
   0.354982300     0.4986399    0.5511738  
   0.356982200     0.5898023    0.4494979  
   0.358982100     0.6605064    0.3334122  
   0.360982000     0.7095100    0.2069530  
   0.362981900     0.7350904    0.0735458  
   0.364981800     0.7359464   -0.0627956  
   0.366981700     0.7123154   -0.1972053  
   0.368981600     0.6644676   -0.3250023  
   0.370981500     0.5939620   -0.4425146  
   0.372981400     0.5031362   -0.5451464  
   0.374981300     0.3945422   -0.6298030  
   0.376981200     0.4764394   -0.5622321  
   0.378981100     0.3650700   -0.6422490  
   0.380981000     0.2410767   -0.7002230  
   0.382980900     0.1207155   -0.7322106  
   0.384980800     0.0021841   -0.7438761  
   0.386980700    -0.1166368   -0.7364899  
   0.388980600    -0.2319437   -0.7106428  
   0.390980500    -0.3410481   -0.6670420  
   0.392980400    -0.4409381   -0.6077986  
   0.394980300    -0.5298072   -0.5346687  
   0.396980200    -0.6059629   -0.4493526  
   0.398980100    -0.6681620   -0.3539376  
   0.400980000    -0.7149817   -0.2504277  
   0.402979900    -0.7454759   -0.1415308  
   0.404979800    -0.7593734   -0.0302791  
   0.406979700    -0.7566534    0.0814508  
   0.408979600    -0.7374109    0.1913150  
   0.410979500    -0.7020743    0.2972653  
   0.412979400    -0.6513386    0.3970671  
   0.414979300    -0.5861304    0.4886143  
   0.416979200    -0.5082929    0.5691058  
   0.418979100    -0.4194649    0.6372147  
   0.420979000    -0.3212384    0.6915454  
   0.422978900    -0.2159144    0.7304675  
   0.424978800    -0.1052106    0.7536876  
   0.426978700     0.0079441    0.7599068  
   0.428978600     0.1211447    0.7487323  
   0.430978500     0.2312579    0.7208040  
   0.432978400     0.3360020    0.6765530  
   0.434978300     0.4328406    0.6169422  
   0.436978200     0.5198926    0.5428170  
   0.438978100     0.5949856    0.4559346  
   0.440978000     0.6559291    0.3580734  
   0.442977900     0.7012244    0.2514446  
   0.444977800     0.7292984    0.1387897  
   0.446977700     0.7395514    0.0225134  
   0.448977600     0.7315429   -0.0941365  
   0.450977500     0.7049214   -0.2081137  
   0.452977400     0.6604140   -0.3172345  
   0.454977300     0.5983225   -0.4188531  
   0.456977200     0.5202900   -0.5092059  
   0.458977100     0.4283328   -0.5859973  
   0.460977000     0.3249811   -0.6467887  
   0.462976900     0.2140120   -0.6897230  
   0.464976800     0.0972897   -0.7141929  
   0.466976700    -0.0217472   -0.7190421  
   0.468976600    -0.1394977   -0.7044235  
   0.470976500    -0.2529473   -0.6713142  
   0.472976400    -0.3591679   -0.6203516  
   0.474976300    -0.4552134   -0.5533330  
   0.476976200    -0.5389059   -0.4722490  
   0.478976100    -0.6079180   -0.3795539  
   0.480976000    -0.6605306   -0.2780282  
   0.482975900    -0.6967930   -0.1703225  
   0.484975800    -0.7154242   -0.0591792  
   0.486975700    -0.7166851    0.0531970  
   0.488975600    -0.7008081    0.1638018  
   0.490975500    -0.6680369    0.2705106  
   0.492975400    -0.6194276    0.3705608  
   0.494975300    -0.5560964    0.4619697  
   0.496975200    -0.4799341    0.5423235  
   0.498975100    -0.3927945    0.6100326  
   0.500975000    -0.2965824    0.6635398  
   0.502974900    -0.1938744    0.7018813  
   0.504974800    -0.0862783    0.7242989  
   0.506974700     0.0241326    0.7301472  
   0.508974600     0.1344402    0.7190208  
   0.510974500     0.2423375    0.6913183  
   0.512974400     0.3448528    0.6471896  
   0.514974300     0.4393605    0.5883316  
   0.516974200     0.5238507    0.5156216  
   0.518974100     0.5964571    0.4309367  
   0.520974000     0.6555641    0.3358272  
   0.522973900     0.6991155    0.2325400  
   0.524973800     0.7268023    0.1236471  
   0.526973700     0.7373922    0.0110055  
   0.528973600     0.7305786   -0.1016725  
   0.530973500     0.7062104   -0.2133518  
   0.532973400     0.6647256   -0.3195934  
   0.534973300     0.6073545   -0.4184349  
   0.536973200     0.5346872   -0.5077278  
   0.538973100     0.4496284   -0.5842066  
   0.540973000     0.3535242   -0.6463510  
   0.542972900     0.2488950   -0.6927711  
   0.544972800     0.1385306   -0.7225643  
   0.546972700     0.0242163   -0.7349592  
   0.548972600    -0.0908962   -0.7289254  
   0.550972500    -0.2032739   -0.7057037  
   0.552972400    -0.3111588   -0.6645189  
   0.554972300    -0.4111852   -0.6069788  
   0.556972200    -0.5004033   -0.5343661  
   0.558972100    -0.5775502   -0.4488196  
   0.560972000    -0.6397520   -0.3523035  
   0.562971900    -0.6859105   -0.2479625  
   0.564971800    -0.7150983   -0.1381673  
   0.566971700    -0.7267407   -0.0254730  
   0.568971600    -0.7205578    0.0870120  
   0.570971500    -0.6970758    0.1969560  
   0.572971400    -0.6569193    0.3019047  
   0.574971300    -0.6007063    0.3995453  
   0.576971200    -0.5297280    0.4871586  
   0.578971100    -0.4458452    0.5626323  
   0.580971000    -0.3512860    0.6239116  
   0.582970900    -0.2484450    0.6695719  
   0.584970800    -0.1399062    0.6984207  
   0.586970700    -0.0284976    0.7100097  
   0.588970600     0.0830734    0.7038601  
   0.590970500     0.1928516    0.6800697  
   0.592970400     0.2970026    0.6393520  
   0.594970300     0.3940116    0.5825997  
   0.596970200     0.4805795    0.5114470  
   0.598970100     0.5550681    0.4266385  
   0.600970000     0.6152586    0.3316429  
   0.602969900     0.6598224    0.2273953  
   0.604969800     0.6870478    0.1170494  
   0.606969700     0.6960887    0.0037807  
   0.608969600     0.6870677   -0.1102122  
   0.610969500     0.6596960   -0.2216588  
   0.612969400     0.6147997   -0.3269368  
   0.614969300     0.5532680   -0.4235654  
   0.616969200     0.4775192   -0.5086072  
   0.618969100     0.3895085   -0.5800570  
   0.620969000     0.2920280   -0.6363906  
   0.622968900     0.1866397   -0.6765896  
   0.624968800     0.0759222   -0.6996650  
   0.626968700    -0.0368967   -0.7046289  
   0.628968600    -0.1488927   -0.6924170  
   0.630968500    -0.2576600   -0.6625479  
   0.632968400    -0.3600540   -0.6161134  
   0.634968300    -0.4537645   -0.5542819  
   0.636968200    -0.5363360   -0.4789205  
   0.638968100    -0.6060550   -0.3917223  
   0.640968000    -0.6614862   -0.2953228  
   0.642967900    -0.7013206   -0.1918447  
   0.644967800    -0.7246321   -0.0838656  
   0.646967700    -0.7310445    0.0261693  
   0.648967600    -0.7210533    0.1353077  
   0.650967500    -0.6947312    0.2409799  
   0.652967400    -0.6530824    0.3412953  
   0.654967300    -0.5971850    0.4341518  
   0.656967200    -0.5280811    0.5171536  
   0.658967100    -0.4477957    0.5888293  
   0.660967000    -0.3573573    0.6480882  
   0.662966900    -0.2587804    0.6935132  
   0.664966800    -0.1534926    0.7235411  
   0.666966700    -0.0445322    0.7373900  
   0.668966600     0.0653638    0.7350547  
   0.670966500     0.1741130    0.7159741  
   0.672966400     0.2786283    0.6800327  
   0.674966300     0.3768967    0.6288375  
   0.676966200     0.4662523    0.5632843  
   0.678966100     0.5446899    0.4847850  
   0.680966000     0.6103590    0.3948937  
   0.682965900     0.6614997    0.2959452  
   0.684965800     0.6968560    0.1900433  
   0.686965700     0.7156025    0.0792643  
   0.688965600     0.7168187   -0.0333615  
   0.690965500     0.7003729   -0.1450904  
   0.692965400     0.6663952   -0.2529080  
   0.694965300     0.6161759   -0.3540344  
   0.696965200     0.5504156   -0.4464425  
   0.698965100     0.4705697   -0.5272644  
   0.700965000     0.3788771   -0.5945029  
   0.702964900     0.2776499   -0.6464445  
   0.704964800     0.1692427   -0.6814286  
   0.706964700     0.0566182   -0.6988617  
   0.708964600    -0.0570053   -0.6979322  
   0.710964500    -0.1692634   -0.6788752  
   0.712964400    -0.2766872   -0.6420398  
   0.714964300    -0.3762329   -0.5886375  
   0.716964200    -0.4658001   -0.5204273  
   0.718964100    -0.5424235   -0.4396164  
   0.720964000    -0.6052939   -0.3483537  
   0.722963900    -0.6526888   -0.2491185  
   0.724963800    -0.6840515   -0.1443045  
   0.726963700    -0.6989739   -0.0363539  
   0.728963600    -0.6967795    0.0719755  
   0.730963500    -0.6780587    0.1786875  
   0.732963400    -0.6436873    0.2806620  
   0.734963300    -0.5941219    0.3758595  
   0.736963200    -0.5189820    0.4743007  
   0.738963100    -0.4275002    0.5580511  
   0.740963000    -0.3221517    0.6251373  
   0.742962900    -0.2066785    0.6726910  
   0.744962800    -0.0844063    0.6998334  
   0.746962700     0.0408845    0.7050576  
   0.748962600     0.1660332    0.6885148  
   0.750962500     0.0416604    0.7076674  
   0.752962400     0.1659505    0.6890368  
   0.754962300     0.2852004    0.6493861  
   0.756962200     0.3961655    0.5894004  
   0.758962100     0.4945803    0.5104666  
   0.760962000     0.5788363    0.4154635  
   0.762961900     0.6419843    0.3126150  
   0.764961800     0.6834394    0.2110195  
   0.766961700     0.7090186    0.1039944  
   0.768961600     0.7174260   -0.0063583  
   0.770961500     0.7090530   -0.1166740  
   0.772961400     0.6836340   -0.2246972  
   0.774961300     0.6420174   -0.3276092  
   0.776961200     0.5840428   -0.4234614  
   0.778961100     0.5120801   -0.5094513  
   0.780961000     0.4269783   -0.5835438  
   0.782960900     0.3311582   -0.6438857  
   0.784960800     0.2262195   -0.6883792  
   0.786960700     0.1155009   -0.7160754  
   0.788960600     0.0014422   -0.7253863  
   0.790960500    -0.1124593   -0.7168224  
   0.792960400    -0.2229859   -0.6900197  
   0.794960300    -0.3280876   -0.6460354  
   0.796960200    -0.4239878   -0.5865394  
   0.798960100    -0.5094137   -0.5128725  
   0.800960000    -0.5815293   -0.4272327  
   0.802959900    -0.6392205   -0.3316336  
   0.804959800    -0.6812499   -0.2290919  
   0.806959700    -0.7063594   -0.1217939  
   0.808959600    -0.7148003   -0.0125435  
   0.810959500    -0.7060758    0.0963055  
   0.812959400    -0.6812133    0.2020398  
   0.814959300    -0.6406047    0.3021014  
   0.816959200    -0.5853840    0.3946990  
   0.818959100    -0.5167181    0.4773690  
   0.820959000    -0.4365140    0.5485104  
   0.822958900    -0.3464533    0.6065276  
   0.824958800    -0.2490176    0.6501949  
   0.826958700    -0.1459656    0.6785606  
   0.828958600    -0.0396998    0.6905044  
   0.830958500     0.0671295    0.6862255  
   0.832958400     0.1721479    0.6657606  
   0.834958300     0.2725814    0.6298578  
   0.836958200     0.3666748    0.5788081  
   0.838958100     0.4515980    0.5136515  
   0.840958000     0.5262850    0.4359873  
   0.842957900     0.5880716    0.3473063  
   0.844957800     0.6356635    0.2495309  
   0.846957700     0.6679053    0.1452802  
   0.848957600     0.6833115    0.0369477  
   0.850957500     0.6812699   -0.0732070  
   0.852957400     0.6621761   -0.1818902  
   0.854957300     0.6257627   -0.2861960  
   0.856957200     0.5729511   -0.3840356  
   0.858957100     0.5056281   -0.4719864  
   0.860957000     0.4250968   -0.5481716  
   0.862956900     0.3339123   -0.6104863  
   0.864956800     0.2344914   -0.6577769  
   0.866956700     0.1293773   -0.6887107  
   0.868956600     0.0205900   -0.7031252  
   0.870956500    -0.0889753   -0.7004201  
   0.872956400    -0.1965464   -0.6807337  
   0.874956300    -0.2998417   -0.6450322  
   0.876956200    -0.3959836   -0.5935342  
   0.878956100    -0.4829975   -0.5282172  
   0.880956000    -0.5587652   -0.4500546  
   0.882955900    -0.6218133   -0.3616575  
   0.884955800    -0.6701205   -0.2650664  
   0.886955700    -0.7035443   -0.1624854  
   0.888955600    -0.7205545   -0.0562310  
   0.890955500    -0.7216884    0.0508770  
   0.892955400    -0.7065567    0.1568497  
   0.894955300    -0.6759459    0.2587454  
