! MS46122B
! 2250307/22442219
! 6/14/2025 10:19:13 AM
! C:\USERS\SPARKY\DOCUMENTS\VNA_DATA\JUNE14_2025\295K\PORT1_MOS5.S1P
! CHANNEL.1
! TR.MEASUREMENT
! RAW.DATA
# GHZ S RI R 50.0
! FREQ.GHZ         S11RE         S11IM         
!; PortSelection: Port_1
   0.001000000    -0.8882110    0.0554387  
   0.002999900    -0.8583855    0.2592860  
   0.004999800    -0.8159475    0.4040336  
   0.006999700    -0.7471032    0.5301090  
   0.008999600    -0.6558422    0.6381331  
   0.010999500    -0.5467430    0.7258034  
   0.012999400    -0.4241778    0.7923547  
   0.014999300    -0.2920390    0.8370690  
   0.016999200    -0.1547638    0.8602624  
   0.018999100    -0.0156266    0.8621475  
   0.020999000     0.1215689    0.8439466  
   0.022998900     0.2535974    0.8063287  
   0.024998800     0.3504040    0.7333182  
   0.026998700     0.4925328    0.6786549  
   0.028998600     0.5945325    0.5915880  
   0.030998500     0.6819322    0.4913273  
   0.032998400     0.7200542    0.3807423  
   0.034998300     0.8065428    0.2584775  
   0.036998200     0.8403304    0.1303528  
   0.038998100     0.8536956   -0.0015910  
   0.040998000     0.8459116   -0.1342476  
   0.042997900     0.8167806   -0.2641052  
   0.044997800     0.7477318   -0.3614662  
   0.046997700     0.6984370   -0.5019621  
   0.048997600     0.6125885   -0.6036906  
   0.050997500     0.5121360   -0.6906776  
   0.052997400     0.4010379   -0.7603139  
   0.054997300     0.2784720   -0.8130328  
   0.056997200     0.1508027   -0.8459103  
   0.058997100     0.0203193   -0.8592793  
   0.060997000    -0.1103204   -0.8526869  
   0.062996900    -0.2382288   -0.8266925  
   0.064996800    -0.3603936   -0.7817045  
   0.066996700    -0.4740574   -0.7186199  
   0.068996600    -0.5768372   -0.6389446  
   0.070996500    -0.6659914   -0.5445922  
   0.072996400    -0.7395623   -0.4379663  
   0.074996300    -0.7958180   -0.3212962  
   0.076996200    -0.8334951   -0.1972721  
   0.078996100    -0.8516271   -0.0689548  
   0.080996000    -0.8501089    0.0605775  
   0.082995900    -0.8287675    0.1885743  
   0.084995800    -0.7878891    0.3121115  
   0.086995700    -0.7285168    0.4277129  
   0.088995600    -0.6518458    0.5335190  
   0.090995500    -0.5597807    0.6261394  
   0.092995400    -0.4539092    0.7032907  
   0.094995300    -0.3368767    0.7635816  
   0.096995200    -0.2113547    0.8050492  
   0.098995100    -0.0807307    0.8255526  
   0.100995000     0.0519955    0.8255309  
   0.102994900     0.1825981    0.8035881  
   0.104994800     0.3089803    0.7612060  
   0.106994700     0.4267741    0.6987599  
   0.108994600     0.5331702    0.6183214  
   0.110994500     0.6251172    0.5215300  
   0.112994400     0.7002473    0.4112834  
   0.114994300     0.7564095    0.2903203  
   0.116994200     0.7923132    0.1620074  
   0.118994100     0.8067814    0.0300029  
   0.120994000     0.7997859   -0.1024225  
   0.122993900     0.7715290   -0.2316610  
   0.124993800     0.7231711   -0.3540892  
   0.126993700     0.6556691   -0.4668110  
   0.128993600     0.5717670   -0.5670639  
   0.130993500     0.4731824   -0.6517852  
   0.132993400     0.3630018   -0.7195207  
   0.134993300     0.2439582   -0.7686955  
   0.136993200     0.1193640   -0.7982602  
   0.138993100    -0.0073889   -0.8077894  
   0.140993000    -0.1335304   -0.7976143  
   0.142992900    -0.2559121   -0.7680956  
   0.144992800    -0.3715813   -0.7202123  
   0.146992700    -0.4779766   -0.6556427  
   0.148992600    -0.5731827   -0.5756937  
   0.150992500    -0.6541728   -0.4825845  
   0.152992400    -0.7200415   -0.3786458  
   0.154992300    -0.7692713   -0.2664472  
   0.156992200    -0.8010951   -0.1481287  
   0.158992100    -0.8146525   -0.0266275  
   0.160992000    -0.8098831    0.0951524  
   0.162991900    -0.7868041    0.2149105  
   0.164991800    -0.7458549    0.3299308  
   0.166991700    -0.6883357    0.4372531  
   0.168991600    -0.6152095    0.5350530  
   0.170991500    -0.5276589    0.6208772  
   0.172991400    -0.4283634    0.6924028  
   0.174991300    -0.3190185    0.7481485  
   0.176991200    -0.2020099    0.7871650  
   0.178991100    -0.0799069    0.8077908  
   0.180991000     0.0441365    0.8094360  
   0.182990900     0.1669870    0.7921319  
   0.184990800     0.2873353    0.7558267  
   0.186990700     0.4006673    0.7009469  
   0.188990600     0.4852464    0.6433374  
   0.190990500     0.5923247    0.5441209  
   0.192990400     0.6713421    0.4406001  
   0.194990300     0.7313254    0.3280868  
   0.196990200     0.7725181    0.2077005  
   0.198990100     0.7945016    0.0820718  
   0.200990000     0.7957541   -0.0459781  
   0.202989900     0.7764952   -0.1731993  
   0.204989800     0.7371888   -0.2956603  
   0.206989700     0.6788110   -0.4096086  
   0.208989600     0.6029026   -0.5127004  
   0.210989500     0.5111485   -0.6026242  
   0.212989400     0.4059567   -0.6765258  
   0.214989300     0.2906858   -0.7321297  
   0.216989200     0.1685025   -0.7681234  
   0.218989100     0.0426650   -0.7841690  
   0.220989000    -0.0838034   -0.7797852  
   0.222988900    -0.2081819   -0.7552134  
   0.224988800    -0.3266527   -0.7106500  
   0.226988700    -0.4357243   -0.6481173  
   0.228988600    -0.5327931   -0.5696538  
   0.230988500    -0.6157728   -0.4771059  
   0.232988400    -0.6829634   -0.3726997  
   0.234988300    -0.7324516   -0.2588654  
   0.236988200    -0.7633560   -0.1389378  
   0.238988100    -0.7747836   -0.0160957  
   0.240988000    -0.7663781    0.1062325  
   0.242987900    -0.7391542    0.2251974  
   0.244987800    -0.6939982    0.3380310  
   0.246987700    -0.6312411    0.4426048  
   0.248987600    -0.5527871    0.5363605  
   0.250987500    -0.4604911    0.6165618  
   0.252987400    -0.3567897    0.6808818  
   0.254987300    -0.2450726    0.7281047  
   0.256987200    -0.1274790    0.7571421  
   0.258987100    -0.0066525    0.7675802  
   0.260987000     0.1146567    0.7589454  
   0.262986900     0.2337810    0.7312452  
   0.264986800     0.3472461    0.6849383  
   0.266986700     0.4523586    0.6214889  
   0.268986600     0.5459517    0.5417833  
   0.270986500     0.6257639    0.4487313  
   0.272986400     0.6898810    0.3443617  
   0.274986300     0.7369871    0.2311180  
   0.276986200     0.7656997    0.1112447  
   0.278986100     0.7750863   -0.0121488  
   0.280986000     0.7648676   -0.1357631  
   0.282985900     0.7352608   -0.2565388  
   0.284985800     0.6861504   -0.3710903  
   0.286985700     0.6198962   -0.4764293  
   0.288985600     0.5383101   -0.5694314  
   0.290985500     0.4431348   -0.6478895  
   0.292985400     0.3372212   -0.7103706  
   0.294985300     0.2226247   -0.7551858  
   0.296985200     0.1022769   -0.7817428  
   0.298985100    -0.0211585   -0.7890454  
   0.300985000    -0.1445634   -0.7763903  
   0.302984900    -0.2637726   -0.7447767  
   0.304984800    -0.3760244   -0.6946082  
   0.306984700    -0.4786670   -0.6279119  
   0.308984600    -0.5688835   -0.5470986  
   0.310984500    -0.6448399   -0.4536829  
   0.312984400    -0.7052898   -0.3497766  
   0.314984300    -0.7491776   -0.2383901  
   0.316984200    -0.7749251   -0.1219633  
   0.318984100    -0.7829394   -0.0018566  
   0.320984000    -0.7718010    0.1179600  
   0.322983900    -0.7424421    0.2349329  
   0.324983800    -0.6951036    0.3457420  
   0.326983700    -0.6312143    0.4474313  
   0.328983600    -0.5524883    0.5380963  
   0.330983500    -0.4604946    0.6153198  
   0.332983400    -0.3589494    0.6769062  
   0.334983300    -0.2485122    0.7219105  
   0.336983200    -0.1325320    0.7492945  
   0.338983100    -0.0135503    0.7584111  
   0.340983000     0.1056427    0.7487757  
   0.342982900     0.2222773    0.7206357  
   0.344982800     0.3332919    0.6741714  
   0.346982700     0.4366546    0.6102507  
   0.348982600     0.5289115    0.5302219  
   0.350982500     0.6074641    0.4363379  
   0.352982400     0.6694921    0.3303567  
   0.354982300     0.7157488    0.2110102  
   0.356982200     0.7426781    0.0720229  
   0.358982100     0.7433119   -0.0689758  
   0.360982000     0.7178333   -0.2076381  
   0.362981900     0.6672751   -0.3388763  
   0.364981800     0.5930740   -0.4589687  
   0.366981700     0.4977321   -0.5632133  
   0.368981600     0.3843934   -0.6479300  
   0.370981500     0.2578762   -0.7099207  
   0.372981400     0.1213889   -0.7473627  
   0.374981300    -0.0197365   -0.7585558  
   0.376981200     0.0895471   -0.7497396  
   0.378981100    -0.0513218   -0.7558382  
   0.380981000    -0.1907581   -0.7358498  
   0.382980900    -0.3120661   -0.6956276  
   0.384980800    -0.4200124   -0.6384560  
   0.386980700    -0.5172354   -0.5651779  
   0.388980600    -0.6009263   -0.4779890  
   0.390980500    -0.6694114   -0.3793308  
   0.392980400    -0.7216653   -0.2721655  
   0.394980300    -0.7557709   -0.1595265  
   0.396980200    -0.7725031   -0.0432601  
   0.398980100    -0.7711086    0.0741506  
   0.400980000    -0.7520439    0.1887774  
   0.402979900    -0.7157460    0.2998515  
   0.404979800    -0.6632655    0.4031109  
   0.406979700    -0.5961011    0.4974056  
   0.408979600    -0.5153737    0.5803053  
   0.410979500    -0.4227972    0.6506953  
   0.412979400    -0.3196173    0.7062970  
   0.414979300    -0.2090405    0.7458310  
   0.416979200    -0.0933450    0.7675553  
   0.418979100     0.0242966    0.7718509  
   0.420979000     0.1419011    0.7576631  
   0.422978900     0.2565458    0.7251530  
   0.424978800     0.3653731    0.6750090  
   0.426978700     0.4655690    0.6079281  
   0.428978600     0.5539474    0.5255250  
   0.430978500     0.6285883    0.4298636  
   0.432978400     0.6870320    0.3234937  
   0.434978300     0.7275727    0.2085520  
   0.436978200     0.7493282    0.0884697  
   0.438978100     0.7514346   -0.0343173  
   0.440978000     0.7335992   -0.1562427  
   0.442977900     0.6959369   -0.2736936  
   0.444977800     0.6396395   -0.3837468  
   0.446977700     0.5655107   -0.4832382  
   0.448977600     0.4764137   -0.5688949  
   0.450977500     0.3741798   -0.6394551  
   0.452977400     0.2614662   -0.6917036  
   0.454977300     0.1410839   -0.7247063  
   0.456977200     0.0163562   -0.7373322  
   0.458977100    -0.1083339   -0.7288374  
   0.460977000    -0.2294668   -0.6995263  
   0.462976900    -0.3431903   -0.6514293  
   0.464976800    -0.4470174   -0.5854305  
   0.466976700    -0.5384687   -0.5034138  
   0.468976600    -0.6146054   -0.4080749  
   0.470976500    -0.6740503   -0.3021054  
   0.472976400    -0.7153755   -0.1885082  
   0.474976300    -0.7377005   -0.0705163  
   0.476976200    -0.7406722    0.0486848  
   0.478976100    -0.7248200    0.1659841  
   0.480976000    -0.6912146    0.2782702  
   0.482975900    -0.6405422    0.3830543  
   0.484975800    -0.5746457    0.4785674  
   0.486975700    -0.4952102    0.5628220  
   0.488975600    -0.4036529    0.6332288  
   0.490975500    -0.3026266    0.6891083  
   0.492975400    -0.1939583    0.7289181  
   0.494975300    -0.0808035    0.7515524  
   0.496975200     0.0348024    0.7563750  
   0.498975100     0.1499025    0.7436239  
   0.500975000     0.2618167    0.7133971  
   0.502974900     0.3677096    0.6665156  
   0.504974800     0.4654842    0.6035024  
   0.506974700     0.5531484    0.5256133  
   0.508974600     0.6285449    0.4340575  
   0.510974500     0.6889370    0.3316184  
   0.512974400     0.7328522    0.2201554  
   0.514974300     0.7587182    0.1032392  
   0.516974200     0.7656971   -0.0165412  
   0.518974100     0.7538218   -0.1361655  
   0.520974000     0.7233714   -0.2531348  
   0.522973900     0.6741796   -0.3636558  
   0.524973800     0.6083006   -0.4654504  
   0.526973700     0.5262224   -0.5560440  
   0.528973600     0.4312009   -0.6320882  
   0.530973500     0.3241050   -0.6927667  
   0.532973400     0.2090844   -0.7348853  
   0.534973300     0.0884070   -0.7583374  
   0.536973200    -0.0349123   -0.7619336  
   0.538973100    -0.1561992   -0.7458878  
   0.540973000    -0.2731155   -0.7103639  
   0.542972900    -0.3827922   -0.6566811  
   0.544972800    -0.4820055   -0.5863227  
   0.546972700    -0.5689124   -0.5008441  
   0.548972600    -0.6410112   -0.4026801  
   0.550972500    -0.6964526   -0.2943575  
   0.552972400    -0.7335751   -0.1785983  
   0.554972300    -0.7516353   -0.0584287  
   0.556972200    -0.7503328    0.0628397  
   0.558972100    -0.7293164    0.1821320  
   0.560972000    -0.6897888    0.2957556  
   0.562971900    -0.6326876    0.4014999  
   0.564971800    -0.5598385    0.4962136  
   0.566971700    -0.4730152    0.5779278  
   0.568971600    -0.3746153    0.6445286  
   0.570971500    -0.2673658    0.6947050  
   0.572971400    -0.1532985    0.7271900  
   0.574971300    -0.0351619    0.7410787  
   0.576971200     0.0846217    0.7360284  
   0.578971100     0.2016771    0.7117488  
   0.580971000     0.3136303    0.6685714  
   0.582970900     0.4172531    0.6082734  
   0.584970800     0.5094129    0.5322475  
   0.586970700     0.5881784    0.4427387  
   0.588970600     0.6518968    0.3411072  
   0.590970500     0.6981807    0.2312190  
   0.592970400     0.7264814    0.1147912  
   0.594970300     0.7356168   -0.0049825  
   0.596970200     0.7253407   -0.1241076  
   0.598970100     0.6960768   -0.2410737  
   0.600970000     0.6483262   -0.3514225  
   0.602969900     0.5832967   -0.4531617  
   0.604969800     0.5027388   -0.5430536  
   0.606969700     0.4085015   -0.6189284  
   0.608969600     0.3034694   -0.6788858  
   0.610969500     0.1897792   -0.7212483  
   0.612969400     0.0712079   -0.7444865  
   0.614969300    -0.0491903   -0.7484132  
   0.616969200    -0.1680463   -0.7335382  
   0.618969100    -0.2820610   -0.6999208  
   0.620969000    -0.3886403   -0.6494026  
   0.622968900    -0.4862552   -0.5829758  
   0.624968800    -0.5723060   -0.5025078  
   0.626968700    -0.6446882   -0.4100235  
   0.628968600    -0.7017071   -0.3074399  
   0.630968500    -0.7426776   -0.1974485  
   0.632968400    -0.7660120   -0.0827864  
   0.634968300    -0.7713802    0.0339085  
   0.636968200    -0.7592165    0.1498799  
   0.638968100    -0.7294602    0.2621844  
   0.640968000    -0.6828038    0.3688010  
   0.642967900    -0.6208649    0.4666644  
   0.644967800    -0.5446408    0.5542234  
   0.646967700    -0.4564020    0.6288773  
   0.648967600    -0.3578845    0.6893821  
   0.650967500    -0.2518306    0.7343609  
   0.652967400    -0.1406018    0.7626639  
   0.654967300    -0.0259997    0.7740077  
   0.656967200     0.0886276    0.7679030  
   0.658967100     0.2016047    0.7444044  
   0.660967000     0.3100270    0.7037928  
   0.662966900     0.4117549    0.6466200  
   0.664966800     0.5041518    0.5741938  
   0.666966700     0.5849277    0.4871689  
   0.668966600     0.6516305    0.3889072  
   0.670966500     0.7022097    0.2805265  
   0.672966400     0.7349366    0.1654232  
   0.674966300     0.7491910    0.0463193  
   0.676966200     0.7446540   -0.0736902  
   0.678966100     0.7204500   -0.1910498  
   0.680966000     0.6780809   -0.3038448  
   0.682965900     0.6183037   -0.4080222  
   0.684965800     0.5423661   -0.5013962  
   0.686965700     0.4522328   -0.5819582  
   0.688965600     0.3503928   -0.6464934  
   0.690965500     0.2396548   -0.6939645  
   0.692965400     0.1227985   -0.7229176  
   0.694965300     0.0030950   -0.7325388  
   0.696965200    -0.1160046   -0.7228785  
   0.698965100    -0.2320886   -0.6942155  
   0.700965000    -0.3415888   -0.6472003  
   0.702964900    -0.4419240   -0.5836933  
   0.704964800    -0.5305688   -0.5051820  
   0.706964700    -0.6054510   -0.4136973  
   0.708964600    -0.6645013   -0.3119197  
   0.710964500    -0.7066417   -0.2021663  
   0.712964400    -0.7303869   -0.0876945  
   0.714964300    -0.7360775    0.0286870  
   0.716964200    -0.7235442    0.1435906  
   0.718964100    -0.6934143    0.2544618  
   0.720964000    -0.6466879    0.3588860  
   0.722963900    -0.5852305    0.4545284  
   0.724963800    -0.5107254    0.5388364  
   0.726963700    -0.4236110    0.6112207  
   0.728963600    -0.3266359    0.6694228  
   0.730963500    -0.2226077    0.7118438  
   0.732963400    -0.1128408    0.7383772  
   0.734963300    -0.0005074    0.7479842  
   0.736963200     0.1307390    0.7371016  
   0.738963100     0.2593129    0.7034367  
   0.740963000     0.3807721    0.6475945  
   0.742962900     0.4910789    0.5709038  
   0.744962800     0.5862995    0.4755825  
   0.746962700     0.6639206    0.3647541  
   0.748962600     0.7204147    0.2413917  
   0.750962500     0.6579065    0.3551282  
   0.752962400     0.7127733    0.2304460  
   0.754962300     0.7441553    0.0976585  
   0.756962200     0.7512169   -0.0388731  
   0.758962100     0.7334372   -0.1746608  
   0.760962000     0.6910167   -0.3052847  
   0.762961900     0.6288353   -0.4204141  
   0.764961800     0.5549147   -0.5149095  
   0.766961700     0.4670748   -0.5959988  
   0.768961600     0.3670222   -0.6626302  
   0.770961500     0.2573293   -0.7120804  
   0.772961400     0.1416949   -0.7434664  
   0.774961300     0.0226496   -0.7563054  
   0.776961200    -0.0970117   -0.7497708  
   0.778961100    -0.2139350   -0.7244837  
   0.780961000    -0.3252089   -0.6806470  
   0.782960900    -0.4280878   -0.6195768  
   0.784960800    -0.5196043   -0.5432693  
   0.786960700    -0.5975802   -0.4530694  
   0.788960600    -0.6599198   -0.3522020  
   0.790960500    -0.7052423   -0.2433534  
   0.792960400    -0.7325251   -0.1289838  
   0.794960300    -0.7412658   -0.0126323  
   0.796960200    -0.7317936    0.1026054  
   0.798960100    -0.7048191    0.2143940  
   0.800960000    -0.6609671    0.3202594  
   0.802959900    -0.6014460    0.4171962  
   0.804959800    -0.5281002    0.5035363  
   0.806959700    -0.4429603    0.5769118  
   0.808959600    -0.3478166    0.6362751  
   0.810959500    -0.2449599    0.6802512  
   0.812959400    -0.1367734    0.7081349  
   0.814959300    -0.0257905    0.7190404  
   0.816959200     0.0856721    0.7126825  
   0.818959100     0.1945680    0.6891302  
   0.820959000     0.2993891    0.6494645  
   0.822958900     0.3967769    0.5941077  
   0.824958800     0.4848590    0.5241348  
   0.826958700     0.5611174    0.4409545  
   0.828958600     0.6241574    0.3466775  
   0.830958500     0.6718318    0.2432447  
   0.832958400     0.7025596    0.1334183  
   0.834958300     0.7160192    0.0199351  
   0.836958200     0.7117215   -0.0946915  
   0.838958100     0.6889347   -0.2072833  
   0.840958000     0.6489019   -0.3156072  
   0.842957900     0.5916223   -0.4164411  
   0.844957800     0.5189195   -0.5073093  
   0.846957700     0.4327186   -0.5856180  
   0.848957600     0.3347516   -0.6495714  
   0.850957500     0.2277222   -0.6966812  
   0.852957400     0.1146949   -0.7263815  
   0.854957300    -0.0017783   -0.7377062  
   0.856957200    -0.1183116   -0.7304680  
   0.858957100    -0.2320291   -0.7045806  
   0.860957000    -0.3393437   -0.6617913  
   0.862956900    -0.4384016   -0.6030206  
   0.864956800    -0.5262832   -0.5300143  
   0.866956700    -0.6015314   -0.4450319  
   0.868956600    -0.6627496   -0.3500411  
   0.870956500    -0.7082921   -0.2474999  
   0.872956400    -0.7374715   -0.1394604  
   0.874956300    -0.7502344   -0.0283078  
   0.876956200    -0.7459635    0.0834519  
   0.878956100    -0.7246941    0.1927975  
   0.880956000    -0.6873505    0.2980471  
   0.882955900    -0.6343305    0.3957940  
   0.884955800    -0.5673450    0.4845882  
   0.886955700    -0.4875229    0.5625764  
   0.888955600    -0.3971366    0.6273788  
   0.890955500    -0.2975187    0.6781033  
   0.892955400    -0.1916963    0.7130727  
   0.894955300    -0.0814913    0.7316635  
