! MS46122B
! 2250307/22442219
! 6/13/2025 8:46:15 AM
! C:\USERS\SPARKY\DOCUMENTS\VNA_DATA\JUNE13_2025\PORT4_MOS3.S1P
! CHANNEL.1
! TR.MEASUREMENT
! RAW.DATA
# GHZ S RI R 50.0
! FREQ.GHZ         S11RE         S11IM         
!; PortSelection: Port_1
   0.001000000    -0.8948966    0.0543856  
   0.002999900    -0.8653013    0.2581320  
   0.004999800    -0.8236867    0.4022020  
   0.006999700    -0.7556806    0.5287180  
   0.008999600    -0.6657690    0.6367277  
   0.010999500    -0.5579349    0.7251492  
   0.012999400    -0.4366809    0.7929190  
   0.014999300    -0.3051932    0.8391294  
   0.016999200    -0.1686718    0.8641285  
   0.018999100    -0.0300521    0.8680573  
   0.020999000     0.1069412    0.8522371  
   0.022998900     0.2393240    0.8170559  
   0.024998800     0.3368003    0.7459179  
   0.026998700     0.4799268    0.6945996  
   0.028998600     0.5834751    0.6101361  
   0.030998500     0.6730902    0.5123572  
   0.032998400     0.7133902    0.4033667  
   0.034998300     0.8034523    0.2836763  
   0.036998200     0.8407289    0.1571613  
   0.038998100     0.8582631    0.0261626  
   0.040998000     0.8549545   -0.1061833  
   0.042997900     0.8303593   -0.2364590  
   0.044997800     0.7648539   -0.3355800  
   0.046997700     0.7213063   -0.4774519  
   0.048997600     0.6399590   -0.5822337  
   0.050997500     0.5432759   -0.6728506  
   0.052997400     0.4356753   -0.7467282  
   0.054997300     0.3158872   -0.8044738  
   0.056997200     0.1902602   -0.8430411  
   0.058997100     0.0610816   -0.8623214  
   0.060997000    -0.0693078   -0.8620127  
   0.062996900    -0.1976996   -0.8424835  
   0.064996800    -0.3215518   -0.8039275  
   0.066996700    -0.4380075   -0.7472681  
   0.068996600    -0.5445046   -0.6735663  
   0.070996500    -0.6382732   -0.5849150  
   0.072996400    -0.7176644   -0.4831020  
   0.074996300    -0.7804741   -0.3705617  
   0.076996200    -0.8255084   -0.2496010  
   0.078996100    -0.8516034   -0.1235792  
   0.080996000    -0.8584543    0.0053039  
   0.082995900    -0.8457847    0.1338191  
   0.084995800    -0.8136173    0.2588411  
   0.086995700    -0.7629446    0.3778856  
   0.088995600    -0.6945019    0.4881778  
   0.090995500    -0.6101002    0.5869343  
   0.092995400    -0.5111742    0.6717607  
   0.094995300    -0.4000082    0.7405022  
   0.096995200    -0.2794178    0.7914621  
   0.098995100    -0.1514186    0.8230950  
   0.100995000    -0.0199092    0.8340036  
   0.102994900     0.1116610    0.8239707  
   0.104994800     0.2401471    0.7932356  
   0.106994700     0.3630129    0.7421162  
   0.108994600     0.4758489    0.6724456  
   0.110994500     0.5761291    0.5854120  
   0.112994400     0.6612707    0.4832172  
   0.114994300     0.7289909    0.3690176  
   0.116994200     0.7774297    0.2453875  
   0.118994100     0.8056437    0.1157746  
   0.120994000     0.8124253   -0.0163476  
   0.122993900     0.7980590   -0.1474412  
   0.124993800     0.7632392   -0.2743172  
   0.126993700     0.7084976   -0.3935337  
   0.128993600     0.6362813   -0.5022115  
   0.130993500     0.5476401   -0.5975049  
   0.132993400     0.4457970   -0.6770844  
   0.134993300     0.3333129   -0.7394233  
   0.136993200     0.2131117   -0.7831079  
   0.138993100     0.0880957   -0.8073279  
   0.140993000    -0.0383609   -0.8118458  
   0.142992900    -0.1631240   -0.7970499  
   0.144992800    -0.2835571   -0.7633745  
   0.146992700    -0.3971262   -0.7118942  
   0.148992600    -0.5008175   -0.6442011  
   0.150992500    -0.5926874   -0.5621819  
   0.152992400    -0.6707280   -0.4672042  
   0.154992300    -0.7334471   -0.3621346  
   0.156992200    -0.7793910   -0.2492712  
   0.158992100    -0.8084181   -0.1310620  
   0.160992000    -0.8192798   -0.0101122  
   0.162991900    -0.8123066    0.1108943  
   0.164991800    -0.7869457    0.2295323  
   0.166991700    -0.7445658    0.3430688  
   0.168991600    -0.6856626    0.4488023  
   0.170991500    -0.6117665    0.5452205  
   0.172991400    -0.5240789    0.6291758  
   0.174991300    -0.4249148    0.6993120  
   0.176991200    -0.3156201    0.7541385  
   0.178991100    -0.1989485    0.7923290  
   0.180991000    -0.0783022    0.8122483  
   0.182990900     0.0445833    0.8138183  
   0.184990800     0.1675640    0.7965266  
   0.186990700     0.2866808    0.7609990  
   0.188990600     0.3780158    0.7182698  
   0.190990500     0.4988394    0.6386620  
   0.192990400     0.5927540    0.5503777  
   0.194990300     0.6699117    0.4510148  
   0.196990200     0.7306034    0.3407579  
   0.198990100     0.7734270    0.2222190  
   0.200990000     0.7973568    0.0979115  
   0.202989900     0.8013071   -0.0293232  
   0.204989800     0.7850589   -0.1557997  
   0.206989700     0.7493671   -0.2774554  
   0.208989600     0.6948081   -0.3919392  
   0.210989500     0.6223804   -0.4967209  
   0.212989400     0.5340361   -0.5889832  
   0.214989300     0.4326444   -0.6655851  
   0.216989200     0.3208109   -0.7248177  
   0.218989100     0.2012600   -0.7651818  
   0.220989000     0.0769101   -0.7863789  
   0.222988900    -0.0492147   -0.7874597  
   0.224988800    -0.1734729   -0.7686980  
   0.226988700    -0.2926892   -0.7301400  
   0.228988600    -0.4035682   -0.6739642  
   0.230988500    -0.5038401   -0.6012983  
   0.232988400    -0.5911264   -0.5137863  
   0.234988300    -0.6636991   -0.4137549  
   0.236988200    -0.7192822   -0.3037005  
   0.238988100    -0.7569243   -0.1867097  
   0.240988000    -0.7756069   -0.0663680  
   0.242987900    -0.7750478    0.0548587  
   0.244987800    -0.7560521    0.1741774  
   0.246987700    -0.7184718    0.2893596  
   0.248987600    -0.6635242    0.3975014  
   0.250987500    -0.5924193    0.4957254  
   0.252987400    -0.5071430    0.5811600  
   0.254987300    -0.4101352    0.6521910  
   0.256987200    -0.3036461    0.7070147  
   0.258987100    -0.1899836    0.7450827  
   0.260987000    -0.0714131    0.7650939  
   0.262986900     0.0494177    0.7663358  
   0.264986800     0.1691560    0.7490752  
   0.266986700     0.2850082    0.7130004  
   0.268986600     0.3935120    0.6596741  
   0.270986500     0.4924076    0.5902544  
   0.272986400     0.5794050    0.5062777  
   0.274986300     0.6522475    0.4094539  
   0.276986200     0.7091917    0.3024658  
   0.278986100     0.7493702    0.1872446  
   0.280986000     0.7710105    0.0667354  
   0.282985900     0.7732095   -0.0560015  
   0.284985800     0.7563551   -0.1776437  
   0.286985700     0.7204517   -0.2951730  
   0.288985600     0.6665985   -0.4050026  
   0.290985500     0.5967726   -0.5046448  
   0.292985400     0.5123395   -0.5921759  
   0.294985300     0.4153755   -0.6655172  
   0.296985200     0.3077789   -0.7231940  
   0.298985100     0.1921281   -0.7631282  
   0.300985000     0.0713321   -0.7846092  
   0.302984900    -0.0505956   -0.7870938  
   0.304984800    -0.1712174   -0.7702225  
   0.306984700    -0.2874812   -0.7350976  
   0.308984600    -0.3956400   -0.6828551  
   0.310984500    -0.4938844   -0.6152420  
   0.312984400    -0.5804814   -0.5337890  
   0.314984300    -0.6530140   -0.4403463  
   0.316984200    -0.7107641   -0.3371392  
   0.318984100    -0.7521708   -0.2261065  
   0.320984000    -0.7761872   -0.1095620  
   0.322983900    -0.7820348    0.0098295  
   0.324983800    -0.7694982    0.1278560  
   0.326983700    -0.7390974    0.2425045  
   0.328983600    -0.6917349    0.3508438  
   0.330983500    -0.6282112    0.4502575  
   0.332983400    -0.5512050    0.5382742  
   0.334983300    -0.4614035    0.6137334  
   0.336983200    -0.3619068    0.6744378  
   0.338983100    -0.2534789    0.7192227  
   0.340983000    -0.1397576    0.7470595  
   0.342982900    -0.0231038    0.7569720  
   0.344982800     0.0944848    0.7489055  
   0.346982700     0.2105306    0.7225434  
   0.348982600     0.3212266    0.6780980  
   0.350982500     0.4239802    0.6167371  
   0.352982400     0.5161367    0.5396994  
   0.354982300     0.5980725    0.4446968  
   0.356982200     0.6688062    0.3257596  
   0.358982100     0.7166744    0.1962450  
   0.360982000     0.7404822    0.0604040  
   0.362981900     0.7390674   -0.0774532  
   0.364981800     0.7122990   -0.2134625  
   0.366981700     0.6612110   -0.3419349  
   0.368981600     0.5872200   -0.4594037  
   0.370981500     0.4930312   -0.5612115  
   0.372981400     0.3810870   -0.6440927  
   0.374981300     0.2559693   -0.7048544  
   0.376981200     0.3513688   -0.6563637  
   0.378981100     0.2244938   -0.7120827  
   0.380981000     0.0893001   -0.7431928  
   0.382980900    -0.0365288   -0.7495728  
   0.384980800    -0.1563774   -0.7360579  
   0.386980700    -0.2717625   -0.7037843  
   0.388980600    -0.3805017   -0.6533699  
   0.390980500    -0.4791036   -0.5873930  
   0.392980400    -0.5649153   -0.5079079  
   0.394980300    -0.6371966   -0.4165874  
   0.396980200    -0.6946129   -0.3159974  
   0.398980100    -0.7354609   -0.2083226  
   0.400980000    -0.7596611   -0.0962717  
   0.402979900    -0.7664315    0.0178707  
   0.404979800    -0.7563382    0.1309802  
   0.406979700    -0.7294258    0.2413375  
   0.408979600    -0.6866847    0.3455539  
   0.410979500    -0.6285070    0.4430430  
   0.412979400    -0.5561537    0.5311046  
   0.414979300    -0.4716730    0.6073734  
   0.416979200    -0.3760355    0.6702785  
   0.418979100    -0.2725883    0.7181929  
   0.420979000    -0.1627109    0.7495601  
   0.422978900    -0.0488101    0.7645356  
   0.424978800     0.0667019    0.7620134  
   0.426978700     0.1810203    0.7416165  
   0.428978600     0.2908675    0.7039661  
   0.430978500     0.3940344    0.6499079  
   0.432978400     0.4876420    0.5804495  
   0.434978300     0.5695437    0.4972806  
   0.436978200     0.6377295    0.4018913  
   0.438978100     0.6905379    0.2963394  
   0.440978000     0.7263409    0.1834714  
   0.442977900     0.7437994    0.0661208  
   0.444977800     0.7422886   -0.0531380  
   0.446977700     0.7219036   -0.1710666  
   0.448977600     0.6829409   -0.2840771  
   0.450977500     0.6259780   -0.3895352  
   0.452977400     0.5521562   -0.4850309  
   0.454977300     0.4632795   -0.5683451  
   0.456977200     0.3617835   -0.6354929  
   0.458977100     0.2501407   -0.6854277  
   0.460977000     0.1321956   -0.7160552  
   0.462976900     0.0114347   -0.7268931  
   0.464976800    -0.1093693   -0.7175973  
   0.466976700    -0.2265809   -0.6888250  
   0.468976600    -0.3371985   -0.6417539  
   0.470976500    -0.4382963   -0.5774273  
   0.472976400    -0.5269634   -0.4976184  
   0.474976300    -0.6013246   -0.4052908  
   0.476976200    -0.6591893   -0.3030377  
   0.478976100    -0.7000104   -0.1937916  
   0.480976000    -0.7226493   -0.0802534  
   0.482975900    -0.7271547    0.0344208  
   0.484975800    -0.7139160    0.1476292  
   0.486975700    -0.6834354    0.2570312  
   0.488975600    -0.6364748    0.3601989  
   0.490975500    -0.5744725    0.4546198  
   0.492975400    -0.4989852    0.5383400  
   0.494975300    -0.4116469    0.6095352  
   0.496975200    -0.3145606    0.6663168  
   0.498975100    -0.2101366    0.7077748  
   0.500975000    -0.1009201    0.7327122  
   0.502974900     0.0105837    0.7407514  
   0.504974800     0.1224524    0.7319406  
   0.506974700     0.2324536    0.7060336  
   0.508974600     0.3376565    0.6632391  
   0.510974500     0.4354436    0.6046474  
   0.512974400     0.5234323    0.5313987  
   0.514974300     0.5990154    0.4456888  
   0.516974200     0.6609339    0.3491922  
   0.518974100     0.7069920    0.2440099  
   0.520974000     0.7365788    0.1326084  
   0.522973900     0.7484688    0.0180436  
   0.524973800     0.7424754   -0.0976007  
   0.526973700     0.7184107   -0.2118686  
   0.528973600     0.6768672   -0.3205773  
   0.530973500     0.6183801   -0.4225545  
   0.532973400     0.5442478   -0.5140131  
   0.534973300     0.4570142   -0.5928203  
   0.536973200     0.3573010   -0.6570426  
   0.538973100     0.2495032   -0.7045206  
   0.540973000     0.1360536   -0.7343474  
   0.542972900     0.0189212   -0.7460651  
   0.544972800    -0.0983199   -0.7389134  
   0.546972700    -0.2134720   -0.7137521  
   0.548972600    -0.3231378   -0.6704135  
   0.550972500    -0.4243885   -0.6103430  
   0.552972400    -0.5152444   -0.5348012  
   0.554972300    -0.5927970   -0.4459271  
   0.556972200    -0.6550454   -0.3459551  
   0.558972100    -0.7006363   -0.2375759  
   0.560972000    -0.7282669   -0.1236490  
   0.562971900    -0.7375394   -0.0073156  
   0.564971800    -0.7283009    0.1081928  
   0.566971700    -0.7011431    0.2204715  
   0.568971600    -0.6567600    0.3268362  
   0.570971500    -0.5966061    0.4248000  
   0.572971400    -0.5214856    0.5118213  
   0.574971300    -0.4337190    0.5861428  
   0.576971200    -0.3348274    0.6457983  
   0.578971100    -0.2277449    0.6891953  
   0.580971000    -0.1150664    0.7149571  
   0.582970900     0.0002215    0.7225710  
   0.584970800     0.1148122    0.7117580  
   0.586970700     0.2261051    0.6830307  
   0.588970600     0.3313880    0.6368493  
   0.590970500     0.4281738    0.5745886  
   0.592970400     0.5139863    0.4977033  
   0.594970300     0.5866098    0.4076065  
   0.596970200     0.6437486    0.3075267  
   0.598970100     0.6844494    0.1990657  
   0.600970000     0.7071273    0.0852184  
   0.602969900     0.7111667   -0.0311425  
   0.604969800     0.6965570   -0.1470657  
   0.606969700     0.6636094   -0.2591705  
   0.608969600     0.6126404   -0.3650705  
   0.610969500     0.5452473   -0.4613343  
   0.612969400     0.4628914   -0.5451093  
   0.614969300     0.3686986   -0.6145455  
   0.616969200     0.2648260   -0.6679696  
   0.618969100     0.1544966   -0.7036312  
   0.620969000     0.0406031   -0.7210596  
   0.622968900    -0.0747607   -0.7204673  
   0.624968800    -0.1882787   -0.7020999  
   0.626968700    -0.2975085   -0.6660056  
   0.628968600    -0.3998323   -0.6132476  
   0.630968500    -0.4926167   -0.5455582  
   0.632968400    -0.5732836   -0.4643735  
   0.634968300    -0.6402730   -0.3717605  
   0.636968200    -0.6918035   -0.2701509  
   0.638968100    -0.7271294   -0.1623805  
   0.640968000    -0.7457781   -0.0506101  
   0.642967900    -0.7468044    0.0625416  
   0.644967800    -0.7307063    0.1739602  
   0.646967700    -0.6980661    0.2814293  
   0.648967600    -0.6497406    0.3823295  
   0.650967500    -0.5870022    0.4745305  
   0.652967400    -0.5118379    0.5559874  
   0.654967300    -0.4249517    0.6250294  
   0.656967200    -0.3293260    0.6807898  
   0.658967100    -0.2264457    0.7213566  
   0.660967000    -0.1180615    0.7460443  
   0.662966900    -0.0067410    0.7540116  
   0.664966800     0.1054841    0.7455456  
   0.666966700     0.2159243    0.7197467  
   0.668966600     0.3211952    0.6774535  
   0.670966500     0.4191875    0.6191919  
   0.672966400     0.5070519    0.5462103  
   0.674966300     0.5830149    0.4602783  
   0.676966200     0.6449465    0.3637118  
   0.678966100     0.6912586    0.2588708  
   0.680966000     0.7206867    0.1472821  
   0.682965900     0.7324700    0.0326979  
   0.684965800     0.7259569   -0.0828609  
   0.686965700     0.7010590   -0.1961766  
   0.688965600     0.6586797   -0.3045957  
   0.690965500     0.5998175   -0.4048503  
   0.692965400     0.5256770   -0.4947288  
   0.694965300     0.4379770   -0.5715238  
   0.696965200     0.3391152   -0.6335283  
   0.698965100     0.2317684   -0.6785561  
   0.700965000     0.1184021   -0.7060533  
   0.702964900     0.0023050   -0.7151195  
   0.704964800    -0.1136835   -0.7053356  
   0.706964700    -0.2263730   -0.6772253  
   0.708964600    -0.3330042   -0.6315198  
   0.710964500    -0.4308265   -0.5695258  
   0.712964400    -0.5168540   -0.4926958  
   0.714964300    -0.5891846   -0.4034117  
   0.716964200    -0.6463386   -0.3046554  
   0.718964100    -0.6867562   -0.1988031  
   0.720964000    -0.7100468   -0.0889541  
   0.722963900    -0.7161337    0.0225669  
   0.724963800    -0.7050330    0.1332037  
   0.726963700    -0.6771313    0.2401600  
   0.728963600    -0.6333073    0.3415456  
   0.730963500    -0.5748525    0.4345251  
   0.732963400    -0.5030122    0.5175535  
   0.734963300    -0.4195853    0.5882712  
   0.736963200    -0.3102199    0.6529101  
   0.738963100    -0.1906414    0.6979870  
   0.740963000    -0.0644673    0.7215490  
   0.742962900     0.0641098    0.7225884  
   0.744962800     0.1914011    0.7013837  
   0.746962700     0.3136387    0.6582626  
   0.748962600     0.4269947    0.5939483  
   0.750962500     0.3127190    0.6560775  
   0.752962400     0.4248390    0.5903880  
   0.754962300     0.5239380    0.5058719  
   0.756962200     0.6066883    0.4047464  
   0.758962100     0.6707698    0.2903033  
   0.760962000     0.7138978    0.1661314  
   0.762961900     0.7333959    0.0423466  
   0.764961800     0.7320156   -0.0717465  
   0.766961700     0.7131697   -0.1845729  
   0.768961600     0.6765518   -0.2938843  
   0.770961500     0.6234055   -0.3956943  
   0.772961400     0.5548076   -0.4885988  
   0.774961300     0.4725271   -0.5692934  
   0.776961200     0.3779522   -0.6364405  
   0.778961100     0.2739590   -0.6881624  
   0.780961000     0.1627831   -0.7229977  
   0.782960900     0.0468889   -0.7395704  
   0.784960800    -0.0700854   -0.7375899  
   0.786960700    -0.1856826   -0.7169264  
   0.788960600    -0.2961029   -0.6782420  
   0.790960500    -0.3985762   -0.6224769  
   0.792960400    -0.4904788   -0.5513976  
   0.794960300    -0.5697976   -0.4669196  
   0.796960200    -0.6342757   -0.3713758  
   0.798960100    -0.6825613   -0.2679709  
   0.800960000    -0.7142285   -0.1587709  
   0.802959900    -0.7279829   -0.0463378  
   0.804959800    -0.7242892    0.0658605  
   0.806959700    -0.7034330    0.1758803  
   0.808959600    -0.6662440    0.2804362  
   0.810959500    -0.6133887    0.3776344  
   0.812959400    -0.5469391    0.4655666  
   0.814959300    -0.4678812    0.5417252  
   0.816959200    -0.3785448    0.6047959  
   0.818959100    -0.2804844    0.6534630  
   0.820959000    -0.1764337    0.6867248  
   0.822958900    -0.0682278    0.7035822  
   0.824958800     0.0412162    0.7039425  
   0.826958700     0.1492751    0.6871523  
   0.828958600     0.2540041    0.6541328  
   0.830958500     0.3523040    0.6057047  
   0.832958400     0.4423523    0.5421844  
   0.834958300     0.5215144    0.4657758  
   0.836958200     0.5882202    0.3777950  
   0.838958100     0.6407750    0.2801759  
   0.840958000     0.6773158    0.1750351  
   0.842957900     0.6976497    0.0649502  
   0.844957800     0.7001720   -0.0473584  
   0.846957700     0.6848366   -0.1590894  
   0.848957600     0.6521674   -0.2675192  
   0.850957500     0.6023976   -0.3696511  
   0.852957400     0.5367451   -0.4629813  
   0.854957300     0.4573542   -0.5444439  
   0.856957200     0.3656497   -0.6127995  
   0.858957100     0.2642337   -0.6652337  
   0.860957000     0.1561570   -0.7010061  
   0.862956900     0.0442144   -0.7192609  
   0.864956800    -0.0685754   -0.7199700  
   0.866956700    -0.1798773   -0.7029134  
   0.868956600    -0.2863356   -0.6692844  
   0.870956500    -0.3863606   -0.6198702  
   0.872956400    -0.4772018   -0.5555850  
   0.874956300    -0.5571139   -0.4783347  
   0.876956200    -0.6240916   -0.3897522  
   0.878956100    -0.6766247   -0.2925709  
   0.880956000    -0.7136282   -0.1882294  
   0.882955900    -0.7344157   -0.0802051  
   0.884955800    -0.7385767    0.0295640  
   0.886955700    -0.7261298    0.1386411  
   0.888955600    -0.6975064    0.2442371  
   0.890955500    -0.6532172    0.3442222  
   0.892955400    -0.5948451    0.4360524  
   0.894955300    -0.5230668    0.5185708  
