! MS46122B
! 2250307/22442219
! 6/14/2025 10:22:54 AM
! C:\USERS\SPARKY\DOCUMENTS\VNA_DATA\JUNE14_2025\295K\PORT4_MOS2.S1P
! CHANNEL.1
! TR.MEASUREMENT
! RAW.DATA
# GHZ S RI R 50.0
! FREQ.GHZ         S11RE         S11IM         
!; PortSelection: Port_1
   0.001000000    -0.8938209    0.0543819  
   0.002999900    -0.8644846    0.2571526  
   0.004999800    -0.8231222    0.4010322  
   0.006999700    -0.7557061    0.5270339  
   0.008999600    -0.6661752    0.6348348  
   0.010999500    -0.5592170    0.7230224  
   0.012999400    -0.4383288    0.7908266  
   0.014999300    -0.3078927    0.8371234  
   0.016999200    -0.1719938    0.8625703  
   0.018999100    -0.0341457    0.8670191  
   0.020999000     0.1024316    0.8518552  
   0.022998900     0.2344762    0.8175251  
   0.024998800     0.3319650    0.7471237  
   0.026998700     0.4747585    0.6970826  
   0.028998600     0.5784699    0.6134537  
   0.030998500     0.6682515    0.5168052  
   0.032998400     0.7093251    0.4084004  
   0.034998300     0.7999206    0.2899621  
   0.036998200     0.8380695    0.1643782  
   0.038998100     0.8568135    0.0340149  
   0.040998000     0.8548267   -0.0976686  
   0.042997900     0.8316349   -0.2275232  
   0.044997800     0.7672369   -0.3270798  
   0.046997700     0.7255874   -0.4687524  
   0.048997600     0.6457484   -0.5741212  
   0.050997500     0.5505432   -0.6654065  
   0.052997400     0.4443072   -0.7403041  
   0.054997300     0.3258388   -0.7993368  
   0.056997200     0.2011141   -0.8393462  
   0.058997100     0.0727076   -0.8602655  
   0.060997000    -0.0570634   -0.8617688  
   0.062996900    -0.1851926   -0.8441210  
   0.064996800    -0.3091086   -0.8076375  
   0.066996700    -0.4259568   -0.7530496  
   0.068996600    -0.5331082   -0.6813643  
   0.070996500    -0.6278748   -0.5946620  
   0.072996400    -0.7086707   -0.4946304  
   0.074996300    -0.7731713   -0.3836423  
   0.076996200    -0.8200372   -0.2641919  
   0.078996100    -0.8484234   -0.1391144  
   0.080996000    -0.8576356   -0.0110063  
   0.082995900    -0.8476275    0.1170556  
   0.084995800    -0.8180377    0.2421921  
   0.086995700    -0.7701375    0.3616501  
   0.088995600    -0.7043810    0.4728048  
   0.090995500    -0.6225615    0.5728952  
   0.092995400    -0.5260201    0.6595273  
   0.094995300    -0.4172151    0.7304382  
   0.096995200    -0.2982063    0.7840494  
   0.098995100    -0.1717766    0.8187253  
   0.100995000    -0.0411695    0.8327441  
   0.102994900     0.0899929    0.8261545  
   0.104994800     0.2187949    0.7989418  
   0.106994700     0.3420613    0.7515463  
   0.108994600     0.4562641    0.6852255  
   0.110994500     0.5585909    0.6014228  
   0.112994400     0.6462328    0.5022558  
   0.114994300     0.7169300    0.3905987  
   0.116994200     0.7688412    0.2690728  
   0.118994100     0.8009150    0.1409164  
   0.120994000     0.8117476    0.0095688  
   0.122993900     0.8016315   -0.1213833  
   0.124993800     0.7709613   -0.2487227  
   0.126993700     0.7205508   -0.3691713  
   0.128993600     0.6519819   -0.4799736  
   0.130993500     0.5669686   -0.5777327  
   0.132993400     0.4682777   -0.6602863  
   0.134993300     0.3582613   -0.7263607  
   0.136993200     0.2401794   -0.7739981  
   0.138993100     0.1163075   -0.8025072  
   0.140993000    -0.0090835   -0.8114147  
   0.142992900    -0.1343184   -0.8010647  
   0.144992800    -0.2555243   -0.7717947  
   0.146992700    -0.3704172   -0.7247397  
   0.148992600    -0.4760205   -0.6611728  
   0.150992500    -0.5706106   -0.5826826  
   0.152992400    -0.6516826   -0.4909425  
   0.154992300    -0.7180365   -0.3888789  
   0.156992200    -0.7681737   -0.2781700  
   0.158992100    -0.8015382   -0.1615956  
   0.160992000    -0.8169515   -0.0416743  
   0.162991900    -0.8146429    0.0788686  
   0.164991800    -0.7942345    0.1980458  
   0.166991700    -0.7565923    0.3123955  
   0.168991600    -0.7024789    0.4199114  
   0.170991500    -0.6327775    0.5189335  
   0.172991400    -0.5492945    0.6059202  
   0.174991300    -0.4536482    0.6798192  
   0.176991200    -0.3473082    0.7389874  
   0.178991100    -0.2334594    0.7818342  
   0.180991000    -0.1142357    0.8070349  
   0.182990900     0.0078789    0.8140010  
   0.184990800     0.1301839    0.8025200  
   0.186990700     0.2504196    0.7728587  
   0.188990600     0.3430218    0.7348636  
   0.190990500     0.4664543    0.6615927  
   0.192990400     0.5641472    0.5786679  
   0.194990300     0.6457199    0.4837549  
   0.196990200     0.7115001    0.3775948  
   0.198990100     0.7599495    0.2620069  
   0.200990000     0.7904386    0.1398585  
   0.202989900     0.8010536    0.0139372  
   0.204989800     0.7919024   -0.1124353  
   0.206989700     0.7629983   -0.2352465  
   0.208989600     0.7151608   -0.3517665  
   0.210989500     0.6492891   -0.4599109  
   0.212989400     0.5669598   -0.5565321  
   0.214989300     0.4705191   -0.6386223  
   0.216989200     0.3628880   -0.7038329  
   0.218989100     0.2466020   -0.7511623  
   0.220989000     0.1244400   -0.7796237  
   0.222988900    -0.0008633   -0.7883449  
   0.224988800    -0.1256557   -0.7772532  
   0.226988700    -0.2462351   -0.7462559  
   0.228988600    -0.3599822   -0.6972693  
   0.230988500    -0.4641428   -0.6313321  
   0.232988400    -0.5565291   -0.5498852  
   0.234988300    -0.6347784   -0.4551462  
   0.236988200    -0.6970815   -0.3495468  
   0.238988100    -0.7421680   -0.2358847  
   0.240988000    -0.7684464   -0.1173854  
   0.242987900    -0.7759960    0.0032106  
   0.244987800    -0.7650142    0.1228256  
   0.246987700    -0.7353893    0.2396314  
   0.248987600    -0.6880522    0.3506568  
   0.250987500    -0.6242934    0.4527334  
   0.252987400    -0.5454826    0.5434817  
   0.254987300    -0.4540490    0.6205085  
   0.256987200    -0.3523534    0.6823385  
   0.258987100    -0.2423125    0.7281288  
   0.260987000    -0.1260976    0.7562221  
   0.262986900    -0.0065343    0.7660913  
   0.264986800     0.1133083    0.7574778  
   0.266986700     0.2306315    0.7300650  
   0.268986600     0.3420807    0.6851538  
   0.270986500     0.4449906    0.6237797  
   0.272986400     0.5371953    0.5469242  
   0.274986300     0.6166843    0.4564520  
   0.276986200     0.6812832    0.3550178  
   0.278986100     0.7297235    0.2440440  
   0.280986000     0.7602842    0.1263710  
   0.282985900     0.7720398    0.0048533  
   0.284985800     0.7647598   -0.1168040  
   0.286985700     0.7386301   -0.2359184  
   0.288985600     0.6940565   -0.3489577  
   0.290985500     0.6327708   -0.4532841  
   0.292985400     0.5564381   -0.5467610  
   0.294985300     0.4662465   -0.6271533  
   0.296985200     0.3643052   -0.6929281  
   0.298985100     0.2531132   -0.7422397  
   0.300985000     0.1350524   -0.7733855  
   0.302984900     0.0142443   -0.7857718  
   0.304984800    -0.1067789   -0.7793602  
   0.306984700    -0.2247174   -0.7543229  
   0.308984600    -0.3361660   -0.7115250  
   0.310984500    -0.4393566   -0.6528450  
   0.312984400    -0.5321448   -0.5796489  
   0.314984300    -0.6121662   -0.4931790  
   0.316984200    -0.6781607   -0.3957996  
   0.318984100    -0.7287266   -0.2893349  
   0.320984000    -0.7625368   -0.1760243  
   0.322983900    -0.7789015   -0.0583203  
   0.324983800    -0.7768655    0.0596739  
   0.326983700    -0.7569888    0.1759692  
   0.328983600    -0.7198670    0.2871848  
   0.330983500    -0.6660677    0.3913041  
   0.332983400    -0.5978260    0.4854159  
   0.334983300    -0.5160887    0.5679066  
   0.336983200    -0.4229783    0.6371357  
   0.338983100    -0.3203583    0.6917906  
   0.340983000    -0.2109333    0.7295915  
   0.342982900    -0.0964895    0.7506624  
   0.344982800     0.0204349    0.7539672  
   0.346982700     0.1373221    0.7392737  
   0.348982600     0.2510483    0.7062117  
   0.350982500     0.3582746    0.6559944  
   0.352982400     0.4568570    0.5890978  
   0.354982300     0.5471021    0.5040440  
   0.356982200     0.6291345    0.3937159  
   0.358982100     0.6895897    0.2709421  
   0.360982000     0.7270590    0.1394536  
   0.362981900     0.7403683    0.0034130  
   0.364981800     0.7281855   -0.1332043  
   0.366981700     0.6917779   -0.2655699  
   0.368981600     0.6315753   -0.3892414  
   0.370981500     0.5498766   -0.4999075  
   0.372981400     0.4487710   -0.5937960  
   0.374981300     0.3318182   -0.6678789  
   0.376981200     0.4205497   -0.6087663  
   0.378981100     0.3015032   -0.6778492  
   0.380981000     0.1716547   -0.7237664  
   0.382980900     0.0480616   -0.7440738  
   0.384980800    -0.0715154   -0.7439778  
   0.386980700    -0.1895067   -0.7250008  
   0.388980600    -0.3023995   -0.6876626  
   0.390980500    -0.4068749   -0.6333196  
   0.392980400    -0.5009415   -0.5643681  
   0.394980300    -0.5825863   -0.4822787  
   0.396980200    -0.6501092   -0.3897048  
   0.398980100    -0.7029778   -0.2877476  
   0.400980000    -0.7393261   -0.1801016  
   0.402979900    -0.7592244   -0.0682092  
   0.404979800    -0.7620004    0.0445818  
   0.406979700    -0.7480180    0.1559248  
   0.408979600    -0.7177087    0.2640410  
   0.410979500    -0.6715844    0.3663235  
   0.412979400    -0.6107452    0.4614122  
   0.414979300    -0.5360785    0.5463887  
   0.416979200    -0.4498444    0.6194605  
   0.418979100    -0.3538036    0.6782274  
   0.420979000    -0.2495365    0.7224911  
   0.422978900    -0.1395308    0.7505258  
   0.424978800    -0.0261584    0.7619349  
   0.426978700     0.0882301    0.7560968  
   0.428978600     0.2006783    0.7327625  
   0.430978500     0.3083602    0.6926787  
   0.432978400     0.4085999    0.6365705  
   0.434978300     0.4991339    0.5655836  
   0.436978200     0.5783930    0.4812265  
   0.438978100     0.6437189    0.3852428  
   0.440978000     0.6934280    0.2797557  
   0.442977900     0.7263625    0.1673073  
   0.444977800     0.7410450    0.0505329  
   0.446977700     0.7372283   -0.0670068  
   0.448977600     0.7148557   -0.1831988  
   0.450977500     0.6741105   -0.2944176  
   0.452977400     0.6157357   -0.3980760  
   0.454977300     0.5410069   -0.4918450  
   0.456977200     0.4510858   -0.5727429  
   0.458977100     0.3493742   -0.6374490  
   0.460977000     0.2383139   -0.6850502  
   0.462976900     0.1215733   -0.7135990  
   0.464976800     0.0018663   -0.7225725  
   0.466976700    -0.1174960   -0.7117369  
   0.468976600    -0.2330099   -0.6819990  
   0.470976500    -0.3418276   -0.6338679  
   0.472976400    -0.4410793   -0.5691265  
   0.474976300    -0.5278030   -0.4895813  
   0.476976200    -0.6002511   -0.3978364  
   0.478976100    -0.6565803   -0.2963973  
   0.480976000    -0.6959323   -0.1884611  
   0.482975900    -0.7175995   -0.0764529  
   0.484975800    -0.7215486    0.0367927  
   0.486975700    -0.7080159    0.1488531  
   0.488975600    -0.6776018    0.2570540  
   0.490975500    -0.6307288    0.3589719  
   0.492975400    -0.5692309    0.4522188  
   0.494975300    -0.4941757    0.5351228  
   0.496975200    -0.4073628    0.6054522  
   0.498975100    -0.3114610    0.6613440  
   0.500975000    -0.2083115    0.7022234  
   0.502974900    -0.1004680    0.7268749  
   0.504974800     0.0101685    0.7348592  
   0.506974700     0.1210720    0.7260502  
   0.508974600     0.2305470    0.7002548  
   0.510974500     0.3347186    0.6579223  
   0.512974400     0.4314440    0.5997524  
   0.514974300     0.5180381    0.5280160  
   0.516974200     0.5931697    0.4434578  
   0.518974100     0.6542453    0.3485418  
   0.520974000     0.7001440    0.2447816  
   0.522973900     0.7297566    0.1351568  
   0.524973800     0.7421255    0.0219400  
   0.526973700     0.7368478   -0.0923394  
   0.528973600     0.7139567   -0.2049221  
   0.530973500     0.6735666   -0.3129496  
   0.532973400     0.6165872   -0.4137317  
   0.534973300     0.5445106   -0.5046547  
   0.536973200     0.4587312   -0.5832387  
   0.538973100     0.3618847   -0.6475154  
   0.540973000     0.2565799   -0.6953523  
   0.542972900     0.1450550   -0.7264470  
   0.544972800     0.0299522   -0.7395766  
   0.546972700    -0.0861184   -0.7344309  
   0.548972600    -0.2003718   -0.7114052  
   0.550972500    -0.3092347   -0.6705755  
   0.552972400    -0.4105961   -0.6129006  
   0.554972300    -0.5012868   -0.5399007  
   0.556972200    -0.5796625   -0.4536251  
   0.558972100    -0.6430266   -0.3561727  
   0.560972000    -0.6900643   -0.2504653  
   0.562971900    -0.7197530   -0.1389460  
   0.564971800    -0.7314437   -0.0246501  
   0.566971700    -0.7250782    0.0891678  
   0.568971600    -0.7011698    0.2004439  
   0.570971500    -0.6600919    0.3064820  
   0.572971400    -0.6030786    0.4048011  
   0.574971300    -0.5312462    0.4929104  
   0.576971200    -0.4462409    0.5688426  
   0.578971100    -0.3502566    0.6304609  
   0.580971000    -0.2458452    0.6762026  
   0.582970900    -0.1356031    0.7046713  
   0.584970800    -0.0224606    0.7156497  
   0.586970700     0.0906414    0.7085540  
   0.588970600     0.2011955    0.6836593  
   0.590970500     0.3065695    0.6414362  
   0.592970400     0.4039217    0.5831364  
   0.594970300     0.4910397    0.5100931  
   0.596970200     0.5652815    0.4237337  
   0.598970100     0.6253585    0.3268614  
   0.600970000     0.6690937    0.2213781  
   0.602969900     0.6953511    0.1096967  
   0.604969800     0.7032732   -0.0052127  
   0.606969700     0.6929078   -0.1199479  
   0.608969600     0.6641982   -0.2320790  
   0.610969500     0.6174316   -0.3383178  
   0.612969400     0.5540249   -0.4355172  
   0.614969300     0.4759550   -0.5210454  
   0.616969200     0.3856753   -0.5925482  
   0.618969100     0.2855685   -0.6483294  
   0.620969000     0.1786994   -0.6873829  
   0.622968900     0.0666564   -0.7089130  
   0.624968800    -0.0472308   -0.7126331  
   0.626968700    -0.1602610   -0.6985509  
   0.628968600    -0.2697057   -0.6669627  
   0.630968500    -0.3725544   -0.6185398  
   0.632968400    -0.4665348   -0.5549105  
   0.634968300    -0.5489739   -0.4775081  
   0.636968200    -0.6182737   -0.3883278  
   0.638968100    -0.6730291   -0.2900756  
   0.640968000    -0.7117030   -0.1849054  
   0.642967900    -0.7339826   -0.0752510  
   0.644967800    -0.7389640    0.0362983  
   0.646967700    -0.7270896    0.1468169  
   0.648967600    -0.6988801    0.2535583  
   0.650967500    -0.6550263    0.3546907  
   0.652967400    -0.5968439    0.4478195  
   0.654967300    -0.5256531    0.5308575  
   0.656967200    -0.4427468    0.6021666  
   0.658967100    -0.3506793    0.6606506  
   0.660967000    -0.2504798    0.7046260  
   0.662966900    -0.1440767    0.7332017  
   0.664966800    -0.0341140    0.7453672  
   0.666966700     0.0773435    0.7410340  
   0.668966600     0.1869753    0.7201343  
   0.670966500     0.2925618    0.6822568  
   0.672966400     0.3910705    0.6282900  
   0.674966300     0.4803464    0.5603581  
   0.676966200     0.5588130    0.4789218  
   0.678966100     0.6235766    0.3866910  
   0.680966000     0.6733743    0.2852888  
   0.682965900     0.7070796    0.1768778  
   0.684965800     0.7237270    0.0649400  
   0.686965700     0.7223412   -0.0493543  
   0.688965600     0.7029756   -0.1620500  
   0.690965500     0.6664458   -0.2706659  
   0.692965400     0.6127378   -0.3724325  
   0.694965300     0.5444192   -0.4640004  
   0.696965200     0.4612673   -0.5440282  
   0.698965100     0.3669730   -0.6096325  
   0.700965000     0.2631931   -0.6595835  
   0.702964900     0.1527138   -0.6921885  
   0.704964800     0.0384653   -0.7068985  
   0.706964700    -0.0766028   -0.7029313  
   0.708964600    -0.1890958   -0.6808157  
   0.710964500    -0.2971216   -0.6408460  
   0.712964400    -0.3963820   -0.5844445  
   0.714964300    -0.4851464   -0.5126442  
   0.716964200    -0.5611179   -0.4285391  
   0.718964100    -0.6220090   -0.3343113  
   0.720964000    -0.6672694   -0.2323222  
   0.722963900    -0.6958353   -0.1252934  
   0.724963800    -0.7077197   -0.0155138  
   0.726963700    -0.7024032    0.0940601  
   0.728963600    -0.6803415    0.2014161  
   0.730963500    -0.6424184    0.3035287  
   0.732963400    -0.5894907    0.3983458  
   0.734963300    -0.5230064    0.4839990  
   0.736963200    -0.4301585    0.5679029  
   0.738963100    -0.3236180    0.6351790  
   0.740963000    -0.2062419    0.6829312  
   0.742962900    -0.0826765    0.7093760  
   0.744962800     0.0444173    0.7141705  
   0.746962700     0.1706202    0.6967904  
   0.748962600     0.2925496    0.6571958  
   0.750962500     0.1709133    0.6968712  
   0.752962400     0.2916571    0.6559905  
   0.754962300     0.4038652    0.5944061  
   0.756962200     0.5037042    0.5138713  
   0.758962100     0.5878740    0.4168907  
   0.760962000     0.6543359    0.3063048  
   0.762961900     0.6984380    0.1913853  
   0.764961800     0.7208868    0.0816715  
   0.766961700     0.7258212   -0.0300797  
   0.768961600     0.7135222   -0.1423877  
   0.770961500     0.6839041   -0.2509922  
   0.772961400     0.6376418   -0.3544582  
   0.774961300     0.5758269   -0.4493789  
   0.776961200     0.4997730   -0.5338538  
   0.778961100     0.4104643   -0.6055613  
   0.780961000     0.3112800   -0.6629922  
   0.782960900     0.2037793   -0.7038736  
   0.784960800     0.0905010   -0.7278321  
   0.786960700    -0.0251677   -0.7329246  
   0.788960600    -0.1403219   -0.7196826  
   0.790960500    -0.2512695   -0.6883624  
   0.792960400    -0.3560176   -0.6397071  
   0.794960300    -0.4508957   -0.5754967  
   0.796960200    -0.5344079   -0.4974506  
   0.798960100    -0.6040523   -0.4077065  
   0.800960000    -0.6584330   -0.3087101  
   0.802959900    -0.6966021   -0.2026746  
   0.804959800    -0.7174583   -0.0930592  
   0.806959700    -0.7212909    0.0178451  
   0.808959600    -0.7077196    0.1275032  
   0.810959500    -0.6779506    0.2334165  
   0.812959400    -0.6324401    0.3328648  
   0.814959300    -0.5726346    0.4240172  
   0.816959200    -0.4996178    0.5044731  
   0.818959100    -0.4157120    0.5725920  
   0.820959000    -0.3218922    0.6272869  
   0.822958900    -0.2215696    0.6671081  
   0.824958800    -0.1162188    0.6910844  
   0.826958700    -0.0082971    0.6985377  
   0.828958600     0.0997726    0.6894522  
   0.830958500     0.2050546    0.6638853  
   0.832958400     0.3053049    0.6229305  
   0.834958300     0.3981885    0.5668365  
   0.836958200     0.4811694    0.4969468  
   0.838958100     0.5529756    0.4150116  
   0.840958000     0.6113722    0.3224269  
   0.842957900     0.6550162    0.2213175  
   0.844957800     0.6827912    0.1143473  
   0.846957700     0.6931339    0.0038015  
   0.848957600     0.6858464   -0.1072447  
   0.850957500     0.6614007   -0.2162120  
   0.852957400     0.6195756   -0.3203470  
   0.854957300     0.5614406   -0.4170170  
   0.856957200     0.4890071   -0.5029116  
   0.858957100     0.4035733   -0.5763425  
   0.860957000     0.3079227   -0.6351619  
   0.862956900     0.2046068   -0.6781931  
   0.864956800     0.0962923   -0.7042857  
   0.866956700    -0.0147482   -0.7134240  
   0.868956600    -0.1253773   -0.7049653  
   0.870956500    -0.2331001   -0.6797096  
   0.872956400    -0.3356725   -0.6382298  
   0.874956300    -0.4300537   -0.5814754  
   0.876956200    -0.5146722   -0.5111467  
   0.878956100    -0.5872524   -0.4284123  
   0.880956000    -0.6464874   -0.3359770  
   0.882955900    -0.6905333   -0.2358128  
   0.884955800    -0.7191055   -0.1305755  
   0.886955700    -0.7311754   -0.0221947  
   0.888955600    -0.7268401    0.0860076  
   0.890955500    -0.7062959    0.1924802  
   0.892955400    -0.6698803    0.2940181  
   0.894955300    -0.6189116    0.3891869  
