! MS46122B
! 2250307/22442219
! 6/16/2025 12:54:49 PM
! C:\USERS\SPARKY\DOCUMENTS\VNA_DATA\JUNE16_2025\295K\PORT5_MOS1.S1P
! CHANNEL.1
! TR.MEASUREMENT
! RAW.DATA
# GHZ S RI R 50.0
! FREQ.GHZ         S11RE         S11IM         
!; PortSelection: Port_1
   0.001000000    -0.8937088    0.0539480  
   0.002999900    -0.8646980    0.2565057  
   0.004999800    -0.8235411    0.3998221  
   0.006999700    -0.7565054    0.5253689  
   0.008999600    -0.6677656    0.6329173  
   0.010999500    -0.5612271    0.7212964  
   0.012999400    -0.4413712    0.7891220  
   0.014999300    -0.3111523    0.8358949  
   0.016999200    -0.1758644    0.8617508  
   0.018999100    -0.0382728    0.8668849  
   0.020999000     0.0978445    0.8524372  
   0.022998900     0.2296116    0.8188837  
   0.024998800     0.3270948    0.7491660  
   0.026998700     0.4699016    0.7002423  
   0.028998600     0.5739015    0.6175204  
   0.030998500     0.6640825    0.5217473  
   0.032998400     0.7056438    0.4140760  
   0.034998300     0.7971043    0.2967763  
   0.036998200     0.8362144    0.1719153  
   0.038998100     0.8559850    0.0421475  
   0.040998000     0.8554309   -0.0889497  
   0.042997900     0.8335876   -0.2187125  
   0.044997800     0.7703627   -0.3184482  
   0.046997700     0.7304386   -0.4603611  
   0.048997600     0.6520683   -0.5663735  
   0.050997500     0.5582918   -0.6584408  
   0.052997400     0.4530134   -0.7346172  
   0.054997300     0.3360152   -0.7947531  
   0.056997200     0.2122073   -0.8362790  
   0.058997100     0.0845544   -0.8588366  
   0.060997000    -0.0448432   -0.8622292  
   0.062996900    -0.1727566   -0.8464338  
   0.064996800    -0.2968238   -0.8119229  
   0.066996700    -0.4141845   -0.7593156  
   0.068996600    -0.5221326   -0.6895859  
   0.070996500    -0.6180282   -0.6047859  
   0.072996400    -0.7002845   -0.5064483  
   0.074996300    -0.7664784   -0.3969222  
   0.076996200    -0.8152393   -0.2787140  
   0.078996100    -0.8458700   -0.1545747  
   0.080996000    -0.8574069   -0.0271432  
   0.082995900    -0.8500093    0.1006949  
   0.084995800    -0.8229959    0.2260061  
   0.086995700    -0.7777165    0.3460726  
   0.088995600    -0.7146334    0.4581103  
   0.090995500    -0.6351646    0.5595710  
   0.092995400    -0.5408416    0.6480868  
   0.094995300    -0.4340203    0.7212539  
   0.096995200    -0.3165869    0.7774720  
   0.098995100    -0.1916785    0.8149077  
   0.100995000    -0.0620837    0.8320414  
   0.102994900     0.0687859    0.8287201  
   0.104994800     0.1979087    0.8050506  
   0.106994700     0.3219183    0.7609735  
   0.108994600     0.4374396    0.6979597  
   0.110994500     0.5418270    0.6173739  
   0.112994400     0.6318626    0.5211552  
   0.114994300     0.7056294    0.4118390  
   0.116994200     0.7608875    0.2922043  
   0.118994100     0.7966391    0.1653885  
   0.120994000     0.8115342    0.0349040  
   0.122993900     0.8053685   -0.0960855  
   0.124993800     0.7788013   -0.2240069  
   0.126993700     0.7322658   -0.3455988  
   0.128993600     0.6675106   -0.4583582  
   0.130993500     0.5858086   -0.5587067  
   0.132993400     0.4900962   -0.6442369  
   0.134993300     0.3826126   -0.7138793  
   0.136993200     0.2663255   -0.7651951  
   0.138993100     0.1438976   -0.7978525  
   0.140993000     0.0188962   -0.8110358  
   0.142992900    -0.1063469   -0.8050597  
   0.144992800    -0.2282629   -0.7801842  
   0.146992700    -0.3441472   -0.7371221  
   0.148992600    -0.4521165   -0.6774221  
   0.150992500    -0.5491428   -0.6025488  
   0.152992400    -0.6335413   -0.5140116  
   0.154992300    -0.7031130   -0.4148939  
   0.156992200    -0.7573647   -0.3060697  
   0.158992100    -0.7949253   -0.1913311  
   0.160992000    -0.8147591   -0.0721496  
   0.162991900    -0.8169609    0.0481246  
   0.164991800    -0.8012663    0.1674677  
   0.166991700    -0.7681729    0.2827937  
   0.168991600    -0.7184442    0.3921876  
   0.170991500    -0.6530152    0.4935006  
   0.172991400    -0.5733931    0.5834783  
   0.174991300    -0.4813030    0.6606630  
   0.176991200    -0.3781608    0.7240897  
   0.178991100    -0.2662698    0.7713830  
   0.180991000    -0.1488238    0.8017622  
   0.182990900    -0.0276092    0.8139917  
   0.184990800     0.0945430    0.8080280  
   0.186990700     0.2152872    0.7838320  
   0.188990600     0.3088112    0.7504649  
   0.190990500     0.4353799    0.6831602  
   0.192990400     0.5363480    0.6052896  
   0.194990300     0.6220536    0.5151247  
   0.196990200     0.6925126    0.4125095  
   0.198990100     0.7464789    0.3001038  
   0.200990000     0.7827739    0.1802147  
   0.202989900     0.7999385    0.0553369  
   0.204989800     0.7974287   -0.0706194  
   0.206989700     0.7750083   -0.1941394  
   0.208989600     0.7337967   -0.3128810  
   0.210989500     0.6740569   -0.4239887  
   0.212989400     0.5975121   -0.5245106  
   0.214989300     0.5061008   -0.6115224  
   0.216989200     0.4026970   -0.6826439  
   0.218989100     0.2896053   -0.7363528  
   0.220989000     0.1696457   -0.7717774  
   0.222988900     0.0455312   -0.7876428  
   0.224988800    -0.0792664   -0.7838390  
   0.226988700    -0.2013381   -0.7605996  
   0.228988600    -0.3175567   -0.7184342  
   0.230988500    -0.4251381   -0.6589504  
   0.232988400    -0.5220115   -0.5837163  
   0.234988300    -0.6059619   -0.4941256  
   0.236988200    -0.6745920   -0.3927990  
   0.238988100    -0.7262430   -0.2823029  
   0.240988000    -0.7600580   -0.1660375  
   0.242987900    -0.7752156   -0.0465225  
   0.244987800    -0.7718115    0.0731504  
   0.246987700    -0.7499186    0.1913121  
   0.248987600    -0.7100863    0.3048674  
   0.250987500    -0.6530046    0.4105971  
   0.252987400    -0.5807037    0.5060610  
   0.254987300    -0.4951171    0.5887095  
   0.256987200    -0.3979671    0.6570307  
   0.258987100    -0.2915526    0.7096495  
   0.260987000    -0.1780074    0.7454262  
   0.262986900    -0.0600225    0.7635005  
   0.264986800     0.0595473    0.7632099  
   0.266986700     0.1780936    0.7441960  
   0.268986600     0.2918804    0.7072899  
   0.270986500     0.3986028    0.6535723  
   0.272986400     0.4955389    0.5838768  
   0.274986300     0.5807692    0.4999424  
   0.276986200     0.6523921    0.4035408  
   0.278986100     0.7082739    0.2970114  
   0.280986000     0.7474622    0.1823795  
   0.282985900     0.7682762    0.0629762  
   0.284985800     0.7699992   -0.0586472  
   0.286985700     0.7529631   -0.1787978  
   0.288985600     0.7173145   -0.2943026  
   0.290985500     0.6644042   -0.4025767  
   0.292985400     0.5956332   -0.5012090  
   0.294985300     0.5123639   -0.5881908  
   0.296985200     0.4162374   -0.6613792  
   0.298985100     0.3095456   -0.7191588  
   0.300985000     0.1950067   -0.7591701  
   0.302984900     0.0758466   -0.7811224  
   0.304984800    -0.0445993   -0.7845235  
   0.306984700    -0.1638567   -0.7688640  
   0.308984600    -0.2782618   -0.7356990  
   0.310984500    -0.3855900   -0.6854816  
   0.312984400    -0.4834706   -0.6200660  
   0.314984300    -0.5704193   -0.5408434  
   0.316984200    -0.6439111   -0.4495918  
   0.318984100    -0.7028632   -0.3478475  
   0.320984000    -0.7459430   -0.2380937  
   0.322983900    -0.7719807   -0.1228675  
   0.324983800    -0.7798501   -0.0054449  
   0.326983700    -0.7698420    0.1117420  
   0.328983600    -0.7423941    0.2254452  
   0.330983500    -0.6980358    0.3334650  
   0.332983400    -0.6383842    0.4322921  
   0.334983300    -0.5644595    0.5215784  
   0.336983200    -0.4783364    0.5982442  
   0.338983100    -0.3817771    0.6611820  
   0.340983000    -0.2761633    0.7087609  
   0.342982900    -0.1648761    0.7399262  
   0.344982800    -0.0495403    0.7536100  
   0.346982700     0.0675358    0.7497197  
   0.348982600     0.1832780    0.7277117  
   0.350982500     0.2939387    0.6879186  
   0.352982400     0.3975983    0.6312278  
   0.354982300     0.4951385    0.5553676  
   0.356982200     0.5871556    0.4542958  
   0.358982100     0.6587512    0.3385990  
   0.360982000     0.7086421    0.2124345  
   0.362981900     0.7352288    0.0790835  
   0.364981800     0.7371821   -0.0572847  
   0.366981700     0.7145147   -0.1919484  
   0.368981600     0.6675761   -0.3201975  
   0.370981500     0.5979998   -0.4382856  
   0.372981400     0.5080754   -0.5416555  
   0.374981300     0.3998487   -0.6271611  
   0.376981200     0.4812048   -0.5589883  
   0.378981100     0.3703235   -0.6399610  
   0.380981000     0.2467499   -0.6989230  
   0.382980900     0.1265445   -0.7318612  
   0.384980800     0.0080421   -0.7442899  
   0.386980700    -0.1110045   -0.7380036  
   0.388980600    -0.2264627   -0.7130553  
   0.390980500    -0.3360803   -0.6703108  
   0.392980400    -0.4365593   -0.6116357  
   0.394980300    -0.5260911   -0.5392219  
   0.396980200    -0.6029764   -0.4543706  
   0.398980100    -0.6659060   -0.3591825  
   0.400980000    -0.7136442   -0.2560763  
   0.402979900    -0.7450005   -0.1472915  
   0.404979800    -0.7597759   -0.0360082  
   0.406979700    -0.7579511    0.0758100  
   0.408979600    -0.7395220    0.1859110  
   0.410979500    -0.7049278    0.2921958  
   0.412979400    -0.6548812    0.3925709  
   0.414979300    -0.5903861    0.4845882  
   0.416979200    -0.5130590    0.5657726  
   0.418979100    -0.4246774    0.6346207  
   0.420979000    -0.3268920    0.6896455  
   0.422978900    -0.2217167    0.7295094  
   0.424978800    -0.1111391    0.7536301  
   0.426978700     0.0023225    0.7606358  
   0.428978600     0.1154071    0.7504056  
   0.430978500     0.2258842    0.7234550  
   0.432978400     0.3310157    0.6799768  
   0.434978300     0.4283975    0.6211134  
   0.436978200     0.5160959    0.5477250  
   0.438978100     0.5919208    0.4614568  
   0.440978000     0.6536897    0.3639961  
   0.442977900     0.6999605    0.2577434  
   0.444977800     0.7290753    0.1453010  
   0.446977700     0.7403368    0.0291001  
   0.448977600     0.7333272   -0.0876756  
   0.450977500     0.7076996   -0.2020033  
   0.452977400     0.6641102   -0.3116307  
   0.454977300     0.6030756   -0.4138266  
   0.456977200     0.5259061   -0.5049506  
   0.458977100     0.4345942   -0.5826868  
   0.460977000     0.3317015   -0.6443304  
   0.462976900     0.2210754   -0.6885638  
   0.464976800     0.1044451   -0.7141661  
   0.466976700    -0.0146554   -0.7201445  
   0.468976600    -0.1324999   -0.7066774  
   0.470976500    -0.2464759   -0.6746050  
   0.472976400    -0.3534186   -0.6246130  
   0.474976300    -0.4502945   -0.5584141  
   0.476976200    -0.5347182   -0.4781369  
   0.478976100    -0.6047924   -0.3859823  
   0.480976000    -0.6585318   -0.2848689  
   0.482975900    -0.6957685   -0.1774071  
   0.484975800    -0.7155479   -0.0663160  
   0.486975700    -0.7178661    0.0462118  
   0.488975600    -0.7030499    0.1571459  
   0.490975500    -0.6712320    0.2642999  
   0.492975400    -0.6235277    0.3649177  
   0.494975300    -0.5609791    0.4567826  
   0.496975200    -0.4855475    0.5382627  
   0.498975100    -0.3989182    0.6068144  
   0.500975000    -0.3031016    0.6612853  
   0.502974900    -0.2006988    0.7006778  
   0.504974800    -0.0931886    0.7241465  
   0.506974700     0.0171259    0.7309375  
   0.508974600     0.1277865    0.7209257  
   0.510974500     0.2360767    0.6941457  
   0.512974400     0.3390469    0.6510355  
   0.514974300     0.4341533    0.5929977  
   0.516974200     0.5194145    0.5210220  
   0.518974100     0.5928615    0.4369778  
   0.520974000     0.6529966    0.3422616  
   0.522973900     0.6975110    0.2394972  
   0.524973800     0.7262600    0.1308494  
   0.526973700     0.7379221    0.0181631  
   0.528973600     0.7322391   -0.0946600  
   0.530973500     0.7089508   -0.2066136  
   0.532973400     0.6685510   -0.3131680  
   0.534973300     0.6120577   -0.4127647  
   0.536973200     0.5401791   -0.5028836  
   0.538973100     0.4557130   -0.5801666  
   0.540973000     0.3602862   -0.6434274  
   0.542972900     0.2560211   -0.6909454  
   0.544972800     0.1459158   -0.7218415  
   0.546972700     0.0315921   -0.7353856  
   0.548972600    -0.0834415   -0.7305558  
   0.550972500    -0.1963647   -0.7083742  
   0.552972400    -0.3048121   -0.6683016  
   0.554972300    -0.4054656   -0.6116815  
   0.556972200    -0.4956654   -0.5399443  
   0.558972100    -0.5737067   -0.4550090  
   0.560972000    -0.6369383   -0.3591455  
   0.562971900    -0.6842296   -0.2550280  
   0.564971800    -0.7145559   -0.1454527  
   0.566971700    -0.7273111   -0.0327305  
   0.568971600    -0.7222944    0.0798033  
   0.570971500    -0.7000085    0.1901817  
   0.572971400    -0.6607186    0.2957342  
   0.574971300    -0.6053977    0.3940802  
   0.576971200    -0.5352405    0.4824724  
   0.578971100    -0.4519985    0.5589374  
   0.580971000    -0.3579434    0.6211838  
   0.582970900    -0.2554677    0.6680121  
   0.584970800    -0.1472101    0.6978109  
   0.586970700    -0.0357589    0.7106687  
   0.588970600     0.0761350    0.7056343  
   0.590970500     0.1861162    0.6829787  
   0.592970400     0.2910795    0.6432500  
   0.594970300     0.3885072    0.5874630  
   0.596970200     0.4759402    0.5171190  
   0.598970100     0.5512683    0.4329882  
   0.600970000     0.6126148    0.3384830  
   0.602969900     0.6582248    0.2347567  
   0.604969800     0.6865576    0.1245653  
   0.606969700     0.6968942    0.0111269  
   0.608969600     0.6890577   -0.1031047  
   0.610969500     0.6628616   -0.2148159  
   0.612969400     0.6189206   -0.3208047  
   0.614969300     0.5582988   -0.4179991  
   0.616969200     0.4832705   -0.5041071  
   0.618969100     0.3959155   -0.5764912  
   0.620969000     0.2987971   -0.6339720  
   0.622968900     0.1936058   -0.6753525  
   0.624968800     0.0832168   -0.6994116  
   0.626968700    -0.0296044   -0.7054806  
   0.628968600    -0.1419359   -0.6943895  
   0.630968500    -0.2511007   -0.6655865  
   0.632968400    -0.3540732   -0.6201234  
   0.634968300    -0.4485445   -0.5591573  
   0.636968200    -0.5319356   -0.4845528  
   0.638968100    -0.6026229   -0.3978856  
   0.640968000    -0.6590483   -0.3020041  
   0.642967900    -0.6998748   -0.1987472  
   0.644967800    -0.7243620   -0.0909253  
   0.646967700    -0.7318069    0.0192239  
   0.648967600    -0.7229019    0.1284310  
   0.650967500    -0.6975791    0.2347059  
   0.652967400    -0.6569458    0.3353255  
   0.654967300    -0.6018174    0.4289116  
   0.656967200    -0.5333646    0.5127231  
   0.658967100    -0.4536610    0.5853482  
   0.660967000    -0.3636463    0.6454650  
   0.662966900    -0.2654687    0.6918287  
   0.664966800    -0.1603342    0.7229602  
   0.666966700    -0.0513537    0.7377808  
   0.668966600     0.0586766    0.7365992  
   0.670966500     0.1677747    0.7184088  
   0.672966400     0.2728641    0.6833658  
   0.674966300     0.3716458    0.6330571  
   0.676966200     0.4617159    0.5682739  
   0.678966100     0.5409863    0.4903913  
   0.680966000     0.6073888    0.4011230  
   0.682965900     0.6596237    0.3023157  
   0.684965800     0.6960847    0.1966423  
   0.686965700     0.7159351    0.0859247  
   0.688965600     0.7179128   -0.0268598  
   0.690965500     0.7025106   -0.1388645  
   0.692965400     0.6695104   -0.2471409  
   0.694965300     0.6201527   -0.3490043  
   0.696965200     0.5551926   -0.4419580  
   0.698965100     0.4759884   -0.5236341  
   0.700965000     0.3847534   -0.5917974  
   0.702964900     0.2838581   -0.6446639  
   0.704964800     0.1756352   -0.6806949  
   0.706964700     0.0630398   -0.6991871  
   0.708964600    -0.0507615   -0.6992143  
   0.710964500    -0.1633834   -0.6812255  
   0.712964400    -0.2712582   -0.6452972  
   0.714964300    -0.3713858   -0.5927339  
   0.716964200    -0.4617001   -0.5251846  
   0.718964100    -0.5393057   -0.4450324  
   0.720964000    -0.6029206   -0.3541420  
   0.722963900    -0.6512464   -0.2551736  
   0.724963800    -0.6836032   -0.1505048  
   0.726963700    -0.6994599   -0.0427408  
   0.728963600    -0.6982574    0.0661100  
   0.730963500    -0.6805896    0.1728821  
   0.732963400    -0.6471029    0.2753158  
   0.734963300    -0.5981200    0.3712380  
   0.736963200    -0.5237815    0.4703608  
   0.738963100    -0.4328314    0.5550761  
   0.740963000    -0.3279086    0.6231486  
   0.742962900    -0.2127605    0.6717369  
   0.744962800    -0.0904633    0.6999334  
   0.746962700     0.0349736    0.7062191  
   0.748962600     0.1603514    0.6904841  
   0.750962500     0.0358208    0.7088947  
   0.752962400     0.1603866    0.6913156  
   0.754962300     0.2802727    0.6526052  
   0.756962200     0.3918698    0.5933596  
   0.758962100     0.4910627    0.5151637  
   0.760962000     0.5761555    0.4206615  
   0.762961900     0.6401044    0.3183255  
   0.764961800     0.6825670    0.2167797  
   0.766961700     0.7090037    0.1098097  
   0.768961600     0.7183149   -0.0006870  
   0.770961500     0.7107685   -0.1111532  
   0.772961400     0.6862056   -0.2195811  
   0.774961300     0.6453435   -0.3229329  
   0.776961200     0.5880209   -0.4194555  
   0.778961100     0.5166621   -0.5060866  
   0.780961000     0.4320218   -0.5809562  
   0.782960900     0.3365381   -0.6421080  
   0.784960800     0.2318905   -0.6874706  
   0.786960700     0.1212130   -0.7161813  
   0.788960600     0.0070371   -0.7263849  
   0.790960500    -0.1070838   -0.7186669  
   0.792960400    -0.2180661   -0.6927989  
   0.794960300    -0.3235567   -0.6495501  
   0.796960200    -0.4200271   -0.5907732  
   0.798960100    -0.5062480   -0.5176471  
   0.800960000    -0.5791800   -0.4324886  
   0.802959900    -0.6376833   -0.3371860  
   0.804959800    -0.6806609   -0.2346922  
   0.806959700    -0.7066157   -0.1274741  
   0.808959600    -0.7159545   -0.0180169  
   0.810959500    -0.7081201    0.0910211  
   0.812959400    -0.6840022    0.1971275  
   0.814959300    -0.6440585    0.2978986  
   0.816959200    -0.5893580    0.3909399  
   0.818959100    -0.5213744    0.4742867  
   0.820959000    -0.4415091    0.5461003  
   0.822958900    -0.3517967    0.6049218  
   0.824958800    -0.2544222    0.6494648  
   0.826958700    -0.1512486    0.6785945  
   0.828958600    -0.0448899    0.6913519  
   0.830958500     0.0622042    0.6878582  
   0.832958400     0.1676870    0.6680679  
   0.834958300     0.2684898    0.6326763  
   0.836958200     0.3629665    0.5822898  
   0.838958100     0.4486188    0.5175898  
   0.840958000     0.5238740    0.4402798  
   0.842957900     0.5864681    0.3518981  
   0.844957800     0.6348336    0.2543184  
   0.846957700     0.6676419    0.1500603  
   0.848957600     0.6838702    0.0416631  
   0.850957500     0.6826279   -0.0686821  
   0.852957400     0.6641945   -0.1776475  
   0.854957300     0.6283703   -0.2826617  
   0.856957200     0.5761667   -0.3807700  
   0.858957100     0.5092353   -0.4694355  
   0.860957000     0.4291271   -0.5461786  
   0.862956900     0.3381830   -0.6091951  
   0.864956800     0.2388234   -0.6572107  
   0.866956700     0.1337057   -0.6889061  
   0.868956600     0.0246904   -0.7039839  
   0.870956500    -0.0849685   -0.7019154  
   0.872956400    -0.1929207   -0.6829399  
   0.874956300    -0.2965642   -0.6477457  
   0.876956200    -0.3931255   -0.5967861  
   0.878956100    -0.4807848   -0.5317875  
   0.880956000    -0.5571460   -0.4539101  
   0.882955900    -0.6208417   -0.3656246  
   0.884955800    -0.6697370   -0.2691983  
   0.886955700    -0.7038181   -0.1664405  
   0.888955600    -0.7214804   -0.0601596  
   0.890955500    -0.7231427    0.0471774  
   0.892955400    -0.7084833    0.1532126  
   0.894955300    -0.6783566    0.2557060  
