! MS46122B
! 2250307/22442219
! 6/18/2025 1:23:44 PM
! C:\USERS\SPARKY\DOCUMENTS\VNA_DATA\JUNE18_2025\295K\PORT2_MOS3.S1P
! CHANNEL.1
! TR.MEASUREMENT
! RAW.DATA
# GHZ S RI R 50.0
! FREQ.GHZ         S11RE         S11IM         
!; PortSelection: Port_1
   0.001000000    -0.8942584    0.0543814  
   0.002999900    -0.8647049    0.2576238  
   0.004999800    -0.8231774    0.4019888  
   0.006999700    -0.7554444    0.5283223  
   0.008999600    -0.6654733    0.6362675  
   0.010999500    -0.5579283    0.7245357  
   0.012999400    -0.4366704    0.7922704  
   0.014999300    -0.3054805    0.8384290  
   0.016999200    -0.1691260    0.8634970  
   0.018999100    -0.0306282    0.8675469  
   0.020999000     0.1061423    0.8517739  
   0.022998900     0.2384665    0.8167074  
   0.024998800     0.3361130    0.7455841  
   0.026998700     0.4788845    0.6946794  
   0.028998600     0.5824708    0.6102126  
   0.030998500     0.6719818    0.5126323  
   0.032998400     0.7123922    0.4037749  
   0.034998300     0.8024911    0.2842825  
   0.036998200     0.8398289    0.1579427  
   0.038998100     0.8574995    0.0270709  
   0.040998000     0.8544292   -0.1050250  
   0.042997900     0.8299589   -0.2352241  
   0.044997800     0.7645721   -0.3343789  
   0.046997700     0.7213927   -0.4761514  
   0.048997600     0.6401920   -0.5809864  
   0.050997500     0.5437253   -0.6716186  
   0.052997400     0.4368603   -0.7451599  
   0.054997300     0.3168333   -0.8034351  
   0.056997200     0.1913074   -0.8421305  
   0.058997100     0.0621899   -0.8616071  
   0.060997000    -0.0679792   -0.8615472  
   0.062996900    -0.1963256   -0.8422076  
   0.064996800    -0.3201421   -0.8038643  
   0.066996700    -0.4366067   -0.7474582  
   0.068996600    -0.5431216   -0.6740267  
   0.070996500    -0.6369841   -0.5856334  
   0.072996400    -0.7164180   -0.4840750  
   0.074996300    -0.7794680   -0.3717006  
   0.076996200    -0.8246911   -0.2509298  
   0.078996100    -0.8509982   -0.1250574  
   0.080996000    -0.8580926    0.0037214  
   0.082995900    -0.8456752    0.1320975  
   0.084995800    -0.8137936    0.2570950  
   0.086995700    -0.7634131    0.3762180  
   0.088995600    -0.6952488    0.4865538  
   0.090995500    -0.6111797    0.5853602  
   0.092995400    -0.5125247    0.6703422  
   0.094995300    -0.4016111    0.7393407  
   0.096995200    -0.2809885    0.7905479  
   0.098995100    -0.1532507    0.8224804  
   0.100995000    -0.0220301    0.8336295  
   0.102994900     0.1093474    0.8239596  
   0.104994800     0.2380724    0.7935898  
   0.106994700     0.3607770    0.7429023  
   0.108994600     0.4736160    0.6735627  
   0.110994500     0.5741597    0.5869282  
   0.112994400     0.6595185    0.4851176  
   0.114994300     0.7274953    0.3711625  
   0.116994200     0.7762730    0.2478426  
   0.118994100     0.8048561    0.1184719  
   0.120994000     0.8121527   -0.0135100  
   0.122993900     0.7982311   -0.1445099  
   0.124993800     0.7638883   -0.2713560  
   0.126993700     0.7096298   -0.3906903  
   0.128993600     0.6378969   -0.4996086  
   0.130993500     0.5497313   -0.5950897  
   0.132993400     0.4483189   -0.6750289  
   0.134993300     0.3362046   -0.7377240  
   0.136993200     0.2163011   -0.7818719  
   0.138993100     0.0914150   -0.8065953  
   0.140993000    -0.0347621   -0.8115689  
   0.142992900    -0.1596158   -0.7973807  
   0.144992800    -0.2802352   -0.7642171  
   0.146992700    -0.3936369   -0.7134085  
   0.148992600    -0.4978736   -0.6460952  
   0.150992500    -0.5898936   -0.5646318  
   0.152992400    -0.6682696   -0.4700598  
   0.154992300    -0.7314239   -0.3653632  
   0.156992200    -0.7779503   -0.2528428  
   0.158992100    -0.8074263   -0.1347066  
   0.160992000    -0.8188526   -0.0140427  
   0.162991900    -0.8124958    0.1070253  
   0.164991800    -0.7877709    0.2256565  
   0.166991700    -0.7459219    0.3392484  
   0.168991600    -0.6877317    0.4451966  
   0.170991500    -0.6142430    0.5420131  
   0.172991400    -0.5269708    0.6263043  
   0.174991300    -0.4282812    0.6969468  
   0.176991200    -0.3192981    0.7522812  
   0.178991100    -0.2029057    0.7910272  
   0.180991000    -0.0824125    0.8115706  
   0.182990900     0.0404158    0.8137817  
   0.184990800     0.1630861    0.7970181  
   0.186990700     0.2826521    0.7622935  
   0.188990600     0.3740611    0.7201076  
   0.190990500     0.4952784    0.6411078  
   0.192990400     0.5895434    0.5535427  
   0.194990300     0.6671546    0.4545090  
   0.196990200     0.7284520    0.3447898  
   0.198990100     0.7718017    0.2265991  
   0.200990000     0.7965941    0.1025325  
   0.202989900     0.8012676   -0.0245750  
   0.204989800     0.7858032   -0.1510979  
   0.206989700     0.7508823   -0.2727977  
   0.208989600     0.6970431   -0.3876160  
   0.210989500     0.6253244   -0.4927252  
   0.212989400     0.5377237   -0.5854598  
   0.214989300     0.4368603   -0.6626499  
   0.216989200     0.3254204   -0.7226188  
   0.218989100     0.2062457   -0.7636814  
   0.220989000     0.0820716   -0.7857333  
   0.222988900    -0.0437774   -0.7876807  
   0.224988800    -0.1682965   -0.7696900  
   0.226988700    -0.2875106   -0.7319077  
   0.228988600    -0.3988247   -0.6765456  
   0.230988500    -0.4995931   -0.6046568  
   0.232988400    -0.5874199   -0.5177488  
   0.234988300    -0.6606736   -0.4182985  
   0.236988200    -0.7169458   -0.3086876  
   0.238988100    -0.7553985   -0.1919943  
   0.240988000    -0.7749437   -0.0718599  
   0.242987900    -0.7752414    0.0493445  
   0.244987800    -0.7570630    0.1686978  
   0.246987700    -0.7203425    0.2841107  
   0.248987600    -0.6661724    0.3925616  
   0.250987500    -0.5957749    0.4912841  
   0.252987400    -0.5111999    0.5773342  
   0.254987300    -0.4147525    0.6490063  
   0.256987200    -0.3088556    0.7045408  
   0.258987100    -0.1954062    0.7434436  
   0.260987000    -0.0771013    0.7642987  
   0.262986900     0.0436761    0.7664395  
   0.264986800     0.1634488    0.7500531  
   0.266986700     0.2794786    0.7149003  
   0.268986600     0.3883138    0.6624491  
   0.270986500     0.4876361    0.5939300  
   0.272986400     0.5751908    0.5105799  
   0.274986300     0.6487449    0.4145023  
   0.276986200     0.7065130    0.3080056  
   0.278986100     0.7475904    0.1931953  
   0.280986000     0.7701945    0.0729714  
   0.282985900     0.7733134   -0.0494954  
   0.284985800     0.7575769   -0.1712919  
   0.286985700     0.7227082   -0.2890388  
   0.288985600     0.6697866   -0.3992836  
   0.290985500     0.6008242   -0.4994676  
   0.292985400     0.5172312   -0.5876454  
   0.294985300     0.4209759   -0.6617448  
   0.296985200     0.3139731   -0.7203014  
   0.298985100     0.1986658   -0.7614065  
   0.300985000     0.0780720   -0.7838323  
   0.302984900    -0.0437722   -0.7874271  
   0.304984800    -0.1645649   -0.7715751  
   0.306984700    -0.2808744   -0.7376384  
   0.308984600    -0.3896877   -0.6861966  
   0.310984500    -0.4884673   -0.6194134  
   0.312984400    -0.5758535   -0.5387962  
   0.314984300    -0.6491966   -0.4459868  
   0.316984200    -0.7078322   -0.3433425  
   0.318984100    -0.7502075   -0.2327171  
   0.320984000    -0.7753975   -0.1161921  
   0.322983900    -0.7821707    0.0030422  
   0.324983800    -0.7706513    0.1212220  
   0.326983700    -0.7414150    0.2359800  
   0.328983600    -0.6949255    0.3447733  
   0.330983500    -0.6323753    0.4447550  
   0.332983400    -0.5561546    0.5335256  
   0.334983300    -0.4670957    0.6096500  
   0.336983200    -0.3681357    0.6712556  
   0.338983100    -0.2601232    0.7170721  
   0.340983000    -0.1468462    0.7459328  
   0.342982900    -0.0301543    0.7569215  
   0.344982800     0.0873786    0.7499921  
   0.346982700     0.2037643    0.7247360  
   0.348982600     0.3147171    0.6814291  
   0.350982500     0.4180139    0.6210925  
   0.352982400     0.5107991    0.5450402  
   0.354982300     0.5934558    0.4509839  
   0.356982200     0.6655220    0.3328163  
   0.358982100     0.7147624    0.2039531  
   0.360982000     0.7399349    0.0682535  
   0.362981900     0.7399846   -0.0694464  
   0.364981800     0.7146632   -0.2057420  
   0.366981700     0.6649984   -0.3346465  
   0.368981600     0.5923237   -0.4528904  
   0.370981500     0.4991836   -0.5557348  
   0.372981400     0.3884431   -0.6397048  
   0.374981300     0.2638830   -0.7019150  
   0.376981200     0.3586586   -0.6523412  
   0.378981100     0.2323704   -0.7094083  
   0.380981000     0.0977792   -0.7420020  
   0.382980900    -0.0280615   -0.7498389  
   0.384980800    -0.1481092   -0.7376804  
   0.386980700    -0.2639220   -0.7066329  
   0.388980600    -0.3730836   -0.6575317  
   0.390980500    -0.4723602   -0.5926335  
   0.392980400    -0.5592782   -0.5139111  
   0.394980300    -0.6324719   -0.4235554  
   0.396980200    -0.6910415   -0.3234728  
   0.398980100    -0.7330978   -0.2164191  
   0.400980000    -0.7585604   -0.1044936  
   0.402979900    -0.7665970    0.0096052  
   0.404979800    -0.7577368    0.1228718  
   0.406979700    -0.7320844    0.2334889  
   0.408979600    -0.6904486    0.3381529  
   0.410979500    -0.6334079    0.4362563  
   0.412979400    -0.5621166    0.5250285  
   0.414979300    -0.4783230    0.6024801  
   0.416979200    -0.3834758    0.6663297  
   0.418979100    -0.2805468    0.7154176  
   0.420979000    -0.1712191    0.7480007  
   0.422978900    -0.0574008    0.7643058  
   0.424978800     0.0580887    0.7630457  
   0.426978700     0.1726308    0.7440694  
   0.428978600     0.2828528    0.7077170  
   0.430978500     0.3866331    0.6548818  
   0.432978400     0.4810287    0.5865349  
   0.434978300     0.5638521    0.5044917  
   0.436978200     0.6332406    0.4099751  
   0.438978100     0.6872622    0.3050723  
   0.440978000     0.7244431    0.1929161  
   0.442977900     0.7434127    0.0756359  
   0.444977800     0.7434247   -0.0436246  
   0.446977700     0.7245224   -0.1617620  
   0.448977600     0.6869113   -0.2753342  
   0.450977500     0.6314695   -0.3814624  
   0.452977400     0.5589842   -0.4778854  
   0.454977300     0.4712440   -0.5623099  
   0.456977200     0.3707732   -0.6307412  
   0.458977100     0.2597075   -0.6822285  
   0.460977000     0.1420030   -0.7144835  
   0.462976900     0.0214167   -0.7269692  
   0.464976800    -0.0994658   -0.7194217  
   0.466976700    -0.2172452   -0.6921414  
   0.468976600    -0.3284107   -0.6465356  
   0.470976500    -0.4303907   -0.5835217  
   0.472976400    -0.5203936   -0.5048645  
   0.474976300    -0.5959350   -0.4134642  
   0.476976200    -0.6552864   -0.3118231  
   0.478976100    -0.6975973   -0.2028642  
   0.480976000    -0.7217685   -0.0896615  
   0.482975900    -0.7276843    0.0250604  
   0.484975800    -0.7158738    0.1385014  
   0.486975700    -0.6868421    0.2486393  
   0.488975600    -0.6411737    0.3522160  
   0.490975500    -0.5801830    0.4475843  
   0.492975400    -0.5057072    0.5323347  
   0.494975300    -0.4191296    0.6046627  
   0.496975200    -0.3226894    0.6626304  
   0.498975100    -0.2187221    0.7053269  
   0.500975000    -0.1097301    0.7316996  
   0.502974900     0.0017991    0.7410825  
   0.504974800     0.1138571    0.7335976  
   0.506974700     0.2241509    0.7089865  
   0.508974600     0.3299391    0.6674828  
   0.510974500     0.4284374    0.6098680  
   0.512974400     0.5172281    0.5377811  
   0.514974300     0.5938604    0.4527669  
   0.516974200     0.6570891    0.3571418  
   0.518974100     0.7043831    0.2524404  
   0.520974000     0.7352809    0.1415799  
   0.522973900     0.7485684    0.0269374  
   0.524973800     0.7439598   -0.0887979  
   0.526973700     0.7213949   -0.2032707  
   0.528973600     0.6810575   -0.3125959  
   0.530973500     0.6237351   -0.4151827  
   0.532973400     0.5507260   -0.5076454  
   0.534973300     0.4644453   -0.5875229  
   0.536973200     0.3654808   -0.6529499  
   0.538973100     0.2583986   -0.7018019  
   0.540973000     0.1451768   -0.7331687  
   0.542972900     0.0280333   -0.7462719  
   0.544972800    -0.0894181   -0.7406940  
   0.546972700    -0.2048931   -0.7167996  
   0.548972600    -0.3151542   -0.6748101  
   0.550972500    -0.4171775   -0.6159284  
   0.552972400    -0.5091243   -0.5414851  
   0.554972300    -0.5878243   -0.4534269  
   0.556972200    -0.6514707   -0.3541634  
   0.558972100    -0.6983863   -0.2461911  
   0.560972000    -0.7274532   -0.1325342  
   0.562971900    -0.7383035   -0.0161663  
   0.564971800    -0.7302864    0.0996013  
   0.566971700    -0.7043899    0.2125100  
   0.568971600    -0.6611766    0.3195521  
   0.570971500    -0.6020714    0.4183288  
   0.572971400    -0.5278920    0.5063283  
   0.574971300    -0.4408644    0.5818178  
   0.576971200    -0.3424740    0.6427225  
   0.578971100    -0.2357080    0.6873210  
   0.580971000    -0.1231930    0.7143391  
   0.582970900    -0.0078991    0.7233765  
   0.584970800     0.1070815    0.7137151  
   0.586970700     0.2187976    0.6861446  
   0.588970600     0.3247827    0.6410994  
   0.590970500     0.4222979    0.5798174  
   0.592970400     0.5091579    0.5035502  
   0.594970300     0.5827473    0.4143389  
   0.596970200     0.6410329    0.3147101  
   0.598970100     0.6829275    0.2065103  
   0.600970000     0.7067994    0.0926934  
   0.602969900     0.7120022   -0.0236233  
   0.604969800     0.6986281   -0.1399487  
   0.606969700     0.6668509   -0.2525258  
   0.608969600     0.6169010   -0.3590012  
   0.610969500     0.5503520   -0.4560903  
   0.612969400     0.4687220   -0.5409288  
   0.614969300     0.3749188   -0.6114424  
   0.616969200     0.2715638   -0.6658832  
   0.618969100     0.1613650   -0.7027197  
   0.620969000     0.0475727   -0.7212303  
   0.622968900    -0.0680612   -0.7217315  
   0.624968800    -0.1818034   -0.7044513  
   0.626968700    -0.2916693   -0.6692958  
   0.628968600    -0.3945994   -0.6173853  
   0.630968500    -0.4881760   -0.5504176  
   0.632968400    -0.5697403   -0.4697439  
   0.634968300    -0.6377720   -0.3775059  
   0.636968200    -0.6901280   -0.2762394  
   0.638968100    -0.7264436   -0.1685239  
   0.640968000    -0.7460124   -0.0567408  
   0.642967900    -0.7481331    0.0566556  
   0.644967800    -0.7327972    0.1684150  
   0.646967700    -0.7009448    0.2762346  
   0.648967600    -0.6534116    0.3777063  
   0.650967500    -0.5911854    0.4706146  
   0.652967400    -0.5164460    0.5527984  
   0.654967300    -0.4300332    0.6226321  
   0.656967200    -0.3345193    0.6791738  
   0.658967100    -0.2317204    0.7206082  
   0.660967000    -0.1233098    0.7460876  
   0.662966900    -0.0118703    0.7549529  
   0.664966800     0.1005321    0.7473229  
   0.666966700     0.2113099    0.7220946  
   0.668966600     0.3171364    0.6802849  
   0.670966500     0.4159636    0.6224899  
   0.672966400     0.5042496    0.5501978  
   0.674966300     0.5809688    0.4645416  
   0.676966200     0.6436273    0.3683007  
   0.678966100     0.6907358    0.2634518  
   0.680966000     0.7207997    0.1519865  
   0.682965900     0.7333964    0.0370893  
   0.684965800     0.7275726   -0.0786662  
   0.686965700     0.7032143   -0.1923743  
   0.688965600     0.6615322   -0.3013653  
   0.690965500     0.6030856   -0.4021668  
   0.692965400     0.5292835   -0.4926192  
   0.694965300     0.4418016   -0.5700821  
   0.696965200     0.3431006   -0.6327078  
   0.698965100     0.2357688   -0.6784863  
   0.700965000     0.1224359   -0.7067325  
   0.702964900     0.0059585   -0.7163189  
   0.704964800    -0.1102881   -0.7071264  
   0.706964700    -0.2234323   -0.6794739  
   0.708964600    -0.3304777   -0.6342455  
   0.710964500    -0.4288274   -0.5724933  
   0.712964400    -0.5154649   -0.4959660  
   0.714964300    -0.5883890   -0.4067389  
   0.716964200    -0.6460626   -0.3079775  
   0.718964100    -0.6870634   -0.2020264  
   0.720964000    -0.7108605   -0.0919929  
   0.722963900    -0.7174014    0.0197468  
   0.724963800    -0.7066709    0.1307405  
   0.726963700    -0.6789476    0.2382512  
   0.728963600    -0.6355003    0.3398215  
   0.730963500    -0.5769919    0.4334135  
   0.732963400    -0.5054475    0.5167383  
   0.734963300    -0.4219214    0.5879001  
   0.736963200    -0.3124234    0.6531032  
   0.738963100    -0.1926528    0.6984904  
   0.740963000    -0.0661823    0.7225115  
   0.742962900     0.0627220    0.7237980  
   0.744962800     0.1903976    0.7028874  
   0.746962700     0.3131491    0.6598229  
   0.748962600     0.4267904    0.5955563  
   0.750962500     0.3124328    0.6575716  
   0.752962400     0.4250911    0.5917966  
   0.754962300     0.5244304    0.5070863  
   0.756962200     0.6074951    0.4058234  
   0.758962100     0.6718021    0.2911921  
   0.760962000     0.7151238    0.1666929  
   0.762961900     0.7348189    0.0427025  
   0.764961800     0.7333525   -0.0718358  
   0.766961700     0.7145355   -0.1850837  
   0.768961600     0.6778172   -0.2945676  
   0.770961500     0.6245423   -0.3966955  
   0.772961400     0.5557770   -0.4898500  
   0.774961300     0.4732390   -0.5707942  
   0.776961200     0.3783981   -0.6380485  
   0.778961100     0.2741082   -0.6898624  
   0.780961000     0.1624635   -0.7247135  
   0.782960900     0.0463618   -0.7412601  
   0.784960800    -0.0709002   -0.7392198  
   0.786960700    -0.1867260   -0.7184374  
   0.788960600    -0.2974134   -0.6795573  
   0.790960500    -0.4001948   -0.6234499  
   0.792960400    -0.4922853   -0.5519984  
   0.794960300    -0.5716752   -0.4672340  
   0.796960200    -0.6361871   -0.3713681  
   0.798960100    -0.6844912   -0.2675796  
   0.800960000    -0.7160279   -0.1580478  
   0.802959900    -0.7296180   -0.0452289  
   0.804959800    -0.7257799    0.0672674  
   0.806959700    -0.7046559    0.1776508  
   0.808959600    -0.6671064    0.2823999  
   0.810959500    -0.6139671    0.3797072  
   0.812959400    -0.5469857    0.4677827  
   0.814959300    -0.4674768    0.5440643  
   0.816959200    -0.3776515    0.6069940  
   0.818959100    -0.2792083    0.6554819  
   0.820959000    -0.1748196    0.6886222  
   0.822958900    -0.0662491    0.7052287  
   0.824958800     0.0435977    0.7052159  
   0.826958700     0.1519228    0.6879736  
   0.828958600     0.2567333    0.6544600  
   0.830958500     0.3553508    0.6055614  
   0.832958400     0.4455308    0.5414944  
   0.834958300     0.5245252    0.4646040  
   0.836958200     0.5911209    0.3761024  
   0.838958100     0.6433999    0.2778812  
   0.840958000     0.6795903    0.1721363  
   0.842957900     0.6995361    0.0617812  
   0.844957800     0.7016072   -0.0508923  
   0.846957700     0.6858340   -0.1629557  
   0.848957600     0.6522983   -0.2717127  
   0.850957500     0.6018866   -0.3737243  
   0.852957400     0.5356127   -0.4669620  
   0.854957300     0.4554297   -0.5483893  
   0.856957200     0.3631594   -0.6163996  
   0.858957100     0.2610507   -0.6684590  
   0.860957000     0.1524974   -0.7036444  
   0.862956900     0.0400514   -0.7213030  
   0.864956800    -0.0729790   -0.7213182  
   0.866956700    -0.1844150   -0.7035466  
   0.868956600    -0.2911479   -0.6691335  
   0.870956500    -0.3911504   -0.6188005  
   0.872956400    -0.4818633   -0.5537575  
   0.874956300    -0.5614266   -0.4758249  
   0.876956200    -0.6280538   -0.3864898  
   0.878956100    -0.6801419   -0.2886350  
   0.880956000    -0.7165868   -0.1837934  
   0.882955900    -0.7364857   -0.0751873  
   0.884955800    -0.7398683    0.0348405  
   0.886955700    -0.7264711    0.1443383  
   0.888955600    -0.6971316    0.2502224  
   0.890955500    -0.6517406    0.3500111  
   0.892955400    -0.5924572    0.4415940  
   0.894955300    -0.5196889    0.5237433  
