! MS46122B
! 2250307/22442219
! 6/16/2025 12:57:20 PM
! C:\USERS\SPARKY\DOCUMENTS\VNA_DATA\JUNE16_2025\295K\PORT6_MOS2.S1P
! CHANNEL.1
! TR.MEASUREMENT
! RAW.DATA
# GHZ S RI R 50.0
! FREQ.GHZ         S11RE         S11IM         
!; PortSelection: Port_1
   0.001000000    -0.8905873    0.0542962  
   0.002999900    -0.8615311    0.2566534  
   0.004999800    -0.8200778    0.3998111  
   0.006999700    -0.7529145    0.5252722  
   0.008999600    -0.6637946    0.6327520  
   0.010999500    -0.5572219    0.7205340  
   0.012999400    -0.4369307    0.7880784  
   0.014999300    -0.3067701    0.8342721  
   0.016999200    -0.1715163    0.8595749  
   0.018999100    -0.0338481    0.8640871  
   0.020999000     0.1020705    0.8488960  
   0.022998900     0.2336757    0.8147250  
   0.024998800     0.3308320    0.7444992  
   0.026998700     0.4732748    0.6944547  
   0.028998600     0.5765843    0.6111967  
   0.030998500     0.6660346    0.5148461  
   0.032998400     0.7069517    0.4067352  
   0.034998300     0.7972916    0.2888333  
   0.036998200     0.8352516    0.1636055  
   0.038998100     0.8539323    0.0336854  
   0.040998000     0.8519149   -0.0976128  
   0.042997900     0.8287694   -0.2270122  
   0.044997800     0.7646177   -0.3260619  
   0.046997700     0.7230033   -0.4673534  
   0.048997600     0.6433602   -0.5723428  
   0.050997500     0.5484450   -0.6633269  
   0.052997400     0.4421867   -0.7380739  
   0.054997300     0.3245173   -0.7969213  
   0.056997200     0.2001531   -0.8366308  
   0.058997100     0.0721769   -0.8574730  
   0.060997000    -0.0572078   -0.8589419  
   0.062996900    -0.1848951   -0.8413244  
   0.064996800    -0.3084396   -0.8048620  
   0.066996700    -0.4248815   -0.7503728  
   0.068996600    -0.5317429   -0.6788775  
   0.070996500    -0.6261704   -0.5924206  
   0.072996400    -0.7066535   -0.4926132  
   0.074996300    -0.7709017   -0.3819912  
   0.076996200    -0.8175508   -0.2628053  
   0.078996100    -0.8457706   -0.1381581  
   0.080996000    -0.8548195   -0.0104432  
   0.082995900    -0.8448434    0.1172987  
   0.084995800    -0.8151973    0.2419701  
   0.086995700    -0.7674241    0.3610335  
   0.088995600    -0.7017540    0.4718566  
   0.090995500    -0.6201313    0.5714451  
   0.092995400    -0.5238112    0.6578342  
   0.094995300    -0.4152516    0.7283773  
   0.096995200    -0.2966617    0.7817078  
   0.098995100    -0.1707595    0.8161055  
   0.100995000    -0.0405368    0.8299475  
   0.102994900     0.0902184    0.8233489  
   0.104994800     0.2187143    0.7960871  
   0.106994700     0.3414664    0.7487271  
   0.108994600     0.4552129    0.6824528  
   0.110994500     0.5571795    0.5989544  
   0.112994400     0.6444683    0.5000809  
   0.114994300     0.7148281    0.3886913  
   0.116994200     0.7664604    0.2674488  
   0.118994100     0.7982895    0.1397616  
   0.120994000     0.8089852    0.0088804  
   0.122993900     0.7987777   -0.1216228  
   0.124993800     0.7681234   -0.2485385  
   0.126993700     0.7177905   -0.3685189  
   0.128993600     0.6493456   -0.4788699  
   0.130993500     0.5646187   -0.5761278  
   0.132993400     0.4661491   -0.6585126  
   0.134993300     0.3563719   -0.7242770  
   0.136993200     0.2385920   -0.7715924  
   0.138993100     0.1151778   -0.7999476  
   0.140993000    -0.0098768   -0.8087693  
   0.142992900    -0.1346202   -0.7983491  
   0.144992800    -0.2553739   -0.7690897  
   0.146992700    -0.3697584   -0.7221724  
   0.148992600    -0.4750080   -0.6586754  
   0.150992500    -0.5693993   -0.5803245  
   0.152992400    -0.6501522   -0.4888634  
   0.154992300    -0.7162209   -0.3870231  
   0.156992200    -0.7661889   -0.2765865  
   0.158992100    -0.7993395   -0.1603531  
   0.160992000    -0.8145866   -0.0407471  
   0.162991900    -0.8121687    0.0793729  
   0.164991800    -0.7917591    0.1982394  
   0.166991700    -0.7541398    0.3121936  
   0.168991600    -0.7000920    0.4194167  
   0.170991500    -0.6305183    0.5180952  
   0.172991400    -0.5471733    0.6047182  
   0.174991300    -0.4516813    0.6784121  
   0.176991200    -0.3456235    0.7372575  
   0.178991100    -0.2320404    0.7799163  
   0.180991000    -0.1130959    0.8049042  
   0.182990900     0.0086044    0.8116875  
   0.184990800     0.1305732    0.8001854  
   0.186990700     0.2505725    0.7703791  
   0.188990600     0.3427796    0.7324287  
   0.190990500     0.4657846    0.6592234  
   0.192990400     0.5631468    0.5764389  
   0.194990300     0.6443468    0.4815454  
   0.196990200     0.7097681    0.3757089  
   0.198990100     0.7580306    0.2604117  
   0.200990000     0.7882152    0.1385346  
   0.202989900     0.7986631    0.0129063  
   0.204989800     0.7892621   -0.1128702  
   0.206989700     0.7604015   -0.2354571  
   0.208989600     0.7125096   -0.3515837  
   0.210989500     0.6466989   -0.4593586  
   0.212989400     0.5644271   -0.5556425  
   0.214989300     0.4682407   -0.6373287  
   0.216989200     0.3608580   -0.7021149  
   0.218989100     0.2448554   -0.7492341  
   0.220989000     0.1229814   -0.7774723  
   0.222988900    -0.0019011   -0.7859803  
   0.224988800    -0.1263649   -0.7747828  
   0.226988700    -0.2466094   -0.7436600  
   0.228988600    -0.3599181   -0.6947766  
   0.230988500    -0.4636491   -0.6288490  
   0.232988400    -0.5556701   -0.5475349  
   0.234988300    -0.6337006   -0.4529839  
   0.236988200    -0.6956958   -0.3475584  
   0.238988100    -0.7404385   -0.2341904  
   0.240988000    -0.7665166   -0.1159821  
   0.242987900    -0.7739379    0.0042574  
   0.244987800    -0.7628104    0.1235732  
   0.246987700    -0.7331637    0.2399753  
   0.248987600    -0.6858270    0.3506618  
   0.250987500    -0.6220313    0.4524840  
   0.252987400    -0.5433201    0.5428517  
   0.254987300    -0.4520519    0.6195967  
   0.256987200    -0.3505086    0.6811209  
   0.258987100    -0.2406900    0.7266194  
   0.260987000    -0.1247133    0.7545297  
   0.262986900    -0.0054612    0.7641869  
   0.264986800     0.1142995    0.7553784  
   0.266986700     0.2311397    0.7278224  
   0.268986600     0.3423571    0.6828271  
   0.270986500     0.4448024    0.6216161  
   0.272986400     0.5367066    0.5447122  
   0.274986300     0.6158578    0.4545249  
   0.276986200     0.6802062    0.3530889  
   0.278986100     0.7283282    0.2423139  
   0.280986000     0.7586842    0.1248758  
   0.282985900     0.7701851    0.0036312  
   0.284985800     0.7627620   -0.1177434  
   0.286985700     0.7365357   -0.2365772  
   0.288985600     0.6918380   -0.3492628  
   0.290985500     0.6306630   -0.4532172  
   0.292985400     0.5541100   -0.5463960  
   0.294985300     0.4641464   -0.6265035  
   0.296985200     0.3624004   -0.6919904  
   0.298985100     0.2513340   -0.7410074  
   0.300985000     0.1335897   -0.7719204  
   0.302984900     0.0129757   -0.7840726  
   0.304984800    -0.1077399   -0.7775242  
   0.306984700    -0.2254318   -0.7523849  
   0.308984600    -0.3366523   -0.7095351  
   0.310984500    -0.4395938   -0.6507691  
   0.312984400    -0.5319389   -0.5776042  
   0.314984300    -0.6117651   -0.4911724  
   0.316984200    -0.6774526   -0.3939343  
   0.318984100    -0.7278329   -0.2876571  
   0.320984000    -0.7614123   -0.1743580  
   0.322983900    -0.7774606   -0.0570885  
   0.324983800    -0.7752979    0.0608408  
   0.326983700    -0.7553856    0.1767643  
   0.328983600    -0.7178937    0.2879987  
   0.330983500    -0.6639802    0.3917029  
   0.332983400    -0.5958592    0.4854960  
   0.334983300    -0.5141492    0.5676656  
   0.336983200    -0.4210827    0.6366487  
   0.338983100    -0.3184948    0.6910192  
   0.340983000    -0.2091350    0.7286260  
   0.342982900    -0.0949618    0.7494723  
   0.344982800     0.0217268    0.7524536  
   0.346982700     0.1383808    0.7375426  
   0.348982600     0.2518300    0.7044697  
   0.350982500     0.3588916    0.6540048  
   0.352982400     0.4571922    0.5870604  
   0.354982300     0.5471591    0.5019442  
   0.356982200     0.6288178    0.3916801  
   0.358982100     0.6889014    0.2689347  
   0.360982000     0.7259723    0.1377269  
   0.362981900     0.7390581    0.0017886  
   0.364981800     0.7265800   -0.1345981  
   0.366981700     0.6899453   -0.2665727  
   0.368981600     0.6296199   -0.3899330  
   0.370981500     0.5479590   -0.5003554  
   0.372981400     0.4466671   -0.5937806  
   0.374981300     0.3299241   -0.6674270  
   0.376981200     0.4185352   -0.6087288  
   0.378981100     0.2994485   -0.6774319  
   0.380981000     0.1698119   -0.7230904  
   0.382980900     0.0464309   -0.7430606  
   0.384980800    -0.0729876   -0.7427745  
   0.386980700    -0.1906889   -0.7236055  
   0.388980600    -0.3034587   -0.6860301  
   0.390980500    -0.4075015   -0.6317716  
   0.392980400    -0.5014814   -0.5625746  
   0.394980300    -0.5827518   -0.4805821  
   0.396980200    -0.6500691   -0.3878808  
   0.398980100    -0.7026491   -0.2861255  
   0.400980000    -0.7387914   -0.1782755  
   0.402979900    -0.7583765   -0.0665072  
   0.404979800    -0.7610275    0.0461083  
   0.406979700    -0.7467963    0.1573020  
   0.408979600    -0.7163471    0.2650227  
   0.410979500    -0.6700246    0.3674664  
   0.412979400    -0.6090384    0.4621353  
   0.414979300    -0.5343232    0.5468675  
   0.416979200    -0.4479296    0.6197200  
   0.418979100    -0.3517665    0.6783041  
   0.420979000    -0.2476301    0.7220604  
   0.422978900    -0.1376971    0.7499912  
   0.424978800    -0.0243671    0.7613034  
   0.426978700     0.0898916    0.7550694  
   0.428978600     0.2021834    0.7314727  
   0.430978500     0.3096547    0.6911814  
   0.432978400     0.4095110    0.6348418  
   0.434978300     0.4999042    0.5637589  
   0.436978200     0.5788374    0.4792826  
   0.438978100     0.6439791    0.3832464  
   0.440978000     0.6933726    0.2778271  
   0.442977900     0.7259449    0.1653856  
   0.444977800     0.7404334    0.0487649  
   0.446977700     0.7362710   -0.0686920  
   0.448977600     0.7137109   -0.1846618  
   0.450977500     0.6728570   -0.2956437  
   0.452977400     0.6141606   -0.3991147  
   0.454977300     0.5392520   -0.4927637  
   0.456977200     0.4493806   -0.5731771  
   0.458977100     0.3475695   -0.6376478  
   0.460977000     0.2365793   -0.6849418  
   0.462976900     0.1199704   -0.7131951  
   0.464976800     0.0004301   -0.7218803  
   0.466976700    -0.1189070   -0.7108492  
   0.468976600    -0.2342736   -0.6809299  
   0.470976500    -0.3428498   -0.6326788  
   0.472976400    -0.4419622   -0.5677595  
   0.474976300    -0.5283919   -0.4881690  
   0.476976200    -0.6006539   -0.3962712  
   0.478976100    -0.6567088   -0.2948699  
   0.480976000    -0.6958547   -0.1868681  
   0.482975900    -0.7172866   -0.0747286  
   0.484975800    -0.7209669    0.0383623  
   0.486975700    -0.7073384    0.1501390  
   0.488975600    -0.6766842    0.2583943  
   0.490975500    -0.6294664    0.3602134  
   0.492975400    -0.5679554    0.4532023  
   0.494975300    -0.4927095    0.5359440  
   0.496975200    -0.4057746    0.6060696  
   0.498975100    -0.3098649    0.6617187  
   0.500975000    -0.2066792    0.7024231  
   0.502974900    -0.0988039    0.7267887  
   0.504974800     0.0118263    0.7346821  
   0.506974700     0.1227442    0.7255386  
   0.508974600     0.2320583    0.6994752  
   0.510974500     0.3361950    0.6568322  
   0.512974400     0.4325110    0.5987535  
   0.514974300     0.5191171    0.5266426  
   0.516974200     0.5939432    0.4420097  
   0.518974100     0.6548852    0.3469852  
   0.520974000     0.7005227    0.2431903  
   0.522973900     0.7298400    0.1335013  
   0.524973800     0.7419739    0.0203139  
   0.526973700     0.7364506   -0.0939422  
   0.528973600     0.7132815   -0.2065024  
   0.530973500     0.6726835   -0.3143150  
   0.532973400     0.6155410   -0.4150641  
   0.534973300     0.5432149   -0.5057489  
   0.536973200     0.4573104   -0.5841253  
   0.538973100     0.3602923   -0.6481608  
   0.540973000     0.2549353   -0.6957712  
   0.542972900     0.1433577   -0.7266544  
   0.544972800     0.0282375   -0.7394950  
   0.546972700    -0.0878968   -0.7340565  
   0.548972600    -0.2020273   -0.7108458  
   0.550972500    -0.3109329   -0.6697891  
   0.552972400    -0.4120530   -0.6118027  
   0.554972300    -0.5026971   -0.5386410  
   0.556972200    -0.5807487   -0.4521334  
   0.558972100    -0.6438515   -0.3544273  
   0.560972000    -0.6906652   -0.2484726  
   0.562971900    -0.7200851   -0.1370617  
   0.564971800    -0.7315331   -0.0226942  
   0.566971700    -0.7249016    0.0913126  
   0.568971600    -0.7006401    0.2024504  
   0.570971500    -0.6593128    0.3084197  
   0.572971400    -0.6020311    0.4066152  
   0.574971300    -0.5299263    0.4945230  
   0.576971200    -0.4448150    0.5702751  
   0.578971100    -0.3484903    0.6316639  
   0.580971000    -0.2438591    0.6771044  
   0.582970900    -0.1334977    0.7053660  
   0.584970800    -0.0203665    0.7159896  
   0.586970700     0.0926362    0.7086163  
   0.588970600     0.2034921    0.6833126  
   0.590970500     0.3086173    0.6408604  
   0.592970400     0.4058074    0.5822998  
   0.594970300     0.4927335    0.5090449  
   0.596970200     0.5669273    0.4222980  
   0.598970100     0.6266710    0.3254012  
   0.600970000     0.6701531    0.2195553  
   0.602969900     0.6962003    0.1076358  
   0.604969800     0.7037885   -0.0072791  
   0.606969700     0.6930758   -0.1220060  
   0.608969600     0.6639931   -0.2342663  
   0.610969500     0.6168938   -0.3403851  
   0.612969400     0.5531681   -0.4373422  
   0.614969300     0.4748091   -0.5228917  
   0.616969200     0.3843026   -0.5941282  
   0.618969100     0.2839692   -0.6495721  
   0.620969000     0.1769493   -0.6884258  
   0.622968900     0.0647882   -0.7096419  
   0.624968800    -0.0491817   -0.7130821  
   0.626968700    -0.1622424   -0.6987329  
   0.628968600    -0.2716242   -0.6668292  
   0.630968500    -0.3744693   -0.6181052  
   0.632968400    -0.4683532   -0.5542167  
   0.634968300    -0.5506613   -0.4765658  
   0.636968200    -0.6198574   -0.3871933  
   0.638968100    -0.6743771   -0.2887113  
   0.640968000    -0.7129671   -0.1833030  
   0.642967900    -0.7349187   -0.0736365  
   0.644967800    -0.7395827    0.0380514  
   0.646967700    -0.7275487    0.1486508  
   0.648967600    -0.6990461    0.2554109  
   0.650967500    -0.6549574    0.3565577  
   0.652967400    -0.5964301    0.4497564  
   0.654967300    -0.5250121    0.5326998  
   0.656967200    -0.4419072    0.6038999  
   0.658967100    -0.3495809    0.6622403  
   0.660967000    -0.2491510    0.7061781  
   0.662966900    -0.1424634    0.7344428  
   0.664966800    -0.0323616    0.7463365  
   0.666966700     0.0792793    0.7418306  
   0.668966600     0.1890035    0.7205985  
   0.670966500     0.2946766    0.6823950  
   0.672966400     0.3932135    0.6280626  
   0.674966300     0.4824139    0.5597197  
   0.676966200     0.5608696    0.4779017  
   0.678966100     0.6254782    0.3854299  
   0.680966000     0.6750352    0.2838144  
   0.682965900     0.7085162    0.1749530  
   0.684965800     0.7248402    0.0627496  
   0.686965700     0.7229320   -0.0516176  
   0.688965600     0.7033666   -0.1646024  
   0.690965500     0.6664239   -0.2732465  
   0.692965400     0.6122503   -0.3749864  
   0.694965300     0.5433744   -0.4665573  
   0.696965200     0.4600778   -0.5463890  
   0.698965100     0.3652318   -0.6118062  
   0.700965000     0.2612003   -0.6614511  
   0.702964900     0.1504485   -0.6937628  
   0.704964800     0.0359890   -0.7081023  
   0.706964700    -0.0792450   -0.7037594  
   0.708964600    -0.1919018   -0.6812123  
   0.710964500    -0.2998965   -0.6408077  
   0.712964400    -0.3991587   -0.5840364  
   0.714964300    -0.4878322   -0.5118053  
   0.716964200    -0.5636639   -0.4273073  
   0.718964100    -0.6242676   -0.3327534  
   0.720964000    -0.6692053   -0.2303071  
   0.722963900    -0.6975850   -0.1230355  
   0.724963800    -0.7090902   -0.0131959  
   0.726963700    -0.7034575    0.0966813  
   0.728963600    -0.6811009    0.2038578  
   0.730963500    -0.6428132    0.3061144  
   0.732963400    -0.5894842    0.4009605  
   0.734963300    -0.5224891    0.4866787  
   0.736963200    -0.4293812    0.5703371  
   0.738963100    -0.3223953    0.6374810  
   0.740963000    -0.2045484    0.6849842  
   0.742962900    -0.0806579    0.7111003  
   0.744962800     0.0467864    0.7155552  
   0.746962700     0.1730937    0.6976467  
   0.748962600     0.2952574    0.6577191  
   0.750962500     0.1734582    0.6978003  
   0.752962400     0.2945451    0.6564189  
   0.754962300     0.4067312    0.5943157  
   0.756962200     0.5065284    0.5132071  
   0.758962100     0.5906066    0.4156509  
   0.760962000     0.6568894    0.3045692  
   0.762961900     0.7006575    0.1891955  
   0.764961800     0.7226295    0.0791519  
   0.766961700     0.7271526   -0.0330135  
   0.768961600     0.7144545   -0.1454501  
   0.770961500     0.6843153   -0.2542600  
   0.772961400     0.6375698   -0.3577242  
   0.774961300     0.5752407   -0.4526146  
   0.776961200     0.4985277   -0.5370068  
   0.778961100     0.4088306   -0.6085218  
   0.780961000     0.3092418   -0.6656297  
   0.782960900     0.2012805   -0.7062215  
   0.784960800     0.0877094   -0.7297701  
   0.786960700    -0.0281944   -0.7344283  
   0.788960600    -0.1435341   -0.7206760  
   0.790960500    -0.2546493   -0.6888651  
   0.792960400    -0.3592525   -0.6397911  
   0.794960300    -0.4542216   -0.5750251  
   0.796960200    -0.5376047   -0.4964821  
   0.798960100    -0.6070091   -0.4062384  
   0.800960000    -0.6612182   -0.3068166  
   0.802959900    -0.6990495   -0.2004338  
   0.804959800    -0.7196340   -0.0905943  
   0.806959700    -0.7229559    0.0206201  
   0.808959600    -0.7089565    0.1305648  
   0.810959500    -0.6787673    0.2366671  
   0.812959400    -0.6327708    0.3361521  
   0.814959300    -0.5724529    0.4272782  
   0.816959200    -0.4988352    0.5077406  
   0.818959100    -0.4142855    0.5757596  
   0.820959000    -0.3201643    0.6301768  
   0.822958900    -0.2193281    0.6696833  
   0.824958800    -0.1134713    0.6933022  
   0.826958700    -0.0052581    0.7002809  
   0.828958600     0.1029710    0.6906143  
   0.830958500     0.2086289    0.6645480  
   0.832958400     0.3089760    0.6229812  
   0.834958300     0.4018265    0.5662877  
   0.836958200     0.4847004    0.4957843  
   0.838958100     0.5563451    0.4132503  
   0.840958000     0.6145762    0.3200306  
   0.842957900     0.6575921    0.2185279  
   0.844957800     0.6848357    0.1111212  
   0.846957700     0.6948600    0.0002245  
   0.848957600     0.6869782   -0.1110885  
   0.850957500     0.6618556   -0.2204432  
   0.852957400     0.6193315   -0.3246581  
   0.854957300     0.5605628   -0.4211707  
   0.856957200     0.4874729   -0.5068860  
   0.858957100     0.4014342   -0.5800714  
   0.860957000     0.3051642   -0.6385488  
   0.862956900     0.2012446   -0.6811867  
   0.864956800     0.0924865   -0.7067202  
   0.866956700    -0.0189102   -0.7153283  
   0.868956600    -0.1297912   -0.7061902  
   0.870956500    -0.2375449   -0.6803362  
   0.872956400    -0.3401588   -0.6381753  
   0.874956300    -0.4344501   -0.5808016  
   0.876956200    -0.5189235   -0.5096882  
   0.878956100    -0.5912354   -0.4264179  
   0.880956000    -0.6500452   -0.3335419  
   0.882955900    -0.6936148   -0.2329352  
   0.884955800    -0.7218253   -0.1272318  
   0.886955700    -0.7333183   -0.0185409  
   0.888955600    -0.7283289    0.0900567  
   0.890955500    -0.7071038    0.1967864  
   0.892955400    -0.6701409    0.2985457  
   0.894955300    -0.6184718    0.3935396  
