! MS46122B
! 2250307/22442219
! 6/16/2025 12:53:04 PM
! C:\USERS\SPARKY\DOCUMENTS\VNA_DATA\JUNE16_2025\295K\PORT3_MOS5.S1P
! CHANNEL.1
! TR.MEASUREMENT
! RAW.DATA
# GHZ S RI R 50.0
! FREQ.GHZ         S11RE         S11IM         
!; PortSelection: Port_1
   0.001000000    -0.8940365    0.0553560  
   0.002999900    -0.8641263    0.2602234  
   0.004999800    -0.8214866    0.4056646  
   0.006999700    -0.7522609    0.5329691  
   0.008999600    -0.6606029    0.6415598  
   0.010999500    -0.5509850    0.7298666  
   0.012999400    -0.4279062    0.7970463  
   0.014999300    -0.2946202    0.8422413  
   0.016999200    -0.1564420    0.8657546  
   0.018999100    -0.0163749    0.8679937  
   0.020999000     0.1216061    0.8496384  
   0.022998900     0.2545542    0.8119278  
   0.024998800     0.3519861    0.7384421  
   0.026998700     0.4950512    0.6836272  
   0.028998600     0.5977098    0.5961878  
   0.030998500     0.6857616    0.4953666  
   0.032998400     0.7240442    0.3843941  
   0.034998300     0.8114173    0.2612122  
   0.036998200     0.8455891    0.1323601  
   0.038998100     0.8591515   -0.0003863  
   0.040998000     0.8517115   -0.1337562  
   0.042997900     0.8223937   -0.2646011  
   0.044997800     0.7530227   -0.3626577  
   0.046997700     0.7036520   -0.5042199  
   0.048997600     0.6174008   -0.6066719  
   0.050997500     0.5164090   -0.6944464  
   0.052997400     0.4046092   -0.7644662  
   0.054997300     0.2814407   -0.8176969  
   0.056997200     0.1529345   -0.8511411  
   0.058997100     0.0216319   -0.8647813  
   0.060997000    -0.1098515   -0.8583101  
   0.062996900    -0.2386833   -0.8323364  
   0.064996800    -0.3617240   -0.7872275  
   0.066996700    -0.4762618   -0.7238765  
   0.068996600    -0.5798004   -0.6438240  
   0.070996500    -0.6697540   -0.5489773  
   0.072996400    -0.7439929   -0.4417637  
   0.074996300    -0.8008368   -0.3243775  
   0.076996200    -0.8388519   -0.1995704  
   0.078996100    -0.8573340   -0.0704220  
   0.080996000    -0.8560010    0.0600508  
   0.082995900    -0.8347412    0.1889258  
   0.084995800    -0.7937577    0.3134222  
   0.086995700    -0.7341515    0.4299152  
   0.088995600    -0.6572090    0.5366095  
   0.090995500    -0.5644821    0.6300250  
   0.092995400    -0.4580082    0.7079706  
   0.094995300    -0.3403510    0.7689754  
   0.096995200    -0.2139603    0.8108687  
   0.098995100    -0.0823425    0.8318333  
   0.100995000     0.0514086    0.8319387  
   0.102994900     0.1830917    0.8100045  
   0.104994800     0.3104368    0.7675143  
   0.106994700     0.4292170    0.7047611  
   0.108994600     0.5365566    0.6239405  
   0.110994500     0.6293429    0.5267097  
   0.112994400     0.7052131    0.4155593  
   0.114994300     0.7619625    0.2937656  
   0.116994200     0.7984212    0.1644790  
   0.118994100     0.8131754    0.0316216  
   0.120994000     0.8063213   -0.1019391  
   0.122993900     0.7779663   -0.2322005  
   0.124993800     0.7294316   -0.3557052  
   0.126993700     0.6617089   -0.4693175  
   0.128993600     0.5771171   -0.5704738  
   0.130993500     0.4779594   -0.6560231  
   0.132993400     0.3669323   -0.7245810  
   0.134993300     0.2471363   -0.7741638  
   0.136993200     0.1216354   -0.8040540  
   0.138993100    -0.0059024   -0.8138449  
   0.140993000    -0.1331748   -0.8038105  
   0.142992900    -0.2565348   -0.7742336  
   0.144992800    -0.3730862   -0.7261192  
   0.146992700    -0.4804934   -0.6612881  
   0.148992600    -0.5763968   -0.5808946  
   0.150992500    -0.6581731   -0.4871904  
   0.152992400    -0.7247099   -0.3825742  
   0.154992300    -0.7745007   -0.2695798  
   0.156992200    -0.8066946   -0.1504473  
   0.158992100    -0.8205268   -0.0281309  
   0.160992000    -0.8159826    0.0945338  
   0.162991900    -0.7929460    0.2152422  
   0.164991800    -0.7518692    0.3311566  
   0.166991700    -0.6940618    0.4392860  
   0.168991600    -0.6206531    0.5379974  
   0.170991500    -0.5325812    0.6246637  
   0.172991400    -0.4326836    0.6968724  
   0.174991300    -0.3226405    0.7532580  
   0.176991200    -0.2049290    0.7927926  
   0.178991100    -0.0818165    0.8137980  
   0.180991000     0.0431289    0.8157557  
   0.182990900     0.1669842    0.7985422  
   0.184990800     0.2883076    0.7621694  
   0.186990700     0.4026033    0.7071300  
   0.188990600     0.4877686    0.6493325  
   0.190990500     0.5960503    0.5494524  
   0.192990400     0.6759199    0.4452478  
   0.194990300     0.7365798    0.3319388  
   0.196990200     0.7784674    0.2106393  
   0.198990100     0.8006793    0.0842101  
   0.200990000     0.8022909   -0.0450300  
   0.202989900     0.7831247   -0.1734452  
   0.204989800     0.7437641   -0.2967493  
   0.206989700     0.6851724   -0.4118319  
   0.208989600     0.6086712   -0.5158759  
   0.210989500     0.5163153   -0.6066852  
   0.212989400     0.4104538   -0.6813573  
   0.214989300     0.2944236   -0.7376559  
   0.216989200     0.1712062   -0.7741132  
   0.218989100     0.0443110   -0.7905751  
   0.220989000    -0.0833282   -0.7863431  
   0.222988900    -0.2085558   -0.7617862  
   0.224988800    -0.3280630   -0.7170209  
   0.226988700    -0.4381354   -0.6542280  
   0.228988600    -0.5361917   -0.5754400  
   0.230988500    -0.6200269   -0.4821358  
   0.232988400    -0.6878523   -0.3770526  
   0.234988300    -0.7379928   -0.2623206  
   0.236988200    -0.7693699   -0.1415018  
   0.238988100    -0.7810443   -0.0176628  
   0.240988000    -0.7727996    0.1056052  
   0.242987900    -0.7456179    0.2256725  
   0.244987800    -0.7003401    0.3393299  
   0.246987700    -0.6372959    0.4449165  
   0.248987600    -0.5583950    0.5395420  
   0.250987500    -0.4655015    0.6205736  
   0.252987400    -0.3612025    0.6856218  
   0.254987300    -0.2486180    0.7334368  
   0.256987200    -0.1301729    0.7629351  
   0.258987100    -0.0085544    0.7737483  
   0.260987000     0.1138308    0.7652395  
   0.262986900     0.2340277    0.7375037  
   0.264986800     0.3482955    0.6912205  
   0.266986700     0.4544472    0.6274783  
   0.268986600     0.5489418    0.5475280  
   0.270986500     0.6295989    0.4536771  
   0.272986400     0.6944693    0.3487295  
   0.274986300     0.7422537    0.2347718  
   0.276986200     0.7713667    0.1140365  
   0.278986100     0.7812108   -0.0102094  
   0.280986000     0.7710493   -0.1348767  
   0.282985900     0.7414905   -0.2566608  
   0.284985800     0.6923404   -0.3723071  
   0.286985700     0.6258159   -0.4784989  
   0.288985600     0.5437552   -0.5723336  
   0.290985500     0.4481012   -0.6516833  
   0.292985400     0.3414076   -0.7147478  
   0.294985300     0.2262061   -0.7601560  
   0.296985200     0.1050070   -0.7872519  
   0.298985100    -0.0194793   -0.7949982  
   0.300985000    -0.1436751   -0.7824733  
   0.302984900    -0.2638494   -0.7508981  
   0.304984800    -0.3770183   -0.7006336  
   0.306984700    -0.4805952   -0.6336800  
   0.308984600    -0.5716442   -0.5525084  
   0.310984500    -0.6484517   -0.4583775  
   0.312984400    -0.7096004   -0.3542544  
   0.314984300    -0.7538818   -0.2419497  
   0.316984200    -0.7801806   -0.1247953  
   0.318984100    -0.7884939   -0.0040690  
   0.320984000    -0.7777500    0.1166718  
   0.322983900    -0.7484141    0.2348103  
   0.324983800    -0.7010826    0.3464220  
   0.326983700    -0.6369379    0.4491520  
   0.328983600    -0.5578198    0.5407038  
   0.330983500    -0.4654503    0.6186323  
   0.332983400    -0.3632601    0.6810272  
   0.334983300    -0.2522194    0.7265051  
   0.336983200    -0.1353880    0.7544671  
   0.338983100    -0.0157567    0.7639031  
   0.340983000     0.1043876    0.7545576  
   0.342982900     0.2217461    0.7265651  
   0.344982800     0.3337880    0.6801205  
   0.346982700     0.4381213    0.6160223  
   0.348982600     0.5311940    0.5357513  
   0.350982500     0.6104841    0.4414725  
   0.352982400     0.6733352    0.3349449  
   0.354982300     0.7203370    0.2147533  
   0.356982200     0.7479256    0.0750103  
   0.358982100     0.7489095   -0.0670974  
   0.360982000     0.7237037   -0.2067843  
   0.362981900     0.6732361   -0.3390278  
   0.364981800     0.5989110   -0.4602424  
   0.366981700     0.5032665   -0.5654869  
   0.368981600     0.3894516   -0.6511521  
   0.370981500     0.2621754   -0.7139532  
   0.372981400     0.1249488   -0.7521766  
   0.374981300    -0.0172298   -0.7638600  
   0.376981200     0.0929947   -0.7544839  
   0.378981100    -0.0488742   -0.7611249  
   0.380981000    -0.1892716   -0.7414517  
   0.382980900    -0.3114824   -0.7013437  
   0.384980800    -0.4202874   -0.6443066  
   0.386980700    -0.5184109   -0.5708514  
   0.388980600    -0.6029169   -0.4834845  
   0.390980500    -0.6721841   -0.3843581  
   0.392980400    -0.7252128   -0.2766948  
   0.394980300    -0.7599866   -0.1633001  
   0.396980200    -0.7771224   -0.0464336  
   0.398980100    -0.7762224    0.0714183  
   0.400980000    -0.7573987    0.1870873  
   0.402979900    -0.7212501    0.2989746  
   0.404979800    -0.6689343    0.4029520  
   0.406979700    -0.6016935    0.4981158  
   0.408979600    -0.5207664    0.5818530  
   0.410979500    -0.4279048    0.6531152  
   0.412979400    -0.3243601    0.7093001  
   0.414979300    -0.2133075    0.7495689  
   0.416979200    -0.0970618    0.7719014  
   0.418979100     0.0211815    0.7765923  
   0.420979000     0.1395450    0.7628939  
   0.422978900     0.2550332    0.7307212  
   0.424978800     0.3646967    0.6808512  
   0.426978700     0.4656405    0.6138216  
   0.428978600     0.5550687    0.5313560  
   0.430978500     0.6306027    0.4355196  
   0.432978400     0.6898230    0.3288680  
   0.434978300     0.7311527    0.2136282  
   0.436978200     0.7536730    0.0928624  
   0.438978100     0.7566167   -0.0306286  
   0.440978000     0.7391539   -0.1532730  
   0.442977900     0.7019423   -0.2715863  
   0.444977800     0.6459106   -0.3826281  
   0.446977700     0.5719973   -0.4831017  
   0.448977600     0.4828522   -0.5697661  
   0.450977500     0.3804932   -0.6412671  
   0.452977400     0.2673335   -0.6945819  
   0.454977300     0.1467005   -0.7283102  
   0.456977200     0.0212861   -0.7418398  
   0.458977100    -0.1040673   -0.7340481  
   0.460977000    -0.2259942   -0.7054178  
   0.462976900    -0.3410014   -0.6578407  
   0.464976800    -0.4457912   -0.5919657  
   0.466976700    -0.5382009   -0.5100096  
   0.468976600    -0.6154088   -0.4146179  
   0.470976500    -0.6758729   -0.3083528  
   0.472976400    -0.7180862   -0.1946030  
   0.474976300    -0.7412117   -0.0760260  
   0.476976200    -0.7451012    0.0437716  
   0.478976100    -0.7297134    0.1620810  
   0.480976000    -0.6967532    0.2749684  
   0.482975900    -0.6465539    0.3807963  
   0.484975800    -0.5809473    0.4769624  
   0.486975700    -0.5015082    0.5622475  
   0.488975600    -0.4100419    0.6335657  
   0.490975500    -0.3088972    0.6904926  
   0.492975400    -0.2000062    0.7310359  
   0.494975300    -0.0864382    0.7545659  
   0.496975200     0.0296128    0.7602501  
   0.498975100     0.1453186    0.7481508  
   0.500975000     0.2578377    0.7186507  
   0.502974900     0.3645813    0.6723319  
   0.504974800     0.4631271    0.6097390  
   0.506974700     0.5517181    0.5322250  
   0.508974600     0.6281497    0.4408123  
   0.510974500     0.6895167    0.3383490  
   0.512974400     0.7345200    0.2268340  
   0.514974300     0.7613084    0.1096528  
   0.516974200     0.7693042   -0.0104828  
   0.518974100     0.7582660   -0.1306469  
   0.520974000     0.7287192   -0.2481709  
   0.522973900     0.6802624   -0.3596299  
   0.524973800     0.6149253   -0.4622526  
   0.526973700     0.5334463   -0.5537140  
   0.528973600     0.4385811   -0.6311044  
   0.530973500     0.3316074   -0.6929026  
   0.532973400     0.2166084   -0.7361465  
   0.534973300     0.0956274   -0.7608030  
   0.536973200    -0.0281428   -0.7655402  
   0.538973100    -0.1500457   -0.7505285  
   0.540973000    -0.2677662   -0.7159294  
   0.542972900    -0.3782667   -0.6630756  
   0.544972800    -0.4785934   -0.5934185  
   0.546972700    -0.5665509   -0.5084605  
   0.548972600    -0.6398372   -0.4105666  
   0.550972500    -0.6964439   -0.3024026  
   0.552972400    -0.7348763   -0.1865620  
   0.554972300    -0.7542388   -0.0660347  
   0.556972200    -0.7541212    0.0556773  
   0.558972100    -0.7342862    0.1756988  
   0.560972000    -0.6956421    0.2900616  
   0.562971900    -0.6394113    0.3967785  
   0.564971800    -0.5672791    0.4925121  
   0.566971700    -0.4809938    0.5754406  
   0.568971600    -0.3830943    0.6432438  
   0.570971500    -0.2758816    0.6947244  
   0.572971400    -0.1619003    0.7286244  
   0.574971300    -0.0433325    0.7437649  
   0.576971200     0.0764324    0.7396941  
   0.578971100     0.1944722    0.7169219  
   0.580971000     0.3072049    0.6749244  
   0.582970900     0.4118715    0.6155198  
   0.584970800     0.5051007    0.5403116  
   0.586970700     0.5851591    0.4513132  
   0.588970600     0.6501269    0.3504143  
   0.590970500     0.6978019    0.2406503  
   0.592970400     0.7276286    0.1241572  
   0.594970300     0.7381904    0.0043830  
   0.596970200     0.7293248   -0.1154516  
   0.598970100     0.7014720   -0.2328801  
   0.600970000     0.6548420   -0.3443594  
   0.602969900     0.5910076   -0.4469779  
   0.604969800     0.5114622   -0.5381054  
   0.606969700     0.4178167   -0.6153725  
   0.608969600     0.3132092   -0.6768320  
   0.610969500     0.2000242   -0.7206499  
   0.612969400     0.0813390   -0.7455462  
   0.614969300    -0.0392651   -0.7510744  
   0.616969200    -0.1586202   -0.7376214  
   0.618969100    -0.2732409   -0.7056041  
   0.620969000    -0.3807808   -0.6562431  
   0.622968900    -0.4794772   -0.5910237  
   0.624968800    -0.5668741   -0.5114656  
   0.626968700    -0.6406503   -0.4198212  
   0.628968600    -0.6991724   -0.3176727  
   0.630968500    -0.7417734   -0.2080412  
   0.632968400    -0.7667133   -0.0935051  
   0.634968300    -0.7736971    0.0234166  
   0.636968200    -0.7631303    0.1398013  
   0.638968100    -0.7349232    0.2526861  
   0.640968000    -0.6896082    0.3602529  
   0.642967900    -0.6289447    0.4591556  
   0.644967800    -0.5539458    0.5478997  
   0.646967700    -0.4666861    0.6240584  
   0.648967600    -0.3685898    0.6861399  
   0.650967500    -0.2633000    0.7326563  
   0.652967400    -0.1519994    0.7628421  
   0.654967300    -0.0375444    0.7757977  
   0.656967200     0.0774895    0.7712952  
   0.658967100     0.1908805    0.7497500  
   0.660967000     0.3002102    0.7105162  
   0.662966900     0.4029134    0.6551161  
   0.664966800     0.4967058    0.5838491  
   0.666966700     0.5791197    0.4980581  
   0.668966600     0.6474937    0.4005136  
   0.670966500     0.6996494    0.2927841  
   0.672966400     0.7344983    0.1783470  
   0.674966300     0.7507542    0.0591141  
   0.676966200     0.7480986   -0.0610742  
   0.678966100     0.7259856   -0.1795698  
   0.680966000     0.6856005   -0.2931235  
   0.682965900     0.6272880   -0.3984290  
   0.684965800     0.5528249   -0.4932694  
   0.686965700     0.4641349   -0.5755000  
   0.688965600     0.3630566   -0.6420336  
   0.690965500     0.2529382   -0.6915756  
   0.692965400     0.1363889   -0.7226127  
   0.694965300     0.0167054   -0.7344515  
   0.696965200    -0.1028219   -0.7269304  
   0.698965100    -0.2194689   -0.7004346  
   0.700965000    -0.3301365   -0.6552121  
   0.702964900    -0.4317567   -0.5935144  
   0.704964800    -0.5221303   -0.5165855  
   0.706964700    -0.5986997   -0.4263544  
   0.708964600    -0.6599817   -0.3255595  
   0.710964500    -0.7043076   -0.2163766  
   0.712964400    -0.7303237   -0.1022315  
   0.714964300    -0.7383041    0.0142796  
   0.716964200    -0.7278689    0.1298235  
   0.718964100    -0.6998890    0.2413342  
   0.720964000    -0.6553683    0.3467360  
   0.722963900    -0.5956377    0.4436453  
   0.724963800    -0.5225417    0.5297520  
   0.726963700    -0.4366790    0.6038771  
   0.728963600    -0.3410125    0.6640175  
   0.730963500    -0.2374303    0.7086982  
   0.732963400    -0.1283802    0.7373058  
   0.734963300    -0.0158810    0.7493845  
   0.736963200     0.1156755    0.7412637  
   0.738963100     0.2450278    0.7100090  
   0.740963000     0.3677354    0.6568277  
   0.742962900     0.4796672    0.5824146  
   0.744962800     0.5770239    0.4888895  
   0.746962700     0.6569167    0.3797081  
   0.748962600     0.7163077    0.2573355  
   0.750962500     0.6510679    0.3704366  
   0.752962400     0.7087765    0.2468115  
   0.754962300     0.7430965    0.1147455  
   0.756962200     0.7533979   -0.0217171  
   0.758962100     0.7386614   -0.1580141  
   0.760962000     0.6992400   -0.2896761  
   0.762961900     0.6397709   -0.4063435  
   0.764961800     0.5682455   -0.5025885  
   0.766961700     0.4822687   -0.5858749  
   0.768961600     0.3838035   -0.6549035  
   0.770961500     0.2753111   -0.7070212  
   0.772961400     0.1602821   -0.7415636  
   0.774961300     0.0417855   -0.7572411  
   0.776961200    -0.0783315   -0.7537571  
   0.778961100    -0.1960209   -0.7314990  
   0.780961000    -0.3083846   -0.6904849  
   0.782960900    -0.4130111   -0.6320945  
   0.784960800    -0.5065165   -0.5580905  
   0.786960700    -0.5870147   -0.4701000  
   0.788960600    -0.6522183   -0.3706071  
   0.790960500    -0.7005050   -0.2629031  
   0.792960400    -0.7309304   -0.1491339  
   0.794960300    -0.7429089   -0.0329644  
   0.796960200    -0.7366087    0.0828885  
   0.798960100    -0.7126110    0.1956537  
   0.800960000    -0.6716526    0.3027731  
   0.802959900    -0.6148034    0.4015463  
   0.804959800    -0.5438422    0.4899371  
   0.806959700    -0.4605983    0.5659203  
   0.808959600    -0.3668653    0.6281309  
   0.810959500    -0.2651192    0.6749870  
   0.812959400    -0.1575800    0.7060062  
   0.814959300    -0.0468406    0.7200403  
   0.816959200     0.0648133    0.7167869  
   0.818959100     0.1746486    0.6964476  
   0.820959000     0.2804579    0.6597995  
   0.822958900     0.3797641    0.6071433  
   0.824958800     0.4699968    0.5396641  
   0.826958700     0.5487586    0.4586869  
   0.828958600     0.6145554    0.3661965  
   0.830958500     0.6651763    0.2643141  
   0.832958400     0.6995357    0.1554691  
   0.834958300     0.7163727    0.0421322  
   0.836958200     0.7154223   -0.0722727  
   0.838958100     0.6961570   -0.1857298  
   0.840958000     0.6595557   -0.2953506  
   0.842957900     0.6055326   -0.3978783  
   0.844957800     0.5354702   -0.4913222  
   0.846957700     0.4518623   -0.5722993  
   0.848957600     0.3559518   -0.6393393  
   0.850957500     0.2507465   -0.6899635  
   0.852957400     0.1382599   -0.7233831  
   0.854957300     0.0223887   -0.7384123  
   0.856957200    -0.0946508   -0.7351123  
   0.858957100    -0.2091317   -0.7131370  
   0.860957000    -0.3182640   -0.6736786  
   0.862956900    -0.4192250   -0.6182877  
   0.864956800    -0.5096410   -0.5481797  
   0.866956700    -0.5876542   -0.4658015  
   0.868956600    -0.6522784   -0.3726650  
   0.870956500    -0.7014365   -0.2715510  
   0.872956400    -0.7344198   -0.1643142  
   0.874956300    -0.7509838   -0.0534145  
   0.876956200    -0.7504693    0.0586992  
   0.878956100    -0.7329497    0.1688323  
   0.880956000    -0.6991697    0.2754493  
   0.882955900    -0.6494700    0.3751336  
   0.884955800    -0.5856226    0.4664397  
   0.886955700    -0.5084059    0.5472466  
   0.888955600    -0.4201867    0.6153898  
   0.890955500    -0.3224585    0.6697015  
   0.892955400    -0.2180158    0.7084059  
   0.894955300    -0.1082405    0.7309136  
