! MS46122B
! 2250307/22442219
! 6/11/2025 1:19:29 PM
! C:\USERS\SPARKY\DOCUMENTS\VNA_DATA\JUNE11_2025\PORT1.S1P
! CHANNEL.1
! TR.MEASUREMENT
! RAW.DATA
# GHZ S RI R 50.0
! FREQ.GHZ         S11RE         S11IM         
!; PortSelection: Port_1
   0.001000000    -0.8898894    0.0540270  
   0.002999900    -0.8610513    0.2560207  
   0.004999800    -0.8198014    0.3991214  
   0.006999700    -0.7530459    0.5243618  
   0.008999600    -0.6643983    0.6312618  
   0.010999500    -0.5580911    0.7190450  
   0.012999400    -0.4384533    0.7867564  
   0.014999300    -0.3088170    0.8329710  
   0.016999200    -0.1739818    0.8586438  
   0.018999100    -0.0369778    0.8636003  
   0.020999000     0.0987005    0.8489336  
   0.022998900     0.2300283    0.8154326  
   0.024998800     0.3269998    0.7457221  
   0.026998700     0.4693695    0.6967443  
   0.028998600     0.5728637    0.6142720  
   0.030998500     0.6625716    0.5186591  
   0.032998400     0.7037560    0.4112847  
   0.034998300     0.7948331    0.2942587  
   0.036998200     0.8335748    0.1697437  
   0.038998100     0.8531529    0.0404136  
   0.040998000     0.8521994   -0.0903272  
   0.042997900     0.8302603   -0.2195177  
   0.044997800     0.7669412   -0.3186994  
   0.046997700     0.7269965   -0.4600292  
   0.048997600     0.6487591   -0.5654486  
   0.050997500     0.5551153   -0.6571479  
   0.052997400     0.4491577   -0.7332933  
   0.054997300     0.3343944   -0.7919298  
   0.056997200     0.2098246   -0.8335168  
   0.058997100     0.0825729   -0.8556677  
   0.060997000    -0.0463611   -0.8587380  
   0.062996900    -0.1737460   -0.8427154  
   0.064996800    -0.2973055   -0.8080615  
   0.066996700    -0.4140750   -0.7553532  
   0.068996600    -0.5214539   -0.6856073  
   0.070996500    -0.6167375   -0.6008096  
   0.072996400    -0.6984451   -0.5026238  
   0.074996300    -0.7640842   -0.3933740  
   0.076996200    -0.8123407   -0.2755678  
   0.078996100    -0.8424982   -0.1518283  
   0.080996000    -0.8536098   -0.0248472  
   0.082995900    -0.8458205    0.1025383  
   0.084995800    -0.8185351    0.2271892  
   0.086995700    -0.7731140    0.3465520  
   0.088995600    -0.7099334    0.4579728  
   0.090995500    -0.6304842    0.5587474  
   0.092995400    -0.5362963    0.6465365  
   0.094995300    -0.4298611    0.7190231  
   0.096995200    -0.3127553    0.7745450  
   0.098995100    -0.1883718    0.8113838  
   0.100995000    -0.0590014    0.8281797  
   0.102994900     0.0711288    0.8243539  
   0.104994800     0.1994490    0.8003656  
   0.106994700     0.3228219    0.7560143  
   0.108994600     0.4375845    0.6929437  
   0.110994500     0.5411448    0.6123747  
   0.112994400     0.6304471    0.5162220  
   0.114994300     0.7034141    0.4072072  
   0.116994200     0.7580499    0.2880002  
   0.118994100     0.7930706    0.1616199  
   0.120994000     0.8073348    0.0316070  
   0.122993900     0.8007880   -0.0984833  
   0.124993800     0.7738902   -0.2258019  
   0.126993700     0.7271569   -0.3465158  
   0.128993600     0.6621541   -0.4585704  
   0.130993500     0.5805209   -0.5580436  
   0.132993400     0.4849529   -0.6428360  
   0.134993300     0.3776435   -0.7116572  
   0.136993200     0.2616883   -0.7623125  
   0.138993100     0.1395610   -0.7943379  
   0.140993000     0.0154918   -0.8068410  
   0.142992900    -0.1093720   -0.8003691  
   0.144992800    -0.2305715   -0.7749702  
   0.146992700    -0.3458323   -0.7317243  
   0.148992600    -0.4528498   -0.6718098  
   0.150992500    -0.5491035   -0.5968509  
   0.152992400    -0.6325974   -0.5083346  
   0.154992300    -0.7014843   -0.4092845  
   0.156992200    -0.7549317   -0.3008951  
   0.158992100    -0.7917966   -0.1863784  
   0.160992000    -0.8110106   -0.0677315  
   0.162991900    -0.8126354    0.0519038  
   0.164991800    -0.7963402    0.1707240  
   0.166991700    -0.7628527    0.2853663  
   0.168991600    -0.7128591    0.3937897  
   0.170991500    -0.6471695    0.4942198  
   0.172991400    -0.5674574    0.5834286  
   0.174991300    -0.4753287    0.6598114  
   0.176991200    -0.3725063    0.7221924  
   0.178991100    -0.2610101    0.7686751  
   0.180991000    -0.1439380    0.7982332  
   0.182990900    -0.0234218    0.8097562  
   0.184990800     0.0980426    0.8031400  
   0.186990700     0.2181067    0.7783733  
   0.188990600     0.3109327    0.7446597  
   0.190990500     0.4364331    0.6769937  
   0.192990400     0.5364085    0.5990269  
   0.194990300     0.6209697    0.5086339  
   0.196990200     0.6906039    0.4064113  
   0.198990100     0.7436442    0.2941663  
   0.200990000     0.7789974    0.1748663  
   0.202989900     0.7952672    0.0506774  
   0.204989800     0.7919246   -0.0747112  
   0.206989700     0.7690461   -0.1973994  
   0.208989600     0.7272785   -0.3150089  
   0.210989500     0.6672405   -0.4251534  
   0.212989400     0.5905861   -0.5246333  
   0.214989300     0.4991462   -0.6105545  
   0.216989200     0.3960850   -0.6805453  
   0.218989100     0.2832754   -0.7332852  
   0.220989000     0.1638549   -0.7676888  
   0.222988900     0.0403478   -0.7828554  
   0.224988800    -0.0836029   -0.7781624  
   0.226988700    -0.2047887   -0.7544217  
   0.228988600    -0.3199380   -0.7117251  
   0.230988500    -0.4263909   -0.6520953  
   0.232988400    -0.5222312   -0.5766400  
   0.234988300    -0.6050640   -0.4871986  
   0.236988200    -0.6726770   -0.3861471  
   0.238988100    -0.7232987   -0.2760281  
   0.240988000    -0.7562391   -0.1603855  
   0.242987900    -0.7705962   -0.0415876  
   0.244987800    -0.7664498    0.0773220  
   0.246987700    -0.7440191    0.1944723  
   0.248987600    -0.7037510    0.3071964  
   0.250987500    -0.6465653    0.4117986  
   0.252987400    -0.5740845    0.5061761  
   0.254987300    -0.4886283    0.5877525  
   0.256987200    -0.3917298    0.6550385  
   0.258987100    -0.2857560    0.7066972  
   0.260987000    -0.1727121    0.7416976  
   0.262986900    -0.0554274    0.7588922  
   0.264986800     0.0635720    0.7579243  
   0.266986700     0.1811114    0.7383468  
   0.268986600     0.2940463    0.7008607  
   0.270986500     0.3996371    0.6469850  
   0.272986400     0.4957050    0.5770608  
   0.274986300     0.5797990    0.4931598  
   0.276986200     0.6504002    0.3969059  
   0.278986100     0.7052880    0.2906483  
   0.280986000     0.7434822    0.1764930  
   0.282985900     0.7632416    0.0575943  
   0.284985800     0.7642833   -0.0632347  
   0.286985700     0.7465797   -0.1824847  
   0.288985600     0.7103686   -0.2970363  
   0.290985500     0.6571257   -0.4041817  
   0.292985400     0.5881271   -0.5017299  
   0.294985300     0.5048392   -0.5875848  
   0.296985200     0.4087249   -0.6594201  
   0.298985100     0.3025444   -0.7161793  
   0.300985000     0.1884730   -0.7551929  
   0.302984900     0.0700717   -0.7761970  
   0.304984800    -0.0496689   -0.7786497  
   0.306984700    -0.1678500   -0.7624542  
   0.308984600    -0.2813969   -0.7284420  
   0.310984500    -0.3873965   -0.6782956  
   0.312984400    -0.4841571   -0.6126877  
   0.314984300    -0.5697666   -0.5333546  
   0.316984200    -0.6424046   -0.4425261  
   0.318984100    -0.7002003   -0.3411536  
   0.320984000    -0.7422346   -0.2318065  
   0.322983900    -0.7674215   -0.1173640  
   0.324983800    -0.7745724   -0.0006688  
   0.326983700    -0.7637941    0.1153818  
   0.328983600    -0.7359209    0.2283265  
   0.330983500    -0.6913583    0.3350665  
   0.332983400    -0.6314412    0.4328733  
   0.334983300    -0.5577497    0.5208306  
   0.336983200    -0.4715714    0.5967200  
   0.338983100    -0.3752147    0.6587352  
   0.340983000    -0.2701584    0.7051944  
   0.342982900    -0.1594944    0.7354497  
   0.344982800    -0.0446968    0.7483912  
   0.346982700     0.0715175    0.7437788  
   0.348982600     0.1861052    0.7212100  
   0.350982500     0.2958511    0.6809348  
   0.352982400     0.3985279    0.6238681  
   0.354982300     0.4947577    0.5480859  
   0.356982200     0.5854991    0.4470769  
   0.358982100     0.6558904    0.3317376  
   0.360982000     0.7045712    0.2060120  
   0.362981900     0.7299332    0.0735393  
   0.364981800     0.7311947   -0.0616663  
   0.366981700     0.7074940   -0.1952735  
   0.368981600     0.6603152   -0.3222968  
   0.370981500     0.5902347   -0.4390571  
   0.372981400     0.5002674   -0.5411044  
   0.374981300     0.3922804   -0.6250364  
   0.376981200     0.4735793   -0.5582145  
   0.378981100     0.3630269   -0.6377371  
   0.380981000     0.2399013   -0.6954169  
   0.382980900     0.1203009   -0.7273354  
   0.384980800     0.0027166   -0.7388434  
   0.386980700    -0.1152824   -0.7317185  
   0.388980600    -0.2298862   -0.7062144  
   0.390980500    -0.3382313   -0.6630369  
   0.392980400    -0.4374649   -0.6043327  
   0.394980300    -0.5256923   -0.5318995  
   0.396980200    -0.6016464   -0.4471019  
   0.398980100    -0.6633859   -0.3524373  
   0.400980000    -0.7101375   -0.2497031  
   0.402979900    -0.7405983   -0.1415460  
   0.404979800    -0.7545476   -0.0310291  
   0.406979700    -0.7520014    0.0800128  
   0.408979600    -0.7327899    0.1891863  
   0.410979500    -0.6979796    0.2944637  
   0.412979400    -0.6476837    0.3939148  
   0.414979300    -0.5828787    0.4848991  
   0.416979200    -0.5056811    0.5649107  
   0.418979100    -0.4173187    0.6327853  
   0.420979000    -0.3198264    0.6868162  
   0.422978900    -0.2151364    0.7255970  
   0.424978800    -0.1051470    0.7487265  
   0.426978700     0.0074705    0.7549196  
   0.428978600     0.1198420    0.7439865  
   0.430978500     0.2292102    0.7162718  
   0.432978400     0.3332805    0.6723838  
   0.434978300     0.4295775    0.6132542  
   0.436978200     0.5160359    0.5396533  
   0.438978100     0.5905231    0.4532503  
   0.440978000     0.6512287    0.3560686  
   0.442977900     0.6963719    0.2503654  
   0.444977800     0.7243462    0.1385395  
   0.446977700     0.7345837    0.0230746  
   0.448977600     0.7266157   -0.0926716  
   0.450977500     0.7004215   -0.2060015  
   0.452977400     0.6561700   -0.3144290  
   0.454977300     0.5947564   -0.4153185  
   0.456977200     0.5174502   -0.5051211  
   0.458977100     0.4263582   -0.5813909  
   0.460977000     0.3236654   -0.6417955  
   0.462976900     0.2135330   -0.6847197  
   0.464976800     0.0977231   -0.7092147  
   0.466976700    -0.0204840   -0.7141876  
   0.468976600    -0.1373671   -0.6998268  
   0.470976500    -0.2501787   -0.6671093  
   0.472976400    -0.3556805   -0.6167358  
   0.474976300    -0.4511866   -0.5502612  
   0.476976200    -0.5343809   -0.4699568  
   0.478976100    -0.6029503   -0.3779865  
   0.480976000    -0.6555838   -0.2774259  
   0.482975900    -0.6915146   -0.1704911  
   0.484975800    -0.7104290   -0.0601916  
   0.486975700    -0.7119536    0.0514475  
   0.488975600    -0.6962846    0.1613202  
   0.490975500    -0.6641374    0.2673775  
   0.492975400    -0.6158945    0.3669900  
   0.494975300    -0.5531854    0.4577360  
   0.496975200    -0.4777714    0.5378466  
   0.498975100    -0.3912556    0.6053143  
   0.500975000    -0.2957411    0.6586363  
   0.502974900    -0.1937488    0.6970591  
   0.504974800    -0.0868286    0.7194312  
   0.506974700     0.0227136    0.7254421  
   0.508974600     0.1325207    0.7146690  
   0.510974500     0.2397811    0.6872823  
   0.512974400     0.3416727    0.6436251  
   0.514974300     0.4356919    0.5853021  
   0.516974200     0.5198149    0.5132201  
   0.518974100     0.5920010    0.4290893  
   0.520974000     0.6509590    0.3347608  
   0.522973900     0.6943739    0.2323231  
   0.524973800     0.7221213    0.1242753  
   0.526973700     0.7328525    0.0123395  
   0.528973600     0.7262850   -0.0996679  
   0.530973500     0.7022955   -0.2106379  
   0.532973400     0.6613003   -0.3163643  
   0.534973300     0.6045157   -0.4145932  
   0.536973200     0.5324393   -0.5033970  
   0.538973100     0.4480425   -0.5793590  
   0.540973000     0.3528659   -0.6414210  
   0.542972900     0.2490168   -0.6878328  
   0.544972800     0.1395428   -0.7176585  
   0.546972700     0.0259911   -0.7302282  
   0.548972600    -0.0881689   -0.7245076  
   0.550972500    -0.2000279   -0.7016984  
   0.552972400    -0.3072013   -0.6610442  
   0.554972300    -0.4068831   -0.6042366  
   0.556972200    -0.4956287   -0.5322022  
   0.558972100    -0.5725077   -0.4475103  
   0.560972000    -0.6346112   -0.3520336  
   0.562971900    -0.6807277   -0.2483610  
   0.564971800    -0.7100371   -0.1393462  
   0.566971700    -0.7218906   -0.0274330  
   0.568971600    -0.7161242    0.0843844  
   0.570971500    -0.6931322    0.1936656  
   0.572971400    -0.6535461    0.2980730  
   0.574971300    -0.5979357    0.3952760  
   0.576971200    -0.5277078    0.4825103  
   0.578971100    -0.4445707    0.5577633  
   0.580971000    -0.3508027    0.6189482  
   0.582970900    -0.2487631    0.6646625  
   0.584970800    -0.1411710    0.6935198  
   0.586970700    -0.0305580    0.7055158  
   0.588970600     0.0805211    0.6997337  
   0.590970500     0.1894801    0.6765274  
   0.592970400     0.2933628    0.6363882  
   0.594970300     0.3896235    0.5804061  
   0.596970200     0.4760715    0.5097550  
   0.598970100     0.5502837    0.4258977  
   0.600970000     0.6105822    0.3313912  
   0.602969900     0.6549930    0.2283748  
   0.604969800     0.6823281    0.1187972  
   0.606969700     0.6917921    0.0060633  
   0.608969600     0.6831714   -0.1072602  
   0.610969500     0.6562325   -0.2177981  
   0.612969400     0.6119220   -0.3226773  
   0.614969300     0.5512167   -0.4189689  
   0.616969200     0.4763788   -0.5035612  
   0.618969100     0.3891616   -0.5749260  
   0.620969000     0.2926271   -0.6311748  
   0.622968900     0.1878938   -0.6716966  
   0.624968800     0.0781892   -0.6948360  
   0.626968700    -0.0338263   -0.7003839  
   0.628968600    -0.1451807   -0.6885852  
   0.630968500    -0.2533607   -0.6593767  
   0.632968400    -0.3552361   -0.6136577  
   0.634968300    -0.4485939   -0.5526877  
   0.636968200    -0.5309857   -0.4781805  
   0.638968100    -0.6007003   -0.3917806  
   0.640968000    -0.6562491   -0.2962312  
   0.642967900    -0.6962485   -0.1936843  
   0.644967800    -0.7199746   -0.0863506  
   0.646967700    -0.7267997    0.0230046  
   0.648967600    -0.7174278    0.1315561  
   0.650967500    -0.6917858    0.2366794  
   0.652967400    -0.6507645    0.3366669  
   0.654967300    -0.5955055    0.4293485  
   0.656967200    -0.5272670    0.5121913  
   0.658967100    -0.4477457    0.5840234  
   0.660967000    -0.3580956    0.6432169  
   0.662966900    -0.2601648    0.6887528  
   0.664966800    -0.1555444    0.7190131  
   0.666966700    -0.0472571    0.7335424  
   0.668966600     0.0620941    0.7315236  
   0.670966500     0.1703116    0.7128858  
   0.672966400     0.2745152    0.6775679  
   0.674966300     0.3725843    0.6269749  
   0.676966200     0.4615417    0.5621553  
   0.678966100     0.5399225    0.4844307  
   0.680966000     0.6055090    0.3952538  
   0.682965900     0.6567699    0.2969396  
   0.684965800     0.6924254    0.1918437  
   0.686965700     0.7116077    0.0817129  
   0.688965600     0.7129522   -0.0302954  
   0.690965500     0.6970736   -0.1415032  
   0.692965400     0.6636868   -0.2488294  
   0.694965300     0.6142009   -0.3495501  
   0.696965200     0.5492062   -0.4415947  
   0.698965100     0.4700961   -0.5223129  
   0.700965000     0.3792332   -0.5895027  
   0.702964900     0.2788050   -0.6415883  
   0.704964800     0.1711687   -0.6768268  
   0.706964700     0.0592782   -0.6946309  
   0.708964600    -0.0537306   -0.6941854  
   0.710964500    -0.1653448   -0.6757992  
   0.712964400    -0.2723671   -0.6396660  
   0.714964300    -0.3715177   -0.5870974  
   0.716964200    -0.4609155   -0.5197163  
   0.718964100    -0.5375570   -0.4398372  
   0.720964000    -0.6005203   -0.3493543  
   0.722963900    -0.6481396   -0.2509321  
   0.724963800    -0.6800049   -0.1468717  
   0.726963700    -0.6953668   -0.0396015  
   0.728963600    -0.6938424    0.0681432  
   0.730963500    -0.6758245    0.1743236  
   0.732963400    -0.6421457    0.2761716  
   0.734963300    -0.5933735    0.3712131  
   0.736963200    -0.5190225    0.4694795  
   0.738963100    -0.4284623    0.5534504  
   0.740963000    -0.3240028    0.6207680  
   0.742962900    -0.2092954    0.6688796  
   0.744962800    -0.0877649    0.6964821  
   0.746962700     0.0371709    0.7023381  
   0.748962600     0.1617050    0.6863071  
   0.750962500     0.0376773    0.7049010  
   0.752962400     0.1615126    0.6870285  
   0.754962300     0.2803876    0.6480004  
   0.756962200     0.3913588    0.5888692  
   0.758962100     0.4897866    0.5109281  
   0.760962000     0.5741420    0.4165618  
   0.762961900     0.6374038    0.3144820  
   0.764961800     0.6788902    0.2134774  
   0.766961700     0.7050385    0.1070922  
   0.768961600     0.7139381   -0.0027747  
   0.770961500     0.7060114   -0.1125893  
   0.772961400     0.6812199   -0.2202011  
   0.774961300     0.6402560   -0.3228293  
   0.776961200     0.5830859   -0.4185854  
   0.778961100     0.5117264   -0.5043104  
   0.780961000     0.4274026   -0.5785340  
   0.782960900     0.3323300   -0.6389801  
   0.784960800     0.2281654   -0.6840583  
   0.786960700     0.1181059   -0.7118796  
   0.788960600     0.0046368   -0.7217096  
   0.790960500    -0.1087294   -0.7137058  
   0.792960400    -0.2189508   -0.6875774  
   0.794960300    -0.3236885   -0.6445182  
   0.796960200    -0.4194892   -0.5857608  
   0.798960100    -0.5048775   -0.5129232  
   0.800960000    -0.5771185   -0.4280782  
   0.802959900    -0.6350307   -0.3331501  
   0.804959800    -0.6774657   -0.2312809  
   0.806959700    -0.7030449   -0.1245675  
   0.808959600    -0.7120609   -0.0156766  
   0.810959500    -0.7038960    0.0926432  
   0.812959400    -0.6796888    0.1980422  
   0.814959300    -0.6397040    0.2980649  
   0.816959200    -0.5850959    0.3903836  
   0.818959100    -0.5172965    0.4731652  
   0.820959000    -0.4377868    0.5443828  
   0.822958900    -0.3483743    0.6026601  
   0.824958800    -0.2515675    0.6466534  
   0.826958700    -0.1488177    0.6753423  
   0.828958600    -0.0431460    0.6878278  
   0.830958500     0.0633039    0.6839785  
   0.832958400     0.1682454    0.6642236  
   0.834958300     0.2683011    0.6285833  
   0.836958200     0.3622917    0.5783547  
   0.838958100     0.4472601    0.5137731  
   0.840958000     0.5219249    0.4367931  
   0.842957900     0.5838661    0.3486180  
   0.844957800     0.6317474    0.2514555  
   0.846957700     0.6643347    0.1477703  
   0.848957600     0.6800340    0.0397694  
   0.850957500     0.6785150   -0.0699598  
   0.852957400     0.6598503   -0.1782857  
   0.854957300     0.6240094   -0.2824560  
   0.856957200     0.5717746   -0.3800924  
   0.858957100     0.5050884   -0.4679691  
   0.860957000     0.4251035   -0.5442610  
   0.862956900     0.3346594   -0.6066076  
   0.864956800     0.2357598   -0.6541116  
   0.866956700     0.1310668   -0.6855020  
   0.868956600     0.0228871   -0.7001576  
   0.870956500    -0.0862365   -0.6979488  
   0.872956400    -0.1935932   -0.6788449  
   0.874956300    -0.2966203   -0.6436517  
   0.876956200    -0.3926330   -0.5928054  
   0.878956100    -0.4797584   -0.5279688  
   0.880956000    -0.5554976   -0.4504674  
   0.882955900    -0.6186311   -0.3625723  
   0.884955800    -0.6672066   -0.2664574  
   0.886955700    -0.7009128   -0.1642237  
   0.888955600    -0.7182999   -0.0584608  
   0.890955500    -0.7197892    0.0482831  
   0.892955400    -0.7050515    0.1539678  
   0.894955300    -0.6751168    0.2557666  
   0.896955200    -0.6299931    0.3515502  
