! MS46122B
! 2250307/22442219
! 6/11/2025 1:21:30 PM
! C:\USERS\SPARKY\DOCUMENTS\VNA_DATA\JUNE11_2025\PORT3.S1P
! CHANNEL.1
! TR.MEASUREMENT
! RAW.DATA
# GHZ S RI R 50.0
! FREQ.GHZ         S11RE         S11IM         
!; PortSelection: Port_1
   0.001000000    -0.8943307    0.0544963  
   0.002999900    -0.8650622    0.2580944  
   0.004999800    -0.8232356    0.4024540  
   0.006999700    -0.7552875    0.5287694  
   0.008999600    -0.6654117    0.6367766  
   0.010999500    -0.5576059    0.7251780  
   0.012999400    -0.4362209    0.7930301  
   0.014999300    -0.3049491    0.8391099  
   0.016999200    -0.1684582    0.8641523  
   0.018999100    -0.0298636    0.8682023  
   0.020999000     0.1070510    0.8522382  
   0.022998900     0.2394672    0.8172035  
   0.024998800     0.3368250    0.7459187  
   0.026998700     0.4800544    0.6947486  
   0.028998600     0.5836086    0.6102864  
   0.030998500     0.6731679    0.5125746  
   0.032998400     0.7135180    0.4033468  
   0.034998300     0.8036081    0.2839612  
   0.036998200     0.8408510    0.1575182  
   0.038998100     0.8585419    0.0264805  
   0.040998000     0.8553969   -0.1057505  
   0.042997900     0.8307474   -0.2361651  
   0.044997800     0.7652900   -0.3351021  
   0.046997700     0.7218799   -0.4770487  
   0.048997600     0.6405005   -0.5820171  
   0.050997500     0.5439917   -0.6727047  
   0.052997400     0.4351098   -0.7471857  
   0.054997300     0.3176852   -0.8038917  
   0.056997200     0.1909787   -0.8429893  
   0.058997100     0.0617610   -0.8623888  
   0.060997000    -0.0685919   -0.8621650  
   0.062996900    -0.1970650   -0.8427020  
   0.064996800    -0.3209494   -0.8042368  
   0.066996700    -0.4374573   -0.7476323  
   0.068996600    -0.5440121   -0.6740196  
   0.070996500    -0.6379004   -0.5853741  
   0.072996400    -0.7173659   -0.4836027  
   0.074996300    -0.7803292   -0.3710778  
   0.076996200    -0.8254243   -0.2501644  
   0.078996100    -0.8516116   -0.1240853  
   0.080996000    -0.8585497    0.0048300  
   0.082995900    -0.8459765    0.1333252  
   0.084995800    -0.8138931    0.2583833  
   0.086995700    -0.7633105    0.3775724  
   0.088995600    -0.6948772    0.4879161  
   0.090995500    -0.6105731    0.5866452  
   0.092995400    -0.5117880    0.6716140  
   0.094995300    -0.4004779    0.7404754  
   0.096995200    -0.2797545    0.7916284  
   0.098995100    -0.1518211    0.8233633  
   0.100995000    -0.0205233    0.8342804  
   0.102994900     0.1110909    0.8244492  
   0.104994800     0.2397580    0.7937995  
   0.106994700     0.3625304    0.7429554  
   0.108994600     0.4754809    0.6732664  
   0.110994500     0.5757937    0.5863201  
   0.112994400     0.6611210    0.4842554  
   0.114994300     0.7289575    0.3700719  
   0.116994200     0.7775720    0.2464060  
   0.118994100     0.8058506    0.1168645  
   0.120994000     0.8128763   -0.0153062  
   0.122993900     0.7986244   -0.1464181  
   0.124993800     0.7639384   -0.2733547  
   0.126993700     0.7092487   -0.3927274  
   0.128993600     0.6371762   -0.5015405  
   0.130993500     0.5486658   -0.5969307  
   0.132993400     0.4468088   -0.6766599  
   0.134993300     0.3343472   -0.7391639  
   0.136993200     0.2141603   -0.7829980  
   0.138993100     0.0891058   -0.8074053  
   0.140993000    -0.0374237   -0.8120226  
   0.142992900    -0.1623063   -0.7974048  
   0.144992800    -0.2830193   -0.7637517  
   0.146992700    -0.3963543   -0.7125095  
   0.148992600    -0.5004795   -0.6446540  
   0.150992500    -0.5923332   -0.5628248  
   0.152992400    -0.6704529   -0.4678580  
   0.154992300    -0.7332984   -0.3627892  
   0.156992200    -0.7794489   -0.2499424  
   0.158992100    -0.8085893   -0.1317240  
   0.160992000    -0.8194944   -0.0107766  
   0.162991900    -0.8125041    0.1103740  
   0.164991800    -0.7874164    0.2290257  
   0.166991700    -0.7451195    0.3426284  
   0.168991600    -0.6863796    0.4484080  
   0.170991500    -0.6124683    0.5449430  
   0.172991400    -0.5247998    0.6289926  
   0.174991300    -0.4257511    0.6992730  
   0.176991200    -0.3165240    0.7541893  
   0.178991100    -0.1997962    0.7924605  
   0.180991000    -0.0791909    0.8125148  
   0.182990900     0.0436616    0.8142502  
   0.184990800     0.1664656    0.7968545  
   0.186990700     0.2859159    0.7616112  
   0.188990600     0.3773327    0.7190236  
   0.190990500     0.4981841    0.6395125  
   0.192990400     0.5922640    0.5513244  
   0.194990300     0.6694666    0.4520117  
   0.196990200     0.7303297    0.3418315  
   0.198990100     0.7732545    0.2232683  
   0.200990000     0.7973514    0.0989429  
   0.202989900     0.8014982   -0.0282637  
   0.204989800     0.7853929   -0.1548573  
   0.206989700     0.7498273   -0.2764811  
   0.208989600     0.6953835   -0.3911531  
   0.210989500     0.6230422   -0.4959519  
   0.212989400     0.5348759   -0.5883847  
   0.214989300     0.4333027   -0.6652147  
   0.216989200     0.3216648   -0.7244770  
   0.218989100     0.2022081   -0.7649931  
   0.220989000     0.0778879   -0.7863653  
   0.222988900    -0.0482457   -0.7876353  
   0.224988800    -0.1725588   -0.7690375  
   0.226988700    -0.2916962   -0.7305505  
   0.228988600    -0.4027710   -0.6745616  
   0.230988500    -0.5031822   -0.6021402  
   0.232988400    -0.5905588   -0.5147305  
   0.234988300    -0.6632916   -0.4148708  
   0.236988200    -0.7190289   -0.3049301  
   0.238988100    -0.7568549   -0.1880156  
   0.240988000    -0.7757078   -0.0678442  
   0.242987900    -0.7754767    0.0534228  
   0.244987800    -0.7567235    0.1727287  
   0.246987700    -0.7194201    0.2879595  
   0.248987600    -0.6647524    0.3961802  
   0.250987500    -0.5937504    0.4946096  
   0.252987400    -0.5087130    0.5802280  
   0.254987300    -0.4119225    0.6515044  
   0.256987200    -0.3056656    0.7065546  
   0.258987100    -0.1920174    0.7448735  
   0.260987000    -0.0735085    0.7650835  
   0.262986900     0.0473251    0.7666612  
   0.264986800     0.1669758    0.7498009  
   0.266986700     0.2830219    0.7140025  
   0.268986600     0.3917442    0.6607947  
   0.270986500     0.4907985    0.5917140  
   0.272986400     0.5780149    0.5077783  
   0.274986300     0.6510580    0.4112810  
   0.276986200     0.7083283    0.3042963  
   0.278986100     0.7487732    0.1891022  
   0.280986000     0.7706760    0.0686329  
   0.282985900     0.7731087   -0.0541086  
   0.284985800     0.7565695   -0.1757928  
   0.286985700     0.7208824   -0.2934307  
   0.288985600     0.6672909   -0.4033528  
   0.290985500     0.5976575   -0.5031620  
   0.292985400     0.5134805   -0.5908652  
   0.294985300     0.4168046   -0.6643645  
   0.296985200     0.3092805   -0.7222501  
   0.298985100     0.1936558   -0.7624728  
   0.300985000     0.0731692   -0.7841338  
   0.302984900    -0.0488330   -0.7869871  
   0.304984800    -0.1695100   -0.7703912  
   0.306984700    -0.2856015   -0.7356192  
   0.308984600    -0.3939314   -0.6836560  
   0.310984500    -0.4921862   -0.6163341  
   0.312984400    -0.5790033   -0.5351793  
   0.314984300    -0.6517368   -0.4419790  
   0.316984200    -0.7097983   -0.3390690  
   0.318984100    -0.7514817   -0.2281453  
   0.320984000    -0.7759807   -0.1115716  
   0.322983900    -0.7820508    0.0075193  
   0.324983800    -0.7699081    0.1256838  
   0.326983700    -0.7398323    0.2402740  
   0.328983600    -0.6928402    0.3486494  
   0.330983500    -0.6296940    0.4482034  
   0.332983400    -0.5530178    0.5364501  
   0.334983300    -0.4636052    0.6120875  
   0.336983200    -0.3642416    0.6730911  
   0.338983100    -0.2560062    0.7182648  
   0.340983000    -0.1425018    0.7464563  
   0.342982900    -0.0257454    0.7567631  
   0.344982800     0.0918792    0.7491280  
   0.346982700     0.2081355    0.7230597  
   0.348982600     0.3187797    0.6790672  
   0.350982500     0.4217198    0.6180802  
   0.352982400     0.5140667    0.5413161  
   0.354982300     0.5963838    0.4466259  
   0.356982200     0.6673810    0.3279392  
   0.358982100     0.7156925    0.1987442  
   0.360982000     0.7399781    0.0629512  
   0.362981900     0.7390118   -0.0747507  
   0.364981800     0.7126632   -0.2108046  
   0.366981700     0.6621048   -0.3393727  
   0.368981600     0.5885556   -0.4570958  
   0.370981500     0.4948825   -0.5591294  
   0.372981400     0.3833641   -0.6424158  
   0.374981300     0.2583686   -0.7035505  
   0.376981200     0.3535128   -0.6547756  
   0.378981100     0.2268044   -0.7109033  
   0.380981000     0.0919501   -0.7424443  
   0.382980900    -0.0337358   -0.7492867  
   0.384980800    -0.1535629   -0.7362565  
   0.386980700    -0.2690804   -0.7044003  
   0.388980600    -0.3777763   -0.6544582  
   0.390980500    -0.4765585   -0.5889398  
   0.392980400    -0.5625713   -0.5098484  
   0.394980300    -0.6352214   -0.4188495  
   0.396980200    -0.6930114   -0.3185313  
   0.398980100    -0.7342121   -0.2109845  
   0.400980000    -0.7587716   -0.0991981  
   0.402979900    -0.7659756    0.0148730  
   0.404979800    -0.7563571    0.1279514  
   0.406979700    -0.7298572    0.2383594  
   0.408979600    -0.6876333    0.3425185  
   0.410979500    -0.6298308    0.4403697  
   0.412979400    -0.5577356    0.5287241  
   0.414979300    -0.4735334    0.6053624  
   0.416979200    -0.3781644    0.6684587  
   0.418979100    -0.2748247    0.7167091  
   0.420979000    -0.1652715    0.7484587  
   0.422978900    -0.0513010    0.7638586  
   0.424978800     0.0641240    0.7617548  
   0.426978700     0.1785125    0.7417470  
   0.428978600     0.2884378    0.7044746  
   0.430978500     0.3916696    0.6507309  
   0.432978400     0.4855001    0.5817214  
   0.434978300     0.5675262    0.4988708  
   0.436978200     0.6360878    0.4038202  
   0.438978100     0.6891392    0.2985171  
   0.440978000     0.7253236    0.1860785  
   0.442977900     0.7432207    0.0687159  
   0.444977800     0.7421314   -0.0504392  
   0.446977700     0.7222217   -0.1684034  
   0.448977600     0.6835495   -0.2814739  
   0.450977500     0.6271879   -0.3870112  
   0.452977400     0.5538098   -0.4827326  
   0.454977300     0.4654194   -0.5661771  
   0.456977200     0.3643905   -0.6335952  
   0.458977100     0.2528710   -0.6841291  
   0.460977000     0.1351636   -0.7151394  
   0.462976900     0.0145416   -0.7264802  
   0.464976800    -0.1061604   -0.7176476  
   0.466976700    -0.2234370   -0.6894110  
   0.468976600    -0.3339908   -0.6427814  
   0.470976500    -0.4353566   -0.5788539  
   0.472976400    -0.5244402   -0.4995974  
   0.474976300    -0.5989345   -0.4078012  
   0.476976200    -0.6574221   -0.3057384  
   0.478976100    -0.6985496   -0.1964836  
   0.480976000    -0.7216492   -0.0833408  
   0.482975900    -0.7266190    0.0310752  
   0.484975800    -0.7138493    0.1443651  
   0.486975700    -0.6839356    0.2539978  
   0.488975600    -0.6373808    0.3571589  
   0.490975500    -0.5757735    0.4518375  
   0.492975400    -0.5006753    0.5358794  
   0.494975300    -0.4136591    0.6073220  
   0.496975200    -0.3168519    0.6644142  
   0.498975100    -0.2126820    0.7061637  
   0.500975000    -0.1035801    0.7316831  
   0.502974900     0.0078463    0.7401633  
   0.504974800     0.1197248    0.7317325  
   0.506974700     0.2296879    0.7062925  
   0.508974600     0.3350003    0.6639678  
   0.510974500     0.4329285    0.6056396  
   0.512974400     0.5211653    0.5329585  
   0.514974300     0.5969743    0.4476358  
   0.516974200     0.6592235    0.3514290  
   0.518974100     0.7056423    0.2465377  
   0.520974000     0.7356341    0.1354014  
   0.522973900     0.7479007    0.0209197  
   0.524973800     0.7424482   -0.0945274  
   0.526973700     0.7188898   -0.2087487  
   0.528973600     0.6778859   -0.3174750  
   0.530973500     0.6199232   -0.4195715  
   0.532973400     0.5462511   -0.5112640  
   0.534973300     0.4594827   -0.5903187  
   0.536973200     0.3601972   -0.6549592  
   0.538973100     0.2529124   -0.7028096  
   0.540973000     0.1396351   -0.7332084  
   0.542972900     0.0227528   -0.7454420  
   0.544972800    -0.0944254   -0.7389132  
   0.546972700    -0.2094809   -0.7143705  
   0.548972600    -0.3192701   -0.6716684  
   0.550972500    -0.4208468   -0.6121083  
   0.552972400    -0.5118848   -0.5371636  
   0.554972300    -0.5898787   -0.4487670  
   0.556972200    -0.6525320   -0.3492922  
   0.558972100    -0.6986849   -0.2412124  
   0.560972000    -0.7269076   -0.1275768  
   0.562971900    -0.7367981   -0.0113657  
   0.564971800    -0.7281882    0.1040143  
   0.566971700    -0.7017003    0.2164930  
   0.568971600    -0.6578652    0.3230241  
   0.570971500    -0.5983201    0.4212304  
   0.572971400    -0.5237433    0.5084881  
   0.574971300    -0.4363500    0.5833798  
   0.576971200    -0.3379105    0.6434523  
   0.578971100    -0.2311751    0.6873866  
   0.580971000    -0.1187791    0.7136597  
   0.582970900    -0.0036735    0.7220216  
   0.584970800     0.1109522    0.7118542  
   0.586970700     0.2222988    0.6837077  
   0.588970600     0.3278606    0.6381833  
   0.590970500     0.4247747    0.5765340  
   0.592970400     0.5108696    0.5002310  
   0.594970300     0.5838302    0.4105956  
   0.596970200     0.6416243    0.3110254  
   0.598970100     0.6828516    0.2029230  
   0.600970000     0.7060829    0.0892654  
   0.602969900     0.7107836   -0.0269777  
   0.604969800     0.6968958   -0.1428134  
   0.606969700     0.6646374   -0.2549601  
   0.608969600     0.6143089   -0.3609526  
   0.610969500     0.5474738   -0.4574809  
   0.612969400     0.4658512   -0.5417228  
   0.614969300     0.3719924   -0.6117049  
   0.616969200     0.2687812   -0.6655102  
   0.618969100     0.1587698   -0.7017037  
   0.620969000     0.0452673   -0.7199008  
   0.622968900    -0.0699511   -0.7200181  
   0.624968800    -0.1833614   -0.7024589  
   0.626968700    -0.2927537   -0.6670249  
   0.628968600    -0.3953201   -0.6150401  
   0.630968500    -0.4884374   -0.5480099  
   0.632968400    -0.5693729   -0.4674248  
   0.634968300    -0.6370008   -0.3753249  
   0.636968200    -0.6890941   -0.2742943  
   0.638968100    -0.7250813   -0.1668593  
   0.640968000    -0.7444416   -0.0554210  
   0.642967900    -0.7462951    0.0576671  
   0.644967800    -0.7310605    0.1689083  
   0.646967700    -0.6991363    0.2764505  
   0.648967600    -0.6515287    0.3777706  
   0.650967500    -0.5894806    0.4702796  
   0.652967400    -0.5149375    0.5523287  
   0.654967300    -0.4286143    0.6218257  
   0.656967200    -0.3333377    0.6781697  
   0.658967100    -0.2307626    0.7194368  
   0.660967000    -0.1226136    0.7448003  
   0.662966900    -0.0111718    0.7534683  
   0.664966800     0.1006654    0.7458206  
   0.666966700     0.2113032    0.7206938  
   0.668966600     0.3168598    0.6790432  
   0.670966500     0.4151972    0.6213757  
   0.672966400     0.5034854    0.5489790  
   0.674966300     0.5798883    0.4635679  
   0.676966200     0.6423988    0.3674168  
   0.678966100     0.6892204    0.2628911  
   0.680966000     0.7192293    0.1517043  
   0.682965900     0.7317632    0.0371485  
   0.684965800     0.7259110   -0.0782427  
   0.686965700     0.7016481   -0.1915309  
   0.688965600     0.6601272   -0.3001088  
   0.690965500     0.6019241   -0.4006101  
   0.692965400     0.5283773   -0.4908630  
   0.694965300     0.4413424   -0.5680225  
   0.696965200     0.3429956   -0.6305798  
   0.698965100     0.2361147   -0.6762412  
   0.700965000     0.1231344   -0.7044221  
   0.702964900     0.0072693   -0.7142493  
   0.704964800    -0.1085490   -0.7052780  
   0.706964700    -0.2213765   -0.6780025  
   0.708964600    -0.3280597   -0.6330864  
   0.710964500    -0.4262695   -0.5718986  
   0.712964400    -0.5126777   -0.4958075  
   0.714964300    -0.5855826   -0.4072179  
   0.716964200    -0.6433793   -0.3090311  
   0.718964100    -0.6845454   -0.2036416  
   0.720964000    -0.7086212   -0.0941784  
   0.722963900    -0.7156569    0.0170909  
   0.724963800    -0.7054012    0.1276264  
   0.726963700    -0.6783402    0.2347870  
   0.728963600    -0.6353825    0.3362306  
   0.730963500    -0.5776744    0.4298172  
   0.732963400    -0.5067245    0.5132546  
   0.734963300    -0.4236839    0.5846314  
   0.736963200    -0.3150488    0.6500834  
   0.738963100    -0.1958685    0.6958877  
   0.740963000    -0.0700193    0.7205065  
   0.742962900     0.0585398    0.7225088  
   0.744962800     0.1858579    0.7023188  
   0.746962700     0.3084445    0.6599391  
   0.748962600     0.4220871    0.5966508  
   0.750962500     0.3073853    0.6578832  
   0.752962400     0.4200362    0.5930223  
   0.754962300     0.5195581    0.5092560  
   0.756962200     0.6029122    0.4088471  
   0.758962100     0.6676977    0.2951115  
   0.760962000     0.7116742    0.1714324  
   0.762961900     0.7320310    0.0479418  
   0.764961800     0.7314664   -0.0660763  
   0.766961700     0.7134882   -0.1788878  
   0.768961600     0.6777201   -0.2880315  
   0.770961500     0.6254561   -0.3903042  
   0.772961400     0.5574993   -0.4834574  
   0.774961300     0.4761361   -0.5647637  
   0.776961200     0.3822414   -0.6325264  
   0.778961100     0.2788022   -0.6850287  
   0.780961000     0.1680719   -0.7206719  
   0.782960900     0.0525568   -0.7381545  
   0.784960800    -0.0642658   -0.7371269  
   0.786960700    -0.1797084   -0.7175817  
   0.788960600    -0.2903871   -0.6797603  
   0.790960500    -0.3932050   -0.6249588  
   0.792960400    -0.4856177   -0.5547485  
   0.794960300    -0.5655233   -0.4710477  
   0.796960200    -0.6306646   -0.3763418  
   0.798960100    -0.6799136   -0.2733669  
   0.800960000    -0.7125200   -0.1646400  
   0.802959900    -0.7272170   -0.0523706  
   0.804959800    -0.7245799    0.0596222  
   0.806959700    -0.7045786    0.1696870  
   0.808959600    -0.6683570    0.2745150  
   0.810959500    -0.6164863    0.3720498  
   0.812959400    -0.5508968    0.4605018  
   0.814959300    -0.4725057    0.5372564  
   0.816959200    -0.3838892    0.6010317  
   0.818959100    -0.2864227    0.6505259  
   0.820959000    -0.1827580    0.6847126  
   0.822958900    -0.0749116    0.7025991  
   0.824958800     0.0344952    0.7039385  
   0.826958700     0.1425417    0.6881146  
   0.828958600     0.2473081    0.6559888  
   0.830958500     0.3460167    0.6085728  
   0.832958400     0.4366106    0.5459810  
   0.834958300     0.5162197    0.4703819  
   0.836958200     0.5837266    0.3831547  
   0.838958100     0.6370106    0.2861112  
   0.840958000     0.6744492    0.1815338  
   0.842957900     0.6958761    0.0717977  
   0.844957800     0.6994749   -0.0402418  
   0.846957700     0.6852071   -0.1518572  
   0.848957600     0.6536031   -0.2606029  
   0.850957500     0.6049422   -0.3629636  
   0.852957400     0.5403493   -0.4567868  
   0.854957300     0.4618925   -0.5389923  
   0.856957200     0.3710151   -0.6080871  
   0.858957100     0.2704499   -0.6613309  
   0.860957000     0.1629002   -0.6982883  
   0.862956900     0.0513043   -0.7176399  
   0.864956800    -0.0613336   -0.7196711  
   0.866956700    -0.1724000   -0.7038365  
   0.868956600    -0.2792082   -0.6713901  
   0.870956500    -0.3795309   -0.6231101  
   0.872956400    -0.4710368   -0.5598809  
   0.874956300    -0.5517121   -0.4836595  
   0.876956200    -0.6196021   -0.3958984  
   0.878956100    -0.6731347   -0.2992290  
   0.880956000    -0.7110323   -0.1956424  
   0.882955900    -0.7331818   -0.0879823  
   0.884955800    -0.7385169    0.0218500  
   0.886955700    -0.7272438    0.1308919  
   0.888955600    -0.6999172    0.2367784  
   0.890955500    -0.6568165    0.3370531  
   0.892955400    -0.5994084    0.4294432  
   0.894955300    -0.5285888    0.5126145  
   0.896955200    -0.4468494    0.5837846  
