! MS46122B
! 2250307/22442219
! 6/16/2025 12:51:54 PM
! C:\USERS\SPARKY\DOCUMENTS\VNA_DATA\JUNE16_2025\295K\PORT2_MOS4.S1P
! CHANNEL.1
! TR.MEASUREMENT
! RAW.DATA
# GHZ S RI R 50.0
! FREQ.GHZ         S11RE         S11IM         
!; PortSelection: Port_1
   0.001000000    -0.8941444    0.0546977  
   0.002999900    -0.8643636    0.2586129  
   0.004999800    -0.8223967    0.4031828  
   0.006999700    -0.7541072    0.5298830  
   0.008999600    -0.6635881    0.6381277  
   0.010999500    -0.5553229    0.7263956  
   0.012999400    -0.4333242    0.7939583  
   0.014999300    -0.3014846    0.8397463  
   0.016999200    -0.1644803    0.8642479  
   0.018999100    -0.0254579    0.8675461  
   0.020999000     0.1117871    0.8509567  
   0.022998900     0.2442739    0.8149490  
   0.024998800     0.3416944    0.7430284  
   0.026998700     0.4847443    0.6906430  
   0.028998600     0.5879720    0.6050947  
   0.030998500     0.6770269    0.5063944  
   0.032998400     0.7166072    0.3967441  
   0.034998300     0.8057100    0.2759637  
   0.036998200     0.8420636    0.1487041  
   0.038998100     0.8581616    0.0171866  
   0.040998000     0.8534731   -0.1153655  
   0.042997900     0.8272491   -0.2458640  
   0.044997800     0.7604562   -0.3445386  
   0.046997700     0.7150926   -0.4862411  
   0.048997600     0.6320970   -0.5902108  
   0.050997500     0.5339973   -0.6798271  
   0.052997400     0.4248211   -0.7523990  
   0.054997300     0.3042122   -0.8086912  
   0.056997200     0.1775860   -0.8454447  
   0.058997100     0.0476440   -0.8628489  
   0.060997000    -0.0829917   -0.8604488  
   0.062996900    -0.2115229   -0.8387827  
   0.064996800    -0.3351255   -0.7980224  
   0.066996700    -0.4508874   -0.7391880  
   0.068996600    -0.5563526   -0.6633279  
   0.070996500    -0.6488357   -0.5725864  
   0.072996400    -0.7264781   -0.4689585  
   0.074996300    -0.7873350   -0.3548203  
   0.076996200    -0.8300001   -0.2325818  
   0.078996100    -0.8534880   -0.1056147  
   0.080996000    -0.8576422    0.0239370  
   0.082995900    -0.8420480    0.1525250  
   0.084995800    -0.8069066    0.2772405  
   0.086995700    -0.7531831    0.3956747  
   0.088995600    -0.6819699    0.5047416  
   0.090995500    -0.5947804    0.6017183  
   0.092995400    -0.4931830    0.6842199  
   0.094995300    -0.3797089    0.7502925  
   0.096995200    -0.2571539    0.7982358  
   0.098995100    -0.1279452    0.8264421  
   0.100995000     0.0041191    0.8335141  
   0.102994900     0.1357818    0.8195961  
   0.104994800     0.2640494    0.7849399  
   0.106994700     0.3855647    0.7299297  
   0.108994600     0.4967185    0.6562893  
   0.110994500     0.5945063    0.5659940  
   0.112994400     0.6763932    0.4607495  
   0.114994300     0.7404978    0.3439837  
   0.116994200     0.7851337    0.2183769  
   0.118994100     0.8087206    0.0874818  
   0.120994000     0.8109562   -0.0452113  
   0.122993900     0.7919453   -0.1761585  
   0.124993800     0.7525169   -0.3017888  
   0.126993700     0.6932869   -0.4193015  
   0.128993600     0.6168837   -0.5255942  
   0.130993500     0.5246946   -0.6177238  
   0.132993400     0.4196506   -0.6936862  
   0.134993300     0.3045894   -0.7518504  
   0.136993200     0.1824704   -0.7907174  
   0.138993100     0.0564840   -0.8102273  
   0.140993000    -0.0701857   -0.8098645  
   0.142992900    -0.1947555   -0.7902539  
   0.144992800    -0.3139527   -0.7516208  
   0.146992700    -0.4254103   -0.6957078  
   0.148992600    -0.5267858   -0.6235207  
   0.150992500    -0.6153393   -0.5377253  
   0.152992400    -0.6895914   -0.4393435  
   0.154992300    -0.7480584   -0.3314956  
   0.156992200    -0.7894284   -0.2164295  
   0.158992100    -0.8135737   -0.0967699  
   0.160992000    -0.8192235    0.0250000  
   0.162991900    -0.8068515    0.1460574  
   0.164991800    -0.7762707    0.2640984  
   0.166991700    -0.7286438    0.3758751  
   0.168991600    -0.6650428    0.4796945  
   0.170991500    -0.5860163    0.5727602  
   0.172991400    -0.4942590    0.6527991  
   0.174991300    -0.3914060    0.7186869  
   0.176991200    -0.2791024    0.7683769  
   0.178991100    -0.1600147    0.8010381  
   0.180991000    -0.0374687    0.8151018  
   0.182990900     0.0858321    0.8104424  
   0.184990800     0.2083582    0.7867103  
   0.186990700     0.3264808    0.7446502  
   0.188990600     0.4159278    0.6967592  
   0.190990500     0.5328079    0.6101780  
   0.192990400     0.6222548    0.5166680  
   0.194990300     0.6941718    0.4120140  
   0.196990200     0.7488495    0.2979038  
   0.198990100     0.7849002    0.1763069  
   0.200990000     0.8015320    0.0499265  
   0.202989900     0.7978634   -0.0781728  
   0.204989800     0.7736463   -0.2038316  
   0.206989700     0.7301230   -0.3238673  
   0.208989600     0.6679249   -0.4353327  
   0.210989500     0.5887120   -0.5356622  
   0.212989400     0.4942681   -0.6223371  
   0.214989300     0.3873501   -0.6925496  
   0.216989200     0.2711126   -0.7443050  
   0.218989100     0.1487790   -0.7769709  
   0.220989000     0.0229444   -0.7895719  
   0.222988900    -0.1034364   -0.7819048  
   0.224988800    -0.2268259   -0.7544711  
   0.226988700    -0.3434633   -0.7075213  
   0.228988600    -0.4505256   -0.6433004  
   0.230988500    -0.5454964   -0.5632889  
   0.232988400    -0.6267080   -0.4696537  
   0.234988300    -0.6919667   -0.3641171  
   0.236988200    -0.7396053   -0.2499804  
   0.238988100    -0.7686868   -0.1301265  
   0.240988000    -0.7784468   -0.0081368  
   0.242987900    -0.7689862    0.1133386  
   0.244987800    -0.7408143    0.2314073  
   0.246987700    -0.6947190    0.3437746  
   0.248987600    -0.6313426    0.4477355  
   0.250987500    -0.5524247    0.5408269  
   0.252987400    -0.4603123    0.6200258  
   0.254987300    -0.3574611    0.6834127  
   0.256987200    -0.2464446    0.7303210  
   0.258987100    -0.1293775    0.7591303  
   0.260987000    -0.0087510    0.7697274  
   0.262986900     0.1124771    0.7612681  
   0.264986800     0.2312909    0.7340229  
   0.266986700     0.3443530    0.6883549  
   0.268986600     0.4489866    0.6258181  
   0.270986500     0.5422149    0.5477658  
   0.272986400     0.6223500    0.4557458  
   0.274986300     0.6871675    0.3527958  
   0.276986200     0.7353662    0.2404498  
   0.278986100     0.7653909    0.1213427  
   0.280986000     0.7764381   -0.0016015  
   0.282985900     0.7678966   -0.1246949  
   0.284985800     0.7402149   -0.2453234  
   0.286985700     0.6933055   -0.3598546  
   0.288985600     0.6297463   -0.4650702  
   0.290985500     0.5507225   -0.5587925  
   0.292985400     0.4580080   -0.6386900  
   0.294985300     0.3540775   -0.7032199  
   0.296985200     0.2410753   -0.7508509  
   0.298985100     0.1211806   -0.7800823  
   0.300985000    -0.0016142   -0.7902005  
   0.302984900    -0.1241913   -0.7810950  
   0.304984800    -0.2434056   -0.7529227  
   0.306984700    -0.3560243   -0.7064419  
   0.308984600    -0.4593921   -0.6438642  
   0.310984500    -0.5512105   -0.5670006  
   0.312984400    -0.6298885   -0.4767070  
   0.314984300    -0.6935381   -0.3760037  
   0.316984200    -0.7411797   -0.2671305  
   0.318984100    -0.7714415   -0.1518147  
   0.320984000    -0.7840056   -0.0324364  
   0.322983900    -0.7777727    0.0871548  
   0.324983800    -0.7533251    0.2046734  
   0.326983700    -0.7113062    0.3161240  
   0.328983600    -0.6522585    0.4198562  
   0.330983500    -0.5785794    0.5131006  
   0.332983400    -0.4918384    0.5931755  
   0.334983300    -0.3942373    0.6591885  
   0.336983200    -0.2874004    0.7095023  
   0.338983100    -0.1742426    0.7426128  
   0.340983000    -0.0571755    0.7580520  
   0.342982900     0.0613955    0.7552735  
   0.344982800     0.1787050    0.7341665  
   0.346982700     0.2918998    0.6944087  
   0.348982600     0.3981110    0.6373043  
   0.350982500     0.4940779    0.5638260  
   0.352982400     0.5777665    0.4758124  
   0.354982300     0.6481610    0.3708355  
   0.356982200     0.7052279    0.2432868  
   0.358982100     0.7377973    0.1076510  
   0.360982000     0.7451038   -0.0316383  
   0.362981900     0.7267463   -0.1694537  
   0.364981800     0.6832146   -0.3021873  
   0.366981700     0.6161057   -0.4248809  
   0.368981600     0.5272622   -0.5330730  
   0.370981500     0.4199986   -0.6227573  
   0.372981400     0.2978903   -0.6915097  
   0.374981300     0.1645651   -0.7361441  
   0.376981200     0.2666062   -0.7006009  
   0.378981100     0.1327243   -0.7401354  
   0.380981000    -0.0063852   -0.7540650  
   0.382980900    -0.1330588   -0.7442185  
   0.384980800    -0.2509718   -0.7155118  
   0.386980700    -0.3622254   -0.6682362  
   0.388980600    -0.4639514   -0.6041325  
   0.390980500    -0.5538039   -0.5256527  
   0.392980400    -0.6297426   -0.4347054  
   0.394980300    -0.6901296   -0.3348015  
   0.396980200    -0.7342634   -0.2265840  
   0.398980100    -0.7611596   -0.1137224  
   0.400980000    -0.7707301    0.0014743  
   0.402979900    -0.7628555    0.1165132  
   0.404979800    -0.7378789    0.2287007  
   0.406979700    -0.6964731    0.3351307  
   0.408979600    -0.6397769    0.4342203  
   0.410979500    -0.5684204    0.5240877  
   0.412979400    -0.4844861    0.6025528  
   0.414979300    -0.3889224    0.6677554  
   0.416979200    -0.2847720    0.7177655  
   0.418979100    -0.1742439    0.7511936  
   0.420979000    -0.0593102    0.7680343  
   0.422978900     0.0573248    0.7669838  
   0.424978800     0.1729893    0.7478496  
   0.426978700     0.2848343    0.7110254  
   0.428978600     0.3901610    0.6571293  
   0.430978500     0.4857571    0.5875981  
   0.432978400     0.5694916    0.5038535  
   0.434978300     0.6392033    0.4076203  
   0.436978200     0.6932091    0.3010287  
   0.438978100     0.7298794    0.1871255  
   0.440978000     0.7480380    0.0680745  
   0.442977900     0.7467765   -0.0527546  
   0.444977800     0.7261909   -0.1722805  
   0.446977700     0.6866291   -0.2869803  
   0.448977600     0.6288916   -0.3937533  
   0.450977500     0.5542395   -0.4900028  
   0.452977400     0.4643784   -0.5734581  
   0.454977300     0.3618260   -0.6411527  
   0.456977200     0.2489559   -0.6912413  
   0.458977100     0.1291598   -0.7219409  
   0.460977000     0.0063546   -0.7322387  
   0.462976900    -0.1158161   -0.7221651  
   0.464976800    -0.2343588   -0.6921347  
   0.466976700    -0.3459850   -0.6434357  
   0.468976600    -0.4479021   -0.5774077  
   0.470976500    -0.5368295   -0.4957632  
   0.472976400    -0.6111991   -0.4014815  
   0.474976300    -0.6689203   -0.2970497  
   0.476976200    -0.7089748   -0.1853985  
   0.478976100    -0.7304195   -0.0697195  
   0.480976000    -0.7331414    0.0470913  
   0.482975900    -0.7179177    0.1617340  
   0.484975800    -0.6851382    0.2719456  
   0.486975700    -0.6356690    0.3753097  
   0.488975600    -0.5713992    0.4697326  
   0.490975500    -0.4933670    0.5533281  
   0.492975400    -0.4034608    0.6235312  
   0.494975300    -0.3043233    0.6792316  
   0.496975200    -0.1973856    0.7191085  
   0.498975100    -0.0860757    0.7421726  
   0.500975000     0.0273602    0.7479948  
   0.502974900     0.1402954    0.7365098  
   0.504974800     0.2506977    0.7079837  
   0.506974700     0.3559925    0.6625240  
   0.508974600     0.4536468    0.6009896  
   0.510974500     0.5412291    0.5246193  
   0.512974400     0.6164389    0.4354067  
   0.514974300     0.6766870    0.3359402  
   0.516974200     0.7209051    0.2275782  
   0.518974100     0.7478714    0.1137494  
   0.520974000     0.7565638   -0.0033324  
   0.522973900     0.7471126   -0.1207492  
   0.524973800     0.7194070   -0.2355827  
   0.526973700     0.6737078   -0.3450474  
   0.528973600     0.6112171   -0.4463816  
   0.530973500     0.5328343   -0.5371395  
   0.532973400     0.4413160   -0.6141949  
   0.534973300     0.3380860   -0.6758806  
   0.536973200     0.2263863   -0.7204161  
   0.538973100     0.1092421   -0.7467678  
   0.540973000    -0.0101771   -0.7538842  
   0.542972900    -0.1291426   -0.7421044  
   0.544972800    -0.2446983   -0.7116237  
   0.546972700    -0.3542868   -0.6629968  
   0.548972600    -0.4549223   -0.5975755  
   0.550972500    -0.5429723   -0.5169927  
   0.552972400    -0.6179058   -0.4233426  
   0.554972300    -0.6765422   -0.3189912  
   0.556972200    -0.7178004   -0.2067516  
   0.558972100    -0.7405466   -0.0896454  
   0.560972000    -0.7443209    0.0291577  
   0.562971900    -0.7290266    0.1464238  
   0.564971800    -0.6956517    0.2592060  
   0.566971700    -0.6449351    0.3651633  
   0.568971600    -0.5784210    0.4612215  
   0.570971500    -0.4976080    0.5456581  
   0.572971400    -0.4043794    0.6159960  
   0.574971300    -0.3013485    0.6709611  
   0.576971200    -0.1902990    0.7088537  
   0.578971100    -0.0744322    0.7286026  
   0.580971000     0.0433667    0.7297890  
   0.582970900     0.1592688    0.7121487  
   0.584970800     0.2709554    0.6759163  
   0.586970700     0.3751458    0.6227989  
   0.588970600     0.4695999    0.5533586  
   0.590970500     0.5518380    0.4701006  
   0.592970400     0.6198831    0.3742806  
   0.594970300     0.6716203    0.2690365  
   0.596970200     0.7060069    0.1563728  
   0.598970100     0.7218322    0.0393654  
   0.600970000     0.7182932   -0.0786156  
   0.602969900     0.6965018   -0.1951291  
   0.604969800     0.6556500   -0.3066951  
   0.606969700     0.5974650   -0.4102960  
   0.608969600     0.5230799   -0.5035086  
   0.610969500     0.4340389   -0.5834688  
   0.612969400     0.3341183   -0.6481329  
   0.614969300     0.2249609   -0.6955464  
   0.616969200     0.1101399   -0.7248440  
   0.618969100    -0.0069417   -0.7350773  
   0.620969000    -0.1233901   -0.7268972  
   0.622968900    -0.2371318   -0.7006323  
   0.624968800    -0.3452488   -0.6569259  
   0.626968700    -0.4452482   -0.5971720  
   0.628968600    -0.5345828   -0.5226091  
   0.630968500    -0.6111603   -0.4350884  
   0.632968400    -0.6728707   -0.3373688  
   0.634968300    -0.7187349   -0.2310776  
   0.636968200    -0.7477602   -0.1193910  
   0.638968100    -0.7592863   -0.0051224  
   0.640968000    -0.7534359    0.1095333  
   0.642967900    -0.7298815    0.2214792  
   0.644967800    -0.6897898    0.3285747  
   0.646967700    -0.6342049    0.4280998  
   0.648967600    -0.5644901    0.5175710  
   0.650967500    -0.4821730    0.5953756  
   0.652967400    -0.3895509    0.6600801  
   0.654967300    -0.2886441    0.7098305  
   0.656967200    -0.1810532    0.7441667  
   0.658967100    -0.0697698    0.7618088  
   0.660967000     0.0435340    0.7621701  
   0.662966900     0.1562325    0.7459826  
   0.664966800     0.2658946    0.7121419  
   0.666966700     0.3702313    0.6619881  
   0.668966600     0.4654788    0.5958592  
   0.670966500     0.5499249    0.5147868  
   0.672966400     0.6210613    0.4225309  
   0.674966300     0.6770308    0.3197114  
   0.676966200     0.7162309    0.2092492  
   0.678966100     0.7378016    0.0937697  
   0.680966000     0.7408503   -0.0239484  
   0.682965900     0.7250139   -0.1408620  
   0.684965800     0.6910439   -0.2535937  
   0.686965700     0.6391321   -0.3601698  
   0.688965600     0.5710666   -0.4575298  
   0.690965500     0.4883798   -0.5425375  
   0.692965400     0.3929261   -0.6130372  
   0.694965300     0.2878023   -0.6673610  
   0.696965200     0.1751393   -0.7042180  
   0.698965100     0.0583515   -0.7221032  
   0.700965000    -0.0598609   -0.7215644  
   0.702964900    -0.1761060   -0.7017758  
   0.704964800    -0.2877813   -0.6636200  
   0.706964700    -0.3913654   -0.6084313  
   0.708964600    -0.4846228   -0.5373528  
   0.710964500    -0.5652050   -0.4525004  
   0.712964400    -0.6308669   -0.3562497  
   0.714964300    -0.6800314   -0.2512620  
   0.716964200    -0.7118711   -0.1404465  
   0.718964100    -0.7260457   -0.0268616  
   0.720964000    -0.7221472    0.0866112  
   0.722963900    -0.7011278    0.1974462  
   0.724963800    -0.6637729    0.3031251  
   0.726963700    -0.6104420    0.4019116  
   0.728963600    -0.5429234    0.4905531  
   0.730963500    -0.4629446    0.5682746  
   0.732963400    -0.3722859    0.6327330  
   0.734963300    -0.2729865    0.6825017  
   0.736963200    -0.1493367    0.7204637  
   0.738963100    -0.0202621    0.7362555  
   0.740963000     0.1106353    0.7294430  
   0.742962900     0.2385548    0.6995807  
   0.744962800     0.3599072    0.6478319  
   0.746962700     0.4707922    0.5750008  
   0.748962600     0.5673741    0.4838204  
   0.750962500     0.4682276    0.5702028  
   0.752962400     0.5637904    0.4771426  
   0.754962300     0.6412109    0.3688765  
   0.756962200     0.6985269    0.2481962  
   0.758962100     0.7336610    0.1190193  
   0.760962000     0.7449403   -0.0149838  
   0.762961900     0.7327181   -0.1424432  
   0.764961800     0.7023793   -0.2555326  
   0.766961700     0.6545711   -0.3625465  
   0.768961600     0.5901620   -0.4610838  
   0.770961500     0.5110597   -0.5483202  
   0.772961400     0.4192861   -0.6218947  
   0.774961300     0.3164458   -0.6801858  
   0.776961200     0.2057769   -0.7215998  
   0.778961100     0.0899212   -0.7452313  
   0.780961000    -0.0286127   -0.7497743  
   0.782960900    -0.1463841   -0.7357136  
   0.784960800    -0.2604208   -0.7026075  
   0.786960700    -0.3677356   -0.6518472  
   0.788960600    -0.4653157   -0.5846124  
   0.790960500    -0.5507345   -0.5031185  
   0.792960400    -0.6214882   -0.4094600  
   0.794960300    -0.6762813   -0.3060650  
   0.796960200    -0.7139367   -0.1965569  
   0.798960100    -0.7336782   -0.0827593  
   0.800960000    -0.7356505    0.0315702  
   0.802959900    -0.7194589    0.1446205  
   0.804959800    -0.6866707    0.2528891  
   0.806959700    -0.6375201    0.3542198  
   0.808959600    -0.5736954    0.4465235  
   0.810959500    -0.4970372    0.5272812  
   0.812959400    -0.4087460    0.5953608  
   0.814959300    -0.3114657    0.6490884  
   0.816959200    -0.2076219    0.6872707  
   0.818959100    -0.0993040    0.7087911  
   0.820959000     0.0116094    0.7137094  
   0.822958900     0.1218938    0.7017354  
   0.824958800     0.2288788    0.6726385  
   0.826958700     0.3309359    0.6276858  
   0.828958600     0.4249253    0.5673538  
   0.830958500     0.5083221    0.4929290  
   0.832958400     0.5798405    0.4063421  
   0.834958300     0.6368058    0.3095891  
   0.836958200     0.6783174    0.2050531  
   0.838958100     0.7030327    0.0945642  
   0.840958000     0.7103789   -0.0185886  
   0.842957900     0.6995998   -0.1323834  
   0.844957800     0.6712887   -0.2433046  
   0.846957700     0.6251374   -0.3487643  
   0.848957600     0.5627449   -0.4457812  
   0.850957500     0.4856254   -0.5320492  
   0.852957400     0.3954564   -0.6048346  
   0.854957300     0.2950283   -0.6624997  
   0.856957200     0.1861993   -0.7033607  
   0.858957100     0.0729913   -0.7263144  
   0.860957000    -0.0423607   -0.7312565  
   0.862956900    -0.1565031   -0.7179423  
   0.864956800    -0.2664230   -0.6871549  
   0.866956700    -0.3696615   -0.6401827  
   0.868956600    -0.4638993   -0.5779608  
   0.870956500    -0.5471735   -0.5025559  
   0.872956400    -0.6178265   -0.4151881  
   0.874956300    -0.6744809   -0.3184973  
   0.876956200    -0.7151093   -0.2144835  
   0.878956100    -0.7397335   -0.1055059  
   0.880956000    -0.7473850    0.0056714  
   0.882955900    -0.7382654    0.1164328  
   0.884955800    -0.7125477    0.2244871  
   0.886955700    -0.6706080    0.3270006  
   0.888955600    -0.6141157    0.4221956  
   0.890955500    -0.5437908    0.5076398  
   0.892955400    -0.4615550    0.5816551  
   0.894955300    -0.3691479    0.6423896  
