! MS46122B
! 2250307/22442219
! 6/11/2025 1:23:23 PM
! C:\USERS\SPARKY\DOCUMENTS\VNA_DATA\JUNE11_2025\PORT6.S1P
! CHANNEL.1
! TR.MEASUREMENT
! RAW.DATA
# GHZ S RI R 50.0
! FREQ.GHZ         S11RE         S11IM         
!; PortSelection: Port_1
   0.001000000     1.0225390   -0.0602625  
   0.002999900     0.9313851   -0.2207712  
   0.004999800     0.8628843   -0.3648437  
   0.006999700     0.7816404   -0.4957820  
   0.008999600     0.6856239   -0.6078653  
   0.010999500     0.5782495   -0.7067430  
   0.012999400     0.4610066   -0.7913590  
   0.014999300     0.3342675   -0.8594390  
   0.016999200     0.2002223   -0.9082494  
   0.018999100     0.0595828   -0.9361218  
   0.020999000    -0.0833829   -0.9412339  
   0.022998900    -0.2255612   -0.9227142  
   0.024998800    -0.3377081   -0.8578846  
   0.026998700    -0.4925217   -0.8147768  
   0.028998600    -0.6099370   -0.7281122  
   0.030998500    -0.7118520   -0.6223345  
   0.032998400    -0.7628517   -0.4990144  
   0.034998300    -0.8585492   -0.3680432  
   0.036998200    -0.8996311   -0.2268958  
   0.038998100    -0.9178920   -0.0813321  
   0.040998000    -0.9136658    0.0639587  
   0.042997900    -0.8874238    0.2067614  
   0.044997800    -0.8200796    0.3169461  
   0.046997700    -0.7719389    0.4701870  
   0.048997600    -0.6856099    0.5851279  
   0.050997500    -0.5823658    0.6852692  
   0.052997400    -0.4647945    0.7674369  
   0.054997300    -0.3363961    0.8297900  
   0.056997200    -0.1969917    0.8709302  
   0.058997100    -0.0541772    0.8886483  
   0.060997000     0.0892965    0.8830866  
   0.062996900     0.2301738    0.8542277  
   0.064996800     0.3643152    0.8033941  
   0.066996700     0.4883615    0.7316989  
   0.068996600     0.5992678    0.6411875  
   0.070996500     0.6940898    0.5343950  
   0.072996400     0.7710529    0.4142869  
   0.074996300     0.8272800    0.2836332  
   0.076996200     0.8621824    0.1462012  
   0.078996100     0.8746668    0.0052379  
   0.080996000     0.8644946   -0.1355741  
   0.082995900     0.8321667   -0.2722038  
   0.084995800     0.7787810   -0.4016954  
   0.086995700     0.7058895   -0.5205550  
   0.088995600     0.6152534   -0.6259284  
   0.090995500     0.5100693   -0.7152593  
   0.092995400     0.3927670   -0.7864933  
   0.094995300     0.2663205   -0.8387061  
   0.096995200     0.1340621   -0.8707918  
   0.098995100    -0.0010793   -0.8820279  
   0.100995000    -0.1356201   -0.8724453  
   0.102994900    -0.2669863   -0.8424457  
   0.104994800    -0.3915539   -0.7933229  
   0.106994700    -0.5069976   -0.7261772  
   0.108994600    -0.6107051   -0.6425670  
   0.110994500    -0.7004120   -0.5443853  
   0.112994400    -0.7740973   -0.4340594  
   0.114994300    -0.8305844   -0.3139214  
   0.116994200    -0.8683328   -0.1871092  
   0.118994100    -0.8862936   -0.0558810  
   0.120994000    -0.8843510    0.0767136  
   0.122993900    -0.8625445    0.2076130  
   0.124993800    -0.8214145    0.3339278  
   0.126993700    -0.7614247    0.4528873  
   0.128993600    -0.6838695    0.5616022  
   0.130993500    -0.5905730    0.6574975  
   0.132993400    -0.4831274    0.7385126  
   0.134993300    -0.3642747    0.8023478  
   0.136993200    -0.2364618    0.8473606  
   0.138993100    -0.1024174    0.8719437  
   0.140993000     0.0340916    0.8755645  
   0.142992900     0.1704676    0.8576046  
   0.144992800     0.3027228    0.8183116  
   0.146992700     0.4275180    0.7581969  
   0.148992600     0.5415478    0.6787304  
   0.150992500     0.6416529    0.5821443  
   0.152992400     0.7255216    0.4701181  
   0.154992300     0.7902974    0.3460335  
   0.156992200     0.8342480    0.2127818  
   0.158992100     0.8560535    0.0740234  
   0.160992000     0.8549631   -0.0665414  
   0.162991900     0.8311692   -0.2046397  
   0.164991800     0.7852519   -0.3373009  
   0.166991700     0.7189468   -0.4600420  
   0.168991600     0.6335981   -0.5703502  
   0.170991500     0.5317518   -0.6653284  
   0.172991400     0.4161574   -0.7420136  
   0.174991300     0.2906098   -0.7989092  
   0.176991200     0.1582487   -0.8348965  
   0.178991100     0.0221451   -0.8490791  
   0.180991000    -0.1133632   -0.8413882  
   0.182990900    -0.2451864   -0.8125489  
   0.184990800    -0.3706210   -0.7635508  
   0.186990700    -0.4859090   -0.6957091  
   0.188990600    -0.5707226   -0.6278774  
   0.190990500    -0.6735989   -0.5154672  
   0.192990400    -0.7464779   -0.4017506  
   0.194990300    -0.7992733   -0.2819726  
   0.196990200    -0.8323949   -0.1568438  
   0.198990100    -0.8466429   -0.0285995  
   0.200990000    -0.8409752    0.1003114  
   0.202989900    -0.8155635    0.2267508  
   0.204989800    -0.7718372    0.3475004  
   0.206989700    -0.7105449    0.4594837  
   0.208989600    -0.6335413    0.5607715  
   0.210989500    -0.5418168    0.6497034  
   0.212989400    -0.4374076    0.7239430  
   0.214989300    -0.3231587    0.7819282  
   0.216989200    -0.2017493    0.8215867  
   0.218989100    -0.0758888    0.8426074  
   0.220989000     0.0523287    0.8445880  
   0.222988900     0.1799603    0.8270627  
   0.224988800     0.3039678    0.7901140  
   0.226988700     0.4208750    0.7350104  
   0.228988600     0.5279278    0.6628442  
   0.230988500     0.6231273    0.5749571  
   0.232988400     0.7040069    0.4730272  
   0.234988300     0.7685371    0.3595791  
   0.236988200     0.8154181    0.2366028  
   0.238988100     0.8425786    0.1080417  
   0.240988000     0.8495209   -0.0231049  
   0.242987900     0.8361964   -0.1533525  
   0.244987800     0.8026589   -0.2804317  
   0.246987700     0.7498319   -0.4011088  
   0.248987600     0.6785594   -0.5126721  
   0.250987500     0.5907709   -0.6117656  
   0.252987400     0.4888378   -0.6956267  
   0.254987300     0.3756191   -0.7624595  
   0.256987200     0.2540247   -0.8103377  
   0.258987100     0.1266320   -0.8389700  
   0.260987000    -0.0040650   -0.8475630  
   0.262986900    -0.1343770   -0.8359462  
   0.264986800    -0.2610295   -0.8039119  
   0.266986700    -0.3811387   -0.7529436  
   0.268986600    -0.4910870   -0.6840749  
   0.270986500    -0.5885358   -0.5999246  
   0.272986400    -0.6713899   -0.5020133  
   0.274986300    -0.7382081   -0.3934110  
   0.276986200    -0.7874057   -0.2756223  
   0.278986100    -0.8178529   -0.1517459  
   0.280986000    -0.8288468   -0.0242083  
   0.282985900    -0.8203183    0.1031082  
   0.284985800    -0.7923226    0.2274481  
   0.286985700    -0.7454762    0.3457128  
   0.288985600    -0.6815665    0.4544261  
   0.290985500    -0.6025112    0.5515409  
   0.292985400    -0.5095998    0.6353682  
   0.294985300    -0.4047851    0.7041580  
   0.296985200    -0.2901157    0.7563960  
   0.298985100    -0.1680601    0.7907118  
   0.300985000    -0.0420488    0.8055261  
   0.302984900     0.0848654    0.8006517  
   0.304984800     0.2098395    0.7759525  
   0.306984700     0.3291030    0.7321599  
   0.308984600     0.4397122    0.6707338  
   0.310984500     0.5392036    0.5931071  
   0.312984400     0.6258349    0.5004874  
   0.314984300     0.6967420    0.3957959  
   0.316984200     0.7507837    0.2808976  
   0.318984100     0.7866767    0.1580972  
   0.320984000     0.8024737    0.0304170  
   0.322983900     0.7980319   -0.0984878  
   0.324983800     0.7734869   -0.2252280  
   0.326983700     0.7290581   -0.3462699  
   0.328983600     0.6662477   -0.4588600  
   0.330983500     0.5865707   -0.5595926  
   0.332983400     0.4923987   -0.6459869  
   0.334983300     0.3863098   -0.7166927  
   0.336983200     0.2710445   -0.7696497  
   0.338983100     0.1488933   -0.8040735  
   0.340983000     0.0234178   -0.8190560  
   0.342982900    -0.1023873   -0.8143713  
   0.344982800    -0.2263813   -0.7905888  
   0.346982700    -0.3454191   -0.7476240  
   0.348982600    -0.4564047   -0.6867188  
   0.350982500    -0.5559952   -0.6099120  
   0.352982400    -0.6430284   -0.5186704  
   0.354982300    -0.7171209   -0.4104515  
   0.356982200    -0.7772945   -0.2781026  
   0.358982100    -0.8128467   -0.1383299  
   0.360982000    -0.8232583    0.0036932  
   0.362981900    -0.8086634    0.1447635  
   0.364981800    -0.7697149    0.2806267  
   0.366981700    -0.7084003    0.4070560  
   0.368981600    -0.6264868    0.5206479  
   0.370981500    -0.5268215    0.6182998  
   0.372981400    -0.4117541    0.6969736  
   0.374981300    -0.2847781    0.7550641  
   0.376981200    -0.4007596    0.7089326  
   0.378981100    -0.2694649    0.7652918  
   0.380981000    -0.1303783    0.7976446  
   0.382980900    -0.0010184    0.8057236  
   0.384980800     0.1226085    0.7938664  
   0.386980700     0.2433882    0.7631106  
   0.388980600     0.3577585    0.7134994  
   0.390980500     0.4629981    0.6471598  
   0.392980400     0.5564748    0.5648919  
   0.394980300     0.6361406    0.4693710  
   0.396980200     0.6998278    0.3627274  
   0.398980100     0.7463962    0.2470356  
   0.400980000     0.7738054    0.1252947  
   0.402979900     0.7821399    0.0003126  
   0.404979800     0.7702563   -0.1243327  
   0.406979700     0.7392558   -0.2455508  
   0.408979600     0.6890630   -0.3601269  
   0.410979500     0.6211289   -0.4657406  
   0.412979400     0.5368860   -0.5596597  
   0.414979300     0.4389077   -0.6385947  
   0.416979200     0.3294173   -0.7009555  
   0.418979100     0.2120372   -0.7449766  
   0.420979000     0.0893880   -0.7694978  
   0.422978900    -0.0350688   -0.7741299  
   0.424978800    -0.1587424   -0.7588155  
   0.426978700    -0.2780265   -0.7243139  
   0.428978600    -0.3897724   -0.6716143  
   0.430978500    -0.4909955   -0.6030481  
   0.432978400    -0.5794703   -0.5198601  
   0.434978300    -0.6536502   -0.4249028  
   0.436978200    -0.7118398   -0.3206602  
   0.438978100    -0.7535401   -0.2090781  
   0.440978000    -0.7779667   -0.0933328  
   0.442977900    -0.7842622    0.0244344  
   0.444977800    -0.7732000    0.1411208  
   0.446977700    -0.7448943    0.2546107  
   0.448977600    -0.7006652    0.3617601  
   0.450977500    -0.6408647    0.4609436  
   0.452977400    -0.5670549    0.5506655  
   0.454977300    -0.4809254    0.6289722  
   0.456977200    -0.3834437    0.6934884  
   0.458977100    -0.2776819    0.7429335  
   0.460977000    -0.1658243    0.7761110  
   0.462976900    -0.0504475    0.7924666  
   0.464976800     0.0665903    0.7915516  
   0.466976700     0.1820133    0.7734171  
   0.468976600     0.2939264    0.7381768  
   0.470976500     0.3994950    0.6864791  
   0.472976400     0.4965714    0.6195811  
   0.474976300     0.5827621    0.5382034  
   0.476976200     0.6556758    0.4451200  
   0.478976100     0.7142460    0.3414452  
   0.480976000     0.7559882    0.2309411  
   0.482975900     0.7811981    0.1147626  
   0.484975800     0.7885599   -0.0039214  
   0.486975700     0.7775331   -0.1231855  
   0.488975600     0.7482865   -0.2395693  
   0.490975500     0.7013592   -0.3504071  
   0.492975400     0.6378086   -0.4536568  
   0.494975300     0.5583097   -0.5457925  
   0.496975200     0.4654895   -0.6247040  
   0.498975100     0.3616032   -0.6877862  
   0.500975000     0.2488734   -0.7342095  
   0.502974900     0.1302163   -0.7623546  
   0.504974800     0.0086718   -0.7716107  
   0.506974700    -0.1131525   -0.7615668  
   0.508974600    -0.2327499   -0.7319829  
   0.510974500    -0.3458565   -0.6839371  
   0.512974400    -0.4497274   -0.6187800  
   0.514974300    -0.5411732   -0.5388190  
   0.516974200    -0.6186037   -0.4456509  
   0.518974100    -0.6798005   -0.3421865  
   0.520974000    -0.7238011   -0.2305769  
   0.522973900    -0.7500463   -0.1144222  
   0.524973800    -0.7573389    0.0037892  
   0.526973700    -0.7466596    0.1217283  
   0.528973600    -0.7179661    0.2358410  
   0.530973500    -0.6717705    0.3438578  
   0.532973400    -0.6100482    0.4430393  
   0.534973300    -0.5339747    0.5315068  
   0.536973200    -0.4455506    0.6067858  
   0.538973100    -0.3473261    0.6672958  
   0.540973000    -0.2414554    0.7118866  
   0.542972900    -0.1303986    0.7400210  
   0.544972800    -0.0167014    0.7511576  
   0.546972700     0.0976828    0.7447758  
   0.548972600     0.2098249    0.7211531  
   0.550972500     0.3172114    0.6806130  
   0.552972400     0.4176860    0.6244549  
   0.554972300     0.5083618    0.5533518  
   0.556972200     0.5872578    0.4687697  
   0.558972100     0.6522231    0.3734326  
   0.560972000     0.7018665    0.2690994  
   0.562971900     0.7354164    0.1587066  
   0.564971800     0.7512800    0.0444152  
   0.566971700     0.7498450   -0.0706578  
   0.568971600     0.7308790   -0.1837519  
   0.570971500     0.6949970   -0.2930005  
   0.572971400     0.6430444   -0.3959821  
   0.574971300     0.5753485   -0.4899690  
   0.576971200     0.4938139   -0.5732621  
   0.578971100     0.4002584   -0.6429963  
   0.580971000     0.2973904   -0.6976745  
   0.582970900     0.1872360   -0.7361011  
   0.584970800     0.0736692   -0.7569686  
   0.586970700    -0.0419679   -0.7604704  
   0.588970600    -0.1563285   -0.7464137  
   0.590970500    -0.2667228   -0.7150884  
   0.592970400    -0.3711756   -0.6678387  
   0.594970300    -0.4671052   -0.6056500  
   0.596970200    -0.5524022   -0.5300776  
   0.598970100    -0.6254617   -0.4423892  
   0.600970000    -0.6846707   -0.3450835  
   0.602969900    -0.7283368   -0.2405486  
   0.604969800    -0.7560716   -0.1304326  
   0.606969700    -0.7669993   -0.0175667  
   0.608969600    -0.7610413    0.0961065  
   0.610969500    -0.7380822    0.2066864  
   0.612969400    -0.6988734    0.3128546  
   0.614969300    -0.6445448    0.4117490  
   0.616969200    -0.5761204    0.5011280  
   0.618969100    -0.4961177    0.5788164  
   0.620969000    -0.4056050    0.6436344  
   0.622968900    -0.3064438    0.6944029  
   0.624968800    -0.2005765    0.7299801  
   0.626968700    -0.0900464    0.7492484  
   0.628968600     0.0224032    0.7519392  
   0.630968500     0.1340649    0.7374511  
   0.632968400     0.2425741    0.7061517  
   0.634968300     0.3455951    0.6584497  
   0.636968200     0.4399067    0.5955777  
   0.638968100     0.5240422    0.5187755  
   0.640968000     0.5952131    0.4294493  
   0.642967900     0.6516621    0.3299731  
   0.644967800     0.6922966    0.2228363  
   0.646967700     0.7158343    0.1105299  
   0.648967600     0.7212666   -0.0039788  
   0.650967500     0.7083384   -0.1175664  
   0.652967400     0.6780364   -0.2273667  
   0.654967300     0.6311380   -0.3311668  
   0.656967200     0.5683312   -0.4262513  
   0.658967100     0.4915124   -0.5102434  
   0.660967000     0.4017399   -0.5811659  
   0.662966900     0.3021681   -0.6373522  
   0.664966800     0.1944878   -0.6772793  
   0.666966700     0.0817581   -0.6995971  
   0.668966600    -0.0330089   -0.7036650  
   0.670966500    -0.1466585   -0.6893464  
   0.672966400    -0.2560275   -0.6570973  
   0.674966300    -0.3582690   -0.6084508  
   0.676966200    -0.4511981   -0.5448605  
   0.678966100    -0.5324563   -0.4678594  
   0.680966000    -0.6004034   -0.3794304  
   0.682965900    -0.6536198   -0.2819452  
   0.684965800    -0.6911307   -0.1782766  
   0.686965700    -0.7118988   -0.0700445  
   0.688965600    -0.7161089    0.0395013  
   0.690965500    -0.7037203    0.1480183  
   0.692965400    -0.6748595    0.2529677  
   0.694965300    -0.6309809    0.3518932  
   0.696965200    -0.5728788    0.4428388  
   0.698965100    -0.5016944    0.5241468  
   0.700965000    -0.4192587    0.5935682  
   0.702964900    -0.3271469    0.6497936  
   0.704964800    -0.2276916    0.6921003  
   0.706964700    -0.1227375    0.7188727  
   0.708964600    -0.0145872    0.7295226  
   0.710964500     0.0944105    0.7238646  
   0.712964400     0.2015546    0.7016007  
   0.714964300     0.3044265    0.6635963  
   0.716964200     0.4002626    0.6103807  
   0.718964100     0.4866073    0.5433466  
   0.720964000     0.5618197    0.4640544  
   0.722963900     0.6243618    0.3747160  
   0.724963800     0.6725051    0.2763254  
   0.726963700     0.7053056    0.1713729  
   0.728963600     0.7218984    0.0626093  
   0.730963500     0.7217959   -0.0482939  
   0.732963400     0.7047776   -0.1578429  
   0.734963300     0.6708397   -0.2640380  
   0.736963200     0.6126112   -0.3791573  
   0.738963100     0.5343459   -0.4822032  
   0.740963000     0.4385119   -0.5695754  
   0.742962900     0.3287516   -0.6380989  
   0.744962800     0.2084863   -0.6850688  
   0.746962700     0.0820308   -0.7094002  
   0.748962600    -0.0465171   -0.7098188  
   0.750962500     0.0444275   -0.7063074  
   0.752962400    -0.0845114   -0.7022914  
   0.754962300    -0.2093497   -0.6746231  
   0.756962200    -0.3267548   -0.6247238  
   0.758962100    -0.4319361   -0.5548636  
   0.760962000    -0.5226617   -0.4669326  
   0.762961900    -0.5926602   -0.3700326  
   0.764961800    -0.6419151   -0.2721052  
   0.766961700    -0.6749049   -0.1687772  
   0.768961600    -0.6911042   -0.0619412  
   0.770961500    -0.6908659    0.0453611  
   0.772961400    -0.6741729    0.1506673  
   0.774961300    -0.6418415    0.2510515  
   0.776961200    -0.5947362    0.3450027  
   0.778961100    -0.5342610    0.4306665  
   0.780961000    -0.4613980    0.5058895  
   0.782960900    -0.3780698    0.5691430  
   0.784960800    -0.2860371    0.6187971  
   0.786960700    -0.1872973    0.6541396  
   0.788960600    -0.0843259    0.6740257  
   0.790960500     0.0198287    0.6783779  
   0.792960400     0.1243424    0.6665587  
   0.794960300     0.2249148    0.6391250  
   0.796960200     0.3205591    0.5968280  
   0.798960100     0.4083856    0.5403759  
   0.800960000     0.4864374    0.4712854  
   0.802959900     0.5534756    0.3909256  
   0.804959800     0.6077837    0.3013040  
   0.806959700     0.6477000    0.2042449  
   0.808959600     0.6724589    0.1019473  
   0.810959500     0.6810127   -0.0031513  
   0.812959400     0.6738872   -0.1090605  
   0.814959300     0.6502514   -0.2125735  
   0.816959200     0.6105787   -0.3120356  
   0.818959100     0.5560383   -0.4041203  
   0.820959000     0.4875045   -0.4871095  
   0.822958900     0.4067242   -0.5584517  
   0.824958800     0.3158162   -0.6165061  
   0.826958700     0.2165371   -0.6599123  
   0.828958600     0.1116076   -0.6870614  
   0.830958500     0.0038521   -0.6977127  
   0.832958400    -0.1038889   -0.6913477  
   0.834958300    -0.2092078   -0.6682226  
   0.836958200    -0.3093312   -0.6292307  
   0.838958100    -0.4020629   -0.5755225  
   0.840958000    -0.4849593   -0.5082278  
   0.842957900    -0.5568321   -0.4289205  
   0.844957800    -0.6153086   -0.3398245  
   0.846957700    -0.6589390   -0.2430754  
   0.848957600    -0.6874166   -0.1412472  
   0.850957500    -0.6999486   -0.0362964  
   0.852957400    -0.6962649    0.0690408  
   0.854957300    -0.6767020    0.1720845  
   0.856957200    -0.6416212    0.2709076  
   0.858957100    -0.5920231    0.3627890  
   0.860957000    -0.5298399    0.4452488  
   0.862956900    -0.4564613    0.5170559  
   0.864956800    -0.3732930    0.5760871  
   0.866956700    -0.2831045    0.6223358  
   0.868956600    -0.1873273    0.6542978  
   0.870956500    -0.0875397    0.6716368  
   0.872956400     0.0139318    0.6740715  
   0.874956300     0.1148260    0.6608843  
   0.876956200     0.2131510    0.6324679  
   0.878956100     0.3064580    0.5893182  
   0.880956000     0.3923217    0.5319616  
   0.882955900     0.4691858    0.4619651  
   0.884955800     0.5340184    0.3804906  
   0.886955700     0.5855266    0.2892166  
   0.888955600     0.6220463    0.1910922  
   0.890955500     0.6430104    0.0877402  
   0.892955400     0.6468849   -0.0174716  
   0.894955300     0.6341456   -0.1227209  
   0.896955200     0.6047468   -0.2240598  
