! MS46122B
! 2250307/22442219
! 6/18/2025 1:22:23 PM
! C:\USERS\SPARKY\DOCUMENTS\VNA_DATA\JUNE18_2025\295K\PORT1_MOS2.S1P
! CHANNEL.1
! TR.MEASUREMENT
! RAW.DATA
# GHZ S RI R 50.0
! FREQ.GHZ         S11RE         S11IM         
!; PortSelection: Port_1
   0.001000000    -0.8899927    0.0540571  
   0.002999900    -0.8607091    0.2562927  
   0.004999800    -0.8195301    0.3995601  
   0.006999700    -0.7524201    0.5248812  
   0.008999600    -0.6634078    0.6322216  
   0.010999500    -0.5568147    0.7199724  
   0.012999400    -0.4365038    0.7874047  
   0.014999300    -0.3067020    0.8335818  
   0.016999200    -0.1713815    0.8588564  
   0.018999100    -0.0340060    0.8633113  
   0.020999000     0.1018499    0.8482026  
   0.022998900     0.2333179    0.8139933  
   0.024998800     0.3304376    0.7437968  
   0.026998700     0.4725823    0.6939793  
   0.028998600     0.5759078    0.6107137  
   0.030998500     0.6652730    0.5144085  
   0.032998400     0.7060923    0.4065257  
   0.034998300     0.7963474    0.2886184  
   0.036998200     0.8343663    0.1635692  
   0.038998100     0.8529558    0.0337258  
   0.040998000     0.8509964   -0.0973485  
   0.042997900     0.8278827   -0.2266517  
   0.044997800     0.7637391   -0.3256232  
   0.046997700     0.7222179   -0.4667296  
   0.048997600     0.6427541   -0.5716622  
   0.050997500     0.5479817   -0.6625225  
   0.052997400     0.4425526   -0.7364816  
   0.054997300     0.3241196   -0.7959098  
   0.056997200     0.2000764   -0.8356540  
   0.058997100     0.0722288   -0.8565072  
   0.060997000    -0.0569378   -0.8579738  
   0.062996900    -0.1844633   -0.8404237  
   0.064996800    -0.3078057   -0.8040494  
   0.066996700    -0.4241500   -0.7496549  
   0.068996600    -0.5308598   -0.6783304  
   0.070996500    -0.6251964   -0.5919535  
   0.072996400    -0.7056215   -0.4924221  
   0.074996300    -0.7697762   -0.3819411  
   0.076996200    -0.8164139   -0.2630019  
   0.078996100    -0.8446395   -0.1385021  
   0.080996000    -0.8537728   -0.0110343  
   0.082995900    -0.8437834    0.1165741  
   0.084995800    -0.8143256    0.2410337  
   0.086995700    -0.7666410    0.3599795  
   0.088995600    -0.7011259    0.4706226  
   0.090995500    -0.6196995    0.5701512  
   0.092995400    -0.5236112    0.6564031  
   0.094995300    -0.4153588    0.7269674  
   0.096995200    -0.2968519    0.7803341  
   0.098995100    -0.1710610    0.8147607  
   0.100995000    -0.0410284    0.8287156  
   0.102994900     0.0894254    0.8221411  
   0.104994800     0.2176096    0.7949988  
   0.106994700     0.3401775    0.7477533  
   0.108994600     0.4537607    0.6817634  
   0.110994500     0.5556293    0.5985099  
   0.112994400     0.6428348    0.4998457  
   0.114994300     0.7131745    0.3888001  
   0.116994200     0.7648519    0.2679232  
   0.118994100     0.7967222    0.1405576  
   0.120994000     0.8076090    0.0097931  
   0.122993900     0.7975447   -0.1204632  
   0.124993800     0.7671612   -0.2470826  
   0.126993700     0.7169959   -0.3668770  
   0.128993600     0.6489305   -0.4771740  
   0.130993500     0.5644519   -0.5744376  
   0.132993400     0.4663334   -0.6567694  
   0.134993300     0.3568897   -0.7224753  
   0.136993200     0.2394308   -0.7699322  
   0.138993100     0.1163267   -0.7984487  
   0.140993000    -0.0083836   -0.8073989  
   0.142992900    -0.1329955   -0.7972373  
   0.144992800    -0.2535449   -0.7682815  
   0.146992700    -0.3677753   -0.7216619  
   0.148992600    -0.4730348   -0.6584365  
   0.150992500    -0.5672946   -0.5804847  
   0.152992400    -0.6481595   -0.4892978  
   0.154992300    -0.7142184   -0.3878240  
   0.156992200    -0.7642782   -0.2777041  
   0.158992100    -0.7975724   -0.1617508  
   0.160992000    -0.8130947   -0.0424129  
   0.162991900    -0.8109484    0.0776237  
   0.164991800    -0.7907413    0.1961477  
   0.166991700    -0.7533640    0.3099863  
   0.168991600    -0.6996853    0.4170421  
   0.170991500    -0.6304242    0.5157018  
   0.172991400    -0.5474503    0.6023273  
   0.174991300    -0.4522759    0.6760418  
   0.176991200    -0.3466144    0.7349971  
   0.178991100    -0.2333235    0.7777262  
   0.180991000    -0.1146808    0.8029343  
   0.182990900     0.0067543    0.8100550  
   0.184990800     0.1284890    0.7987870  
   0.186990700     0.2482421    0.7692751  
   0.188990600     0.3402701    0.7316366  
   0.190990500     0.4631661    0.6588994  
   0.192990400     0.5604575    0.5765316  
   0.194990300     0.6416547    0.4820348  
   0.196990200     0.7072108    0.3767253  
   0.198990100     0.7555986    0.2617891  
   0.200990000     0.7860463    0.1403587  
   0.202989900     0.7967668    0.0151496  
   0.204989800     0.7877675   -0.1103852  
   0.206989700     0.7593122   -0.2326676  
   0.208989600     0.7119205   -0.3485939  
   0.210989500     0.6466304   -0.4562231  
   0.212989400     0.5649725   -0.5524497  
   0.214989300     0.4692321   -0.6342402  
   0.216989200     0.3623843   -0.6992765  
   0.218989100     0.2468518   -0.7465383  
   0.220989000     0.1254191   -0.7751414  
   0.222988900     0.0009095   -0.7840479  
   0.224988800    -0.1231862   -0.7733037  
   0.226988700    -0.2432247   -0.7427352  
   0.228988600    -0.3564230   -0.6943021  
   0.230988500    -0.4601823   -0.6289547  
   0.232988400    -0.5521207   -0.5482160  
   0.234988300    -0.6303015   -0.4542207  
   0.236988200    -0.6925539   -0.3492315  
   0.238988100    -0.7375062   -0.2364211  
   0.240988000    -0.7639628   -0.1186011  
   0.242987900    -0.7717717    0.0012297  
   0.244987800    -0.7611033    0.1203313  
   0.246987700    -0.7319596    0.2364844  
   0.248987600    -0.6851898    0.3469686  
   0.250987500    -0.6219581    0.4486825  
   0.252987400    -0.5438115    0.5391399  
   0.254987300    -0.4530950    0.6159392  
   0.256987200    -0.3521051    0.6777115  
   0.258987100    -0.2427905    0.7234811  
   0.260987000    -0.1273207    0.7517202  
   0.262986900    -0.0084933    0.7618196  
   0.264986800     0.1109210    0.7534724  
   0.266986700     0.2274113    0.7265159  
   0.268986600     0.3384069    0.6820502  
   0.270986500     0.4408245    0.6216039  
   0.272986400     0.5326969    0.5453333  
   0.274986300     0.6118233    0.4558991  
   0.276986200     0.6764525    0.3549941  
   0.278986100     0.7249073    0.2448139  
   0.280986000     0.7556422    0.1279358  
   0.282985900     0.7677010    0.0071956  
   0.284985800     0.7609074   -0.1137227  
   0.286985700     0.7353309   -0.2323061  
   0.288985600     0.6913103   -0.3447964  
   0.290985500     0.6308818   -0.4486557  
   0.292985400     0.5550460   -0.5418827  
   0.294985300     0.4658012   -0.6221787  
   0.296985200     0.3647249   -0.6878773  
   0.298985100     0.2543455   -0.7373790  
   0.300985000     0.1372113   -0.7687491  
   0.302984900     0.0170894   -0.7814391  
   0.304984800    -0.1033628   -0.7755561  
   0.306984700    -0.2207487   -0.7511507  
   0.308984600    -0.3318292   -0.7090210  
   0.310984500    -0.4347335   -0.6509610  
   0.312984400    -0.5271010   -0.5784732  
   0.314984300    -0.6071542   -0.4928911  
   0.316984200    -0.6731462   -0.3963959  
   0.318984100    -0.7239014   -0.2906097  
   0.320984000    -0.7580587   -0.1777940  
   0.322983900    -0.7747371   -0.0609219  
   0.324983800    -0.7731041    0.0561659  
   0.326983700    -0.7538685    0.1718914  
   0.328983600    -0.7171901    0.2830238  
   0.330983500    -0.6641210    0.3866321  
   0.332983400    -0.5966437    0.4804353  
   0.334983300    -0.5157798    0.5627315  
   0.336983200    -0.4234136    0.6320211  
   0.338983100    -0.3216517    0.6867659  
   0.340983000    -0.2128931    0.7249228  
   0.342982900    -0.0993005    0.7462882  
   0.344982800     0.0168789    0.7500710  
   0.346982700     0.1330164    0.7358325  
   0.348982600     0.2462089    0.7037407  
   0.350982500     0.3532186    0.6542476  
   0.352982400     0.4515330    0.5881532  
   0.354982300     0.5415027    0.5040208  
   0.356982200     0.6237491    0.3947359  
   0.358982100     0.6844167    0.2730556  
   0.360982000     0.7223485    0.1424253  
   0.362981900     0.7361666    0.0073179  
   0.364981800     0.7247944   -0.1285959  
   0.366981700     0.6893498   -0.2602852  
   0.368981600     0.6300863   -0.3835897  
   0.370981500     0.5495238   -0.4940620  
   0.372981400     0.4494466   -0.5879137  
   0.374981300     0.3338092   -0.6621860  
   0.376981200     0.4216020   -0.6029618  
   0.378981100     0.3036505   -0.6723462  
   0.380981000     0.1747617   -0.7187279  
   0.382980900     0.0519618   -0.7396711  
   0.384980800    -0.0668712   -0.7402161  
   0.386980700    -0.1842079   -0.7219155  
   0.388980600    -0.2968757   -0.6855403  
   0.390980500    -0.4008637   -0.6322770  
   0.392980400    -0.4948963   -0.5642487  
   0.394980300    -0.5766996   -0.4830580  
   0.396980200    -0.6444851   -0.3911493  
   0.398980100    -0.6976169   -0.2900992  
   0.400980000    -0.7343944   -0.1833797  
   0.402979900    -0.7548252   -0.0721988  
   0.404979800    -0.7583216    0.0400276  
   0.406979700    -0.7449818    0.1508477  
   0.408979600    -0.7155629    0.2585269  
   0.410979500    -0.6703048    0.3607723  
   0.412979400    -0.6103954    0.4553541  
   0.414979300    -0.5367222    0.5402873  
   0.416979200    -0.4513088    0.6136522  
   0.418979100    -0.3561865    0.6726593  
   0.420979000    -0.2528566    0.7171181  
   0.422978900    -0.1436647    0.7458333  
   0.424978800    -0.0310311    0.7580413  
   0.426978700     0.0828249    0.7529793  
   0.428978600     0.1947790    0.7304708  
   0.430978500     0.3019764    0.6912419  
   0.432978400     0.4019372    0.6362041  
   0.434978300     0.4926154    0.5663092  
   0.436978200     0.5718457    0.4828253  
   0.438978100     0.6375672    0.3878682  
   0.440978000     0.6877546    0.2835166  
   0.442977900     0.7212592    0.1719882  
   0.444977800     0.7367597    0.0560702  
   0.446977700     0.7338441   -0.0608147  
   0.448977600     0.7125391   -0.1764367  
   0.450977500     0.6729479   -0.2872076  
   0.452977400     0.6156532   -0.3905737  
   0.454977300     0.5421211   -0.4847269  
   0.456977200     0.4535550   -0.5656466  
   0.458977100     0.3530983   -0.6308472  
   0.460977000     0.2430671   -0.6790846  
   0.462976900     0.1272797   -0.7085419  
   0.464976800     0.0084266   -0.7184462  
   0.466976700    -0.1103756   -0.7087659  
   0.468976600    -0.2255637   -0.6802543  
   0.470976500    -0.3340686   -0.6333566  
   0.472976400    -0.4333614   -0.5698282  
   0.474976300    -0.5203388   -0.4916457  
   0.476976200    -0.5933461   -0.4010623  
   0.478976100    -0.6503134   -0.3006266  
   0.480976000    -0.6903035   -0.1936087  
   0.482975900    -0.7130217   -0.0824390  
   0.484975800    -0.7180531    0.0301236  
   0.486975700    -0.7055594    0.1417016  
   0.488975600    -0.6763335    0.2496843  
   0.490975500    -0.6305621    0.3515370  
   0.492975400    -0.5702504    0.4448298  
   0.494975300    -0.4963278    0.5279864  
   0.496975200    -0.4105492    0.5985993  
   0.498975100    -0.3157818    0.6551906  
   0.500975000    -0.2134444    0.6967614  
   0.502974900    -0.1063457    0.7222865  
   0.504974800     0.0035613    0.7312547  
   0.506974700     0.1141480    0.7234685  
   0.508974600     0.2230989    0.6987455  
   0.510974500     0.3270507    0.6576110  
   0.512974400     0.4237400    0.6006121  
   0.514974300     0.5106067    0.5300673  
   0.516974200     0.5860640    0.4466233  
   0.518974100     0.6477114    0.3527655  
   0.520974000     0.6943181    0.2500472  
   0.522973900     0.7247219    0.1412798  
   0.524973800     0.7380491    0.0288643  
   0.526973700     0.7339162   -0.0848919  
   0.528973600     0.7121897   -0.1970735  
   0.530973500     0.6730617   -0.3048908  
   0.532973400     0.6173877   -0.4056115  
   0.534973300     0.5466106   -0.4967159  
   0.536973200     0.4620699   -0.5756550  
   0.538973100     0.3663380   -0.6405608  
   0.540973000     0.2621674   -0.6892208  
   0.542972900     0.1515010   -0.7212777  
   0.544972800     0.0371973   -0.7355167  
   0.546972700    -0.0782338   -0.7316175  
   0.548972600    -0.1921701   -0.7098503  
   0.550972500    -0.3008876   -0.6703905  
   0.552972400    -0.4023311   -0.6140342  
   0.554972300    -0.4934147   -0.5424386  
   0.556972200    -0.5721897   -0.4573609  
   0.558972100    -0.6361570   -0.3611486  
   0.560972000    -0.6841831   -0.2563187  
   0.562971900    -0.7148296   -0.1457779  
   0.564971800    -0.7277385   -0.0321480  
   0.566971700    -0.7226284    0.0811833  
   0.568971600    -0.6999520    0.1922173  
   0.570971500    -0.6602364    0.2981053  
   0.572971400    -0.6045524    0.3965215  
   0.574971300    -0.5340127    0.4849798  
   0.576971200    -0.4504167    0.5614051  
   0.578971100    -0.3553718    0.6237564  
   0.580971000    -0.2518380    0.6703348  
   0.582970900    -0.1426398    0.6998279  
   0.584970800    -0.0302207    0.7120612  
   0.586970700     0.0824621    0.7061662  
   0.588970600     0.1928803    0.6825871  
   0.590970500     0.2980656    0.6417270  
   0.592970400     0.3954560    0.5848323  
   0.594970300     0.4828851    0.5131866  
   0.596970200     0.5576675    0.4280393  
   0.598970100     0.6185638    0.3322995  
   0.600970000     0.6632115    0.2278244  
   0.602969900     0.6905735    0.1169253  
   0.604969800     0.6997900    0.0026732  
   0.606969700     0.6907778   -0.1115505  
   0.608969600     0.6634332   -0.2233303  
   0.610969500     0.6181493   -0.3297821  
   0.612969400     0.5560811   -0.4270078  
   0.614969300     0.4795344   -0.5130305  
   0.616969200     0.3902771   -0.5853018  
   0.618969100     0.2912964   -0.6419692  
   0.620969000     0.1854208   -0.6820076  
   0.622968900     0.0740576   -0.7047179  
   0.624968800    -0.0392536   -0.7097182  
   0.626968700    -0.1519276   -0.6969020  
   0.628968600    -0.2612118   -0.6667180  
   0.630968500    -0.3642103   -0.6196874  
   0.632968400    -0.4584752   -0.5573785  
   0.634968300    -0.5413665   -0.4812197  
   0.636968200    -0.6114581   -0.3931600  
   0.638968100    -0.6670710   -0.2958554  
   0.640968000    -0.7069117   -0.1914398  
   0.642967900    -0.7300151   -0.0826643  
   0.644967800    -0.7361381    0.0283570  
   0.646967700    -0.7257021    0.1385902  
   0.648967600    -0.6986169    0.2454114  
   0.650967500    -0.6560938    0.3465291  
   0.652967400    -0.5990447    0.4399637  
   0.654967300    -0.5288543    0.5235276  
   0.656967200    -0.4471186    0.5953421  
   0.658967100    -0.3560177    0.6544541  
   0.660967000    -0.2567852    0.6992825  
   0.662966900    -0.1509964    0.7289493  
   0.664966800    -0.0415530    0.7422083  
   0.666966700     0.0695102    0.7390342  
   0.668966600     0.1788712    0.7194046  
   0.670966500     0.2844293    0.6828120  
   0.672966400     0.3831379    0.6300039  
   0.674966300     0.4726771    0.5632775  
   0.676966200     0.5517862    0.4830091  
   0.678966100     0.6170601    0.3918960  
   0.680966000     0.6679228    0.2913375  
   0.682965900     0.7026959    0.1838318  
   0.684965800     0.7204600    0.0724527  
   0.686965700     0.7203337   -0.0414247  
   0.688965600     0.7022641   -0.1538470  
   0.690965500     0.6670715   -0.2624677  
   0.692965400     0.6146292   -0.3644627  
   0.694965300     0.5475740   -0.4563726  
   0.696965200     0.4657370   -0.5370467  
   0.698965100     0.3723957   -0.6035195  
   0.700965000     0.2695874   -0.6543995  
   0.702964900     0.1598675   -0.6881384  
   0.704964800     0.0462068   -0.7040756  
   0.706964700    -0.0685128   -0.7013940  
   0.708964600    -0.1809057   -0.6806410  
   0.710964500    -0.2888909   -0.6420441  
   0.712964400    -0.3885697   -0.5868808  
   0.714964300    -0.4778146   -0.5163021  
   0.716964200    -0.5542911   -0.4333504  
   0.718964100    -0.6162164   -0.3400766  
   0.720964000    -0.6624622   -0.2388716  
   0.722963900    -0.6922187   -0.1323645  
   0.724963800    -0.7052040   -0.0233373  
   0.726963700    -0.7010589    0.0861081  
   0.728963600    -0.6803684    0.1933076  
   0.730963500    -0.6436329    0.2956092  
   0.732963400    -0.5918997    0.3907555  
   0.734963300    -0.5263217    0.4770535  
   0.736963200    -0.4347178    0.5616456  
   0.738963100    -0.3292327    0.6297499  
   0.740963000    -0.2129514    0.6785745  
   0.742962900    -0.0897479    0.7062298  
   0.744962800     0.0369641    0.7124050  
   0.746962700     0.1629761    0.6963002  
   0.748962600     0.2849390    0.6581039  
   0.750962500     0.1634271    0.6966014  
   0.752962400     0.2844012    0.6570078  
   0.754962300     0.3967921    0.5967768  
   0.756962200     0.4972360    0.5173125  
   0.758962100     0.5821609    0.4213825  
   0.760962000     0.6495015    0.3118003  
   0.762961900     0.6945481    0.1974645  
   0.764961800     0.7180353    0.0884846  
   0.766961700     0.7240660   -0.0232423  
   0.768961600     0.7129218   -0.1352103  
   0.770961500     0.6844651   -0.2438038  
   0.772961400     0.6393235   -0.3473620  
   0.774961300     0.5785980   -0.4426125  
   0.776961200     0.5033433   -0.5276358  
   0.778961100     0.4153509   -0.6001080  
   0.780961000     0.3169817   -0.6583512  
   0.782960900     0.2101664   -0.7002605  
   0.784960800     0.0974477   -0.7252849  
   0.786960700    -0.0179307   -0.7315717  
   0.788960600    -0.1328145   -0.7195810  
   0.790960500    -0.2439559   -0.6894311  
   0.792960400    -0.3488607   -0.6419312  
   0.794960300    -0.4442993   -0.5788139  
   0.796960200    -0.5284033   -0.5017595  
   0.798960100    -0.5987307   -0.4128945  
   0.800960000    -0.6540642   -0.3146251  
   0.802959900    -0.6931934   -0.2093260  
   0.804959800    -0.7151847   -0.1001143  
   0.806959700    -0.7201368    0.0105315  
   0.808959600    -0.7077222    0.1202571  
   0.810959500    -0.6790624    0.2262517  
   0.812959400    -0.6346177    0.3260354  
   0.814959300    -0.5758926    0.4176077  
   0.816959200    -0.5037816    0.4985802  
   0.818959100    -0.4205861    0.5675114  
   0.820959000    -0.3274207    0.6230931  
   0.822958900    -0.2276394    0.6637778  
   0.824958800    -0.1225640    0.6887187  
   0.826958700    -0.0149371    0.6971741  
   0.828958600     0.0929235    0.6891403  
   0.830958500     0.1983974    0.6646138  
   0.832958400     0.2988759    0.6246104  
   0.834958300     0.3919901    0.5695662  
   0.836958200     0.4755985    0.5005842  
   0.838958100     0.5480774    0.4194208  
   0.840958000     0.6071769    0.3275279  
   0.842957900     0.6516590    0.2269855  
   0.844957800     0.6801671    0.1204364  
   0.846957700     0.6917588    0.0101301  
   0.848957600     0.6855539   -0.1008070  
   0.850957500     0.6620951   -0.2100316  
   0.852957400     0.6212342   -0.3142800  
   0.854957300     0.5640897   -0.4112460  
   0.856957200     0.4925855   -0.4976377  
   0.858957100     0.4078688   -0.5717446  
   0.860957000     0.3128381   -0.6313358  
   0.862956900     0.2099974   -0.6751966  
   0.864956800     0.1018153   -0.7022326  
   0.866956700    -0.0089662   -0.7122645  
   0.868956600    -0.1194304   -0.7047008  
   0.870956500    -0.2271691   -0.6803777  
   0.872956400    -0.3299602   -0.6396956  
   0.874956300    -0.4247040   -0.5839058  
   0.876956200    -0.5098364   -0.5142506  
   0.878956100    -0.5830470   -0.4321438  
   0.880956000    -0.6428944   -0.3402908  
   0.882955900    -0.6876125   -0.2407562  
   0.884955800    -0.7170306   -0.1357356  
   0.886955700    -0.7299412   -0.0275710  
   0.888955600    -0.7264382    0.0806196  
   0.890955500    -0.7066266    0.1870967  
   0.892955400    -0.6711920    0.2891440  
   0.894955300    -0.6208699    0.3844030  
