! MS46122B
! 2250307/22442219
! 6/18/2025 1:29:31 PM
! C:\USERS\SPARKY\DOCUMENTS\VNA_DATA\JUNE18_2025\295K\PORT6_MOS1.S1P
! CHANNEL.1
! TR.MEASUREMENT
! RAW.DATA
# GHZ S RI R 50.0
! FREQ.GHZ         S11RE         S11IM         
!; PortSelection: Port_1
   0.001000000    -0.8912370    0.0538927  
   0.002999900    -0.8621311    0.2561049  
   0.004999800    -0.8211199    0.3991224  
   0.006999700    -0.7542418    0.5243402  
   0.008999600    -0.6656478    0.6315613  
   0.010999500    -0.5593404    0.7195815  
   0.012999400    -0.4395615    0.7873141  
   0.014999300    -0.3098008    0.8337809  
   0.016999200    -0.1747551    0.8594615  
   0.018999100    -0.0375412    0.8644750  
   0.020999000     0.0981795    0.8498632  
   0.022998900     0.2296698    0.8163092  
   0.024998800     0.3268838    0.7466871  
   0.026998700     0.4694009    0.6975606  
   0.028998600     0.5729488    0.6150585  
   0.030998500     0.6628571    0.5193844  
   0.032998400     0.7042789    0.4118608  
   0.034998300     0.7952706    0.2947458  
   0.036998200     0.8341118    0.1700694  
   0.038998100     0.8537364    0.0405671  
   0.040998000     0.8529042   -0.0902829  
   0.042997900     0.8308980   -0.2197453  
   0.044997800     0.7676708   -0.3190967  
   0.046997700     0.7275229   -0.4606230  
   0.048997600     0.6491593   -0.5661085  
   0.050997500     0.5553952   -0.6578560  
   0.052997400     0.4507486   -0.7329279  
   0.054997300     0.3333221   -0.7935095  
   0.056997200     0.2096677   -0.8345118  
   0.058997100     0.0822661   -0.8567293  
   0.060997000    -0.0468497   -0.8598039  
   0.062996900    -0.1744222   -0.8437807  
   0.064996800    -0.2981508   -0.8090258  
   0.066996700    -0.4150338   -0.7561880  
   0.068996600    -0.5226063   -0.6863836  
   0.070996500    -0.6180334   -0.6014136  
   0.072996400    -0.6998110   -0.5030732  
   0.074996300    -0.7654721   -0.3936130  
   0.076996200    -0.8137866   -0.2756022  
   0.078996100    -0.8439495   -0.1516010  
   0.080996000    -0.8550881   -0.0244092  
   0.082995900    -0.8472499    0.1030874  
   0.084995800    -0.8198515    0.2280025  
   0.086995700    -0.7743002    0.3475789  
   0.088995600    -0.7109956    0.4590960  
   0.090995500    -0.6312793    0.5601202  
   0.092995400    -0.5368611    0.6480212  
   0.094995300    -0.4300446    0.7206014  
   0.096995200    -0.3128441    0.7761533  
   0.098995100    -0.1880965    0.8130710  
   0.100995000    -0.0584110    0.8297267  
   0.102994900     0.0719043    0.8257818  
   0.104994800     0.2004607    0.8016626  
   0.106994700     0.3241035    0.7572024  
   0.108994600     0.4390303    0.6937938  
   0.110994500     0.5427783    0.6129056  
   0.112994400     0.6321954    0.5164509  
   0.114994300     0.7052246    0.4071780  
   0.116994200     0.7597730    0.2876311  
   0.118994100     0.7948579    0.1610200  
   0.120994000     0.8090878    0.0307295  
   0.122993900     0.8023329   -0.0996605  
   0.124993800     0.7751844   -0.2272200  
   0.126993700     0.7282165   -0.3481946  
   0.128993600     0.6630971   -0.4603955  
   0.130993500     0.5811104   -0.5599685  
   0.132993400     0.4853217   -0.6448120  
   0.134993300     0.3777919   -0.7136742  
   0.136993200     0.2616298   -0.7642817  
   0.138993100     0.1391579   -0.7962967  
   0.140993000     0.0148680   -0.8087674  
   0.142992900    -0.1102273   -0.8021782  
   0.144992800    -0.2314818   -0.7767369  
   0.146992700    -0.3469844   -0.7332622  
   0.148992600    -0.4542956   -0.6732056  
   0.150992500    -0.5507746   -0.5980351  
   0.152992400    -0.6345341   -0.5092597  
   0.154992300    -0.7033865   -0.4099583  
   0.156992200    -0.7568620   -0.3013105  
   0.158992100    -0.7937071   -0.1866200  
   0.160992000    -0.8128706   -0.0675981  
   0.162991900    -0.8144509    0.0522960  
   0.164991800    -0.7981011    0.1713626  
   0.166991700    -0.7644495    0.2863350  
   0.168991600    -0.7142358    0.3950481  
   0.170991500    -0.6483890    0.4957353  
   0.172991400    -0.5684254    0.5850995  
   0.174991300    -0.4759578    0.6616672  
   0.176991200    -0.3727300    0.7241910  
   0.178991100    -0.2608949    0.7707221  
   0.180991000    -0.1434986    0.8003449  
   0.182990900    -0.0225173    0.8117803  
   0.184990800     0.0992203    0.8050240  
   0.186990700     0.2197006    0.7801765  
   0.188990600     0.3127625    0.7461531  
   0.190990500     0.4386196    0.6782055  
   0.192990400     0.5388162    0.5998527  
   0.194990300     0.6236897    0.5091957  
   0.196990200     0.6932873    0.4064018  
   0.198990100     0.7463453    0.2937847  
   0.200990000     0.7816675    0.1741533  
   0.202989900     0.7979377    0.0493216  
   0.204989800     0.7943701   -0.0762024  
   0.206989700     0.7712144   -0.1994087  
   0.208989600     0.7291839   -0.3174027  
   0.210989500     0.6687471   -0.4277825  
   0.212989400     0.5917388   -0.5275519  
   0.214989300     0.4998618   -0.6135485  
   0.216989200     0.3961974   -0.6836900  
   0.218989100     0.2829373   -0.7363592  
   0.220989000     0.1630042   -0.7707847  
   0.222988900     0.0391621   -0.7856422  
   0.224988800    -0.0853018   -0.7808186  
   0.226988700    -0.2068802   -0.7565344  
   0.228988600    -0.3224965   -0.7136391  
   0.230988500    -0.4292672   -0.6535136  
   0.232988400    -0.5252627   -0.5775628  
   0.234988300    -0.6082117   -0.4875767  
   0.236988200    -0.6758754   -0.3858926  
   0.238988100    -0.7264108   -0.2752861  
   0.240988000    -0.7592053   -0.1590101  
   0.242987900    -0.7732799   -0.0396609  
   0.244987800    -0.7688563    0.0797678  
   0.246987700    -0.7459869    0.1973860  
   0.248987600    -0.7051483    0.3104491  
   0.250987500    -0.6473215    0.4152828  
   0.252987400    -0.5743781    0.5098856  
   0.254987300    -0.4882420    0.5915529  
   0.256987200    -0.3906506    0.6587844  
   0.258987100    -0.2839985    0.7103117  
   0.260987000    -0.1704553    0.7450319  
   0.262986900    -0.0525533    0.7619302  
   0.264986800     0.0667973    0.7605061  
   0.266986700     0.1849608    0.7404208  
   0.268986600     0.2981048    0.7024522  
   0.270986500     0.4040321    0.6477720  
   0.272986400     0.5000248    0.5774279  
   0.274986300     0.5842740    0.4928901  
   0.276986200     0.6547802    0.3960000  
   0.278986100     0.7094859    0.2890779  
   0.280986000     0.7474740    0.1743897  
   0.282985900     0.7670436    0.0550355  
   0.284985800     0.7675420   -0.0663286  
   0.286985700     0.7493809   -0.1861515  
   0.288985600     0.7124805   -0.3009611  
   0.290985500     0.6587166   -0.4084235  
   0.292985400     0.5890834   -0.5061378  
   0.294985300     0.5051336   -0.5920864  
   0.296985200     0.4084522   -0.6641648  
   0.298985100     0.3014766   -0.7206534  
   0.300985000     0.1866613   -0.7595097  
   0.302984900     0.0676266   -0.7800928  
   0.304984800    -0.0528378   -0.7822264  
   0.306984700    -0.1714837   -0.7653630  
   0.308984600    -0.2855130   -0.7307580  
   0.310984500    -0.3918896   -0.6798077  
   0.312984400    -0.4888608   -0.6134661  
   0.314984300    -0.5747266   -0.5333956  
   0.316984200    -0.6471192   -0.4416554  
   0.318984100    -0.7048528   -0.3395047  
   0.320984000    -0.7465835   -0.2295029  
   0.322983900    -0.7713813   -0.1142316  
   0.324983800    -0.7779965    0.0031612  
   0.326983700    -0.7666297    0.1198143  
   0.328983600    -0.7379909    0.2330780  
   0.330983500    -0.6925875    0.3402412  
   0.332983400    -0.6318322    0.4384237  
   0.334983300    -0.5572459    0.5264677  
   0.336983200    -0.4701999    0.6023039  
   0.338983100    -0.3729793    0.6640570  
   0.340983000    -0.2671414    0.7102412  
   0.342982900    -0.1557497    0.7399898  
   0.344982800    -0.0403565    0.7522663  
   0.346982700     0.0763085    0.7470415  
   0.348982600     0.1915606    0.7236799  
   0.350982500     0.3015852    0.6826316  
   0.352982400     0.4044360    0.6246756  
   0.354982300     0.5008418    0.5479643  
   0.356982200     0.5913942    0.4459848  
   0.358982100     0.6615093    0.3296098  
   0.360982000     0.7097920    0.2029385  
   0.362981900     0.7347074    0.0695922  
   0.364981800     0.7348938   -0.0665354  
   0.366981700     0.7105142   -0.2007408  
   0.368981600     0.6621054   -0.3281033  
   0.370981500     0.5911689   -0.4451448  
   0.372981400     0.5000300   -0.5471961  
   0.374981300     0.3908037   -0.6313332  
   0.376981200     0.4731133   -0.5641374  
   0.378981100     0.3614551   -0.6435488  
   0.380981000     0.2373507   -0.7008612  
   0.382980900     0.1169001   -0.7322308  
   0.384980800    -0.0016297   -0.7432507  
   0.386980700    -0.1201956   -0.7353224  
   0.388980600    -0.2352124   -0.7089733  
   0.390980500    -0.3440754   -0.6649007  
   0.392980400    -0.4435461   -0.6052506  
   0.394980300    -0.5321420   -0.5316256  
   0.396980200    -0.6077901   -0.4459893  
   0.398980100    -0.6695248   -0.3503483  
   0.400980000    -0.7157413   -0.2466875  
   0.402979900    -0.7456989   -0.1377720  
   0.404979800    -0.7590590   -0.0264719  
   0.406979700    -0.7557737    0.0852236  
   0.408979600    -0.7359785    0.1950254  
   0.410979500    -0.7002192    0.3004560  
   0.412979400    -0.6489547    0.4002116  
   0.414979300    -0.5834268    0.4912046  
   0.416979200    -0.5051431    0.5713206  
   0.418979100    -0.4160054    0.6389641  
   0.420979000    -0.3175991    0.6927831  
   0.422978900    -0.2120676    0.7312382  
   0.424978800    -0.1013312    0.7538208  
   0.426978700     0.0119586    0.7593648  
   0.428978600     0.1250444    0.7477635  
   0.430978500     0.2348827    0.7191976  
   0.432978400     0.3393169    0.6744276  
   0.434978300     0.4358649    0.6143029  
   0.436978200     0.5225022    0.5397631  
   0.438978100     0.5971056    0.4525293  
   0.440978000     0.6574751    0.3542726  
   0.442977900     0.7021927    0.2474475  
   0.444977800     0.7296433    0.1347063  
   0.446977700     0.7392760    0.0183992  
   0.448977600     0.7306018   -0.0981286  
   0.450977500     0.7033638   -0.2119372  
   0.452977400     0.6582098   -0.3207938  
   0.454977300     0.5956895   -0.4221487  
   0.456977200     0.5171847   -0.5118901  
   0.458977100     0.4249364   -0.5880817  
   0.460977000     0.3211674   -0.6483253  
   0.462976900     0.2100130   -0.6906123  
   0.464976800     0.0932421   -0.7144488  
   0.466976700    -0.0258113   -0.7186855  
   0.468976600    -0.1434335   -0.7034065  
   0.470976500    -0.2565876   -0.6696543  
   0.472976400    -0.3625918   -0.6181725  
   0.474976300    -0.4583272   -0.5506309  
   0.476976200    -0.5415013   -0.4690630  
   0.478976100    -0.6101035   -0.3759604  
   0.480976000    -0.6621506   -0.2743056  
   0.482975900    -0.6977116   -0.1663580  
   0.484975800    -0.7158191   -0.0552022  
   0.486975700    -0.7163988    0.0572325  
   0.488975600    -0.7000258    0.1677269  
   0.490975500    -0.6666281    0.2742104  
   0.492975400    -0.6174789    0.3740635  
   0.494975300    -0.5537381    0.4651673  
   0.496975200    -0.4770724    0.5451263  
   0.498975100    -0.3895661    0.6123379  
   0.500975000    -0.2930248    0.6653077  
   0.502974900    -0.1901647    0.7031550  
   0.504974800    -0.0824124    0.7250181  
   0.506974700     0.0279397    0.7301862  
   0.508974600     0.1383859    0.7185289  
   0.510974500     0.2461089    0.6902833  
   0.512974400     0.3484737    0.6455646  
   0.514974300     0.4426793    0.5861229  
   0.516974200     0.5268489    0.5129489  
   0.518974100     0.5990213    0.4278322  
   0.520974000     0.6576234    0.3322309  
   0.522973900     0.7006013    0.2287477  
   0.524973800     0.7277442    0.1198073  
   0.526973700     0.7376685    0.0069609  
   0.528973600     0.7303061   -0.1057960  
   0.530973500     0.7052443   -0.2173121  
   0.532973400     0.6631392   -0.3234457  
   0.534973300     0.6052200   -0.4219652  
   0.536973200     0.5319766   -0.5108694  
   0.538973100     0.4464120   -0.5869306  
   0.540973000     0.3499303   -0.6486185  
   0.542972900     0.2449856   -0.6945195  
   0.544972800     0.1343768   -0.7236070  
   0.546972700     0.0198969   -0.7353156  
   0.548972600    -0.0952084   -0.7287111  
   0.550972500    -0.2076031   -0.7047375  
   0.552972400    -0.3152997   -0.6629797  
   0.554972300    -0.4150529   -0.6047868  
   0.556972200    -0.5040495   -0.5316540  
   0.558972100    -0.5806462   -0.4454708  
   0.560972000    -0.6423000   -0.3486243  
   0.562971900    -0.6878780   -0.2438745  
   0.564971800    -0.7164354   -0.1338023  
   0.566971700    -0.7273633   -0.0209652  
   0.568971600    -0.7205057    0.0915931  
   0.570971500    -0.6963782    0.2014755  
   0.572971400    -0.6555145    0.3062714  
   0.574971300    -0.5986316    0.4036596  
   0.576971200    -0.5269963    0.4911103  
   0.578971100    -0.4425640    0.5660333  
   0.580971000    -0.3475256    0.6267253  
   0.582970900    -0.2442781    0.6717783  
   0.584970800    -0.1354609    0.6999505  
   0.586970700    -0.0238494    0.7108248  
   0.588970600     0.0880162    0.7038798  
   0.590970500     0.1976027    0.6794583  
   0.592970400     0.3018186    0.6379176  
   0.594970300     0.3981818    0.5806144  
   0.596970200     0.4846314    0.5086345  
   0.598970100     0.5585639    0.4233482  
   0.600970000     0.6182519    0.3276585  
   0.602969900     0.6621275    0.2231970  
   0.604969800     0.6886733    0.1124850  
   0.606969700     0.6969650   -0.0012717  
   0.608969600     0.6871861   -0.1152792  
   0.610969500     0.6591806   -0.2264146  
   0.612969400     0.6133194   -0.3318364  
   0.614969300     0.5510753   -0.4278822  
   0.616969200     0.4746657   -0.5125551  
   0.618969100     0.3860483   -0.5835805  
   0.620969000     0.2879934   -0.6394463  
   0.622968900     0.1821034   -0.6790673  
   0.624968800     0.0711981   -0.7011237  
   0.626968700    -0.0415852   -0.7055612  
   0.628968600    -0.1537787   -0.6925346  
   0.630968500    -0.2624548   -0.6619459  
   0.632968400    -0.3647755   -0.6148233  
   0.634968300    -0.4581472   -0.5522895  
   0.636968200    -0.5403540   -0.4763301  
   0.638968100    -0.6095577   -0.3885314  
   0.640968000    -0.6644784   -0.2916837  
   0.642967900    -0.7035327   -0.1878813  
   0.644967800    -0.7264215   -0.0795180  
   0.646967700    -0.7322503    0.0306648  
   0.648967600    -0.7214553    0.1398508  
   0.650967500    -0.6945255    0.2456201  
   0.652967400    -0.6521012    0.3459165  
   0.654967300    -0.5956278    0.4384501  
   0.656967200    -0.5258086    0.5212077  
   0.658967100    -0.4448602    0.5927768  
   0.660967000    -0.3538929    0.6514459  
   0.662966900    -0.2549703    0.6962548  
   0.664966800    -0.1494113    0.7257180  
   0.666966700    -0.0401994    0.7387612  
   0.668966600     0.0699294    0.7357860  
   0.670966500     0.1787952    0.7160800  
   0.672966400     0.2833728    0.6793799  
   0.674966300     0.3815612    0.6274678  
   0.676966200     0.4706368    0.5611743  
   0.678966100     0.5487558    0.4819962  
   0.680966000     0.6140279    0.3916746  
   0.682965900     0.6645651    0.2919733  
   0.684965800     0.6994128    0.1856399  
   0.686965700     0.7174774    0.0745331  
   0.688965600     0.7177405   -0.0384073  
   0.690965500     0.7006153   -0.1503875  
   0.692965400     0.6658424   -0.2581857  
   0.694965300     0.6148179   -0.3591764  
   0.696965200     0.5483419   -0.4513042  
   0.698965100     0.4676911   -0.5317896  
   0.700965000     0.3753292   -0.5985396  
   0.702964900     0.2735064   -0.6498702  
   0.704964800     0.1645261   -0.6841936  
   0.706964700     0.0515975   -0.7008429  
   0.708964600    -0.0623752   -0.6990657  
   0.710964500    -0.1746462   -0.6792603  
   0.712964400    -0.2820621   -0.6415763  
   0.714964300    -0.3814167   -0.5873824  
   0.716964200    -0.4706643   -0.5183477  
   0.718964100    -0.5470706   -0.4369034  
   0.720964000    -0.6092900   -0.3449128  
   0.722963900    -0.6560991   -0.2450181  
   0.724963800    -0.6867704   -0.1399428  
   0.726963700    -0.7009943   -0.0315760  
   0.728963600    -0.6980215    0.0770378  
   0.730963500    -0.6786913    0.1838213  
   0.732963400    -0.6434405    0.2856404  
   0.734963300    -0.5930643    0.3809056  
   0.736963200    -0.5172155    0.4788595  
   0.738963100    -0.4247475    0.5624067  
   0.740963000    -0.3187488    0.6289359  
   0.742962900    -0.2027407    0.6758382  
   0.744962800    -0.0798924    0.7022468  
   0.746962700     0.0460061    0.7067067  
   0.748962600     0.1710838    0.6890472  
   0.750962500     0.0466690    0.7091268  
   0.752962400     0.1712780    0.6897041  
   0.754962300     0.2906009    0.6491815  
   0.756962200     0.4015157    0.5881074  
   0.758962100     0.4995752    0.5082942  
   0.760962000     0.5836127    0.4123898  
   0.762961900     0.6460695    0.3087452  
   0.764961800     0.6870571    0.2064608  
   0.766961700     0.7117602    0.0989472  
   0.768961600     0.7195015   -0.0118015  
   0.770961500     0.7102261   -0.1225457  
   0.772961400     0.6838389   -0.2307578  
   0.774961300     0.6413487   -0.3336005  
   0.776961200     0.5824728   -0.4295102  
   0.778961100     0.5095185   -0.5150084  
   0.780961000     0.4236578   -0.5888020  
   0.782960900     0.3269861   -0.6484451  
   0.784960800     0.2213419   -0.6923696  
   0.786960700     0.1101419   -0.7191416  
   0.788960600    -0.0043628   -0.7276289  
   0.790960500    -0.1185019   -0.7181736  
   0.792960400    -0.2291701   -0.6903731  
   0.794960300    -0.3341967   -0.6453621  
   0.796960200    -0.4299277   -0.5849973  
   0.798960100    -0.5149775   -0.5105222  
   0.800960000    -0.5866845   -0.4239600  
   0.802959900    -0.6437170   -0.3277008  
   0.804959800    -0.6850556   -0.2245088  
   0.806959700    -0.7094077   -0.1166910  
   0.808959600    -0.7170446   -0.0069523  
   0.810959500    -0.7074366    0.1020486  
   0.812959400    -0.6817069    0.2079539  
   0.814959300    -0.6401681    0.3079593  
   0.816959200    -0.5840918    0.4005463  
   0.818959100    -0.5145781    0.4827643  
   0.820959000    -0.4335569    0.5535263  
   0.822958900    -0.3428088    0.6110541  
   0.824958800    -0.2447106    0.6541460  
   0.826958700    -0.1410417    0.6816773  
   0.828958600    -0.0344347    0.6928443  
   0.830958500     0.0729254    0.6877951  
   0.832958400     0.1782397    0.6664274  
   0.834958300     0.2787370    0.6295911  
   0.836958200     0.3726360    0.5776309  
   0.838958100     0.4574092    0.5115705  
   0.840958000     0.5317561    0.4330200  
   0.842957900     0.5930858    0.3434544  
   0.844957800     0.6401720    0.2449198  
   0.846957700     0.6716369    0.1399755  
   0.848957600     0.6861408    0.0309682  
   0.850957500     0.6831281   -0.0793664  
   0.852957400     0.6630106   -0.1883320  
   0.854957300     0.6255493   -0.2928221  
   0.856957200     0.5716916   -0.3906815  
   0.858957100     0.5033188   -0.4783543  
   0.860957000     0.4217854   -0.5540241  
   0.862956900     0.3297716   -0.6158101  
   0.864956800     0.2295568   -0.6623864  
   0.866956700     0.1237421   -0.6925192  
   0.868956600     0.0142834   -0.7061342  
   0.870956500    -0.0956671   -0.7022949  
   0.872956400    -0.2034123   -0.6816252  
   0.874956300    -0.3066378   -0.6447811  
   0.876956200    -0.4026505   -0.5922860  
   0.878956100    -0.4894518   -0.5259832  
   0.880956000    -0.5647684   -0.4468062  
   0.882955900    -0.6271251   -0.3575942  
   0.884955800    -0.6748185   -0.2600145  
   0.886955700    -0.7073607   -0.1568084  
   0.888955600    -0.7235669   -0.0500576  
   0.890955500    -0.7236688    0.0574639  
   0.892955400    -0.7074760    0.1635066  
   0.894955300    -0.6757878    0.2655713  
