! MS46122B
! 2250307/22442219
! 6/11/2025 1:20:56 PM
! C:\USERS\SPARKY\DOCUMENTS\VNA_DATA\JUNE11_2025\PORT2.S1P
! CHANNEL.1
! TR.MEASUREMENT
! RAW.DATA
# GHZ S RI R 50.0
! FREQ.GHZ         S11RE         S11IM         
!; PortSelection: Port_1
   0.001000000    -0.8940337    0.0544411  
   0.002999900    -0.8650574    0.2574562  
   0.004999800    -0.8233604    0.4012380  
   0.006999700    -0.7559386    0.5272018  
   0.008999600    -0.6666678    0.6349832  
   0.010999500    -0.5594463    0.7232624  
   0.012999400    -0.4387467    0.7912492  
   0.014999300    -0.3083807    0.8376325  
   0.016999200    -0.1722118    0.8630859  
   0.018999100    -0.0341629    0.8676922  
   0.020999000     0.1023017    0.8524541  
   0.022998900     0.2343943    0.8182458  
   0.024998800     0.3318199    0.7477090  
   0.026998700     0.4749623    0.6976480  
   0.028998600     0.5786876    0.6142227  
   0.030998500     0.6685954    0.5175653  
   0.032998400     0.7094945    0.4091713  
   0.034998300     0.8004043    0.2909224  
   0.036998200     0.8386493    0.1652494  
   0.038998100     0.8575545    0.0349085  
   0.040998000     0.8556723   -0.0966662  
   0.042997900     0.8326370   -0.2267419  
   0.044997800     0.7682093   -0.3261532  
   0.046997700     0.7267283   -0.4681698  
   0.048997600     0.6470053   -0.5736625  
   0.050997500     0.5519866   -0.6651727  
   0.052997400     0.4445778   -0.7407390  
   0.054997300     0.3285121   -0.7985888  
   0.056997200     0.2026417   -0.8394723  
   0.058997100     0.0742101   -0.8606020  
   0.060997000    -0.0555660   -0.8622774  
   0.062996900    -0.1837135   -0.8448583  
   0.064996800    -0.3078002   -0.8085284  
   0.066996700    -0.4247812   -0.7541227  
   0.068996600    -0.5321223   -0.6825692  
   0.070996500    -0.6271067   -0.5960137  
   0.072996400    -0.7080849   -0.4960764  
   0.074996300    -0.7727662   -0.3851918  
   0.076996200    -0.8198537   -0.2657506  
   0.078996100    -0.8485283   -0.1407252  
   0.080996000    -0.8579358   -0.0126059  
   0.082995900    -0.8481873    0.1155635  
   0.084995800    -0.8187919    0.2407499  
   0.086995700    -0.7711985    0.3603655  
   0.088995600    -0.7057123    0.4716544  
   0.090995500    -0.6239997    0.5719110  
   0.092995400    -0.5276885    0.6588104  
   0.094995300    -0.4188596    0.7299864  
   0.096995200    -0.3001274    0.7838582  
   0.098995100    -0.1739067    0.8187667  
   0.100995000    -0.0430682    0.8331813  
   0.102994900     0.0879776    0.8268792  
   0.104994800     0.2169539    0.8000426  
   0.106994700     0.3402577    0.7529574  
   0.108994600     0.4548060    0.6869638  
   0.110994500     0.5573285    0.6034114  
   0.112994400     0.6452640    0.5044783  
   0.114994300     0.7163275    0.3930189  
   0.116994200     0.7686439    0.2716250  
   0.118994100     0.8009973    0.1435190  
   0.120994000     0.8122630    0.0121491  
   0.122993900     0.8025291   -0.1188990  
   0.124993800     0.7722404   -0.2463680  
   0.126993700     0.7221415   -0.3668828  
   0.128993600     0.6539394   -0.4779280  
   0.130993500     0.5691364   -0.5761529  
   0.132993400     0.4706798   -0.6590620  
   0.134993300     0.3607579   -0.7254516  
   0.136993200     0.2427056   -0.7734035  
   0.138993100     0.1191305   -0.8023801  
   0.140993000    -0.0065166   -0.8116676  
   0.142992900    -0.1318325   -0.8017303  
   0.144992800    -0.2531581   -0.7728431  
   0.146992700    -0.3681987   -0.7261139  
   0.148992600    -0.4740436   -0.6628524  
   0.150992500    -0.5690405   -0.5845973  
   0.152992400    -0.6504276   -0.4931285  
   0.154992300    -0.7171366   -0.3911549  
   0.156992200    -0.7677135   -0.2805699  
   0.158992100    -0.8014034   -0.1640178  
   0.160992000    -0.8172278   -0.0441095  
   0.162991900    -0.8152768    0.0763916  
   0.164991800    -0.7952360    0.1957596  
   0.166991700    -0.7579643    0.3101580  
   0.168991600    -0.7042145    0.4179698  
   0.170991500    -0.6348010    0.5171722  
   0.172991400    -0.5516485    0.6044504  
   0.174991300    -0.4561870    0.6787763  
   0.176991200    -0.3501975    0.7381673  
   0.178991100    -0.2363904    0.7814924  
   0.180991000    -0.1172376    0.8071071  
   0.182990900     0.0046486    0.8146010  
   0.184990800     0.1270819    0.8035185  
   0.186990700     0.2475747    0.7742472  
   0.188990600     0.3399971    0.7367221  
   0.190990500     0.4639589    0.6639042  
   0.192990400     0.5619467    0.5813651  
   0.194990300     0.6439292    0.4868049  
   0.196990200     0.7101260    0.3809088  
   0.198990100     0.7590367    0.2655532  
   0.200990000     0.7901169    0.1434825  
   0.202989900     0.8012534    0.0175918  
   0.204989800     0.7927240   -0.1087976  
   0.206989700     0.7643344   -0.2316774  
   0.208989600     0.7169129   -0.3484207  
   0.210989500     0.6515935   -0.4569455  
   0.212989400     0.5697889   -0.5539644  
   0.214989300     0.4736412   -0.6364052  
   0.216989200     0.3664802   -0.7021340  
   0.218989100     0.2503487   -0.7501025  
   0.220989000     0.1283483   -0.7791788  
   0.222988900     0.0030585   -0.7885294  
   0.224988800    -0.1217601   -0.7780941  
   0.226988700    -0.2425470   -0.7478112  
   0.228988600    -0.3565051   -0.6993794  
   0.230988500    -0.4609895   -0.6340092  
   0.232988400    -0.5537633   -0.5531374  
   0.234988300    -0.6326738   -0.4588394  
   0.236988200    -0.6955348   -0.3535857  
   0.238988100    -0.7411612   -0.2402121  
   0.240988000    -0.7682118   -0.1218672  
   0.242987900    -0.7765337   -0.0014088  
   0.244987800    -0.7662687    0.1182400  
   0.246987700    -0.7373596    0.2351932  
   0.248987600    -0.6906828    0.3466006  
   0.250987500    -0.6276355    0.4489573  
   0.252987400    -0.5493519    0.5402275  
   0.254987300    -0.4584704    0.6178403  
   0.256987200    -0.3571701    0.6803204  
   0.258987100    -0.2474999    0.7267711  
   0.260987000    -0.1314770    0.7556903  
   0.262986900    -0.0119761    0.7663686  
   0.264986800     0.1079118    0.7585565  
   0.266986700     0.2254238    0.7319183  
   0.268986600     0.3372762    0.6877183  
   0.270986500     0.4404986    0.6271822  
   0.272986400     0.5332934    0.5509056  
   0.274986300     0.6133763    0.4609080  
   0.276986200     0.6786666    0.3598359  
   0.278986100     0.7278052    0.2491360  
   0.280986000     0.7592331    0.1317140  
   0.282985900     0.7717816    0.0102530  
   0.284985800     0.7653602   -0.1114368  
   0.286985700     0.7400488   -0.2307819  
   0.288985600     0.6961101   -0.3440196  
   0.290985500     0.6357068   -0.4487527  
   0.292985400     0.5598968   -0.5427744  
   0.294985300     0.4702802   -0.6238413  
   0.296985200     0.3688355   -0.6902131  
   0.298985100     0.2579827   -0.7402628  
   0.300985000     0.1402713   -0.7722347  
   0.302984900     0.0196582   -0.7853402  
   0.304984800    -0.1014170   -0.7798499  
   0.306984700    -0.2194964   -0.7556637  
   0.308984600    -0.3312846   -0.7137325  
   0.310984500    -0.4348590   -0.6558110  
   0.312984400    -0.5279325   -0.5833097  
   0.314984300    -0.6086491   -0.4975877  
   0.316984200    -0.6753463   -0.4007402  
   0.318984100    -0.7265466   -0.2947500  
   0.320984000    -0.7612774   -0.1815746  
   0.322983900    -0.7786071   -0.0642882  
   0.324983800    -0.7774768    0.0535295  
   0.326983700    -0.7585328    0.1699938  
   0.328983600    -0.7222552    0.2815615  
   0.330983500    -0.6691906    0.3860801  
   0.332983400    -0.6018377    0.4806381  
   0.334983300    -0.5209966    0.5636271  
   0.336983200    -0.4284135    0.6336758  
   0.338983100    -0.3264139    0.6890548  
   0.340983000    -0.2170909    0.7279131  
   0.342982900    -0.1029563    0.7499408  
   0.344982800     0.0140566    0.7541820  
   0.346982700     0.1308267    0.7403504  
   0.348982600     0.2449145    0.7084011  
   0.350982500     0.3525533    0.6590339  
   0.352982400     0.4516955    0.5930138  
   0.354982300     0.5424927    0.5088140  
   0.356982200     0.6256561    0.3991300  
   0.358982100     0.6870706    0.2768708  
   0.360982000     0.7256114    0.1457109  
   0.362981900     0.7400861    0.0099487  
   0.364981800     0.7290613   -0.1268197  
   0.366981700     0.6938953   -0.2593336  
   0.368981600     0.6347702   -0.3835192  
   0.370981500     0.5540054   -0.4948703  
   0.372981400     0.4538399   -0.5896086  
   0.374981300     0.3375717   -0.6646610  
   0.376981200     0.4255754   -0.6049297  
   0.378981100     0.3071674   -0.6749659  
   0.380981000     0.1778660   -0.7220305  
   0.382980900     0.0542996   -0.7433778  
   0.384980800    -0.0652133   -0.7443299  
   0.386980700    -0.1830808   -0.7261631  
   0.388980600    -0.2962554   -0.6899909  
   0.390980500    -0.4012519   -0.6365763  
   0.392980400    -0.4957540   -0.5684925  
   0.394980300    -0.5781016   -0.4870136  
   0.396980200    -0.6464872   -0.3950167  
   0.398980100    -0.7002426   -0.2935182  
   0.400980000    -0.7374173   -0.1863329  
   0.402979900    -0.7582757   -0.0745165  
   0.404979800    -0.7619699    0.0382466  
   0.406979700    -0.7488829    0.1496397  
   0.408979600    -0.7195536    0.2580271  
   0.410979500    -0.6742759    0.3606572  
   0.412979400    -0.6142090    0.4561462  
   0.414979300    -0.5402873    0.5416448  
   0.416979200    -0.4544873    0.6155565  
   0.418979100    -0.3587570    0.6751852  
   0.420979000    -0.2550433    0.7203034  
   0.422978900    -0.1452121    0.7490309  
   0.424978800    -0.0320810    0.7614940  
   0.426978700     0.0824590    0.7564650  
   0.428978600     0.1950561    0.7339776  
   0.430978500     0.3028512    0.6946476  
   0.432978400     0.4034388    0.6393820  
   0.434978300     0.4946948    0.5691821  
   0.436978200     0.5743741    0.4853976  
   0.438978100     0.6405198    0.3901126  
   0.440978000     0.6910843    0.2850873  
   0.442977900     0.7248774    0.1729312  
   0.444977800     0.7405464    0.0564261  
   0.446977700     0.7376484   -0.0611193  
   0.448977600     0.7163107   -0.1774273  
   0.450977500     0.6765738   -0.2888462  
   0.452977400     0.6189353   -0.3928377  
   0.454977300     0.5450753   -0.4873933  
   0.456977200     0.4558725   -0.5688931  
   0.458977100     0.3547171   -0.6344349  
   0.460977000     0.2441979   -0.6830235  
   0.462976900     0.1278140   -0.7124547  
   0.464976800     0.0080077   -0.7224367  
   0.466976700    -0.1112917   -0.7126303  
   0.468976600    -0.2270904   -0.6839025  
   0.470976500    -0.3362199   -0.6366750  
   0.472976400    -0.4359480   -0.5726323  
   0.474976300    -0.5234808   -0.4938931  
   0.476976200    -0.5966278   -0.4027465  
   0.478976100    -0.6537709   -0.3018558  
   0.480976000    -0.6938599   -0.1942065  
   0.482975900    -0.7165130   -0.0824088  
   0.484975800    -0.7213765    0.0307209  
   0.486975700    -0.7088274    0.1429216  
   0.488975600    -0.6792516    0.2513773  
   0.490975500    -0.6332973    0.3536762  
   0.492975400    -0.5724192    0.4473604  
   0.494975300    -0.4979754    0.5309092  
   0.496975200    -0.4117203    0.6016788  
   0.498975100    -0.3163367    0.6584588  
   0.500975000    -0.2133834    0.7001529  
   0.502974900    -0.1056966    0.7256357  
   0.504974800     0.0046985    0.7343524  
   0.506974700     0.1157919    0.7263931  
   0.508974600     0.2254612    0.7013920  
   0.510974500     0.3298643    0.6598741  
   0.512974400     0.4269861    0.6024439  
   0.514974300     0.5140639    0.5313500  
   0.516974200     0.5897651    0.4473132  
   0.518974100     0.6515275    0.3528883  
   0.520974000     0.6981053    0.2495245  
   0.522973900     0.7284759    0.1401247  
   0.524973800     0.7416588    0.0271492  
   0.526973700     0.7371855   -0.0871744  
   0.528973600     0.7151049   -0.1998769  
   0.530973500     0.6754733   -0.3081675  
   0.532973400     0.6193013   -0.4093472  
   0.534973300     0.5478185   -0.5006743  
   0.536973200     0.4626960   -0.5797963  
   0.538973100     0.3662531   -0.6447327  
   0.540973000     0.2614120   -0.6932445  
   0.542972900     0.1501367   -0.7250869  
   0.544972800     0.0352110   -0.7391078  
   0.546972700    -0.0808977   -0.7345743  
   0.548972600    -0.1950746   -0.7124951  
   0.550972500    -0.3043328   -0.6724347  
   0.552972400    -0.4060852   -0.6154625  
   0.554972300    -0.4973548   -0.5431420  
   0.556972200    -0.5761925   -0.4573929  
   0.558972100    -0.6402158   -0.3603770  
   0.560972000    -0.6879575   -0.2549744  
   0.562971900    -0.7182931   -0.1437563  
   0.564971800    -0.7308195   -0.0295072  
   0.566971700    -0.7252004    0.0844147  
   0.568971600    -0.7020414    0.1958324  
   0.570971500    -0.6616645    0.3021215  
   0.572971400    -0.6052582    0.4007758  
   0.574971300    -0.5339794    0.4893653  
   0.576971200    -0.4495208    0.5658031  
   0.578971100    -0.3538469    0.6280466  
   0.580971000    -0.2497513    0.6744494  
   0.582970900    -0.1397308    0.7036404  
   0.584970800    -0.0267139    0.7152595  
   0.586970700     0.0864102    0.7088465  
   0.588970600     0.1971733    0.6846306  
   0.590970500     0.3027158    0.6430889  
   0.592970400     0.4003748    0.5853841  
   0.594970300     0.4879670    0.5128213  
   0.596970200     0.5625896    0.4269317  
   0.598970100     0.6232250    0.3305486  
   0.600970000     0.6676022    0.2251281  
   0.602969900     0.6944819    0.1136163  
   0.604969800     0.7030857   -0.0011987  
   0.606969700     0.6932822   -0.1160209  
   0.608969600     0.6651452   -0.2282661  
   0.610969500     0.6190141   -0.3347405  
   0.612969400     0.5560173   -0.4322407  
   0.614969300     0.4785510   -0.5179616  
   0.616969200     0.3885587   -0.5900273  
   0.618969100     0.2887850   -0.6462297  
   0.620969000     0.1822508   -0.6858478  
   0.622968900     0.0703793   -0.7080442  
   0.624968800    -0.0434524   -0.7122160  
   0.626968700    -0.1564614   -0.6985723  
   0.628968600    -0.2660372   -0.6676410  
   0.630968500    -0.3690211   -0.6197540  
   0.632968400    -0.4632660   -0.5566080  
   0.634968300    -0.5460013   -0.4796312  
   0.636968200    -0.6157380   -0.3908201  
   0.638968100    -0.6709471   -0.2928980  
   0.640968000    -0.7102448   -0.1878943  
   0.642967900    -0.7329505   -0.0784812  
   0.644967800    -0.7383305    0.0330015  
   0.646967700    -0.7270961    0.1435571  
   0.648967600    -0.6993384    0.2505118  
   0.650967500    -0.6560777    0.3516083  
   0.652967400    -0.5982006    0.4451863  
   0.654967300    -0.5272945    0.5284901  
   0.656967200    -0.4446786    0.6002333  
   0.658967100    -0.3527688    0.6590198  
   0.660967000    -0.2527401    0.7033148  
   0.662966900    -0.1463638    0.7323861  
   0.664966800    -0.0364278    0.7449552  
   0.666966700     0.0752034    0.7409970  
   0.668966600     0.1848600    0.7203352  
   0.670966500     0.2905725    0.6827356  
   0.672966400     0.3894636    0.6288906  
   0.674966300     0.4787380    0.5611692  
   0.676966200     0.5575255    0.4798815  
   0.678966100     0.6225016    0.3878721  
   0.680966000     0.6723202    0.2866093  
   0.682965900     0.7063075    0.1780876  
   0.684965800     0.7231945    0.0661972  
   0.686965700     0.7219834   -0.0482024  
   0.688965600     0.7028821   -0.1609682  
   0.690965500     0.6663631   -0.2696009  
   0.692965400     0.6127687   -0.3713167  
   0.694965300     0.5444615   -0.4630404  
   0.696965200     0.4615673   -0.5430373  
   0.698965100     0.3674066   -0.6086664  
   0.700965000     0.2636663   -0.6587717  
   0.702964900     0.1532930   -0.6914650  
   0.704964800     0.0391159   -0.7062691  
   0.706964700    -0.0759075   -0.7024776  
   0.708964600    -0.1884278   -0.6804941  
   0.710964500    -0.2963769   -0.6405875  
   0.712964400    -0.3957257   -0.5843528  
   0.714964300    -0.4844819   -0.5126552  
   0.716964200    -0.5603952   -0.4286243  
   0.718964100    -0.6214932   -0.3345824  
   0.720964000    -0.6668136   -0.2325667  
   0.722963900    -0.6955451   -0.1256319  
   0.724963800    -0.7074848   -0.0159155  
   0.726963700    -0.7022246    0.0937082  
   0.728963600    -0.6803380    0.2010608  
   0.730963500    -0.6426231    0.3031182  
   0.732963400    -0.5896988    0.3979799  
   0.734963300    -0.5230294    0.4839102  
   0.736963200    -0.4303471    0.5678184  
   0.738963100    -0.3237504    0.6351229  
   0.740963000    -0.2063620    0.6828357  
   0.742962900    -0.0826458    0.7093853  
   0.744962800     0.0444756    0.7141265  
   0.746962700     0.1707057    0.6966643  
   0.748962600     0.2926881    0.6570372  
   0.750962500     0.1711130    0.6966507  
   0.752962400     0.2918787    0.6557198  
   0.754962300     0.4040531    0.5939859  
   0.756962200     0.5036449    0.5133139  
   0.758962100     0.5879175    0.4161373  
   0.760962000     0.6542783    0.3054989  
   0.762961900     0.6981843    0.1903692  
   0.764961800     0.7203841    0.0806834  
   0.766961700     0.7251843   -0.0312867  
   0.768961600     0.7126470   -0.1435642  
   0.770961500     0.6827314   -0.2521598  
   0.772961400     0.6361686   -0.3555030  
   0.774961300     0.5740929   -0.4502562  
   0.776961200     0.4976154   -0.5345416  
   0.778961100     0.4083394   -0.6060722  
   0.780961000     0.3089097   -0.6632448  
   0.782960900     0.2013033   -0.7038435  
   0.784960800     0.0878322   -0.7273834  
   0.786960700    -0.0277452   -0.7320682  
   0.788960600    -0.1428573   -0.7184740  
   0.790960500    -0.2538463   -0.6867334  
   0.792960400    -0.3580743   -0.6378729  
   0.794960300    -0.4528726   -0.5732408  
   0.796960200    -0.5361628   -0.4949508  
   0.798960100    -0.6052918   -0.4048316  
   0.800960000    -0.6594403   -0.3057451  
   0.802959900    -0.6971683   -0.1996275  
   0.804959800    -0.7176450   -0.0899555  
   0.806959700    -0.7210218    0.0210428  
   0.808959600    -0.7070031    0.1307644  
   0.810959500    -0.6768214    0.2365087  
   0.812959400    -0.6308466    0.3357975  
   0.814959300    -0.5705527    0.4267173  
   0.816959200    -0.4970713    0.5069010  
   0.818959100    -0.4126696    0.5745911  
   0.820959000    -0.3187417    0.6288682  
   0.822958900    -0.2181372    0.6681692  
   0.824958800    -0.1123677    0.6915870  
   0.826958700    -0.0043505    0.6984253  
   0.828958600     0.1036512    0.6887034  
   0.830958500     0.2088616    0.6623930  
   0.832958400     0.3089085    0.6207687  
   0.834958300     0.4014551    0.5639988  
   0.836958200     0.4839995    0.4935683  
   0.838958100     0.5552718    0.4110488  
   0.840958000     0.6131721    0.3179395  
   0.842957900     0.6560336    0.2165150  
   0.844957800     0.6829936    0.1092367  
   0.846957700     0.6924628   -0.0014052  
   0.848957600     0.6843364   -0.1124767  
   0.850957500     0.6589566   -0.2213240  
   0.852957400     0.6163172   -0.3251141  
   0.854957300     0.5573360   -0.4213209  
   0.856957200     0.4841726   -0.5066543  
   0.858957100     0.3981725   -0.5792744  
   0.860957000     0.3020588   -0.6372930  
   0.862956900     0.1983134   -0.6794173  
   0.864956800     0.0897045   -0.7046633  
   0.866956700    -0.0212905   -0.7128245  
   0.868956600    -0.1318897   -0.7033614  
   0.870956500    -0.2392939   -0.6772251  
   0.872956400    -0.3414150   -0.6348508  
   0.874956300    -0.4352672   -0.5773382  
   0.876956200    -0.5193024   -0.5061946  
   0.878956100    -0.5911900   -0.4229112  
   0.880956000    -0.6495012   -0.3298929  
   0.882955900    -0.6925642   -0.2293727  
   0.884955800    -0.7202785   -0.1239470  
   0.886955700    -0.7313578   -0.0154521  
   0.888955600    -0.7258739    0.0927746  
   0.890955500    -0.7044130    0.1992693  
   0.892955400    -0.6669931    0.3003872  
   0.894955300    -0.6151314    0.3949972  
   0.896955200    -0.5498694    0.4804708  
