! MS46122B
! 2250307/22442219
! 6/13/2025 8:42:40 AM
! C:\USERS\SPARKY\DOCUMENTS\VNA_DATA\JUNE13_2025\PORT1_MOS6.S1P
! CHANNEL.1
! TR.MEASUREMENT
! RAW.DATA
# GHZ S RI R 50.0
! FREQ.GHZ         S11RE         S11IM         
!; PortSelection: Port_1
   0.001000000     1.0218070   -0.0595395  
   0.002999900     0.9306700   -0.2198977  
   0.004999800     0.8621774   -0.3636863  
   0.006999700     0.7813135   -0.4951152  
   0.008999600     0.6854626   -0.6074417  
   0.010999500     0.5782156   -0.7064334  
   0.012999400     0.4609972   -0.7910886  
   0.014999300     0.3342957   -0.8592280  
   0.016999200     0.2002010   -0.9081158  
   0.018999100     0.0597239   -0.9359569  
   0.020999000    -0.0833255   -0.9409433  
   0.022998900    -0.2255178   -0.9227745  
   0.024998800    -0.3377160   -0.8581451  
   0.026998700    -0.4925668   -0.8149190  
   0.028998600    -0.6102073   -0.7281284  
   0.030998500    -0.7119824   -0.6224243  
   0.032998400    -0.7630374   -0.4992502  
   0.034998300    -0.8588125   -0.3680350  
   0.036998200    -0.8999181   -0.2269447  
   0.038998100    -0.9181474   -0.0814968  
   0.040998000    -0.9141334    0.0639240  
   0.042997900    -0.8876758    0.2066794  
   0.044997800    -0.8205136    0.3168886  
   0.046997700    -0.7722052    0.4701091  
   0.048997600    -0.6858617    0.5850378  
   0.050997500    -0.5827219    0.6851586  
   0.052997400    -0.4662904    0.7667231  
   0.054997300    -0.3354550    0.8301557  
   0.056997200    -0.1973021    0.8708639  
   0.058997100    -0.0543907    0.8887150  
   0.060997000     0.0890731    0.8830974  
   0.062996900     0.2300405    0.8542398  
   0.064996800     0.3642333    0.8033743  
   0.066996700     0.4883026    0.7316523  
   0.068996600     0.5992432    0.6411325  
   0.070996500     0.6941049    0.5342466  
   0.072996400     0.7710322    0.4141136  
   0.074996300     0.8272983    0.2833942  
   0.076996200     0.8622084    0.1458818  
   0.078996100     0.8746976    0.0048257  
   0.080996000     0.8644960   -0.1360184  
   0.082995900     0.8320740   -0.2727439  
   0.084995800     0.7785577   -0.4022214  
   0.086995700     0.7055975   -0.5210452  
   0.088995600     0.6149334   -0.6264066  
   0.090995500     0.5096675   -0.7155544  
   0.092995400     0.3923672   -0.7868022  
   0.094995300     0.2658157   -0.8389474  
   0.096995200     0.1333370   -0.8710389  
   0.098995100    -0.0015834   -0.8820189  
   0.100995000    -0.1360109   -0.8724613  
   0.102994900    -0.2674467   -0.8424346  
   0.104994800    -0.3918412   -0.7932570  
   0.106994700    -0.5072945   -0.7260699  
   0.108994600    -0.6110705   -0.6423928  
   0.110994500    -0.7007824   -0.5440454  
   0.112994400    -0.7743278   -0.4338538  
   0.114994300    -0.8308123   -0.3137428  
   0.116994200    -0.8684510   -0.1868111  
   0.118994100    -0.8863059   -0.0557284  
   0.120994000    -0.8844469    0.0769431  
   0.122993900    -0.8625260    0.2078155  
   0.124993800    -0.8212810    0.3341000  
   0.126993700    -0.7613283    0.4529755  
   0.128993600    -0.6836948    0.5616919  
   0.130993500    -0.5903267    0.6575511  
   0.132993400    -0.4827839    0.7385386  
   0.134993300    -0.3639094    0.8023294  
   0.136993200    -0.2360643    0.8472502  
   0.138993100    -0.1020387    0.8717916  
   0.140993000     0.0345433    0.8753107  
   0.142992900     0.1709499    0.8572136  
   0.144992800     0.3032548    0.8178971  
   0.146992700     0.4280162    0.7578222  
   0.148992600     0.5420867    0.6781812  
   0.150992500     0.6420557    0.5813045  
   0.152992400     0.7258925    0.4692193  
   0.154992300     0.7902627    0.3452053  
   0.156992200     0.8343886    0.2118083  
   0.158992100     0.8560303    0.0729773  
   0.160992000     0.8547624   -0.0674007  
   0.162991900     0.8308470   -0.2056414  
   0.164991800     0.7847444   -0.3383699  
   0.166991700     0.7181935   -0.4611459  
   0.168991600     0.6328869   -0.5710921  
   0.170991500     0.5309272   -0.6660562  
   0.172991400     0.4152377   -0.7424871  
   0.174991300     0.2897096   -0.7993522  
   0.176991200     0.1570733   -0.8351226  
   0.178991100     0.0212062   -0.8491108  
   0.180991000    -0.1143197   -0.8412138  
   0.182990900    -0.2460635   -0.8122538  
   0.184990800    -0.3714415   -0.7630751  
   0.186990700    -0.4865746   -0.6951078  
   0.188990600    -0.5712045   -0.6272051  
   0.190990500    -0.6739645   -0.5146967  
   0.192990400    -0.7467708   -0.4009281  
   0.194990300    -0.7993987   -0.2811252  
   0.196990200    -0.8323658   -0.1559615  
   0.198990100    -0.8463734   -0.0277046  
   0.200990000    -0.8405773    0.1011641  
   0.202989900    -0.8150516    0.2275440  
   0.204989800    -0.7711583    0.3482358  
   0.206989700    -0.7096825    0.4601134  
   0.208989600    -0.6326140    0.5614420  
   0.210989500    -0.5407900    0.6500897  
   0.212989400    -0.4361703    0.7240806  
   0.214989300    -0.3219918    0.7819661  
   0.216989200    -0.2006274    0.8214692  
   0.218989100    -0.0746984    0.8423691  
   0.220989000     0.0534593    0.8442165  
   0.222988900     0.1810016    0.8264971  
   0.224988800     0.3049545    0.7894381  
   0.226988700     0.4217101    0.7341904  
   0.228988600     0.5286970    0.6619028  
   0.230988500     0.6236413    0.5740613  
   0.232988400     0.7045074    0.4720137  
   0.234988300     0.7688278    0.3585776  
   0.236988200     0.8155373    0.2356760  
   0.238988100     0.8425040    0.1073084  
   0.240988000     0.8493380   -0.0239480  
   0.242987900     0.8359521   -0.1540432  
   0.244987800     0.8023190   -0.2812210  
   0.246987700     0.7494486   -0.4016882  
   0.248987600     0.6782048   -0.5131485  
   0.250987500     0.5903271   -0.6120797  
   0.252987400     0.4883583   -0.6959599  
   0.254987300     0.3751798   -0.7626374  
   0.256987200     0.2535872   -0.8103831  
   0.258987100     0.1261245   -0.8389162  
   0.260987000    -0.0044888   -0.8473896  
   0.262986900    -0.1348180   -0.8356625  
   0.264986800    -0.2613811   -0.8035760  
   0.266986700    -0.3814268   -0.7525239  
   0.268986600    -0.4912577   -0.6835525  
   0.270986500    -0.5886275   -0.5992367  
   0.272986400    -0.6714373   -0.5012351  
   0.274986300    -0.7382052   -0.3926532  
   0.276986200    -0.7872261   -0.2748050  
   0.278986100    -0.8175132   -0.1509218  
   0.280986000    -0.8283874   -0.0233705  
   0.282985900    -0.8196790    0.1038996  
   0.284985800    -0.7915586    0.2281849  
   0.286985700    -0.7445577    0.3463259  
   0.288985600    -0.6804849    0.4549737  
   0.290985500    -0.6013167    0.5519796  
   0.292985400    -0.5083292    0.6356729  
   0.294985300    -0.4034570    0.7042554  
   0.296985200    -0.2887894    0.7564117  
   0.298985100    -0.1667833    0.7905020  
   0.300985000    -0.0406594    0.8051587  
   0.302984900     0.0861106    0.8001199  
   0.304984800     0.2110290    0.7752445  
   0.306984700     0.3300745    0.7312664  
   0.308984600     0.4406403    0.6697242  
   0.310984500     0.5399159    0.5919923  
   0.312984400     0.6263642    0.4993623  
   0.314984300     0.6970366    0.3945983  
   0.316984200     0.7509360    0.2797770  
   0.318984100     0.7865421    0.1569756  
   0.320984000     0.8022435    0.0294101  
   0.322983900     0.7977121   -0.0994446  
   0.324983800     0.7730148   -0.2260657  
   0.326983700     0.7285137   -0.3469806  
   0.328983600     0.6655025   -0.4594649  
   0.330983500     0.5856678   -0.5601625  
   0.332983400     0.4916245   -0.6463606  
   0.334983300     0.3854462   -0.7168828  
   0.336983200     0.2701485   -0.7696634  
   0.338983100     0.1479690   -0.8039005  
   0.340983000     0.0227008   -0.8188025  
   0.342982900    -0.1031244   -0.8139206  
   0.344982800    -0.2271727   -0.7900285  
   0.346982700    -0.3460914   -0.7469217  
   0.348982600    -0.4570235   -0.6859791  
   0.350982500    -0.5566134   -0.6089026  
   0.352982400    -0.6433604   -0.5175440  
   0.354982300    -0.7172709   -0.4093381  
   0.356982200    -0.7772919   -0.2768479  
   0.358982100    -0.8124653   -0.1372164  
   0.360982000    -0.8228091    0.0049174  
   0.362981900    -0.8080094    0.1459268  
   0.364981800    -0.7688907    0.2813988  
   0.366981700    -0.7073410    0.4080253  
   0.368981600    -0.6252989    0.5213772  
   0.370981500    -0.5255708    0.6187266  
   0.372981400    -0.4103834    0.6972201  
   0.374981300    -0.2834491    0.7551751  
   0.376981200    -0.3994473    0.7091494  
   0.378981100    -0.2680275    0.7653002  
   0.380981000    -0.1291687    0.7973866  
   0.382980900     0.0001692    0.8052356  
   0.384980800     0.1236119    0.7931896  
   0.386980700     0.2442911    0.7622852  
   0.388980600     0.3585450    0.7125390  
   0.390980500     0.4635930    0.6461199  
   0.392980400     0.5568556    0.5637665  
   0.394980300     0.6363010    0.4682122  
   0.396980200     0.6998432    0.3615214  
   0.398980100     0.7461891    0.2457990  
   0.400980000     0.7734374    0.1241179  
   0.402979900     0.7815556   -0.0008202  
   0.404979800     0.7694568   -0.1254862  
   0.406979700     0.7382720   -0.2465293  
   0.408979600     0.6879513   -0.3609274  
   0.410979500     0.6198287   -0.4663977  
   0.412979400     0.5354794   -0.5600849  
   0.414979300     0.4373512   -0.6388671  
   0.416979200     0.3277645   -0.7009967  
   0.418979100     0.2105930   -0.7444413  
   0.420979000     0.0877203   -0.7690061  
   0.422978900    -0.0367619   -0.7734362  
   0.424978800    -0.1603659   -0.7577853  
   0.426978700    -0.2795599   -0.7231132  
   0.428978600    -0.3912555   -0.6701329  
   0.430978500    -0.4922361   -0.6013758  
   0.432978400    -0.5803531   -0.5179819  
   0.434978300    -0.6543735   -0.4228791  
   0.436978200    -0.7122331   -0.3185833  
   0.438978100    -0.7536229   -0.2070339  
   0.440978000    -0.7777478   -0.0912231  
   0.442977900    -0.7837618    0.0264821  
   0.444977800    -0.7724021    0.1430804  
   0.446977700    -0.7438288    0.2563455  
   0.448977600    -0.6993819    0.3634092  
   0.450977500    -0.6395038    0.4622246  
   0.452977400    -0.5655220    0.5517097  
   0.454977300    -0.4793777    0.6296821  
   0.456977200    -0.3817424    0.6939289  
   0.458977100    -0.2759708    0.7431593  
   0.460977000    -0.1641188    0.7759597  
   0.462976900    -0.0488395    0.7920908  
   0.464976800     0.0680418    0.7909912  
   0.466976700     0.1832941    0.7725775  
   0.468976600     0.2950807    0.7372263  
   0.470976500     0.4005029    0.6853160  
   0.472976400     0.4973612    0.6182637  
   0.474976300     0.5833556    0.5367639  
   0.476976200     0.6561675    0.4435511  
   0.478976100     0.7143615    0.3398030  
   0.480976000     0.7558208    0.2291985  
   0.482975900     0.7807608    0.1130292  
   0.484975800     0.7878025   -0.0056922  
   0.486975700     0.7764798   -0.1249581  
   0.488975600     0.7469922   -0.2411661  
   0.490975500     0.6996691   -0.3520400  
   0.492975400     0.6359903   -0.4548679  
   0.494975300     0.5562742   -0.5467734  
   0.496975200     0.4632646   -0.6253619  
   0.498975100     0.3592166   -0.6882707  
   0.500975000     0.2463892   -0.7342438  
   0.502974900     0.1276969   -0.7620656  
   0.504974800     0.0062988   -0.7708013  
   0.506974700    -0.1154337   -0.7604520  
   0.508974600    -0.2347355   -0.7305711  
   0.510974500    -0.3476754   -0.6822693  
   0.512974400    -0.4512663   -0.6168875  
   0.514974300    -0.5424266   -0.5366216  
   0.516974200    -0.6194593   -0.4433733  
   0.518974100    -0.6803468   -0.3398218  
   0.520974000    -0.7239304   -0.2281219  
   0.522973900    -0.7498689   -0.1121427  
   0.524973800    -0.7568188    0.0059328  
   0.526973700    -0.7457420    0.1236616  
   0.528973600    -0.7168887    0.2376189  
   0.530973500    -0.6704337    0.3453681  
   0.532973400    -0.6084652    0.4442334  
   0.534973300    -0.5322565    0.5324031  
   0.536973200    -0.4438546    0.6073723  
   0.538973100    -0.3455650    0.6676029  
   0.540973000    -0.2396412    0.7118880  
   0.542972900    -0.1286234    0.7398106  
   0.544972800    -0.0150672    0.7505401  
   0.546972700     0.0991331    0.7439423  
   0.548972600     0.2111190    0.7200699  
   0.550972500     0.3183001    0.6792982  
   0.552972400     0.4185933    0.6230451  
   0.554972300     0.5090129    0.5517397  
   0.556972200     0.5876365    0.4670122  
   0.558972100     0.6523393    0.3716674  
   0.560972000     0.7016974    0.2672670  
   0.562971900     0.7350022    0.1567039  
   0.564971800     0.7505483    0.0426154  
   0.566971700     0.7488786   -0.0721494  
   0.568971600     0.7296096   -0.1853797  
   0.570971500     0.6935177   -0.2946042  
   0.572971400     0.6413774   -0.3971450  
   0.574971300     0.5735317   -0.4909512  
   0.576971200     0.4919140   -0.5738148  
   0.578971100     0.3980707   -0.6434048  
   0.580971000     0.2952608   -0.6978227  
   0.582970900     0.1850103   -0.7360371  
   0.584970800     0.0715619   -0.7564837  
   0.586970700    -0.0439558   -0.7597016  
   0.588970600    -0.1581482   -0.7453205  
   0.590970500    -0.2684199   -0.7138661  
   0.592970400    -0.3727302   -0.6663514  
   0.594970300    -0.4683557   -0.6039524  
   0.596970200    -0.5534360   -0.5280922  
   0.598970100    -0.6262026   -0.4404200  
   0.600970000    -0.6850773   -0.3432222  
   0.602969900    -0.7283956   -0.2385584  
   0.604969800    -0.7557637   -0.1285691  
   0.606969700    -0.7664587   -0.0158720  
   0.608969600    -0.7602446    0.0975727  
   0.610969500    -0.7370211    0.2080468  
   0.612969400    -0.6976498    0.3139601  
   0.614969300    -0.6430358    0.4124665  
   0.616969200    -0.5747321    0.5017443  
   0.618969100    -0.4945652    0.5791483  
   0.620969000    -0.4040744    0.6435547  
   0.622968900    -0.3047745    0.6941660  
   0.624968800    -0.1990726    0.7294967  
   0.626968700    -0.0886853    0.7484680  
   0.628968600     0.0235919    0.7509036  
   0.630968500     0.1350494    0.7361828  
   0.632968400     0.2435099    0.7047020  
   0.634968300     0.3462237    0.6568997  
   0.636968200     0.4402847    0.5939372  
   0.638968100     0.5241260    0.5170779  
   0.640968000     0.5950692    0.4278102  
   0.642967900     0.6511976    0.3283888  
   0.644967800     0.6915848    0.2212998  
   0.646967700     0.7149469    0.1089575  
   0.648967600     0.7201400   -0.0053074  
   0.650967500     0.7070075   -0.1186752  
   0.652967400     0.6765876   -0.2282244  
   0.654967300     0.6295553   -0.3319985  
   0.656967200     0.5667053   -0.4267342  
   0.658967100     0.4897928   -0.5103985  
   0.660967000     0.4000758   -0.5812047  
   0.662966900     0.3004532   -0.6371509  
   0.664966800     0.1928620   -0.6767716  
   0.666966700     0.0801909   -0.6988395  
   0.668966600    -0.0343773   -0.7025916  
   0.670966500    -0.1480929   -0.6882883  
   0.672966400    -0.2570711   -0.6557451  
   0.674966300    -0.3590500   -0.6069080  
   0.676966200    -0.4516431   -0.5432175  
   0.678966100    -0.5327855   -0.4660369  
   0.680966000    -0.6003891   -0.3776991  
   0.682965900    -0.6532645   -0.2802071  
   0.684965800    -0.6905023   -0.1766330  
   0.686965700    -0.7110291   -0.0685142  
   0.688965600    -0.7148293    0.0409340  
   0.690965500    -0.7023611    0.1492318  
   0.692965400    -0.6733329    0.2539247  
   0.694965300    -0.6292356    0.3525355  
   0.696965200    -0.5710206    0.4432365  
   0.698965100    -0.4998688    0.5241610  
   0.700965000    -0.4175050    0.5933214  
   0.702964900    -0.3252634    0.6491609  
   0.704964800    -0.2261634    0.6912171  
   0.706964700    -0.1212267    0.7178208  
   0.708964600    -0.0134700    0.7282112  
   0.710964500     0.0953583    0.7223982  
   0.712964400     0.2022154    0.7000484  
   0.714964300     0.3048147    0.6620528  
   0.716964200     0.4003178    0.6088117  
   0.718964100     0.4864658    0.5417787  
   0.720964000     0.5614063    0.4625913  
   0.722963900     0.6238812    0.3733138  
   0.724963800     0.6717556    0.2751663  
   0.726963700     0.7043546    0.1704083  
   0.728963600     0.7208987    0.0617993  
   0.730963500     0.7206483   -0.0488321  
   0.732963400     0.7036418   -0.1582155  
   0.734963300     0.6696248   -0.2641450  
   0.736963200     0.6114380   -0.3790887  
   0.738963100     0.5333112   -0.4818295  
   0.740963000     0.4375542   -0.5690523  
   0.742962900     0.3279393   -0.6373681  
   0.744962800     0.2077902   -0.6840829  
   0.746962700     0.0815804   -0.7084854  
   0.748962600    -0.0467644   -0.7087934  
   0.750962500     0.0439157   -0.7053320  
   0.752962400    -0.0847156   -0.7011847  
   0.754962300    -0.2094191   -0.6734544  
   0.756962200    -0.3264996   -0.6235256  
   0.758962100    -0.4315373   -0.5536159  
   0.760962000    -0.5220252   -0.4658294  
   0.762961900    -0.5918089   -0.3689472  
   0.764961800    -0.6408716   -0.2711936  
   0.766961700    -0.6736690   -0.1679045  
   0.768961600    -0.6897361   -0.0612300  
   0.770961500    -0.6893490    0.0458920  
   0.772961400    -0.6726161    0.1508139  
   0.774961300    -0.6402032    0.2510936  
   0.776961200    -0.5931031    0.3448105  
   0.778961100    -0.5326396    0.4302245  
   0.780961000    -0.4598861    0.5051983  
   0.782960900    -0.3766769    0.5681842  
   0.784960800    -0.2847153    0.6177170  
   0.786960700    -0.1862413    0.6528651  
   0.788960600    -0.0836006    0.6726677  
   0.790960500     0.0204422    0.6768935  
   0.792960400     0.1246296    0.6650810  
   0.794960300     0.2250324    0.6376511  
   0.796960200     0.3204134    0.5954528  
   0.798960100     0.4079782    0.5390636  
   0.800960000     0.4858763    0.4700644  
   0.802959900     0.5528033    0.3900901  
   0.804959800     0.6070243    0.3004290  
   0.806959700     0.6467665    0.2036362  
   0.808959600     0.6715510    0.1014655  
   0.810959500     0.6800229   -0.0033542  
   0.812959400     0.6729413   -0.1090414  
   0.814959300     0.6493238   -0.2125061  
   0.816959200     0.6097413   -0.3116018  
   0.818959100     0.5553575   -0.4035281  
   0.820959000     0.4869225   -0.4863634  
   0.822958900     0.4063413   -0.5575359  
   0.824958800     0.3155024   -0.6155436  
   0.826958700     0.2164879   -0.6587911  
   0.828958600     0.1117732   -0.6859528  
   0.830958500     0.0042093   -0.6966104  
   0.832958400    -0.1032209   -0.6902521  
   0.834958300    -0.2084409   -0.6671787  
   0.836958200    -0.3082666   -0.6283215  
   0.838958100    -0.4008098   -0.5747151  
   0.840958000    -0.4836966   -0.5075366  
   0.842957900    -0.5552662   -0.4284921  
   0.844957800    -0.6136184   -0.3396990  
   0.846957700    -0.6572812   -0.2432060  
   0.848957600    -0.6858303   -0.1415084  
   0.850957500    -0.6983179   -0.0370355  
   0.852957400    -0.6947405    0.0680595  
   0.854957300    -0.6753328    0.1710397  
   0.856957200    -0.6404960    0.2695795  
   0.858957100    -0.5911810    0.3612750  
   0.860957000    -0.5291798    0.4435768  
   0.862956900    -0.4559768    0.5155556  
   0.864956800    -0.3731247    0.5744072  
   0.866956700    -0.2831865    0.6206869  
   0.868956600    -0.1876594    0.6527708  
   0.870956500    -0.0881663    0.6701611  
   0.872956400     0.0130925    0.6727621  
   0.874956300     0.1137711    0.6597672  
   0.876956200     0.2119114    0.6315874  
   0.878956100     0.3050771    0.5887457  
   0.880956000     0.3909450    0.5317582  
   0.882955900     0.4674507    0.4618617  
   0.884955800     0.5325556    0.3808401  
   0.886955700     0.5841388    0.2899068  
   0.888955600     0.6207483    0.1920889  
   0.890955500     0.6418637    0.0890174  
   0.892955400     0.6461353   -0.0159733  
   0.894955300     0.6334725   -0.1209464  
