! MS46122B
! 2250307/22442219
! 6/16/2025 12:54:01 PM
! C:\USERS\SPARKY\DOCUMENTS\VNA_DATA\JUNE16_2025\295K\PORT4_MOS6.S1P
! CHANNEL.1
! TR.MEASUREMENT
! RAW.DATA
# GHZ S RI R 50.0
! FREQ.GHZ         S11RE         S11IM         
!; PortSelection: Port_1
   0.001000000     1.0216370   -0.0593420  
   0.002999900     0.9305404   -0.2196272  
   0.004999800     0.8621363   -0.3633624  
   0.006999700     0.7812350   -0.4948609  
   0.008999600     0.6853960   -0.6072261  
   0.010999500     0.5783418   -0.7061160  
   0.012999400     0.4611619   -0.7907889  
   0.014999300     0.3344297   -0.8589419  
   0.016999200     0.2004027   -0.9077995  
   0.018999100     0.0602687   -0.9357946  
   0.020999000    -0.0828769   -0.9409546  
   0.022998900    -0.2250129   -0.9227944  
   0.024998800    -0.3372003   -0.8581400  
   0.026998700    -0.4920422   -0.8151892  
   0.028998600    -0.6094870   -0.7286700  
   0.030998500    -0.7115030   -0.6229388  
   0.032998400    -0.7626918   -0.4997933  
   0.034998300    -0.8584721   -0.3688959  
   0.036998200    -0.8996513   -0.2280027  
   0.038998100    -0.9180959   -0.0825266  
   0.040998000    -0.9140213    0.0632081  
   0.042997900    -0.8879223    0.2058343  
   0.044997800    -0.8208804    0.3159039  
   0.046997700    -0.7728444    0.4692590  
   0.048997600    -0.6866310    0.5843496  
   0.050997500    -0.5835875    0.6845022  
   0.052997400    -0.4670421    0.7662032  
   0.054997300    -0.3366627    0.8297749  
   0.056997200    -0.1985174    0.8707281  
   0.058997100    -0.0557628    0.8887302  
   0.060997000     0.0877253    0.8833469  
   0.062996900     0.2286154    0.8547215  
   0.064996800     0.3628375    0.8041127  
   0.066996700     0.4870460    0.7325937  
   0.068996600     0.5981098    0.6422961  
   0.070996500     0.6931511    0.5356703  
   0.072996400     0.7703526    0.4156570  
   0.074996300     0.8267835    0.2850960  
   0.076996200     0.8618943    0.1476989  
   0.078996100     0.8746129    0.0067081  
   0.080996000     0.8647770   -0.1341202  
   0.082995900     0.8325886   -0.2710312  
   0.084995800     0.7794437   -0.4004685  
   0.086995700     0.7068029   -0.5193872  
   0.088995600     0.6163867   -0.6248714  
   0.090995500     0.5112954   -0.7143176  
   0.092995400     0.3941984   -0.7858080  
   0.094995300     0.2678590   -0.8382288  
   0.096995200     0.1356072   -0.8705630  
   0.098995100     0.0005133   -0.8820696  
   0.100995000    -0.1340371   -0.8727225  
   0.102994900    -0.2654341   -0.8430848  
   0.104994800    -0.3900686   -0.7941772  
   0.106994700    -0.5056401   -0.7272742  
   0.108994600    -0.6095919   -0.6438997  
   0.110994500    -0.6994169   -0.5458959  
   0.112994400    -0.7732832   -0.4358914  
   0.114994300    -0.8301357   -0.3157443  
   0.116994200    -0.8681076   -0.1890639  
   0.118994100    -0.8863382   -0.0578646  
   0.120994000    -0.8846407    0.0747135  
   0.122993900    -0.8632147    0.2057649  
   0.124993800    -0.8223779    0.3321851  
   0.126993700    -0.7626700    0.4511877  
   0.128993600    -0.6853941    0.5601168  
   0.130993500    -0.5921758    0.6562877  
   0.132993400    -0.4849072    0.7375714  
   0.134993300    -0.3661600    0.8016781  
   0.136993200    -0.2385540    0.8469961  
   0.138993100    -0.1044128    0.8718651  
   0.140993000     0.0321090    0.8758701  
   0.142992900     0.1685589    0.8581880  
   0.144992800     0.3009810    0.8191727  
   0.146992700     0.4259640    0.7595538  
   0.148992600     0.5403587    0.6802133  
   0.150992500     0.6406392    0.5836994  
   0.152992400     0.7248291    0.4718093  
   0.154992300     0.7896562    0.3478218  
   0.156992200     0.8341603    0.2145937  
   0.158992100     0.8563059    0.0758534  
   0.160992000     0.8554910   -0.0648285  
   0.162991900     0.8320113   -0.2029626  
   0.164991800     0.7863546   -0.3359018  
   0.166991700     0.7202539   -0.4588035  
   0.168991600     0.6351114   -0.5693009  
   0.170991500     0.5335063   -0.6644654  
   0.172991400     0.4180932   -0.7414308  
   0.174991300     0.2927786   -0.7987429  
   0.176991200     0.1601739   -0.8350142  
   0.178991100     0.0243126   -0.8494644  
   0.180991000    -0.1113251   -0.8420970  
   0.182990900    -0.2432590   -0.8137363  
   0.184990800    -0.3687742   -0.7649143  
   0.186990700    -0.4841653   -0.6972594  
   0.188990600    -0.5692475   -0.6296702  
   0.190990500    -0.6724179   -0.5175038  
   0.192990400    -0.7456522   -0.4040087  
   0.194990300    -0.7987970   -0.2845015  
   0.196990200    -0.8323174   -0.1592427  
   0.198990100    -0.8468683   -0.0309801  
   0.200990000    -0.8415418    0.0979883  
   0.202989900    -0.8165425    0.2245290  
   0.204989800    -0.7731330    0.3454850  
   0.206989700    -0.7120712    0.4576370  
   0.208989600    -0.6353694    0.5592846  
   0.210989500    -0.5438890    0.6484168  
   0.212989400    -0.4395517    0.7228732  
   0.214989300    -0.3254858    0.7813290  
   0.216989200    -0.2042209    0.8213704  
   0.218989100    -0.0783522    0.8428107  
   0.220989000     0.0498902    0.8451824  
   0.222988900     0.1776192    0.8280787  
   0.224988800     0.3018412    0.7914670  
   0.226988700     0.4188622    0.7369089  
   0.228988600     0.5261791    0.6648682  
   0.230988500     0.6216893    0.5773900  
   0.232988400     0.7030269    0.4756158  
   0.234988300     0.7680156    0.3622825  
   0.236988200     0.8153954    0.2395360  
   0.238988100     0.8428657    0.1112356  
   0.240988000     0.8503530   -0.0200333  
   0.242987900     0.8375239   -0.1504053  
   0.244987800     0.8044598   -0.2778613  
   0.246987700     0.7520750   -0.3986661  
   0.248987600     0.6812959   -0.5105693  
   0.250987500     0.5938145   -0.6100496  
   0.252987400     0.4921618   -0.6944702  
   0.254987300     0.3791844   -0.7617449  
   0.256987200     0.2576670   -0.8101359  
   0.258987100     0.1301721   -0.8393349  
   0.260987000    -0.0003138   -0.8485643  
   0.262986900    -0.1310112   -0.8373345  
   0.264986800    -0.2579500   -0.8058950  
   0.266986700    -0.3784017   -0.7553284  
   0.268986600    -0.4887093   -0.6868123  
   0.270986500    -0.5865539   -0.6028991  
   0.272986400    -0.6699260   -0.5053548  
   0.274986300    -0.7372734   -0.3967365  
   0.276986200    -0.7870435   -0.2791179  
   0.278986100    -0.8180028   -0.1551193  
   0.280986000    -0.8296474   -0.0275451  
   0.282985900    -0.8214960    0.1000377  
   0.284985800    -0.7939219    0.2245828  
   0.286985700    -0.7474678    0.3431854  
   0.288985600    -0.6838577    0.4522437  
   0.290985500    -0.6051200    0.5497978  
   0.292985400    -0.5123775    0.6341013  
   0.294985300    -0.4077092    0.7033280  
   0.296985200    -0.2933582    0.7561251  
   0.298985100    -0.1711603    0.7909428  
   0.300985000    -0.0449815    0.8062662  
   0.302984900     0.0821202    0.8018917  
   0.304984800     0.2070579    0.7776511  
   0.306984700     0.3266913    0.7342802  
   0.308984600     0.4376980    0.6732055  
   0.310984500     0.5376315    0.5958946  
   0.312984400     0.6246690    0.5035772  
   0.314984300     0.6960099    0.3990877  
   0.316984200     0.7505841    0.2844328  
   0.318984100     0.7867694    0.1617353  
   0.320984000     0.8033853    0.0340199  
   0.322983900     0.7997236   -0.0950898  
   0.324983800     0.7755775   -0.2219613  
   0.326983700     0.7316400   -0.3433635  
   0.328983600     0.6692665   -0.4563989  
   0.330983500     0.5899351   -0.5575669  
   0.332983400     0.4962139   -0.6445714  
   0.334983300     0.3902556   -0.7158366  
   0.336983200     0.2750569   -0.7693952  
   0.338983100     0.1529590   -0.8044590  
   0.340983000     0.0274535   -0.8201083  
   0.342982900    -0.0986420   -0.8159539  
   0.344982800    -0.2229545   -0.7927452  
   0.346982700    -0.3423830   -0.7502670  
   0.348982600    -0.4538585   -0.6899223  
   0.350982500    -0.5542055   -0.6132551  
   0.352982400    -0.6416525   -0.5221115  
   0.354982300    -0.7163408   -0.4142772  
   0.356982200    -0.7772396   -0.2819644  
   0.358982100    -0.8133509   -0.1420024  
   0.360982000    -0.8245153    0.0002582  
   0.362981900    -0.8104934    0.1417290  
   0.364981800    -0.7720668    0.2777026  
   0.366981700    -0.7111268    0.4050567  
   0.368981600    -0.6295408    0.5190465  
   0.370981500    -0.5300487    0.6172907  
   0.372981400    -0.4151960    0.6964801  
   0.374981300    -0.2883098    0.7551693  
   0.376981200    -0.4045154    0.7083960  
   0.378981100    -0.2729801    0.7655702  
   0.380981000    -0.1339232    0.7985116  
   0.382980900    -0.0044327    0.8071019  
   0.384980800     0.1194774    0.7957950  
   0.386980700     0.2405251    0.7655767  
   0.388980600     0.3552972    0.7164111  
   0.390980500     0.4610627    0.6503897  
   0.392980400     0.5550379    0.5683929  
   0.394980300     0.6352114    0.4731146  
   0.396980200     0.6995158    0.3665624  
   0.398980100     0.7466432    0.2508799  
   0.400980000     0.7747688    0.1289840  
   0.402979900     0.7835864    0.0039611  
   0.404979800     0.7722631   -0.1210481  
   0.406979700     0.7417610   -0.2425918  
   0.408979600     0.6920674   -0.3575436  
   0.410979500     0.6244403   -0.4637375  
   0.412979400     0.5404495   -0.5582237  
   0.414979300     0.4426134   -0.6377794  
   0.416979200     0.3331576   -0.7006289  
   0.418979100     0.2158569   -0.7451013  
   0.420979000     0.0930512   -0.7704799  
   0.422978900    -0.0320319   -0.7757171  
   0.424978800    -0.1559739   -0.7607427  
   0.426978700    -0.2758872   -0.7266908  
   0.428978600    -0.3880954   -0.6743041  
   0.430978500    -0.4897345   -0.6059073  
   0.432978400    -0.5786530   -0.5229086  
   0.434978300    -0.6534502   -0.4279025  
   0.436978200    -0.7121117   -0.3237235  
   0.438978100    -0.7542557   -0.2120465  
   0.440978000    -0.7792335   -0.0959859  
   0.442977900    -0.7859010    0.0217711  
   0.444977800    -0.7752263    0.1389579  
   0.446977700    -0.7471474    0.2528092  
   0.448977600    -0.7032315    0.3604327  
   0.450977500    -0.6436898    0.4600393  
   0.452977400    -0.5699848    0.5501193  
   0.454977300    -0.4839961    0.6287592  
   0.456977200    -0.3865097    0.6938934  
   0.458977100    -0.2806864    0.7437043  
   0.460977000    -0.1687263    0.7773051  
   0.462976900    -0.0529718    0.7939819  
   0.464976800     0.0641211    0.7935576  
   0.466976700     0.1797691    0.7757913  
   0.468976600     0.2919296    0.7410352  
   0.470976500     0.3979806    0.6894885  
   0.472976400     0.4955196    0.6227846  
   0.474976300     0.5821611    0.5415527  
   0.476976200     0.6556454    0.4483728  
   0.478976100     0.7146980    0.3448596  
   0.480976000     0.7569903    0.2341484  
   0.482975900     0.7827025    0.1177776  
   0.484975800     0.7903591   -0.0011190  
   0.486975700     0.7797458   -0.1208029  
   0.488975600     0.7508829   -0.2375100  
   0.490975500     0.7041802   -0.3489217  
   0.492975400     0.6408929   -0.4524191  
   0.494975300     0.5615264   -0.5451412  
   0.496975200     0.4687117   -0.6246046  
   0.498975100     0.3649860   -0.6882731  
   0.500975000     0.2519979   -0.7352616  
   0.502974900     0.1331445   -0.7639433  
   0.504974800     0.0113608   -0.7734973  
   0.506974700    -0.1108115   -0.7639173  
   0.508974600    -0.2307490   -0.7347144  
   0.510974500    -0.3443466   -0.6871012  
   0.512974400    -0.4488958   -0.6220818  
   0.514974300    -0.5408229   -0.5420765  
   0.516974200    -0.6187129   -0.4490453  
   0.518974100    -0.6804988   -0.3455053  
   0.520974000    -0.7249714   -0.2337028  
   0.522973900    -0.7517856   -0.1174016  
   0.524973800    -0.7595747    0.0010567  
   0.526973700    -0.7492753    0.1193564  
   0.528973600    -0.7209899    0.2339152  
   0.530973500    -0.6750349    0.3424271  
   0.532973400    -0.6135132    0.4420410  
   0.534973300    -0.5376072    0.5310082  
   0.536973200    -0.4492499    0.6069044  
   0.538973100    -0.3509290    0.6679516  
   0.540973000    -0.2449260    0.7131186  
   0.542972900    -0.1335378    0.7418550  
   0.544972800    -0.0196420    0.7532747  
   0.546972700     0.0950437    0.7473283  
   0.548972600     0.2076516    0.7240060  
   0.550972500     0.3154398    0.6837873  
   0.552972400     0.4164357    0.6279722  
   0.554972300     0.5075566    0.5569992  
   0.556972200     0.5870541    0.4723546  
   0.558972100     0.6525606    0.3770713  
   0.560972000     0.7028255    0.2726501  
   0.562971900     0.7368345    0.1619287  
   0.564971800     0.7531868    0.0474460  
   0.566971700     0.7522066   -0.0677955  
   0.568971600     0.7335519   -0.1814314  
   0.570971500     0.6980593   -0.2911805  
   0.572971400     0.6463819   -0.3945852  
   0.574971300     0.5788065   -0.4892320  
   0.576971200     0.4975268   -0.5728463  
   0.578971100     0.4038635   -0.6433298  
   0.580971000     0.3007506   -0.6987110  
   0.582970900     0.1906144   -0.7376959  
   0.584970800     0.0765193   -0.7589894  
   0.586970700    -0.0391887   -0.7628968  
   0.588970600    -0.1540175   -0.7492809  
   0.590970500    -0.2646472   -0.7182308  
   0.592970400    -0.3698449   -0.6713563  
   0.594970300    -0.4663114   -0.6092846  
   0.596970200    -0.5522258   -0.5338281  
   0.598970100    -0.6258175   -0.4462623  
   0.600970000    -0.6856614   -0.3489311  
   0.602969900    -0.7297867   -0.2440931  
   0.604969800    -0.7579991   -0.1337637  
   0.606969700    -0.7694633   -0.0207009  
   0.608969600    -0.7639768    0.0933293  
   0.610969500    -0.7413706    0.2044303  
   0.612969400    -0.7024974    0.3110586  
   0.614969300    -0.6482332    0.4103546  
   0.616969200    -0.5802407    0.5005898  
   0.618969100    -0.5001310    0.5787512  
   0.620969000    -0.4096882    0.6439883  
   0.622968900    -0.3101845    0.6955054  
   0.624968800    -0.2042976    0.7316499  
   0.626968700    -0.0935402    0.7514127  
   0.628968600     0.0192331    0.7545486  
   0.630968500     0.1312503    0.7404815  
   0.632968400     0.2404448    0.7094923  
   0.634968300     0.3439980    0.6622475  
   0.636968200     0.4388760    0.5995376  
   0.638968100     0.5236022    0.5228524  
   0.640968000     0.5954134    0.4335507  
   0.642967900     0.6525000    0.3340463  
   0.644967800     0.6938136    0.2266179  
   0.646967700     0.7179436    0.1139944  
   0.648967600     0.7239234   -0.0009440  
   0.650967500     0.7114375   -0.1148401  
   0.652967400     0.6816694   -0.2251819  
   0.654967300     0.6350093   -0.3298977  
   0.656967200     0.5723950   -0.4253572  
   0.658967100     0.4956217   -0.5100028  
   0.660967000     0.4059614   -0.5816765  
   0.662966900     0.3061063   -0.6386268  
   0.664966800     0.1982272   -0.6791234  
   0.666966700     0.0851522   -0.7020143  
   0.668966600    -0.0300450   -0.7065154  
   0.670966500    -0.1443529   -0.6928256  
   0.672966400    -0.2539539   -0.6609661  
   0.674966300    -0.3570057   -0.6124576  
   0.676966200    -0.4504378   -0.5490083  
   0.678966100    -0.5325518   -0.4718135  
   0.680966000    -0.6010690   -0.3834753  
   0.682965900    -0.6548141   -0.2858338  
   0.684965800    -0.6929451   -0.1819559  
   0.686965700    -0.7142355   -0.0733178  
   0.688965600    -0.7189322    0.0365695  
   0.690965500    -0.7069865    0.1455909  
   0.692965400    -0.6783753    0.2510100  
   0.694965300    -0.6346777    0.3504351  
   0.696965200    -0.5767066    0.4420476  
   0.698965100    -0.5056942    0.5238402  
   0.700965000    -0.4231725    0.5939609  
   0.702964900    -0.3308887    0.6506674  
   0.704964800    -0.2314760    0.6935397  
   0.706964700    -0.1261852    0.7208868  
   0.708964600    -0.0178677    0.7320396  
   0.710964500     0.0916086    0.7268966  
   0.712964400     0.1992481    0.7049497  
   0.714964300     0.3026336    0.6673445  
   0.716964200     0.3991153    0.6144171  
   0.718964100     0.4860476    0.5475481  
   0.720964000     0.5618949    0.4683633  
   0.722963900     0.6251191    0.3790402  
   0.724963800     0.6737429    0.2805287  
   0.726963700     0.7073545    0.1753174  
   0.728963600     0.7246262    0.0661770  
   0.730963500     0.7249833   -0.0451624  
   0.732963400     0.7084826   -0.1551627  
   0.734963300     0.6749634   -0.2619900  
   0.736963200     0.6170594   -0.3777465  
   0.738963100     0.5390330   -0.4817697  
   0.740963000     0.4432605   -0.5699319  
   0.742962900     0.3334324   -0.6391946  
   0.744962800     0.2128228   -0.6869650  
   0.746962700     0.0859849   -0.7121741  
   0.748962600    -0.0430209   -0.7133544  
   0.750962500     0.0483652   -0.7091479  
   0.752962400    -0.0808937   -0.7060366  
   0.754962300    -0.2067369   -0.6787699  
   0.756962200    -0.3248083   -0.6291857  
   0.758962100    -0.4310346   -0.5594985  
   0.760962000    -0.5224224   -0.4716696  
   0.762961900    -0.5931973   -0.3747066  
   0.764961800    -0.6430847   -0.2765960  
   0.766961700    -0.6767357   -0.1729432  
   0.768961600    -0.6935353   -0.0657647  
   0.770961500    -0.6937910    0.0420039  
   0.772961400    -0.6774774    0.1477626  
   0.774961300    -0.6455250    0.2488152  
   0.776961200    -0.5987783    0.3434130  
   0.778961100    -0.5383003    0.4297317  
   0.780961000    -0.4657059    0.5054336  
   0.782960900    -0.3821398    0.5694088  
   0.784960800    -0.2899123    0.6197656  
   0.786960700    -0.1910460    0.6556605  
   0.788960600    -0.0877073    0.6761391  
   0.790960500     0.0168734    0.6810026  
   0.792960400     0.1216797    0.6695901  
   0.794960300     0.2229792    0.6425565  
   0.796960200     0.3192029    0.6005201  
   0.798960100     0.4076001    0.5443592  
   0.800960000     0.4862852    0.4751784  
   0.802959900     0.5540503    0.3950342  
   0.804959800     0.6088674    0.3052363  
   0.806959700     0.6494659    0.2078470  
   0.808959600     0.6748890    0.1051964  
   0.810959500     0.6839687   -0.0002636  
   0.812959400     0.6773291   -0.1066649  
   0.814959300     0.6540320   -0.2108224  
   0.816959200     0.6146468   -0.3106893  
   0.818959100     0.5603642   -0.4035266  
   0.820959000     0.4918706   -0.4871055  
   0.822958900     0.4110119   -0.5591160  
   0.824958800     0.3198884   -0.6179125  
   0.826958700     0.2205954   -0.6618618  
   0.828958600     0.1154276   -0.6896632  
   0.830958500     0.0070638   -0.7007837  
   0.832958400    -0.1012250   -0.6947803  
   0.834958300    -0.2070289   -0.6720253  
   0.836958200    -0.3076350   -0.6333812  
   0.838958100    -0.4009775   -0.5797698  
   0.840958000    -0.4845511   -0.5126115  
   0.842957900    -0.5569396   -0.4333315  
   0.844957800    -0.6160498   -0.3441796  
   0.846957700    -0.6604380   -0.2473122  
   0.848957600    -0.6894490   -0.1449125  
   0.850957500    -0.7024527   -0.0398696  
   0.852957400    -0.6992722    0.0661341  
   0.854957300    -0.6802191    0.1694874  
   0.856957200    -0.6454163    0.2689101  
   0.858957100    -0.5960448    0.3613410  
   0.860957000    -0.5338004    0.4445984  
   0.862956900    -0.4604250    0.5173116  
   0.864956800    -0.3772147    0.5767435  
   0.866956700    -0.2867907    0.6236685  
   0.868956600    -0.1907849    0.6561940  
   0.870956500    -0.0906524    0.6740245  
   0.872956400     0.0112525    0.6769589  
   0.874956300     0.1126883    0.6641894  
   0.876956200     0.2115729    0.6361206  
   0.878956100     0.3054209    0.5932828  
   0.880956000     0.3920302    0.5361990  
   0.882955900     0.4691789    0.4658675  
   0.884955800     0.5350038    0.3845466  
   0.886955700     0.5871783    0.2931662  
   0.888955600     0.6243152    0.1947828  
   0.890955500     0.6457589    0.0910527  
   0.892955400     0.6503939   -0.0146028  
   0.894955300     0.6379150   -0.1203132  
