! MS46122B
! 2250307/22442219
! 6/15/2025 11:06:16 AM
! C:\USERS\SPARKY\DOCUMENTS\VNA_DATA\JUNE15_2025\295K\PORT6_MOS3.S1P
! CHANNEL.1
! TR.MEASUREMENT
! RAW.DATA
# GHZ S RI R 50.0
! FREQ.GHZ         S11RE         S11IM         
!; PortSelection: Port_1
   0.001000000    -0.8904418    0.0545830  
   0.002999900    -0.8609899    0.2572369  
   0.004999800    -0.8196824    0.4007584  
   0.006999700    -0.7520013    0.5266343  
   0.008999600    -0.6625499    0.6340353  
   0.010999500    -0.5551980    0.7219764  
   0.012999400    -0.4344001    0.7894366  
   0.014999300    -0.3037291    0.8353521  
   0.016999200    -0.1678169    0.8602251  
   0.018999100    -0.0298044    0.8641066  
   0.020999000     0.1064674    0.8482822  
   0.022998900     0.2382719    0.8132752  
   0.024998800     0.3355834    0.7423656  
   0.026998700     0.4778939    0.6912901  
   0.028998600     0.5809750    0.6071687  
   0.030998500     0.6701356    0.5098066  
   0.032998400     0.7103003    0.4012338  
   0.034998300     0.7998933    0.2820551  
   0.036998200     0.8371648    0.1560631  
   0.038998100     0.8543366    0.0258113  
   0.040998000     0.8510111   -0.1061536  
   0.042997900     0.8265911   -0.2356053  
   0.044997800     0.7613179   -0.3345177  
   0.046997700     0.7178720   -0.4756035  
   0.048997600     0.6367546   -0.5799962  
   0.050997500     0.5404686   -0.6701232  
   0.052997400     0.4332857   -0.7438249  
   0.054997300     0.3141881   -0.8012502  
   0.056997200     0.1888193   -0.8394282  
   0.058997100     0.0601079   -0.8585399  
   0.060997000    -0.0696117   -0.8581561  
   0.062996900    -0.1975375   -0.8385701  
   0.064996800    -0.3208778   -0.8001417  
   0.066996700    -0.4368230   -0.7436029  
   0.068996600    -0.5427550   -0.6701583  
   0.070996500    -0.6361094   -0.5817189  
   0.072996400    -0.7150761   -0.4803437  
   0.074996300    -0.7775077   -0.3681371  
   0.076996200    -0.8221941   -0.2477109  
   0.078996100    -0.8480797   -0.1221700  
   0.080996000    -0.8547565    0.0061764  
   0.082995900    -0.8420274    0.1341842  
   0.084995800    -0.8098149    0.2585883  
   0.086995700    -0.7592563    0.3771843  
   0.088995600    -0.6909367    0.4868551  
   0.090995500    -0.6068591    0.5851241  
   0.092995400    -0.5081602    0.6694717  
   0.094995300    -0.3973477    0.7377412  
   0.096995200    -0.2772957    0.7883161  
   0.098995100    -0.1497260    0.8197035  
   0.100995000    -0.0189477    0.8303980  
   0.102994900     0.1120345    0.8202460  
   0.104994800     0.2400397    0.7894667  
   0.106994700     0.3621115    0.7385893  
   0.108994600     0.4743159    0.6690898  
   0.110994500     0.5740640    0.5823398  
   0.112994400     0.6587370    0.4805726  
   0.114994300     0.7260547    0.3668092  
   0.116994200     0.7742414    0.2436543  
   0.118994100     0.8021783    0.1146652  
   0.120994000     0.8088420   -0.0168450  
   0.122993900     0.7944769   -0.1472951  
   0.124993800     0.7597781   -0.2734603  
   0.126993700     0.7052177   -0.3921927  
   0.128993600     0.6332285   -0.5003610  
   0.130993500     0.5450342   -0.5952467  
   0.132993400     0.4435415   -0.6744341  
   0.134993300     0.3315910   -0.7364120  
   0.136993200     0.2118746   -0.7799037  
   0.138993100     0.0874390   -0.8039708  
   0.140993000    -0.0385188   -0.8084382  
   0.142992900    -0.1628141   -0.7936708  
   0.144992800    -0.2826914   -0.7601784  
   0.146992700    -0.3958044   -0.7088965  
   0.148992600    -0.4991938   -0.6413177  
   0.150992500    -0.5905457   -0.5597392  
   0.152992400    -0.6682355   -0.4651035  
   0.154992300    -0.7306654   -0.3603964  
   0.156992200    -0.7764440   -0.2479802  
   0.158992100    -0.8053458   -0.1302225  
   0.160992000    -0.8161297   -0.0098126  
   0.162991900    -0.8090922    0.1108367  
   0.164991800    -0.7838151    0.2290126  
   0.166991700    -0.7415386    0.3420359  
   0.168991600    -0.6828436    0.4473704  
   0.170991500    -0.6091519    0.5434284  
   0.172991400    -0.5216979    0.6269504  
   0.174991300    -0.4229001    0.6968335  
   0.176991200    -0.3139686    0.7514336  
   0.178991100    -0.1976742    0.7893854  
   0.180991000    -0.0774568    0.8091204  
   0.182990900     0.0450345    0.8106309  
   0.184990800     0.1673073    0.7931144  
   0.186990700     0.2862260    0.7577609  
   0.188990600     0.3771145    0.7150877  
   0.190990500     0.4974631    0.6354284  
   0.192990400     0.5909015    0.5475953  
   0.194990300     0.6675575    0.4484540  
   0.196990200     0.7279493    0.3385902  
   0.198990100     0.7703847    0.2204021  
   0.200990000     0.7941213    0.0966239  
   0.202989900     0.7980437   -0.0302859  
   0.204989800     0.7815784   -0.1562283  
   0.206989700     0.7458747   -0.2773139  
   0.208989600     0.6913172   -0.3912690  
   0.210989500     0.6190115   -0.4955477  
   0.212989400     0.5310525   -0.5873407  
   0.214989300     0.4296387   -0.6635510  
   0.216989200     0.3181805   -0.7222027  
   0.218989100     0.1991882   -0.7623160  
   0.220989000     0.0752866   -0.7832704  
   0.222988900    -0.0503775   -0.7841564  
   0.224988800    -0.1740932   -0.7652432  
   0.226988700    -0.2927371   -0.7266995  
   0.228988600    -0.4030315   -0.6705250  
   0.230988500    -0.5028465   -0.5980403  
   0.232988400    -0.5896306   -0.5107195  
   0.234988300    -0.6618055   -0.4109810  
   0.236988200    -0.7169541   -0.3012999  
   0.238988100    -0.7542780   -0.1847127  
   0.240988000    -0.7727087   -0.0648671  
   0.242987900    -0.7720125    0.0559339  
   0.244987800    -0.7528762    0.1747336  
   0.246987700    -0.7153152    0.2894486  
   0.248987600    -0.6604501    0.3970616  
   0.250987500    -0.5893639    0.4949213  
   0.252987400    -0.5043448    0.5798990  
   0.254987300    -0.4075825    0.6505195  
   0.256987200    -0.3014396    0.7049916  
   0.258987100    -0.1880913    0.7427303  
   0.260987000    -0.0699309    0.7624547  
   0.262986900     0.0505069    0.7635821  
   0.264986800     0.1696166    0.7462720  
   0.266986700     0.2851376    0.7100677  
   0.268986600     0.3931732    0.6568666  
   0.270986500     0.4916503    0.5875389  
   0.272986400     0.5781869    0.5035825  
   0.274986300     0.6505774    0.4072505  
   0.276986200     0.7072842    0.3003634  
   0.278986100     0.7472015    0.1854073  
   0.280986000     0.7685394    0.0653257  
   0.282985900     0.7705480   -0.0570452  
   0.284985800     0.7536004   -0.1781920  
   0.286985700     0.7176256   -0.2952846  
   0.288985600     0.6638376   -0.4046448  
   0.290985500     0.5941160   -0.5039601  
   0.292985400     0.5098866   -0.5909819  
   0.294985300     0.4132345   -0.6640127  
   0.296985200     0.3059537   -0.7212915  
   0.298985100     0.1904684   -0.7610201  
   0.300985000     0.0701862   -0.7822841  
   0.302984900    -0.0515314   -0.7846941  
   0.304984800    -0.1717745   -0.7676833  
   0.306984700    -0.2874833   -0.7325825  
   0.308984600    -0.3953212   -0.6803253  
   0.310984500    -0.4931386   -0.6128204  
   0.312984400    -0.5795236   -0.5314034  
   0.314984300    -0.6516772   -0.4382839  
   0.316984200    -0.7091235   -0.3353732  
   0.318984100    -0.7503603   -0.2245038  
   0.320984000    -0.7742074   -0.1082930  
   0.322983900    -0.7799051    0.0108316  
   0.324983800    -0.7672123    0.1285840  
   0.326983700    -0.7367567    0.2428937  
   0.328983600    -0.6892289    0.3509732  
   0.330983500    -0.6259269    0.4499128  
   0.332983400    -0.5489481    0.5375475  
   0.334983300    -0.4594561    0.6125374  
   0.336983200    -0.3600329    0.6731156  
   0.338983100    -0.2516606    0.7177073  
   0.340983000    -0.1383401    0.7452587  
   0.342982900    -0.0217245    0.7550009  
   0.344982800     0.0954031    0.7467144  
   0.346982700     0.2112900    0.7202086  
   0.348982600     0.3215055    0.6756995  
   0.350982500     0.4239909    0.6143582  
   0.352982400     0.5156487    0.5373367  
   0.354982300     0.5972561    0.4424265  
   0.356982200     0.6675904    0.3236108  
   0.358982100     0.7151314    0.1945465  
   0.360982000     0.7386125    0.0589050  
   0.362981900     0.7369246   -0.0785760  
   0.364981800     0.7099785   -0.2141649  
   0.366981700     0.6588416   -0.3422042  
   0.368981600     0.5848891   -0.4592885  
   0.370981500     0.4907103   -0.5606495  
   0.372981400     0.3791626   -0.6431963  
   0.374981300     0.2540807   -0.7035213  
   0.376981200     0.3493001   -0.6553677  
   0.378981100     0.2223948   -0.7106409  
   0.380981000     0.0879192   -0.7415469  
   0.382980900    -0.0377270   -0.7477587  
   0.384980800    -0.1572790   -0.7340810  
   0.386980700    -0.2724003   -0.7016699  
   0.388980600    -0.3807134   -0.6512807  
   0.390980500    -0.4789103   -0.5854073  
   0.392980400    -0.5646137   -0.5057065  
   0.394980300    -0.6365369   -0.4145479  
   0.396980200    -0.6937559   -0.3139968  
   0.398980100    -0.7343305   -0.2066936  
   0.400980000    -0.7582390   -0.0947944  
   0.402979900    -0.7648217    0.0191737  
   0.404979800    -0.7545837    0.1320116  
   0.406979700    -0.7276090    0.2420722  
   0.408979600    -0.6848166    0.3459070  
   0.410979500    -0.6265874    0.4432659  
   0.412979400    -0.5542386    0.5310675  
   0.414979300    -0.4697901    0.6070455  
   0.416979200    -0.3741964    0.6696695  
   0.418979100    -0.2707958    0.7172852  
   0.420979000    -0.1608913    0.7484712  
   0.422978900    -0.0472638    0.7631859  
   0.424978800     0.0679840    0.7605516  
   0.426978700     0.1820281    0.7400058  
   0.428978600     0.2915551    0.7022327  
   0.430978500     0.3944509    0.6480564  
   0.432978400     0.4877727    0.5785996  
   0.434978300     0.5694314    0.4954409  
   0.436978200     0.6373471    0.4001880  
   0.438978100     0.6899047    0.2947723  
   0.440978000     0.7254258    0.1821074  
   0.442977900     0.7426618    0.0649120  
   0.444977800     0.7409890   -0.0541537  
   0.446977700     0.7205206   -0.1717892  
   0.448977600     0.6813267   -0.2845837  
   0.450977500     0.6244158   -0.3897635  
   0.452977400     0.5506819   -0.4850080  
   0.454977300     0.4620539   -0.5678741  
   0.456977200     0.3607082   -0.6348389  
   0.458977100     0.2492067   -0.6846382  
   0.460977000     0.1313304   -0.7151251  
   0.462976900     0.0107753   -0.7258385  
   0.464976800    -0.1097950   -0.7165323  
   0.466976700    -0.2269233   -0.6877408  
   0.468976600    -0.3372374   -0.6406323  
   0.470976500    -0.4382033   -0.5761974  
   0.472976400    -0.5266355   -0.4966346  
   0.474976300    -0.6008331   -0.4043493  
   0.476976200    -0.6586139   -0.3022537  
   0.478976100    -0.6993168   -0.1930185  
   0.480976000    -0.7218767   -0.0797151  
   0.482975900    -0.7262876    0.0348257  
   0.484975800    -0.7130021    0.1479311  
   0.486975700    -0.6826028    0.2573467  
   0.488975600    -0.6356068    0.3601718  
   0.490975500    -0.5736458    0.4545243  
   0.492975400    -0.4980108    0.5382969  
   0.494975300    -0.4108510    0.6092594  
   0.496975200    -0.3138113    0.6659234  
   0.498975100    -0.2094017    0.7072970  
   0.500975000    -0.1003294    0.7321467  
   0.502974900     0.0112389    0.7402024  
   0.504974800     0.1229709    0.7312400  
   0.506974700     0.2327617    0.7053196  
   0.508974600     0.3380120    0.6624070  
   0.510974500     0.4356204    0.6037068  
   0.512974400     0.5234740    0.5305129  
   0.514974300     0.5990362    0.4448228  
   0.516974200     0.6607944    0.3483163  
   0.518974100     0.7067414    0.2431361  
   0.520974000     0.7361647    0.1317657  
   0.522973900     0.7478788    0.0173283  
   0.524973800     0.7418690   -0.0982388  
   0.526973700     0.7177031   -0.2124310  
   0.528973600     0.6760812   -0.3211136  
   0.530973500     0.6175777   -0.4228582  
   0.532973400     0.5433340   -0.5142495  
   0.534973300     0.4560846   -0.5928264  
   0.536973200     0.3564362   -0.6570196  
   0.538973100     0.2487701   -0.7042080  
   0.540973000     0.1353113   -0.7340688  
   0.542972900     0.0182007   -0.7456007  
   0.544972800    -0.0989662   -0.7384006  
   0.546972700    -0.2141713   -0.7130673  
   0.548972600    -0.3237631   -0.6698407  
   0.550972500    -0.4249753   -0.6095306  
   0.552972400    -0.5156498   -0.5339556  
   0.554972300    -0.5930185   -0.4449831  
   0.556972200    -0.6552512   -0.3449567  
   0.558972100    -0.7007021   -0.2365812  
   0.560972000    -0.7281971   -0.1226030  
   0.562971900    -0.7373551   -0.0062713  
   0.564971800    -0.7279423    0.1092744  
   0.566971700    -0.7006720    0.2215486  
   0.568971600    -0.6561210    0.3278676  
   0.570971500    -0.5958561    0.4257386  
   0.572971400    -0.5206037    0.5128155  
   0.574971300    -0.4325626    0.5869230  
   0.576971200    -0.3337039    0.6465981  
   0.578971100    -0.2264971    0.6896898  
   0.580971000    -0.1137099    0.7153064  
   0.582970900     0.0015465    0.7227508  
   0.584970800     0.1161575    0.7117258  
   0.586970700     0.2274545    0.6828727  
   0.588970600     0.3327958    0.6364611  
   0.590970500     0.4295267    0.5740121  
   0.592970400     0.5151791    0.4969341  
   0.594970300     0.5876610    0.4069478  
   0.596970200     0.6447754    0.3065392  
   0.598970100     0.6851867    0.1981582  
   0.600970000     0.7078633    0.0839698  
   0.602969900     0.7116171   -0.0319852  
   0.604969800     0.6969568   -0.1480200  
   0.606969700     0.6638693   -0.2601938  
   0.608969600     0.6128349   -0.3659772  
   0.610969500     0.5452975   -0.4621665  
   0.612969400     0.4628964   -0.5460340  
   0.614969300     0.3684963   -0.6154426  
   0.616969200     0.2647173   -0.6687678  
   0.618969100     0.1542751   -0.7044305  
   0.620969000     0.0403958   -0.7217541  
   0.622968900    -0.0750915   -0.7211273  
   0.624968800    -0.1886722   -0.7027504  
   0.626968700    -0.2979325   -0.6666246  
   0.628968600    -0.4002555   -0.6138452  
   0.630968500    -0.4930726   -0.5461318  
   0.632968400    -0.5738314   -0.4648297  
   0.634968300    -0.6409320   -0.3720744  
   0.636968200    -0.6924497   -0.2705013  
   0.638968100    -0.7278292   -0.1626149  
   0.640968000    -0.7465013   -0.0507473  
   0.642967900    -0.7475907    0.0624941  
   0.644967800    -0.7315055    0.1739824  
   0.646967700    -0.6988596    0.2816459  
   0.648967600    -0.6504637    0.3826105  
   0.650967500    -0.5876929    0.4749203  
   0.652967400    -0.5123688    0.5566176  
   0.654967300    -0.4254849    0.6258272  
   0.656967200    -0.3296263    0.6815246  
   0.658967100    -0.2266060    0.7221898  
   0.660967000    -0.1180321    0.7469196  
   0.662966900    -0.0064790    0.7549062  
   0.664966800     0.1059048    0.7463757  
   0.666966700     0.2164647    0.7205323  
   0.668966600     0.3219683    0.6780955  
   0.670966500     0.4202340    0.6196247  
   0.672966400     0.5081474    0.5465764  
   0.674966300     0.5842957    0.4602936  
   0.676966200     0.6462232    0.3635173  
   0.678966100     0.6924778    0.2584606  
   0.680966000     0.7217258    0.1468822  
   0.682965900     0.7335461    0.0318449  
   0.684965800     0.7268572   -0.0838967  
   0.686965700     0.7018094   -0.1974401  
   0.688965600     0.6592631   -0.3060319  
   0.690965500     0.6001087   -0.4063305  
   0.692965400     0.5257063   -0.4962996  
   0.694965300     0.4376713   -0.5730528  
   0.696965200     0.3385855   -0.6349797  
   0.698965100     0.2310096   -0.6799653  
   0.700965000     0.1174598   -0.7074500  
   0.702964900     0.0010080   -0.7162191  
   0.704964800    -0.1151176   -0.7062821  
   0.706964700    -0.2280522   -0.6778907  
   0.708964600    -0.3347462   -0.6319389  
   0.710964500    -0.4326442   -0.5696648  
   0.712964400    -0.5187144   -0.4926193  
   0.714964300    -0.5911061   -0.4030255  
   0.716964200    -0.6480453   -0.3041483  
   0.718964100    -0.6884389   -0.1978302  
   0.720964000    -0.7115484   -0.0877826  
   0.722963900    -0.7174934    0.0239343  
   0.724963800    -0.7061502    0.1346972  
   0.726963700    -0.6779343    0.2420176  
   0.728963600    -0.6340051    0.3433063  
   0.730963500    -0.5750982    0.4365757  
   0.732963400    -0.5030637    0.5195894  
   0.734963300    -0.4192002    0.5903506  
   0.736963200    -0.3095722    0.6549158  
   0.738963100    -0.1896574    0.6998913  
   0.740963000    -0.0631424    0.7232370  
   0.742962900     0.0657150    0.7240141  
   0.744962800     0.1933295    0.7026755  
   0.746962700     0.3158452    0.6590796  
   0.748962600     0.4292276    0.5942761  
   0.750962500     0.3149217    0.6568601  
   0.752962400     0.4272399    0.5907330  
   0.754962300     0.5262638    0.5056917  
   0.756962200     0.6090091    0.4041754  
   0.758962100     0.6729218    0.2894395  
   0.760962000     0.7158608    0.1649733  
   0.762961900     0.7351777    0.0408788  
   0.764961800     0.7335356   -0.0736441  
   0.766961700     0.7144291   -0.1865850  
   0.768961600     0.6774684   -0.2960853  
   0.770961500     0.6239575   -0.3980383  
   0.772961400     0.5549908   -0.4910190  
   0.774961300     0.4724244   -0.5716954  
   0.776961200     0.3774473   -0.6387936  
   0.778961100     0.2731726   -0.6904350  
   0.780961000     0.1615678   -0.7251747  
   0.782960900     0.0454933   -0.7415063  
   0.784960800    -0.0717986   -0.7393132  
   0.786960700    -0.1875322   -0.7183924  
   0.788960600    -0.2982164   -0.6794774  
   0.790960500    -0.4008521   -0.6233131  
   0.792960400    -0.4928479   -0.5518700  
   0.794960300    -0.5721785   -0.4670508  
   0.796960200    -0.6367098   -0.3713185  
   0.798960100    -0.6849000   -0.2673441  
   0.800960000    -0.7163897   -0.1578808  
   0.802959900    -0.7299988   -0.0450593  
   0.804959800    -0.7261074    0.0675813  
   0.806959700    -0.7050170    0.1776638  
   0.808959600    -0.6675476    0.2827205  
   0.810959500    -0.6142639    0.3798926  
   0.812959400    -0.5473403    0.4679731  
   0.814959300    -0.4679396    0.5442240  
   0.816959200    -0.3781242    0.6072037  
   0.818959100    -0.2797589    0.6558880  
   0.820959000    -0.1752843    0.6888585  
   0.822958900    -0.0666712    0.7055967  
   0.824958800     0.0430931    0.7055630  
   0.826958700     0.1514624    0.6884691  
   0.828958600     0.2563477    0.6549626  
   0.830958500     0.3549576    0.6061853  
   0.832958400     0.4451046    0.5423195  
   0.834958300     0.5243089    0.4651963  
   0.836958200     0.5908828    0.3768392  
   0.838958100     0.6432287    0.2787531  
   0.840958000     0.6795214    0.1730731  
   0.842957900     0.6996644    0.0627265  
   0.844957800     0.7018341   -0.0499458  
   0.846957700     0.6861675   -0.1620369  
   0.848957600     0.6528322   -0.2707458  
   0.850957500     0.6025913   -0.3729230  
   0.852957400     0.5364538   -0.4662294  
   0.854957300     0.4564639   -0.5477431  
   0.856957200     0.3643078   -0.6158775  
   0.858957100     0.2623560   -0.6681830  
   0.860957000     0.1538380   -0.7035835  
   0.862956900     0.0415117   -0.7214465  
   0.864956800    -0.0715056   -0.7217234  
   0.866956700    -0.1830481   -0.7042245  
   0.868956600    -0.2896262   -0.6701449  
   0.870956500    -0.3899341   -0.6200923  
   0.872956400    -0.4807884   -0.5552855  
   0.874956300    -0.5605659   -0.4775390  
   0.876956200    -0.6274207   -0.3883990  
   0.878956100    -0.6798097   -0.2905922  
   0.880956000    -0.7164598   -0.1858232  
   0.882955900    -0.7368364   -0.0773815  
   0.884955800    -0.7404499    0.0327833  
   0.886955700    -0.7275039    0.1420777  
   0.888955600    -0.6984090    0.2481451  
   0.890955500    -0.6534331    0.3480900  
   0.892955400    -0.5943807    0.4399068  
   0.894955300    -0.5219664    0.5223215  
