! MS46122B
! 2250307/22442219
! 6/18/2025 1:28:20 PM
! C:\USERS\SPARKY\DOCUMENTS\VNA_DATA\JUNE18_2025\295K\PORT5_MOS6.S1P
! CHANNEL.1
! TR.MEASUREMENT
! RAW.DATA
# GHZ S RI R 50.0
! FREQ.GHZ         S11RE         S11IM         
!; PortSelection: Port_1
   0.001000000     1.0212530   -0.0593315  
   0.002999900     0.9303336   -0.2193999  
   0.004999800     0.8620247   -0.3631743  
   0.006999700     0.7812285   -0.4946952  
   0.008999600     0.6854761   -0.6070572  
   0.010999500     0.5784422   -0.7060772  
   0.012999400     0.4614229   -0.7907911  
   0.014999300     0.3347080   -0.8589700  
   0.016999200     0.2002755   -0.9077352  
   0.018999100     0.0603879   -0.9358543  
   0.020999000    -0.0827828   -0.9412162  
   0.022998900    -0.2248132   -0.9229608  
   0.024998800    -0.3370893   -0.8584474  
   0.026998700    -0.4919371   -0.8154482  
   0.028998600    -0.6094593   -0.7289838  
   0.030998500    -0.7114999   -0.6232914  
   0.032998400    -0.7627136   -0.5001434  
   0.034998300    -0.8586798   -0.3690210  
   0.036998200    -0.8998132   -0.2283434  
   0.038998100    -0.9182846   -0.0828475  
   0.040998000    -0.9144542    0.0628252  
   0.042997900    -0.8882468    0.2056859  
   0.044997800    -0.8212382    0.3157699  
   0.046997700    -0.7733220    0.4689693  
   0.048997600    -0.6871032    0.5841237  
   0.050997500    -0.5841474    0.6843153  
   0.052997400    -0.4684049    0.7657833  
   0.054997300    -0.3373379    0.8298731  
   0.056997200    -0.1991046    0.8707897  
   0.058997100    -0.0563955    0.8889081  
   0.060997000     0.0871000    0.8836526  
   0.062996900     0.2280552    0.8550435  
   0.064996800     0.3623625    0.8045681  
   0.066996700     0.4866097    0.7331461  
   0.068996600     0.5978047    0.6429154  
   0.070996500     0.6929371    0.5363253  
   0.072996400     0.7702388    0.4163145  
   0.074996300     0.8267683    0.2858069  
   0.076996200     0.8620046    0.1483483  
   0.078996100     0.8748462    0.0073913  
   0.080996000     0.8651079   -0.1335028  
   0.082995900     0.8330618   -0.2703604  
   0.084995800     0.7800115   -0.3999253  
   0.086995700     0.7073969   -0.5189376  
   0.088995600     0.6171210   -0.6245012  
   0.090995500     0.5120824   -0.7140828  
   0.092995400     0.3949953   -0.7856804  
   0.094995300     0.2686560   -0.8382346  
   0.096995200     0.1363159   -0.8707407  
   0.098995100     0.0014979   -0.8821979  
   0.100995000    -0.1333629   -0.8730947  
   0.102994900    -0.2645934   -0.8435759  
   0.104994800    -0.3894032   -0.7948182  
   0.106994700    -0.5049937   -0.7280478  
   0.108994600    -0.6090831   -0.6447174  
   0.110994500    -0.6990598   -0.5467457  
   0.112994400    -0.7730979   -0.4367228  
   0.114994300    -0.8300620   -0.3167858  
   0.116994200    -0.8681336   -0.1900493  
   0.118994100    -0.8865318   -0.0588428  
   0.120994000    -0.8849991    0.0737461  
   0.122993900    -0.8636918    0.2048435  
   0.124993800    -0.8229479    0.3313465  
   0.126993700    -0.7634311    0.4504713  
   0.128993600    -0.6862342    0.5594473  
   0.130993500    -0.5931451    0.6557606  
   0.132993400    -0.4859479    0.7372484  
   0.134993300    -0.3672212    0.8014800  
   0.136993200    -0.2395613    0.8469414  
   0.138993100    -0.1054567    0.8719962  
   0.140993000     0.0311164    0.8761153  
   0.142992900     0.1676678    0.8586074  
   0.144992800     0.3002013    0.8197703  
   0.146992700     0.4252748    0.7601990  
   0.148992600     0.5396630    0.6810682  
   0.150992500     0.6401312    0.5845332  
   0.152992400     0.7244742    0.4727736  
   0.154992300     0.7894235    0.3489234  
   0.156992200     0.8341632    0.2156747  
   0.158992100     0.8565038    0.0769513  
   0.160992000     0.8558946   -0.0637273  
   0.162991900     0.8325540   -0.2019531  
   0.164991800     0.7871458   -0.3348034  
   0.166991700     0.7212383   -0.4579184  
   0.168991600     0.6361873   -0.5686451  
   0.170991500     0.5347413   -0.6639912  
   0.172991400     0.4193947   -0.7411318  
   0.174991300     0.2940943   -0.7986269  
   0.176991200     0.1617353   -0.8350765  
   0.178991100     0.0256634   -0.8498272  
   0.180991000    -0.1099904   -0.8426465  
   0.182990900    -0.2421046   -0.8142883  
   0.184990800    -0.3675901   -0.7658796  
   0.186990700    -0.4833053   -0.6984395  
   0.188990600    -0.5683675   -0.6309538  
   0.190990500    -0.6717525   -0.5189388  
   0.192990400    -0.7452562   -0.4055598  
   0.194990300    -0.7985792   -0.2860448  
   0.196990200    -0.8323603   -0.1608172  
   0.198990100    -0.8471305   -0.0325339  
   0.200990000    -0.8420233    0.0964860  
   0.202989900    -0.8171945    0.2231478  
   0.204989800    -0.7739839    0.3441779  
   0.206989700    -0.7131039    0.4565208  
   0.208989600    -0.6365653    0.5582965  
   0.210989500    -0.5451665    0.6476819  
   0.212989400    -0.4409726    0.7223092  
   0.214989300    -0.3269713    0.7809378  
   0.216989200    -0.2057704    0.8212510  
   0.218989100    -0.0799203    0.8429370  
   0.220989000     0.0483585    0.8455346  
   0.222988900     0.1761730    0.8286016  
   0.224988800     0.3004376    0.7923093  
   0.226988700     0.4176522    0.7377415  
   0.228988600     0.5251668    0.6660901  
   0.230988500     0.6208739    0.5787016  
   0.232988400     0.7024407    0.4771580  
   0.234988300     0.7675315    0.3640541  
   0.236988200     0.8150452    0.2413719  
   0.238988100     0.8429984    0.1130980  
   0.240988000     0.8506226   -0.0182654  
   0.242987900     0.8382093   -0.1485375  
   0.244987800     0.8054820   -0.2760938  
   0.246987700     0.7533671   -0.3970396  
   0.248987600     0.6829304   -0.5091736  
   0.250987500     0.5956511   -0.6088601  
   0.252987400     0.4941743   -0.6935712  
   0.254987300     0.3813128   -0.7610610  
   0.256987200     0.2599796   -0.8098628  
   0.258987100     0.1324566   -0.8394151  
   0.260987000     0.0019569   -0.8489915  
   0.262986900    -0.1288644   -0.8381485  
   0.264986800    -0.2558661   -0.8070394  
   0.266986700    -0.3765144   -0.7568230  
   0.268986600    -0.4870157   -0.6885807  
   0.270986500    -0.5851611   -0.6048531  
   0.272986400    -0.6688188   -0.5074499  
   0.274986300    -0.7365223   -0.3990517  
   0.276986200    -0.7866879   -0.2815375  
   0.278986100    -0.8180069   -0.1575185  
   0.280986000    -0.8300397   -0.0299798  
   0.282985900    -0.8221734    0.0976870  
   0.284985800    -0.7949359    0.2223846  
   0.286985700    -0.7488314    0.3411965  
   0.288985600    -0.6855585    0.4503842  
   0.290985500    -0.6070424    0.5483055  
   0.292985400    -0.5145182    0.6329284  
   0.294985300    -0.4100416    0.7024919  
   0.296985200    -0.2957954    0.7556493  
   0.298985100    -0.1736989    0.7908065  
   0.300985000    -0.0475545    0.8065845  
   0.302984900     0.0795509    0.8025871  
   0.304984800     0.2046227    0.7787726  
   0.306984700     0.3244210    0.7358056  
   0.308984600     0.4357249    0.6750407  
   0.310984500     0.5358695    0.5980955  
   0.312984400     0.6232473    0.5060368  
   0.314984300     0.6950062    0.4017902  
   0.316984200     0.7499951    0.2872833  
   0.318984100     0.7868234    0.1645389  
   0.320984000     0.8037055    0.0371255  
   0.322983900     0.8005204   -0.0920969  
   0.324983800     0.7768707   -0.2191729  
   0.326983700     0.7333373   -0.3407501  
   0.328983600     0.6714805   -0.4540168  
   0.330983500     0.5925047   -0.5555670  
   0.332983400     0.4990239   -0.6430038  
   0.334983300     0.3932274   -0.7147265  
   0.336983200     0.2781935   -0.7687390  
   0.338983100     0.1561301   -0.8042698  
   0.340983000     0.0306797   -0.8204270  
   0.342982900    -0.0956429   -0.8167501  
   0.344982800    -0.2200408   -0.7940517  
   0.346982700    -0.3397131   -0.7519901  
   0.348982600    -0.4513976   -0.6920360  
   0.350982500    -0.5519871   -0.6157373  
   0.352982400    -0.6400256   -0.5248032  
   0.354982300    -0.7151800   -0.4171189  
   0.356982200    -0.7766503   -0.2850112  
   0.358982100    -0.8133103   -0.1452008  
   0.360982000    -0.8249772   -0.0027708  
   0.362981900    -0.8114399    0.1387730  
   0.364981800    -0.7734299    0.2752910  
   0.366981700    -0.7130771    0.4025800  
   0.368981600    -0.6318479    0.5169894  
   0.370981500    -0.5328011    0.6155263  
   0.372981400    -0.4181136    0.6953081  
   0.374981300    -0.2914241    0.7545725  
   0.376981200    -0.4074141    0.7074564  
   0.378981100    -0.2763163    0.7650008  
   0.380981000    -0.1372371    0.7985683  
   0.382980900    -0.0077594    0.8076316  
   0.384980800     0.1162348    0.7969689  
   0.386980700     0.2374574    0.7672299  
   0.388980600     0.3525166    0.7185450  
   0.390980500     0.4585975    0.6529906  
   0.392980400     0.5529654    0.5713889  
   0.394980300     0.6336591    0.4764140  
   0.396980200     0.6984541    0.3701688  
   0.398980100     0.7461365    0.2546707  
   0.400980000     0.7748550    0.1328135  
   0.402979900     0.7842728    0.0077460  
   0.404979800     0.7735471   -0.1174013  
   0.406979700     0.7436250   -0.2391412  
   0.408979600     0.6944317   -0.3544348  
   0.410979500     0.6272953   -0.4610240  
   0.412979400     0.5436915   -0.5559660  
   0.414979300     0.4462199   -0.6360581  
   0.416979200     0.3369761   -0.6994568  
   0.418979100     0.2197375   -0.7444801  
   0.420979000     0.0971787   -0.7706404  
   0.422978900    -0.0281499   -0.7764048  
   0.424978800    -0.1520203   -0.7621655  
   0.426978700    -0.2722286   -0.7286715  
   0.428978600    -0.3847654   -0.6767889  
   0.430978500    -0.4869177   -0.6088945  
   0.432978400    -0.5764398   -0.5262238  
   0.434978300    -0.6518069   -0.4316123  
   0.436978200    -0.7110620   -0.3275266  
   0.438978100    -0.7536780   -0.2160810  
   0.440978000    -0.7793227   -0.1000190  
   0.442977900    -0.7865593    0.0180111  
   0.444977800    -0.7764841    0.1352619  
   0.446977700    -0.7490803    0.2489852  
   0.448977600    -0.7055719    0.3570921  
   0.450977500    -0.6465302    0.4568931  
   0.452977400    -0.5732938    0.5475073  
   0.454977300    -0.4877847    0.6264856  
   0.456977200    -0.3905131    0.6924393  
   0.458977100    -0.2848792    0.7428012  
   0.460977000    -0.1731373    0.7769471  
   0.462976900    -0.0573732    0.7943824  
   0.464976800     0.0598417    0.7945771  
   0.466976700     0.1755939    0.7774132  
   0.468976600     0.2880604    0.7433247  
   0.470976500     0.3944314    0.6923889  
   0.472976400     0.4923428    0.6261817  
   0.474976300     0.5795278    0.5455036  
   0.476976200     0.6535962    0.4527689  
   0.478976100     0.7132670    0.3495344  
   0.480976000     0.7563086    0.2390785  
   0.482975900     0.7827157    0.1227060  
   0.484975800     0.7911377    0.0037797  
   0.486975700     0.7813193   -0.1158738  
   0.488975600     0.7531710   -0.2329572  
   0.490975500     0.7071871   -0.3446669  
   0.492975400     0.6445607   -0.4486489  
   0.494975300     0.5657670   -0.5420106  
   0.496975200     0.4734250   -0.6220829  
   0.498975100     0.3700482   -0.6866050  
   0.500975000     0.2572421   -0.7343718  
   0.502974900     0.1387873   -0.7638474  
   0.504974800     0.0168222   -0.7742949  
   0.506974700    -0.1055976   -0.7656220  
   0.508974600    -0.2257834   -0.7372087  
   0.510974500    -0.3398369   -0.6904935  
   0.512974400    -0.4449587   -0.6261395  
   0.514974300    -0.5374935   -0.5467395  
   0.516974200    -0.6162328   -0.4542067  
   0.518974100    -0.6787829   -0.3510304  
   0.520974000    -0.7241186   -0.2395534  
   0.522973900    -0.7518668   -0.1232331  
   0.524973800    -0.7606033   -0.0047067  
   0.526973700    -0.7511666    0.1137822  
   0.528973600    -0.7237519    0.2286550  
   0.530973500    -0.6785659    0.3376408  
   0.532973400    -0.6177865    0.4378505  
   0.534973300    -0.5424124    0.5274805  
   0.536973200    -0.4545861    0.6041343  
   0.538973100    -0.3566715    0.6659673  
   0.540973000    -0.2509194    0.7120035  
   0.542972900    -0.1398302    0.7416576  
   0.544972800    -0.0256652    0.7540518  
   0.546972700     0.0891191    0.7489712  
   0.548972600     0.2020602    0.7264239  
   0.550972500     0.3101792    0.6871561  
   0.552972400     0.4117458    0.6319696  
   0.554972300     0.5036023    0.5617135  
   0.556972200     0.5837276    0.4778253  
   0.558972100     0.6501752    0.3827957  
   0.560972000     0.7012975    0.2789026  
   0.562971900     0.7362275    0.1683747  
   0.564971800     0.7535498    0.0538153  
   0.566971700     0.7536280   -0.0614921  
   0.568971600     0.7358937   -0.1754310  
   0.570971500     0.7012657   -0.2855669  
   0.572971400     0.6504071   -0.3895527  
   0.574971300     0.5837101   -0.4846198  
   0.576971200     0.5030225   -0.5691820  
   0.578971100     0.4098532   -0.6405472  
   0.580971000     0.3072331   -0.6968777  
   0.582970900     0.1974113   -0.7369851  
   0.584970800     0.0832994   -0.7592163  
   0.586970700    -0.0323329   -0.7641639  
   0.588970600    -0.1475946   -0.7516060  
   0.590970500    -0.2585128   -0.7215477  
   0.592970400    -0.3642714   -0.6755736  
   0.594970300    -0.4614196   -0.6144038  
   0.596970200    -0.5480893   -0.5396566  
   0.598970100    -0.6225893   -0.4526464  
   0.600970000    -0.6834416   -0.3559074  
   0.602969900    -0.7286096   -0.2512993  
   0.604969800    -0.7578944   -0.1411735  
   0.606969700    -0.7704468   -0.0281243  
   0.608969600    -0.7660429    0.0861165  
   0.610969500    -0.7445462    0.1975427  
   0.612969400    -0.7066773    0.3046309  
   0.614969300    -0.6533943    0.4045841  
   0.616969200    -0.5863208    0.4955748  
   0.618969100    -0.5068462    0.5746415  
   0.620969000    -0.4169638    0.6409381  
   0.622968900    -0.3179544    0.6935076  
   0.624968800    -0.2123567    0.7308567  
   0.626968700    -0.1017816    0.7518732  
   0.628968600     0.0111157    0.7561105  
   0.630968500     0.1233692    0.7432659  
   0.632968400     0.2328636    0.7137429  
   0.634968300     0.3371079    0.6673259  
   0.636968200     0.4328724    0.6058192  
   0.638968100     0.5186193    0.5299364  
   0.640968000     0.5915228    0.4415061  
   0.642967900     0.6498623    0.3425723  
   0.644967800     0.6925263    0.2355743  
   0.646967700     0.7179902    0.1233609  
   0.648967600     0.7255659    0.0081914  
   0.650967500     0.7146240   -0.1060567  
   0.652967400     0.6862270   -0.2169211  
   0.654967300     0.6408007   -0.3221312  
   0.656967200     0.5793038   -0.4186973  
   0.658967100     0.5035259   -0.5044735  
   0.660967000     0.4149172   -0.5774521  
   0.662966900     0.3155057   -0.6358342  
   0.664966800     0.2080562   -0.6778028  
   0.666966700     0.0951173   -0.7023008  
   0.668966600    -0.0200650   -0.7083231  
   0.670966500    -0.1347814   -0.6961516  
   0.672966400    -0.2452365   -0.6657690  
   0.674966300    -0.3489597   -0.6187611  
   0.676966200    -0.4434980   -0.5563681  
   0.678966100    -0.5268376   -0.4801607  
   0.680966000    -0.5966479   -0.3926633  
   0.682965900    -0.6518857   -0.2955511  
   0.684965800    -0.6914609   -0.1920040  
   0.686965700    -0.7143330   -0.0834886  
   0.688965600    -0.7204274    0.0264023  
   0.690965500    -0.7101211    0.1359028  
   0.692965400    -0.6829619    0.2418906  
   0.694965300    -0.6406015    0.3420537  
   0.696965200    -0.5838286    0.4345843  
   0.698965100    -0.5138146    0.5175744  
   0.700965000    -0.4323101    0.5888520  
   0.702964900    -0.3408720    0.6470405  
   0.704964800    -0.2415902    0.6913273  
   0.706964700    -0.1367540    0.7202398  
   0.708964600    -0.0284056    0.7329258  
   0.710964500     0.0813503    0.7294413  
   0.712964400     0.1893673    0.7090777  
   0.714964300     0.2934462    0.6729572  
   0.716964200     0.3907759    0.6214418  
   0.718964100     0.4787525    0.5558193  
   0.720964000     0.5560945    0.4776864  
   0.722963900     0.6206554    0.3892502  
   0.724963800     0.6708443    0.2914002  
   0.726963700     0.7062247    0.1867353  
   0.728963600     0.7252356    0.0775988  
   0.730963500     0.7274255   -0.0337289  
   0.732963400     0.7125787   -0.1440308  
   0.734963300     0.6808844   -0.2516922  
   0.736963200     0.6248675   -0.3685081  
   0.738963100     0.5484633   -0.4741025  
   0.740963000     0.4540220   -0.5640154  
   0.742962900     0.3452964   -0.6352493  
   0.744962800     0.2251695   -0.6853117  
   0.746962700     0.0986110   -0.7127952  
   0.748962600    -0.0306084   -0.7164202  
   0.750962500     0.0611750   -0.7102392  
   0.752962400    -0.0683608   -0.7094364  
   0.754962300    -0.1949822   -0.6843620  
   0.756962200    -0.3140899   -0.6370420  
   0.758962100    -0.4218380   -0.5690115  
   0.760962000    -0.5151954   -0.4826772  
   0.762961900    -0.5879866   -0.3867164  
   0.764961800    -0.6397172   -0.2894390  
   0.766961700    -0.6754218   -0.1860535  
   0.768961600    -0.6941480   -0.0789182  
   0.770961500    -0.6964565    0.0290359  
   0.772961400    -0.6820719    0.1354792  
   0.774961300    -0.6519486    0.2372691  
   0.776961200    -0.6068611    0.3330146  
   0.778961100    -0.5478866    0.4205615  
   0.780961000    -0.4765166    0.4978785  
   0.782960900    -0.3940492    0.5634771  
   0.784960800    -0.3026697    0.6157331  
   0.786960700    -0.2042320    0.6535848  
   0.788960600    -0.1013834    0.6759707  
   0.790960500     0.0035203    0.6828938  
   0.792960400     0.1087153    0.6737491  
   0.794960300     0.2107140    0.6484503  
   0.796960200     0.3079008    0.6083082  
   0.798960100     0.3974366    0.5539085  
   0.800960000     0.4777904    0.4861373  
   0.802959900     0.5472350    0.4072600  
   0.804959800     0.6039675    0.3183968  
   0.806959700     0.6466080    0.2217716  
   0.808959600     0.6741244    0.1195204  
   0.810959500     0.6854549    0.0140649  
   0.812959400     0.6809136   -0.0925852  
   0.814959300     0.6598445   -0.1972659  
   0.816959200     0.6225979   -0.2981844  
   0.818959100     0.5702866   -0.3921346  
   0.820959000     0.5033610   -0.4774716  
   0.822958900     0.4242046   -0.5512164  
   0.824958800     0.3341520   -0.6121628  
   0.826958700     0.2357018   -0.6582944  
   0.828958600     0.1309295   -0.6887368  
   0.830958500     0.0226367   -0.7021004  
   0.832958400    -0.0861676   -0.6985090  
   0.834958300    -0.1926522   -0.6780896  
   0.836958200    -0.2944635   -0.6418198  
   0.838958100    -0.3892584   -0.5898846  
   0.840958000    -0.4744663   -0.5244592  
   0.842957900    -0.5487866   -0.4466288  
   0.844957800    -0.6098853   -0.3585913  
   0.846957700    -0.6567463   -0.2624951  
   0.848957600    -0.6880822   -0.1605461  
   0.850957500    -0.7034730   -0.0554822  
   0.852957400    -0.7026339    0.0505386  
   0.854957300    -0.6858701    0.1549233  
   0.856957200    -0.6533862    0.2551829  
   0.858957100    -0.6059884    0.3489402  
   0.860957000    -0.5455527    0.4339005  
   0.862956900    -0.4736815    0.5084072  
   0.864956800    -0.3916872    0.5701250  
   0.866956700    -0.3022449    0.6191900  
   0.868956600    -0.2067733    0.6540537  
   0.870956500    -0.1068637    0.6742941  
   0.872956400    -0.0048164    0.6796837  
   0.874956300     0.0969961    0.6693847  
   0.876956200     0.1965668    0.6437830  
   0.878956100     0.2918685    0.6032587  
   0.880956000     0.3801262    0.5481898  
   0.882955900     0.4590268    0.4798188  
   0.884955800     0.5269325    0.3999076  
   0.886955700     0.5817897    0.3099377  
   0.888955600     0.6215860    0.2121414  
   0.890955500     0.6458467    0.1090698  
   0.892955400     0.6532419    0.0030804  
   0.894955300     0.6435505   -0.1030491  
