! MS46122B
! 2250307/22442219
! 6/13/2025 8:44:51 AM
! C:\USERS\SPARKY\DOCUMENTS\VNA_DATA\JUNE13_2025\PORT3_MOS2.S1P
! CHANNEL.1
! TR.MEASUREMENT
! RAW.DATA
# GHZ S RI R 50.0
! FREQ.GHZ         S11RE         S11IM         
!; PortSelection: Port_1
   0.001000000    -0.8947856    0.0541052  
   0.002999900    -0.8653239    0.2570972  
   0.004999800    -0.8239525    0.4011342  
   0.006999700    -0.7565671    0.5273907  
   0.008999600    -0.6670734    0.6351743  
   0.010999500    -0.5599588    0.7234295  
   0.012999400    -0.4391896    0.7913489  
   0.014999300    -0.3085051    0.8378225  
   0.016999200    -0.1727806    0.8632394  
   0.018999100    -0.0346163    0.8678324  
   0.020999000     0.1021274    0.8527336  
   0.022998900     0.2342381    0.8184673  
   0.024998800     0.3318931    0.7480451  
   0.026998700     0.4748254    0.6980072  
   0.028998600     0.5786917    0.6143900  
   0.030998500     0.6687710    0.5176218  
   0.032998400     0.7096583    0.4093857  
   0.034998300     0.8004628    0.2908245  
   0.036998200     0.8388507    0.1650510  
   0.038998100     0.8576378    0.0346309  
   0.040998000     0.8557372   -0.0971746  
   0.042997900     0.8326567   -0.2270388  
   0.044997800     0.7683047   -0.3267026  
   0.046997700     0.7266671   -0.4686769  
   0.048997600     0.6467779   -0.5741881  
   0.050997500     0.5516284   -0.6656599  
   0.052997400     0.4451235   -0.7404058  
   0.054997300     0.3268025   -0.7999359  
   0.056997200     0.2020115   -0.8400251  
   0.058997100     0.0735399   -0.8610887  
   0.060997000    -0.0563297   -0.8627080  
   0.062996900    -0.1846056   -0.8451712  
   0.064996800    -0.3086559   -0.8087514  
   0.066996700    -0.4256727   -0.7541998  
   0.068996600    -0.5329694   -0.6825439  
   0.070996500    -0.6279400   -0.5958896  
   0.072996400    -0.7089326   -0.4958212  
   0.074996300    -0.7735806   -0.3848029  
   0.076996200    -0.8205743   -0.2653253  
   0.078996100    -0.8491542   -0.1401369  
   0.080996000    -0.8585497   -0.0119834  
   0.082995900    -0.8486878    0.1162681  
   0.084995800    -0.8191806    0.2415382  
   0.086995700    -0.7713755    0.3612155  
   0.088995600    -0.7057505    0.4725262  
   0.090995500    -0.6239438    0.5728003  
   0.092995400    -0.5273584    0.6596615  
   0.094995300    -0.4185754    0.7308229  
   0.096995200    -0.2992629    0.7846971  
   0.098995100    -0.1731420    0.8193612  
   0.100995000    -0.0421992    0.8336731  
   0.102994900     0.0889639    0.8272783  
   0.104994800     0.2180987    0.8001779  
   0.106994700     0.3414655    0.7527747  
   0.108994600     0.4560071    0.6866414  
   0.110994500     0.5585608    0.6028689  
   0.112994400     0.6464346    0.5036475  
   0.114994300     0.7173419    0.3919376  
   0.116994200     0.7695166    0.2704039  
   0.118994100     0.8017431    0.1420424  
   0.120994000     0.8127941    0.0105882  
   0.122993900     0.8028420   -0.1205746  
   0.124993800     0.7722574   -0.2481201  
   0.126993700     0.7219032   -0.3686713  
   0.128993600     0.6534039   -0.4798097  
   0.130993500     0.5683838   -0.5778015  
   0.132993400     0.4696393   -0.6606585  
   0.134993300     0.3595509   -0.7268710  
   0.136993200     0.2413318   -0.7746270  
   0.138993100     0.1174225   -0.8034137  
   0.140993000    -0.0081245   -0.8124090  
   0.142992900    -0.1335625   -0.8022477  
   0.144992800    -0.2547562   -0.7731254  
   0.146992700    -0.3699054   -0.7261673  
   0.148992600    -0.4757185   -0.6626269  
   0.150992500    -0.5706406   -0.5841039  
   0.152992400    -0.6519899   -0.4923963  
   0.154992300    -0.7184205   -0.3902636  
   0.156992200    -0.7688869   -0.2794464  
   0.158992100    -0.8023580   -0.1627763  
   0.160992000    -0.8179849   -0.0426790  
   0.162991900    -0.8157109    0.0779124  
   0.164991800    -0.7954589    0.1973394  
   0.166991700    -0.7579037    0.3117703  
   0.168991600    -0.7039006    0.4195940  
   0.170991500    -0.6341727    0.5187902  
   0.172991400    -0.5507783    0.6059558  
   0.174991300    -0.4550654    0.6801147  
   0.176991200    -0.3487250    0.7394328  
   0.178991100    -0.2347695    0.7824838  
   0.180991000    -0.1154192    0.8078982  
   0.182990900     0.0066084    0.8151579  
   0.184990800     0.1292189    0.8038132  
   0.186990700     0.2497445    0.7741241  
   0.188990600     0.3422201    0.7363903  
   0.190990500     0.4660990    0.6631168  
   0.192990400     0.5639993    0.5802968  
   0.194990300     0.6457575    0.4851978  
   0.196990200     0.7118080    0.3791892  
   0.198990100     0.7605357    0.2635687  
   0.200990000     0.7911913    0.1413267  
   0.202989900     0.8020375    0.0152898  
   0.204989800     0.7930205   -0.1111339  
   0.206989700     0.7644072   -0.2342016  
   0.208989600     0.7166760   -0.3509182  
   0.210989500     0.6508947   -0.4593591  
   0.212989400     0.5686662   -0.5562775  
   0.214989300     0.4722972   -0.6386143  
   0.216989200     0.3646657   -0.7040595  
   0.218989100     0.2483553   -0.7516884  
   0.220989000     0.1260689   -0.7804350  
   0.222988900     0.0006675   -0.7893965  
   0.224988800    -0.1241957   -0.7784745  
   0.226988700    -0.2451421   -0.7476882  
   0.228988600    -0.3590662   -0.6989368  
   0.230988500    -0.4634780   -0.6330566  
   0.232988400    -0.5561449   -0.5517580  
   0.234988300    -0.6347443   -0.4570632  
   0.236988200    -0.6973434   -0.3513542  
   0.238988100    -0.7426071   -0.2376996  
   0.240988000    -0.7692243   -0.1190663  
   0.242987900    -0.7770500    0.0015520  
   0.244987800    -0.7662407    0.1213886  
   0.246987700    -0.7368133    0.2383985  
   0.248987600    -0.6897156    0.3496524  
   0.250987500    -0.6260629    0.4519678  
   0.252987400    -0.5472934    0.5430308  
   0.254987300    -0.4559289    0.6203377  
   0.256987200    -0.3542234    0.6824806  
   0.258987100    -0.2441766    0.7284886  
   0.260987000    -0.1278790    0.7569202  
   0.262986900    -0.0082420    0.7669983  
   0.264986800     0.1120167    0.7586120  
   0.266986700     0.2292998    0.7314477  
   0.268986600     0.3410755    0.6865965  
   0.270986500     0.4440871    0.6256180  
   0.272986400     0.5365996    0.5486887  
   0.274986300     0.6163589    0.4585023  
   0.276986200     0.6812953    0.3569403  
   0.278986100     0.7300876    0.2459840  
   0.280986000     0.7608465    0.1282034  
   0.282985900     0.7728634    0.0065915  
   0.284985800     0.7658949   -0.1152111  
   0.286985700     0.7399828   -0.2345582  
   0.288985600     0.6955582   -0.3477952  
   0.290985500     0.6345409   -0.4522872  
   0.292985400     0.5582057   -0.5461314  
   0.294985300     0.4681276   -0.6267880  
   0.296985200     0.3661987   -0.6928400  
   0.298985100     0.2549413   -0.7424609  
   0.300985000     0.1369270   -0.7739469  
   0.302984900     0.0160847   -0.7864692  
   0.304984800    -0.1051451   -0.7803833  
   0.306984700    -0.2232816   -0.7555832  
   0.308984600    -0.3350506   -0.7129846  
   0.310984500    -0.4384561   -0.6544549  
   0.312984400    -0.5314150   -0.5814108  
   0.314984300    -0.6117359   -0.4950150  
   0.316984200    -0.6780081   -0.3976658  
   0.318984100    -0.7288074   -0.2912394  
   0.320984000    -0.7631277   -0.1776460  
   0.322983900    -0.7796131   -0.0602276  
   0.324983800    -0.7777996    0.0580213  
   0.326983700    -0.7582839    0.1744287  
   0.328983600    -0.7212708    0.2858481  
   0.330983500    -0.6677161    0.3902167  
   0.332983400    -0.5995486    0.4845456  
   0.334983300    -0.5180269    0.5672482  
   0.336983200    -0.4249294    0.6368161  
   0.338983100    -0.3223505    0.6917924  
   0.340983000    -0.2128871    0.7298929  
   0.342982900    -0.0984399    0.7512823  
   0.344982800     0.0185537    0.7548463  
   0.346982700     0.1354904    0.7402397  
   0.348982600     0.2493588    0.7077129  
   0.350982500     0.3571906    0.6575642  
   0.352982400     0.4558939    0.5908993  
   0.354982300     0.5463674    0.5059448  
   0.356982200     0.6288769    0.3957619  
   0.358982100     0.6896572    0.2729650  
   0.360982000     0.7274475    0.1413901  
   0.362981900     0.7410967    0.0053088  
   0.364981800     0.7292161   -0.1315662  
   0.366981700     0.6931496   -0.2640550  
   0.368981600     0.6331192   -0.3880846  
   0.370981500     0.5516515   -0.4991883  
   0.372981400     0.4505954   -0.5932740  
   0.374981300     0.3337727   -0.6677299  
   0.376981200     0.4223795   -0.6083660  
   0.378981100     0.3031943   -0.6777815  
   0.380981000     0.1734297   -0.7241058  
   0.382980900     0.0497913   -0.7446561  
   0.384980800    -0.0699671   -0.7448531  
   0.386980700    -0.1880697   -0.7260582  
   0.388980600    -0.3012276   -0.6889101  
   0.390980500    -0.4057252   -0.6348615  
   0.392980400    -0.5001918   -0.5658634  
   0.394980300    -0.5820963   -0.4838937  
   0.396980200    -0.6498473   -0.3913589  
   0.398980100    -0.7030097   -0.2893744  
   0.400980000    -0.7395474   -0.1818409  
   0.402979900    -0.7596838   -0.0697641  
   0.404979800    -0.7626860    0.0431198  
   0.406979700    -0.7489028    0.1545801  
   0.408979600    -0.7188238    0.2626742  
   0.410979500    -0.6728569    0.3655351  
   0.412979400    -0.6122105    0.4603901  
   0.414979300    -0.5375815    0.5457467  
   0.416979200    -0.4513782    0.6190725  
   0.418979100    -0.3552286    0.6781639  
   0.420979000    -0.2511079    0.7223893  
   0.422978900    -0.1411128    0.7508050  
   0.424978800    -0.0277754    0.7625593  
   0.426978700     0.0868012    0.7569047  
   0.428978600     0.1994086    0.7337291  
   0.430978500     0.3071876    0.6938740  
   0.432978400     0.4075204    0.6378141  
   0.434978300     0.4984276    0.5670357  
   0.436978200     0.5778124    0.4827372  
   0.438978100     0.6435118    0.3867857  
   0.440978000     0.6934456    0.2813364  
   0.442977900     0.7265707    0.1688932  
   0.444977800     0.7415599    0.0520354  
   0.446977700     0.7379810   -0.0656284  
   0.448977600     0.7158589   -0.1819191  
   0.450977500     0.6752190   -0.2932885  
   0.452977400     0.6170404   -0.3970506  
   0.454977300     0.5423309   -0.4914009  
   0.456977200     0.4528809   -0.5721855  
   0.458977100     0.3510492   -0.6373165  
   0.460977000     0.2399399   -0.6852011  
   0.462976900     0.1232157   -0.7139227  
   0.464976800     0.0033984   -0.7231618  
   0.466976700    -0.1161406   -0.7126361  
   0.468976600    -0.2318594   -0.6830663  
   0.470976500    -0.3407855   -0.6351544  
   0.472976400    -0.4402370   -0.5704908  
   0.474976300    -0.5271671   -0.4911420  
   0.476976200    -0.5999904   -0.3993291  
   0.478976100    -0.6564643   -0.2980607  
   0.480976000    -0.6961026   -0.1900560  
   0.482975900    -0.7180369   -0.0778929  
   0.484975800    -0.7221638    0.0353076  
   0.486975700    -0.7088563    0.1475084  
   0.488975600    -0.6786285    0.2557911  
   0.490975500    -0.6317983    0.3579136  
   0.492975400    -0.5705538    0.4513414  
   0.494975300    -0.4956071    0.5344113  
   0.496975200    -0.4088617    0.6049262  
   0.498975100    -0.3131436    0.6610544  
   0.500975000    -0.2099726    0.7021622  
   0.502974900    -0.1021340    0.7270359  
   0.504974800     0.0086216    0.7353157  
   0.506974700     0.1196443    0.7266626  
   0.508974600     0.2291551    0.7010474  
   0.510974500     0.3335125    0.6588779  
   0.512974400     0.4301469    0.6011155  
   0.514974300     0.5170873    0.5293571  
   0.516974200     0.5924196    0.4448877  
   0.518974100     0.6538277    0.3500616  
   0.520974000     0.6999147    0.2463800  
   0.522973900     0.7297347    0.1367140  
   0.524973800     0.7423217    0.0234839  
   0.526973700     0.7372795   -0.0909001  
   0.528973600     0.7146205   -0.2036370  
   0.530973500     0.6744069   -0.3117488  
   0.532973400     0.6175222   -0.4127519  
   0.534973300     0.5456069   -0.5038033  
   0.536973200     0.4598867   -0.5825719  
   0.538973100     0.3632108   -0.6469693  
   0.540973000     0.2578608   -0.6951421  
   0.542972900     0.1463032   -0.7263973  
   0.544972800     0.0311380   -0.7398660  
   0.546972700    -0.0849173   -0.7348770  
   0.548972600    -0.1993408   -0.7119799  
   0.550972500    -0.3083324   -0.6713173  
   0.552972400    -0.4098185   -0.6137168  
   0.554972300    -0.5007873   -0.5408222  
   0.556972200    -0.5791811   -0.4546366  
   0.558972100    -0.6426308   -0.3572805  
   0.560972000    -0.6898837   -0.2514760  
   0.562971900    -0.7197089   -0.1401109  
   0.564971800    -0.7316260   -0.0257557  
   0.566971700    -0.7254520    0.0882463  
   0.568971600    -0.7016634    0.1994482  
   0.570971500    -0.6607705    0.3055952  
   0.572971400    -0.6039333    0.4039923  
   0.574971300    -0.5322004    0.4922408  
   0.576971200    -0.4474913    0.5682545  
   0.578971100    -0.3514303    0.6300502  
   0.580971000    -0.2469318    0.6759318  
   0.582970900    -0.1368747    0.7045997  
   0.584970800    -0.0237658    0.7158374  
   0.586970700     0.0892508    0.7088865  
   0.588970600     0.2001889    0.6841252  
   0.590970500     0.3055401    0.6421061  
   0.592970400     0.4028676    0.5840416  
   0.594970300     0.4901116    0.5111967  
   0.596970200     0.5646361    0.4248837  
   0.598970100     0.6247739    0.3281676  
   0.600970000     0.6687271    0.2226940  
   0.602969900     0.6951877    0.1110073  
   0.604969800     0.7033641   -0.0039116  
   0.606969700     0.6931773   -0.1186866  
   0.608969600     0.6645952   -0.2308575  
   0.610969500     0.6180387   -0.3373663  
   0.612969400     0.5547256   -0.4344181  
   0.614969300     0.4768312   -0.5202035  
   0.616969200     0.3868544   -0.5917497  
   0.618969100     0.2866211   -0.6477790  
   0.620969000     0.1798614   -0.6870062  
   0.622968900     0.0678021   -0.7087226  
   0.624968800    -0.0460865   -0.7126161  
   0.626968700    -0.1591316   -0.6987392  
   0.628968600    -0.2685853   -0.6672829  
   0.630968500    -0.3715929   -0.6190183  
   0.632968400    -0.4656376   -0.5555508  
   0.634968300    -0.5482012   -0.4782340  
   0.636968200    -0.6176391   -0.3892031  
   0.638968100    -0.6725662   -0.2910067  
   0.640968000    -0.7114801   -0.1858282  
   0.642967900    -0.7338344   -0.0763068  
   0.644967800    -0.7388367    0.0351980  
   0.646967700    -0.7272649    0.1457669  
   0.648967600    -0.6991394    0.2525427  
   0.650967500    -0.6555331    0.3536167  
   0.652967400    -0.5973924    0.4470143  
   0.654967300    -0.5262585    0.5301833  
   0.656967200    -0.4435427    0.6014966  
   0.658967100    -0.3515623    0.6600577  
   0.660967000    -0.2514594    0.7042441  
   0.662966900    -0.1450747    0.7329314  
   0.664966800    -0.0350817    0.7451978  
   0.666966700     0.0763531    0.7411401  
   0.668966600     0.1858895    0.7203332  
   0.670966500     0.2917327    0.6825083  
   0.672966400     0.3901139    0.6287665  
   0.674966300     0.4794100    0.5608653  
   0.676966200     0.5580667    0.4796109  
   0.678966100     0.6229168    0.3875469  
   0.680966000     0.6728802    0.2860774  
   0.682965900     0.7066742    0.1778636  
   0.684965800     0.7235079    0.0659228  
   0.686965700     0.7222840   -0.0483116  
   0.688965600     0.7030477   -0.1610724  
   0.690965500     0.6666437   -0.2697007  
   0.692965400     0.6130874   -0.3715281  
   0.694965300     0.5448667   -0.4631163  
   0.696965200     0.4620105   -0.5432224  
   0.698965100     0.3676802   -0.6090280  
   0.700965000     0.2640454   -0.6590647  
   0.702964900     0.1536482   -0.6918672  
   0.704964800     0.0394565   -0.7066934  
   0.706964700    -0.0755848   -0.7029144  
   0.708964600    -0.1881118   -0.6809431  
   0.710964500    -0.2961403   -0.6411712  
   0.712964400    -0.3954560   -0.5849258  
   0.714964300    -0.4843825   -0.5132183  
   0.716964200    -0.5604244   -0.4293347  
   0.718964100    -0.6214390   -0.3351240  
   0.720964000    -0.6667339   -0.2330689  
   0.722963900    -0.6955659   -0.1261064  
   0.724963800    -0.7075517   -0.0167006  
   0.726963700    -0.7023456    0.0931009  
   0.728963600    -0.6805496    0.2002782  
   0.730963500    -0.6428028    0.3023984  
   0.732963400    -0.5899618    0.3973715  
   0.734963300    -0.5235402    0.4831797  
   0.736963200    -0.4309940    0.5670873  
   0.738963100    -0.3245769    0.6344488  
   0.740963000    -0.2074580    0.6823324  
   0.742962900    -0.0839024    0.7089745  
   0.744962800     0.0432178    0.7141267  
   0.746962700     0.1692993    0.6968517  
   0.748962600     0.2911941    0.6575661  
   0.750962500     0.1694457    0.6969743  
   0.752962400     0.2903905    0.6563437  
   0.754962300     0.4025140    0.5950897  
   0.756962200     0.5025183    0.5146507  
   0.758962100     0.5867941    0.4178941  
   0.760962000     0.6534544    0.3075491  
   0.762961900     0.6978028    0.1926835  
   0.764961800     0.7203703    0.0831954  
   0.766961700     0.7255902   -0.0286812  
   0.768961600     0.7135129   -0.1408748  
   0.770961500     0.6840832   -0.2495406  
   0.772961400     0.6380550   -0.3529854  
   0.774961300     0.5764381   -0.4479583  
   0.776961200     0.5003625   -0.5325822  
   0.778961100     0.4114817   -0.6044179  
   0.780961000     0.3124188   -0.6619845  
   0.782960900     0.2050631   -0.7031062  
   0.784960800     0.0919593   -0.7272068  
   0.786960700    -0.0237564   -0.7325301  
   0.788960600    -0.1387148   -0.7196155  
   0.790960500    -0.2498692   -0.6884246  
   0.792960400    -0.3544675   -0.6401017  
   0.794960300    -0.4495381   -0.5760561  
   0.796960200    -0.5331694   -0.4982102  
   0.798960100    -0.6029532   -0.4085924  
   0.800960000    -0.6574726   -0.3098240  
   0.802959900    -0.6958084   -0.2038986  
   0.804959800    -0.7168868   -0.0944606  
   0.806959700    -0.7209503    0.0163760  
   0.808959600    -0.7075883    0.1261920  
   0.810959500    -0.6780831    0.2319473  
   0.812959400    -0.6327770    0.3315065  
   0.814959300    -0.5731902    0.4226566  
   0.816959200    -0.5004097    0.5031183  
   0.818959100    -0.4165047    0.5715396  
   0.820959000    -0.3229882    0.6263354  
   0.822958900    -0.2228187    0.6663791  
   0.824958800    -0.1174361    0.6904696  
   0.826958700    -0.0096292    0.6981450  
   0.828958600     0.0982911    0.6891865  
   0.830958500     0.2036175    0.6639105  
   0.832958400     0.3038339    0.6231887  
   0.834958300     0.3967830    0.5673278  
   0.836958200     0.4798239    0.4976258  
   0.838958100     0.5517398    0.4158650  
   0.840958000     0.6102938    0.3234413  
   0.842957900     0.6539303    0.2225676  
   0.844957800     0.6817663    0.1157337  
   0.846957700     0.6926608    0.0051746  
   0.848957600     0.6855680   -0.1057985  
   0.850957500     0.6613656   -0.2148869  
   0.852957400     0.6196756   -0.3189477  
   0.854957300     0.5618236   -0.4155905  
   0.856957200     0.4896056   -0.5015476  
   0.858957100     0.4043975   -0.5750248  
   0.860957000     0.3088067   -0.6340162  
   0.862956900     0.2056096   -0.6772107  
   0.864956800     0.0972782   -0.7035078  
   0.866956700    -0.0135704   -0.7127932  
   0.868956600    -0.1240133   -0.7045084  
   0.870956500    -0.2316613   -0.6794672  
   0.872956400    -0.3341843   -0.6382229  
   0.874956300    -0.4285256   -0.5817505  
   0.876956200    -0.5132191   -0.5116343  
   0.878956100    -0.5859233   -0.4291030  
   0.880956000    -0.6452713   -0.3369846  
   0.882955900    -0.6894787   -0.2371192  
   0.884955800    -0.7182844   -0.1320407  
   0.886955700    -0.7306488   -0.0238344  
   0.888955600    -0.7264894    0.0844452  
   0.890955500    -0.7061368    0.1908024  
   0.892955400    -0.6702119    0.2924890  
   0.894955300    -0.6195088    0.3876098  
