! MS46122B
! 2250307/22442219
! 6/18/2025 1:26:24 PM
! C:\USERS\SPARKY\DOCUMENTS\VNA_DATA\JUNE18_2025\295K\PORT4_MOS5.S1P
! CHANNEL.1
! TR.MEASUREMENT
! RAW.DATA
# GHZ S RI R 50.0
! FREQ.GHZ         S11RE         S11IM         
!; PortSelection: Port_1
   0.001000000    -0.8945030    0.0553645  
   0.002999900    -0.8645766    0.2603633  
   0.004999800    -0.8219063    0.4058326  
   0.006999700    -0.7526284    0.5331476  
   0.008999600    -0.6609507    0.6417944  
   0.010999500    -0.5512396    0.7302775  
   0.012999400    -0.4278027    0.7975006  
   0.014999300    -0.2946608    0.8426711  
   0.016999200    -0.1563952    0.8661267  
   0.018999100    -0.0162279    0.8682275  
   0.020999000     0.1218090    0.8499917  
   0.022998900     0.2548963    0.8121589  
   0.024998800     0.3523831    0.7385873  
   0.026998700     0.4955048    0.6837649  
   0.028998600     0.5981099    0.5961779  
   0.030998500     0.6861852    0.4952303  
   0.032998400     0.7245187    0.3839686  
   0.034998300     0.8117748    0.2608678  
   0.036998200     0.8459000    0.1319467  
   0.038998100     0.8594403   -0.0009501  
   0.040998000     0.8517995   -0.1343301  
   0.042997900     0.8223940   -0.2652244  
   0.044997800     0.7529062   -0.3633155  
   0.046997700     0.7033611   -0.5049189  
   0.048997600     0.6170045   -0.6073385  
   0.050997500     0.5159060   -0.6949106  
   0.052997400     0.4046920   -0.7646340  
   0.054997300     0.2806707   -0.8182968  
   0.056997200     0.1521927   -0.8514923  
   0.058997100     0.0208118   -0.8650495  
   0.060997000    -0.1106491   -0.8583537  
   0.062996900    -0.2394849   -0.8322784  
   0.064996800    -0.3625666   -0.7870585  
   0.066996700    -0.4770843   -0.7236161  
   0.068996600    -0.5805303   -0.6434115  
   0.070996500    -0.6704317   -0.5483871  
   0.072996400    -0.7445456   -0.4410817  
   0.074996300    -0.8011767   -0.3236134  
   0.076996200    -0.8391612   -0.1986993  
   0.078996100    -0.8575194   -0.0695551  
   0.080996000    -0.8560467    0.0609454  
   0.082995900    -0.8346283    0.1898495  
   0.084995800    -0.7934968    0.3143227  
   0.086995700    -0.7337091    0.4308769  
   0.088995600    -0.6565562    0.5374153  
   0.090995500    -0.5637941    0.6306851  
   0.092995400    -0.4571413    0.7085709  
   0.094995300    -0.3392361    0.7695099  
   0.096995200    -0.2130930    0.8110973  
   0.098995100    -0.0814086    0.8317919  
   0.100995000     0.0524942    0.8317727  
   0.102994900     0.1842395    0.8097259  
   0.104994800     0.3114721    0.7670656  
   0.106994700     0.4302610    0.7041399  
   0.108994600     0.5374295    0.6231484  
   0.110994500     0.6301606    0.5256990  
   0.112994400     0.7057938    0.4144618  
   0.114994300     0.7624021    0.2925467  
   0.116994200     0.7987123    0.1632128  
   0.118994100     0.8133020    0.0301231  
   0.120994000     0.8061681   -0.1032434  
   0.122993900     0.7776382   -0.2334982  
   0.124993800     0.7288833   -0.3568478  
   0.126993700     0.6608754   -0.4704222  
   0.128993600     0.5761974   -0.5714582  
   0.130993500     0.4769664   -0.6568019  
   0.132993400     0.3659446   -0.7251642  
   0.134993300     0.2459785   -0.7745613  
   0.136993200     0.1204759   -0.8043500  
   0.138993100    -0.0071941   -0.8139120  
   0.140993000    -0.1343841   -0.8036661  
   0.142992900    -0.2576234   -0.7739196  
   0.144992800    -0.3741258   -0.7256959  
   0.146992700    -0.4814645   -0.6606495  
   0.148992600    -0.5771422   -0.5802386  
   0.150992500    -0.6587194   -0.4863572  
   0.152992400    -0.7253053   -0.3816504  
   0.154992300    -0.7748835   -0.2685891  
   0.156992200    -0.8070156   -0.1494372  
   0.158992100    -0.8205752   -0.0270354  
   0.160992000    -0.8158736    0.0956756  
   0.162991900    -0.7926216    0.2163107  
   0.164991800    -0.7513710    0.3321976  
   0.166991700    -0.6934073    0.4403151  
   0.168991600    -0.6198263    0.5389171  
   0.170991500    -0.5315980    0.6254539  
   0.172991400    -0.4314958    0.6974674  
   0.174991300    -0.3214000    0.7537833  
   0.176991200    -0.2035572    0.7930869  
   0.178991100    -0.0803831    0.8138565  
   0.180991000     0.0445767    0.8156104  
   0.182990900     0.1686052    0.7983247  
   0.184990800     0.2895615    0.7614157  
   0.186990700     0.4040819    0.7062574  
   0.188990600     0.4893826    0.6481946  
   0.190990500     0.5971967    0.5482005  
   0.192990400     0.6767704    0.4438354  
   0.194990300     0.7372808    0.3303795  
   0.196990200     0.7789768    0.2090192  
   0.198990100     0.8008798    0.0824461  
   0.200990000     0.8022076   -0.0468046  
   0.202989900     0.7827092   -0.1751252  
   0.204989800     0.7431312   -0.2984208  
   0.206989700     0.6842791   -0.4133624  
   0.208989600     0.6075972   -0.5172416  
   0.210989500     0.5151548   -0.6079019  
   0.212989400     0.4089704   -0.6823065  
   0.214989300     0.2926967   -0.7383751  
   0.216989200     0.1694898   -0.7745549  
   0.218989100     0.0425546   -0.7907137  
   0.220989000    -0.0849988   -0.7861748  
   0.222988900    -0.2103234   -0.7613435  
   0.224988800    -0.3297159   -0.7163259  
   0.226988700    -0.4396071   -0.6533531  
   0.228988600    -0.5375845   -0.5741715  
   0.230988500    -0.6211761   -0.4806165  
   0.232988400    -0.6888129   -0.3753725  
   0.234988300    -0.7386640   -0.2605605  
   0.236988200    -0.7696959   -0.1395716  
   0.238988100    -0.7811106   -0.0156881  
   0.240988000    -0.7725356    0.1075995  
   0.242987900    -0.7450516    0.2275878  
   0.244987800    -0.6994035    0.3412592  
   0.246987700    -0.6360497    0.4466940  
   0.248987600    -0.5568908    0.5411038  
   0.250987500    -0.4637277    0.6219131  
   0.252987400    -0.3592041    0.6867222  
   0.254987300    -0.2464407    0.7343338  
   0.256987200    -0.1278745    0.7633927  
   0.258987100    -0.0060524    0.7738053  
   0.260987000     0.1162652    0.7649453  
   0.262986900     0.2362928    0.7369657  
   0.264986800     0.3506711    0.6901563  
   0.266986700     0.4565732    0.6259159  
   0.268986600     0.5507492    0.5457353  
   0.270986500     0.6311859    0.4518481  
   0.272986400     0.6957411    0.3465964  
   0.274986300     0.7432014    0.2323891  
   0.276986200     0.7718844    0.1115561  
   0.278986100     0.7813961   -0.0127409  
   0.280986000     0.7708495   -0.1373637  
   0.282985900     0.7408500   -0.2591455  
   0.284985800     0.6913668   -0.3746561  
   0.286985700     0.6244687   -0.4806333  
   0.288985600     0.5420555   -0.5742813  
   0.290985500     0.4461071   -0.6532717  
   0.292985400     0.3393238   -0.7160422  
   0.294985300     0.2237819   -0.7612317  
   0.296985200     0.1024648   -0.7877907  
   0.298985100    -0.0220541   -0.7951466  
   0.300985000    -0.1461478   -0.7821878  
   0.302984900    -0.2664273   -0.7501552  
   0.304984800    -0.3794561   -0.6994832  
   0.306984700    -0.4828234   -0.6321828  
   0.308984600    -0.5736822   -0.5506328  
   0.310984500    -0.6501546   -0.4561621  
   0.312984400    -0.7109249   -0.3516415  
   0.314984300    -0.7550052   -0.2393130  
   0.316984200    -0.7807917   -0.1219176  
   0.318984100    -0.7886626   -0.0008978  
   0.320984000    -0.7773334    0.1197743  
   0.322983900    -0.7476031    0.2376971  
   0.324983800    -0.6998127    0.3491575  
   0.326983700    -0.6352684    0.4516190  
   0.328983600    -0.5557181    0.5429988  
   0.330983500    -0.4631691    0.6204827  
   0.332983400    -0.3606333    0.6824311  
   0.334983300    -0.2493001    0.7277108  
   0.336983200    -0.1323691    0.7552617  
   0.338983100    -0.0125504    0.7641816  
   0.340983000     0.1073918    0.7543054  
   0.342982900     0.2248489    0.7258272  
   0.344982800     0.3367559    0.6788750  
   0.346982700     0.4408140    0.6143549  
   0.348982600     0.5336015    0.5337044  
   0.350982500     0.6126205    0.4390115  
   0.352982400     0.6752427    0.3321488  
   0.354982300     0.7215127    0.2117911  
   0.356982200     0.7485374    0.0718235  
   0.358982100     0.7489985   -0.0702927  
   0.360982000     0.7231675   -0.2099852  
   0.362981900     0.6720405   -0.3421100  
   0.364981800     0.5972204   -0.4630717  
   0.366981700     0.5010495   -0.5679931  
   0.368981600     0.3868318   -0.6531550  
   0.370981500     0.2592462   -0.7154710  
   0.372981400     0.1217314   -0.7530726  
   0.374981300    -0.0204206   -0.7641175  
   0.376981200     0.0897428   -0.7553095  
   0.378981100    -0.0520484   -0.7613024  
   0.380981000    -0.1926121   -0.7409813  
   0.382980900    -0.3145886   -0.7003285  
   0.384980800    -0.4232978   -0.6428242  
   0.386980700    -0.5212188   -0.5687643  
   0.388980600    -0.6054199   -0.4808865  
   0.390980500    -0.6742346   -0.3814684  
   0.392980400    -0.7266408   -0.2736795  
   0.394980300    -0.7609710   -0.1599924  
   0.396980200    -0.7776372   -0.0429658  
   0.398980100    -0.7761652    0.0751614  
   0.400980000    -0.7568591    0.1906580  
   0.402979900    -0.7201682    0.3023726  
   0.404979800    -0.6672785    0.4063123  
   0.406979700    -0.5995198    0.5011336  
   0.408979600    -0.5181531    0.5845731  
   0.410979500    -0.4249021    0.6554019  
   0.412979400    -0.3210229    0.7111641  
   0.414979300    -0.2097023    0.7508426  
   0.416979200    -0.0932780    0.7726787  
   0.418979100     0.0252213    0.7769108  
   0.420979000     0.1434834    0.7624360  
   0.422978900     0.2588750    0.7296835  
   0.424978800     0.3683753    0.6791977  
   0.426978700     0.4691529    0.6115549  
   0.428978600     0.5580639    0.5285059  
   0.430978500     0.6331505    0.4321963  
   0.432978400     0.6919029    0.3250983  
   0.434978300     0.7326431    0.2093991  
   0.436978200     0.7544026    0.0885152  
   0.438978100     0.7566597   -0.0351194  
   0.440978000     0.7384834   -0.1577888  
   0.442977900     0.7004305   -0.2760015  
   0.444977800     0.6437616   -0.3867701  
   0.446977700     0.5691044   -0.4868552  
   0.448977600     0.4794381   -0.5728883  
   0.450977500     0.3764218   -0.6439505  
   0.452977400     0.2628232   -0.6965289  
   0.454977300     0.1416900   -0.7296206  
   0.456977200     0.0164437   -0.7422491  
   0.458977100    -0.1092780   -0.7336505  
   0.460977000    -0.2310613   -0.7041737  
   0.462976900    -0.3456436   -0.6558327  
   0.464976800    -0.4501199   -0.5891679  
   0.466976700    -0.5420066   -0.5065943  
   0.468976600    -0.6185871   -0.4106034  
   0.470976500    -0.6783307   -0.3039958  
   0.472976400    -0.7198254   -0.1897749  
   0.474976300    -0.7422429   -0.0711307  
   0.476976200    -0.7453345    0.0489168  
   0.478976100    -0.7292739    0.1671743  
   0.480976000    -0.6953622    0.2799225  
   0.482975900    -0.6443275    0.3853253  
   0.484975800    -0.5780892    0.4813456  
   0.486975700    -0.4980533    0.5660881  
   0.488975600    -0.4060062    0.6368470  
   0.490975500    -0.3043572    0.6930779  
   0.492975400    -0.1951455    0.7329758  
   0.494975300    -0.0812253    0.7556837  
   0.496975200     0.0349201    0.7606303  
   0.498975100     0.1506117    0.7477087  
   0.500975000     0.2631100    0.7172969  
   0.502974900     0.3695844    0.6701574  
   0.504974800     0.4678127    0.6068040  
   0.506974700     0.5559879    0.5285207  
   0.508974600     0.6317617    0.4364999  
   0.510974500     0.6924473    0.3334901  
   0.512974400     0.7367001    0.2214848  
   0.514974300     0.7626001    0.1039995  
   0.516974200     0.7696397   -0.0164157  
   0.518974100     0.7577431   -0.1366502  
   0.520974000     0.7271158   -0.2541148  
   0.522973900     0.6777362   -0.3651929  
   0.524973800     0.6115203   -0.4674897  
   0.526973700     0.5292034   -0.5585316  
   0.528973600     0.4335982   -0.6349777  
   0.530973500     0.3259605   -0.6960447  
   0.532973400     0.2104413   -0.7384149  
   0.534973300     0.0892493   -0.7620897  
   0.536973200    -0.0347102   -0.7657321  
   0.538973100    -0.1566094   -0.7496805  
   0.540973000    -0.2741522   -0.7139837  
   0.542972900    -0.3843824   -0.6601710  
   0.544972800    -0.4840922   -0.5895487  
   0.546972700    -0.5714563   -0.5036845  
   0.548972600    -0.6439515   -0.4050411  
   0.550972500    -0.6997090   -0.2961761  
   0.552972400    -0.7370819   -0.1798926  
   0.554972300    -0.7553335   -0.0591591  
   0.556972200    -0.7540551    0.0626399  
   0.558972100    -0.7331180    0.1826064  
   0.560972000    -0.6933832    0.2967280  
   0.562971900    -0.6360402    0.4030055  
   0.564971800    -0.5629628    0.4982370  
   0.566971700    -0.4757459    0.5803660  
   0.568971600    -0.3770397    0.6473011  
   0.570971500    -0.2692660    0.6978160  
   0.572971400    -0.1547222    0.7305676  
   0.574971300    -0.0360164    0.7445830  
   0.576971200     0.0841505    0.7395010  
   0.578971100     0.2018568    0.7153144  
   0.580971000     0.3143192    0.6721044  
   0.582970900     0.4183766    0.6115932  
   0.584970800     0.5110355    0.5353723  
   0.586970700     0.5902143    0.4454766  
   0.588970600     0.6542023    0.3437457  
   0.590970500     0.7009295    0.2331658  
   0.592970400     0.7294173    0.1164039  
   0.594970300     0.7387353   -0.0038430  
   0.596970200     0.7286118   -0.1234873  
   0.598970100     0.6994358   -0.2408928  
   0.600970000     0.6516302   -0.3516890  
   0.602969900     0.5866072   -0.4538503  
   0.604969800     0.5058743   -0.5443445  
   0.606969700     0.4113279   -0.6206232  
   0.608969600     0.3062129   -0.6809803  
   0.610969500     0.1921163   -0.7237029  
   0.612969400     0.0731589   -0.7472748  
   0.614969300    -0.0476089   -0.7514807  
   0.616969200    -0.1669533   -0.7367780  
   0.618969100    -0.2814252   -0.7031974  
   0.620969000    -0.3884806   -0.6527842  
   0.622968900    -0.4866025   -0.5864282  
   0.624968800    -0.5731165   -0.5058601  
   0.626968700    -0.6459408   -0.4132386  
   0.628968600    -0.7034133   -0.3103645  
   0.630968500    -0.7448025   -0.2002497  
   0.632968400    -0.7685357   -0.0852287  
   0.634968300    -0.7741736    0.0318643  
   0.636968200    -0.7622962    0.1482517  
   0.638968100    -0.7327873    0.2609540  
   0.640968000    -0.6863152    0.3680606  
   0.642967900    -0.6243578    0.4664564  
   0.644967800    -0.5483239    0.5543303  
   0.646967700    -0.4599423    0.6296929  
   0.648967600    -0.3611909    0.6905994  
   0.650967500    -0.2550471    0.7360199  
   0.652967400    -0.1434859    0.7647916  
   0.654967300    -0.0285139    0.7765135  
   0.656967200     0.0865287    0.7707550  
   0.658967100     0.1998321    0.7475650  
   0.660967000     0.3086928    0.7072061  
   0.662966900     0.4109558    0.6503400  
   0.664966800     0.5039638    0.5779266  
   0.666966700     0.5853597    0.4911064  
   0.668966600     0.6525571    0.3925871  
   0.670966500     0.7037284    0.2840817  
   0.672966400     0.7369559    0.1688664  
   0.674966300     0.7516503    0.0494639  
   0.676966200     0.7475601   -0.0709557  
   0.678966100     0.7238144   -0.1889789  
   0.680966000     0.6818103   -0.3022257  
   0.682965900     0.6222579   -0.4070235  
   0.684965800     0.5463610   -0.5011139  
   0.686965700     0.4563949   -0.5821680  
   0.688965600     0.3544816   -0.6473557  
   0.690965500     0.2435896   -0.6954617  
   0.692965400     0.1265082   -0.7249774  
   0.694965300     0.0064587   -0.7351933  
   0.696965200    -0.1130454   -0.7260070  
   0.698965100    -0.2294978   -0.6978735  
   0.700965000    -0.3395784   -0.6511125  
   0.702964900    -0.4404369   -0.5879279  
   0.704964800    -0.5298116   -0.5096343  
   0.706964700    -0.6052827   -0.4182650  
   0.708964600    -0.6650741   -0.3164847  
   0.710964500    -0.7078681   -0.2066313  
   0.712964400    -0.7323216   -0.0920205  
   0.714964300    -0.7386212    0.0246765  
   0.716964200    -0.7265573    0.1400939  
   0.718964100    -0.6970077    0.2513286  
   0.720964000    -0.6507069    0.3563364  
   0.722963900    -0.5896754    0.4524409  
   0.724963800    -0.5152633    0.5375468  
   0.726963700    -0.4283669    0.6105157  
   0.728963600    -0.3314635    0.6693683  
   0.730963500    -0.2272811    0.7125512  
   0.732963400    -0.1174683    0.7398266  
   0.734963300    -0.0052210    0.7498632  
   0.736963200     0.1266479    0.7399957  
   0.738963100     0.2557191    0.7069847  
   0.740963000     0.3778619    0.6517735  
   0.742962900     0.4888776    0.5754536  
   0.744962800     0.5848916    0.4805118  
   0.746962700     0.6632761    0.3699181  
   0.748962600     0.7208685    0.2464529  
   0.750962500     0.6573025    0.3604204  
   0.752962400     0.7132197    0.2357600  
   0.754962300     0.7455319    0.1028287  
   0.756962200     0.7535617   -0.0339982  
   0.758962100     0.7366632   -0.1701424  
   0.760962000     0.6950216   -0.3013813  
   0.762961900     0.6335172   -0.4172143  
   0.764961800     0.5601291   -0.5124767  
   0.766961700     0.4727240   -0.5943657  
   0.768961600     0.3729730   -0.6618177  
   0.770961500     0.2632985   -0.7121736  
   0.772961400     0.1478189   -0.7445607  
   0.774961300     0.0286889   -0.7582878  
   0.776961200    -0.0912156   -0.7527292  
   0.778961100    -0.2086777   -0.7283348  
   0.780961000    -0.3205030   -0.6853361  
   0.782960900    -0.4240792   -0.6250508  
   0.784960800    -0.5164483   -0.5493581  
   0.786960700    -0.5953376   -0.4596941  
   0.788960600    -0.6587181   -0.3591571  
   0.790960500    -0.7051260   -0.2505061  
   0.792960400    -0.7335477   -0.1360757  
   0.794960300    -0.7433762   -0.0196373  
   0.796960200    -0.7349681    0.0959095  
   0.798960100    -0.7090347    0.2082292  
   0.800960000    -0.6660324    0.3147439  
   0.802959900    -0.6073972    0.4125477  
   0.804959800    -0.5347649    0.4996981  
   0.806959700    -0.4501175    0.5741224  
   0.808959600    -0.3553776    0.6345995  
   0.810959500    -0.2527413    0.6798146  
   0.812959400    -0.1445137    0.7088147  
   0.814959300    -0.0334807    0.7208338  
   0.816959200     0.0782511    0.7156429  
   0.818959100     0.1878017    0.6932449  
   0.820959000     0.2932166    0.6546500  
   0.822958900     0.3913905    0.6000776  
   0.824958800     0.4805364    0.5308222  
   0.826958700     0.5578681    0.4482722  
   0.828958600     0.6220579    0.3544722  
   0.830958500     0.6709657    0.2512730  
   0.832958400     0.7029400    0.1416767  
   0.834958300     0.7177547    0.0279477  
   0.836958200     0.7145003   -0.0867064  
   0.838958100     0.6929698   -0.1999885  
   0.840958000     0.6541649   -0.3089345  
   0.842957900     0.5979457   -0.4105975  
   0.844957800     0.5260257   -0.5026852  
   0.846957700     0.4406587   -0.5819120  
   0.848957600     0.3431826   -0.6471717  
   0.850957500     0.2367696   -0.6956618  
   0.852957400     0.1235278   -0.7267901  
   0.854957300     0.0072782   -0.7394858  
   0.856957200    -0.1096817   -0.7336662  
   0.858957100    -0.2238362   -0.7091934  
   0.860957000    -0.3320527   -0.6675839  
   0.862956900    -0.4319739   -0.6099536  
   0.864956800    -0.5209920   -0.5379308  
   0.866956700    -0.5974897   -0.4536709  
   0.868956600    -0.6601230   -0.3591547  
   0.870956500    -0.7071173   -0.2569097  
   0.872956400    -0.7377156   -0.1490459  
   0.874956300    -0.7519010   -0.0377901  
   0.876956200    -0.7489511    0.0743716  
   0.878956100    -0.7291107    0.1841994  
   0.880956000    -0.6929722    0.2901184  
   0.882955900    -0.6411059    0.3888983  
   0.884955800    -0.5751629    0.4786840  
   0.886955700    -0.4961590    0.5579005  
   0.888955600    -0.4064291    0.6240163  
   0.890955500    -0.3072917    0.6762022  
   0.892955400    -0.2018377    0.7125896  
   0.894955300    -0.0916483    0.7326906  
