! MS46122B
! 2250307/22442219
! 6/13/2025 8:43:41 AM
! C:\USERS\SPARKY\DOCUMENTS\VNA_DATA\JUNE13_2025\PORT2_MOS1.S1P
! CHANNEL.1
! TR.MEASUREMENT
! RAW.DATA
# GHZ S RI R 50.0
! FREQ.GHZ         S11RE         S11IM         
!; PortSelection: Port_1
   0.001000000    -0.8942906    0.0539736  
   0.002999900    -0.8650775    0.2566110  
   0.004999800    -0.8238050    0.4000154  
   0.006999700    -0.7567388    0.5256625  
   0.008999600    -0.6679435    0.6332605  
   0.010999500    -0.5613208    0.7215903  
   0.012999400    -0.4410325    0.7895219  
   0.014999300    -0.3111637    0.8362967  
   0.016999200    -0.1757432    0.8621205  
   0.018999100    -0.0382108    0.8671063  
   0.020999000     0.0980216    0.8526397  
   0.022998900     0.2298294    0.8191030  
   0.024998800     0.3273319    0.7493972  
   0.026998700     0.4702100    0.7002746  
   0.028998600     0.5740931    0.6175795  
   0.030998500     0.6643809    0.5217514  
   0.032998400     0.7060272    0.4139829  
   0.034998300     0.7974366    0.2966496  
   0.036998200     0.8365558    0.1716783  
   0.038998100     0.8563530    0.0418300  
   0.040998000     0.8556815   -0.0893857  
   0.042997900     0.8338386   -0.2191763  
   0.044997800     0.7705978   -0.3188795  
   0.046997700     0.7305130   -0.4608613  
   0.048997600     0.6521002   -0.5667562  
   0.050997500     0.5582560   -0.6588743  
   0.052997400     0.4532076   -0.7347819  
   0.054997300     0.3358027   -0.7951918  
   0.056997200     0.2119576   -0.8366296  
   0.058997100     0.0842792   -0.8591760  
   0.060997000    -0.0451817   -0.8624513  
   0.062996900    -0.1730639   -0.8466132  
   0.064996800    -0.2971590   -0.8119951  
   0.066996700    -0.4145235   -0.7593310  
   0.068996600    -0.5224003   -0.6895468  
   0.070996500    -0.6182654   -0.6046384  
   0.072996400    -0.7005093   -0.5062966  
   0.074996300    -0.7666577   -0.3967474  
   0.076996200    -0.8153509   -0.2785770  
   0.078996100    -0.8459290   -0.1543476  
   0.080996000    -0.8574256   -0.0269370  
   0.082995900    -0.8499866    0.1007857  
   0.084995800    -0.8228500    0.2261776  
   0.086995700    -0.7775497    0.3461849  
   0.088995600    -0.7144642    0.4582151  
   0.090995500    -0.6349307    0.5596836  
   0.092995400    -0.5405259    0.6481009  
   0.094995300    -0.4338373    0.7211416  
   0.096995200    -0.3165121    0.7773519  
   0.098995100    -0.1914846    0.8147548  
   0.100995000    -0.0616346    0.8319752  
   0.102994900     0.0691470    0.8285622  
   0.104994800     0.1981341    0.8047921  
   0.106994700     0.3221546    0.7607517  
   0.108994600     0.4376709    0.6975608  
   0.110994500     0.5420190    0.6169490  
   0.112994400     0.6320469    0.5207084  
   0.114994300     0.7056783    0.4112601  
   0.116994200     0.7609106    0.2916380  
   0.118994100     0.7966057    0.1648082  
   0.120994000     0.8113965    0.0342825  
   0.122993900     0.8051630   -0.0966367  
   0.124993800     0.7784170   -0.2245980  
   0.126993700     0.7318844   -0.3461924  
   0.128993600     0.6670823   -0.4587419  
   0.130993500     0.5853148   -0.5590313  
   0.132993400     0.4894578   -0.6446277  
   0.134993300     0.3819022   -0.7141049  
   0.136993200     0.2656155   -0.7653470  
   0.138993100     0.1430439   -0.7979664  
   0.140993000     0.0181485   -0.8109869  
   0.142992900    -0.1070105   -0.8048525  
   0.144992800    -0.2287882   -0.7798542  
   0.146992700    -0.3448734   -0.7367173  
   0.148992600    -0.4526249   -0.6769513  
   0.150992500    -0.5496212   -0.6019644  
   0.152992400    -0.6338969   -0.5132793  
   0.154992300    -0.7035062   -0.4140748  
   0.156992200    -0.7575267   -0.3053274  
   0.158992100    -0.7949163   -0.1905046  
   0.160992000    -0.8146704   -0.0713052  
   0.162991900    -0.8167292    0.0488982  
   0.164991800    -0.8008996    0.1681610  
   0.166991700    -0.7676314    0.2835938  
   0.168991600    -0.7178620    0.3927850  
   0.170991500    -0.6522525    0.4940215  
   0.172991400    -0.5726249    0.5838569  
   0.174991300    -0.4804550    0.6609907  
   0.176991200    -0.3772347    0.7242148  
   0.178991100    -0.2653684    0.7713709  
   0.180991000    -0.1479233    0.8016058  
   0.182990900    -0.0267464    0.8136978  
   0.184990800     0.0953497    0.8075807  
   0.186990700     0.2159406    0.7832791  
   0.188990600     0.3094505    0.7497643  
   0.190990500     0.4359035    0.6824144  
   0.192990400     0.5366914    0.6044624  
   0.194990300     0.6222070    0.5141132  
   0.196990200     0.6926505    0.4115684  
   0.198990100     0.7465434    0.2991722  
   0.200990000     0.7826235    0.1793405  
   0.202989900     0.7997195    0.0544981  
   0.204989800     0.7969227   -0.0714266  
   0.206989700     0.7744552   -0.1948699  
   0.208989600     0.7331235   -0.3134351  
   0.210989500     0.6732834   -0.4244875  
   0.212989400     0.5967236   -0.5247955  
   0.214989300     0.5052701   -0.6117477  
   0.216989200     0.4019644   -0.6826701  
   0.218989100     0.2887889   -0.7362874  
   0.220989000     0.1688721   -0.7715278  
   0.222988900     0.0448153   -0.7873197  
   0.224988800    -0.0799628   -0.7833558  
   0.226988700    -0.2019712   -0.7600074  
   0.228988600    -0.3180588   -0.7177503  
   0.230988500    -0.4255157   -0.6582124  
   0.232988400    -0.5223219   -0.5829204  
   0.234988300    -0.6060942   -0.4933034  
   0.236988200    -0.6746050   -0.3919336  
   0.238988100    -0.7260777   -0.2814288  
   0.240988000    -0.7597800   -0.1651535  
   0.242987900    -0.7748331   -0.0457110  
   0.244987800    -0.7712451    0.0739719  
   0.246987700    -0.7491914    0.1919720  
   0.248987600    -0.7092507    0.3055646  
   0.250987500    -0.6520790    0.4110543  
   0.252987400    -0.5797305    0.5063609  
   0.254987300    -0.4941199    0.5888253  
   0.256987200    -0.3968893    0.6569958  
   0.258987100    -0.2906210    0.7093787  
   0.260987000    -0.1770036    0.7451161  
   0.262986900    -0.0591110    0.7630197  
   0.264986800     0.0605830    0.7625849  
   0.266986700     0.1788583    0.7434947  
   0.268986600     0.2925876    0.7063836  
   0.270986500     0.3991309    0.6527197  
   0.272986400     0.4959394    0.5827878  
   0.274986300     0.5808951    0.4989811  
   0.276986200     0.6524649    0.4024635  
   0.278986100     0.7081837    0.2958634  
   0.280986000     0.7472179    0.1813292  
   0.282985900     0.7678235    0.0619416  
   0.284985800     0.7693836   -0.0596479  
   0.286985700     0.7522582   -0.1797672  
   0.288985600     0.7163767   -0.2951316  
   0.290985500     0.6633632   -0.4032204  
   0.292985400     0.5945499   -0.5016893  
   0.294985300     0.5111741   -0.5884796  
   0.296985200     0.4150189   -0.6615110  
   0.298985100     0.3083172   -0.7190211  
   0.300985000     0.1937966   -0.7589051  
   0.302984900     0.0747061   -0.7806846  
   0.304984800    -0.0456825   -0.7838888  
   0.306984700    -0.1648468   -0.7680455  
   0.308984600    -0.2793379   -0.7344633  
   0.310984500    -0.3863193   -0.6843950  
   0.312984400    -0.4839731   -0.6188121  
   0.314984300    -0.5707408   -0.5394955  
   0.316984200    -0.6440621   -0.4482658  
   0.318984100    -0.7028232   -0.3465628  
   0.320984000    -0.7456843   -0.2368454  
   0.322983900    -0.7715356   -0.1216638  
   0.324983800    -0.7792436   -0.0041576  
   0.326983700    -0.7690237    0.1125443  
   0.328983600    -0.7413250    0.2264736  
   0.330983500    -0.6969861    0.3341551  
   0.332983400    -0.6371376    0.4329275  
   0.334983300    -0.5633759    0.5217178  
   0.336983200    -0.4769690    0.5985038  
   0.338983100    -0.3805711    0.6611567  
   0.340983000    -0.2750404    0.7084789  
   0.342982900    -0.1636833    0.7394927  
   0.344982800    -0.0484634    0.7529955  
   0.346982700     0.0684716    0.7489677  
   0.348982600     0.1839267    0.7268224  
   0.350982500     0.2947389    0.6868366  
   0.352982400     0.3982314    0.6300419  
   0.354982300     0.4955114    0.5541263  
   0.356982200     0.5870631    0.4531334  
   0.358982100     0.6588019    0.3372609  
   0.360982000     0.7083812    0.2111367  
   0.362981900     0.7345845    0.0777449  
   0.364981800     0.7364217   -0.0584942  
   0.366981700     0.7136025   -0.1929996  
   0.368981600     0.6664097   -0.3211446  
   0.370981500     0.5966547   -0.4390376  
   0.372981400     0.5064930   -0.5422511  
   0.374981300     0.3982795   -0.6275384  
   0.376981200     0.4796664   -0.5594957  
   0.378981100     0.3688008   -0.6401300  
   0.380981000     0.2450962   -0.6988371  
   0.382980900     0.1247815   -0.7315845  
   0.384980800     0.0063251   -0.7438509  
   0.386980700    -0.1124601   -0.7371644  
   0.388980600    -0.2279733   -0.7119303  
   0.390980500    -0.3373135   -0.6689807  
   0.392980400    -0.4375278   -0.6101991  
   0.394980300    -0.5267290   -0.5376886  
   0.396980200    -0.6035826   -0.4524945  
   0.398980100    -0.6662493   -0.3576622  
   0.400980000    -0.7136089   -0.2543289  
   0.402979900    -0.7447255   -0.1455790  
   0.404979800    -0.7591448   -0.0342630  
   0.406979700    -0.7570981    0.0774711  
   0.408979600    -0.7384320    0.1875141  
   0.410979500    -0.7036932    0.2934971  
   0.412979400    -0.6534361    0.3937908  
   0.414979300    -0.5887475    0.4854503  
   0.416979200    -0.5113602    0.5664089  
   0.418979100    -0.4228266    0.6350986  
   0.420979000    -0.3249668    0.6897963  
   0.422978900    -0.2198528    0.7293834  
   0.424978800    -0.1093313    0.7531886  
   0.426978700     0.0039866    0.7599652  
   0.428978600     0.1171060    0.7495508  
   0.430978500     0.2273301    0.7221949  
   0.432978400     0.3322665    0.6785672  
   0.434978300     0.4295119    0.6194910  
   0.436978200     0.5169175    0.5458598  
   0.438978100     0.5925100    0.4594723  
   0.440978000     0.6539949    0.3618907  
   0.442977900     0.6999305    0.2555179  
   0.444977800     0.7287093    0.1431203  
   0.446977700     0.7396659    0.0268441  
   0.448977600     0.7322268   -0.0897184  
   0.450977500     0.7063614   -0.2040125  
   0.452977400     0.6623306   -0.3134377  
   0.454977300     0.6010691   -0.4154736  
   0.456977200     0.5236593   -0.5061001  
   0.458977100     0.4321806   -0.5835401  
   0.460977000     0.3290580   -0.6450371  
   0.462976900     0.2183336   -0.6886442  
   0.464976800     0.1016944   -0.7138226  
   0.466976700    -0.0173703   -0.7194397  
   0.468976600    -0.1351909   -0.7055055  
   0.470976500    -0.2490143   -0.6730798  
   0.472976400    -0.3555128   -0.6227559  
   0.474976300    -0.4521717   -0.5561739  
   0.476976200    -0.5362079   -0.4756262  
   0.478976100    -0.6058149   -0.3833398  
   0.480976000    -0.6590837   -0.2820874  
   0.482975900    -0.6958973   -0.1745062  
   0.484975800    -0.7152449   -0.0635436  
   0.486975700    -0.7171305    0.0488928  
   0.488975600    -0.7018785    0.1596210  
   0.490975500    -0.6698763    0.2665076  
   0.492975400    -0.6216934    0.3670245  
   0.494975300    -0.5588998    0.4585244  
   0.496975200    -0.4832445    0.5395495  
   0.498975100    -0.3964558    0.6077972  
   0.500975000    -0.3005909    0.6617844  
   0.502974900    -0.1980560    0.7008649  
   0.504974800    -0.0905535    0.7238944  
   0.506974700     0.0198076    0.7303413  
   0.508974600     0.1302707    0.7198468  
   0.510974500     0.2384399    0.6927260  
   0.512974400     0.3411067    0.6492636  
   0.514974300     0.4360374    0.5908861  
   0.516974200     0.5209247    0.5186411  
   0.518974100     0.5940396    0.4343804  
   0.520974000     0.6536618    0.3396796  
   0.522973900     0.6978480    0.2365170  
   0.524973800     0.7261912    0.1278440  
   0.526973700     0.7373661    0.0151609  
   0.528973600     0.7312202   -0.0976054  
   0.530973500     0.7075055   -0.2094090  
   0.532973400     0.6666013   -0.3158602  
   0.534973300     0.6097246   -0.4151844  
   0.536973200     0.5374614   -0.5048971  
   0.538973100     0.4527568   -0.5819179  
   0.540973000     0.3569326   -0.6445913  
   0.542972900     0.2525215   -0.6915988  
   0.544972800     0.1422679   -0.7219397  
   0.546972700     0.0279270   -0.7349243  
   0.548972600    -0.0871244   -0.7295095  
   0.550972500    -0.1998323   -0.7067567  
   0.552972400    -0.3078798   -0.6661401  
   0.554972300    -0.4083491   -0.6090831  
   0.556972200    -0.4979337   -0.5369251  
   0.558972100    -0.5755197   -0.4516596  
   0.560972000    -0.6382564   -0.3556118  
   0.562971900    -0.6848866   -0.2513049  
   0.564971800    -0.7146385   -0.1415961  
   0.566971700    -0.7267956   -0.0288807  
   0.568971600    -0.7211773    0.0836254  
   0.570971500    -0.6983074    0.1936084  
   0.572971400    -0.6585574    0.2988874  
   0.574971300    -0.6027731    0.3968284  
   0.576971200    -0.5321539    0.4848377  
   0.578971100    -0.4486430    0.5607187  
   0.580971000    -0.3543300    0.6224139  
   0.582970900    -0.2517011    0.6685979  
   0.584970800    -0.1433569    0.6979265  
   0.586970700    -0.0319352    0.7100904  
   0.588970600     0.0799127    0.7044442  
   0.590970500     0.1896680    0.6812006  
   0.592970400     0.2941867    0.6409553  
   0.594970300     0.3911878    0.5847844  
   0.596970200     0.4784224    0.5137314  
   0.598970100     0.5531666    0.4294478  
   0.600970000     0.6140280    0.3344063  
   0.602969900     0.6589009    0.2306263  
   0.604969800     0.6866162    0.1202391  
   0.606969700     0.6962340    0.0069105  
   0.608969600     0.6876922   -0.1071415  
   0.610969500     0.6608042   -0.2186686  
   0.612969400     0.6163049   -0.3243092  
   0.614969300     0.5551074   -0.4212029  
   0.616969200     0.4795684   -0.5067289  
   0.618969100     0.3918386   -0.5785415  
   0.620969000     0.2945228   -0.6352187  
   0.622968900     0.1890294   -0.6760682  
   0.624968800     0.0784826   -0.6993372  
   0.626968700    -0.0342026   -0.7048200  
   0.628968600    -0.1464757   -0.6929016  
   0.630968500    -0.2552264   -0.6634141  
   0.632968400    -0.3579645   -0.6172990  
   0.634968300    -0.4519078   -0.5558056  
   0.636968200    -0.5348071   -0.4806509  
   0.638968100    -0.6048097   -0.3935524  
   0.640968000    -0.6606309   -0.2972939  
   0.642967900    -0.7005533   -0.1940060  
   0.644967800    -0.7244191   -0.0859581  
   0.646967700    -0.7310648    0.0240792  
   0.648967600    -0.7214155    0.1333323  
   0.650967500    -0.6953896    0.2392680  
   0.652967400    -0.6539769    0.3396625  
   0.654967300    -0.5982331    0.4327630  
   0.656967200    -0.5293073    0.5158982  
   0.658967100    -0.4491504    0.5879554  
   0.660967000    -0.3588776    0.6473199  
   0.662966900    -0.2603141    0.6929162  
   0.664966800    -0.1550857    0.7232241  
   0.666966700    -0.0461832    0.7373498  
   0.668966600     0.0638111    0.7352872  
   0.670966500     0.1727768    0.7162223  
   0.672966400     0.2771832    0.6806208  
   0.674966300     0.3758473    0.6295754  
   0.676966200     0.4651299    0.5642041  
   0.678966100     0.5438375    0.4857967  
   0.680966000     0.6096568    0.3959979  
   0.682965900     0.6610001    0.2971222  
   0.684965800     0.6965982    0.1912013  
   0.686965700     0.7156203    0.0804741  
   0.688965600     0.7168034   -0.0321745  
   0.690965500     0.7006662   -0.1440480  
   0.692965400     0.6669129   -0.2519350  
   0.694965300     0.6167542   -0.3532610  
   0.696965200     0.5511429   -0.4458138  
   0.698965100     0.4713219   -0.5267947  
   0.700965000     0.3795972   -0.5942000  
   0.702964900     0.2783419   -0.6462721  
   0.704964800     0.1698802   -0.6814694  
   0.706964700     0.0572041   -0.6989901  
   0.708964600    -0.0565884   -0.6981214  
   0.710964500    -0.1688941   -0.6791782  
   0.712964400    -0.2763222   -0.6423497  
   0.714964300    -0.3760859   -0.5890174  
   0.716964200    -0.4657760   -0.5207773  
   0.718964100    -0.5426412   -0.4400011  
   0.720964000    -0.6054464   -0.3486076  
   0.722963900    -0.6528821   -0.2492901  
   0.724963800    -0.6843122   -0.1445495  
   0.726963700    -0.6992260   -0.0363965  
   0.728963600    -0.6970389    0.0721309  
   0.730963500    -0.6783388    0.1788080  
   0.732963400    -0.6439196    0.2808219  
   0.734963300    -0.5942453    0.3761673  
   0.736963200    -0.5190377    0.4745894  
   0.738963100    -0.4274991    0.5584337  
   0.740963000    -0.3220555    0.6254755  
   0.742962900    -0.2064011    0.6728743  
   0.744962800    -0.0841240    0.7001530  
   0.746962700     0.0412371    0.7052988  
   0.748962600     0.1664252    0.6885023  
   0.750962500     0.0420688    0.7079161  
   0.752962400     0.1665431    0.6891467  
   0.754962300     0.2857358    0.6494137  
   0.756962200     0.3967917    0.5892637  
   0.758962100     0.4951754    0.5102345  
   0.760962000     0.5793788    0.4151340  
   0.762961900     0.6425527    0.3120447  
   0.764961800     0.6838883    0.2103269  
   0.766961700     0.7093801    0.1032262  
   0.768961600     0.7177118   -0.0073166  
   0.770961500     0.7091992   -0.1178359  
   0.772961400     0.6834903   -0.2258349  
   0.774961300     0.6415604   -0.3288838  
   0.776961200     0.5834603   -0.4247568  
   0.778961100     0.5112262   -0.5105159  
   0.780961000     0.4258977   -0.5845904  
   0.782960900     0.3298401   -0.6447315  
   0.784960800     0.2246152   -0.6891747  
   0.786960700     0.1137491   -0.7165476  
   0.788960600    -0.0004245   -0.7256094  
   0.790960500    -0.1144002   -0.7167127  
   0.792960400    -0.2250359   -0.6895815  
   0.794960300    -0.3300272   -0.6451749  
   0.796960200    -0.4258940   -0.5853806  
   0.798960100    -0.5111325   -0.5113898  
   0.800960000    -0.5830404   -0.4254039  
   0.802959900    -0.6404774   -0.3295000  
   0.804959800    -0.6821780   -0.2267312  
   0.806959700    -0.7069583   -0.1192375  
   0.808959600    -0.7150145   -0.0096747  
   0.810959500    -0.7058618    0.0990954  
   0.812959400    -0.6805189    0.2048548  
   0.814959300    -0.6394619    0.3048688  
   0.816959200    -0.5838752    0.3972754  
   0.818959100    -0.5147952    0.4797568  
   0.820959000    -0.4341784    0.5505498  
   0.822958900    -0.3436899    0.6083570  
   0.824958800    -0.2460025    0.6515865  
   0.826958700    -0.1425992    0.6793865  
   0.828958600    -0.0363482    0.6907501  
   0.830958500     0.0707560    0.6860204  
   0.832958400     0.1758644    0.6649960  
   0.834958300     0.2762090    0.6284479  
   0.836958200     0.3700085    0.5768527  
   0.838958100     0.4547030    0.5111331  
   0.840958000     0.5289282    0.4330422  
   0.842957900     0.5903886    0.3437913  
   0.844957800     0.6375862    0.2456236  
   0.846957700     0.6691096    0.1410262  
   0.848957600     0.6837925    0.0324548  
   0.850957500     0.6810869   -0.0778712  
   0.852957400     0.6611214   -0.1864836  
   0.854957300     0.6238976   -0.2908262  
   0.856957200     0.5703641   -0.3883617  
   0.858957100     0.5022684   -0.4760092  
   0.860957000     0.4210852   -0.5516392  
   0.862956900     0.3293755   -0.6132756  
   0.864956800     0.2293210   -0.6599118  
   0.866956700     0.1238496   -0.6900695  
   0.868956600     0.0147590   -0.7036768  
   0.870956500    -0.0948989   -0.6999667  
   0.872956400    -0.2023522   -0.6794141  
   0.874956300    -0.3054057   -0.6427730  
   0.876956200    -0.4011639   -0.5904359  
   0.878956100    -0.4877522   -0.5242921  
   0.880956000    -0.5629310   -0.4453535  
   0.882955900    -0.6251878   -0.3563884  
   0.884955800    -0.6727574   -0.2590978  
   0.886955700    -0.7051866   -0.1560559  
   0.888955600    -0.7212700   -0.0497090  
   0.890955500    -0.7213941    0.0574265  
   0.892955400    -0.7052526    0.1632229  
   0.894955300    -0.6736577    0.2650603  
