! MS46122B
! 2250307/22442219
! 6/14/2025 10:23:54 AM
! C:\USERS\SPARKY\DOCUMENTS\VNA_DATA\JUNE14_2025\295K\PORT5_MOS3.S1P
! CHANNEL.1
! TR.MEASUREMENT
! RAW.DATA
# GHZ S RI R 50.0
! FREQ.GHZ         S11RE         S11IM         
!; PortSelection: Port_1
   0.001000000    -0.8935063    0.0545571  
   0.002999900    -0.8640393    0.2577692  
   0.004999800    -0.8224189    0.4018759  
   0.006999700    -0.7547113    0.5278277  
   0.008999600    -0.6647819    0.6359963  
   0.010999500    -0.5572396    0.7241087  
   0.012999400    -0.4361304    0.7918156  
   0.014999300    -0.3050102    0.8378708  
   0.016999200    -0.1687754    0.8628809  
   0.018999100    -0.0303516    0.8668821  
   0.020999000     0.1063004    0.8510946  
   0.022998900     0.2384370    0.8160982  
   0.024998800     0.3359498    0.7451134  
   0.026998700     0.4787025    0.6941447  
   0.028998600     0.5821484    0.6097694  
   0.030998500     0.6717709    0.5121585  
   0.032998400     0.7121637    0.4033056  
   0.034998300     0.8020732    0.2840234  
   0.036998200     0.8393667    0.1577902  
   0.038998100     0.8570740    0.0270015  
   0.040998000     0.8538541   -0.1052029  
   0.042997900     0.8296183   -0.2351382  
   0.044997800     0.7641781   -0.3343677  
   0.046997700     0.7209204   -0.4759276  
   0.048997600     0.6399487   -0.5806670  
   0.050997500     0.5434890   -0.6712676  
   0.052997400     0.4362815   -0.7451969  
   0.054997300     0.3166119   -0.8030306  
   0.056997200     0.1912752   -0.8417087  
   0.058997100     0.0623143   -0.8611821  
   0.060997000    -0.0678392   -0.8610855  
   0.062996900    -0.1960720   -0.8418234  
   0.064996800    -0.3198399   -0.8035530  
   0.066996700    -0.4362209   -0.7471621  
   0.068996600    -0.5426437   -0.6738251  
   0.070996500    -0.6364626   -0.5854540  
   0.072996400    -0.7159174   -0.4839184  
   0.074996300    -0.7789392   -0.3716598  
   0.076996200    -0.8240419   -0.2510450  
   0.078996100    -0.8504320   -0.1252221  
   0.080996000    -0.8575993    0.0035145  
   0.082995900    -0.8452358    0.1317564  
   0.084995800    -0.8133528    0.2567283  
   0.086995700    -0.7630954    0.3756858  
   0.088995600    -0.6949707    0.4859811  
   0.090995500    -0.6109745    0.5847293  
   0.092995400    -0.5124646    0.6697553  
   0.094995300    -0.4015985    0.7386973  
   0.096995200    -0.2812953    0.7899079  
   0.098995100    -0.1536192    0.8218161  
   0.100995000    -0.0223342    0.8330939  
   0.102994900     0.1090845    0.8234666  
   0.104994800     0.2376053    0.7931995  
   0.106994700     0.3602594    0.7426080  
   0.108994600     0.4731431    0.6733917  
   0.110994500     0.5735023    0.5868208  
   0.112994400     0.6588926    0.4850496  
   0.114994300     0.7268578    0.3712510  
   0.116994200     0.7757300    0.2479241  
   0.118994100     0.8043575    0.1186662  
   0.120994000     0.8116626   -0.0132384  
   0.122993900     0.7978287   -0.1441995  
   0.124993800     0.7635518   -0.2708987  
   0.126993700     0.7093750   -0.3902603  
   0.128993600     0.6376374   -0.4991869  
   0.130993500     0.5495518   -0.5946467  
   0.132993400     0.4481205   -0.6745543  
   0.134993300     0.3360607   -0.7372396  
   0.136993200     0.2161237   -0.7814317  
   0.138993100     0.0913780   -0.8060910  
   0.140993000    -0.0349042   -0.8110841  
   0.142992900    -0.1595880   -0.7969131  
   0.144992800    -0.2801850   -0.7637192  
   0.146992700    -0.3936864   -0.7128607  
   0.148992600    -0.4975592   -0.6456799  
   0.150992500    -0.5896936   -0.5641258  
   0.152992400    -0.6679885   -0.4696052  
   0.154992300    -0.7309939   -0.3650504  
   0.156992200    -0.7775443   -0.2525096  
   0.158992100    -0.8070265   -0.1345238  
   0.160992000    -0.8183742   -0.0137626  
   0.162991900    -0.8119693    0.1070841  
   0.164991800    -0.7872524    0.2257507  
   0.166991700    -0.7454296    0.3392759  
   0.168991600    -0.6870888    0.4451221  
   0.170991500    -0.6137504    0.5418285  
   0.172991400    -0.5265807    0.6260123  
   0.174991300    -0.4279056    0.6966355  
   0.176991200    -0.3190091    0.7518969  
   0.178991100    -0.2026795    0.7906429  
   0.180991000    -0.0823305    0.8110997  
   0.182990900     0.0405526    0.8132175  
   0.184990800     0.1631580    0.7965601  
   0.186990700     0.2825164    0.7618675  
   0.188990600     0.3738832    0.7197033  
   0.190990500     0.4949730    0.6407979  
   0.192990400     0.5890706    0.5532866  
   0.194990300     0.6667812    0.4544366  
   0.196990200     0.7279958    0.3446138  
   0.198990100     0.7713873    0.2264618  
   0.200990000     0.7961153    0.1024421  
   0.202989900     0.8007887   -0.0245863  
   0.204989800     0.7853511   -0.1510434  
   0.206989700     0.7504159   -0.2726926  
   0.208989600     0.6966403   -0.3873466  
   0.210989500     0.6249055   -0.4924488  
   0.212989400     0.5374157   -0.5851908  
   0.214989300     0.4365143   -0.6623459  
   0.216989200     0.3250893   -0.7222068  
   0.218989100     0.2060309   -0.7632704  
   0.220989000     0.0818865   -0.7852207  
   0.222988900    -0.0438831   -0.7871435  
   0.224988800    -0.1683687   -0.7691717  
   0.226988700    -0.2875078   -0.7313660  
   0.228988600    -0.3987283   -0.6760052  
   0.230988500    -0.4994213   -0.6041045  
   0.232988400    -0.5871927   -0.5172960  
   0.234988300    -0.6603529   -0.4178484  
   0.236988200    -0.7166008   -0.3083031  
   0.238988100    -0.7549993   -0.1916879  
   0.240988000    -0.7743681   -0.0717454  
   0.242987900    -0.7747948    0.0494720  
   0.244987800    -0.7566051    0.1687876  
   0.246987700    -0.7198583    0.2841148  
   0.248987600    -0.6657418    0.3924914  
   0.250987500    -0.5953480    0.4911269  
   0.252987400    -0.5108142    0.5770555  
   0.254987300    -0.4144629    0.6486641  
   0.256987200    -0.3084557    0.7042135  
   0.258987100    -0.1952262    0.7430289  
   0.260987000    -0.0769371    0.7638944  
   0.262986900     0.0437025    0.7660115  
   0.264986800     0.1633461    0.7497023  
   0.266986700     0.2794200    0.7144368  
   0.268986600     0.3881905    0.6622254  
   0.270986500     0.4874919    0.5932747  
   0.272986400     0.5749733    0.5102269  
   0.274986300     0.6483709    0.4142992  
   0.276986200     0.7062297    0.3076354  
   0.278986100     0.7472044    0.1928357  
   0.280986000     0.7697083    0.0726322  
   0.282985900     0.7728481   -0.0498106  
   0.284985800     0.7570224   -0.1715520  
   0.286985700     0.7221251   -0.2891960  
   0.288985600     0.6691816   -0.3993441  
   0.290985500     0.6002134   -0.4995666  
   0.292985400     0.5165865   -0.5875791  
   0.294985300     0.4203599   -0.6616659  
   0.296985200     0.3134408   -0.7200221  
   0.298985100     0.1980754   -0.7609716  
   0.300985000     0.0775950   -0.7834041  
   0.302984900    -0.0442266   -0.7869117  
   0.304984800    -0.1649502   -0.7710058  
   0.306984700    -0.2812482   -0.7369621  
   0.308984600    -0.3898677   -0.6855371  
   0.310984500    -0.4884753   -0.6188030  
   0.312984400    -0.5758038   -0.5380051  
   0.314984300    -0.6490542   -0.4454339  
   0.316984200    -0.7075778   -0.3427986  
   0.318984100    -0.7499055   -0.2320942  
   0.320984000    -0.7749616   -0.1157605  
   0.322983900    -0.7816703    0.0033863  
   0.324983800    -0.7701888    0.1213395  
   0.326983700    -0.7408093    0.2361568  
   0.328983600    -0.6943613    0.3448610  
   0.330983500    -0.6318049    0.4447025  
   0.332983400    -0.5555497    0.5333424  
   0.334983300    -0.4666694    0.6093482  
   0.336983200    -0.3676687    0.6709729  
   0.338983100    -0.2596724    0.7166694  
   0.340983000    -0.1463158    0.7453609  
   0.342982900    -0.0297753    0.7564188  
   0.344982800     0.0878164    0.7494624  
   0.346982700     0.2039563    0.7240518  
   0.348982600     0.3149883    0.6807445  
   0.350982500     0.4180115    0.6203858  
   0.352982400     0.5107572    0.5442547  
   0.354982300     0.5935767    0.4501550  
   0.356982200     0.6652846    0.3319934  
   0.358982100     0.7143745    0.2032204  
   0.360982000     0.7394038    0.0675851  
   0.362981900     0.7392300   -0.0702033  
   0.364981800     0.7138849   -0.2061924  
   0.366981700     0.6641319   -0.3349639  
   0.368981600     0.5913732   -0.4531170  
   0.370981500     0.4982245   -0.5557293  
   0.372981400     0.3875942   -0.6396810  
   0.374981300     0.2628338   -0.7016958  
   0.376981200     0.3576865   -0.6521792  
   0.378981100     0.2313563   -0.7091056  
   0.380981000     0.0969443   -0.7416002  
   0.382980900    -0.0289424   -0.7491943  
   0.384980800    -0.1487859   -0.7369480  
   0.386980700    -0.2644901   -0.7058670  
   0.388980600    -0.3734391   -0.6567045  
   0.390980500    -0.4725660   -0.5916196  
   0.392980400    -0.5592178   -0.5131888  
   0.394980300    -0.6325513   -0.4224947  
   0.396980200    -0.6908982   -0.3226711  
   0.398980100    -0.7327273   -0.2156175  
   0.400980000    -0.7580845   -0.1037214  
   0.402979900    -0.7659835    0.0102252  
   0.404979800    -0.7570760    0.1233874  
   0.406979700    -0.7313560    0.2338789  
   0.408979600    -0.6896629    0.3384145  
   0.410979500    -0.6326634    0.4363456  
   0.412979400    -0.5611355    0.5252415  
   0.414979300    -0.4774562    0.6023780  
   0.416979200    -0.3826486    0.6660091  
   0.418979100    -0.2797033    0.7150188  
   0.420979000    -0.1703866    0.7474518  
   0.422978900    -0.0566325    0.7636449  
   0.424978800     0.0587686    0.7623303  
   0.426978700     0.1731572    0.7432144  
   0.428978600     0.2832714    0.7067425  
   0.430978500     0.3869182    0.6538518  
   0.432978400     0.4811587    0.5855038  
   0.434978300     0.5638242    0.5033997  
   0.436978200     0.6330073    0.4088683  
   0.438978100     0.6869391    0.3039756  
   0.440978000     0.7239160    0.1918056  
   0.442977900     0.7427355    0.0746806  
   0.444977800     0.7425852   -0.0444581  
   0.446977700     0.7235950   -0.1624888  
   0.448977600     0.6858474   -0.2758830  
   0.450977500     0.6303495   -0.3818516  
   0.452977400     0.5578024   -0.4781184  
   0.454977300     0.4699683   -0.5624124  
   0.456977200     0.3692779   -0.6307314  
   0.458977100     0.2584375   -0.6819350  
   0.460977000     0.1409339   -0.7139316  
   0.462976900     0.0203749   -0.7262434  
   0.464976800    -0.1004546   -0.7184402  
   0.466976700    -0.2179535   -0.6910774  
   0.468976600    -0.3289164   -0.6454079  
   0.470976500    -0.4307343   -0.5822050  
   0.472976400    -0.5204406   -0.5036565  
   0.474976300    -0.5957989   -0.4122550  
   0.476976200    -0.6549594   -0.3106217  
   0.478976100    -0.6970361   -0.2018596  
   0.480976000    -0.7209955   -0.0887201  
   0.482975900    -0.7268093    0.0258027  
   0.484975800    -0.7148064    0.1390646  
   0.486975700    -0.6857485    0.2490755  
   0.488975600    -0.6399728    0.3525431  
   0.490975500    -0.5790515    0.4476887  
   0.492975400    -0.5045638    0.5322359  
   0.494975300    -0.4180678    0.6043413  
   0.496975200    -0.3216661    0.6621534  
   0.498975100    -0.2177569    0.7047628  
   0.500975000    -0.1089142    0.7309300  
   0.502974900     0.0025477    0.7402733  
   0.504974800     0.1143798    0.7326424  
   0.506974700     0.2244133    0.7079930  
   0.508974600     0.3301162    0.6663827  
   0.510974500     0.4283903    0.6088598  
   0.512974400     0.5172623    0.5368570  
   0.514974300     0.5935181    0.4518191  
   0.516974200     0.6566494    0.3562118  
   0.518974100     0.7038343    0.2516284  
   0.520974000     0.7345787    0.1409113  
   0.522973900     0.7477066    0.0264720  
   0.524973800     0.7430621   -0.0891985  
   0.526973700     0.7205451   -0.2034922  
   0.528973600     0.6801455   -0.3126090  
   0.530973500     0.6228809   -0.4151690  
   0.532973400     0.5499272   -0.5073951  
   0.534973300     0.4636423   -0.5871051  
   0.536973200     0.3648878   -0.6524661  
   0.538973100     0.2578977   -0.7011381  
   0.540973000     0.1448891   -0.7323755  
   0.542972900     0.0279279   -0.7454330  
   0.544972800    -0.0892591   -0.7397408  
   0.546972700    -0.2047151   -0.7159399  
   0.548972600    -0.3147616   -0.6740016  
   0.550972500    -0.4167396   -0.6152363  
   0.552972400    -0.5084042   -0.5408593  
   0.554972300    -0.5870274   -0.4529805  
   0.556972200    -0.6504088   -0.3538727  
   0.558972100    -0.6974349   -0.2460970  
   0.560972000    -0.7264377   -0.1326390  
   0.562971900    -0.7371998   -0.0164080  
   0.564971800    -0.7293118    0.0991476  
   0.566971700    -0.7035142    0.2118041  
   0.568971600    -0.6604159    0.3186841  
   0.570971500    -0.6014832    0.4173468  
   0.572971400    -0.5274611    0.5052562  
   0.574971300    -0.4406462    0.5806654  
   0.576971200    -0.3424808    0.6415395  
   0.578971100    -0.2359364    0.6861877  
   0.580971000    -0.1237027    0.7131438  
   0.582970900    -0.0086525    0.7223117  
   0.584970800     0.1061851    0.7128307  
   0.586970700     0.2179562    0.6853116  
   0.588970600     0.3235992    0.6405619  
   0.590970500     0.4211561    0.5795105  
   0.592970400     0.5077292    0.5035817  
   0.594970300     0.5813206    0.4144968  
   0.596970200     0.6397535    0.3150793  
   0.598970100     0.6816169    0.2072437  
   0.600970000     0.7056884    0.0935757  
   0.602969900     0.7110791   -0.0225509  
   0.604969800     0.6978504   -0.1386719  
   0.606969700     0.6662774   -0.2511235  
   0.608969600     0.6165943   -0.3575811  
   0.610969500     0.5502964   -0.4544694  
   0.612969400     0.4689344   -0.5394084  
   0.614969300     0.3756036   -0.6098031  
   0.616969200     0.2723649   -0.6644702  
   0.618969100     0.1623932   -0.7013445  
   0.620969000     0.0488281   -0.7200048  
   0.622968900    -0.0666199   -0.7206954  
   0.624968800    -0.1801754   -0.7036788  
   0.626968700    -0.2899342   -0.6687447  
   0.628968600    -0.3927677   -0.6171846  
   0.630968500    -0.4863891   -0.5504268  
   0.632968400    -0.5678678   -0.4701298  
   0.634968300    -0.6358700   -0.3781736  
   0.636968200    -0.6884737   -0.2772002  
   0.638968100    -0.7250370   -0.1696731  
   0.640968000    -0.7446102   -0.0583816  
   0.642967900    -0.7469162    0.0548917  
   0.644967800    -0.7320808    0.1664131  
   0.646967700    -0.7005314    0.2741359  
   0.648967600    -0.6532351    0.3756274  
   0.650967500    -0.5914410    0.4685276  
   0.652967400    -0.5170093    0.5508017  
   0.654967300    -0.4309830    0.6206745  
   0.656967200    -0.3358044    0.6773871  
   0.658967100    -0.2333299    0.7189505  
   0.660967000    -0.1251011    0.7447340  
   0.662966900    -0.0139453    0.7538093  
   0.664966800     0.0985053    0.7462124  
   0.666966700     0.2088904    0.7217868  
   0.668966600     0.3147113    0.6805905  
   0.670966500     0.4133129    0.6233213  
   0.672966400     0.5018293    0.5510280  
   0.674966300     0.5786653    0.4659606  
   0.676966200     0.6414952    0.3700272  
   0.678966100     0.6888180    0.2655918  
   0.680966000     0.7192562    0.1543685  
   0.682965900     0.7322992    0.0398468  
   0.684965800     0.7268017   -0.0756240  
   0.686965700     0.7030525   -0.1892276  
   0.688965600     0.6619452   -0.2980702  
   0.690965500     0.6038147   -0.3990280  
   0.692965400     0.5306286   -0.4895383  
   0.694965300     0.4435941   -0.5672118  
   0.696965200     0.3454132   -0.6300472  
   0.698965100     0.2385151   -0.6762425  
   0.700965000     0.1254907   -0.7048824  
   0.702964900     0.0094068   -0.7150627  
   0.704964800    -0.1066876   -0.7063385  
   0.706964700    -0.2197881   -0.6793220  
   0.708964600    -0.3268515   -0.6345724  
   0.710964500    -0.4253294   -0.5734529  
   0.712964400    -0.5120560   -0.4974557  
   0.714964300    -0.5853013   -0.4088387  
   0.716964200    -0.6433038   -0.3104970  
   0.718964100    -0.6847608   -0.2050179  
   0.720964000    -0.7090447   -0.0953088  
   0.722963900    -0.7161755    0.0160543  
   0.724963800    -0.7060056    0.1269341  
   0.726963700    -0.6789243    0.2343277  
   0.728963600    -0.6361070    0.3358906  
   0.730963500    -0.5784189    0.4295237  
   0.732963400    -0.5072922    0.5131857  
   0.734963300    -0.4242947    0.5846309  
   0.736963200    -0.3154137    0.6502498  
   0.738963100    -0.1961436    0.6961497  
   0.740963000    -0.0701415    0.7207841  
   0.742962900     0.0584775    0.7228311  
   0.744962800     0.1858970    0.7027057  
   0.746962700     0.3086008    0.6604586  
   0.748962600     0.4223800    0.5970717  
   0.750962500     0.3076888    0.6583865  
   0.752962400     0.4204389    0.5935352  
   0.754962300     0.5200995    0.5096188  
   0.756962200     0.6036081    0.4091826  
   0.758962100     0.6685461    0.2952699  
   0.760962000     0.7125977    0.1713656  
   0.762961900     0.7329950    0.0479330  
   0.764961800     0.7324890   -0.0663379  
   0.766961700     0.7145156   -0.1791804  
   0.768961600     0.6787261   -0.2888269  
   0.770961500     0.6263767   -0.3910507  
   0.772961400     0.5584207   -0.4845222  
   0.774961300     0.4768391   -0.5658785  
   0.776961200     0.3827456   -0.6337667  
   0.778961100     0.2791084   -0.6863036  
   0.780961000     0.1681421   -0.7218691  
   0.782960900     0.0523382   -0.7394011  
   0.784960800    -0.0646909   -0.7383417  
   0.786960700    -0.1805157   -0.7186036  
   0.788960600    -0.2913007   -0.6806315  
   0.790960500    -0.3943310   -0.6256031  
   0.792960400    -0.4868176   -0.5550343  
   0.794960300    -0.5667347   -0.4711169  
   0.796960200    -0.6319340   -0.3762538  
   0.798960100    -0.6810355   -0.2728101  
   0.800960000    -0.7134614   -0.1638473  
   0.802959900    -0.7279608   -0.0513702  
   0.804959800    -0.7250697    0.0609494  
   0.806959700    -0.7047589    0.1711523  
   0.808959600    -0.6684461    0.2762790  
   0.810959500    -0.6162378    0.3736721  
   0.812959400    -0.5502803    0.4621307  
   0.814959300    -0.4717319    0.5387616  
   0.816959200    -0.3825599    0.6025074  
   0.818959100    -0.2849295    0.6518050  
   0.820959000    -0.1810210    0.6857507  
   0.822958900    -0.0729951    0.7034653  
   0.824958800     0.0365030    0.7043794  
   0.826958700     0.1446599    0.6882207  
   0.828958600     0.2496717    0.6558680  
   0.830958500     0.3484537    0.6080908  
   0.832958400     0.4390418    0.5452458  
   0.834958300     0.5185511    0.4692615  
   0.836958200     0.5859304    0.3816844  
   0.838958100     0.6389943    0.2843616  
   0.840958000     0.6761776    0.1794110  
   0.842957900     0.6973118    0.0694964  
   0.844957800     0.7006580   -0.0428174  
   0.846957700     0.6860188   -0.1546703  
   0.848957600     0.6540471   -0.2634447  
   0.850957500     0.6049754   -0.3657445  
   0.852957400     0.5399067   -0.4595962  
   0.854957300     0.4609689   -0.5416547  
   0.856957200     0.3695872   -0.6106159  
   0.858957100     0.2684716   -0.6637019  
   0.860957000     0.1606288   -0.7002312  
   0.862956900     0.0488573   -0.7191681  
   0.864956800    -0.0640220   -0.7206296  
   0.866956700    -0.1754115   -0.7043088  
   0.868956600    -0.2822018   -0.6713479  
   0.870956500    -0.3826641   -0.6224500  
   0.872956400    -0.4740505   -0.5586506  
   0.874956300    -0.5544974   -0.4818592  
   0.876956200    -0.6220342   -0.3936962  
   0.878956100    -0.6752531   -0.2965966  
   0.880956000    -0.7128608   -0.1924253  
   0.882955900    -0.7344126   -0.0842802  
   0.884955800    -0.7390921    0.0257276  
   0.886955700    -0.7273151    0.1347601  
   0.888955600    -0.6992676    0.2409192  
   0.890955500    -0.6552767    0.3410315  
   0.892955400    -0.5973994    0.4333394  
   0.894955300    -0.5260180    0.5162172  
