! MS46122B
! 2250307/22442219
! 6/16/2025 12:49:34 PM
! C:\USERS\SPARKY\DOCUMENTS\VNA_DATA\JUNE16_2025\295K\PORT1_MOS3.S1P
! CHANNEL.1
! TR.MEASUREMENT
! RAW.DATA
# GHZ S RI R 50.0
! FREQ.GHZ         S11RE         S11IM         
!; PortSelection: Port_1
   0.001000000    -0.8896761    0.0543790  
   0.002999900    -0.8603013    0.2570275  
   0.004999800    -0.8189061    0.4004354  
   0.006999700    -0.7512531    0.5261686  
   0.008999600    -0.6618708    0.6334913  
   0.010999500    -0.5546713    0.7213745  
   0.012999400    -0.4339589    0.7886946  
   0.014999300    -0.3033408    0.8344904  
   0.016999200    -0.1678347    0.8592685  
   0.018999100    -0.0298130    0.8632677  
   0.020999000     0.1063583    0.8473653  
   0.022998900     0.2380369    0.8124365  
   0.024998800     0.3349726    0.7416696  
   0.026998700     0.4773385    0.6905632  
   0.028998600     0.5802861    0.6065359  
   0.030998500     0.6693947    0.5092813  
   0.032998400     0.7095000    0.4008414  
   0.034998300     0.7989735    0.2818853  
   0.036998200     0.8361872    0.1559783  
   0.038998100     0.8534725    0.0258029  
   0.040998000     0.8502553   -0.1056897  
   0.042997900     0.8256351   -0.2353254  
   0.044997800     0.7606071   -0.3337015  
   0.046997700     0.7172092   -0.4747970  
   0.048997600     0.6362814   -0.5790568  
   0.050997500     0.5401096   -0.6691396  
   0.052997400     0.4330317   -0.7425432  
   0.054997300     0.3138929   -0.8000224  
   0.056997200     0.1891285   -0.8383460  
   0.058997100     0.0606228   -0.8574749  
   0.060997000    -0.0689878   -0.8572243  
   0.062996900    -0.1967127   -0.8377495  
   0.064996800    -0.3198534   -0.7994155  
   0.066996700    -0.4356454   -0.7430832  
   0.068996600    -0.5416087   -0.6698348  
   0.070996500    -0.6347813   -0.5816098  
   0.072996400    -0.7137529   -0.4803875  
   0.074996300    -0.7762289   -0.3684319  
   0.076996200    -0.8209954   -0.2481715  
   0.078996100    -0.8468912   -0.1228591  
   0.080996000    -0.8536372    0.0052574  
   0.082995900    -0.8410770    0.1330448  
   0.084995800    -0.8090744    0.2573184  
   0.086995700    -0.7586454    0.3758042  
   0.088995600    -0.6905660    0.4853463  
   0.090995500    -0.6067590    0.5835413  
   0.092995400    -0.5084128    0.6677973  
   0.094995300    -0.3977576    0.7361395  
   0.096995200    -0.2778680    0.7867594  
   0.098995100    -0.1505411    0.8182717  
   0.100995000    -0.0202358    0.8289413  
   0.102994900     0.1106876    0.8190908  
   0.104994800     0.2385765    0.7885265  
   0.106994700     0.3604575    0.7377684  
   0.108994600     0.4726990    0.6684436  
   0.110994500     0.5722667    0.5821212  
   0.112994400     0.6569391    0.4806537  
   0.114994300     0.7242039    0.3671750  
   0.116994200     0.7724153    0.2443516  
   0.118994100     0.8005096    0.1156463  
   0.120994000     0.8073095   -0.0156204  
   0.122993900     0.7931371   -0.1458615  
   0.124993800     0.7586372   -0.2717712  
   0.126993700     0.7043826   -0.3904143  
   0.128993600     0.6327103   -0.4985169  
   0.130993500     0.5449436   -0.5931123  
   0.132993400     0.4436822   -0.6724060  
   0.134993300     0.3320072   -0.7344755  
   0.136993200     0.2125571   -0.7779455  
   0.138993100     0.0883522   -0.8022347  
   0.140993000    -0.0372629   -0.8068585  
   0.142992900    -0.1612930   -0.7923293  
   0.144992800    -0.2810058   -0.7590632  
   0.146992700    -0.3938693   -0.7080727  
   0.148992600    -0.4971006   -0.6408756  
   0.150992500    -0.5885106   -0.5595120  
   0.152992400    -0.6661553   -0.4652511  
   0.154992300    -0.7286295   -0.3608767  
   0.156992200    -0.7745220   -0.2487729  
   0.158992100    -0.8034997   -0.1313344  
   0.160992000    -0.8144512   -0.0111778  
   0.162991900    -0.8076532    0.1092085  
   0.164991800    -0.7827063    0.2270934  
   0.166991700    -0.7407127    0.3399823  
   0.168991600    -0.6823693    0.4451488  
   0.170991500    -0.6090463    0.5411431  
   0.172991400    -0.5219340    0.6246838  
   0.174991300    -0.4235918    0.6944993  
   0.176991200    -0.3149990    0.7492448  
   0.178991100    -0.1990952    0.7873282  
   0.180991000    -0.0791711    0.8072973  
   0.182990900     0.0429551    0.8090581  
   0.184990800     0.1650834    0.7919878  
   0.186990700     0.2836625    0.7569265  
   0.188990600     0.3743957    0.7145751  
   0.190990500     0.4945619    0.6356039  
   0.192990400     0.5880198    0.5481554  
   0.194990300     0.6648130    0.4494361  
   0.196990200     0.7253041    0.3400484  
   0.198990100     0.7679539    0.2223519  
   0.200990000     0.7920845    0.0988851  
   0.202989900     0.7963399   -0.0275620  
   0.204989800     0.7802924   -0.1532076  
   0.206989700     0.7450930   -0.2739976  
   0.208989600     0.6910971   -0.3878775  
   0.210989500     0.6193599   -0.4920955  
   0.212989400     0.5319370   -0.5838918  
   0.214989300     0.4312911   -0.6602179  
   0.216989200     0.3203017   -0.7193005  
   0.218989100     0.2016893   -0.7596514  
   0.220989000     0.0782992   -0.7809615  
   0.222988900    -0.0468400   -0.7823967  
   0.224988800    -0.1704876   -0.7640286  
   0.226988700    -0.2888374   -0.7259826  
   0.228988600    -0.3991704   -0.6704878  
   0.230988500    -0.4990200   -0.5986512  
   0.232988400    -0.5858857   -0.5119102  
   0.234988300    -0.6581782   -0.4127872  
   0.236988200    -0.7137138   -0.3036089  
   0.238988100    -0.7514171   -0.1875467  
   0.240988000    -0.7702736   -0.0681307  
   0.242987900    -0.7701235    0.0523126  
   0.244987800    -0.7515822    0.1708648  
   0.246987700    -0.7145998    0.2853314  
   0.248987600    -0.6603993    0.3929039  
   0.250987500    -0.5899262    0.4907014  
   0.252987400    -0.5055835    0.5758307  
   0.254987300    -0.4094538    0.6466587  
   0.256987200    -0.3038829    0.7014437  
   0.258987100    -0.1911105    0.7396191  
   0.260987000    -0.0734176    0.7598545  
   0.262986900     0.0465882    0.7614701  
   0.264986800     0.1654089    0.7447888  
   0.266986700     0.2807153    0.7092159  
   0.268986600     0.3885948    0.6565251  
   0.270986500     0.4871263    0.5880629  
   0.272986400     0.5737562    0.5048589  
   0.274986300     0.6464811    0.4091446  
   0.276986200     0.7034444    0.3030122  
   0.278986100     0.7437251    0.1886871  
   0.280986000     0.7656659    0.0691337  
   0.282985900     0.7682943   -0.0527164  
   0.284985800     0.7519622   -0.1735984  
   0.286985700     0.7168510   -0.2904840  
   0.288985600     0.6638165   -0.3997957  
   0.290985500     0.5948439   -0.4990639  
   0.292985400     0.5113655   -0.5862913  
   0.294985300     0.4154340   -0.6595525  
   0.296985200     0.3089441   -0.7172145  
   0.298985100     0.1940218   -0.7574289  
   0.300985000     0.0741871   -0.7793122  
   0.302984900    -0.0469256   -0.7822970  
   0.304984800    -0.1668855   -0.7662029  
   0.306984700    -0.2824035   -0.7317785  
   0.308984600    -0.3902105   -0.6803994  
   0.310984500    -0.4879406   -0.6136677  
   0.312984400    -0.5745789   -0.5331385  
   0.314984300    -0.6469684   -0.4406112  
   0.316984200    -0.7049257   -0.3384706  
   0.318984100    -0.7465875   -0.2282524  
   0.320984000    -0.7712008   -0.1124511  
   0.322983900    -0.7773951    0.0059918  
   0.324983800    -0.7655644    0.1234605  
   0.326983700    -0.7359461    0.2374311  
   0.328983600    -0.6892651    0.3454787  
   0.330983500    -0.6267532    0.4443994  
   0.332983400    -0.5505879    0.5323275  
   0.334983300    -0.4619621    0.6075205  
   0.336983200    -0.3632891    0.6684518  
   0.338983100    -0.2558427    0.7134693  
   0.340983000    -0.1429523    0.7418198  
   0.342982900    -0.0270385    0.7522224  
   0.344982800     0.0898184    0.7448385  
   0.346982700     0.2052984    0.7192159  
   0.348982600     0.3154774    0.6756632  
   0.350982500     0.4179203    0.6151993  
   0.352982400     0.5097297    0.5392772  
   0.354982300     0.5916968    0.4453837  
   0.356982200     0.6624275    0.3276748  
   0.358982100     0.7109055    0.1994467  
   0.360982000     0.7353537    0.0645431  
   0.362981900     0.7347317   -0.0723224  
   0.364981800     0.7089780   -0.2075614  
   0.366981700     0.6590642   -0.3354207  
   0.368981600     0.5863701   -0.4526217  
   0.370981500     0.4933707   -0.5543229  
   0.372981400     0.3830206   -0.6374136  
   0.374981300     0.2590090   -0.6985358  
   0.376981200     0.3534332   -0.6497238  
   0.378981100     0.2277271   -0.7059916  
   0.380981000     0.0938856   -0.7378180  
   0.382980900    -0.0311509   -0.7450276  
   0.384980800    -0.1503768   -0.7324318  
   0.386980700    -0.2652780   -0.7012382  
   0.388980600    -0.3736214   -0.6518577  
   0.390980500    -0.4719520   -0.5871151  
   0.392980400    -0.5579971   -0.5085968  
   0.394980300    -0.6304941   -0.4184507  
   0.396980200    -0.6882567   -0.3188730  
   0.398980100    -0.7296162   -0.2122915  
   0.400980000    -0.7545003   -0.1010369  
   0.402979900    -0.7620660    0.0123897  
   0.404979800    -0.7529031    0.1248920  
   0.406979700    -0.7269766    0.2347900  
   0.408979600    -0.6853186    0.3384876  
   0.410979500    -0.6282256    0.4359274  
   0.412979400    -0.5570385    0.5238945  
   0.414979300    -0.4734195    0.6005667  
   0.416979200    -0.3789479    0.6637651  
   0.418979100    -0.2764605    0.7120805  
   0.420979000    -0.1675057    0.7441035  
   0.422978900    -0.0544491    0.7599131  
   0.424978800     0.0603134    0.7583264  
   0.426978700     0.1741246    0.7389734  
   0.428978600     0.2835321    0.7024988  
   0.430978500     0.3864602    0.6495592  
   0.432978400     0.4799987    0.5813328  
   0.434978300     0.5619183    0.4994179  
   0.436978200     0.6305686    0.4052496  
   0.438978100     0.6839700    0.3008504  
   0.440978000     0.7204700    0.1892788  
   0.442977900     0.7389228    0.0727787  
   0.444977800     0.7385339   -0.0456994  
   0.446977700     0.7193650   -0.1630040  
   0.448977600     0.6816173   -0.2756470  
   0.450977500     0.6262439   -0.3809228  
   0.452977400     0.5538467   -0.4765204  
   0.454977300     0.4665085   -0.5600276  
   0.456977200     0.3664468   -0.6277205  
   0.458977100     0.2560365   -0.6785894  
   0.460977000     0.1390632   -0.7102722  
   0.462976900     0.0192130   -0.7223276  
   0.464976800    -0.1009358   -0.7144012  
   0.466976700    -0.2177522   -0.6870821  
   0.468976600    -0.3280056   -0.6413754  
   0.470976500    -0.4291334   -0.5783799  
   0.472976400    -0.5183419   -0.5003736  
   0.474976300    -0.5931881   -0.4094595  
   0.476976200    -0.6520332   -0.3082758  
   0.478976100    -0.6936319   -0.2000814  
   0.480976000    -0.7174416   -0.0873846  
   0.482975900    -0.7231866    0.0264310  
   0.484975800    -0.7112341    0.1392985  
   0.486975700    -0.6821887    0.2485692  
   0.488975600    -0.6365829    0.3515179  
   0.490975500    -0.5759134    0.4461474  
   0.492975400    -0.5015798    0.5303230  
   0.494975300    -0.4155823    0.6019294  
   0.496975200    -0.3195792    0.6594124  
   0.498975100    -0.2161783    0.7016574  
   0.500975000    -0.1078516    0.7277322  
   0.502974900     0.0029389    0.7368453  
   0.504974800     0.1143215    0.7292860  
   0.506974700     0.2239363    0.7046897  
   0.508974600     0.3290242    0.6632439  
   0.510974500     0.4268834    0.6059118  
   0.512974400     0.5151396    0.5341097  
   0.514974300     0.5911475    0.4496417  
   0.516974200     0.6538421    0.3543756  
   0.518974100     0.7007923    0.2502376  
   0.520974000     0.7313707    0.1400597  
   0.522973900     0.7444394    0.0261047  
   0.524973800     0.7397916   -0.0888983  
   0.526973700     0.7171303   -0.2027934  
   0.528973600     0.6770374   -0.3113145  
   0.530973500     0.6200415   -0.4133442  
   0.532973400     0.5473887   -0.5051408  
   0.534973300     0.4616186   -0.5844352  
   0.536973200     0.3632440   -0.6495165  
   0.538973100     0.2567691   -0.6979521  
   0.540973000     0.1442261   -0.7290713  
   0.542972900     0.0278805   -0.7420669  
   0.544972800    -0.0887107   -0.7364376  
   0.546972700    -0.2036911   -0.7127919  
   0.548972600    -0.3132491   -0.6710652  
   0.550972500    -0.4146672   -0.6125443  
   0.552972400    -0.5060661   -0.5386051  
   0.554972300    -0.5843008   -0.4511419  
   0.556972200    -0.6474955   -0.3526115  
   0.558972100    -0.6943237   -0.2451889  
   0.560972000    -0.7232722   -0.1322275  
   0.562971900    -0.7340714   -0.0165445  
   0.564971800    -0.7262365    0.0984697  
   0.566971700    -0.7006713    0.2107020  
   0.568971600    -0.6578379    0.3171430  
   0.570971500    -0.5992059    0.4153409  
   0.572971400    -0.5256025    0.5028907  
   0.574971300    -0.4391673    0.5780239  
   0.576971200    -0.3414890    0.6386746  
   0.578971100    -0.2354245    0.6832153  
   0.580971000    -0.1236389    0.7101763  
   0.582970900    -0.0091292    0.7192619  
   0.584970800     0.1052175    0.7100624  
   0.586970700     0.2165127    0.6828071  
   0.588970600     0.3217872    0.6383035  
   0.590970500     0.4188402    0.5776113  
   0.592970400     0.5053265    0.5020218  
   0.594970300     0.5785130    0.4133304  
   0.596970200     0.6369447    0.3143734  
   0.598970100     0.6786942    0.2072130  
   0.600970000     0.7028171    0.0940820  
   0.602969900     0.7082581   -0.0215115  
   0.604969800     0.6953087   -0.1372541  
   0.606969700     0.6640261   -0.2492236  
   0.608969600     0.6146958   -0.3552257  
   0.610969500     0.5487618   -0.4519010  
   0.612969400     0.4679301   -0.5366353  
   0.614969300     0.3749702   -0.6070747  
   0.616969200     0.2725241   -0.6614193  
   0.618969100     0.1628568   -0.6983667  
   0.620969000     0.0498552   -0.7172667  
   0.622968900    -0.0651460   -0.7182508  
   0.624968800    -0.1782631   -0.7015045  
   0.626968700    -0.2877231   -0.6669245  
   0.628968600    -0.3903373   -0.6157883  
   0.630968500    -0.4836701   -0.5494685  
   0.632968400    -0.5649971   -0.4695992  
   0.634968300    -0.6330548   -0.3781269  
   0.636968200    -0.6856934   -0.2776836  
   0.638968100    -0.7222513   -0.1707957  
   0.640968000    -0.7422518   -0.0595734  
   0.642967900    -0.7447815    0.0532163  
   0.644967800    -0.7301846    0.1644564  
   0.646967700    -0.6989728    0.2719461  
   0.648967600    -0.6521061    0.3731048  
   0.650967500    -0.5907682    0.4657762  
   0.652967400    -0.5168152    0.5480136  
   0.654967300    -0.4312453    0.6178178  
   0.656967200    -0.3364670    0.6746268  
   0.658967100    -0.2344099    0.7163618  
   0.660967000    -0.1266566    0.7423132  
   0.662966900    -0.0157349    0.7516850  
   0.664966800     0.0961457    0.7444553  
   0.666966700     0.2064359    0.7203376  
   0.668966600     0.3120906    0.6793899  
   0.670966500     0.4105430    0.6225027  
   0.672966400     0.4989305    0.5508771  
   0.674966300     0.5759439    0.4660331  
   0.676966200     0.6386783    0.3707459  
   0.678966100     0.6861445    0.2666900  
   0.680966000     0.7168257    0.1558852  
   0.682965900     0.7301016    0.0417172  
   0.684965800     0.7249049   -0.0734460  
   0.686965700     0.7014802   -0.1866954  
   0.688965600     0.6607559   -0.2954905  
   0.690965500     0.6032879   -0.3961602  
   0.692965400     0.5304370   -0.4867305  
   0.694965300     0.4439186   -0.5644076  
   0.696965200     0.3461986   -0.6272750  
   0.698965100     0.2396912   -0.6737077  
   0.700965000     0.1270993   -0.7026306  
   0.702964900     0.0113498   -0.7130307  
   0.704964800    -0.1044573   -0.7047315  
   0.706964700    -0.2172558   -0.6780893  
   0.708964600    -0.3240775   -0.6338650  
   0.710964500    -0.4224961   -0.5732148  
   0.712964400    -0.5092346   -0.4977270  
   0.714964300    -0.5825447   -0.4095204  
   0.716964200    -0.6407178   -0.3118337  
   0.718964100    -0.6824172   -0.2067052  
   0.720964000    -0.7070776   -0.0973715  
   0.722963900    -0.7145683    0.0137217  
   0.724963800    -0.7048410    0.1244019  
   0.726963700    -0.6781471    0.2315899  
   0.728963600    -0.6358111    0.3330395  
   0.730963500    -0.5784928    0.4267098  
   0.732963400    -0.5078920    0.5104563  
   0.734963300    -0.4252995    0.5820720  
   0.736963200    -0.3170785    0.6478005  
   0.738963100    -0.1981865    0.6940567  
   0.740963000    -0.0724948    0.7191801  
   0.742962900     0.0558459    0.7216663  
   0.744962800     0.1831155    0.7020115  
   0.746962700     0.3056222    0.6601894  
   0.748962600     0.4196062    0.5973096  
   0.750962500     0.3052073    0.6580517  
   0.752962400     0.4177302    0.5937472  
   0.754962300     0.5174668    0.5103528  
   0.756962200     0.6010943    0.4103522  
   0.758962100     0.6663078    0.2968848  
   0.760962000     0.7106597    0.1734526  
   0.762961900     0.7315203    0.0501806  
   0.764961800     0.7312764   -0.0638712  
   0.766961700     0.7137063   -0.1766517  
   0.768961600     0.6783381   -0.2860326  
   0.770961500     0.6264216   -0.3883497  
   0.772961400     0.5589706   -0.4818022  
   0.774961300     0.4777510   -0.5632885  
   0.776961200     0.3840488   -0.6313503  
   0.778961100     0.2808371   -0.6841817  
   0.780961000     0.1701765   -0.7199664  
   0.782960900     0.0547038   -0.7379187  
   0.784960800    -0.0620720   -0.7372890  
   0.786960700    -0.1775916   -0.7180315  
   0.788960600    -0.2884009   -0.6805468  
   0.790960500    -0.3913424   -0.6260411  
   0.792960400    -0.4839380   -0.5560320  
   0.794960300    -0.5641372   -0.4725786  
   0.796960200    -0.6295576   -0.3779048  
   0.798960100    -0.6790456   -0.2750691  
   0.800960000    -0.7118640   -0.1663548  
   0.802959900    -0.7268547   -0.0541672  
   0.804959800    -0.7244694    0.0579379  
   0.806959700    -0.7047989    0.1681218  
   0.808959600    -0.6687172    0.2731148  
   0.810959500    -0.6169772    0.3708381  
   0.812959400    -0.5514231    0.4595173  
   0.814959300    -0.4732480    0.5363417  
   0.816959200    -0.3845414    0.6004324  
   0.818959100    -0.2870247    0.6500462  
   0.820959000    -0.1833236    0.6843475  
   0.822958900    -0.0754905    0.7023924  
   0.824958800     0.0341740    0.7037498  
   0.826958700     0.1422652    0.6879721  
   0.828958600     0.2471922    0.6559548  
   0.830958500     0.3460778    0.6085035  
   0.832958400     0.4367232    0.5458934  
   0.834958300     0.5164520    0.4702633  
   0.836958200     0.5839895    0.3829421  
   0.838958100     0.6373295    0.2858358  
   0.840958000     0.6747871    0.1811745  
   0.842957900     0.6960567    0.0714632  
   0.844957800     0.6997792   -0.0409105  
   0.846957700     0.6854899   -0.1526745  
   0.848957600     0.6538320   -0.2613758  
   0.850957500     0.6050379   -0.3638277  
   0.852957400     0.5402595   -0.4576676  
   0.854957300     0.4616452   -0.5399053  
   0.856957200     0.3704754   -0.6090423  
   0.858957100     0.2697156   -0.6622720  
   0.860957000     0.1619937   -0.6989892  
   0.862956900     0.0502959   -0.7183063  
   0.864956800    -0.0625249   -0.7200223  
   0.866956700    -0.1738786   -0.7038917  
   0.868956600    -0.2806263   -0.6712207  
   0.870956500    -0.3810490   -0.6226236  
   0.872956400    -0.4724994   -0.5590777  
   0.874956300    -0.5530221   -0.4825714  
   0.876956200    -0.6207430   -0.3945104  
   0.878956100    -0.6740991   -0.2977164  
   0.880956000    -0.7119216   -0.1937898  
   0.882955900    -0.7336593   -0.0856760  
   0.884955800    -0.7385953    0.0241259  
   0.886955700    -0.7269602    0.1333285  
   0.888955600    -0.6992862    0.2394080  
   0.890955500    -0.6556183    0.3395256  
   0.892955400    -0.5977944    0.4318465  
   0.894955300    -0.5265064    0.5149083  
