! MS46122B
! 2250307/22442219
! 6/14/2025 10:20:10 AM
! C:\USERS\SPARKY\DOCUMENTS\VNA_DATA\JUNE14_2025\295K\PORT2_MOS6.S1P
! CHANNEL.1
! TR.MEASUREMENT
! RAW.DATA
# GHZ S RI R 50.0
! FREQ.GHZ         S11RE         S11IM         
!; PortSelection: Port_1
   0.001000000     1.0212510   -0.0594216  
   0.002999900     0.9302748   -0.2198245  
   0.004999800     0.8619205   -0.3636792  
   0.006999700     0.7810132   -0.4950504  
   0.008999600     0.6851099   -0.6074342  
   0.010999500     0.5779101   -0.7063358  
   0.012999400     0.4606774   -0.7909828  
   0.014999300     0.3340008   -0.8590469  
   0.016999200     0.1997083   -0.9079406  
   0.018999100     0.0593585   -0.9357932  
   0.020999000    -0.0834755   -0.9406794  
   0.022998900    -0.2257634   -0.9224954  
   0.024998800    -0.3381412   -0.8578163  
   0.026998700    -0.4928326   -0.8145360  
   0.028998600    -0.6104248   -0.7276488  
   0.030998500    -0.7121797   -0.6219251  
   0.032998400    -0.7632790   -0.4986452  
   0.034998300    -0.8587842   -0.3676287  
   0.036998200    -0.8998178   -0.2265249  
   0.038998100    -0.9180133   -0.0810958  
   0.040998000    -0.9138825    0.0645238  
   0.042997900    -0.8873335    0.2072764  
   0.044997800    -0.8200963    0.3174987  
   0.046997700    -0.7716808    0.4705643  
   0.048997600    -0.6852542    0.5854878  
   0.050997500    -0.5819308    0.6854355  
   0.052997400    -0.4654977    0.7669226  
   0.054997300    -0.3346477    0.8302630  
   0.056997200    -0.1963447    0.8708675  
   0.058997100    -0.0535042    0.8885284  
   0.060997000     0.0899620    0.8828049  
   0.062996900     0.2308156    0.8538075  
   0.064996800     0.3649738    0.8028064  
   0.066996700     0.4889996    0.7309515  
   0.068996600     0.5998639    0.6402863  
   0.070996500     0.6945769    0.5333481  
   0.072996400     0.7713723    0.4131057  
   0.074996300     0.8274774    0.2823081  
   0.076996200     0.8621716    0.1447690  
   0.078996100     0.8744671    0.0037154  
   0.080996000     0.8640590   -0.1371071  
   0.082995900     0.8315256   -0.2737453  
   0.084995800     0.7778848   -0.4031803  
   0.086995700     0.7047496   -0.5218967  
   0.088995600     0.6139546   -0.6270914  
   0.090995500     0.5086180   -0.7161647  
   0.092995400     0.3911229   -0.7871626  
   0.094995300     0.2645741   -0.8391682  
   0.096995200     0.1321264   -0.8710414  
   0.098995100    -0.0028351   -0.8819110  
   0.100995000    -0.1373253   -0.8721451  
   0.102994900    -0.2686850   -0.8419272  
   0.104994800    -0.3929926   -0.7925734  
   0.106994700    -0.5084416   -0.7251163  
   0.108994600    -0.6120083   -0.6413252  
   0.110994500    -0.7014576   -0.5429398  
   0.112994400    -0.7749330   -0.4325137  
   0.114994300    -0.8312631   -0.3122606  
   0.116994200    -0.8686818   -0.1852036  
   0.118994100    -0.8863190   -0.0540860  
   0.120994000    -0.8841806    0.0785475  
   0.122993900    -0.8620183    0.2094121  
   0.124993800    -0.8205825    0.3355124  
   0.126993700    -0.7603366    0.4544537  
   0.128993600    -0.6824998    0.5630134  
   0.130993500    -0.5888903    0.6586470  
   0.132993400    -0.4812347    0.7394857  
   0.134993300    -0.3621637    0.8030332  
   0.136993200    -0.2342183    0.8476932  
   0.138993100    -0.1000401    0.8719369  
   0.140993000     0.0365631    0.8751624  
   0.142992900     0.1728999    0.8567457  
   0.144992800     0.3051833    0.8171002  
   0.146992700     0.4298320    0.7567010  
   0.148992600     0.5436867    0.6768046  
   0.150992500     0.6435218    0.5796281  
   0.152992400     0.7270352    0.4674014  
   0.154992300     0.7911119    0.3430617  
   0.156992200     0.8349105    0.2096499  
   0.158992100     0.8562271    0.0708149  
   0.160992000     0.8545994   -0.0699175  
   0.162991900     0.8303066   -0.2078347  
   0.164991800     0.7838510   -0.3404757  
   0.166991700     0.7171850   -0.4629500  
   0.168991600     0.6313211   -0.5729200  
   0.170991500     0.5290639   -0.6675974  
   0.172991400     0.4132659   -0.7436480  
   0.174991300     0.2875014   -0.8002120  
   0.176991200     0.1550109   -0.8355474  
   0.178991100     0.0189230   -0.8492149  
   0.180991000    -0.1165190   -0.8409938  
   0.182990900    -0.2484026   -0.8116371  
   0.184990800    -0.3734703   -0.7621582  
   0.186990700    -0.4885059   -0.6939127  
   0.188990600    -0.5729151   -0.6257586  
   0.190990500    -0.6753560   -0.5130087  
   0.192990400    -0.7478052   -0.3989998  
   0.194990300    -0.8001699   -0.2791728  
   0.196990200    -0.8328034   -0.1538150  
   0.198990100    -0.8465921   -0.0255898  
   0.200990000    -0.8404223    0.1033419  
   0.202989900    -0.8145432    0.2296703  
   0.204989800    -0.7703370    0.3502451  
   0.206989700    -0.7085873    0.4620101  
   0.208989600    -0.6312564    0.5630813  
   0.210989500    -0.5391228    0.6516536  
   0.212989400    -0.4344169    0.7253042  
   0.214989300    -0.3201050    0.7829230  
   0.216989200    -0.1985163    0.8220748  
   0.218989100    -0.0725282    0.8427092  
   0.220989000     0.0556245    0.8442238  
   0.222988900     0.1831967    0.8261994  
   0.224988800     0.3070707    0.7888008  
   0.226988700     0.4237048    0.7332388  
   0.228988600     0.5304728    0.6607080  
   0.230988500     0.6254264    0.5724553  
   0.232988400     0.7058872    0.4702812  
   0.234988300     0.7700427    0.3565396  
   0.236988200     0.8163711    0.2335590  
   0.238988100     0.8430859    0.1049988  
   0.240988000     0.8495434   -0.0261213  
   0.242987900     0.8357888   -0.1563084  
   0.244987800     0.8018006   -0.2834864  
   0.246987700     0.7485885   -0.4039353  
   0.248987600     0.6769709   -0.5152038  
   0.250987500     0.5888367   -0.6139255  
   0.252987400     0.4866432   -0.6975066  
   0.254987300     0.3731627   -0.7639316  
   0.256987200     0.2513370   -0.8114340  
   0.258987100     0.1238385   -0.8395387  
   0.260987000    -0.0068453   -0.8477067  
   0.262986900    -0.1371824   -0.8355476  
   0.264986800    -0.2637714   -0.8031234  
   0.266986700    -0.3836491   -0.7516823  
   0.268986600    -0.4934055   -0.6823955  
   0.270986500    -0.5904893   -0.5977533  
   0.272986400    -0.6730335   -0.4996411  
   0.274986300    -0.7395446   -0.3906857  
   0.276986200    -0.7882561   -0.2726027  
   0.278986100    -0.8182258   -0.1485631  
   0.280986000    -0.8287041   -0.0209992  
   0.282985900    -0.8196661    0.1063645  
   0.284985800    -0.7911282    0.2306078  
   0.286985700    -0.7437376    0.3486544  
   0.288985600    -0.6793137    0.4571507  
   0.290985500    -0.5998780    0.5539668  
   0.292985400    -0.5065570    0.6374274  
   0.294985300    -0.4014624    0.7057657  
   0.296985200    -0.2864752    0.7576305  
   0.298985100    -0.1642423    0.7912797  
   0.300985000    -0.0380952    0.8056045  
   0.302984900     0.0886961    0.8001769  
   0.304984800     0.2134016    0.7749211  
   0.306984700     0.3326242    0.7305695  
   0.308984600     0.4429405    0.6686586  
   0.310984500     0.5420519    0.5906419  
   0.312984400     0.6282421    0.4976173  
   0.314984300     0.6986620    0.3926207  
   0.316984200     0.7522572    0.2775392  
   0.318984100     0.7874466    0.1546144  
   0.320984000     0.8028170    0.0270089  
   0.322983900     0.7979178   -0.1020717  
   0.324983800     0.7728124   -0.2285884  
   0.326983700     0.7278398   -0.3494387  
   0.328983600     0.6645884   -0.4617778  
   0.330983500     0.5843841   -0.5622468  
   0.332983400     0.4900646   -0.6482768  
   0.334983300     0.3835881   -0.7185171  
   0.336983200     0.2679681   -0.7710201  
   0.338983100     0.1457813   -0.8049121  
   0.340983000     0.0201992   -0.8194398  
   0.342982900    -0.1056083   -0.8141820  
   0.344982800    -0.2296951   -0.7899691  
   0.346982700    -0.3485169   -0.7463907  
   0.348982600    -0.4593055   -0.6851348  
   0.350982500    -0.5587182   -0.6078091  
   0.352982400    -0.6452941   -0.5160475  
   0.354982300    -0.7189724   -0.4075598  
   0.356982200    -0.7786615   -0.2748810  
   0.358982100    -0.8134640   -0.1349415  
   0.360982000    -0.8233352    0.0073281  
   0.362981900    -0.8081339    0.1484436  
   0.364981800    -0.7685453    0.2840170  
   0.366981700    -0.7066333    0.4104534  
   0.368981600    -0.6241946    0.5236971  
   0.370981500    -0.5240697    0.6206928  
   0.372981400    -0.4085595    0.6989921  
   0.374981300    -0.2813337    0.7565516  
   0.376981200    -0.3976772    0.7108129  
   0.378981100    -0.2659699    0.7666422  
   0.380981000    -0.1267029    0.7983665  
   0.382980900     0.0027806    0.8058522  
   0.384980800     0.1263080    0.7934182  
   0.386980700     0.2469473    0.7621422  
   0.388980600     0.3610953    0.7120019  
   0.390980500     0.4661438    0.6449714  
   0.392980400     0.5592325    0.5623619  
   0.394980300     0.6384547    0.4664641  
   0.396980200     0.7016644    0.3595027  
   0.398980100     0.7476746    0.2435231  
   0.400980000     0.7745922    0.1215293  
   0.402979900     0.7822474   -0.0034477  
   0.404979800     0.7697818   -0.1280898  
   0.406979700     0.7381579   -0.2492257  
   0.408979600     0.6874034   -0.3635982  
   0.410979500     0.6188998   -0.4689079  
   0.412979400     0.5341080   -0.5624616  
   0.414979300     0.4356588   -0.6409703  
   0.416979200     0.3258218   -0.7026963  
   0.418979100     0.2083385   -0.7459177  
   0.420979000     0.0855430   -0.7701018  
   0.422978900    -0.0393720   -0.7741218  
   0.424978800    -0.1630273   -0.7581959  
   0.426978700    -0.2822313   -0.7229832  
   0.428978600    -0.3935782   -0.6697224  
   0.430978500    -0.4945417   -0.6005114  
   0.432978400    -0.5826873   -0.5167044  
   0.434978300    -0.6563165   -0.4214719  
   0.436978200    -0.7138854   -0.3168766  
   0.438978100    -0.7550722   -0.2050724  
   0.440978000    -0.7789072   -0.0891573  
   0.442977900    -0.7845582    0.0286793  
   0.444977800    -0.7729096    0.1452190  
   0.446977700    -0.7440155    0.2586367  
   0.448977600    -0.6992137    0.3656707  
   0.450977500    -0.6389784    0.4645065  
   0.452977400    -0.5647244    0.5537995  
   0.454977300    -0.4782576    0.6317698  
   0.456977200    -0.3804147    0.6957483  
   0.458977100    -0.2743941    0.7448550  
   0.460977000    -0.1623227    0.7774361  
   0.462976900    -0.0467311    0.7931781  
   0.464976800     0.0701708    0.7918171  
   0.466976700     0.1854594    0.7731641  
   0.468976600     0.2971739    0.7376024  
   0.470976500     0.4027038    0.6852769  
   0.472976400     0.4994984    0.6178715  
   0.474976300     0.5854142    0.5360931  
   0.476976200     0.6580237    0.4424716  
   0.478976100     0.7161761    0.3386580  
   0.480976000     0.7575659    0.2277754  
   0.482975900     0.7821284    0.1114091  
   0.484975800     0.7888859   -0.0074005  
   0.486975700     0.7773358   -0.1267753  
   0.488975600     0.7475427   -0.2431542  
   0.490975500     0.7000219   -0.3539942  
   0.492975400     0.6359928   -0.4568338  
   0.494975300     0.5560294   -0.5486879  
   0.496975200     0.4628005   -0.6272547  
   0.498975100     0.3583798   -0.6899217  
   0.500975000     0.2454290   -0.7358225  
   0.502974900     0.1265130   -0.7635019  
   0.504974800     0.0049449   -0.7720255  
   0.506974700    -0.1169652   -0.7614896  
   0.508974600    -0.2364002   -0.7312933  
   0.510974500    -0.3493811   -0.6828455  
   0.512974400    -0.4530798   -0.6170514  
   0.514974300    -0.5441826   -0.5365920  
   0.516974200    -0.6211982   -0.4430552  
   0.518974100    -0.6820333   -0.3392384  
   0.520974000    -0.7254779   -0.2272838  
   0.522973900    -0.7512700   -0.1111310  
   0.524973800    -0.7580591    0.0071475  
   0.526973700    -0.7467922    0.1250544  
   0.528973600    -0.7177051    0.2391400  
   0.530973500    -0.6710057    0.3470205  
   0.532973400    -0.6088338    0.4459912  
   0.534973300    -0.5323547    0.5341775  
   0.536973200    -0.4436468    0.6091117  
   0.538973100    -0.3451084    0.6692936  
   0.540973000    -0.2390263    0.7135050  
   0.542972900    -0.1276426    0.7413837  
   0.544972800    -0.0138396    0.7519403  
   0.546972700     0.1005113    0.7451683  
   0.548972600     0.2126969    0.7210223  
   0.550972500     0.3200273    0.6801164  
   0.552972400     0.4203456    0.6235445  
   0.554972300     0.5108104    0.5520094  
   0.556972200     0.5894742    0.4670736  
   0.558972100     0.6540710    0.3715785  
   0.560972000     0.7034371    0.2668234  
   0.562971900     0.7366216    0.1562083  
   0.564971800     0.7521216    0.0417538  
   0.566971700     0.7503123   -0.0731728  
   0.568971600     0.7309046   -0.1866551  
   0.570971500     0.6946136   -0.2958057  
   0.572971400     0.6422933   -0.3986971  
   0.574971300     0.5741305   -0.4926650  
   0.576971200     0.4923640   -0.5755002  
   0.578971100     0.3983312   -0.6452192  
   0.580971000     0.2953101   -0.6996187  
   0.582970900     0.1848424   -0.7378351  
   0.584970800     0.0709247   -0.7582325  
   0.586970700    -0.0445981   -0.7613916  
   0.588970600    -0.1589664   -0.7469319  
   0.590970500    -0.2694542   -0.7153183  
   0.592970400    -0.3739139   -0.6676981  
   0.594970300    -0.4697509   -0.6050864  
   0.596970200    -0.5549240   -0.5291790  
   0.598970100    -0.6278290   -0.4411876  
   0.600970000    -0.6868054   -0.3437414  
   0.602969900    -0.7301146   -0.2388621  
   0.604969800    -0.7575732   -0.1285791  
   0.606969700    -0.7682047   -0.0156534  
   0.608969600    -0.7619657    0.0980198  
   0.610969500    -0.7387382    0.2087205  
   0.612969400    -0.6992491    0.3148618  
   0.614969300    -0.6444176    0.4135311  
   0.616969200    -0.5760847    0.5030909  
   0.618969100    -0.4956335    0.5805959  
   0.620969000    -0.4049574    0.6451640  
   0.622968900    -0.3054857    0.6958578  
   0.624968800    -0.1994992    0.7313521  
   0.626968700    -0.0888070    0.7502779  
   0.628968600     0.0236679    0.7527599  
   0.630968500     0.1353707    0.7380851  
   0.632968400     0.2440721    0.7065662  
   0.634968300     0.3471390    0.6587316  
   0.636968200     0.4414096    0.5956342  
   0.638968100     0.5255740    0.5184792  
   0.640968000     0.5966058    0.4291196  
   0.642967900     0.6530224    0.3294542  
   0.644967800     0.6935574    0.2220571  
   0.646967700     0.7169662    0.1096001  
   0.648967600     0.7222720   -0.0050032  
   0.650967500     0.7092508   -0.1187438  
   0.652967400     0.6787839   -0.2285616  
   0.654967300     0.6317935   -0.3326393  
   0.656967200     0.5687048   -0.4276202  
   0.658967100     0.4916524   -0.5116593  
   0.660967000     0.4018209   -0.5825962  
   0.662966900     0.3020093   -0.6388220  
   0.664966800     0.1940544   -0.6787709  
   0.666966700     0.0811154   -0.7009956  
   0.668966600    -0.0337973   -0.7049211  
   0.670966500    -0.1475868   -0.6904801  
   0.672966400    -0.2570604   -0.6580902  
   0.674966300    -0.3594412   -0.6093128  
   0.676966200    -0.4523451   -0.5455110  
   0.678966100    -0.5338305   -0.4682525  
   0.680966000    -0.6017386   -0.3796991  
   0.682965900    -0.6549020   -0.2819983  
   0.684965800    -0.6923726   -0.1782017  
   0.686965700    -0.7131835   -0.0698963  
   0.688965600    -0.7171292    0.0398687  
   0.690965500    -0.7048825    0.1485580  
   0.692965400    -0.6758466    0.2535909  
   0.694965300    -0.6317983    0.3525724  
   0.696965200    -0.5736119    0.4436197  
   0.698965100    -0.5023403    0.5250154  
   0.700965000    -0.4198330    0.5944684  
   0.702964900    -0.3275970    0.6506496  
   0.704964800    -0.2280975    0.6930413  
   0.706964700    -0.1229313    0.7199237  
   0.708964600    -0.0148031    0.7305894  
   0.710964500     0.0943228    0.7250499  
   0.712964400     0.2015761    0.7029195  
   0.714964300     0.3045807    0.6649473  
   0.716964200     0.4006020    0.6117209  
   0.718964100     0.4870368    0.5447029  
   0.720964000     0.5624676    0.4655081  
   0.722963900     0.6253151    0.3761092  
   0.724963800     0.6735194    0.2777934  
   0.726963700     0.7066103    0.1727495  
   0.728963600     0.7234868    0.0638470  
   0.730963500     0.7236066   -0.0471290  
   0.732963400     0.7067653   -0.1568664  
   0.734963300     0.6730402   -0.2633105  
   0.736963200     0.6149722   -0.3787700  
   0.738963100     0.5369267   -0.4821761  
   0.740963000     0.4411084   -0.5699568  
   0.742962900     0.3314048   -0.6388311  
   0.744962800     0.2109280   -0.6861735  
   0.746962700     0.0843851   -0.7110796  
   0.748962600    -0.0443466   -0.7119718  
   0.750962500     0.0468287   -0.7080800  
   0.752962400    -0.0821107   -0.7045896  
   0.754962300    -0.2075943   -0.6771243  
   0.756962200    -0.3252208   -0.6274965  
   0.758962100    -0.4310054   -0.5577363  
   0.760962000    -0.5221896   -0.4699842  
   0.762961900    -0.5926805   -0.3730831  
   0.764961800    -0.6422824   -0.2752128  
   0.766961700    -0.6757101   -0.1716810  
   0.768961600    -0.6923202   -0.0646875  
   0.770961500    -0.6924026    0.0428084  
   0.772961400    -0.6760882    0.1482164  
   0.774961300    -0.6440217    0.2490584  
   0.776961200    -0.5973112    0.3434019  
   0.778961100    -0.5369293    0.4293867  
   0.780961000    -0.4644116    0.5049362  
   0.782960900    -0.3810285    0.5686155  
   0.784960800    -0.2890603    0.6188022  
   0.786960700    -0.1904096    0.6545770  
   0.788960600    -0.0873311    0.6749691  
   0.790960500     0.0169231    0.6798224  
   0.792960400     0.1216227    0.6685025  
   0.794960300     0.2225942    0.6415236  
   0.796960200     0.3185212    0.5996483  
   0.798960100     0.4067176    0.5436096  
   0.800960000     0.4852379    0.4747316  
   0.802959900     0.5528731    0.3948669  
   0.804959800     0.6078222    0.3052679  
   0.806959700     0.6482303    0.2083128  
   0.808959600     0.6736954    0.1059585  
   0.810959500     0.6829973    0.0007465  
   0.812959400     0.6764962   -0.1054021  
   0.814959300     0.6534724   -0.2093502  
   0.816959200     0.6143288   -0.3090405  
   0.818959100     0.5603977   -0.4017216  
   0.820959000     0.4922170   -0.4852621  
   0.822958900     0.4117289   -0.5572696  
   0.824958800     0.3210588   -0.6161163  
   0.826958700     0.2220201   -0.6601973  
   0.828958600     0.1170851   -0.6883128  
   0.830958500     0.0089448   -0.6996636  
   0.832958400    -0.0989156   -0.6939881  
   0.834958300    -0.2046486   -0.6716055  
   0.836958200    -0.3052526   -0.6333210  
   0.838958100    -0.3985935   -0.5800935  
   0.840958000    -0.4821941   -0.5133512  
   0.842957900    -0.5548211   -0.4342868  
   0.844957800    -0.6140675   -0.3455804  
   0.846957700    -0.6587244   -0.2490120  
   0.848957600    -0.6879730   -0.1471732  
   0.850957500    -0.7013222   -0.0422009  
   0.852957400    -0.6985105    0.0635273  
   0.854957300    -0.6798055    0.1667937  
   0.856957200    -0.6454735    0.2661615  
   0.858957100    -0.5965722    0.3586526  
   0.860957000    -0.5349140    0.4418241  
   0.862956900    -0.4619824    0.5146853  
   0.864956800    -0.3792371    0.5744543  
   0.866956700    -0.2892624    0.6216715  
   0.868956600    -0.1936554    0.6545856  
   0.870956500    -0.0937727    0.6728365  
   0.872956400     0.0078959    0.6763083  
   0.874956300     0.1091340    0.6641131  
   0.876956200     0.2079401    0.6366407  
   0.878956100     0.3017779    0.5944992  
   0.880956000     0.3885944    0.5380111  
   0.882955900     0.4660484    0.4683952  
   0.884955800     0.5321556    0.3875087  
   0.886955700     0.5847515    0.2968530  
   0.888955600     0.6224851    0.1988319  
   0.890955500     0.6446272    0.0955217  
   0.892955400     0.6498858   -0.0097989  
   0.894955300     0.6381815   -0.1155194  
