! MS46122B
! 2250307/22442219
! 6/15/2025 11:02:28 AM
! C:\USERS\SPARKY\DOCUMENTS\VNA_DATA\JUNE15_2025\295K\PORT3_MOS6.S1P
! CHANNEL.1
! TR.MEASUREMENT
! RAW.DATA
# GHZ S RI R 50.0
! FREQ.GHZ         S11RE         S11IM         
!; PortSelection: Port_1
   0.001000000     1.0214590   -0.0593895  
   0.002999900     0.9305149   -0.2195661  
   0.004999800     0.8621746   -0.3633206  
   0.006999700     0.7813263   -0.4946012  
   0.008999600     0.6855945   -0.6069468  
   0.010999500     0.5785955   -0.7057735  
   0.012999400     0.4615902   -0.7905171  
   0.014999300     0.3350303   -0.8586848  
   0.016999200     0.2008822   -0.9075720  
   0.018999100     0.0609941   -0.9357405  
   0.020999000    -0.0820884   -0.9411608  
   0.022998900    -0.2240741   -0.9230353  
   0.024998800    -0.3363446   -0.8586625  
   0.026998700    -0.4908971   -0.8159316  
   0.028998600    -0.6086382   -0.7295506  
   0.030998500    -0.7107285   -0.6240205  
   0.032998400    -0.7620940   -0.5010325  
   0.034998300    -0.8579993   -0.3703477  
   0.036998200    -0.8995253   -0.2293400  
   0.038998100    -0.9181401   -0.0840303  
   0.040998000    -0.9143878    0.0614041  
   0.042997900    -0.8885284    0.2040009  
   0.044997800    -0.8218005    0.3143232  
   0.046997700    -0.7741756    0.4675057  
   0.048997600    -0.6882402    0.5827061  
   0.050997500    -0.5855237    0.6831463  
   0.052997400    -0.4693696    0.7651336  
   0.054997300    -0.3391138    0.8290341  
   0.056997200    -0.2011776    0.8704125  
   0.058997100    -0.0585326    0.8888656  
   0.060997000     0.0849093    0.8839123  
   0.062996900     0.2258344    0.8557190  
   0.064996800     0.3601844    0.8056154  
   0.066996700     0.4846162    0.7345881  
   0.068996600     0.5959671    0.6447051  
   0.070996500     0.6913621    0.5384489  
   0.072996400     0.7689647    0.4187477  
   0.074996300     0.8258865    0.2884164  
   0.076996200     0.8615883    0.1511556  
   0.078996100     0.8748910    0.0102186  
   0.080996000     0.8656110   -0.1305672  
   0.082995900     0.8339692   -0.2674511  
   0.084995800     0.7813690   -0.3972061  
   0.086995700     0.7092188   -0.5164750  
   0.088995600     0.6194261   -0.6222895  
   0.090995500     0.5146088   -0.7122095  
   0.092995400     0.3977829   -0.7842166  
   0.094995300     0.2716887   -0.8372272  
   0.096995200     0.1393876   -0.8702243  
   0.098995100     0.0047383   -0.8820891  
   0.100995000    -0.1301455   -0.8735160  
   0.102994900    -0.2613528   -0.8445055  
   0.104994800    -0.3862284   -0.7962138  
   0.106994700    -0.5022345   -0.7298087  
   0.108994600    -0.6063858   -0.6470955  
   0.110994500    -0.6969243   -0.5492648  
   0.112994400    -0.7713542   -0.4396195  
   0.114994300    -0.8286812   -0.3199497  
   0.116994200    -0.8672629   -0.1934150  
   0.118994100    -0.8861650   -0.0623085  
   0.120994000    -0.8852211    0.0701845  
   0.122993900    -0.8643984    0.2012580  
   0.124993800    -0.8241937    0.3278443  
   0.126993700    -0.7651846    0.4471540  
   0.128993600    -0.6884924    0.5565127  
   0.130993500    -0.5959322    0.6531031  
   0.132993400    -0.4891718    0.7349346  
   0.134993300    -0.3708840    0.7996873  
   0.136993200    -0.2435498    0.8457069  
   0.138993100    -0.1096814    0.8713841  
   0.140993000     0.0267695    0.8761842  
   0.142992900     0.1632257    0.8593793  
   0.144992800     0.2956759    0.8212177  
   0.146992700     0.4211384    0.7624469  
   0.148992600     0.5359021    0.6839148  
   0.150992500     0.6368417    0.5881477  
   0.152992400     0.7216557    0.4770238  
   0.154992300     0.7874511    0.3532863  
   0.156992200     0.8328657    0.2205902  
   0.158992100     0.8559539    0.0820748  
   0.160992000     0.8562639   -0.0585446  
   0.162991900     0.8337681   -0.1968417  
   0.164991800     0.7891890   -0.3298584  
   0.166991700     0.7239658   -0.4534175  
   0.168991600     0.6398069   -0.5645747  
   0.170991500     0.5390165   -0.6605153  
   0.172991400     0.4240909   -0.7383818  
   0.174991300     0.2994277   -0.7965530  
   0.176991200     0.1670742   -0.8340123  
   0.178991100     0.0312488   -0.8496026  
   0.180991000    -0.1043899   -0.8433185  
   0.182990900    -0.2366181   -0.8158029  
   0.184990800    -0.3624091   -0.7682922  
   0.186990700    -0.4785600   -0.7017000  
   0.188990600    -0.5640499   -0.6347820  
   0.190990500    -0.6682469   -0.5235228  
   0.192990400    -0.7424635   -0.4105854  
   0.194990300    -0.7965745   -0.2915932  
   0.196990200    -0.8312414   -0.1665733  
   0.198990100    -0.8468929   -0.0384886  
   0.200990000    -0.8426991    0.0905313  
   0.202989900    -0.8187719    0.2172842  
   0.204989800    -0.7764861    0.3385345  
   0.206989700    -0.7164501    0.4513070  
   0.208989600    -0.6407416    0.5532986  
   0.210989500    -0.5500613    0.6435006  
   0.212989400    -0.4463849    0.7189938  
   0.214989300    -0.3329241    0.7784732  
   0.216989200    -0.2120496    0.8196870  
   0.218989100    -0.0864733    0.8422760  
   0.220989000     0.0416522    0.8458307  
   0.222988900     0.1695878    0.8300006  
   0.224988800     0.2941096    0.7946787  
   0.226988700     0.4116494    0.7410750  
   0.228988600     0.5197599    0.6702814  
   0.230988500     0.6161246    0.5837619  
   0.232988400     0.6983890    0.4829156  
   0.234988300     0.7645162    0.3702925  
   0.236988200     0.8130311    0.2481126  
   0.238988100     0.8419610    0.1200870  
   0.240988000     0.8508103   -0.0110277  
   0.242987900     0.8394008   -0.1414970  
   0.244987800     0.8077111   -0.2691589  
   0.246987700     0.7566645   -0.3906433  
   0.248987600     0.6870925   -0.5032367  
   0.250987500     0.6007204   -0.6037304  
   0.252987400     0.5001346   -0.6891388  
   0.254987300     0.3878284   -0.7575665  
   0.256987200     0.2669649   -0.8075525  
   0.258987100     0.1397236   -0.8382142  
   0.260987000     0.0093208   -0.8489425  
   0.262986900    -0.1215330   -0.8392395  
   0.264986800    -0.2488500   -0.8092456  
   0.266986700    -0.3697900   -0.7600826  
   0.268986600    -0.4809699   -0.6928881  
   0.270986500    -0.5799043   -0.6101051  
   0.272986400    -0.6643075   -0.5136061  
   0.274986300    -0.7330635   -0.4056145  
   0.276986200    -0.7843283   -0.2887068  
   0.278986100    -0.8166708   -0.1649800  
   0.280986000    -0.8298428   -0.0375661  
   0.282985900    -0.8232285    0.0901352  
   0.284985800    -0.7969549    0.2150443  
   0.286985700    -0.7521694    0.3341929  
   0.288985600    -0.6899390    0.4440082  
   0.290985500    -0.6123729    0.5425849  
   0.292985400    -0.5206942    0.6280398  
   0.294985300    -0.4169053    0.6986244  
   0.296985200    -0.3031451    0.7529553  
   0.298985100    -0.1814134    0.7891871  
   0.300985000    -0.0556310    0.8060656  
   0.302984900     0.0714972    0.8034206  
   0.304984800     0.1970633    0.7808293  
   0.306984700     0.3169418    0.7391230  
   0.308984600     0.4288588    0.6794463  
   0.310984500     0.5297031    0.6035116  
   0.312984400     0.6180577    0.5123535  
   0.314984300     0.6907751    0.4088650  
   0.316984200     0.7469016    0.2949240  
   0.318984100     0.7849832    0.1726556  
   0.320984000     0.8031460    0.0452405  
   0.322983900     0.8010900   -0.0837294  
   0.324983800     0.7788693   -0.2110264  
   0.326983700     0.7367204   -0.3331177  
   0.328983600     0.6759700   -0.4469347  
   0.330983500     0.5980626   -0.5492716  
   0.332983400     0.5055503   -0.6375752  
   0.334983300     0.4005944   -0.7104503  
   0.336983200     0.2861542   -0.7656322  
   0.338983100     0.1645335   -0.8022912  
   0.340983000     0.0393025   -0.8198864  
   0.342982900    -0.0870880   -0.8175848  
   0.344982800    -0.2115533   -0.7961932  
   0.346982700    -0.3316776   -0.7553957  
   0.348982600    -0.4439459   -0.6967868  
   0.350982500    -0.5455537   -0.6214623  
   0.352982400    -0.6342843   -0.5318004  
   0.354982300    -0.7106035   -0.4247655  
   0.356982200    -0.7735398   -0.2933378  
   0.358982100    -0.8118029   -0.1541185  
   0.360982000    -0.8250161   -0.0117799  
   0.362981900    -0.8131104    0.1298581  
   0.364981800    -0.7766414    0.2666577  
   0.366981700    -0.7177832    0.3945696  
   0.368981600    -0.6378229    0.5100185  
   0.370981500    -0.5399445    0.6095777  
   0.372981400    -0.4262149    0.6906658  
   0.374981300    -0.3002352    0.7512152  
   0.376981200    -0.4158047    0.7028616  
   0.378981100    -0.2854222    0.7619275  
   0.380981000    -0.1468131    0.7971734  
   0.382980900    -0.0176536    0.8077496  
   0.384980800     0.1065670    0.7986233  
   0.386980700     0.2280929    0.7703996  
   0.388980600     0.3435365    0.7232307  
   0.390980500     0.4503992    0.6589280  
   0.392980400     0.5458439    0.5786353  
   0.394980300     0.6276507    0.4848051  
   0.396980200     0.6938153    0.3793623  
   0.398980100     0.7430497    0.2644974  
   0.400980000     0.7732439    0.1431608  
   0.402979900     0.7843943    0.0182461  
   0.404979800     0.7752982   -0.1067903  
   0.406979700     0.7469735   -0.2289693  
   0.408979600     0.6993726   -0.3449985  
   0.410979500     0.6337204   -0.4524568  
   0.412979400     0.5514239   -0.5484350  
   0.414979300     0.4550538   -0.6299309  
   0.416979200     0.3466606   -0.6948569  
   0.418979100     0.2301691   -0.7412912  
   0.420979000     0.1076006   -0.7693182  
   0.422978900    -0.0173514   -0.7767577  
   0.424978800    -0.1417812   -0.7641602  
   0.426978700    -0.2621537   -0.7323315  
   0.428978600    -0.3756729   -0.6818523  
   0.430978500    -0.4786280   -0.6152733  
   0.432978400    -0.5692734   -0.5338094  
   0.434978300    -0.6457394   -0.4402872  
   0.436978200    -0.7063400   -0.3370847  
   0.438978100    -0.7506586   -0.2259489  
   0.440978000    -0.7777360   -0.1100961  
   0.442977900    -0.7865351    0.0078315  
   0.444977800    -0.7779126    0.1249359  
   0.446977700    -0.7519313    0.2394625  
   0.448977600    -0.7098606    0.3480002  
   0.450977500    -0.6520072    0.4485194  
   0.452977400    -0.5798941    0.5400975  
   0.454977300    -0.4952330    0.6204545  
   0.456977200    -0.3989105    0.6871547  
   0.458977100    -0.2939018    0.7389614  
   0.460977000    -0.1826077    0.7745249  
   0.462976900    -0.0670931    0.7934332  
   0.464976800     0.0499543    0.7950528  
   0.466976700     0.1660419    0.7793545  
   0.468976600     0.2788709    0.7465013  
   0.470976500     0.3857934    0.6970084  
   0.472976400     0.4845253    0.6320631  
   0.474976300     0.5726801    0.5524864  
   0.476976200     0.6478548    0.4606428  
   0.478976100     0.7088257    0.3583505  
   0.480976000     0.7531753    0.2483653  
   0.482975900     0.7809267    0.1326580  
   0.484975800     0.7910272    0.0138524  
   0.486975700     0.7828547   -0.1057979  
   0.488975600     0.7562276   -0.2231633  
   0.490975500     0.7117487   -0.3354559  
   0.492975400     0.6504694   -0.4402366  
   0.494975300     0.5729841   -0.5346518  
   0.496975200     0.4818444   -0.6159090  
   0.498975100     0.3792157   -0.6817210  
   0.500975000     0.2673537   -0.7309276  
   0.502974900     0.1493011   -0.7621698  
   0.504974800     0.0273639   -0.7742342  
   0.506974700    -0.0950954   -0.7671940  
   0.508974600    -0.2157174   -0.7404834  
   0.510974500    -0.3303891   -0.6954101  
   0.512974400    -0.4362923   -0.6323671  
   0.514974300    -0.5299510   -0.5543953  
   0.516974200    -0.6099151   -0.4629083  
   0.518974100    -0.6740173   -0.3606100  
   0.520974000    -0.7208716   -0.2496182  
   0.522973900    -0.7502098   -0.1338482  
   0.524973800    -0.7606245   -0.0154436  
   0.526973700    -0.7528114    0.1031556  
   0.528973600    -0.7270702    0.2181546  
   0.530973500    -0.6833899    0.3279866  
   0.532973400    -0.6240371    0.4291444  
   0.534973300    -0.5498813    0.5197197  
   0.536973200    -0.4632936    0.5975395  
   0.538973100    -0.3662227    0.6609477  
   0.540973000    -0.2611988    0.7084567  
   0.542972900    -0.1505094    0.7395877  
   0.544972800    -0.0365155    0.7536858  
   0.546972700     0.0782955    0.7503554  
   0.548972600     0.1914898    0.7295173  
   0.550972500     0.3001566    0.6918510  
   0.552972400     0.4024286    0.6379359  
   0.554972300     0.4952998    0.5691268  
   0.556972200     0.5765929    0.4865046  
   0.558972100     0.6444556    0.3923999  
   0.560972000     0.6970520    0.2891927  
   0.562971900     0.7336949    0.1794853  
   0.564971800     0.7527020    0.0651407  
   0.566971700     0.7544977   -0.0501610  
   0.568971600     0.7386040   -0.1642944  
   0.570971500     0.7055307   -0.2748988  
   0.572971400     0.6560996   -0.3799171  
   0.574971300     0.5908752   -0.4758165  
   0.576971200     0.5114393   -0.5615324  
   0.578971100     0.4195045   -0.6341462  
   0.580971000     0.3177578   -0.6918986  
   0.582970900     0.2083737   -0.7337975  
   0.584970800     0.0946271   -0.7577305  
   0.586970700    -0.0210448   -0.7643679  
   0.588970600    -0.1363975   -0.7534795  
   0.590970500    -0.2479752   -0.7251512  
   0.592970400    -0.3541963   -0.6806762  
   0.594970300    -0.4520791   -0.6210041  
   0.596970200    -0.5400202   -0.5473930  
   0.598970100    -0.6157459   -0.4614761  
   0.600970000    -0.6780145   -0.3655217  
   0.602969900    -0.7246947   -0.2615859  
   0.604969800    -0.7556027   -0.1518611  
   0.606969700    -0.7697721   -0.0388154  
   0.608969600    -0.7669897    0.0751422  
   0.610969500    -0.7470955    0.1871073  
   0.612969400    -0.7108042    0.2946999  
   0.614969300    -0.6588781    0.3954942  
   0.616969200    -0.5932637    0.4870547  
   0.618969100    -0.5147656    0.5675380  
   0.620969000    -0.4257861    0.6352232  
   0.622968900    -0.3275505    0.6891072  
   0.624968800    -0.2225201    0.7277713  
   0.626968700    -0.1122364    0.7504982  
   0.628968600     0.0005371    0.7564343  
   0.630968500     0.1128149    0.7452168  
   0.632968400     0.2228326    0.7173824  
   0.634968300     0.3277511    0.6722696  
   0.636968200     0.4243600    0.6122138  
   0.638968100     0.5110034    0.5376813  
   0.640968000     0.5853011    0.4502752  
   0.642967900     0.6451483    0.3522170  
   0.644967800     0.6892771    0.2459877  
   0.646967700     0.7165245    0.1340062  
   0.648967600     0.7256351    0.0192511  
   0.650967500     0.7165210   -0.0953614  
   0.652967400     0.6897941   -0.2062564  
   0.654967300     0.6457589   -0.3124985  
   0.656967200     0.5859253   -0.4097996  
   0.658967100     0.5114717   -0.4967327  
   0.660967000     0.4240347   -0.5709782  
   0.662966900     0.3254733   -0.6308109  
   0.664966800     0.2186860   -0.6745527  
   0.666966700     0.1060927   -0.7007118  
   0.668966600    -0.0090000   -0.7085592  
   0.670966500    -0.1236503   -0.6981517  
   0.672966400    -0.2348076   -0.6694764  
   0.674966300    -0.3391800   -0.6240757  
   0.676966200    -0.4348953   -0.5630047  
   0.678966100    -0.5191290   -0.4883278  
   0.680966000    -0.5904028   -0.4016252  
   0.682965900    -0.6470301   -0.3055495  
   0.684965800    -0.6881741   -0.2025400  
   0.686965700    -0.7128600   -0.0944863  
   0.688965600    -0.7206035    0.0154077  
   0.690965500    -0.7118897    0.1248793  
   0.692965400    -0.6864986    0.2313278  
   0.694965300    -0.6456273    0.3320948  
   0.696965200    -0.5903656    0.4255378  
   0.698965100    -0.5215927    0.5095177  
   0.700965000    -0.4410985    0.5821886  
   0.702964900    -0.3508458    0.6418104  
   0.704964800    -0.2523325    0.6874926  
   0.706964700    -0.1477012    0.7178839  
   0.708964600    -0.0397144    0.7324335  
   0.710964500     0.0700492    0.7306228  
   0.712964400     0.1781786    0.7118748  
   0.714964300     0.2829160    0.6774889  
   0.716964200     0.3809369    0.6275589  
   0.718964100     0.4698417    0.5635388  
   0.720964000     0.5483724    0.4865894  
   0.722963900     0.6141596    0.3994470  
   0.724963800     0.6662229    0.3023253  
   0.726963700     0.7029929    0.1984258  
   0.728963600     0.7238534    0.0897144  
   0.730963500     0.7279406   -0.0214845  
   0.732963400     0.7149404   -0.1319644  
   0.734963300     0.6850916   -0.2401222  
   0.736963200     0.6310712   -0.3579034  
   0.738963100     0.5564762   -0.4646933  
   0.740963000     0.4635968   -0.5563006  
   0.742962900     0.3560401   -0.6293758  
   0.744962800     0.2368124   -0.6814286  
   0.746962700     0.1107148   -0.7111727  
   0.748962600    -0.0184608   -0.7169526  
   0.750962500     0.0732495   -0.7090601  
   0.752962400    -0.0562977   -0.7104607  
   0.754962300    -0.1833054   -0.6875173  
   0.756962200    -0.3034043   -0.6421993  
   0.758962100    -0.4123068   -0.5759751  
   0.760962000    -0.5071312   -0.4912421  
   0.762961900    -0.5815837   -0.3964468  
   0.764961800    -0.6349701   -0.2998931  
   0.766961700    -0.6723844   -0.1970946  
   0.768961600    -0.6929399   -0.0901948  
   0.770961500    -0.6969193    0.0177482  
   0.772961400    -0.6842710    0.1243345  
   0.774961300    -0.6557452    0.2268673  
   0.776961200    -0.6121240    0.3232912  
   0.778961100    -0.5545664    0.4118990  
   0.780961000    -0.4842948    0.4903703  
   0.782960900    -0.4028874    0.5572560  
   0.784960800    -0.3122524    0.6109800  
   0.786960700    -0.2144621    0.6502903  
   0.788960600    -0.1120114    0.6743906  
   0.790960500    -0.0070770    0.6828812  
   0.792960400     0.0981115    0.6752984  
   0.794960300     0.2004703    0.6515386  
   0.796960200     0.2982386    0.6128853  
   0.798960100     0.3886968    0.5599422  
   0.800960000     0.4698550    0.4934482  
   0.802959900     0.5405658    0.4156840  
   0.804959800     0.5986544    0.3277141  
   0.806959700     0.6427279    0.2318474  
   0.808959600     0.6717731    0.1300953  
   0.810959500     0.6847572    0.0249092  
   0.812959400     0.6818403   -0.0817762  
   0.814959300     0.6625574   -0.1868298  
   0.816959200     0.6268833   -0.2881609  
   0.818959100     0.5759584   -0.3826184  
   0.820959000     0.5106093   -0.4691932  
   0.822958900     0.4327208   -0.5441302  
   0.824958800     0.3436221   -0.6064581  
   0.826958700     0.2460106   -0.6541186  
   0.828958600     0.1416242   -0.6860177  
   0.830958500     0.0338863   -0.7012623  
   0.832958400    -0.0749437   -0.6995071  
   0.834958300    -0.1819878   -0.6808262  
   0.836958200    -0.2842077   -0.6462264  
   0.838958100    -0.3798797   -0.5958595  
   0.840958000    -0.4661635   -0.5317777  
   0.842957900    -0.5417448   -0.4552853  
   0.844957800    -0.6042085   -0.3682490  
   0.846957700    -0.6525815   -0.2728604  
   0.848957600    -0.6855241   -0.1714429  
   0.850957500    -0.7027181   -0.0665877  
   0.852957400    -0.7035785    0.0395077  
   0.854957300    -0.6885752    0.1440380  
   0.856957200    -0.6576051    0.2450151  
   0.858957100    -0.6118415    0.3393598  
   0.860957000    -0.5529283    0.4252074  
   0.862956900    -0.4822589    0.5010383  
   0.864956800    -0.4012557    0.5639793  
   0.866956700    -0.3127657    0.6145145  
   0.868956600    -0.2178535    0.6510412  
   0.870956500    -0.1182343    0.6728842  
   0.872956400    -0.0163740    0.6800524  
   0.874956300     0.0854777    0.6714224  
   0.876956200     0.1854784    0.6475517  
   0.878956100     0.2813888    0.6086726  
   0.880956000     0.3706030    0.5551544  
   0.882955900     0.4507921    0.4882584  
   0.884955800     0.5201647    0.4096274  
   0.886955700     0.5763133    0.3205605  
   0.888955600     0.6178792    0.2235070  
   0.890955500     0.6439147    0.1208711  
   0.892955400     0.6532438    0.0150146  
   0.894955300     0.6453252   -0.0910249  
