! MS46122B
! 2250307/22442219
! 6/11/2025 1:22:02 PM
! C:\USERS\SPARKY\DOCUMENTS\VNA_DATA\JUNE11_2025\PORT4.S1P
! CHANNEL.1
! TR.MEASUREMENT
! RAW.DATA
# GHZ S RI R 50.0
! FREQ.GHZ         S11RE         S11IM         
!; PortSelection: Port_1
   0.001000000    -0.8949237    0.0548659  
   0.002999900    -0.8654765    0.2591735  
   0.004999800    -0.8232996    0.4038830  
   0.006999700    -0.7547514    0.5310615  
   0.008999600    -0.6640046    0.6392983  
   0.010999500    -0.5553936    0.7275795  
   0.012999400    -0.4332597    0.7953160  
   0.014999300    -0.3012730    0.8411881  
   0.016999200    -0.1638280    0.8655216  
   0.018999100    -0.0245803    0.8688089  
   0.020999000     0.1128238    0.8519944  
   0.022998900     0.2456468    0.8158753  
   0.024998800     0.3430069    0.7436461  
   0.026998700     0.4863465    0.6910813  
   0.028998600     0.5896535    0.6054125  
   0.030998500     0.6787663    0.5064264  
   0.032998400     0.7183252    0.3963182  
   0.034998300     0.8074543    0.2754479  
   0.036998200     0.8436545    0.1480080  
   0.038998100     0.8596678    0.0162632  
   0.040998000     0.8547939   -0.1165529  
   0.042997900     0.8283457   -0.2472429  
   0.044997800     0.7612467   -0.3459685  
   0.046997700     0.7156183   -0.4878160  
   0.048997600     0.6323613   -0.5918880  
   0.050997500     0.5340679   -0.6816179  
   0.052997400     0.4236175   -0.7547563  
   0.054997300     0.3046832   -0.8097637  
   0.056997200     0.1767613   -0.8468299  
   0.058997100     0.0466101   -0.8640858  
   0.060997000    -0.0842756   -0.8614885  
   0.062996900    -0.2129996   -0.8395370  
   0.064996800    -0.3366646   -0.7984986  
   0.066996700    -0.4525464   -0.7393464  
   0.068996600    -0.5580266   -0.6631994  
   0.070996500    -0.6505365   -0.5720975  
   0.072996400    -0.7280582   -0.4681710  
   0.074996300    -0.7887919   -0.3537261  
   0.076996200    -0.8312774   -0.2311479  
   0.078996100    -0.8545456   -0.1039140  
   0.080996000    -0.8584321    0.0258248  
   0.082995900    -0.8425596    0.1545750  
   0.084995800    -0.8070600    0.2793485  
   0.086995700    -0.7530020    0.3978723  
   0.088995600    -0.6813365    0.5068755  
   0.090995500    -0.5937385    0.6038914  
   0.092995400    -0.4918996    0.6861592  
   0.094995300    -0.3781373    0.7520776  
   0.096995200    -0.2552063    0.7998430  
   0.098995100    -0.1257186    0.8276591  
   0.100995000     0.0063971    0.8343710  
   0.102994900     0.1385329    0.8200535  
   0.104994800     0.2667928    0.7851776  
   0.106994700     0.3882177    0.7296520  
   0.108994600     0.4993991    0.6554394  
   0.110994500     0.5970016    0.5647210  
   0.112994400     0.6787269    0.4590973  
   0.114994300     0.7425487    0.3418775  
   0.116994200     0.7866778    0.2159655  
   0.118994100     0.8100233    0.0847891  
   0.120994000     0.8117881   -0.0481013  
   0.122993900     0.7922875   -0.1792848  
   0.124993800     0.7522922   -0.3049816  
   0.126993700     0.6925265   -0.4222939  
   0.128993600     0.6156502   -0.5284300  
   0.130993500     0.5229424   -0.6203886  
   0.132993400     0.4173554   -0.6960544  
   0.134993300     0.3019788   -0.7538798  
   0.136993200     0.1795374   -0.7923209  
   0.138993100     0.0531561   -0.8112990  
   0.140993000    -0.0736447   -0.8103833  
   0.142992900    -0.1983468   -0.7902319  
   0.144992800    -0.3175582   -0.7510018  
   0.146992700    -0.4290293   -0.6944530  
   0.148992600    -0.5301028   -0.6218171  
   0.150992500    -0.6184404   -0.5354332  
   0.152992400    -0.6923041   -0.4366213  
   0.154992300    -0.7503860   -0.3283230  
   0.156992200    -0.7912722   -0.2128439  
   0.158992100    -0.8148866   -0.0929367  
   0.160992000    -0.8199188    0.0290281  
   0.162991900    -0.8069652    0.1501828  
   0.164991800    -0.7757162    0.2684206  
   0.166991700    -0.7275419    0.3799589  
   0.168991600    -0.6632770    0.4835234  
   0.170991500    -0.5836257    0.5763115  
   0.172991400    -0.4914342    0.6560723  
   0.174991300    -0.3880948    0.7214010  
   0.176991200    -0.2752646    0.7707175  
   0.178991100    -0.1560755    0.8026361  
   0.180991000    -0.0331774    0.8160696  
   0.182990900     0.0903827    0.8107483  
   0.184990800     0.2127562    0.7863296  
   0.186990700     0.3308183    0.7435638  
   0.188990600     0.4201364    0.6951517  
   0.190990500     0.5366921    0.6077255  
   0.192990400     0.6256638    0.5134376  
   0.194990300     0.6971341    0.4085489  
   0.196990200     0.7512141    0.2938339  
   0.198990100     0.7865513    0.1718161  
   0.200990000     0.8023475    0.0450590  
   0.202989900     0.7978624   -0.0830052  
   0.204989800     0.7729816   -0.2087463  
   0.206989700     0.7286052   -0.3286167  
   0.208989600     0.6655953   -0.4398458  
   0.210989500     0.5856666   -0.5398359  
   0.212989400     0.4905100   -0.6260114  
   0.214989300     0.3830709   -0.6955534  
   0.216989200     0.2663475   -0.7466547  
   0.218989100     0.1436573   -0.7785413  
   0.220989000     0.0176091   -0.7902241  
   0.222988900    -0.1088847   -0.7817395  
   0.224988800    -0.2321456   -0.7534592  
   0.226988700    -0.3485171   -0.7057128  
   0.228988600    -0.4552765   -0.6406803  
   0.230988500    -0.5498359   -0.5600433  
   0.232988400    -0.6304415   -0.4657766  
   0.234988300    -0.6950562   -0.3596607  
   0.236988200    -0.7420231   -0.2451404  
   0.238988100    -0.7703182   -0.1249993  
   0.240988000    -0.7791272   -0.0027984  
   0.242987900    -0.7689750    0.1186310  
   0.244987800    -0.7400254    0.2365817  
   0.246987700    -0.6931470    0.3488304  
   0.248987600    -0.6291257    0.4525346  
   0.250987500    -0.5493717    0.5450507  
   0.252987400    -0.4567250    0.6236913  
   0.254987300    -0.3533375    0.6864274  
   0.256987200    -0.2418956    0.7326763  
   0.258987100    -0.1243586    0.7608813  
   0.260987000    -0.0036378    0.7704858  
   0.262986900     0.1177259    0.7612609  
   0.264986800     0.2364000    0.7330503  
   0.266986700     0.3493492    0.6866180  
   0.268986600     0.4536096    0.6234184  
   0.270986500     0.5464236    0.5444607  
   0.272986400     0.6259692    0.4518869  
   0.274986300     0.6901636    0.3481279  
   0.276986200     0.7375831    0.2352883  
   0.278986100     0.7667661    0.1157968  
   0.280986000     0.7767887   -0.0074832  
   0.282985900     0.7673675   -0.1306206  
   0.284985800     0.7386854   -0.2511637  
   0.286985700     0.6909749   -0.3655459  
   0.288985600     0.6263773   -0.4702451  
   0.290985500     0.5465331   -0.5634108  
   0.292985400     0.4530882   -0.6425934  
   0.294985300     0.3486637   -0.7062557  
   0.296985200     0.2351183   -0.7530625  
   0.298985100     0.1149983   -0.7813465  
   0.300985000    -0.0079555   -0.7904948  
   0.302984900    -0.1305241   -0.7803096  
   0.304984800    -0.2495820   -0.7512240  
   0.306984700    -0.3618285   -0.7038406  
   0.308984600    -0.4647235   -0.6403568  
   0.310984500    -0.5559610   -0.5626944  
   0.312984400    -0.6337839   -0.4719459  
   0.314984300    -0.6966491   -0.3707295  
   0.316984200    -0.7434486   -0.2614707  
   0.318984100    -0.7728034   -0.1458075  
   0.320984000    -0.7844756   -0.0262089  
   0.322983900    -0.7772325    0.0933139  
   0.324983800    -0.7519829    0.2102722  
   0.326983700    -0.7089959    0.3216468  
   0.328983600    -0.6491437    0.4249370  
   0.330983500    -0.5747089    0.5175325  
   0.332983400    -0.4874203    0.5970387  
   0.334983300    -0.3891454    0.6622544  
   0.336983200    -0.2819958    0.7116209  
   0.338983100    -0.1684655    0.7439976  
   0.340983000    -0.0511080    0.7586310  
   0.342982900     0.0672821    0.7547846  
   0.344982800     0.1846682    0.7326583  
   0.346982700     0.2975871    0.6920421  
   0.348982600     0.4032986    0.6340165  
   0.350982500     0.4987699    0.5596897  
   0.352982400     0.5817849    0.4708505  
   0.354982300     0.6513225    0.3652207  
   0.356982200     0.7073265    0.2371114  
   0.358982100     0.7387614    0.1010800  
   0.360982000     0.7449008   -0.0381890  
   0.362981900     0.7252468   -0.1760993  
   0.364981800     0.6805413   -0.3083853  
   0.366981700     0.6122584   -0.4305374  
   0.368981600     0.5224079   -0.5379418  
   0.370981500     0.4143169   -0.6266969  
   0.372981400     0.2915640   -0.6942986  
   0.374981300     0.1577606   -0.7377490  
   0.376981200     0.2602724   -0.7031233  
   0.378981100     0.1258575   -0.7413555  
   0.380981000    -0.0133313   -0.7542260  
   0.382980900    -0.1398545   -0.7431665  
   0.384980800    -0.2574527   -0.7133588  
   0.386980700    -0.3679995   -0.6652523  
   0.388980600    -0.4693547   -0.6001052  
   0.390980500    -0.5584119   -0.5209333  
   0.392980400    -0.6334194   -0.4295372  
   0.394980300    -0.6931158   -0.3287474  
   0.396980200    -0.7361668   -0.2203141  
   0.398980100    -0.7620761   -0.1072620  
   0.400980000    -0.7706576    0.0079285  
   0.402979900    -0.7617557    0.1229260  
   0.404979800    -0.7357516    0.2348702  
   0.406979700    -0.6934827    0.3409248  
   0.408979600    -0.6359414    0.4393375  
   0.410979500    -0.5637128    0.5288438  
   0.412979400    -0.4790994    0.6064775  
   0.414979300    -0.3828371    0.6707757  
   0.416979200    -0.2781252    0.7200799  
   0.418979100    -0.1673291    0.7523300  
   0.420979000    -0.0522067    0.7680770  
   0.422978900     0.0644872    0.7659219  
   0.424978800     0.1799746    0.7457579  
   0.426978700     0.2914228    0.7078137  
   0.428978600     0.3963216    0.6529329  
   0.430978500     0.4912884    0.5823159  
   0.432978400     0.5740830    0.4977846  
   0.434978300     0.6429120    0.4008854  
   0.436978200     0.6957953    0.2936970  
   0.438978100     0.7313547    0.1794263  
   0.440978000     0.7482395    0.0602537  
   0.442977900     0.7457301   -0.0605860  
   0.444977800     0.7239416   -0.1798867  
   0.446977700     0.6831575   -0.2940658  
   0.448977600     0.6243568   -0.4001446  
   0.450977500     0.5486627   -0.4957630  
   0.452977400     0.4580757   -0.5783114  
   0.454977300     0.3547864   -0.6447463  
   0.456977200     0.2413013   -0.6937295  
   0.458977100     0.1213040   -0.7229726  
   0.460977000    -0.0014602   -0.7320208  
   0.462976900    -0.1234884   -0.7206125  
   0.464976800    -0.2416369   -0.6894377  
   0.466976700    -0.3525837   -0.6395009  
   0.468976600    -0.4536237   -0.5725826  
   0.470976500    -0.5416770   -0.4900934  
   0.472976400    -0.6150223   -0.3951723  
   0.474976300    -0.6717460   -0.2901227  
   0.476976200    -0.7104995   -0.1783162  
   0.478976100    -0.7308233   -0.0624532  
   0.480976000    -0.7322687    0.0540391  
   0.482975900    -0.7159919    0.1683957  
   0.484975800    -0.6822196    0.2779086  
   0.486975700    -0.6319143    0.3808855  
   0.488975600    -0.5667955    0.4747196  
   0.490975500    -0.4880188    0.5575356  
   0.492975400    -0.3977771    0.6268374  
   0.494975300    -0.2978678    0.6815307  
   0.496975200    -0.1908320    0.7204950  
   0.498975100    -0.0794696    0.7424732  
   0.500975000     0.0339313    0.7473041  
   0.502974900     0.1467023    0.7348495  
   0.504974800     0.2567581    0.7053720  
   0.506974700     0.3616302    0.6590944  
   0.508974600     0.4586427    0.5965232  
   0.510974500     0.5454708    0.5196543  
   0.512974400     0.6198609    0.4298690  
   0.514974300     0.6792758    0.3298872  
   0.516974200     0.7224543    0.2212657  
   0.518974100     0.7483407    0.1073143  
   0.520974000     0.7561526   -0.0098168  
   0.522973900     0.7457099   -0.1269554  
   0.524973800     0.7170309   -0.2414243  
   0.526973700     0.6704485   -0.3503820  
   0.528973600     0.6071811   -0.4510857  
   0.530973500     0.5281272   -0.5411507  
   0.532973400     0.4360836   -0.6174096  
   0.534973300     0.3325133   -0.6781908  
   0.536973200     0.2204265   -0.7218381  
   0.538973100     0.1034641   -0.7469782  
   0.540973000    -0.0158191   -0.7532417  
   0.542972900    -0.1345884   -0.7404280  
   0.544972800    -0.2497004   -0.7092400  
   0.546972700    -0.3588006   -0.6598787  
   0.548972600    -0.4587151   -0.5937781  
   0.550972500    -0.5460645   -0.5126904  
   0.552972400    -0.6201856   -0.4186029  
   0.554972300    -0.6779171   -0.3139192  
   0.556972200    -0.7183570   -0.2016532  
   0.558972100    -0.7402768   -0.0845772  
   0.560972000    -0.7431570    0.0340405  
   0.562971900    -0.7272887    0.1510852  
   0.564971800    -0.6930981    0.2634055  
   0.566971700    -0.6418639    0.3688307  
   0.568971600    -0.5747284    0.4643183  
   0.570971500    -0.4935306    0.5480111  
   0.572971400    -0.4000731    0.6177267  
   0.574971300    -0.2968927    0.6719953  
   0.576971200    -0.1857649    0.7091632  
   0.578971100    -0.0700022    0.7281065  
   0.580971000     0.0476253    0.7286628  
   0.582970900     0.1630834    0.7104468  
   0.584970800     0.2744069    0.6736811  
   0.586970700     0.3782663    0.6199622  
   0.588970600     0.4720640    0.5502895  
   0.590970500     0.5538044    0.4666244  
   0.592970400     0.6212643    0.3705779  
   0.594970300     0.6722934    0.2652363  
   0.596970200     0.7060872    0.1527666  
   0.598970100     0.7213054    0.0358518  
   0.600970000     0.7172269   -0.0818739  
   0.602969900     0.6948119   -0.1981397  
   0.604969800     0.6536530   -0.3092199  
   0.606969700     0.5950413   -0.4123606  
   0.608969600     0.5203371   -0.5051010  
   0.610969500     0.4313764   -0.5844522  
   0.612969400     0.3312460   -0.6486289  
   0.614969300     0.2223759   -0.6954778  
   0.616969200     0.1075443   -0.7242498  
   0.618969100    -0.0092546   -0.7340607  
   0.620969000    -0.1253929   -0.7255490  
   0.622968900    -0.2388182   -0.6990083  
   0.624968800    -0.3465652   -0.6551516  
   0.626968700    -0.4460945   -0.5951595  
   0.628968600    -0.5351065   -0.5204905  
   0.630968500    -0.6112868   -0.4329868  
   0.632968400    -0.6726629   -0.3353305  
   0.634968300    -0.7181099   -0.2293011  
   0.636968200    -0.7468037   -0.1178835  
   0.638968100    -0.7584619   -0.0036004  
   0.640968000    -0.7521322    0.1106150  
   0.642967900    -0.7284209    0.2223352  
   0.644967800    -0.6882747    0.3290897  
   0.646967700    -0.6326597    0.4283095  
   0.648967600    -0.5630278    0.5174994  
   0.650967500    -0.4807622    0.5951142  
   0.652967400    -0.3883574    0.6595476  
   0.654967300    -0.2874497    0.7091774  
   0.656967200    -0.1801481    0.7432892  
   0.658967100    -0.0690437    0.7608371  
   0.660967000     0.0439159    0.7610868  
   0.662966900     0.1565050    0.7448329  
   0.664966800     0.2658477    0.7113643  
   0.666966700     0.3700771    0.6606939  
   0.668966600     0.4650187    0.5949020  
   0.670966500     0.5490920    0.5139709  
   0.672966400     0.6201795    0.4217340  
   0.674966300     0.6759951    0.3191779  
   0.676966200     0.7149621    0.2089879  
   0.678966100     0.7365368    0.0938509  
   0.680966000     0.7396871   -0.0235820  
   0.682965900     0.7238560   -0.1401565  
   0.684965800     0.6901039   -0.2528102  
   0.686965700     0.6383447   -0.3589556  
   0.688965600     0.5705162   -0.4560272  
   0.690965500     0.4882158   -0.5409396  
   0.692965400     0.3931127   -0.6113450  
   0.694965300     0.2884291   -0.6656289  
   0.696965200     0.1760633   -0.7026033  
   0.698965100     0.0597165   -0.7206799  
   0.700965000    -0.0581741   -0.7202726  
   0.702964900    -0.1741590   -0.7007382  
   0.704964800    -0.2855548   -0.6630391  
   0.706964700    -0.3889861   -0.6082656  
   0.708964600    -0.4821598   -0.5377290  
   0.710964500    -0.5627400   -0.4533452  
   0.712964400    -0.6285089   -0.3575710  
   0.714964300    -0.6778666   -0.2530420  
   0.716964200    -0.7100593   -0.1425739  
   0.718964100    -0.7245820   -0.0295481  
   0.720964000    -0.7211330    0.0836731  
   0.722963900    -0.7007229    0.1940226  
   0.724963800    -0.6639353    0.2996520  
   0.726963700    -0.6112964    0.3982912  
   0.728963600    -0.5442752    0.4872448  
   0.730963500    -0.4650106    0.5649740  
   0.732963400    -0.3747905    0.6298001  
   0.734963300    -0.2759387    0.6799377  
   0.736963200    -0.1528285    0.7183800  
   0.738963100    -0.0241607    0.7349072  
   0.740963000     0.1063609    0.7287623  
   0.742962900     0.2341030    0.6997786  
   0.744962800     0.3554114    0.6486397  
   0.746962700     0.4664033    0.5766405  
   0.748962600     0.5633157    0.4862981  
   0.750962500     0.4638318    0.5720848  
   0.752962400     0.5592560    0.4799430  
   0.754962300     0.6373035    0.3723656  
   0.756962200     0.6951556    0.2523261  
   0.758962100     0.7309963    0.1239501  
   0.760962000     0.7431903   -0.0097293  
   0.762961900     0.7318504   -0.1368036  
   0.764961800     0.7024827   -0.2497165  
   0.766961700     0.6556166   -0.3567370  
   0.768961600     0.5921841   -0.4552388  
   0.770961500     0.5139378   -0.5430347  
   0.772961400     0.4229157   -0.6170425  
   0.774961300     0.3209743   -0.6759145  
   0.776961200     0.2109638   -0.7181182  
   0.778961100     0.0956230   -0.7426279  
   0.780961000    -0.0225169   -0.7481249  
   0.782960900    -0.1400011   -0.7351067  
   0.784960800    -0.2540098   -0.7030568  
   0.786960700    -0.3614095   -0.6534433  
   0.788960600    -0.4592955   -0.5872744  
   0.790960500    -0.5451256   -0.5067706  
   0.792960400    -0.6164270   -0.4141860  
   0.794960300    -0.6721269   -0.3115316  
   0.796960200    -0.7106991   -0.2026978  
   0.798960100    -0.7315986   -0.0895095  
   0.800960000    -0.7346522    0.0245606  
   0.802959900    -0.7196298    0.1374009  
   0.804959800    -0.6880663    0.2456334  
   0.806959700    -0.6400830    0.3472138  
   0.808959600    -0.5773581    0.4399031  
   0.810959500    -0.5017615    0.5212889  
   0.812959400    -0.4146088    0.5901311  
   0.814959300    -0.3182472    0.6445803  
   0.816959200    -0.2150204    0.6838418  
   0.818959100    -0.1073555    0.7065432  
   0.820959000     0.0031826    0.7126594  
   0.822958900     0.1132167    0.7021210  
   0.824958800     0.2201052    0.6742308  
   0.826958700     0.3223164    0.6305073  
   0.828958600     0.4167826    0.5715944  
   0.830958500     0.5008511    0.4984390  
   0.832958400     0.5731393    0.4130739  
   0.834958300     0.6310579    0.3173626  
   0.836958200     0.6737245    0.2137986  
   0.838958100     0.6999047    0.1040887  
   0.840958000     0.7086617   -0.0086457  
   0.842957900     0.6994390   -0.1221323  
   0.844957800     0.6726762   -0.2332273  
   0.846957700     0.6281543   -0.3387276  
   0.848957600     0.5674527   -0.4363272  
   0.850957500     0.4918322   -0.5233055  
   0.852957400     0.4031195   -0.5971640  
   0.854957300     0.3037465   -0.6562040  
   0.856957200     0.1960340   -0.6984414  
   0.858957100     0.0834971   -0.7230778  
   0.860957000    -0.0314751   -0.7297537  
   0.862956900    -0.1452295   -0.7181602  
   0.864956800    -0.2553084   -0.6892675  
   0.866956700    -0.3590783   -0.6441302  
   0.868956600    -0.4539402   -0.5836144  
   0.870956500    -0.5381693   -0.5097752  
   0.872956400    -0.6100527   -0.4238037  
   0.874956300    -0.6679729   -0.3282751  
   0.876956200    -0.7103615   -0.2252328  
   0.878956100    -0.7366437   -0.1169181  
   0.880956000    -0.7460364   -0.0063789  
   0.882955900    -0.7388557    0.1042757  
   0.884955800    -0.7148187    0.2123716  
   0.886955700    -0.6750638    0.3153609  
   0.888955600    -0.6202188    0.4111674  
   0.890955500    -0.5516982    0.4975863  
   0.892955400    -0.4710242    0.5727445  
   0.894955300    -0.3800669    0.6348726  
   0.896955200    -0.2810150    0.6827899  
