! MS46122B
! 2250307/22442219
! 6/15/2025 11:00:36 AM
! C:\USERS\SPARKY\DOCUMENTS\VNA_DATA\JUNE15_2025\295K\PORT1_MOS4.S1P
! CHANNEL.1
! TR.MEASUREMENT
! RAW.DATA
# GHZ S RI R 50.0
! FREQ.GHZ         S11RE         S11IM         
!; PortSelection: Port_1
   0.001000000    -0.8883522    0.0546621  
   0.002999900    -0.8589952    0.2577003  
   0.004999800    -0.8171488    0.4014835  
   0.006999700    -0.7492666    0.5271693  
   0.008999600    -0.6591678    0.6347559  
   0.010999500    -0.5515786    0.7223943  
   0.012999400    -0.4300613    0.7894021  
   0.014999300    -0.2991769    0.8348340  
   0.016999200    -0.1629143    0.8590882  
   0.018999100    -0.0247482    0.8622327  
   0.020999000     0.1117366    0.8456252  
   0.022998900     0.2434604    0.8097562  
   0.024998800     0.3403535    0.7381763  
   0.026998700     0.4825141    0.6858324  
   0.028998600     0.5850285    0.6008350  
   0.030998500     0.6734937    0.5024854  
   0.032998400     0.7129582    0.3932050  
   0.034998300     0.8012640    0.2732286  
   0.036998200     0.8370962    0.1466753  
   0.038998100     0.8530012    0.0158242  
   0.040998000     0.8480403   -0.1161720  
   0.042997900     0.8219283   -0.2456927  
   0.044997800     0.7552983   -0.3438165  
   0.046997700     0.7099321   -0.4843768  
   0.048997600     0.6272696   -0.5877183  
   0.050997500     0.5295687   -0.6766364  
   0.052997400     0.4212102   -0.7487980  
   0.054997300     0.3008887   -0.8044530  
   0.056997200     0.1749117   -0.8406882  
   0.058997100     0.0457030   -0.8577617  
   0.060997000    -0.0841848   -0.8551126  
   0.062996900    -0.2119511   -0.8332939  
   0.064996800    -0.3347470   -0.7925051  
   0.066996700    -0.4496819   -0.7337162  
   0.068996600    -0.5543911   -0.6580916  
   0.070996500    -0.6460536   -0.5676361  
   0.072996400    -0.7230035   -0.4644895  
   0.074996300    -0.7832205   -0.3508755  
   0.076996200    -0.8253188   -0.2292246  
   0.078996100    -0.8484100   -0.1029282  
   0.080996000    -0.8521712    0.0257808  
   0.082995900    -0.8363246    0.1535862  
   0.084995800    -0.8010586    0.2774038  
   0.086995700    -0.7473782    0.3949622  
   0.088995600    -0.6762090    0.5030312  
   0.090995500    -0.5893548    0.5992873  
   0.092995400    -0.4882233    0.6809637  
   0.094995300    -0.3752488    0.7461794  
   0.096995200    -0.2535630    0.7935947  
   0.098995100    -0.1248198    0.8210226  
   0.100995000     0.0061132    0.8277583  
   0.102994900     0.1371829    0.8136338  
   0.104994800     0.2643158    0.7787514  
   0.106994700     0.3848940    0.7237869  
   0.108994600     0.4951503    0.6503200  
   0.110994500     0.5918608    0.5603412  
   0.112994400     0.6729656    0.4555916  
   0.114994300     0.7363451    0.3394212  
   0.116994200     0.7801642    0.2145737  
   0.118994100     0.8033226    0.0845057  
   0.120994000     0.8051313   -0.0472709  
   0.122993900     0.7858981   -0.1772894  
   0.124993800     0.7464226   -0.3018949  
   0.126993700     0.6872456   -0.4184972  
   0.128993600     0.6110876   -0.5238253  
   0.130993500     0.5193509   -0.6150252  
   0.132993400     0.4147212   -0.6901792  
   0.134993300     0.3003268   -0.7477052  
   0.136993200     0.1788878   -0.7859800  
   0.138993100     0.0536522   -0.8050311  
   0.140993000    -0.0721204   -0.8042824  
   0.142992900    -0.1958326   -0.7844595  
   0.144992800    -0.3140904   -0.7458337  
   0.146992700    -0.4248377   -0.6898630  
   0.148992600    -0.5251980   -0.6179138  
   0.150992500    -0.6129963   -0.5324500  
   0.152992400    -0.6864566   -0.4344605  
   0.154992300    -0.7442318   -0.3271462  
   0.156992200    -0.7850288   -0.2127095  
   0.158992100    -0.8085723   -0.0936648  
   0.160992000    -0.8138700    0.0273189  
   0.162991900    -0.8012146    0.1475675  
   0.164991800    -0.7704210    0.2649224  
   0.166991700    -0.7228042    0.3757034  
   0.168991600    -0.6591793    0.4785982  
   0.170991500    -0.5802601    0.5708627  
   0.172991400    -0.4888752    0.6501339  
   0.174991300    -0.3864973    0.7151631  
   0.176991200    -0.2745322    0.7642613  
   0.178991100    -0.1561852    0.7961869  
   0.180991000    -0.0342884    0.8096129  
   0.182990900     0.0881022    0.8046007  
   0.184990800     0.2097275    0.7805162  
   0.186990700     0.3268586    0.7382667  
   0.188990600     0.4155822    0.6903281  
   0.190990500     0.5313348    0.6037865  
   0.192990400     0.6197206    0.5105274  
   0.194990300     0.6908257    0.4063322  
   0.196990200     0.7446030    0.2927079  
   0.198990100     0.7798252    0.1717218  
   0.200990000     0.7957032    0.0460870  
   0.202989900     0.7915152   -0.0809543  
   0.204989800     0.7669840   -0.2056324  
   0.206989700     0.7232733   -0.3247574  
   0.208989600     0.6609325   -0.4350181  
   0.210989500     0.5818833   -0.5343135  
   0.212989400     0.4877174   -0.6199109  
   0.214989300     0.3812742   -0.6890435  
   0.216989200     0.2655753   -0.7399004  
   0.218989100     0.1440067   -0.7717878  
   0.220989000     0.0190816   -0.7836291  
   0.222988900    -0.1063621   -0.7754087  
   0.224988800    -0.2286761   -0.7476045  
   0.226988700    -0.3442303   -0.7004957  
   0.228988600    -0.4499988   -0.6362755  
   0.230988500    -0.5441444   -0.5563404  
   0.232988400    -0.6242315   -0.4630958  
   0.234988300    -0.6885253   -0.3580211  
   0.236988200    -0.7352641   -0.2445281  
   0.238988100    -0.7635464   -0.1254136  
   0.240988000    -0.7725668   -0.0042748  
   0.242987900    -0.7627050    0.1162550  
   0.244987800    -0.7341433    0.2333151  
   0.246987700    -0.6878634    0.3446195  
   0.248987600    -0.6244106    0.4475601  
   0.250987500    -0.5456446    0.5395444  
   0.252987400    -0.4538813    0.6176617  
   0.254987300    -0.3515006    0.6801213  
   0.256987200    -0.2410346    0.7261329  
   0.258987100    -0.1246644    0.7541823  
   0.260987000    -0.0048744    0.7641175  
   0.262986900     0.1155996    0.7551605  
   0.264986800     0.2330480    0.7274780  
   0.266986700     0.3453628    0.6815105  
   0.268986600     0.4488330    0.6190494  
   0.270986500     0.5410012    0.5411977  
   0.272986400     0.6200903    0.4493469  
   0.274986300     0.6839521    0.3469350  
   0.276986200     0.7311642    0.2350246  
   0.278986100     0.7604854    0.1167050  
   0.280986000     0.7707494   -0.0054720  
   0.282985900     0.7618012   -0.1275571  
   0.284985800     0.7337714   -0.2472132  
   0.286985700     0.6867211   -0.3607442  
   0.288985600     0.6230202   -0.4648419  
   0.290985500     0.5440637   -0.5574266  
   0.292985400     0.4517667   -0.6363577  
   0.294985300     0.3482845   -0.6999625  
   0.296985200     0.2358959   -0.7466959  
   0.298985100     0.1167154   -0.7752202  
   0.300985000    -0.0051770   -0.7847340  
   0.302984900    -0.1268502   -0.7750872  
   0.304984800    -0.2450268   -0.7465930  
   0.306984700    -0.3566926   -0.6999814  
   0.308984600    -0.4590132   -0.6373555  
   0.310984500    -0.5498306   -0.5606773  
   0.312984400    -0.6275675   -0.4707514  
   0.314984300    -0.6903263   -0.3704746  
   0.316984200    -0.7371573   -0.2621976  
   0.318984100    -0.7667109   -0.1474222  
   0.320984000    -0.7787370   -0.0287396  
   0.322983900    -0.7719838    0.0900109  
   0.324983800    -0.7472483    0.2063125  
   0.326983700    -0.7050431    0.3167753  
   0.328983600    -0.6458264    0.4196298  
   0.330983500    -0.5723334    0.5118503  
   0.332983400    -0.4859048    0.5910079  
   0.334983300    -0.3887494    0.6560877  
   0.336983200    -0.2823946    0.7055267  
   0.338983100    -0.1698692    0.7380192  
   0.340983000    -0.0536118    0.7528346  
   0.342982900     0.0641200    0.7495312  
   0.344982800     0.1805804    0.7279729  
   0.346982700     0.2927968    0.6881213  
   0.348982600     0.3980102    0.6308839  
   0.350982500     0.4930010    0.5574746  
   0.352982400     0.5756574    0.4697172  
   0.354982300     0.6450796    0.3651403  
   0.356982200     0.7010892    0.2382127  
   0.358982100     0.7328249    0.1034256  
   0.360982000     0.7394524   -0.0348555  
   0.362981900     0.7204537   -0.1716844  
   0.364981800     0.6767549   -0.3032147  
   0.366981700     0.6095218   -0.4247395  
   0.368981600     0.5208063   -0.5316637  
   0.370981500     0.4139538   -0.6202272  
   0.372981400     0.2923579   -0.6879175  
   0.374981300     0.1598491   -0.7316469  
   0.376981200     0.2613561   -0.6968505  
   0.378981100     0.1281677   -0.7354407  
   0.380981000    -0.0100237   -0.7488604  
   0.382980900    -0.1356973   -0.7384464  
   0.384980800    -0.2525673   -0.7093421  
   0.386980700    -0.3626766   -0.6620971  
   0.388980600    -0.4635926   -0.5978736  
   0.390980500    -0.5524248   -0.5196242  
   0.392980400    -0.6274173   -0.4290870  
   0.394980300    -0.6869519   -0.3295466  
   0.396980200    -0.7304128   -0.2217314  
   0.398980100    -0.7565997   -0.1095712  
   0.400980000    -0.7656192    0.0047559  
   0.402979900    -0.7573690    0.1189735  
   0.404979800    -0.7320940    0.2302573  
   0.406979700    -0.6905807    0.3357598  
   0.408979600    -0.6339756    0.4337722  
   0.410979500    -0.5626184    0.5230364  
   0.412979400    -0.4788186    0.6005414  
   0.414979300    -0.3836373    0.6648533  
   0.416979200    -0.2800094    0.7143205  
   0.418979100    -0.1702069    0.7470914  
   0.420979000    -0.0560407    0.7631337  
   0.422978900     0.0598058    0.7615587  
   0.424978800     0.1746095    0.7422974  
   0.426978700     0.2854509    0.7052562  
   0.428978600     0.3899060    0.6513724  
   0.430978500     0.4845743    0.5819477  
   0.432978400     0.5672631    0.4984326  
   0.434978300     0.6362416    0.4027190  
   0.436978200     0.6895034    0.2966267  
   0.438978100     0.7255124    0.1834443  
   0.440978000     0.7431075    0.0651743  
   0.442977900     0.7414293   -0.0547761  
   0.444977800     0.7206415   -0.1733424  
   0.446977700     0.6809297   -0.2870607  
   0.448977600     0.6233394   -0.3928863  
   0.450977500     0.5489351   -0.4882299  
   0.452977400     0.4595027   -0.5708139  
   0.454977300     0.3576757   -0.6376538  
   0.456977200     0.2453372   -0.6871573  
   0.458977100     0.1264321   -0.7172195  
   0.460977000     0.0044019   -0.7272848  
   0.462976900    -0.1168267   -0.7168821  
   0.464976800    -0.2344452   -0.6869460  
   0.466976700    -0.3450856   -0.6382142  
   0.468976600    -0.4461688   -0.5725880  
   0.470976500    -0.5344270   -0.4913225  
   0.472976400    -0.6079552   -0.3976951  
   0.474976300    -0.6651895   -0.2938266  
   0.476976200    -0.7047544   -0.1830312  
   0.478976100    -0.7259288   -0.0680173  
   0.480976000    -0.7284165    0.0478966  
   0.482975900    -0.7131470    0.1615573  
   0.484975800    -0.6805612    0.2711256  
   0.486975700    -0.6313302    0.3737771  
   0.488975600    -0.5672737    0.4676391  
   0.490975500    -0.4897662    0.5505896  
   0.492975400    -0.4003198    0.6201296  
   0.494975300    -0.3017157    0.6754040  
   0.496975200    -0.1955836    0.7150201  
   0.498975100    -0.0849618    0.7378251  
   0.500975000     0.0277916    0.7435214  
   0.502974900     0.1400315    0.7320396  
   0.504974800     0.2496936    0.7036148  
   0.506974700     0.3542579    0.6585076  
   0.508974600     0.4513620    0.5969745  
   0.510974500     0.5383944    0.5211737  
   0.512974400     0.6130799    0.4325031  
   0.514974300     0.6730117    0.3334708  
   0.516974200     0.7167184    0.2257595  
   0.518974100     0.7434425    0.1126463  
   0.520974000     0.7520759   -0.0036184  
   0.522973900     0.7426211   -0.1203933  
   0.524973800     0.7149826   -0.2345311  
   0.526973700     0.6695153   -0.3432545  
   0.528973600     0.6073120   -0.4439764  
   0.530973500     0.5294116   -0.5341895  
   0.532973400     0.4383794   -0.6106215  
   0.534973300     0.3359191   -0.6719581  
   0.536973200     0.2247928   -0.7162189  
   0.538973100     0.1085467   -0.7422464  
   0.540973000    -0.0101925   -0.7493826  
   0.542972900    -0.1284016   -0.7375068  
   0.544972800    -0.2432647   -0.7073591  
   0.546972700    -0.3521529   -0.6590509  
   0.548972600    -0.4519466   -0.5940902  
   0.550972500    -0.5396643   -0.5141030  
   0.552972400    -0.6142114   -0.4209428  
   0.554972300    -0.6725023   -0.3172907  
   0.556972200    -0.7135376   -0.2057530  
   0.558972100    -0.7362521   -0.0894148  
   0.560972000    -0.7400353    0.0286346  
   0.562971900    -0.7249909    0.1451645  
   0.564971800    -0.6917436    0.2574184  
   0.566971700    -0.6415997    0.3626545  
   0.568971600    -0.5753784    0.4581470  
   0.570971500    -0.4953358    0.5420845  
   0.572971400    -0.4028484    0.6121072  
   0.574971300    -0.3004600    0.6669579  
   0.576971200    -0.1901026    0.7047063  
   0.578971100    -0.0750304    0.7244962  
   0.580971000     0.0420111    0.7258781  
   0.582970900     0.1573556    0.7085713  
   0.584970800     0.2683490    0.6728151  
   0.586970700     0.3720360    0.6201992  
   0.588970600     0.4659898    0.5514162  
   0.590970500     0.5479310    0.4688871  
   0.592970400     0.6159366    0.3735947  
   0.594970300     0.6674704    0.2693047  
   0.596970200     0.7020785    0.1572125  
   0.598970100     0.7180102    0.0412321  
   0.600970000     0.7149564   -0.0760369  
   0.602969900     0.6936323   -0.1919214  
   0.604969800     0.6533684   -0.3031258  
   0.606969700     0.5958658   -0.4062533  
   0.608969600     0.5223396   -0.4992364  
   0.610969500     0.4340974   -0.5789589  
   0.612969400     0.3349185   -0.6438658  
   0.614969300     0.2266555   -0.6912685  
   0.616969200     0.1126573   -0.7208655  
   0.618969100    -0.0037699   -0.7315367  
   0.620969000    -0.1196677   -0.7240008  
   0.622968900    -0.2329847   -0.6983213  
   0.624968800    -0.3407016   -0.6554176  
   0.626968700    -0.4404294   -0.5965121  
   0.628968600    -0.5296955   -0.5227103  
   0.630968500    -0.6062558   -0.4360901  
   0.632968400    -0.6682632   -0.3390642  
   0.634968300    -0.7143719   -0.2335940  
   0.636968200    -0.7438331   -0.1226036  
   0.638968100    -0.7559332   -0.0089038  
   0.640968000    -0.7507449    0.1052460  
   0.642967900    -0.7278308    0.2168638  
   0.644967800    -0.6884743    0.3235924  
   0.646967700    -0.6337494    0.4229594  
   0.648967600    -0.5647464    0.5125750  
   0.650967500    -0.4834124    0.5902934  
   0.652967400    -0.3915353    0.6552308  
   0.654967300    -0.2913536    0.7052602  
   0.656967200    -0.1844447    0.7400612  
   0.658967100    -0.0737942    0.7582906  
   0.660967000     0.0389507    0.7593023  
   0.662966900     0.1512944    0.7438048  
   0.664966800     0.2607035    0.7108082  
   0.666966700     0.3647591    0.6613386  
   0.668966600     0.4600092    0.5962477  
   0.670966500     0.5445660    0.5160604  
   0.672966400     0.6159024    0.4246671  
   0.674966300     0.6723370    0.3225778  
   0.676966200     0.7119002    0.2130486  
   0.678966100     0.7341430    0.0982273  
   0.680966000     0.7380627   -0.0188940  
   0.682965900     0.7230001   -0.1353405  
   0.684965800     0.6899718   -0.2478624  
   0.686965700     0.6390578   -0.3542517  
   0.688965600     0.5718735   -0.4515845  
   0.690965500     0.4902073   -0.5368754  
   0.692965400     0.3957104   -0.6077200  
   0.694965300     0.2914546   -0.6626008  
   0.696965200     0.1795463   -0.7001245  
   0.698965100     0.0633763   -0.7187856  
   0.700965000    -0.0543530   -0.7189808  
   0.702964900    -0.1702055   -0.7002202  
   0.704964800    -0.2817710   -0.6630605  
   0.706964700    -0.3852521   -0.6089069  
   0.708964600    -0.4786274   -0.5388330  
   0.710964500    -0.5595514   -0.4549329  
   0.712964400    -0.6256714   -0.3595873  
   0.714964300    -0.6753848   -0.2554245  
   0.716964200    -0.7079960   -0.1453538  
   0.718964100    -0.7230034   -0.0324053  
   0.720964000    -0.7200524    0.0807314  
   0.722963900    -0.7000263    0.1911829  
   0.724963800    -0.6636918    0.2967028  
   0.726963700    -0.6113831    0.3955943  
   0.728963600    -0.5449435    0.4843805  
   0.730963500    -0.4658579    0.5624856  
   0.732963400    -0.3761646    0.6274926  
   0.734963300    -0.2776417    0.6779037  
   0.736963200    -0.1549632    0.7166722  
   0.738963100    -0.0264359    0.7335938  
   0.740963000     0.1039845    0.7279425  
   0.742962900     0.2316783    0.6992476  
   0.744962800     0.3529168    0.6488104  
   0.746962700     0.4640112    0.5772933  
   0.748962600     0.5610852    0.4873133  
   0.750962500     0.4617648    0.5727890  
   0.752962400     0.5573450    0.4810356  
   0.754962300     0.6355360    0.3739372  
   0.756962200     0.6936903    0.2542820  
   0.758962100     0.7299795    0.1260658  
   0.760962000     0.7426500   -0.0072556  
   0.762961900     0.7318027   -0.1343702  
   0.764961800     0.7028295   -0.2473005  
   0.766961700     0.6564298   -0.3543190  
   0.768961600     0.5934051   -0.4530464  
   0.770961500     0.5154872   -0.5409495  
   0.772961400     0.4248879   -0.6153004  
   0.774961300     0.3232435   -0.6744916  
   0.776961200     0.2134449   -0.7170357  
   0.778961100     0.0982141   -0.7419308  
   0.780961000    -0.0198109   -0.7477993  
   0.782960900    -0.1372495   -0.7351386  
   0.784960800    -0.2513059   -0.7036059  
   0.786960700    -0.3589127   -0.6543553  
   0.788960600    -0.4569623   -0.5884979  
   0.790960500    -0.5430822   -0.5083920  
   0.792960400    -0.6146986   -0.4159565  
   0.794960300    -0.6706673   -0.3135124  
   0.796960200    -0.7096148   -0.2047860  
   0.798960100    -0.7307053   -0.0915962  
   0.800960000    -0.7340775    0.0225389  
   0.802959900    -0.7193763    0.1353393  
   0.804959800    -0.6881171    0.2436135  
   0.806959700    -0.6403112    0.3452761  
   0.808959600    -0.5778674    0.4382369  
   0.810959500    -0.5024945    0.5196800  
   0.812959400    -0.4152958    0.5888318  
   0.814959300    -0.3189990    0.6435603  
   0.816959200    -0.2159247    0.6828856  
   0.818959100    -0.1080869    0.7057930  
   0.820959000     0.0024008    0.7121118  
   0.822958900     0.1124974    0.7014982  
   0.824958800     0.2195300    0.6739325  
   0.826958700     0.3218645    0.6303701  
   0.828958600     0.4164113    0.5714370  
   0.830958500     0.5005165    0.4983231  
   0.832958400     0.5729875    0.4129666  
   0.834958300     0.6309668    0.3171600  
   0.836958200     0.6737314    0.2134791  
   0.838958100     0.6997755    0.1037030  
   0.840958000     0.7086574   -0.0090785  
   0.842957900     0.6993967   -0.1226704  
   0.844957800     0.6726125   -0.2336385  
   0.846957700     0.6279977   -0.3393605  
   0.848957600     0.5671526   -0.4370256  
   0.850957500     0.4913312   -0.5239739  
   0.852957400     0.4025264   -0.5977884  
   0.854957300     0.3028349   -0.6567433  
   0.856957200     0.1950978   -0.6988690  
   0.858957100     0.0824158   -0.7232859  
   0.860957000    -0.0326828   -0.7297843  
   0.862956900    -0.1464712   -0.7180061  
   0.864956800    -0.2566032   -0.6887763  
   0.866956700    -0.3604493   -0.6432949  
   0.868956600    -0.4552315   -0.5824866  
   0.870956500    -0.5393150   -0.5083646  
   0.872956400    -0.6109490   -0.4221362  
   0.874956300    -0.6687825   -0.3264543  
   0.876956200    -0.7107434   -0.2231887  
   0.878956100    -0.7367457   -0.1146507  
   0.880956000    -0.7457913   -0.0039818  
   0.882955900    -0.7382400    0.1066041  
   0.884955800    -0.7138981    0.2146277  
   0.886955700    -0.6734746    0.3176688  
   0.888955600    -0.6184024    0.4134849  
   0.890955500    -0.5495062    0.4996696  
   0.892955400    -0.4685084    0.5746009  
   0.894955300    -0.3770712    0.6364176  
