! MS46122B
! 2250307/22442219
! 6/14/2025 10:27:47 AM
! C:\USERS\SPARKY\DOCUMENTS\VNA_DATA\JUNE14_2025\295K\PORT6_MOS4.S1P
! CHANNEL.1
! TR.MEASUREMENT
! RAW.DATA
# GHZ S RI R 50.0
! FREQ.GHZ         S11RE         S11IM         
!; PortSelection: Port_1
   0.001000000    -0.8905340    0.0548895  
   0.002999900    -0.8610587    0.2583226  
   0.004999800    -0.8191242    0.4022807  
   0.006999700    -0.7508574    0.5285196  
   0.008999600    -0.6605552    0.6363299  
   0.010999500    -0.5525931    0.7240568  
   0.012999400    -0.4310084    0.7913700  
   0.014999300    -0.2995640    0.8367863  
   0.016999200    -0.1630090    0.8610820  
   0.018999100    -0.0245071    0.8642576  
   0.020999000     0.1122688    0.8474969  
   0.022998900     0.2443296    0.8114856  
   0.024998800     0.3414519    0.7398352  
   0.026998700     0.4838959    0.6872988  
   0.028998600     0.5866675    0.6020058  
   0.030998500     0.6753175    0.5034648  
   0.032998400     0.7148603    0.3939456  
   0.034998300     0.8033156    0.2735781  
   0.036998200     0.8391957    0.1467381  
   0.038998100     0.8551384    0.0155788  
   0.040998000     0.8502763   -0.1165815  
   0.042997900     0.8239359   -0.2465768  
   0.044997800     0.7571803   -0.3449441  
   0.046997700     0.7116271   -0.4859101  
   0.048997600     0.6286944   -0.5894754  
   0.050997500     0.5306642   -0.6785725  
   0.052997400     0.4215665   -0.7507318  
   0.054997300     0.3013691   -0.8066144  
   0.056997200     0.1750761   -0.8429220  
   0.058997100     0.0455666   -0.8599732  
   0.060997000    -0.0847166   -0.8573444  
   0.062996900    -0.2127724   -0.8354059  
   0.064996800    -0.3358058   -0.7944515  
   0.066996700    -0.4511102   -0.7354878  
   0.068996600    -0.5560358   -0.6596667  
   0.070996500    -0.6479974   -0.5689331  
   0.072996400    -0.7251071   -0.4654689  
   0.074996300    -0.7854189   -0.3515063  
   0.076996200    -0.8276340   -0.2295171  
   0.078996100    -0.8506756   -0.1028669  
   0.080996000    -0.8544483    0.0262340  
   0.082995900    -0.8384878    0.1543684  
   0.084995800    -0.8030850    0.2785658  
   0.086995700    -0.7492331    0.3964526  
   0.088995600    -0.6778261    0.5048713  
   0.090995500    -0.5905544    0.6013681  
   0.092995400    -0.4890648    0.6831558  
   0.094995300    -0.3756694    0.7485536  
   0.096995200    -0.2534541    0.7959480  
   0.098995100    -0.1245043    0.8235295  
   0.100995000     0.0070640    0.8301180  
   0.102994900     0.1383852    0.8157911  
   0.104994800     0.2659324    0.7807057  
   0.106994700     0.3868135    0.7254360  
   0.108994600     0.4973036    0.6515810  
   0.110994500     0.5944756    0.5610924  
   0.112994400     0.6755427    0.4560321  
   0.114994300     0.7389302    0.3392940  
   0.116994200     0.7828216    0.2140547  
   0.118994100     0.8058352    0.0835165  
   0.120994000     0.8074613   -0.0487482  
   0.122993900     0.7879369   -0.1792169  
   0.124993800     0.7481063   -0.3042483  
   0.126993700     0.6885674   -0.4209617  
   0.128993600     0.6119999   -0.5264767  
   0.130993500     0.5196828   -0.6178716  
   0.132993400     0.4145366   -0.6931153  
   0.134993300     0.2996839   -0.7505509  
   0.136993200     0.1778084   -0.7887411  
   0.138993100     0.0522391   -0.8075084  
   0.140993000    -0.0741021   -0.8064782  
   0.142992900    -0.1981390   -0.7863899  
   0.144992800    -0.3166788   -0.7473080  
   0.146992700    -0.4275507   -0.6909455  
   0.148992600    -0.5281782   -0.6185492  
   0.150992500    -0.6160178   -0.5326129  
   0.152992400    -0.6894689   -0.4341583  
   0.154992300    -0.7471956   -0.3263541  
   0.156992200    -0.7878686   -0.2114376  
   0.158992100    -0.8112184   -0.0920298  
   0.160992000    -0.8161827    0.0294187  
   0.162991900    -0.8032119    0.1499950  
   0.164991800    -0.7720736    0.2676295  
   0.166991700    -0.7240036    0.3786642  
   0.168991600    -0.6599502    0.4817203  
   0.170991500    -0.5806500    0.5741480  
   0.172991400    -0.4887168    0.6533655  
   0.174991300    -0.3857970    0.7183738  
   0.176991200    -0.2733792    0.7673587  
   0.178991100    -0.1545542    0.7991577  
   0.180991000    -0.0322263    0.8123221  
   0.182990900     0.0906259    0.8069559  
   0.184990800     0.2125468    0.7825238  
   0.186990700     0.3301262    0.7398233  
   0.188990600     0.4189111    0.6915441  
   0.190990500     0.5348856    0.6043490  
   0.192990400     0.6233950    0.5104708  
   0.194990300     0.6944687    0.4058828  
   0.196990200     0.7481546    0.2916532  
   0.198990100     0.7832101    0.1701542  
   0.200990000     0.7988876    0.0440730  
   0.202989900     0.7942492   -0.0835124  
   0.204989800     0.7692814   -0.2086580  
   0.206989700     0.7250234   -0.3279935  
   0.208989600     0.6622150   -0.4386701  
   0.210989500     0.5824836   -0.5380780  
   0.212989400     0.4877079   -0.6237826  
   0.214989300     0.3806454   -0.6929396  
   0.216989200     0.2644103   -0.7436202  
   0.218989100     0.1421401   -0.7752941  
   0.220989000     0.0166249   -0.7867992  
   0.222988900    -0.1093012   -0.7782399  
   0.224988800    -0.2319658   -0.7497392  
   0.226988700    -0.3478264   -0.7021968  
   0.228988600    -0.4540502   -0.6372620  
   0.230988500    -0.5482355   -0.5567382  
   0.232988400    -0.6283356   -0.4628024  
   0.234988300    -0.6924961   -0.3569993  
   0.236988200    -0.7390767   -0.2428923  
   0.238988100    -0.7670564   -0.1231607  
   0.240988000    -0.7756901   -0.0014750  
   0.242987900    -0.7653093    0.1195237  
   0.244987800    -0.7362269    0.2370238  
   0.246987700    -0.6893170    0.3487005  
   0.248987600    -0.6251581    0.4518678  
   0.250987500    -0.5457218    0.5438677  
   0.252987400    -0.4531598    0.6219928  
   0.254987300    -0.3500882    0.6843691  
   0.256987200    -0.2390069    0.7301598  
   0.258987100    -0.1219422    0.7578854  
   0.260987000    -0.0016473    0.7672789  
   0.262986900     0.1193323    0.7578036  
   0.264986800     0.2371612    0.7295008  
   0.266986700     0.3498175    0.6828769  
   0.268986600     0.4534827    0.6197873  
   0.270986500     0.5457815    0.5408387  
   0.272986400     0.6248432    0.4485887  
   0.274986300     0.6885651    0.3451058  
   0.276986200     0.7355523    0.2326222  
   0.278986100     0.7643523    0.1135380  
   0.280986000     0.7740715   -0.0092634  
   0.282985900     0.7645119   -0.1319043  
   0.284985800     0.7357060   -0.2519348  
   0.286985700     0.6878769   -0.3657926  
   0.288985600     0.6234263   -0.4700305  
   0.290985500     0.5435491   -0.5627224  
   0.292985400     0.4504185   -0.6414786  
   0.294985300     0.3461781   -0.7047064  
   0.296985200     0.2328829   -0.7512346  
   0.298985100     0.1130993   -0.7791695  
   0.300985000    -0.0095737   -0.7880651  
   0.302984900    -0.1316435   -0.7776970  
   0.304984800    -0.2502537   -0.7484226  
   0.306984700    -0.3621445   -0.7009534  
   0.308984600    -0.4646295   -0.6374281  
   0.310984500    -0.5555068   -0.5597687  
   0.312984400    -0.6329699   -0.4690096  
   0.314984300    -0.6954539   -0.3679394  
   0.316984200    -0.7417789   -0.2588940  
   0.318984100    -0.7708948   -0.1434005  
   0.320984000    -0.7821536   -0.0241211  
   0.322983900    -0.7746201    0.0950886  
   0.324983800    -0.7491351    0.2116866  
   0.326983700    -0.7058613    0.3227114  
   0.328983600    -0.6459371    0.4255124  
   0.330983500    -0.5714716    0.5176741  
   0.332983400    -0.4841524    0.5966990  
   0.334983300    -0.3860732    0.6614926  
   0.336983200    -0.2789555    0.7104627  
   0.338983100    -0.1655589    0.7423936  
   0.340983000    -0.0487036    0.7565241  
   0.342982900     0.0694351    0.7524319  
   0.344982800     0.1864542    0.7300619  
   0.346982700     0.2988109    0.6892297  
   0.348982600     0.4041356    0.6310280  
   0.350982500     0.4990784    0.5567180  
   0.352982400     0.5816330    0.4678932  
   0.354982300     0.6506832    0.3623611  
   0.356982200     0.7061889    0.2344967  
   0.358982100     0.7372071    0.0987064  
   0.360982000     0.7428588   -0.0402697  
   0.362981900     0.7230163   -0.1777872  
   0.364981800     0.6780446   -0.3095661  
   0.366981700     0.6095755   -0.4312237  
   0.368981600     0.5196825   -0.5381120  
   0.370981500     0.4115643   -0.6263896  
   0.372981400     0.2889162   -0.6935465  
   0.374981300     0.1552746   -0.7365064  
   0.376981200     0.2577919   -0.7023011  
   0.378981100     0.1236069   -0.7400908  
   0.380981000    -0.0151853   -0.7524141  
   0.382980900    -0.1417337   -0.7412781  
   0.384980800    -0.2588407   -0.7111745  
   0.386980700    -0.3693323   -0.6627900  
   0.388980600    -0.4701350   -0.5975891  
   0.390980500    -0.5589490   -0.5181753  
   0.392980400    -0.6335399   -0.4267723  
   0.394980300    -0.6926903   -0.3261331  
   0.396980200    -0.7354081   -0.2178482  
   0.398980100    -0.7611236   -0.1049230  
   0.400980000    -0.7692821    0.0100796  
   0.402979900    -0.7601508    0.1248509  
   0.404979800    -0.7339194    0.2364784  
   0.406979700    -0.6914757    0.3421850  
   0.408979600    -0.6337662    0.4403627  
   0.410979500    -0.5616322    0.5292387  
   0.412979400    -0.4766580    0.6067631  
   0.414979300    -0.3806958    0.6706571  
   0.416979200    -0.2760711    0.7196803  
   0.418979100    -0.1654762    0.7516065  
   0.420979000    -0.0505441    0.7671095  
   0.422978900     0.0659611    0.7646419  
   0.424978800     0.1812158    0.7443034  
   0.426978700     0.2923587    0.7061765  
   0.428978600     0.3969345    0.6512185  
   0.430978500     0.4916529    0.5805458  
   0.432978400     0.5741957    0.4960181  
   0.434978300     0.6426732    0.3990756  
   0.436978200     0.6953309    0.2919447  
   0.438978100     0.7305432    0.1778157  
   0.440978000     0.7471647    0.0587153  
   0.442977900     0.7444051   -0.0619224  
   0.444977800     0.7224106   -0.1810652  
   0.446977700     0.6814027   -0.2950618  
   0.448977600     0.6224069   -0.4008719  
   0.450977500     0.5466747   -0.4960533  
   0.452977400     0.4559543   -0.5781534  
   0.454977300     0.3527898   -0.6444708  
   0.456977200     0.2391975   -0.6931047  
   0.458977100     0.1195474   -0.7220308  
   0.460977000    -0.0033980   -0.7308537  
   0.462976900    -0.1251672   -0.7191715  
   0.464976800    -0.2430914   -0.6876883  
   0.466976700    -0.3538110   -0.6377600  
   0.468976600    -0.4545501   -0.5705373  
   0.470976500    -0.5423529   -0.4879820  
   0.472976400    -0.6153947   -0.3929017  
   0.474976300    -0.6716935   -0.2879687  
   0.476976200    -0.7102087   -0.1762729  
   0.478976100    -0.7302346   -0.0603608  
   0.480976000    -0.7314487    0.0559483  
   0.482975900    -0.7149861    0.1701220  
   0.484975800    -0.6809235    0.2795106  
   0.486975700    -0.6304048    0.3823706  
   0.488975600    -0.5651416    0.4758310  
   0.490975500    -0.4862659    0.5584065  
   0.492975400    -0.3959751    0.6274242  
   0.494975300    -0.2960782    0.6818891  
   0.496975200    -0.1889892    0.7204457  
   0.498975100    -0.0776855    0.7422091  
   0.500975000     0.0356012    0.7468105  
   0.502974900     0.1482906    0.7340936  
   0.504974800     0.2582571    0.7044160  
   0.506974700     0.3627346    0.6580587  
   0.508974600     0.4597093    0.5952670  
   0.510974500     0.5463498    0.5181506  
   0.512974400     0.6204786    0.4282422  
   0.514974300     0.6795700    0.3281825  
   0.516974200     0.7226300    0.2196273  
   0.518974100     0.7482504    0.1055832  
   0.520974000     0.7556972   -0.0115767  
   0.522973900     0.7449665   -0.1286147  
   0.524973800     0.7160615   -0.2430522  
   0.526973700     0.6692544   -0.3518939  
   0.528973600     0.6057516   -0.4524425  
   0.530973500     0.5265046   -0.5422717  
   0.532973400     0.4344640   -0.6181340  
   0.534973300     0.3305428   -0.6787788  
   0.536973200     0.2183804   -0.7221539  
   0.538973100     0.1012250   -0.7471051  
   0.540973000    -0.0179654   -0.7530072  
   0.542972900    -0.1367477   -0.7399972  
   0.544972800    -0.2516777   -0.7083531  
   0.546972700    -0.3607289   -0.6587597  
   0.548972600    -0.4601856   -0.5923533  
   0.550972500    -0.5474630   -0.5111183  
   0.552972400    -0.6214808   -0.4167141  
   0.554972300    -0.6789069   -0.3120201  
   0.556972200    -0.7190002   -0.1996463  
   0.558972100    -0.7405897   -0.0824740  
   0.560972000    -0.7431487    0.0361804  
   0.562971900    -0.7269357    0.1531494  
   0.564971800    -0.6924911    0.2653877  
   0.566971700    -0.6408822    0.3706242  
   0.568971600    -0.5733875    0.4660485  
   0.570971500    -0.4921338    0.5494963  
   0.572971400    -0.3984227    0.6189115  
   0.574971300    -0.2950749    0.6729318  
   0.576971200    -0.1837644    0.7097626  
   0.578971100    -0.0679325    0.7284261  
   0.580971000     0.0496600    0.7285553  
   0.582970900     0.1652768    0.7100456  
   0.584970800     0.2764505    0.6729246  
   0.586970700     0.3802366    0.6189059  
   0.588970600     0.4737670    0.5489972  
   0.590970500     0.5554306    0.4648568  
   0.592970400     0.6226297    0.3686171  
   0.594970300     0.6732615    0.2632015  
   0.596970200     0.7067248    0.1504283  
   0.598970100     0.7216002    0.0335342  
   0.600970000     0.7172180   -0.0844740  
   0.602969900     0.6944734   -0.2004588  
   0.604969800     0.6528581   -0.3117336  
   0.606969700     0.5939552   -0.4147608  
   0.608969600     0.5189328   -0.5074370  
   0.610969500     0.4295384   -0.5864917  
   0.612969400     0.3290652   -0.6505159  
   0.614969300     0.2199465   -0.6969925  
   0.616969200     0.1049479   -0.7253374  
   0.618969100    -0.0120890   -0.7347684  
   0.620969000    -0.1283640   -0.7258306  
   0.622968900    -0.2418013   -0.6988588  
   0.624968800    -0.3495496   -0.6544034  
   0.626968700    -0.4490028   -0.5941296  
   0.628968600    -0.5377511   -0.5190418  
   0.630968500    -0.6137280   -0.4310989  
   0.632968400    -0.6749095   -0.3330148  
   0.634968300    -0.7199165   -0.2267036  
   0.636968200    -0.7481809   -0.1150315  
   0.638968100    -0.7593335   -0.0006478  
   0.640968000    -0.7525644    0.1135430  
   0.642967900    -0.7283664    0.2254860  
   0.644967800    -0.6877856    0.3321253  
   0.646967700    -0.6316994    0.4313008  
   0.648967600    -0.5615933    0.5202959  
   0.650967500    -0.4789825    0.5975669  
   0.652967400    -0.3861511    0.6617319  
   0.654967300    -0.2851510    0.7108661  
   0.656967200    -0.1774967    0.7446600  
   0.658967100    -0.0662725    0.7617364  
   0.660967000     0.0467714    0.7616931  
   0.662966900     0.1594162    0.7449292  
   0.664966800     0.2689938    0.7106802  
   0.666966700     0.3728345    0.6599224  
   0.668966600     0.4677067    0.5935764  
   0.670966500     0.5518104    0.5126749  
   0.672966400     0.6223717    0.4199267  
   0.674966300     0.6779128    0.3170841  
   0.676966200     0.7166299    0.2065869  
   0.678966100     0.7378184    0.0912345  
   0.680966000     0.7405329   -0.0262798  
   0.682965900     0.7242817   -0.1430468  
   0.684965800     0.6899920   -0.2556393  
   0.686965700     0.6378717   -0.3618806  
   0.688965600     0.5696579   -0.4590519  
   0.690965500     0.4868007   -0.5437950  
   0.692965400     0.3912767   -0.6138548  
   0.694965300     0.2860378   -0.6680189  
   0.696965200     0.1734498   -0.7044892  
   0.698965100     0.0567142   -0.7221374  
   0.700965000    -0.0613965   -0.7213517  
   0.702964900    -0.1775836   -0.7012250  
   0.704964800    -0.2890498   -0.6629207  
   0.706964700    -0.3924416   -0.6075761  
   0.708964600    -0.4855329   -0.5363784  
   0.710964500    -0.5658666   -0.4514268  
   0.712964400    -0.6313210   -0.3550717  
   0.714964300    -0.6802234   -0.2501198  
   0.716964200    -0.7118705   -0.1392152  
   0.718964100    -0.7258644   -0.0258292  
   0.720964000    -0.7217751    0.0876468  
   0.722963900    -0.7007048    0.1981487  
   0.724963800    -0.6631525    0.3038465  
   0.726963700    -0.6098655    0.4023191  
   0.728963600    -0.5421956    0.4910174  
   0.730963500    -0.4623819    0.5684089  
   0.732963400    -0.3716079    0.6328086  
   0.734963300    -0.2723697    0.6824549  
   0.736963200    -0.1488308    0.7202959  
   0.738963100    -0.0198959    0.7361018  
   0.740963000     0.1107896    0.7291177  
   0.742962900     0.2386546    0.6993120  
   0.744962800     0.3598391    0.6476088  
   0.746962700     0.4705907    0.5749092  
   0.748962600     0.5670864    0.4837849  
   0.750962500     0.4680777    0.5702800  
   0.752962400     0.5633273    0.4773418  
   0.754962300     0.6408246    0.3693189  
   0.756962200     0.6981258    0.2487617  
   0.758962100     0.7333857    0.1197525  
   0.760962000     0.7447388   -0.0141654  
   0.762961900     0.7327618   -0.1414665  
   0.764961800     0.7026330   -0.2544821  
   0.766961700     0.6551618   -0.3613539  
   0.768961600     0.5909535   -0.4598463  
   0.770961500     0.5119947   -0.5473301  
   0.772961400     0.4203411   -0.6210358  
   0.774961300     0.3178255   -0.6793985  
   0.776961200     0.2073780   -0.7210398  
   0.778961100     0.0915561   -0.7449518  
   0.780961000    -0.0269169   -0.7497309  
   0.782960900    -0.1446443   -0.7359193  
   0.784960800    -0.2587231   -0.7031322  
   0.786960700    -0.3661492   -0.6526527  
   0.788960600    -0.4637177   -0.5857368  
   0.790960500    -0.5493622   -0.5044080  
   0.792960400    -0.6203282   -0.4111088  
   0.794960300    -0.6753601   -0.3078660  
   0.796960200    -0.7132795   -0.1984560  
   0.798960100    -0.7333595   -0.0848678  
   0.800960000    -0.7356029    0.0294246  
   0.802959900    -0.7197595    0.1424319  
   0.804959800    -0.6873670    0.2507514  
   0.806959700    -0.6385977    0.3521697  
   0.808959600    -0.5751274    0.4446386  
   0.810959500    -0.4986848    0.5255846  
   0.812959400    -0.4109416    0.5938591  
   0.814959300    -0.3138654    0.6478214  
   0.816959200    -0.2102920    0.6864149  
   0.818959100    -0.1022276    0.7083460  
   0.820959000     0.0085536    0.7136821  
   0.822958900     0.1185161    0.7019525  
   0.824958800     0.2257011    0.6736466  
   0.826958700     0.3278755    0.6292919  
   0.828958600     0.4219511    0.5695344  
   0.830958500     0.5058163    0.4956383  
   0.832958400     0.5776120    0.4095535  
   0.834958300     0.6350328    0.3132644  
   0.836958200     0.6771190    0.2090683  
   0.838958100     0.7024580    0.0988731  
   0.840958000     0.7105342   -0.0141757  
   0.842957900     0.7005181   -0.1279283  
   0.844957800     0.6728304   -0.2390966  
   0.846957700     0.6274746   -0.3445515  
   0.848957600     0.5657839   -0.4419400  
   0.850957500     0.4893047   -0.5285200  
   0.852957400     0.3997568   -0.6019882  
   0.854957300     0.2995855   -0.6604102  
   0.856957200     0.1911751   -0.7019523  
   0.858957100     0.0781667   -0.7256873  
   0.860957000    -0.0371567   -0.7314205  
   0.862956900    -0.1510608   -0.7189661  
   0.864956800    -0.2611119   -0.6890439  
   0.866956700    -0.3649710   -0.6427661  
   0.868956600    -0.4595190   -0.5812936  
   0.870956500    -0.5433410   -0.5064468  
   0.872956400    -0.6145633   -0.4197782  
   0.874956300    -0.6718683   -0.3235134  
   0.876956200    -0.7133000   -0.2199832  
   0.878956100    -0.7387813   -0.1111923  
   0.880956000    -0.7472520   -0.0001336  
   0.882955900    -0.7390473    0.1107130  
   0.884955800    -0.7141580    0.2188898  
   0.886955700    -0.6731135    0.3216573  
   0.888955600    -0.6174256    0.4172478  
   0.890955500    -0.5478836    0.5032392  
   0.892955400    -0.4664275    0.5778683  
   0.894955300    -0.3746676    0.6392557  
