! MS46122B
! 2250307/22442219
! 6/15/2025 11:03:41 AM
! C:\USERS\SPARKY\DOCUMENTS\VNA_DATA\JUNE15_2025\295K\PORT4_MOS1.S1P
! CHANNEL.1
! TR.MEASUREMENT
! RAW.DATA
# GHZ S RI R 50.0
! FREQ.GHZ         S11RE         S11IM         
!; PortSelection: Port_1
   0.001000000    -0.8939770    0.0540229  
   0.002999900    -0.8647093    0.2565174  
   0.004999800    -0.8236688    0.3999275  
   0.006999700    -0.7565774    0.5256698  
   0.008999600    -0.6676530    0.6333937  
   0.010999500    -0.5611827    0.7215540  
   0.012999400    -0.4410454    0.7895452  
   0.014999300    -0.3109061    0.8362461  
   0.016999200    -0.1754747    0.8620523  
   0.018999100    -0.0379049    0.8671061  
   0.020999000     0.0982544    0.8525462  
   0.022998900     0.2302031    0.8189446  
   0.024998800     0.3277714    0.7491019  
   0.026998700     0.4705210    0.7000177  
   0.028998600     0.5744909    0.6171542  
   0.030998500     0.6646387    0.5212826  
   0.032998400     0.7062052    0.4133552  
   0.034998300     0.7975483    0.2960347  
   0.036998200     0.8365697    0.1709999  
   0.038998100     0.8562397    0.0411365  
   0.040998000     0.8554291   -0.0901133  
   0.042997900     0.8334566   -0.2199513  
   0.044997800     0.7700900   -0.3196611  
   0.046997700     0.7298325   -0.4615342  
   0.048997600     0.6513406   -0.5674257  
   0.050997500     0.5572824   -0.6594030  
   0.052997400     0.4519710   -0.7350539  
   0.054997300     0.3347515   -0.7953536  
   0.056997200     0.2106786   -0.8366891  
   0.058997100     0.0829337   -0.8590552  
   0.060997000    -0.0465723   -0.8621507  
   0.062996900    -0.1744865   -0.8461583  
   0.064996800    -0.2985333   -0.8113446  
   0.066996700    -0.4158455   -0.7584320  
   0.068996600    -0.5236784   -0.6884286  
   0.070996500    -0.6194079   -0.6033226  
   0.072996400    -0.7014490   -0.5047421  
   0.074996300    -0.7673932   -0.3950649  
   0.076996200    -0.8159142   -0.2767050  
   0.078996100    -0.8462057   -0.1523559  
   0.080996000    -0.8574347   -0.0248519  
   0.082995900    -0.8496682    0.1029749  
   0.084995800    -0.8223109    0.2282190  
   0.086995700    -0.7766891    0.3481736  
   0.088995600    -0.7132598    0.4600400  
   0.090995500    -0.6334801    0.5612950  
   0.092995400    -0.5388620    0.6496102  
   0.094995300    -0.4318949    0.7224173  
   0.096995200    -0.3143633    0.7782329  
   0.098995100    -0.1890967    0.8154188  
   0.100995000    -0.0594679    0.8320881  
   0.102994900     0.0714580    0.8284230  
   0.104994800     0.2004960    0.8043375  
   0.106994700     0.3244759    0.7598231  
   0.108994600     0.4397682    0.6964173  
   0.110994500     0.5439127    0.6154248  
   0.112994400     0.6336288    0.5188537  
   0.114994300     0.7070161    0.4092986  
   0.116994200     0.7619367    0.2894895  
   0.118994100     0.7972142    0.1624907  
   0.120994000     0.8116666    0.0319017  
   0.122993900     0.8051019   -0.0989183  
   0.124993800     0.7779139   -0.2268993  
   0.126993700     0.7310289   -0.3483093  
   0.128993600     0.6658694   -0.4608890  
   0.130993500     0.5838718   -0.5608414  
   0.132993400     0.4877722   -0.6461326  
   0.134993300     0.3799449   -0.7153174  
   0.136993200     0.2634348   -0.7663098  
   0.138993100     0.1407991   -0.7985259  
   0.140993000     0.0159473   -0.8111804  
   0.142992900    -0.1093815   -0.8047305  
   0.144992800    -0.2310868   -0.7793713  
   0.146992700    -0.3471145   -0.7358408  
   0.148992600    -0.4546203   -0.6758637  
   0.150992500    -0.5514939   -0.6005491  
   0.152992400    -0.6354451   -0.5115803  
   0.154992300    -0.7047937   -0.4121861  
   0.156992200    -0.7585527   -0.3031868  
   0.158992100    -0.7956555   -0.1881834  
   0.160992000    -0.8150159   -0.0689358  
   0.162991900    -0.8167860    0.0513475  
   0.164991800    -0.8005559    0.1706461  
   0.166991700    -0.7669288    0.2860622  
   0.168991600    -0.7167559    0.3950870  
   0.170991500    -0.6508266    0.4961908  
   0.172991400    -0.5708041    0.5858942  
   0.174991300    -0.4781645    0.6627862  
   0.176991200    -0.3748552    0.7256156  
   0.178991100    -0.2627054    0.7724118  
   0.180991000    -0.1450496    0.8022867  
   0.182990900    -0.0237176    0.8139217  
   0.184990800     0.0984881    0.8073244  
   0.186990700     0.2191398    0.7824710  
   0.188990600     0.3125194    0.7486130  
   0.190990500     0.4388138    0.6806197  
   0.192990400     0.5394299    0.6021840  
   0.194990300     0.6246320    0.5114123  
   0.196990200     0.6945579    0.4084949  
   0.198990100     0.7479967    0.2957628  
   0.200990000     0.7835171    0.1756008  
   0.202989900     0.8000043    0.0505330  
   0.204989800     0.7966002   -0.0754485  
   0.206989700     0.7735068   -0.1989530  
   0.208989600     0.7314636   -0.3172975  
   0.210989500     0.6710070   -0.4281204  
   0.212989400     0.5938597   -0.5281563  
   0.214989300     0.5018636   -0.6146049  
   0.216989200     0.3980204   -0.6850371  
   0.218989100     0.2845514   -0.7379853  
   0.220989000     0.1643404   -0.7725208  
   0.222988900     0.0400083   -0.7876504  
   0.224988800    -0.0846675   -0.7829581  
   0.226988700    -0.2065410   -0.7587393  
   0.228988600    -0.3225146   -0.7158366  
   0.230988500    -0.4295745   -0.6556630  
   0.232988400    -0.5259234   -0.5796854  
   0.234988300    -0.6092252   -0.4895417  
   0.236988200    -0.6771244   -0.3877544  
   0.238988100    -0.7279699   -0.2768963  
   0.240988000    -0.7609473   -0.1603860  
   0.242987900    -0.7753323   -0.0408890  
   0.244987800    -0.7709595    0.0788921  
   0.246987700    -0.7481759    0.1967702  
   0.248987600    -0.7074625    0.3101951  
   0.250987500    -0.6496465    0.4153665  
   0.252987400    -0.5766209    0.5102782  
   0.254987300    -0.4904509    0.5922892  
   0.256987200    -0.3927238    0.6597903  
   0.258987100    -0.2859624    0.7116340  
   0.260987000    -0.1721692    0.7465677  
   0.262986900    -0.0540007    0.7637128  
   0.264986800     0.0656946    0.7624639  
   0.266986700     0.1841186    0.7425216  
   0.268986600     0.2975181    0.7046674  
   0.270986500     0.4036755    0.6503242  
   0.272986400     0.5001164    0.5796192  
   0.274986300     0.5846196    0.4951882  
   0.276986200     0.6554835    0.3982168  
   0.278986100     0.7105228    0.2911505  
   0.280986000     0.7487988    0.1763117  
   0.282985900     0.7686744    0.0567460  
   0.284985800     0.7693266   -0.0649271  
   0.286985700     0.7513636   -0.1850000  
   0.288985600     0.7146615   -0.3001356  
   0.290985500     0.6609837   -0.4079392  
   0.292985400     0.5914062   -0.5059552  
   0.294985300     0.5074392   -0.5922761  
   0.296985200     0.4106989   -0.6646533  
   0.298985100     0.3035758   -0.7214979  
   0.300985000     0.1886802   -0.7605763  
   0.302984900     0.0694237   -0.7815326  
   0.304984800    -0.0512676   -0.7838840  
   0.306984700    -0.1701905   -0.7672471  
   0.308984600    -0.2844170   -0.7328559  
   0.310984500    -0.3910874   -0.6820216  
   0.312984400    -0.4884586   -0.6157713  
   0.314984300    -0.5746204   -0.5358003  
   0.316984200    -0.6473679   -0.4440697  
   0.318984100    -0.7054804   -0.3418830  
   0.320984000    -0.7475305   -0.2316536  
   0.322983900    -0.7726586   -0.1162924  
   0.324983800    -0.7794995    0.0013882  
   0.326983700    -0.7684343    0.1181878  
   0.328983600    -0.7399283    0.2318754  
   0.330983500    -0.6947766    0.3392668  
   0.332983400    -0.6341447    0.4377058  
   0.334983300    -0.5596741    0.5260078  
   0.336983200    -0.4726706    0.6021150  
   0.338983100    -0.3755459    0.6642122  
   0.340983000    -0.2695976    0.7108046  
   0.342982900    -0.1579715    0.7409350  
   0.344982800    -0.0425399    0.7535866  
   0.346982700     0.0746050    0.7485480  
   0.348982600     0.1899380    0.7255137  
   0.350982500     0.3003616    0.6845496  
   0.352982400     0.4035563    0.6267974  
   0.354982300     0.5003029    0.5501223  
   0.356982200     0.5912672    0.4481804  
   0.358982100     0.6618379    0.3317777  
   0.360982000     0.7103745    0.2051323  
   0.362981900     0.7356438    0.0714791  
   0.364981800     0.7361864   -0.0648780  
   0.366981700     0.7121443   -0.1993171  
   0.368981600     0.6638772   -0.3270774  
   0.370981500     0.5930055   -0.4444735  
   0.372981400     0.5019521   -0.5469083  
   0.374981300     0.3929055   -0.6312943  
   0.376981200     0.4750057   -0.5639009  
   0.378981100     0.3633122   -0.6436776  
   0.380981000     0.2391402   -0.7013135  
   0.382980900     0.1186562   -0.7329622  
   0.384980800    -0.0001152   -0.7442697  
   0.386980700    -0.1188474   -0.7365832  
   0.388980600    -0.2342195   -0.7103373  
   0.390980500    -0.3430304   -0.6664358  
   0.392980400    -0.4430219   -0.6067626  
   0.394980300    -0.5316983   -0.5333973  
   0.396980200    -0.6077542   -0.4476072  
   0.398980100    -0.6696155   -0.3521515  
   0.400980000    -0.7161097   -0.2483815  
   0.402979900    -0.7462930   -0.1393372  
   0.404979800    -0.7598298   -0.0279888  
   0.406979700    -0.7567855    0.0838863  
   0.408979600    -0.7372237    0.1937063  
   0.410979500    -0.7015222    0.2995806  
   0.412979400    -0.6504254    0.3993115  
   0.414979300    -0.5847605    0.4907981  
   0.416979200    -0.5069045    0.5709512  
   0.418979100    -0.4175017    0.6389369  
   0.420979000    -0.3191077    0.6930531  
   0.422978900    -0.2134932    0.7316945  
   0.424978800    -0.1027186    0.7544040  
   0.426978700     0.0107196    0.7601473  
   0.428978600     0.1238199    0.7487409  
   0.430978500     0.2338641    0.7203667  
   0.432978400     0.3384775    0.6757353  
   0.434978300     0.4352436    0.6157789  
   0.436978200     0.5220565    0.5413266  
   0.438978100     0.5969014    0.4541719  
   0.440978000     0.6575668    0.3559971  
   0.442977900     0.7025393    0.2491700  
   0.444977800     0.7302983    0.1363831  
   0.446977700     0.7401800    0.0199804  
   0.448977600     0.7317548   -0.0967117  
   0.450977500     0.7046857   -0.2106915  
   0.452977400     0.6598441   -0.3196633  
   0.454977300     0.5975336   -0.4212272  
   0.456977200     0.5190247   -0.5113239  
   0.458977100     0.4268900   -0.5878800  
   0.460977000     0.3232277   -0.6484759  
   0.462976900     0.2120714   -0.6910387  
   0.464976800     0.0951912   -0.7151319  
   0.466976700    -0.0239151   -0.7196912  
   0.468976600    -0.1417012   -0.7047052  
   0.470976500    -0.2552634   -0.6711901  
   0.472976400    -0.3612650   -0.6199952  
   0.474976300    -0.4571823   -0.5526404  
   0.476976200    -0.5407151   -0.4712472  
   0.478976100    -0.6095392   -0.3783368  
   0.480976000    -0.6619313   -0.2766403  
   0.482975900    -0.6979272   -0.1689241  
   0.484975800    -0.7163022   -0.0575423  
   0.486975700    -0.7172664    0.0548586  
   0.488975600    -0.7010989    0.1655801  
   0.490975500    -0.6681725    0.2722856  
   0.492975400    -0.6191413    0.3724574  
   0.494975300    -0.5556691    0.4636661  
   0.496975200    -0.4791879    0.5439659  
   0.498975100    -0.3918374    0.6114686  
   0.500975000    -0.2953641    0.6647860  
   0.502974900    -0.1925476    0.7029662  
   0.504974800    -0.0847389    0.7251596  
   0.506974700     0.0257714    0.7307403  
   0.508974600     0.1361749    0.7193729  
   0.510974500     0.2442694    0.6912475  
   0.512974400     0.3466428    0.6469499  
   0.514974300     0.4411195    0.5877706  
   0.516974200     0.5255054    0.5147873  
   0.518974100     0.5981466    0.4297818  
   0.520974000     0.6569239    0.3343552  
   0.522973900     0.7002486    0.2309856  
   0.524973800     0.7276500    0.1219998  
   0.526973700     0.7380161    0.0091325  
   0.528973600     0.7308327   -0.1037085  
   0.530973500     0.7061487   -0.2153658  
   0.532973400     0.6643299   -0.3216197  
   0.534973300     0.6065583   -0.4204344  
   0.536973200     0.5335605   -0.5096041  
   0.538973100     0.4481536   -0.5858959  
   0.540973000     0.3517658   -0.6478262  
   0.542972900     0.2468693   -0.6939747  
   0.544972800     0.1362839   -0.7234117  
   0.546972700     0.0218191   -0.7354521  
   0.548972600    -0.0932578   -0.7292866  
   0.550972500    -0.2057995   -0.7053546  
   0.552972400    -0.3137482   -0.6639059  
   0.554972300    -0.4135907   -0.6058766  
   0.556972200    -0.5026425   -0.5328999  
   0.558972100    -0.5795946   -0.4468998  
   0.560972000    -0.6415288   -0.3503214  
   0.562971900    -0.6873180   -0.2454700  
   0.564971800    -0.7161281   -0.1354783  
   0.566971700    -0.7273019   -0.0226120  
   0.568971600    -0.7207267    0.0899866  
   0.570971500    -0.6968644    0.1999437  
   0.572971400    -0.6562173    0.3048508  
   0.574971300    -0.5995108    0.4023566  
   0.576971200    -0.5281110    0.4899491  
   0.578971100    -0.4438533    0.5650570  
   0.580971000    -0.3489620    0.6259907  
   0.582970900    -0.2457648    0.6713105  
   0.584970800    -0.1369952    0.6997851  
   0.586970700    -0.0254256    0.7109230  
   0.588970600     0.0863821    0.7042149  
   0.590970500     0.1960104    0.6800792  
   0.592970400     0.3002770    0.6388302  
   0.594970300     0.3968270    0.5817843  
   0.596970200     0.4835133    0.5099424  
   0.598970100     0.5575352    0.4249684  
   0.600970000     0.6174961    0.3295465  
   0.602969900     0.6616722    0.2251959  
   0.604969800     0.6885091    0.1145152  
   0.606969700     0.6971602    0.0010774  
   0.608969600     0.6876544   -0.1130094  
   0.610969500     0.6599615   -0.2244394  
   0.612969400     0.6145975   -0.3296661  
   0.614969300     0.5526633   -0.4261211  
   0.616969200     0.4765773   -0.5109285  
   0.618969100     0.3882154   -0.5822213  
   0.620969000     0.2905332   -0.6382456  
   0.622968900     0.1846648   -0.6783926  
   0.624968800     0.0739800   -0.7009529  
   0.626968700    -0.0389261   -0.7056074  
   0.628968600    -0.1509468   -0.6930308  
   0.630968500    -0.2596755   -0.6628762  
   0.632968400    -0.3620902   -0.6161212  
   0.634968300    -0.4557044   -0.5540067  
   0.636968200    -0.5381531   -0.4784059  
   0.638968100    -0.6076985   -0.3909143  
   0.640968000    -0.6630917   -0.2943180  
   0.642967900    -0.7024624   -0.1907404  
   0.644967800    -0.7257341   -0.0825831  
   0.646967700    -0.7319399    0.0275526  
   0.648967600    -0.7216706    0.1368613  
   0.650967500    -0.6951200    0.2426547  
   0.652967400    -0.6532647    0.3429907  
   0.654967300    -0.5971720    0.4357235  
   0.656967200    -0.5277308    0.5187358  
   0.658967100    -0.4472138    0.5904885  
   0.660967000    -0.3565660    0.6496130  
   0.662966900    -0.2576814    0.6948162  
   0.664966800    -0.1522831    0.7246175  
   0.666966700    -0.0432710    0.7382554  
   0.668966600     0.0668768    0.7357546  
   0.670966500     0.1757804    0.7163752  
   0.672966400     0.2803863    0.6801233  
   0.674966300     0.3788809    0.6286039  
   0.676966200     0.4680087    0.5628131  
   0.678966100     0.5464311    0.4839147  
   0.680966000     0.6119354    0.3938863  
   0.682965900     0.6628945    0.2944864  
   0.684965800     0.6980740    0.1884018  
   0.686965700     0.7165968    0.0774395  
   0.688965600     0.7172847   -0.0353899  
   0.690965500     0.7006151   -0.1473314  
   0.692965400     0.6663170   -0.2551496  
   0.694965300     0.6156823   -0.3562915  
   0.696965200     0.5495957   -0.4485990  
   0.698965100     0.4692893   -0.5293269  
   0.700965000     0.3772846   -0.5963746  
   0.702964900     0.2757344   -0.6480153  
   0.704964800     0.1670924   -0.6827314  
   0.706964700     0.0542706   -0.6997973  
   0.708964600    -0.0595048   -0.6984969  
   0.710964500    -0.1718434   -0.6790405  
   0.712964400    -0.2791671   -0.6418316  
   0.714964300    -0.3787434   -0.5880549  
   0.716964200    -0.4681514   -0.5194759  
   0.718964100    -0.5446908   -0.4383602  
   0.720964000    -0.6072784   -0.3467582  
   0.722963900    -0.6544185   -0.2471519  
   0.724963800    -0.6854898   -0.1422215  
   0.726963700    -0.7000449   -0.0341350  
   0.728963600    -0.6975740    0.0742697  
   0.730963500    -0.6785786    0.1810993  
   0.732963400    -0.6437798    0.2831215  
   0.734963300    -0.5938387    0.3783514  
   0.736963200    -0.5183833    0.4765806  
   0.738963100    -0.4265200    0.5601943  
   0.740963000    -0.3207677    0.6270617  
   0.742962900    -0.2049954    0.6741847  
   0.744962800    -0.0825853    0.7012146  
   0.746962700     0.0429656    0.7061264  
   0.748962600     0.1682637    0.6891280  
   0.750962500     0.0437752    0.7086124  
   0.752962400     0.1681686    0.6896225  
   0.754962300     0.2875002    0.6496304  
   0.756962200     0.3983740    0.5891718  
   0.758962100     0.4967024    0.5098830  
   0.760962000     0.5808399    0.4145705  
   0.762961900     0.6438002    0.3113407  
   0.764961800     0.6850787    0.2095201  
   0.766961700     0.7102969    0.1023612  
   0.768961600     0.7184871   -0.0082105  
   0.770961500     0.7098613   -0.1186788  
   0.772961400     0.6840374   -0.2267551  
   0.774961300     0.6421381   -0.3295641  
   0.776961200     0.5839416   -0.4255989  
   0.778961100     0.5116295   -0.5113086  
   0.780961000     0.4262801   -0.5853912  
   0.782960900     0.3301894   -0.6454964  
   0.784960800     0.2250068   -0.6899732  
   0.786960700     0.1141410   -0.7174119  
   0.788960600    -0.0000644   -0.7265092  
   0.790960500    -0.1141184   -0.7176882  
   0.792960400    -0.2247504   -0.6906682  
   0.794960300    -0.3297761   -0.6464416  
   0.796960200    -0.4256840   -0.5867085  
   0.798960100    -0.5111470   -0.5127767  
   0.800960000    -0.5831674   -0.4268494  
   0.802959900    -0.6407957   -0.3311347  
   0.804959800    -0.6826761   -0.2283505  
   0.806959700    -0.7076971   -0.1208419  
   0.808959600    -0.7159516   -0.0113741  
   0.810959500    -0.7070666    0.0975911  
   0.812959400    -0.6819866    0.2033863  
   0.814959300    -0.6411073    0.3036558  
   0.816959200    -0.5858167    0.3962612  
   0.818959100    -0.5168078    0.4789176  
   0.820959000    -0.4363592    0.5500516  
   0.822958900    -0.3459764    0.6080604  
   0.824958800    -0.2483186    0.6516801  
   0.826958700    -0.1449161    0.6797966  
   0.828958600    -0.0385999    0.6914850  
   0.830958500     0.0683841    0.6870238  
   0.832958400     0.1738429    0.6663423  
   0.834958300     0.2742880    0.6300043  
   0.836958200     0.3683450    0.5787638  
   0.838958100     0.4533587    0.5132970  
   0.840958000     0.5278542    0.4354041  
   0.842957900     0.5896467    0.3463597  
   0.844957800     0.6370498    0.2483736  
   0.846957700     0.6690981    0.1437915  
   0.848957600     0.6842152    0.0352931  
   0.850957500     0.6819113   -0.0749418  
   0.852957400     0.6625093   -0.1838337  
   0.854957300     0.6257316   -0.2882561  
   0.856957200     0.5726581   -0.3860596  
   0.858957100     0.5049556   -0.4740293  
   0.860957000     0.4240629   -0.5501454  
   0.862956900     0.3326236   -0.6122059  
   0.864956800     0.2329070   -0.6593825  
   0.866956700     0.1275456   -0.6900747  
   0.868956600     0.0185065   -0.7043126  
   0.870956500    -0.0911614   -0.7011512  
   0.872956400    -0.1989312   -0.6812297  
   0.874956300    -0.3022178   -0.6451423  
   0.876956200    -0.3982818   -0.5933067  
   0.878956100    -0.4853791   -0.5275636  
   0.880956000    -0.5609675   -0.4489966  
   0.882955900    -0.6237881   -0.3603799  
   0.884955800    -0.6719314   -0.2633452  
   0.886955700    -0.7050615   -0.1604095  
   0.888955600    -0.7217592   -0.0540360  
   0.890955500    -0.7225210    0.0531891  
   0.892955400    -0.7069973    0.1591857  
   0.894955300    -0.6759928    0.2612194  
