! MS46122B
! 2250307/22442219
! 6/15/2025 11:04:52 AM
! C:\USERS\SPARKY\DOCUMENTS\VNA_DATA\JUNE15_2025\295K\PORT5_MOS2.S1P
! CHANNEL.1
! TR.MEASUREMENT
! RAW.DATA
# GHZ S RI R 50.0
! FREQ.GHZ         S11RE         S11IM         
!; PortSelection: Port_1
   0.001000000    -0.8934206    0.0543134  
   0.002999900    -0.8639466    0.2569896  
   0.004999800    -0.8227468    0.4005577  
   0.006999700    -0.7554663    0.5263444  
   0.008999600    -0.6662309    0.6341954  
   0.010999500    -0.5593804    0.7223333  
   0.012999400    -0.4390079    0.7900739  
   0.014999300    -0.3084115    0.8365681  
   0.016999200    -0.1726826    0.8620614  
   0.018999100    -0.0347758    0.8666865  
   0.020999000     0.1015441    0.8516945  
   0.022998900     0.2335047    0.8174435  
   0.024998800     0.3309953    0.7471486  
   0.026998700     0.4737597    0.6972450  
   0.028998600     0.5775128    0.6138648  
   0.030998500     0.6673077    0.5173004  
   0.032998400     0.7084009    0.4091167  
   0.034998300     0.7991143    0.2908852  
   0.036998200     0.8374142    0.1654305  
   0.038998100     0.8562706    0.0351966  
   0.040998000     0.8544849   -0.0964252  
   0.042997900     0.8315270   -0.2260756  
   0.044997800     0.7673576   -0.3257143  
   0.046997700     0.7258554   -0.4674214  
   0.048997600     0.6462263   -0.5727965  
   0.050997500     0.5512294   -0.6642236  
   0.052997400     0.4449691   -0.7392108  
   0.054997300     0.3268996   -0.7983307  
   0.056997200     0.2023983   -0.8385724  
   0.058997100     0.0741072   -0.8596951  
   0.060997000    -0.0555890   -0.8614232  
   0.062996900    -0.1836198   -0.8440378  
   0.064996800    -0.3075120   -0.8077759  
   0.066996700    -0.4244232   -0.7534398  
   0.068996600    -0.5316661   -0.6819999  
   0.070996500    -0.6265794   -0.5955646  
   0.072996400    -0.7075148   -0.4957652  
   0.074996300    -0.7721689   -0.3849847  
   0.076996200    -0.8192256   -0.2656739  
   0.078996100    -0.8479165   -0.1407790  
   0.080996000    -0.8573869   -0.0127095  
   0.082995900    -0.8476412    0.1153022  
   0.084995800    -0.8183248    0.2404055  
   0.086995700    -0.7707998    0.3599295  
   0.088995600    -0.7054079    0.4711329  
   0.090995500    -0.6238098    0.5712727  
   0.092995400    -0.5275073    0.6581829  
   0.094995300    -0.4189056    0.7294278  
   0.096995200    -0.3002043    0.7831980  
   0.098995100    -0.1739299    0.8181686  
   0.100995000    -0.0434590    0.8325965  
   0.102994900     0.0875391    0.8263437  
   0.104994800     0.2164263    0.7996026  
   0.106994700     0.3396563    0.7525033  
   0.108994600     0.4540884    0.6867174  
   0.110994500     0.5566191    0.6033263  
   0.112994400     0.6445035    0.5044621  
   0.114994300     0.7155934    0.3931614  
   0.116994200     0.7679056    0.2718879  
   0.118994100     0.8004034    0.1439138  
   0.120994000     0.8117661    0.0126633  
   0.122993900     0.8022012   -0.1182576  
   0.124993800     0.7720116   -0.2455738  
   0.126993700     0.7220724   -0.3661583  
   0.128993600     0.6540155   -0.4771810  
   0.130993500     0.5694303   -0.5754035  
   0.132993400     0.4711394   -0.6583245  
   0.134993300     0.3613808   -0.7248113  
   0.136993200     0.2434438   -0.7729629  
   0.138993100     0.1198781   -0.8020020  
   0.140993000    -0.0054515   -0.8114333  
   0.142992900    -0.1307191   -0.8016585  
   0.144992800    -0.2520019   -0.7729623  
   0.146992700    -0.3671075   -0.7264609  
   0.148992600    -0.4728906   -0.6634165  
   0.150992500    -0.5679206   -0.5853487  
   0.152992400    -0.6494645   -0.4940493  
   0.154992300    -0.7161337   -0.3923900  
   0.156992200    -0.7669287   -0.2817726  
   0.158992100    -0.8007952   -0.1654451  
   0.160992000    -0.8168331   -0.0455775  
   0.162991900    -0.8150489    0.0749320  
   0.164991800    -0.7952569    0.1941881  
   0.166991700    -0.7581940    0.3086674  
   0.168991600    -0.7046135    0.4164498  
   0.170991500    -0.6354088    0.5158524  
   0.172991400    -0.5523946    0.6032202  
   0.174991300    -0.4571184    0.6776472  
   0.176991200    -0.3512519    0.7372183  
   0.178991100    -0.2374930    0.7807357  
   0.180991000    -0.1183678    0.8065635  
   0.182990900     0.0035948    0.8141237  
   0.184990800     0.1259737    0.8033814  
   0.186990700     0.2464297    0.7742401  
   0.188990600     0.3388318    0.7369084  
   0.190990500     0.4629316    0.6642202  
   0.192990400     0.5610570    0.5818650  
   0.194990300     0.6431290    0.4873546  
   0.196990200     0.7094550    0.3815867  
   0.198990100     0.7585476    0.2662988  
   0.200990000     0.7896736    0.1443316  
   0.202989900     0.8010089    0.0184491  
   0.204989800     0.7925089   -0.1078089  
   0.206989700     0.7643944   -0.2308419  
   0.208989600     0.7172053   -0.3476358  
   0.210989500     0.6519904   -0.4561555  
   0.212989400     0.5702893   -0.5532653  
   0.214989300     0.4743157   -0.6357887  
   0.216989200     0.3671319   -0.7017055  
   0.218989100     0.2511413   -0.7497668  
   0.220989000     0.1292247   -0.7789554  
   0.222988900     0.0039343   -0.7884720  
   0.224988800    -0.1208870   -0.7781291  
   0.226988700    -0.2416463   -0.7478548  
   0.228988600    -0.3556649   -0.6996584  
   0.230988500    -0.4602140   -0.6343703  
   0.232988400    -0.5530038   -0.5535540  
   0.234988300    -0.6320361   -0.4593455  
   0.236988200    -0.6949814   -0.3540811  
   0.238988100    -0.7406814   -0.2408304  
   0.240988000    -0.7678794   -0.1224537  
   0.242987900    -0.7762643   -0.0019905  
   0.244987800    -0.7660534    0.1177392  
   0.246987700    -0.7372114    0.2347019  
   0.248987600    -0.6906963    0.3460579  
   0.250987500    -0.6275124    0.4486385  
   0.252987400    -0.5493886    0.5398254  
   0.254987300    -0.4585659    0.6175672  
   0.256987200    -0.3572644    0.6800517  
   0.258987100    -0.2476127    0.7265993  
   0.260987000    -0.1315509    0.7555096  
   0.262986900    -0.0121253    0.7662562  
   0.264986800     0.1078124    0.7584909  
   0.266986700     0.2252794    0.7320170  
   0.268986600     0.3370784    0.6878251  
   0.270986500     0.4403998    0.6272897  
   0.272986400     0.5331842    0.5510010  
   0.274986300     0.6132777    0.4613007  
   0.276986200     0.6786603    0.3602657  
   0.278986100     0.7279563    0.2497196  
   0.280986000     0.7593821    0.1322939  
   0.282985900     0.7720067    0.0108911  
   0.284985800     0.7657693   -0.1107554  
   0.286985700     0.7405415   -0.2300525  
   0.288985600     0.6968227   -0.3433985  
   0.290985500     0.6365311   -0.4481893  
   0.292985400     0.5609124   -0.5423242  
   0.294985300     0.4712997   -0.6234729  
   0.296985200     0.3699772   -0.6900133  
   0.298985100     0.2591555   -0.7402989  
   0.300985000     0.1414756   -0.7724037  
   0.302984900     0.0208145   -0.7856681  
   0.304984800    -0.1004078   -0.7803535  
   0.306984700    -0.2185901   -0.7563375  
   0.308984600    -0.3304401   -0.7144749  
   0.310984500    -0.4341995   -0.6565725  
   0.312984400    -0.5275142   -0.5842359  
   0.314984300    -0.6082535   -0.4984476  
   0.316984200    -0.6750885   -0.4015885  
   0.318984100    -0.7264671   -0.2955967  
   0.320984000    -0.7613859   -0.1823613  
   0.322983900    -0.7787938   -0.0649709  
   0.324983800    -0.7777568    0.0530649  
   0.326983700    -0.7589756    0.1693489  
   0.328983600    -0.7225766    0.2813746  
   0.330983500    -0.6697710    0.3857094  
   0.332983400    -0.6023355    0.4804952  
   0.334983300    -0.5215188    0.5635610  
   0.336983200    -0.4287474    0.6337923  
   0.338983100    -0.3266844    0.6893077  
   0.340983000    -0.2173994    0.7281606  
   0.342982900    -0.1033066    0.7502299  
   0.344982800     0.0137075    0.7545832  
   0.346982700     0.1305880    0.7408600  
   0.348982600     0.2447161    0.7088212  
   0.350982500     0.3523846    0.6595984  
   0.352982400     0.4516194    0.5935870  
   0.354982300     0.5424541    0.5094210  
   0.356982200     0.6257421    0.3997897  
   0.358982100     0.6873116    0.2775052  
   0.360982000     0.7258993    0.1464229  
   0.362981900     0.7405052    0.0105166  
   0.364981800     0.7295794   -0.1263164  
   0.366981700     0.6944469   -0.2589280  
   0.368981600     0.6353752   -0.3832153  
   0.370981500     0.5546961   -0.4946687  
   0.372981400     0.4545509   -0.5895370  
   0.374981300     0.3382662   -0.6648020  
   0.376981200     0.4263668   -0.6047868  
   0.378981100     0.3079480   -0.6749738  
   0.380981000     0.1785359   -0.7221351  
   0.382980900     0.0549411   -0.7436795  
   0.384980800    -0.0645753   -0.7446067  
   0.386980700    -0.1825957   -0.7266411  
   0.388980600    -0.2958955   -0.6905177  
   0.390980500    -0.4010552   -0.6370435  
   0.392980400    -0.4957120   -0.5690217  
   0.394980300    -0.5782078   -0.4875885  
   0.396980200    -0.6466382   -0.3954259  
   0.398980100    -0.7003184   -0.2941844  
   0.400980000    -0.7377253   -0.1868499  
   0.402979900    -0.7586417   -0.0750207  
   0.404979800    -0.7624829    0.0378468  
   0.406979700    -0.7494231    0.1493757  
   0.408979600    -0.7200893    0.2576653  
   0.410979500    -0.6749400    0.3604936  
   0.412979400    -0.6148029    0.4561044  
   0.414979300    -0.5410905    0.5416173  
   0.416979200    -0.4553121    0.6156713  
   0.418979100    -0.3598285    0.6752627  
   0.420979000    -0.2560112    0.7203857  
   0.422978900    -0.1462595    0.7494993  
   0.424978800    -0.0331174    0.7620660  
   0.426978700     0.0813961    0.7572116  
   0.428978600     0.1940611    0.7348636  
   0.430978500     0.3020291    0.6957994  
   0.432978400     0.4026345    0.6406434  
   0.434978300     0.4940306    0.5705972  
   0.436978200     0.5740058    0.4869890  
   0.438978100     0.6403339    0.3918378  
   0.440978000     0.6910426    0.2867564  
   0.442977900     0.7250391    0.1747344  
   0.444977800     0.7410709    0.0584169  
   0.446977700     0.7383983   -0.0594464  
   0.448977600     0.7173094   -0.1757749  
   0.450977500     0.6776946   -0.2873614  
   0.452977400     0.6203928   -0.3914720  
   0.454977300     0.5467849   -0.4862560  
   0.456977200     0.4577878   -0.5680652  
   0.458977100     0.3569137   -0.6339359  
   0.460977000     0.2463287   -0.6827456  
   0.462976900     0.1299502   -0.7126639  
   0.464976800     0.0103947   -0.7228887  
   0.466976700    -0.1092117   -0.7134650  
   0.468976600    -0.2251163   -0.6851135  
   0.470976500    -0.3343818   -0.6382390  
   0.472976400    -0.4345523   -0.5745531  
   0.474976300    -0.5222991   -0.4959742  
   0.476976200    -0.5957967   -0.4050508  
   0.478976100    -0.6533777   -0.3040841  
   0.480976000    -0.6939304   -0.1966849  
   0.482975900    -0.7169187   -0.0849601  
   0.484975800    -0.7221098    0.0282559  
   0.486975700    -0.7098919    0.1406524  
   0.488975600    -0.6807005    0.2492457  
   0.490975500    -0.6349638    0.3517357  
   0.492975400    -0.5745293    0.4457409  
   0.494975300    -0.5003186    0.5295373  
   0.496975200    -0.4143268    0.6006805  
   0.498975100    -0.3190636    0.6578187  
   0.500975000    -0.2162808    0.6998380  
   0.502974900    -0.1086252    0.7257457  
   0.504974800     0.0018142    0.7349227  
   0.506974700     0.1129705    0.7274088  
   0.508974600     0.2227239    0.7027836  
   0.510974500     0.3274009    0.6615797  
   0.512974400     0.4246616    0.6044881  
   0.514974300     0.5121813    0.5337325  
   0.516974200     0.5882257    0.4499817  
   0.518974100     0.6504846    0.3557849  
   0.520974000     0.6974437    0.2525156  
   0.522973900     0.7281919    0.1431658  
   0.524973800     0.7417783    0.0301052  
   0.526973700     0.7377541   -0.0842126  
   0.528973600     0.7161304   -0.1971164  
   0.530973500     0.6769108   -0.3055943  
   0.532973400     0.6210822   -0.4068337  
   0.534973300     0.5499298   -0.4986731  
   0.536973200     0.4650151   -0.5781437  
   0.538973100     0.3687778   -0.6435126  
   0.540973000     0.2640843   -0.6924749  
   0.542972900     0.1528447   -0.7247718  
   0.544972800     0.0379227   -0.7392520  
   0.546972700    -0.0781913   -0.7353046  
   0.548972600    -0.1927494   -0.7135259  
   0.550972500    -0.3020483   -0.6737997  
   0.552972400    -0.4041111   -0.6172068  
   0.554972300    -0.4956155   -0.5451872  
   0.556972200    -0.5749812   -0.4596967  
   0.558972100    -0.6393721   -0.3629185  
   0.560972000    -0.6875545   -0.2576172  
   0.562971900    -0.7183748   -0.1464379  
   0.564971800    -0.7313157   -0.0321546  
   0.566971700    -0.7261468    0.0817705  
   0.568971600    -0.7033215    0.1933741  
   0.570971500    -0.6633717    0.2998295  
   0.572971400    -0.6074372    0.3988434  
   0.574971300    -0.5364550    0.4876598  
   0.576971200    -0.4522739    0.5644843  
   0.578971100    -0.3567136    0.6271711  
   0.580971000    -0.2527386    0.6740143  
   0.582970900    -0.1427648    0.7036219  
   0.584970800    -0.0297540    0.7157634  
   0.586970700     0.0834592    0.7098226  
   0.588970600     0.1943186    0.6860698  
   0.590970500     0.3000581    0.6449708  
   0.592970400     0.3980709    0.5876794  
   0.594970300     0.4858411    0.5155764  
   0.596970200     0.5610631    0.4298985  
   0.598970100     0.6221567    0.3337682  
   0.600970000     0.6670198    0.2285520  
   0.602969900     0.6944821    0.1171353  
   0.604969800     0.7036957    0.0023466  
   0.606969700     0.6944432   -0.1125635  
   0.608969600     0.6669403   -0.2250040  
   0.610969500     0.6212983   -0.3317263  
   0.612969400     0.5589436   -0.4296131  
   0.614969300     0.4818738   -0.5158194  
   0.616969200     0.3922583   -0.5884529  
   0.618969100     0.2926692   -0.6452814  
   0.620969000     0.1862799   -0.6854731  
   0.622968900     0.0744505   -0.7082922  
   0.624968800    -0.0394362   -0.7131476  
   0.626968700    -0.1526330   -0.7002413  
   0.628968600    -0.2623978   -0.6698684  
   0.630968500    -0.3659206   -0.6225601  
   0.632968400    -0.4605112   -0.5599025  
   0.634968300    -0.5438491   -0.4833421  
   0.636968200    -0.6141502   -0.3948351  
   0.638968100    -0.6699528   -0.2971299  
   0.640968000    -0.7097361   -0.1923144  
   0.642967900    -0.7331461   -0.0828947  
   0.644967800    -0.7392377    0.0286199  
   0.646967700    -0.7286523    0.1393489  
   0.648967600    -0.7014561    0.2464953  
   0.650967500    -0.6587268    0.3479111  
   0.652967400    -0.6013345    0.4419180  
   0.654967300    -0.5309693    0.5258322  
   0.656967200    -0.4487421    0.5979276  
   0.658967100    -0.3572176    0.6573201  
   0.660967000    -0.2574579    0.7022564  
   0.662966900    -0.1511907    0.7320159  
   0.664966800    -0.0410723    0.7452555  
   0.666966700     0.0703736    0.7420316  
   0.668966600     0.1802209    0.7221621  
   0.670966500     0.2862100    0.6852962  
   0.672966400     0.3853713    0.6321791  
   0.674966300     0.4753896    0.5648654  
   0.676966200     0.5546500    0.4842069  
   0.678966100     0.6202467    0.3926049  
   0.680966000     0.6708934    0.2916457  
   0.682965900     0.7057564    0.1833457  
   0.684965800     0.7234476    0.0715176  
   0.686965700     0.7230387   -0.0428899  
   0.688965600     0.7046298   -0.1558138  
   0.690965500     0.6690518   -0.2649111  
   0.692965400     0.6162048   -0.3671697  
   0.694965300     0.5484616   -0.4594509  
   0.696965200     0.4662225   -0.5401896  
   0.698965100     0.3723441   -0.6066945  
   0.700965000     0.2689954   -0.6575330  
   0.702964900     0.1587611   -0.6911072  
   0.704964800     0.0444972   -0.7068298  
   0.706964700    -0.0706709   -0.7038321  
   0.708964600    -0.1834868   -0.6826157  
   0.710964500    -0.2918635   -0.6435468  
   0.712964400    -0.3917308   -0.5878608  
   0.714964300    -0.4811226   -0.5167996  
   0.716964200    -0.5577204   -0.4332888  
   0.718964100    -0.6195449   -0.3394361  
   0.720964000    -0.6656435   -0.2377295  
   0.722963900    -0.6951869   -0.1308327  
   0.724963800    -0.7078865   -0.0212041  
   0.726963700    -0.7034093    0.0886344  
   0.728963600    -0.6822736    0.1960824  
   0.730963500    -0.6450397    0.2987744  
   0.732963400    -0.5929121    0.3938886  
   0.734963300    -0.5268282    0.4803551  
   0.736963200    -0.4348326    0.5648261  
   0.738963100    -0.3285685    0.6330013  
   0.740963000    -0.2114958    0.6816758  
   0.742962900    -0.0880658    0.7089994  
   0.744962800     0.0391037    0.7148166  
   0.746962700     0.1655032    0.6983077  
   0.748962600     0.2877536    0.6596688  
   0.750962500     0.1659226    0.6985063  
   0.752962400     0.2869651    0.6585373  
   0.754962300     0.3996794    0.5977211  
   0.756962200     0.5001408    0.5178521  
   0.758962100     0.5850302    0.4214339  
   0.760962000     0.6523212    0.3113460  
   0.762961900     0.6973487    0.1966417  
   0.764961800     0.7206086    0.0871920  
   0.766961700     0.7264207   -0.0248185  
   0.768961600     0.7149659   -0.1371515  
   0.770961500     0.6861623   -0.2461320  
   0.772961400     0.6406310   -0.3498864  
   0.774961300     0.5794901   -0.4453634  
   0.776961200     0.5039402   -0.5304798  
   0.778961100     0.4152123   -0.6028150  
   0.780961000     0.3163781   -0.6610596  
   0.782960900     0.2091314   -0.7027934  
   0.784960800     0.0960390   -0.7276649  
   0.786960700    -0.0197527   -0.7335874  
   0.788960600    -0.1349428   -0.7212793  
   0.790960500    -0.2463493   -0.6907217  
   0.792960400    -0.3514180   -0.6429000  
   0.794960300    -0.4469979   -0.5792738  
   0.796960200    -0.5312311   -0.5017245  
   0.798960100    -0.6015148   -0.4125569  
   0.800960000    -0.6567094   -0.3138791  
   0.802959900    -0.6957109   -0.2079976  
   0.804959800    -0.7174330   -0.0983933  
   0.806959700    -0.7220927    0.0126350  
   0.808959600    -0.7093255    0.1225325  
   0.810959500    -0.6803437    0.2287274  
   0.812959400    -0.6354470    0.3286017  
   0.814959300    -0.5763453    0.4202376  
   0.816959200    -0.5037656    0.5013953  
   0.818959100    -0.4201506    0.5701594  
   0.820959000    -0.3265612    0.6256427  
   0.822958900    -0.2263489    0.6661693  
   0.824958800    -0.1209948    0.6909101  
   0.826958700    -0.0129627    0.6989979  
   0.828958600     0.0951870    0.6905464  
   0.830958500     0.2008897    0.6657157  
   0.832958400     0.3014698    0.6252787  
   0.834958300     0.3948154    0.5697207  
   0.836958200     0.4783009    0.5002452  
   0.838958100     0.5506808    0.4186554  
   0.840958000     0.6097872    0.3262553  
   0.842957900     0.6539799    0.2253071  
   0.844957800     0.6824101    0.1184130  
   0.846957700     0.6934055    0.0077903  
   0.848957600     0.6867247   -0.1034731  
   0.850957500     0.6628876   -0.2128250  
   0.852957400     0.6215079   -0.3172089  
   0.854957300     0.5639259   -0.4141393  
   0.856957200     0.4917589   -0.5006832  
   0.858957100     0.4066605   -0.5745485  
   0.860957000     0.3111819   -0.6339903  
   0.862956900     0.2078802   -0.6775370  
   0.864956800     0.0996034   -0.7041890  
   0.866956700    -0.0114939   -0.7138875  
   0.868956600    -0.1223524   -0.7058814  
   0.870956500    -0.2303340   -0.6810942  
   0.872956400    -0.3331345   -0.6400450  
   0.874956300    -0.4278784   -0.5836941  
   0.876956200    -0.5128844   -0.5136013  
   0.878956100    -0.5859301   -0.4310349  
   0.880956000    -0.6456075   -0.3388605  
   0.882955900    -0.6901129   -0.2387939  
   0.884955800    -0.7191948   -0.1334975  
   0.886955700    -0.7316355   -0.0250044  
   0.888955600    -0.7277288    0.0834303  
   0.890955500    -0.7075804    0.1900658  
   0.892955400    -0.6715487    0.2918603  
   0.894955300    -0.6209539    0.3873178  
