! MS46122B
! 2250307/22442219
! 7/24/2025 12:34:37 PM
! C:\USERS\SPARKY\DOCUMENTS\VNA_DATA\JULY24_2025\295K\ECAL_LOAD_D.S1P
! CHANNEL.1
! TR.MEASUREMENT
! RAW.DATA
# GHZ S RI R 50.0
! FREQ.GHZ         S11RE         S11IM         
!; PortSelection: Port_1
   0.001000000     1.0448820   -0.0726352  
   0.002999900     0.9520066   -0.1948075  
   0.004999800     0.8764621   -0.2787420  
   0.006999700     0.7913725   -0.3678152  
   0.008999600     0.6999023   -0.4058270  
   0.010999500     0.6231599   -0.4309658  
   0.012999400     0.5568103   -0.4452000  
   0.014999300     0.5002589   -0.4519580  
   0.016999200     0.4515383   -0.4527347  
   0.018999100     0.4107664   -0.4493416  
   0.020999000     0.3769615   -0.4435451  
   0.022998900     0.3481582   -0.4363533  
   0.024998800     0.3181356   -0.4074765  
   0.026998700     0.3018421   -0.4203191  
   0.028998600     0.2827043   -0.4117546  
   0.030998500     0.2653102   -0.4032907  
   0.032998400     0.2455025   -0.3772847  
   0.034998300     0.2335124   -0.3868080  
   0.036998200     0.2191944   -0.3788684  
   0.038998100     0.2056040   -0.3713388  
   0.040998000     0.1925492   -0.3640104  
   0.042997900     0.1800677   -0.3569003  
   0.044997800     0.1665855   -0.3355978  
   0.046997700     0.1552788   -0.3435288  
   0.048997600     0.1439520   -0.3368811  
   0.050997500     0.1331080   -0.3303519  
   0.052997400     0.1228080   -0.3238192  
   0.054997300     0.1131562   -0.3172833  
   0.056997200     0.1034885   -0.3112645  
   0.058997100     0.0946683   -0.3051330  
   0.060997000     0.0862150   -0.2991454  
   0.062996900     0.0783568   -0.2932255  
   0.064996800     0.0711257   -0.2873807  
   0.066996700     0.0643370   -0.2815461  
   0.068996600     0.0580246   -0.2757517  
   0.070996500     0.0521672   -0.2702176  
   0.072996400     0.0467050   -0.2644424  
   0.074996300     0.0416265   -0.2586809  
   0.076996200     0.0369501   -0.2528959  
   0.078996100     0.0325963   -0.2471567  
   0.080996000     0.0284726   -0.2414100  
   0.082995900     0.0246060   -0.2357397  
   0.084995800     0.0209765   -0.2297703  
   0.086995700     0.0177266   -0.2241143  
   0.088995600     0.0149045   -0.2185719  
   0.090995500     0.0122720   -0.2131400  
   0.092995400     0.0099586   -0.2079736  
   0.094995300     0.0079538   -0.2027363  
   0.096995200     0.0061282   -0.1975555  
   0.098995100     0.0045143   -0.1925080  
   0.100995000     0.0020858   -0.1885779  
   0.102994900     0.0008727   -0.1839580  
   0.104994800     0.0000479   -0.1795811  
   0.106994700    -0.0005615   -0.1752669  
   0.108994600    -0.0009860   -0.1713228  
   0.110994500    -0.0012351   -0.1676328  
   0.112994400    -0.0013502   -0.1641810  
   0.114994300    -0.0013180   -0.1609772  
   0.116994200    -0.0012154   -0.1580065  
   0.118994100    -0.0009998   -0.1552945  
   0.120994000    -0.0005876   -0.1527650  
   0.122993900    -0.0004178   -0.1504479  
   0.124993800    -0.0001732   -0.1484197  
   0.126993700    -0.0000100   -0.1466233  
   0.128993600     0.0000975   -0.1450155  
   0.130993500     0.0001491   -0.1436479  
   0.132993400     0.0000831   -0.1424461  
   0.134993300    -0.0001079   -0.1414079  
   0.136993200    -0.0004740   -0.1404480  
   0.138993100    -0.0009956   -0.1396054  
   0.140993000    -0.0016938   -0.1388035  
   0.142992900    -0.0025831   -0.1380268  
   0.144992800    -0.0036167   -0.1373901  
   0.146992700    -0.0048955   -0.1366137  
   0.148992600    -0.0062958   -0.1357712  
   0.150992500    -0.0077923   -0.1346958  
   0.152992400    -0.0095149   -0.1336148  
   0.154992300    -0.0112981   -0.1323831  
   0.156992200    -0.0132021   -0.1309581  
   0.158992100    -0.0151517   -0.1293344  
   0.160992000    -0.0171432   -0.1274791  
   0.162991900    -0.0191024   -0.1253932  
   0.164991800    -0.0210142   -0.1230873  
   0.166991700    -0.0228272   -0.1205015  
   0.168991600    -0.0245296   -0.1177040  
   0.170991500    -0.0260821   -0.1146536  
   0.172991400    -0.0273505   -0.1114068  
   0.174991300    -0.0283728   -0.1079955  
   0.176991200    -0.0291036   -0.1044013  
   0.178991100    -0.0295292   -0.1006958  
   0.180991000    -0.0295988   -0.0969410  
   0.182990900    -0.0293053   -0.0930751  
   0.184990800    -0.0286017   -0.0892593  
   0.186990700    -0.0274813   -0.0854823  
   0.188990600    -0.0242019   -0.0823623  
   0.190990500    -0.0238194   -0.0783719  
   0.192990400    -0.0217520   -0.0750212  
   0.194990300    -0.0190675   -0.0720548  
   0.196990200    -0.0160777   -0.0694355  
   0.198990100    -0.0127688   -0.0672130  
   0.200990000    -0.0092279   -0.0654093  
   0.202989900    -0.0055097   -0.0640554  
   0.204989800    -0.0016569   -0.0632238  
   0.206989700     0.0022574   -0.0629263  
   0.208989600     0.0062338   -0.0631769  
   0.210989500     0.0101312   -0.0639473  
   0.212989400     0.0138843   -0.0652439  
   0.214989300     0.0174417   -0.0670403  
   0.216989200     0.0207167   -0.0693426  
   0.218989100     0.0236513   -0.0720822  
   0.220989000     0.0261880   -0.0752600  
   0.222988900     0.0282593   -0.0787813  
   0.224988800     0.0298166   -0.0826234  
   0.226988700     0.0308197   -0.0866895  
   0.228988600     0.0313384   -0.0908978  
   0.230988500     0.0312587   -0.0952263  
   0.232988400     0.0305650   -0.0994541  
   0.234988300     0.0292912   -0.1037001  
   0.236988200     0.0274355   -0.1077992  
   0.238988100     0.0250354   -0.1116607  
   0.240988000     0.0221867   -0.1152511  
   0.242987900     0.0189198   -0.1184971  
   0.244987800     0.0152418   -0.1213296  
   0.246987700     0.0111276   -0.1236755  
   0.248987600     0.0067570   -0.1256223  
   0.250987500     0.0021507   -0.1269955  
   0.252987400    -0.0025357   -0.1278420  
   0.254987300    -0.0072492   -0.1281974  
   0.256987200    -0.0118994   -0.1280365  
   0.258987100    -0.0164703   -0.1272441  
   0.260987000    -0.0208556   -0.1258539  
   0.262986900    -0.0250136   -0.1240467  
   0.264986800    -0.0288970   -0.1217811  
   0.266986700    -0.0324146   -0.1191346  
   0.268986600    -0.0355040   -0.1161825  
   0.270986500    -0.0380342   -0.1130970  
   0.272986400    -0.0401336   -0.1098371  
   0.274986300    -0.0417932   -0.1065570  
   0.276986200    -0.0429584   -0.1032403  
   0.278986100    -0.0436390   -0.0999494  
   0.280986000    -0.0438351   -0.0967953  
   0.282985900    -0.0436734   -0.0938237  
   0.284985800    -0.0430839   -0.0911761  
   0.286985700    -0.0421406   -0.0888585  
   0.288985600    -0.0408898   -0.0870569  
   0.290985500    -0.0394530   -0.0858061  
   0.292985400    -0.0379158   -0.0850438  
   0.294985300    -0.0363981   -0.0848719  
   0.296985200    -0.0350583   -0.0851701  
   0.298985100    -0.0339798   -0.0859258  
   0.300985000    -0.0332481   -0.0871618  
   0.302984900    -0.0329452   -0.0888878  
   0.304984800    -0.0332206   -0.0910690  
   0.306984700    -0.0340973   -0.0935246  
   0.308984600    -0.0356900   -0.0963072  
   0.310984500    -0.0380510   -0.0990927  
   0.312984400    -0.0413711   -0.1017333  
   0.314984300    -0.0456319   -0.1040263  
   0.316984200    -0.0509261   -0.1057010  
   0.318984100    -0.0573398   -0.1063501  
   0.320984000    -0.0645980   -0.1055788  
   0.322983900    -0.0722344   -0.1030733  
   0.324983800    -0.0797911   -0.0985289  
   0.326983700    -0.0865044   -0.0919768  
   0.328983600    -0.0916009   -0.0838062  
   0.330983500    -0.0944096   -0.0746729  
   0.332983400    -0.0947241   -0.0656621  
   0.334983300    -0.0929844   -0.0575961  
   0.336983200    -0.0898348   -0.0511449  
   0.338983100    -0.0862552   -0.0463330  
   0.340983000    -0.0828057   -0.0429399  
   0.342982900    -0.0799468   -0.0404629  
   0.344982800    -0.0777170   -0.0384446  
   0.346982700    -0.0761839   -0.0363259  
   0.348982600    -0.0748530   -0.0341030  
   0.350982500    -0.0740413   -0.0315937  
   0.352982400    -0.0731945   -0.0288764  
   0.354982300    -0.0725190   -0.0254441  
   0.356982200    -0.0716573   -0.0205973  
   0.358982100    -0.0702984   -0.0157596  
   0.360982000    -0.0682427   -0.0110598  
   0.362981900    -0.0656425   -0.0066088  
   0.364981800    -0.0623875   -0.0024488  
   0.366981700    -0.0585686    0.0012230  
   0.368981600    -0.0542206    0.0044283  
   0.370981500    -0.0495419    0.0069198  
   0.372981400    -0.0446575    0.0086479  
   0.374981300    -0.0396450    0.0096216  
   0.376981200    -0.0384951   -0.0004016  
   0.378981100    -0.0336594    0.0006336  
   0.380981000    -0.0288822    0.0008200  
   0.382980900    -0.0243380   -0.0000929  
   0.384980800    -0.0201123   -0.0017573  
   0.386980700    -0.0162283   -0.0040130  
   0.388980600    -0.0127900   -0.0067792  
   0.390980500    -0.0098232   -0.0100249  
   0.392980400    -0.0073809   -0.0137201  
   0.394980300    -0.0055281   -0.0176970  
   0.396980200    -0.0043408   -0.0218393  
   0.398980100    -0.0038302   -0.0260769  
   0.400980000    -0.0039578   -0.0302527  
   0.402979900    -0.0048040   -0.0343314  
   0.404979800    -0.0062016   -0.0381650  
   0.406979700    -0.0082169   -0.0416790  
   0.408979600    -0.0107446   -0.0447436  
   0.410979500    -0.0137880   -0.0472947  
   0.412979400    -0.0173407   -0.0493505  
   0.414979300    -0.0211721   -0.0506178  
   0.416979200    -0.0252343   -0.0512068  
   0.418979100    -0.0293538   -0.0511007  
   0.420979000    -0.0334526   -0.0502958  
   0.422978900    -0.0374335   -0.0487411  
   0.424978800    -0.0412601   -0.0465256  
   0.426978700    -0.0447131   -0.0436531  
   0.428978600    -0.0477228   -0.0401780  
   0.430978500    -0.0501049   -0.0362048  
   0.432978400    -0.0517648   -0.0317062  
   0.434978300    -0.0527075   -0.0269264  
   0.436978200    -0.0529740   -0.0219934  
   0.438978100    -0.0524435   -0.0169730  
   0.440978000    -0.0511366   -0.0119561  
   0.442977900    -0.0490324   -0.0070810  
   0.444977800    -0.0461423   -0.0024708  
   0.446977700    -0.0425169    0.0017562  
   0.448977600    -0.0381913    0.0055091  
   0.450977500    -0.0332484    0.0086536  
   0.452977400    -0.0278063    0.0111201  
   0.454977300    -0.0219543    0.0128268  
   0.456977200    -0.0158160    0.0136893  
   0.458977100    -0.0095203    0.0136141  
   0.460977000    -0.0031124    0.0125950  
   0.462976900     0.0031668    0.0106380  
   0.464976800     0.0091708    0.0077204  
   0.466976700     0.0147701    0.0038861  
   0.468976600     0.0198574   -0.0008071  
   0.470976500     0.0242670   -0.0062745  
   0.472976400     0.0279161   -0.0124259  
   0.474976300     0.0306849   -0.0191078  
   0.476976200     0.0324873   -0.0262438  
   0.478976100     0.0334283   -0.0337636  
   0.480976000     0.0332884   -0.0412950  
   0.482975900     0.0321650   -0.0487313  
   0.484975800     0.0299576   -0.0560084  
   0.486975700     0.0266911   -0.0629815  
   0.488975600     0.0223779   -0.0696476  
   0.490975500     0.0171605   -0.0756409  
   0.492975400     0.0111885   -0.0807844  
   0.494975300     0.0044206   -0.0851046  
   0.496975200    -0.0030145   -0.0884896  
   0.498975100    -0.0107893   -0.0907463  
   0.500975000    -0.0189187   -0.0919063  
   0.502974900    -0.0271726   -0.0919543  
   0.504974800    -0.0354203   -0.0907626  
   0.506974700    -0.0435225   -0.0883865  
   0.508974600    -0.0515526   -0.0848405  
   0.510974500    -0.0591743   -0.0802558  
   0.512974400    -0.0657895   -0.0745956  
   0.514974300    -0.0714319   -0.0679437  
   0.516974200    -0.0760549   -0.0606412  
   0.518974100    -0.0795030   -0.0527940  
   0.520974000    -0.0816660   -0.0443155  
   0.522973900    -0.0825644   -0.0357380  
   0.524973800    -0.0822456   -0.0272964  
   0.526973700    -0.0806741   -0.0190499  
   0.528973600    -0.0778891   -0.0112473  
   0.530973500    -0.0740531   -0.0039785  
   0.532973400    -0.0692024    0.0025572  
   0.534973300    -0.0634792    0.0082377  
   0.536973200    -0.0570469    0.0129698  
   0.538973100    -0.0499923    0.0166646  
   0.540973000    -0.0425559    0.0192786  
   0.542972900    -0.0349087    0.0207839  
   0.544972800    -0.0271388    0.0211452  
   0.546972700    -0.0194947    0.0203097  
   0.548972600    -0.0121016    0.0183278  
   0.550972500    -0.0050896    0.0152614  
   0.552972400     0.0013302    0.0111124  
   0.554972300     0.0070819    0.0059986  
   0.556972200     0.0119403    0.0000047  
   0.558972100     0.0160206   -0.0067184  
   0.560972000     0.0190010   -0.0139648  
   0.562971900     0.0208339   -0.0216600  
   0.564971800     0.0215074   -0.0296344  
   0.566971700     0.0208976   -0.0375118  
   0.568971600     0.0190788   -0.0452813  
   0.570971500     0.0160700   -0.0527567  
   0.572971400     0.0118819   -0.0597971  
   0.574971300     0.0064248   -0.0662910  
   0.576971200    -0.0000894   -0.0720469  
   0.578971100    -0.0073959   -0.0769905  
   0.580971000    -0.0154104   -0.0808395  
   0.582970900    -0.0239990   -0.0833675  
   0.584970800    -0.0329172   -0.0846207  
   0.586970700    -0.0420300   -0.0845685  
   0.588970600    -0.0513462   -0.0830914  
   0.590970500    -0.0603425   -0.0802833  
   0.592970400    -0.0689775   -0.0761829  
   0.594970300    -0.0771155   -0.0709807  
   0.596970200    -0.0844923   -0.0646164  
   0.598970100    -0.0909716   -0.0571911  
   0.600970000    -0.0964629   -0.0488662  
   0.602969900    -0.1007951   -0.0397512  
   0.604969800    -0.1039394   -0.0300305  
   0.606969700    -0.1057462   -0.0198664  
   0.608969600    -0.1061387   -0.0094309  
   0.610969500    -0.1051074    0.0010531  
   0.612969400    -0.1026250    0.0113299  
   0.614969300    -0.0986912    0.0212179  
   0.616969200    -0.0935242    0.0305005  
   0.618969100    -0.0871661    0.0390408  
   0.620969000    -0.0797524    0.0466680  
   0.622968900    -0.0713096    0.0532355  
   0.624968800    -0.0621082    0.0586128  
   0.626968700    -0.0521891    0.0626357  
   0.628968600    -0.0418454    0.0654595  
   0.630968500    -0.0311290    0.0669536  
   0.632968400    -0.0204824    0.0666981  
   0.634968300    -0.0099135    0.0650883  
   0.636968200     0.0002673    0.0618661  
   0.638968100     0.0099937    0.0572521  
   0.640968000     0.0189793    0.0513769  
   0.642967900     0.0268803    0.0444640  
   0.644967800     0.0336911    0.0365678  
   0.646967700     0.0392578    0.0278513  
   0.648967600     0.0434893    0.0185587  
   0.650967500     0.0462922    0.0088925  
   0.652967400     0.0476548   -0.0009056  
   0.654967300     0.0477094   -0.0109504  
   0.656967200     0.0463219   -0.0206043  
   0.658967100     0.0434505   -0.0299677  
   0.660967000     0.0392684   -0.0387558  
   0.662966900     0.0339387   -0.0468116  
   0.664966800     0.0275380   -0.0539867  
   0.666966700     0.0202195   -0.0601364  
   0.668966600     0.0121247   -0.0650902  
   0.670966500     0.0032017   -0.0688192  
   0.672966400    -0.0057257   -0.0712133  
   0.674966300    -0.0148421   -0.0720663  
   0.676966200    -0.0238851   -0.0715085  
   0.678966100    -0.0326512   -0.0695990  
   0.680966000    -0.0409439   -0.0664046  
   0.682965900    -0.0485861   -0.0620057  
   0.684965800    -0.0554588   -0.0565146  
   0.686965700    -0.0613742   -0.0500991  
   0.688965600    -0.0662176   -0.0428939  
   0.690965500    -0.0699096   -0.0352028  
   0.692965400    -0.0723044   -0.0270673  
   0.694965300    -0.0734507   -0.0186948  
   0.696965200    -0.0732923   -0.0103285  
   0.698965100    -0.0718183   -0.0021316  
   0.700965000    -0.0690227    0.0056672  
   0.702964900    -0.0651665    0.0130255  
   0.704964800    -0.0602085    0.0196937  
   0.706964700    -0.0542870    0.0253495  
   0.708964600    -0.0472907    0.0301090  
   0.710964500    -0.0398435    0.0337732  
   0.712964400    -0.0319794    0.0360610  
   0.714964300    -0.0238122    0.0370473  
   0.716964200    -0.0156845    0.0367847  
   0.718964100    -0.0077798    0.0352801  
   0.720964000    -0.0002931    0.0326372  
   0.722963900     0.0066563    0.0287571  
   0.724963800     0.0131029    0.0238260  
   0.726963700     0.0186304    0.0181897  
   0.728963600     0.0231096    0.0116787  
   0.730963500     0.0263938    0.0043996  
   0.732963400     0.0286594   -0.0031535  
   0.734963300     0.0298104   -0.0110168  
   0.736963200     0.0303308   -0.0201895  
   0.738963100     0.0292664   -0.0291554  
   0.740963000     0.0266662   -0.0377636  
   0.742962900     0.0225811   -0.0458090  
   0.744962800     0.0170951   -0.0528938  
   0.746962700     0.0106605   -0.0587754  
   0.748962600     0.0033916   -0.0634873  
   0.750962500     0.0010747   -0.0613854  
   0.752962400    -0.0063764   -0.0657284  
   0.754962300    -0.0145148   -0.0686698  
   0.756962200    -0.0230933   -0.0700822  
   0.758962100    -0.0318812   -0.0699425  
   0.760962000    -0.0406068   -0.0682074  
   0.762961900    -0.0488227   -0.0652273  
   0.764961800    -0.0562612   -0.0615360  
   0.766961700    -0.0631539   -0.0567942  
   0.768961600    -0.0693196   -0.0511279  
   0.770961500    -0.0746654   -0.0446280  
   0.772961400    -0.0790652   -0.0374278  
   0.774961300    -0.0825215   -0.0296427  
   0.776961200    -0.0848676   -0.0213179  
   0.778961100    -0.0858863   -0.0128413  
   0.780961000    -0.0856888   -0.0044272  
   0.782960900    -0.0841888    0.0038841  
   0.784960800    -0.0813610    0.0119440  
   0.786960700    -0.0773171    0.0194825  
   0.788960600    -0.0722252    0.0263624  
   0.790960500    -0.0660473    0.0326144  
   0.792960400    -0.0591611    0.0376721  
   0.794960300    -0.0515242    0.0416431  
   0.796960200    -0.0435467    0.0444521  
   0.798960100    -0.0352553    0.0459582  
   0.800960000    -0.0267836    0.0461287  
   0.802959900    -0.0184792    0.0450511  
   0.804959800    -0.0105869    0.0427314  
   0.806959700    -0.0033614    0.0392141  
   0.808959600     0.0033916    0.0345881  
   0.810959500     0.0092581    0.0289349  
   0.812959400     0.0142399    0.0224211  
   0.814959300     0.0180713    0.0151643  
   0.816959200     0.0207150    0.0073766  
   0.818959100     0.0222816   -0.0009473  
   0.820959000     0.0223698   -0.0092578  
   0.822958900     0.0211627   -0.0175141  
   0.824958800     0.0186276   -0.0256961  
   0.826958700     0.0148470   -0.0333531  
   0.828958600     0.0098652   -0.0402982  
   0.830958500     0.0037905   -0.0464038  
   0.832958400    -0.0032366   -0.0515294  
   0.834958300    -0.0110470   -0.0555676  
   0.836958200    -0.0195074   -0.0583795  
   0.838958100    -0.0283535   -0.0598958  
   0.840958000    -0.0374262   -0.0600807  
   0.842957900    -0.0464939   -0.0588571  
   0.844957800    -0.0554266   -0.0561656  
   0.846957700    -0.0639515   -0.0521724  
   0.848957600    -0.0717449   -0.0469180  
   0.850957500    -0.0788338   -0.0405506  
   0.852957400    -0.0849803   -0.0330422  
   0.854957300    -0.0899103   -0.0245704  
   0.856957200    -0.0936154   -0.0155688  
   0.858957100    -0.0959726   -0.0060836  
   0.860957000    -0.0969794    0.0036682  
   0.862956900    -0.0966153    0.0134363  
   0.864956800    -0.0950925    0.0229601  
   0.866956700    -0.0922836    0.0321037  
   0.868956600    -0.0881692    0.0406849  
   0.870956500    -0.0829165    0.0486167  
   0.872956400    -0.0765116    0.0558942  
   0.874956300    -0.0692051    0.0621147  
   0.876956200    -0.0609453    0.0672713  
   0.878956100    -0.0520552    0.0711379  
   0.880956000    -0.0425868    0.0737380  
   0.882955900    -0.0329633    0.0749679  
   0.884955800    -0.0232871    0.0747905  
   0.886955700    -0.0136063    0.0732619  
   0.888955600    -0.0044054    0.0703701  
   0.890955500     0.0041225    0.0662369  
   0.892955400     0.0118451    0.0609366  
   0.894955300     0.0185923    0.0546166  
