! MS46122B
! 2250307/22442219
! 7/26/2025 10:18:24 AM
! C:\USERS\SPARKY\DOCUMENTS\VNA_DATA\JULY26_2025\295K\ECAL_SHORT.S1P
! CHANNEL.1
! TR.MEASUREMENT
! RAW.DATA
# GHZ S RI R 50.0
! FREQ.GHZ         S11RE         S11IM         
!; PortSelection: Port_1
   0.001000000     1.0455880   -0.0719759  
   0.002999900     0.9642943   -0.1943642  
   0.004999800     0.9042795   -0.2992785  
   0.006999700     0.8373693   -0.3967193  
   0.008999600     0.7593445   -0.4917028  
   0.010999500     0.6675615   -0.5819051  
   0.012999400     0.5568119   -0.6647774  
   0.014999300     0.4222559   -0.7348273  
   0.016999200     0.2576868   -0.7809495  
   0.018999100     0.0597052   -0.7860501  
   0.020999000    -0.1655784   -0.7223404  
   0.022998900    -0.3902018   -0.5554208  
   0.024998800    -0.5281918   -0.2662250  
   0.026998700    -0.5540723    0.1058263  
   0.028998600    -0.3636449    0.4433240  
   0.030998500    -0.0460438    0.6327327  
   0.032998400     0.2576734    0.6367274  
   0.034998300     0.5424826    0.5589868  
   0.036998200     0.7224781    0.4098067  
   0.038998100     0.8322746    0.2451138  
   0.040998000     0.8892078    0.0845651  
   0.042997900     0.9082801   -0.0640009  
   0.044997800     0.8716514   -0.1750682  
   0.046997700     0.8711992   -0.3159521  
   0.048997600     0.8292448   -0.4206612  
   0.050997500     0.7764024   -0.5120595  
   0.052997400     0.7160262   -0.5910267  
   0.054997300     0.6495904   -0.6601349  
   0.056997200     0.5771241   -0.7201281  
   0.058997100     0.5014637   -0.7702993  
   0.060997000     0.4223412   -0.8117765  
   0.062996900     0.3399575   -0.8451483  
   0.064996800     0.2550716   -0.8697196  
   0.066996700     0.1675296   -0.8853776  
   0.068996600     0.0778744   -0.8925272  
   0.070996500    -0.0130499   -0.8909344  
   0.072996400    -0.1051402   -0.8783938  
   0.074996300    -0.1977714   -0.8552593  
   0.076996200    -0.2897550   -0.8206885  
   0.078996100    -0.3799082   -0.7745097  
   0.080996000    -0.4669464   -0.7155372  
   0.082995900    -0.5489537   -0.6431151  
   0.084995800    -0.6233999   -0.5562185  
   0.086995700    -0.6887097   -0.4565189  
   0.088995600    -0.7416003   -0.3430412  
   0.090995500    -0.7787537   -0.2171239  
   0.092995400    -0.7971522   -0.0802279  
   0.094995300    -0.7912251    0.0644243  
   0.096995200    -0.7585106    0.2131146  
   0.098995100    -0.6962380    0.3591614  
   0.100995000    -0.6029205    0.4974715  
   0.102994900    -0.4805520    0.6162916  
   0.104994800    -0.3323669    0.7100128  
   0.106994700    -0.1643555    0.7708170  
   0.108994600     0.0136726    0.7950229  
   0.110994500     0.1926362    0.7805040  
   0.112994400     0.3629800    0.7283115  
   0.114994300     0.5155352    0.6432894  
   0.116994200     0.6435217    0.5313596  
   0.118994100     0.7434470    0.4006273  
   0.120994000     0.8149285    0.2585140  
   0.122993900     0.8555849    0.1113065  
   0.124993800     0.8682214   -0.0343744  
   0.126993700     0.8565079   -0.1746029  
   0.128993600     0.8217141   -0.3041714  
   0.130993500     0.7706954   -0.4225911  
   0.132993400     0.7046244   -0.5276741  
   0.134993300     0.6272226   -0.6185519  
   0.136993200     0.5400637   -0.6956614  
   0.138993100     0.4462069   -0.7578048  
   0.140993000     0.3474084   -0.8056509  
   0.142992900     0.2453716   -0.8398375  
   0.144992800     0.1419821   -0.8610751  
   0.146992700     0.0375968   -0.8684182  
   0.148992600    -0.0659682   -0.8625821  
   0.150992500    -0.1670602   -0.8429796  
   0.152992400    -0.2650708   -0.8123537  
   0.154992300    -0.3587570   -0.7695352  
   0.156992200    -0.4473553   -0.7153990  
   0.158992100    -0.5291702   -0.6502501  
   0.160992000    -0.6031570   -0.5741682  
   0.162991900    -0.6677797   -0.4881027  
   0.164991800    -0.7217481   -0.3921513  
   0.166991700    -0.7633408   -0.2880211  
   0.168991600    -0.7909159   -0.1769576  
   0.170991500    -0.8033848   -0.0597438  
   0.172991400    -0.7986732    0.0606241  
   0.174991300    -0.7760600    0.1822241  
   0.176991200    -0.7338935    0.3027068  
   0.178991100    -0.6721838    0.4181976  
   0.180991000    -0.5916296    0.5256281  
   0.182990900    -0.4915768    0.6199231  
   0.184990800    -0.3740468    0.6984648  
   0.186990700    -0.2422773    0.7569766  
   0.188990600    -0.1233914    0.7882288  
   0.190990500     0.0435348    0.8007815  
   0.192990400     0.1954141    0.7835894  
   0.194990300     0.3392240    0.7400456  
   0.196990200     0.4721991    0.6716661  
   0.198990100     0.5901995    0.5810814  
   0.200990000     0.6897730    0.4713593  
   0.202989900     0.7676207    0.3473150  
   0.204989800     0.8220459    0.2135842  
   0.206989700     0.8529207    0.0758026  
   0.208989600     0.8589528   -0.0619627  
   0.210989500     0.8428545   -0.1964869  
   0.212989400     0.8060247   -0.3238323  
   0.214989300     0.7510573   -0.4409172  
   0.216989200     0.6807676   -0.5452914  
   0.218989100     0.5979846   -0.6358179  
   0.220989000     0.5046339   -0.7117840  
   0.222988900     0.4032624   -0.7724310  
   0.224988800     0.2960688   -0.8174896  
   0.226988700     0.1859381   -0.8468413  
   0.228988600     0.0752777   -0.8605368  
   0.230988500    -0.0353096   -0.8590780  
   0.232988400    -0.1437562   -0.8421706  
   0.234988300    -0.2487544   -0.8122269  
   0.236988200    -0.3487081   -0.7688906  
   0.238988100    -0.4420263   -0.7124132  
   0.240988000    -0.5267718   -0.6447321  
   0.242987900    -0.6018621   -0.5661532  
   0.244987800    -0.6663055   -0.4773694  
   0.246987700    -0.7189363   -0.3794702  
   0.248987600    -0.7580031   -0.2733786  
   0.250987500    -0.7826041   -0.1611907  
   0.252987400    -0.7908712   -0.0452289  
   0.254987300    -0.7821355    0.0724966  
   0.256987200    -0.7557940    0.1895670  
   0.258987100    -0.7122501    0.3044423  
   0.260987000    -0.6488743    0.4129946  
   0.262986900    -0.5669355    0.5128502  
   0.264986800    -0.4680994    0.6002320  
   0.266986700    -0.3538746    0.6711287  
   0.268986600    -0.2272692    0.7224594  
   0.270986500    -0.0920632    0.7514985  
   0.272986400     0.0480248    0.7567443  
   0.274986300     0.1882406    0.7370230  
   0.276986200     0.3237945    0.6922702  
   0.278986100     0.4497265    0.6233857  
   0.280986000     0.5613460    0.5328253  
   0.282985900     0.6548316    0.4238704  
   0.284985800     0.7260494    0.3010635  
   0.286985700     0.7739351    0.1692691  
   0.288985600     0.7975142    0.0337534  
   0.290985500     0.7973224   -0.1009621  
   0.292985400     0.7746626   -0.2307446  
   0.294985300     0.7322057   -0.3522219  
   0.296985200     0.6718705   -0.4633139  
   0.298985100     0.5958423   -0.5615098  
   0.300985000     0.5077557   -0.6446407  
   0.302984900     0.4107904   -0.7117102  
   0.304984800     0.3071140   -0.7622854  
   0.306984700     0.2005655   -0.7965224  
   0.308984600     0.0934668   -0.8147696  
   0.310984500    -0.0125075   -0.8185007  
   0.312984400    -0.1154877   -0.8080981  
   0.314984300    -0.2145395   -0.7850701  
   0.316984200    -0.3083605   -0.7501118  
   0.318984100    -0.3965458   -0.7040071  
   0.320984000    -0.4781126   -0.6482863  
   0.322983900    -0.5521406   -0.5833602  
   0.324983800    -0.6182738   -0.5104043  
   0.326983700    -0.6755674   -0.4302001  
   0.328983600    -0.7244590   -0.3425235  
   0.330983500    -0.7629166   -0.2476534  
   0.332983400    -0.7896613   -0.1459699  
   0.334983300    -0.8020253   -0.0386425  
   0.336983200    -0.7981731    0.0718102  
   0.338983100    -0.7770755    0.1822308  
   0.340983000    -0.7391257    0.2889384  
   0.342982900    -0.6848773    0.3900317  
   0.344982800    -0.6159307    0.4824820  
   0.346982700    -0.5326868    0.5651824  
   0.348982600    -0.4369784    0.6344889  
   0.350982500    -0.3314016    0.6900654  
   0.352982400    -0.2177452    0.7297693  
   0.354982300    -0.0928626    0.7524349  
   0.356982200     0.0480611    0.7537592  
   0.358982100     0.1877869    0.7294358  
   0.360982000     0.3209343    0.6802402  
   0.362981900     0.4438002    0.6075299  
   0.364981800     0.5522615    0.5131333  
   0.366981700     0.6419455    0.3994813  
   0.368981600     0.7094015    0.2706137  
   0.370981500     0.7520397    0.1309266  
   0.372981400     0.7677361   -0.0144946  
   0.374981300     0.7557108   -0.1610819  
   0.376981200     0.7698339   -0.0576041  
   0.378981100     0.7493160   -0.2025206  
   0.380981000     0.7024514   -0.3400763  
   0.382980900     0.6382043   -0.4554318  
   0.384980800     0.5598928   -0.5530344  
   0.386980700     0.4681173   -0.6361057  
   0.388980600     0.3650866   -0.7027884  
   0.390980500     0.2551780   -0.7515665  
   0.392980400     0.1405944   -0.7822984  
   0.394980300     0.0249719   -0.7951691  
   0.396980200    -0.0902875   -0.7910261  
   0.398980100    -0.2019652   -0.7703587  
   0.400980000    -0.3082482   -0.7336297  
   0.402979900    -0.4078194   -0.6821842  
   0.404979800    -0.4974124   -0.6182223  
   0.406979700    -0.5768874   -0.5423695  
   0.408979600    -0.6446053   -0.4570810  
   0.410979500    -0.6997299   -0.3624379  
   0.412979400    -0.7412645   -0.2607113  
   0.414979300    -0.7669221   -0.1536826  
   0.416979200    -0.7786309   -0.0441263  
   0.418979100    -0.7749806    0.0659889  
   0.420979000    -0.7555478    0.1750047  
   0.422978900    -0.7204837    0.2814950  
   0.424978800    -0.6700042    0.3824790  
   0.426978700    -0.6050741    0.4764362  
   0.428978600    -0.5262889    0.5604939  
   0.430978500    -0.4355384    0.6324884  
   0.432978400    -0.3342378    0.6906399  
   0.434978300    -0.2249897    0.7345901  
   0.436978200    -0.1087096    0.7610152  
   0.438978100     0.0116020    0.7691720  
   0.440978000     0.1329330    0.7589955  
   0.442977900     0.2523890    0.7297884  
   0.444977800     0.3664130    0.6819746  
   0.446977700     0.4723214    0.6162234  
   0.448977600     0.5668276    0.5341006  
   0.450977500     0.6473768    0.4375133  
   0.452977400     0.7118254    0.3289085  
   0.454977300     0.7580611    0.2104779  
   0.456977200     0.7846505    0.0860403  
   0.458977100     0.7905158   -0.0411208  
   0.460977000     0.7760141   -0.1667274  
   0.462976900     0.7416823   -0.2872729  
   0.464976800     0.6888995   -0.4001471  
   0.466976700     0.6200315   -0.5022955  
   0.468976600     0.5366179   -0.5915269  
   0.470976500     0.4411322   -0.6661281  
   0.472976400     0.3368856   -0.7240567  
   0.474976300     0.2260320   -0.7651630  
   0.476976200     0.1119629   -0.7887578  
   0.478976100    -0.0024376   -0.7952192  
   0.480976000    -0.1150420   -0.7849359  
   0.482975900    -0.2230379   -0.7588108  
   0.484975800    -0.3253003   -0.7183133  
   0.486975700    -0.4203953   -0.6638299  
   0.488975600    -0.5062051   -0.5971316  
   0.490975500    -0.5817630   -0.5195350  
   0.492975400    -0.6455886   -0.4318714  
   0.494975300    -0.6965886   -0.3363121  
   0.496975200    -0.7338519   -0.2341708  
   0.498975100    -0.7560722   -0.1280272  
   0.500975000    -0.7632380   -0.0190831  
   0.502974900    -0.7543629    0.0900398  
   0.504974800    -0.7295833    0.1980551  
   0.506974700    -0.6886851    0.3023445  
   0.508974600    -0.6318200    0.4005725  
   0.510974500    -0.5593829    0.4896720  
   0.512974400    -0.4736264    0.5665968  
   0.514974300    -0.3759972    0.6281955  
   0.516974200    -0.2703045    0.6740434  
   0.518974100    -0.1587525    0.7019383  
   0.520974000    -0.0448030    0.7117033  
   0.522973900     0.0681941    0.7031420  
   0.524973800     0.1773669    0.6773603  
   0.526973700     0.2798046    0.6354563  
   0.528973600     0.3738825    0.5794808  
   0.530973500     0.4577571    0.5109577  
   0.532973400     0.5303389    0.4321434  
   0.534973300     0.5904019    0.3442422  
   0.536973200     0.6377476    0.2489264  
   0.538973100     0.6705304    0.1484196  
   0.540973000     0.6893814    0.0447613  
   0.542972900     0.6931165   -0.0613323  
   0.544972800     0.6811155   -0.1666990  
   0.546972700     0.6539040   -0.2708569  
   0.548972600     0.6112734   -0.3701823  
   0.550972500     0.5541471   -0.4626620  
   0.552972400     0.4828876   -0.5462436  
   0.554972300     0.3994645   -0.6179817  
   0.556972200     0.3056595   -0.6769367  
   0.558972100     0.2037736   -0.7208043  
   0.560972000     0.0970324   -0.7487513  
   0.562971900    -0.0129625   -0.7601714  
   0.564971800    -0.1226554   -0.7543090  
   0.566971700    -0.2301768   -0.7328387  
   0.568971600    -0.3329509   -0.6956617  
   0.570971500    -0.4288070   -0.6439285  
   0.572971400    -0.5160429   -0.5787407  
   0.574971300    -0.5930581   -0.5011817  
   0.576971200    -0.6579697   -0.4131106  
   0.578971100    -0.7095922   -0.3164027  
   0.580971000    -0.7464453   -0.2135001  
   0.582970900    -0.7678941   -0.1063717  
   0.584970800    -0.7737144    0.0024706  
   0.586970700    -0.7637506    0.1109880  
   0.588970600    -0.7385267    0.2169441  
   0.590970500    -0.6981974    0.3186549  
   0.592970400    -0.6432729    0.4138369  
   0.594970300    -0.5749801    0.5004732  
   0.596970200    -0.4943092    0.5768363  
   0.598970100    -0.4028628    0.6410215  
   0.600970000    -0.3019066    0.6914485  
   0.602969900    -0.1939966    0.7264571  
   0.604969800    -0.0804159    0.7455915  
   0.606969700     0.0354533    0.7469012  
   0.608969600     0.1515731    0.7301079  
   0.610969500     0.2644987    0.6953239  
   0.612969400     0.3712603    0.6428831  
   0.614969300     0.4694541    0.5739858  
   0.616969200     0.5551097    0.4902280  
   0.618969100     0.6267171    0.3938128  
   0.620969000     0.6820441    0.2872997  
   0.622968900     0.7197914    0.1731701  
   0.624968800     0.7387934    0.0536318  
   0.626968700     0.7380038   -0.0673809  
   0.628968600     0.7181771   -0.1868950  
   0.630968500     0.6791319   -0.3012635  
   0.632968400     0.6224844   -0.4077207  
   0.634968300     0.5495993   -0.5029964  
   0.636968200     0.4629771   -0.5851108  
   0.638968100     0.3653194   -0.6511847  
   0.640968000     0.2587473   -0.7013407  
   0.642967900     0.1471199   -0.7338584  
   0.644967800     0.0326952   -0.7479209  
   0.646967700    -0.0811659   -0.7444862  
   0.648967600    -0.1919346   -0.7238216  
   0.650967500    -0.2965540   -0.6871992  
   0.652967400    -0.3938764   -0.6359397  
   0.654967300    -0.4815975   -0.5714117  
   0.656967200    -0.5582209   -0.4955846  
   0.658967100    -0.6227098   -0.4097885  
   0.660967000    -0.6740362   -0.3158483  
   0.662966900    -0.7110657   -0.2157207  
   0.664966800    -0.7332794   -0.1110010  
   0.666966700    -0.7401730   -0.0041804  
   0.668966600    -0.7315900    0.1026159  
   0.670966500    -0.7074290    0.2071854  
   0.672966400    -0.6690898    0.3080322  
   0.674966300    -0.6156932    0.4016922  
   0.676966200    -0.5487195    0.4870290  
   0.678966100    -0.4702580    0.5614747  
   0.680966000    -0.3807172    0.6242412  
   0.682965900    -0.2820746    0.6733785  
   0.684965800    -0.1768221    0.7075151  
   0.686965700    -0.0662080    0.7252745  
   0.688965600     0.0466932    0.7262525  
   0.690965500     0.1588110    0.7085789  
   0.692965400     0.2680716    0.6746805  
   0.694965300     0.3711315    0.6238938  
   0.696965200     0.4654803    0.5569623  
   0.698965100     0.5488858    0.4754472  
   0.700965000     0.6181055    0.3811545  
   0.702964900     0.6720074    0.2767548  
   0.704964800     0.7084654    0.1646180  
   0.706964700     0.7261661    0.0481471  
   0.708964600     0.7250245   -0.0701445  
   0.710964500     0.7057378   -0.1863126  
   0.712964400     0.6674810   -0.2966009  
   0.714964300     0.6121143   -0.3994132  
   0.716964200     0.5423355   -0.4899873  
   0.718964100     0.4603199   -0.5678985  
   0.720964000     0.3683978   -0.6308778  
   0.722963900     0.2695935   -0.6787419  
   0.724963800     0.1663014   -0.7108633  
   0.726963700     0.0603448   -0.7275248  
   0.728963600    -0.0454155   -0.7285002  
   0.730963500    -0.1491300   -0.7135836  
   0.732963400    -0.2488083   -0.6851892  
   0.734963300    -0.3430411   -0.6432323  
   0.736963200    -0.4422633   -0.5787107  
   0.738963100    -0.5295784   -0.4990296  
   0.740963000    -0.6026154   -0.4059797  
   0.742962900    -0.6594529   -0.3024868  
   0.744962800    -0.6984481   -0.1906949  
   0.746962700    -0.7186097   -0.0737975  
   0.748962600    -0.7189634    0.0459873  
   0.750962500    -0.7319284   -0.0649908  
   0.752962400    -0.7302936    0.0560070  
   0.754962300    -0.7082465    0.1753138  
   0.756962200    -0.6660042    0.2900186  
   0.758962100    -0.6047125    0.3957517  
   0.760962000    -0.5254549    0.4902578  
   0.762961900    -0.4360091    0.5663288  
   0.764961800    -0.3448251    0.6220931  
   0.766961700    -0.2463726    0.6631009  
   0.768961600    -0.1422226    0.6887935  
   0.770961500    -0.0356723    0.6983794  
   0.772961400     0.0709323    0.6917579  
   0.774961300     0.1751280    0.6692867  
   0.776961200     0.2753668    0.6310822  
   0.778961100     0.3683121    0.5783991  
   0.780961000     0.4531085    0.5118058  
   0.782960900     0.5270315    0.4329942  
   0.784960800     0.5888494    0.3434043  
   0.786960700     0.6362924    0.2451209  
   0.788960600     0.6681931    0.1401370  
   0.790960500     0.6837853    0.0315281  
   0.792960400     0.6822895   -0.0782398  
   0.794960300     0.6640088   -0.1864546  
   0.796960200     0.6293600   -0.2906542  
   0.798960100     0.5790246   -0.3879878  
   0.800960000     0.5143185   -0.4763154  
   0.802959900     0.4368595   -0.5537208  
   0.804959800     0.3487442   -0.6182925  
   0.806959700     0.2519322   -0.6685037  
   0.808959600     0.1489345   -0.7032399  
   0.810959500     0.0417308   -0.7220275  
   0.812959400    -0.0666445   -0.7241958  
   0.814959300    -0.1740545   -0.7100022  
   0.816959200    -0.2775235   -0.6799794  
   0.818959100    -0.3752213   -0.6347976  
   0.820959000    -0.4646999   -0.5757194  
   0.822958900    -0.5440198   -0.5042589  
   0.824958800    -0.6117309   -0.4219823  
   0.826958700    -0.6664556   -0.3309751  
   0.828958600    -0.7072691   -0.2330157  
   0.830958500    -0.7328386   -0.1304098  
   0.832958400    -0.7434142   -0.0258229  
   0.834958300    -0.7385203    0.0793190  
   0.836958200    -0.7188690    0.1822462  
   0.838958100    -0.6844230    0.2810307  
   0.840958000    -0.6354932    0.3739641  
   0.842957900    -0.5739352    0.4590719  
   0.844957800    -0.5003154    0.5350867  
   0.846957700    -0.4162190    0.5996279  
   0.848957600    -0.3232886    0.6512119  
   0.850957500    -0.2232426    0.6893151  
   0.852957400    -0.1177997    0.7119639  
   0.854957300    -0.0096680    0.7189322  
   0.856957200     0.0989280    0.7092567  
   0.858957100     0.2053617    0.6833576  
   0.860957000     0.3064820    0.6416261  
   0.862956900     0.4003371    0.5845852  
   0.864956800     0.4845999    0.5139068  
   0.866956700     0.5571392    0.4310008  
   0.868956600     0.6158523    0.3370290  
   0.870956500     0.6599717    0.2349661  
   0.872956400     0.6881096    0.1264280  
   0.874956300     0.6989066    0.0144068  
   0.876956200     0.6916236   -0.0988798  
   0.878956100     0.6664150   -0.2097333  
   0.880956000     0.6235473   -0.3154843  
   0.882955900     0.5642402   -0.4129429  
   0.884955800     0.4903362   -0.4995814  
   0.886955700     0.4033903   -0.5728800  
   0.888955600     0.3063886   -0.6309922  
   0.890955500     0.2017675   -0.6728959  
   0.892955400     0.0926376   -0.6971341  
   0.894955300    -0.0180304   -0.7039872  
