! MS46122B
! 2250307/22442219
! 7/26/2025 10:20:40 AM
! C:\USERS\SPARKY\DOCUMENTS\VNA_DATA\JULY26_2025\295K\ECAL_LOAD_E.S1P
! CHANNEL.1
! TR.MEASUREMENT
! RAW.DATA
# GHZ S RI R 50.0
! FREQ.GHZ         S11RE         S11IM         
!; PortSelection: Port_1
   0.001000000     1.0453860   -0.0725673  
   0.002999900     0.9524256   -0.1947263  
   0.004999800     0.8769481   -0.2787625  
   0.006999700     0.7920374   -0.3679796  
   0.008999600     0.7004865   -0.4062394  
   0.010999500     0.6236512   -0.4315712  
   0.012999400     0.5572618   -0.4459858  
   0.014999300     0.5006472   -0.4527668  
   0.016999200     0.4517127   -0.4537334  
   0.018999100     0.4108222   -0.4503990  
   0.020999000     0.3769045   -0.4446123  
   0.022998900     0.3479837   -0.4375734  
   0.024998800     0.3179404   -0.4085930  
   0.026998700     0.3015426   -0.4214220  
   0.028998600     0.2823697   -0.4128823  
   0.030998500     0.2648965   -0.4044135  
   0.032998400     0.2450941   -0.3784177  
   0.034998300     0.2330745   -0.3879816  
   0.036998200     0.2186675   -0.3799886  
   0.038998100     0.2050722   -0.3724452  
   0.040998000     0.1919494   -0.3651766  
   0.042997900     0.1793695   -0.3580764  
   0.044997800     0.1659467   -0.3368061  
   0.046997700     0.1545148   -0.3447431  
   0.048997600     0.1431415   -0.3381712  
   0.050997500     0.1322485   -0.3316317  
   0.052997400     0.1220360   -0.3250819  
   0.054997300     0.1120134   -0.3186855  
   0.056997200     0.1024449   -0.3126146  
   0.058997100     0.0935721   -0.3064563  
   0.060997000     0.0850246   -0.3004916  
   0.062996900     0.0771191   -0.2945779  
   0.064996800     0.0698064   -0.2887245  
   0.066996700     0.0629431   -0.2828579  
   0.068996600     0.0565695   -0.2770559  
   0.070996500     0.0506614   -0.2715026  
   0.072996400     0.0450926   -0.2656710  
   0.074996300     0.0399836   -0.2598933  
   0.076996200     0.0352496   -0.2540603  
   0.078996100     0.0308273   -0.2482195  
   0.080996000     0.0266820   -0.2424853  
   0.082995900     0.0227703   -0.2367267  
   0.084995800     0.0190563   -0.2306882  
   0.086995700     0.0158616   -0.2250083  
   0.088995600     0.0129756   -0.2194105  
   0.090995500     0.0103358   -0.2139143  
   0.092995400     0.0080815   -0.2086899  
   0.094995300     0.0060357   -0.2033753  
   0.096995200     0.0042204   -0.1981640  
   0.098995100     0.0026028   -0.1930797  
   0.100995000     0.0001575   -0.1891087  
   0.102994900    -0.0010041   -0.1844750  
   0.104994800    -0.0018034   -0.1800601  
   0.106994700    -0.0023899   -0.1757311  
   0.108994600    -0.0027908   -0.1717625  
   0.110994500    -0.0030213   -0.1680561  
   0.112994400    -0.0031103   -0.1645916  
   0.114994300    -0.0030864   -0.1613836  
   0.116994200    -0.0029290   -0.1584134  
   0.118994100    -0.0027382   -0.1557022  
   0.120994000    -0.0023436   -0.1531989  
   0.122993900    -0.0021750   -0.1508768  
   0.124993800    -0.0019162   -0.1488825  
   0.126993700    -0.0017224   -0.1470705  
   0.128993600    -0.0016421   -0.1454701  
   0.130993500    -0.0016094   -0.1440999  
   0.132993400    -0.0016963   -0.1429087  
   0.134993300    -0.0019214   -0.1418614  
   0.136993200    -0.0022921   -0.1409220  
   0.138993100    -0.0028556   -0.1400548  
   0.140993000    -0.0035655   -0.1392609  
   0.142992900    -0.0045058   -0.1384544  
   0.144992800    -0.0055679   -0.1377852  
   0.146992700    -0.0068524   -0.1369813  
   0.148992600    -0.0082741   -0.1361059  
   0.150992500    -0.0098096   -0.1350045  
   0.152992400    -0.0115493   -0.1338963  
   0.154992300    -0.0133573   -0.1326181  
   0.156992200    -0.0152633   -0.1311516  
   0.158992100    -0.0172348   -0.1294815  
   0.160992000    -0.0192117   -0.1275837  
   0.162991900    -0.0211569   -0.1254534  
   0.164991800    -0.0230758   -0.1230904  
   0.166991700    -0.0248581   -0.1204860  
   0.168991600    -0.0265565   -0.1176228  
   0.170991500    -0.0280892   -0.1145266  
   0.172991400    -0.0293448   -0.1112570  
   0.174991300    -0.0303292   -0.1078102  
   0.176991200    -0.0310296   -0.1041769  
   0.178991100    -0.0314361   -0.1004544  
   0.180991000    -0.0314545   -0.0966721  
   0.182990900    -0.0311304   -0.0927858  
   0.184990800    -0.0303600   -0.0889471  
   0.186990700    -0.0292235   -0.0851665  
   0.188990600    -0.0259054   -0.0820960  
   0.190990500    -0.0254735   -0.0780556  
   0.192990400    -0.0233668   -0.0747118  
   0.194990300    -0.0206640   -0.0717668  
   0.196990200    -0.0176364   -0.0691761  
   0.198990100    -0.0143076   -0.0669695  
   0.200990000    -0.0107549   -0.0651900  
   0.202989900    -0.0070173   -0.0638659  
   0.204989800    -0.0031539   -0.0630617  
   0.206989700     0.0007609   -0.0627931  
   0.208989600     0.0047148   -0.0630580  
   0.210989500     0.0085919   -0.0638500  
   0.212989400     0.0123548   -0.0651795  
   0.214989300     0.0158734   -0.0670057  
   0.216989200     0.0191352   -0.0693137  
   0.218989100     0.0220523   -0.0720558  
   0.220989000     0.0245709   -0.0752371  
   0.222988900     0.0266076   -0.0787688  
   0.224988800     0.0281203   -0.0826189  
   0.226988700     0.0291380   -0.0866603  
   0.228988600     0.0296181   -0.0908697  
   0.230988500     0.0294902   -0.0951715  
   0.232988400     0.0287843   -0.0993803  
   0.234988300     0.0275090   -0.1035917  
   0.236988200     0.0256158   -0.1076545  
   0.238988100     0.0232335   -0.1115039  
   0.240988000     0.0203518   -0.1150585  
   0.242987900     0.0170635   -0.1182753  
   0.244987800     0.0133598   -0.1210549  
   0.246987700     0.0092671   -0.1233930  
   0.248987600     0.0049157   -0.1252930  
   0.250987500     0.0003254   -0.1266344  
   0.252987400    -0.0043504   -0.1274446  
   0.254987300    -0.0090440   -0.1277886  
   0.256987200    -0.0136784   -0.1275979  
   0.258987100    -0.0182491   -0.1267456  
   0.260987000    -0.0225762   -0.1254023  
   0.262986900    -0.0267197   -0.1235653  
   0.264986800    -0.0305622   -0.1212911  
   0.266986700    -0.0340797   -0.1186346  
   0.268986600    -0.0371220   -0.1156917  
   0.270986500    -0.0396657   -0.1125888  
   0.272986400    -0.0417787   -0.1093803  
   0.274986300    -0.0433955   -0.1060921  
   0.276986200    -0.0445468   -0.1028033  
   0.278986100    -0.0452006   -0.0995005  
   0.280986000    -0.0453824   -0.0963670  
   0.282985900    -0.0451879   -0.0934183  
   0.284985800    -0.0446130   -0.0907910  
   0.286985700    -0.0436794   -0.0884529  
   0.288985600    -0.0424556   -0.0867100  
   0.290985500    -0.0410055   -0.0854431  
   0.292985400    -0.0394828   -0.0847250  
   0.294985300    -0.0379905   -0.0845613  
   0.296985200    -0.0366654   -0.0848760  
   0.298985100    -0.0356130   -0.0856331  
   0.300985000    -0.0349216   -0.0868728  
   0.302984900    -0.0346417   -0.0885898  
   0.304984800    -0.0349484   -0.0907844  
   0.306984700    -0.0358583   -0.0932235  
   0.308984600    -0.0374550   -0.0960089  
   0.310984500    -0.0398473   -0.0987857  
   0.312984400    -0.0431945   -0.1014191  
   0.314984300    -0.0474889   -0.1037057  
   0.316984200    -0.0528851   -0.1053883  
   0.318984100    -0.0593051   -0.1060270  
   0.320984000    -0.0665229   -0.1052303  
   0.322983900    -0.0741905   -0.1027215  
   0.324983800    -0.0818143   -0.0981690  
   0.326983700    -0.0885905   -0.0915842  
   0.328983600    -0.0937731   -0.0833539  
   0.330983500    -0.0966715   -0.0741344  
   0.332983400    -0.0969948   -0.0650105  
   0.334983300    -0.0952505   -0.0568169  
   0.336983200    -0.0920848   -0.0502291  
   0.338983100    -0.0884122   -0.0453229  
   0.340983000    -0.0849003   -0.0418580  
   0.342982900    -0.0819278   -0.0393561  
   0.344982800    -0.0796479   -0.0372872  
   0.346982700    -0.0780345   -0.0351842  
   0.348982600    -0.0766616   -0.0329383  
   0.350982500    -0.0757894   -0.0304449  
   0.352982400    -0.0749365   -0.0277503  
   0.354982300    -0.0741474   -0.0243509  
   0.356982200    -0.0732180   -0.0194652  
   0.358982100    -0.0718077   -0.0146374  
   0.360982000    -0.0697288   -0.0099353  
   0.362981900    -0.0670767   -0.0054934  
   0.364981800    -0.0637836   -0.0013382  
   0.366981700    -0.0599564    0.0023286  
   0.368981600    -0.0555606    0.0054982  
   0.370981500    -0.0508558    0.0080116  
   0.372981400    -0.0459764    0.0097280  
   0.374981300    -0.0409462    0.0107183  
   0.376981200    -0.0400804    0.0002189  
   0.378981100    -0.0352698    0.0012848  
   0.380981000    -0.0305109    0.0014795  
   0.382980900    -0.0259981    0.0005802  
   0.384980800    -0.0218165   -0.0011110  
   0.386980700    -0.0179677   -0.0033550  
   0.388980600    -0.0145588   -0.0061026  
   0.390980500    -0.0116288   -0.0093522  
   0.392980400    -0.0092549   -0.0130056  
   0.394980300    -0.0074414   -0.0169591  
   0.396980200    -0.0062933   -0.0210764  
   0.398980100    -0.0058098   -0.0252727  
   0.400980000    -0.0059700   -0.0294310  
   0.402979900    -0.0068315   -0.0334441  
   0.404979800    -0.0082667   -0.0372302  
   0.406979700    -0.0102989   -0.0406900  
   0.408979600    -0.0128183   -0.0437087  
   0.410979500    -0.0158792   -0.0462167  
   0.412979400    -0.0194258   -0.0482216  
   0.414979300    -0.0232295   -0.0494190  
   0.416979200    -0.0272780   -0.0499731  
   0.418979100    -0.0313651   -0.0498212  
   0.420979000    -0.0354203   -0.0489656  
   0.422978900    -0.0393718   -0.0473978  
   0.424978800    -0.0431462   -0.0451489  
   0.426978700    -0.0465929   -0.0422529  
   0.428978600    -0.0495666   -0.0387569  
   0.430978500    -0.0518670   -0.0346870  
   0.432978400    -0.0535133   -0.0301768  
   0.434978300    -0.0543892   -0.0254377  
   0.436978200    -0.0545832   -0.0205213  
   0.438978100    -0.0540442   -0.0154858  
   0.440978000    -0.0526757   -0.0104875  
   0.442977900    -0.0505423   -0.0056187  
   0.444977800    -0.0476024   -0.0010295  
   0.446977700    -0.0439442    0.0031906  
   0.448977600    -0.0395887    0.0069088  
   0.450977500    -0.0346129    0.0099968  
   0.452977400    -0.0291304    0.0124345  
   0.454977300    -0.0232811    0.0141097  
   0.456977200    -0.0171108    0.0149160  
   0.458977100    -0.0107878    0.0148306  
   0.460977000    -0.0044061    0.0137717  
   0.462976900     0.0018834    0.0117736  
   0.464976800     0.0078878    0.0088172  
   0.466976700     0.0134749    0.0049364  
   0.468976600     0.0185387    0.0002323  
   0.470976500     0.0229332   -0.0052530  
   0.472976400     0.0265490   -0.0114282  
   0.474976300     0.0293078   -0.0181375  
   0.476976200     0.0311014   -0.0252704  
   0.478976100     0.0319532   -0.0327632  
   0.480976000     0.0318273   -0.0403804  
   0.482975900     0.0306586   -0.0477892  
   0.484975800     0.0284351   -0.0550589  
   0.486975700     0.0251403   -0.0620465  
   0.488975600     0.0208285   -0.0686836  
   0.490975500     0.0155624   -0.0746713  
   0.492975400     0.0095829   -0.0798239  
   0.494975300     0.0027948   -0.0841235  
   0.496975200    -0.0046388   -0.0874833  
   0.498975100    -0.0124270   -0.0897382  
   0.500975000    -0.0205874   -0.0909154  
   0.502974900    -0.0288219   -0.0908918  
   0.504974800    -0.0371020   -0.0897104  
   0.506974700    -0.0452111   -0.0873254  
   0.508974600    -0.0532654   -0.0837562  
   0.510974500    -0.0608534   -0.0791658  
   0.512974400    -0.0674740   -0.0735130  
   0.514974300    -0.0730809   -0.0668247  
   0.516974200    -0.0777230   -0.0595044  
   0.518974100    -0.0811738   -0.0516450  
   0.520974000    -0.0833445   -0.0431054  
   0.522973900    -0.0842122   -0.0345544  
   0.524973800    -0.0838539   -0.0261250  
   0.526973700    -0.0822929   -0.0178667  
   0.528973600    -0.0795182   -0.0100437  
   0.530973500    -0.0756508   -0.0027714  
   0.532973400    -0.0707715    0.0037614  
   0.534973300    -0.0650541    0.0094423  
   0.536973200    -0.0585964    0.0141723  
   0.538973100    -0.0515415    0.0178628  
   0.540973000    -0.0440930    0.0204655  
   0.542972900    -0.0364354    0.0219538  
   0.544972800    -0.0286712    0.0222947  
   0.546972700    -0.0210467    0.0214403  
   0.548972600    -0.0136550    0.0194381  
   0.550972500    -0.0066337    0.0163684  
   0.552972400    -0.0002331    0.0122045  
   0.554972300     0.0054843    0.0071072  
   0.556972200     0.0103519    0.0010905  
   0.558972100     0.0143711   -0.0056221  
   0.560972000     0.0173566   -0.0128752  
   0.562971900     0.0190982   -0.0205031  
   0.564971800     0.0197926   -0.0285076  
   0.566971700     0.0191875   -0.0363820  
   0.568971600     0.0173670   -0.0441445  
   0.570971500     0.0143322   -0.0515970  
   0.572971400     0.0101211   -0.0586181  
   0.574971300     0.0046328   -0.0650605  
   0.576971200    -0.0018523   -0.0707976  
   0.578971100    -0.0091553   -0.0756861  
   0.580971000    -0.0171732   -0.0795071  
   0.582970900    -0.0257590   -0.0820368  
   0.584970800    -0.0346576   -0.0832754  
   0.586970700    -0.0438446   -0.0831487  
   0.588970600    -0.0530764   -0.0816683  
   0.590970500    -0.0620630   -0.0788327  
   0.592970400    -0.0706988   -0.0747422  
   0.594970300    -0.0788062   -0.0694976  
   0.596970200    -0.0861491   -0.0631247  
   0.598970100    -0.0926247   -0.0556887  
   0.600970000    -0.0981011   -0.0473324  
   0.602969900    -0.1024342   -0.0382018  
   0.604969800    -0.1055349   -0.0284618  
   0.606969700    -0.1073251   -0.0182856  
   0.608969600    -0.1077142   -0.0078413  
   0.610969500    -0.1066429    0.0026513  
   0.612969400    -0.1041251    0.0129637  
   0.614969300    -0.1001880    0.0228459  
   0.616969200    -0.0949788    0.0321444  
   0.618969100    -0.0885966    0.0406775  
   0.620969000    -0.0811406    0.0483131  
   0.622968900    -0.0727220    0.0548769  
   0.624968800    -0.0634619    0.0602498  
   0.626968700    -0.0535069    0.0642840  
   0.628968600    -0.0431625    0.0670866  
   0.630968500    -0.0324050    0.0686172  
   0.632968400    -0.0217425    0.0682989  
   0.634968300    -0.0111719    0.0667028  
   0.636968200    -0.0010080    0.0635231  
   0.638968100     0.0087353    0.0589489  
   0.640968000     0.0177874    0.0529918  
   0.642967900     0.0257052    0.0460404  
   0.644967800     0.0325243    0.0381356  
   0.646967700     0.0381284    0.0294144  
   0.648967600     0.0423463    0.0201218  
   0.650967500     0.0451780    0.0104303  
   0.652967400     0.0465609    0.0006066  
   0.654967300     0.0466093   -0.0094380  
   0.656967200     0.0452594   -0.0190687  
   0.658967100     0.0423817   -0.0284674  
   0.660967000     0.0381955   -0.0372712  
   0.662966900     0.0328746   -0.0453177  
   0.664966800     0.0264993   -0.0524817  
   0.666966700     0.0191878   -0.0586530  
   0.668966600     0.0111058   -0.0636129  
   0.670966500     0.0021605   -0.0673143  
   0.672966400    -0.0067022   -0.0697447  
   0.674966300    -0.0158071   -0.0706307  
   0.676966200    -0.0248309   -0.0700848  
   0.678966100    -0.0335965   -0.0681795  
   0.680966000    -0.0419047   -0.0650015  
   0.682965900    -0.0495307   -0.0606387  
   0.684965800    -0.0564005   -0.0551558  
   0.686965700    -0.0623372   -0.0487330  
   0.688965600    -0.0671880   -0.0415692  
   0.690965500    -0.0708770   -0.0339011  
   0.692965400    -0.0732853   -0.0257512  
   0.694965300    -0.0744265   -0.0174060  
   0.696965200    -0.0742818   -0.0090437  
   0.698965100    -0.0728311   -0.0008252  
   0.700965000    -0.0700575    0.0069535  
   0.702964900    -0.0661899    0.0143267  
   0.704964800    -0.0612467    0.0209695  
   0.706964700    -0.0553125    0.0266246  
   0.708964600    -0.0483387    0.0313892  
   0.710964500    -0.0409330    0.0350650  
   0.712964400    -0.0330796    0.0373504  
   0.714964300    -0.0248924    0.0383410  
   0.716964200    -0.0168110    0.0381083  
   0.718964100    -0.0089203    0.0366174  
   0.720964000    -0.0014124    0.0339532  
   0.722963900     0.0055512    0.0301503  
   0.724963800     0.0119552    0.0251726  
   0.726963700     0.0174944    0.0195135  
   0.728963600     0.0220006    0.0130469  
   0.730963500     0.0252695    0.0057885  
   0.732963400     0.0275328   -0.0017465  
   0.734963300     0.0286734   -0.0095884  
   0.736963200     0.0292295   -0.0186961  
   0.738963100     0.0282204   -0.0276289  
   0.740963000     0.0256612   -0.0361891  
   0.742962900     0.0216509   -0.0442073  
   0.744962800     0.0161906   -0.0512658  
   0.746962700     0.0098248   -0.0570942  
   0.748962600     0.0026219   -0.0617800  
   0.750962500    -0.0001513   -0.0599729  
   0.752962400    -0.0075373   -0.0642788  
   0.754962300    -0.0156263   -0.0671791  
   0.756962200    -0.0241623   -0.0685660  
   0.758962100    -0.0328969   -0.0683942  
   0.760962000    -0.0415611   -0.0666331  
   0.762961900    -0.0497281   -0.0636489  
   0.764961800    -0.0571536   -0.0599634  
   0.766961700    -0.0640342   -0.0552563  
   0.768961600    -0.0701781   -0.0495766  
   0.770961500    -0.0754996   -0.0430743  
   0.772961400    -0.0799204   -0.0358981  
   0.774961300    -0.0833770   -0.0281131  
   0.776961200    -0.0857514   -0.0197435  
   0.778961100    -0.0867720   -0.0113502  
   0.780961000    -0.0865306   -0.0029041  
   0.782960900    -0.0850377    0.0053990  
   0.784960800    -0.0822081    0.0134374  
   0.786960700    -0.0781871    0.0209835  
   0.788960600    -0.0730750    0.0279218  
   0.790960500    -0.0669181    0.0341154  
   0.792960400    -0.0600291    0.0392075  
   0.794960300    -0.0523915    0.0432001  
   0.796960200    -0.0444148    0.0459764  
   0.798960100    -0.0361416    0.0474879  
   0.800960000    -0.0276476    0.0476771  
   0.802959900    -0.0193580    0.0465927  
   0.804959800    -0.0114269    0.0442924  
   0.806959700    -0.0041749    0.0408143  
   0.808959600     0.0025558    0.0361548  
   0.810959500     0.0084168    0.0305172  
   0.812959400     0.0134284    0.0240260  
   0.814959300     0.0172508    0.0167557  
   0.816959200     0.0199187    0.0089765  
   0.818959100     0.0214776    0.0006780  
   0.820959000     0.0215956   -0.0076393  
   0.822958900     0.0203726   -0.0159201  
   0.824958800     0.0178559   -0.0240368  
   0.826958700     0.0140748   -0.0317249  
   0.828958600     0.0091424   -0.0386613  
   0.830958500     0.0030737   -0.0447795  
   0.832958400    -0.0039402   -0.0499157  
   0.834958300    -0.0117584   -0.0539478  
   0.836958200    -0.0201893   -0.0567851  
   0.838958100    -0.0290461   -0.0583109  
   0.840958000    -0.0381345   -0.0584772  
   0.842957900    -0.0471938   -0.0572698  
   0.844957800    -0.0561589   -0.0545834  
   0.846957700    -0.0646306   -0.0505963  
   0.848957600    -0.0724147   -0.0453543  
   0.850957500    -0.0795451   -0.0390059  
   0.852957400    -0.0857011   -0.0313932  
   0.854957300    -0.0906402   -0.0230521  
   0.856957200    -0.0943433   -0.0140433  
   0.858957100    -0.0967518   -0.0045524  
   0.860957000    -0.0977888    0.0051796  
   0.862956900    -0.0974151    0.0149777  
   0.864956800    -0.0958596    0.0245323  
   0.866956700    -0.0930729    0.0336872  
   0.868956600    -0.0889736    0.0422519  
   0.870956500    -0.0837046    0.0502568  
   0.872956400    -0.0773114    0.0575399  
   0.874956300    -0.0700018    0.0637707  
   0.876956200    -0.0617722    0.0689495  
   0.878956100    -0.0528493    0.0728586  
   0.880956000    -0.0434215    0.0754657  
   0.882955900    -0.0337619    0.0767138  
   0.884955800    -0.0240745    0.0765697  
   0.886955700    -0.0144255    0.0750548  
   0.888955600    -0.0051735    0.0721685  
   0.890955500     0.0033528    0.0680707  
   0.892955400     0.0110978    0.0627852  
   0.894955300     0.0178280    0.0564691  
