! MS46122B
! 2250307/22442219
! 7/21/2025 12:00:31 PM
! C:\USERS\SPARKY\DOCUMENTS\VNA_DATA\JULY21_2025\ECAL_SHORT_A.S1P
! CHANNEL.1
! TR.MEASUREMENT
! RAW.DATA
# GHZ S RI R 50.0
! FREQ.GHZ         S11RE         S11IM         
!; PortSelection: Port_1
   0.001000000     1.0453070   -0.0710516  
   0.002999900     0.9640788   -0.1936923  
   0.004999800     0.9041222   -0.2986207  
   0.006999700     0.8371543   -0.3960882  
   0.008999600     0.7590614   -0.4911010  
   0.010999500     0.6671728   -0.5812228  
   0.012999400     0.5562667   -0.6640189  
   0.014999300     0.4214424   -0.7338645  
   0.016999200     0.2570209   -0.7796450  
   0.018999100     0.0590529   -0.7843381  
   0.020999000    -0.1658773   -0.7201234  
   0.022998900    -0.3899049   -0.5529228  
   0.024998800    -0.5270573   -0.2640294  
   0.026998700    -0.5522640    0.1072953  
   0.028998600    -0.3620428    0.4438539  
   0.030998500    -0.0451164    0.6330128  
   0.032998400     0.2580446    0.6370875  
   0.034998300     0.5426607    0.5595995  
   0.036998200     0.7227646    0.4107093  
   0.038998100     0.8326354    0.2460693  
   0.040998000     0.8896584    0.0855498  
   0.042997900     0.9088524   -0.0630027  
   0.044997800     0.8722048   -0.1740580  
   0.046997700     0.8715056   -0.3152249  
   0.048997600     0.8298024   -0.4197170  
   0.050997500     0.7767363   -0.5111552  
   0.052997400     0.7161366   -0.5903146  
   0.054997300     0.6500664   -0.6587856  
   0.056997200     0.5772784   -0.7190863  
   0.058997100     0.5016031   -0.7690758  
   0.060997000     0.4224214   -0.8104465  
   0.062996900     0.3400763   -0.8436770  
   0.064996800     0.2552645   -0.8681013  
   0.066996700     0.1677693   -0.8835306  
   0.068996600     0.0782414   -0.8905151  
   0.070996500    -0.0125496   -0.8886839  
   0.072996400    -0.1043497   -0.8760756  
   0.074996300    -0.1968268   -0.8527988  
   0.076996200    -0.2884333   -0.8180578  
   0.078996100    -0.3783759   -0.7718534  
   0.080996000    -0.4649572   -0.7128928  
   0.082995900    -0.5466382   -0.6405876  
   0.084995800    -0.6206707   -0.5538594  
   0.086995700    -0.6855503   -0.4544777  
   0.088995600    -0.7380961   -0.3413599  
   0.090995500    -0.7748761   -0.2157499  
   0.092995400    -0.7932171   -0.0796006  
   0.094995300    -0.7872961    0.0644048  
   0.096995200    -0.7547567    0.2124113  
   0.098995100    -0.6928400    0.3579193  
   0.100995000    -0.5999414    0.4960513  
   0.102994900    -0.4780595    0.6145981  
   0.104994800    -0.3306096    0.7081122  
   0.106994700    -0.1632497    0.7689990  
   0.108994600     0.0142445    0.7934639  
   0.110994500     0.1928072    0.7793482  
   0.112994400     0.3629903    0.7276184  
   0.114994300     0.5155023    0.6430228  
   0.116994200     0.6435794    0.5314283  
   0.118994100     0.7436944    0.4009110  
   0.120994000     0.8152866    0.2589916  
   0.122993900     0.8561246    0.1118000  
   0.124993800     0.8689000   -0.0338973  
   0.126993700     0.8571582   -0.1741470  
   0.128993600     0.8224295   -0.3037306  
   0.130993500     0.7713252   -0.4222163  
   0.132993400     0.7052195   -0.5272675  
   0.134993300     0.6276044   -0.6183359  
   0.136993200     0.5404560   -0.6950818  
   0.138993100     0.4465397   -0.7571052  
   0.140993000     0.3477423   -0.8046950  
   0.142992900     0.2456920   -0.8387517  
   0.144992800     0.1422181   -0.8597759  
   0.146992700     0.0382149   -0.8666268  
   0.148992600    -0.0651036   -0.8607614  
   0.150992500    -0.1661363   -0.8410381  
   0.152992400    -0.2639407   -0.8102813  
   0.154992300    -0.3573364   -0.7673597  
   0.156992200    -0.4455135   -0.7132522  
   0.158992100    -0.5270270   -0.6480242  
   0.160992000    -0.6006815   -0.5721003  
   0.162991900    -0.6648318   -0.4862719  
   0.164991800    -0.7184565   -0.3905624  
   0.166991700    -0.7598073   -0.2867755  
   0.168991600    -0.7871342   -0.1761375  
   0.170991500    -0.7993283   -0.0592666  
   0.172991400    -0.7947452    0.0603864  
   0.174991300    -0.7720989    0.1815678  
   0.176991200    -0.7301172    0.3014581  
   0.178991100    -0.6688287    0.4165233  
   0.180991000    -0.5887054    0.5235540  
   0.182990900    -0.4891422    0.6176503  
   0.184990800    -0.3720850    0.6960360  
   0.186990700    -0.2409105    0.7545702  
   0.188990600    -0.1225283    0.7860337  
   0.190990500     0.0439217    0.7988475  
   0.192990400     0.1955159    0.7819791  
   0.194990300     0.3390962    0.7388973  
   0.196990200     0.4719893    0.6709728  
   0.198990100     0.5900549    0.5806690  
   0.200990000     0.6896676    0.4712805  
   0.202989900     0.7678443    0.3472207  
   0.204989800     0.8221263    0.2139665  
   0.206989700     0.8533474    0.0760037  
   0.208989600     0.8595003   -0.0617988  
   0.210989500     0.8433557   -0.1963415  
   0.212989400     0.8066205   -0.3236426  
   0.214989300     0.7515758   -0.4408719  
   0.216989200     0.6812803   -0.5451013  
   0.218989100     0.5984477   -0.6354820  
   0.220989000     0.5049863   -0.7114317  
   0.222988900     0.4035332   -0.7719417  
   0.224988800     0.2964478   -0.8167422  
   0.226988700     0.1862322   -0.8459548  
   0.228988600     0.0754766   -0.8595320  
   0.230988500    -0.0344950   -0.8576620  
   0.232988400    -0.1427881   -0.8406429  
   0.234988300    -0.2476349   -0.8106074  
   0.236988200    -0.3473662   -0.7670758  
   0.238988100    -0.4401481   -0.7106272  
   0.240988000    -0.5246468   -0.6429234  
   0.242987900    -0.5993508   -0.5644649  
   0.244987800    -0.6633099   -0.4759085  
   0.246987700    -0.7156846   -0.3783169  
   0.248987600    -0.7545121   -0.2725741  
   0.250987500    -0.7788740   -0.1608551  
   0.252987400    -0.7870471   -0.0453765  
   0.254987300    -0.7782689    0.0717858  
   0.256987200    -0.7521321    0.1883380  
   0.258987100    -0.7088296    0.3026840  
   0.260987000    -0.6458559    0.4107953  
   0.262986900    -0.5643893    0.5103539  
   0.264986800    -0.4661250    0.5972931  
   0.266986700    -0.3523904    0.6683747  
   0.268986600    -0.2264449    0.7197657  
   0.270986500    -0.0917530    0.7490228  
   0.272986400     0.0479035    0.7546134  
   0.274986300     0.1876700    0.7353683  
   0.276986200     0.3231937    0.6910312  
   0.278986100     0.4490751    0.6227096  
   0.280986000     0.5609195    0.5324098  
   0.282985900     0.6545393    0.4238672  
   0.284985800     0.7260381    0.3011746  
   0.286985700     0.7742125    0.1694250  
   0.288985600     0.7980645    0.0338259  
   0.290985500     0.7978992   -0.1006392  
   0.292985400     0.7753831   -0.2305137  
   0.294985300     0.7329244   -0.3520879  
   0.296985200     0.6725632   -0.4632738  
   0.298985100     0.5964826   -0.5614665  
   0.300985000     0.5083899   -0.6444850  
   0.302984900     0.4112804   -0.7114872  
   0.304984800     0.3075588   -0.7618856  
   0.306984700     0.2010220   -0.7960235  
   0.308984600     0.0940368   -0.8140088  
   0.310984500    -0.0117491   -0.8176007  
   0.312984400    -0.1146329   -0.8069247  
   0.314984300    -0.2134904   -0.7837588  
   0.316984200    -0.3069882   -0.7487129  
   0.318984100    -0.3948736   -0.7025663  
   0.320984000    -0.4761001   -0.6468671  
   0.322983900    -0.5498167   -0.5818734  
   0.324983800    -0.6155732   -0.5092376  
   0.326983700    -0.6725869   -0.4291708  
   0.328983600    -0.7211725   -0.3417713  
   0.330983500    -0.7594442   -0.2472354  
   0.332983400    -0.7860562   -0.1457851  
   0.334983300    -0.7981629   -0.0391273  
   0.336983200    -0.7942572    0.0710545  
   0.338983100    -0.7733479    0.1807297  
   0.340983000    -0.7355881    0.2869938  
   0.342982900    -0.6816754    0.3876497  
   0.344982800    -0.6130624    0.4797926  
   0.346982700    -0.5303426    0.5621488  
   0.348982600    -0.4349668    0.6314955  
   0.350982500    -0.3300954    0.6869270  
   0.352982400    -0.2169672    0.7267444  
   0.354982300    -0.0925890    0.7495838  
   0.356982200     0.0478700    0.7512319  
   0.358982100     0.1872273    0.7273278  
   0.360982000     0.3201319    0.6786020  
   0.362981900     0.4430542    0.6063047  
   0.364981800     0.5514883    0.5124496  
   0.366981700     0.6412618    0.3992279  
   0.368981600     0.7089863    0.2706392  
   0.370981500     0.7518917    0.1311885  
   0.372981400     0.7679142   -0.0141141  
   0.374981300     0.7560885   -0.1606664  
   0.376981200     0.7704564   -0.0570427  
   0.378981100     0.7501078   -0.2019955  
   0.380981000     0.7033845   -0.3396540  
   0.382980900     0.6392376   -0.4551127  
   0.384980800     0.5609802   -0.5526847  
   0.386980700     0.4692007   -0.6358281  
   0.388980600     0.3662105   -0.7024497  
   0.390980500     0.2563661   -0.7511872  
   0.392980400     0.1418077   -0.7818335  
   0.394980300     0.0262601   -0.7946225  
   0.396980200    -0.0888825   -0.7903810  
   0.398980100    -0.2001764   -0.7694608  
   0.400980000    -0.3065724   -0.7328030  
   0.402979900    -0.4057008   -0.6813142  
   0.404979800    -0.4950665   -0.6173276  
   0.406979700    -0.5741888   -0.5416013  
   0.408979600    -0.6415246   -0.4565465  
   0.410979500    -0.6963355   -0.3620892  
   0.412979400    -0.7378042   -0.2605386  
   0.414979300    -0.7631063   -0.1541483  
   0.416979200    -0.7748314   -0.0448030  
   0.418979100    -0.7711634    0.0648930  
   0.420979000    -0.7518200    0.1734481  
   0.422978900    -0.7169793    0.2797803  
   0.424978800    -0.6666760    0.3801180  
   0.426978700    -0.6020399    0.4738008  
   0.428978600    -0.5237094    0.5575703  
   0.430978500    -0.4334162    0.6292708  
   0.432978400    -0.3325595    0.6874210  
   0.434978300    -0.2237875    0.7313454  
   0.436978200    -0.1080334    0.7579530  
   0.438978100     0.0118966    0.7662877  
   0.440978000     0.1329390    0.7563826  
   0.442977900     0.2521241    0.7275404  
   0.444977800     0.3660196    0.6801193  
   0.446977700     0.4718132    0.6147543  
   0.448977600     0.5663372    0.5329871  
   0.450977500     0.6470274    0.4366919  
   0.452977400     0.7115973    0.3283887  
   0.454977300     0.7580525    0.2101494  
   0.456977200     0.7847790    0.0858726  
   0.458977100     0.7908332   -0.0412035  
   0.460977000     0.7764614   -0.1668226  
   0.462976900     0.7422739   -0.2871948  
   0.464976800     0.6895227   -0.4001872  
   0.466976700     0.6206793   -0.5024137  
   0.468976600     0.5372955   -0.5915485  
   0.470976500     0.4417718   -0.6661430  
   0.472976400     0.3375716   -0.7239465  
   0.474976300     0.2267550   -0.7649223  
   0.476976200     0.1126638   -0.7883687  
   0.478976100    -0.0015428   -0.7947184  
   0.480976000    -0.1139943   -0.7842811  
   0.482975900    -0.2214974   -0.7580666  
   0.484975800    -0.3237692   -0.7173933  
   0.486975700    -0.4186315   -0.6628722  
   0.488975600    -0.5041179   -0.5962035  
   0.490975500    -0.5793791   -0.5187124  
   0.492975400    -0.6429949   -0.4311316  
   0.494975300    -0.6935772   -0.3358783  
   0.496975200    -0.7305486   -0.2340120  
   0.498975100    -0.7525732   -0.1283162  
   0.500975000    -0.7595198   -0.0195340  
   0.502974900    -0.7507499    0.0890422  
   0.504974800    -0.7260278    0.1966460  
   0.506974700    -0.6853778    0.3003897  
   0.508974600    -0.6286121    0.3984405  
   0.510974500    -0.5565414    0.4870471  
   0.512974400    -0.4711482    0.5637652  
   0.514974300    -0.3739117    0.6251753  
   0.516974200    -0.2686908    0.6710104  
   0.518974100    -0.1575969    0.6990019  
   0.520974000    -0.0440398    0.7088424  
   0.522973900     0.0686130    0.7004804  
   0.524973800     0.1774787    0.6750045  
   0.526973700     0.2797597    0.6334042  
   0.528973600     0.3736674    0.5777803  
   0.530973500     0.4575566    0.5095201  
   0.532973400     0.5302354    0.4309496  
   0.534973300     0.5903345    0.3432979  
   0.536973200     0.6376980    0.2482285  
   0.538973100     0.6706797    0.1476913  
   0.540973000     0.6896891    0.0441878  
   0.542972900     0.6935032   -0.0617328  
   0.544972800     0.6817079   -0.1671648  
   0.546972700     0.6544692   -0.2711966  
   0.548972600     0.6117447   -0.3707275  
   0.550972500     0.5547736   -0.4630614  
   0.552972400     0.4835045   -0.5465810  
   0.554972300     0.4002848   -0.6181405  
   0.556972200     0.3062897   -0.6771073  
   0.558972100     0.2044578   -0.7208368  
   0.560972000     0.0975529   -0.7487436  
   0.562971900    -0.0122842   -0.7599043  
   0.564971800    -0.1218928   -0.7539445  
   0.566971700    -0.2292458   -0.7322946  
   0.568971600    -0.3318625   -0.6949815  
   0.570971500    -0.4274475   -0.6431338  
   0.572971400    -0.5143847   -0.5778609  
   0.574971300    -0.5908231   -0.5003790  
   0.576971200    -0.6556622   -0.4123137  
   0.578971100    -0.7067403   -0.3157421  
   0.580971000    -0.7434830   -0.2130484  
   0.582970900    -0.7645639   -0.1061838  
   0.584970800    -0.7702376    0.0021640  
   0.586970700    -0.7601184    0.1103142  
   0.588970600    -0.7348995    0.2158202  
   0.590970500    -0.6945880    0.3169904  
   0.592970400    -0.6398084    0.4117655  
   0.594970300    -0.5717534    0.4980611  
   0.596970200    -0.4914330    0.5740351  
   0.598970100    -0.4003974    0.6379272  
   0.600970000    -0.2998779    0.6881840  
   0.602969900    -0.1923463    0.7231312  
   0.604969800    -0.0792283    0.7422874  
   0.606969700     0.0361590    0.7437111  
   0.608969600     0.1519222    0.7270410  
   0.610969500     0.2645046    0.6926318  
   0.612969400     0.3711971    0.6403683  
   0.614969300     0.4692379    0.5717314  
   0.616969200     0.5548632    0.4882774  
   0.618969100     0.6263852    0.3922119  
   0.620969000     0.6817602    0.2858728  
   0.622968900     0.7195743    0.1718542  
   0.624968800     0.7386659    0.0525245  
   0.626968700     0.7380152   -0.0684479  
   0.628968600     0.7182048   -0.1879156  
   0.630968500     0.6791337   -0.3022834  
   0.632968400     0.6225433   -0.4087665  
   0.634968300     0.5495360   -0.5041235  
   0.636968200     0.4628910   -0.5859627  
   0.638968100     0.3650620   -0.6520671  
   0.640968000     0.2585042   -0.7019761  
   0.642967900     0.1468543   -0.7343275  
   0.644967800     0.0324625   -0.7481312  
   0.646967700    -0.0813036   -0.7444290  
   0.648967600    -0.1918515   -0.7235167  
   0.650967500    -0.2963856   -0.6866919  
   0.652967400    -0.3933843   -0.6352520  
   0.654967300    -0.4807879   -0.5706108  
   0.656967200    -0.5570177   -0.4947439  
   0.658967100    -0.6211452   -0.4089551  
   0.660967000    -0.6720908   -0.3151675  
   0.662966900    -0.7087642   -0.2152035  
   0.664966800    -0.7306703   -0.1108399  
   0.666966700    -0.7373408   -0.0043383  
   0.668966600    -0.7285706    0.1019902  
   0.670966500    -0.7042904    0.2061595  
   0.672966400    -0.6660329    0.3066526  
   0.674966300    -0.6127737    0.3997338  
   0.676966200    -0.5460167    0.4845373  
   0.678966100    -0.4679388    0.5587047  
   0.680966000    -0.3788381    0.6211994  
   0.682965900    -0.2805980    0.6701490  
   0.684965800    -0.1755884    0.7043114  
   0.686965700    -0.0656697    0.7220753  
   0.688965600     0.0468536    0.7232324  
   0.690965500     0.1586673    0.7057251  
   0.692965400     0.2675924    0.6721249  
   0.694965300     0.3705825    0.6216331  
   0.696965200     0.4645978    0.5551669  
   0.698965100     0.5480377    0.4739656  
   0.700965000     0.6174797    0.3799030  
   0.702964900     0.6713583    0.2757719  
   0.704964800     0.7079964    0.1638162  
   0.706964700     0.7258607    0.0475419  
   0.708964600     0.7248871   -0.0708104  
   0.710964500     0.7056133   -0.1868379  
   0.712964400     0.6674208   -0.2971933  
   0.714964300     0.6122543   -0.4000639  
   0.716964200     0.5424155   -0.4906523  
   0.718964100     0.4603652   -0.5685849  
   0.720964000     0.3683907   -0.6316011  
   0.722963900     0.2695458   -0.6793596  
   0.724963800     0.1661302   -0.7114488  
   0.726963700     0.0603251   -0.7278235  
   0.728963600    -0.0454707   -0.7285615  
   0.730963500    -0.1491648   -0.7134543  
   0.732963400    -0.2486871   -0.6849182  
   0.734963300    -0.3428338   -0.6428005  
   0.736963200    -0.4416851   -0.5782398  
   0.738963100    -0.5287463   -0.4983595  
   0.740963000    -0.6013373   -0.4053123  
   0.742962900    -0.6579075   -0.3018817  
   0.744962800    -0.6965231   -0.1904730  
   0.746962700    -0.7163753   -0.0737003  
   0.748962600    -0.7165108    0.0457370  
   0.750962500    -0.7291909   -0.0646373  
   0.752962400    -0.7273889    0.0556919  
   0.754962300    -0.7052320    0.1745846  
   0.756962200    -0.6629414    0.2887887  
   0.758962100    -0.6018457    0.3939277  
   0.760962000    -0.5228106    0.4879788  
   0.762961900    -0.4335834    0.5636629  
   0.764961800    -0.3428336    0.6191600  
   0.766961700    -0.2447955    0.6599781  
   0.768961600    -0.1412934    0.6854758  
   0.770961500    -0.0350084    0.6952388  
   0.772961400     0.0712940    0.6887366  
   0.774961300     0.1751826    0.6664405  
   0.776961200     0.2750562    0.6285191  
   0.778961100     0.3678236    0.5760549  
   0.780961000     0.4524406    0.5097706  
   0.782960900     0.5263628    0.4312385  
   0.784960800     0.5882195    0.3418820  
   0.786960700     0.6357012    0.2438539  
   0.788960600     0.6676663    0.1390723  
   0.790960500     0.6833874    0.0305980  
   0.792960400     0.6820328   -0.0791297  
   0.794960300     0.6638621   -0.1872519  
   0.796960200     0.6293022   -0.2914595  
   0.798960100     0.5789908   -0.3887683  
   0.800960000     0.5143265   -0.4771169  
   0.802959900     0.4368383   -0.5545474  
   0.804959800     0.3486721   -0.6190763  
   0.806959700     0.2518425   -0.6690380  
   0.808959600     0.1487089   -0.7039418  
   0.810959500     0.0415556   -0.7224628  
   0.812959400    -0.0668068   -0.7244501  
   0.814959300    -0.1741149   -0.7101024  
   0.816959200    -0.2774157   -0.6799613  
   0.818959100    -0.3749616   -0.6345050  
   0.820959000    -0.4641946   -0.5752659  
   0.822958900    -0.5431367   -0.5037189  
   0.824958800    -0.6105804   -0.4213821  
   0.826958700    -0.6649365   -0.3304122  
   0.828958600    -0.7054420   -0.2325619  
   0.830958500    -0.7306799   -0.1303462  
   0.832958400    -0.7409840   -0.0258863  
   0.834958300    -0.7358527    0.0788392  
   0.836958200    -0.7160600    0.1813932  
   0.838958100    -0.6815577    0.2797416  
   0.840958000    -0.6326286    0.3722380  
   0.842957900    -0.5712101    0.4569312  
   0.844957800    -0.4978732    0.5325554  
   0.846957700    -0.4140462    0.5968319  
   0.848957600    -0.3214741    0.6481348  
   0.850957500    -0.2218464    0.6859975  
   0.852957400    -0.1167785    0.7086126  
   0.854957300    -0.0090060    0.7155231  
   0.856957200     0.0991001    0.7060275  
   0.858957100     0.2051628    0.6803154  
   0.860957000     0.3060102    0.6388516  
   0.862956900     0.3995859    0.5821363  
   0.864956800     0.4835822    0.5118377  
   0.866956700     0.5561492    0.4292260  
   0.868956600     0.6148292    0.3355870  
   0.870956500     0.6591394    0.2337812  
   0.872956400     0.6873580    0.1254799  
   0.874956300     0.6983238    0.0136643  
   0.876956200     0.6912260   -0.0996459  
   0.878956100     0.6662410   -0.2104235  
   0.880956000     0.6234845   -0.3161266  
   0.882955900     0.5642830   -0.4135702  
   0.884955800     0.4904774   -0.5002038  
   0.886955700     0.4034231   -0.5736736  
   0.888955600     0.3065551   -0.6317115  
   0.890955500     0.2018220   -0.6736392  
   0.892955400     0.0926850   -0.6978150  
   0.894955300    -0.0180705   -0.7045231  
