! MS46122B
! 2250307/22442219
! 7/28/2025 7:58:26 AM
! C:\USERS\SPARKY\DOCUMENTS\VNA_DATA\JULY28_2025\295K\ECAL_LOAD_F.S1P
! CHANNEL.1
! TR.MEASUREMENT
! RAW.DATA
# GHZ S RI R 50.0
! FREQ.GHZ         S11RE         S11IM         
!; PortSelection: Port_1
   0.001000000     1.0458530   -0.0726096  
   0.002999900     0.9530831   -0.1947733  
   0.004999800     0.8775086   -0.2788471  
   0.006999700     0.7926596   -0.3682449  
   0.008999600     0.7010282   -0.4063098  
   0.010999500     0.6243473   -0.4314447  
   0.012999400     0.5577230   -0.4459721  
   0.014999300     0.5011370   -0.4528391  
   0.016999200     0.4521840   -0.4536677  
   0.018999100     0.4112766   -0.4502659  
   0.020999000     0.3773710   -0.4444510  
   0.022998900     0.3484906   -0.4373280  
   0.024998800     0.3184499   -0.4083248  
   0.026998700     0.3020510   -0.4211627  
   0.028998600     0.2829202   -0.4125965  
   0.030998500     0.2654846   -0.4041190  
   0.032998400     0.2456620   -0.3781047  
   0.034998300     0.2336351   -0.3876005  
   0.036998200     0.2192981   -0.3796650  
   0.038998100     0.2056843   -0.3721266  
   0.040998000     0.1926396   -0.3648195  
   0.042997900     0.1801519   -0.3577443  
   0.044997800     0.1665904   -0.3364375  
   0.046997700     0.1552031   -0.3444426  
   0.048997600     0.1438124   -0.3378482  
   0.050997500     0.1329362   -0.3313015  
   0.052997400     0.1225957   -0.3247974  
   0.054997300     0.1128981   -0.3182384  
   0.056997200     0.1031959   -0.3122689  
   0.058997100     0.0943228   -0.3061190  
   0.060997000     0.0857780   -0.3001296  
   0.062996900     0.0778861   -0.2942379  
   0.064996800     0.0705836   -0.2883436  
   0.066996700     0.0637330   -0.2824851  
   0.068996600     0.0573680   -0.2766773  
   0.070996500     0.0514952   -0.2711121  
   0.072996400     0.0459596   -0.2653152  
   0.074996300     0.0408732   -0.2594996  
   0.076996200     0.0361349   -0.2536674  
   0.078996100     0.0317536   -0.2478543  
   0.080996000     0.0275970   -0.2420980  
   0.082995900     0.0237166   -0.2363311  
   0.084995800     0.0200374   -0.2303286  
   0.086995700     0.0168298   -0.2246071  
   0.088995600     0.0139750   -0.2190411  
   0.090995500     0.0113858   -0.2135243  
   0.092995400     0.0090542   -0.2083267  
   0.094995300     0.0071039   -0.2030619  
   0.096995200     0.0053043   -0.1978471  
   0.098995100     0.0036753   -0.1927462  
   0.100995000     0.0012554   -0.1888472  
   0.102994900     0.0001351   -0.1842297  
   0.104994800    -0.0006719   -0.1798302  
   0.106994700    -0.0012541   -0.1755143  
   0.108994600    -0.0016567   -0.1715772  
   0.110994500    -0.0018788   -0.1678891  
   0.112994400    -0.0019792   -0.1644606  
   0.114994300    -0.0019169   -0.1612763  
   0.116994200    -0.0018111   -0.1583138  
   0.118994100    -0.0015893   -0.1556195  
   0.120994000    -0.0012007   -0.1531060  
   0.122993900    -0.0010456   -0.1507984  
   0.124993800    -0.0007958   -0.1488250  
   0.126993700    -0.0006370   -0.1470418  
   0.128993600    -0.0005434   -0.1454410  
   0.130993500    -0.0005357   -0.1440887  
   0.132993400    -0.0006258   -0.1429112  
   0.134993300    -0.0008612   -0.1418764  
   0.136993200    -0.0012287   -0.1409284  
   0.138993100    -0.0018197   -0.1400674  
   0.140993000    -0.0025501   -0.1392712  
   0.142992900    -0.0034830   -0.1384559  
   0.144992800    -0.0045604   -0.1377842  
   0.146992700    -0.0058573   -0.1369800  
   0.148992600    -0.0072743   -0.1361024  
   0.150992500    -0.0088042   -0.1349858  
   0.152992400    -0.0105396   -0.1338656  
   0.154992300    -0.0123521   -0.1326007  
   0.156992200    -0.0142641   -0.1311153  
   0.158992100    -0.0162103   -0.1294500  
   0.160992000    -0.0181918   -0.1275585  
   0.162991900    -0.0201294   -0.1254232  
   0.164991800    -0.0220349   -0.1230585  
   0.166991700    -0.0238155   -0.1204586  
   0.168991600    -0.0254821   -0.1175942  
   0.170991500    -0.0270100   -0.1145218  
   0.172991400    -0.0282463   -0.1112665  
   0.174991300    -0.0292233   -0.1078201  
   0.176991200    -0.0299340   -0.1042233  
   0.178991100    -0.0303107   -0.1005078  
   0.180991000    -0.0303310   -0.0967507  
   0.182990900    -0.0299784   -0.0928916  
   0.184990800    -0.0292390   -0.0890734  
   0.186990700    -0.0280764   -0.0853296  
   0.188990600    -0.0247874   -0.0822524  
   0.190990500    -0.0243792   -0.0782738  
   0.192990400    -0.0222691   -0.0749556  
   0.194990300    -0.0195889   -0.0720365  
   0.196990200    -0.0165787   -0.0694621  
   0.198990100    -0.0132686   -0.0672750  
   0.200990000    -0.0097456   -0.0655116  
   0.202989900    -0.0060341   -0.0642044  
   0.204989800    -0.0021992   -0.0634119  
   0.206989700     0.0016852   -0.0631502  
   0.208989600     0.0056212   -0.0634129  
   0.210989500     0.0094894   -0.0642096  
   0.212989400     0.0131908   -0.0655356  
   0.214989300     0.0166957   -0.0673661  
   0.216989200     0.0199244   -0.0696468  
   0.218989100     0.0228136   -0.0724009  
   0.220989000     0.0252875   -0.0755449  
   0.222988900     0.0273168   -0.0790601  
   0.224988800     0.0288141   -0.0828816  
   0.226988700     0.0297908   -0.0869172  
   0.228988600     0.0302584   -0.0910825  
   0.230988500     0.0301443   -0.0953572  
   0.232988400     0.0294359   -0.0995370  
   0.234988300     0.0281506   -0.1037360  
   0.236988200     0.0262696   -0.1077793  
   0.238988100     0.0238941   -0.1116028  
   0.240988000     0.0210119   -0.1151178  
   0.242987900     0.0177559   -0.1183184  
   0.244987800     0.0140566   -0.1210870  
   0.246987700     0.0099985   -0.1234101  
   0.248987600     0.0056680   -0.1252692  
   0.250987500     0.0011110   -0.1266179  
   0.252987400    -0.0035266   -0.1273963  
   0.254987300    -0.0082219   -0.1277664  
   0.256987200    -0.0128289   -0.1275673  
   0.258987100    -0.0173700   -0.1267710  
   0.260987000    -0.0216678   -0.1254315  
   0.262986900    -0.0257957   -0.1236011  
   0.264986800    -0.0296270   -0.1213439  
   0.266986700    -0.0331146   -0.1187180  
   0.268986600    -0.0361653   -0.1158040  
   0.270986500    -0.0386763   -0.1127286  
   0.272986400    -0.0407360   -0.1094892  
   0.274986300    -0.0423749   -0.1062470  
   0.276986200    -0.0435217   -0.1029646  
   0.278986100    -0.0441970   -0.0997355  
   0.280986000    -0.0444179   -0.0965890  
   0.282985900    -0.0442228   -0.0936857  
   0.284985800    -0.0436578   -0.0910686  
   0.286985700    -0.0427239   -0.0887594  
   0.288985600    -0.0415231   -0.0870182  
   0.290985500    -0.0401145   -0.0857618  
   0.292985400    -0.0386072   -0.0850252  
   0.294985300    -0.0371397   -0.0848660  
   0.296985200    -0.0358179   -0.0851838  
   0.298985100    -0.0347820   -0.0859192  
   0.300985000    -0.0340720   -0.0871556  
   0.302984900    -0.0338278   -0.0888881  
   0.304984800    -0.0340854   -0.0910216  
   0.306984700    -0.0350120   -0.0934627  
   0.308984600    -0.0365981   -0.0962308  
   0.310984500    -0.0389810   -0.0989917  
   0.312984400    -0.0422827   -0.1016225  
   0.314984300    -0.0465329   -0.1039274  
   0.316984200    -0.0518784   -0.1056346  
   0.318984100    -0.0582415   -0.1063077  
   0.320984000    -0.0654814   -0.1055649  
   0.322983900    -0.0731843   -0.1031401  
   0.324983800    -0.0808108   -0.0986866  
   0.326983700    -0.0876557   -0.0921782  
   0.328983600    -0.0929437   -0.0839371  
   0.330983500    -0.0959404   -0.0747047  
   0.332983400    -0.0964090   -0.0654862  
   0.334983300    -0.0946704   -0.0572267  
   0.336983200    -0.0915598   -0.0504795  
   0.338983100    -0.0878071   -0.0454754  
   0.340983000    -0.0842208   -0.0419310  
   0.342982900    -0.0811710   -0.0393974  
   0.344982800    -0.0788000   -0.0373071  
   0.346982700    -0.0771157   -0.0352318  
   0.348982600    -0.0756751   -0.0330140  
   0.350982500    -0.0747191   -0.0305416  
   0.352982400    -0.0738213   -0.0279013  
   0.354982300    -0.0729991   -0.0245539  
   0.356982200    -0.0720935   -0.0197857  
   0.358982100    -0.0705987   -0.0150222  
   0.360982000    -0.0685621   -0.0103766  
   0.362981900    -0.0659072   -0.0059871  
   0.364981800    -0.0626818   -0.0019134  
   0.366981700    -0.0588440    0.0016856  
   0.368981600    -0.0545148    0.0048318  
   0.370981500    -0.0498887    0.0072739  
   0.372981400    -0.0450485    0.0089659  
   0.374981300    -0.0400869    0.0099183  
   0.376981200    -0.0390329   -0.0003281  
   0.378981100    -0.0342760    0.0007262  
   0.380981000    -0.0295569    0.0009036  
   0.382980900    -0.0250900   -0.0000210  
   0.384980800    -0.0208999   -0.0017021  
   0.386980700    -0.0170931   -0.0039213  
   0.388980600    -0.0137205   -0.0066582  
   0.390980500    -0.0108061   -0.0098811  
   0.392980400    -0.0084372   -0.0135316  
   0.394980300    -0.0066174   -0.0174702  
   0.396980200    -0.0054741   -0.0215519  
   0.398980100    -0.0049686   -0.0257180  
   0.400980000    -0.0051448   -0.0298438  
   0.402979900    -0.0059572   -0.0338217  
   0.404979800    -0.0073881   -0.0376081  
   0.406979700    -0.0093871   -0.0410365  
   0.408979600    -0.0118971   -0.0440619  
   0.410979500    -0.0149122   -0.0465501  
   0.412979400    -0.0184005   -0.0485303  
   0.414979300    -0.0221906   -0.0497512  
   0.416979200    -0.0261957   -0.0502885  
   0.418979100    -0.0302402   -0.0501565  
   0.420979000    -0.0342556   -0.0493179  
   0.422978900    -0.0381596   -0.0477502  
   0.424978800    -0.0419148   -0.0455548  
   0.426978700    -0.0453001   -0.0426553  
   0.428978600    -0.0482357   -0.0392018  
   0.430978500    -0.0505512   -0.0351902  
   0.432978400    -0.0521641   -0.0307202  
   0.434978300    -0.0530580   -0.0260322  
   0.436978200    -0.0532512   -0.0211675  
   0.438978100    -0.0526964   -0.0161913  
   0.440978000    -0.0513330   -0.0112387  
   0.442977900    -0.0492001   -0.0064293  
   0.444977800    -0.0462920   -0.0018744  
   0.446977700    -0.0426520    0.0023040  
   0.448977600    -0.0383294    0.0059893  
   0.450977500    -0.0333810    0.0090627  
   0.452977400    -0.0279484    0.0114605  
   0.454977300    -0.0221428    0.0131058  
   0.456977200    -0.0160083    0.0139068  
   0.458977100    -0.0097503    0.0137975  
   0.460977000    -0.0033870    0.0127422  
   0.462976900     0.0028523    0.0107332  
   0.464976800     0.0087924    0.0078045  
   0.466976700     0.0143565    0.0039428  
   0.468976600     0.0194000   -0.0007337  
   0.470976500     0.0237528   -0.0062145  
   0.472976400     0.0273525   -0.0123531  
   0.474976300     0.0300745   -0.0190261  
   0.476976200     0.0318635   -0.0261111  
   0.478976100     0.0327135   -0.0335961  
   0.480976000     0.0325999   -0.0411339  
   0.482975900     0.0314209   -0.0485209  
   0.484975800     0.0292162   -0.0557577  
   0.486975700     0.0259521   -0.0626955  
   0.488975600     0.0216662   -0.0693078  
   0.490975500     0.0164477   -0.0752959  
   0.492975400     0.0104726   -0.0804108  
   0.494975300     0.0037595   -0.0847079  
   0.496975200    -0.0036535   -0.0880723  
   0.498975100    -0.0113872   -0.0903120  
   0.500975000    -0.0194855   -0.0914616  
   0.502974900    -0.0277103   -0.0914952  
   0.504974800    -0.0359344   -0.0903702  
   0.506974700    -0.0439975   -0.0879843  
   0.508974600    -0.0520069   -0.0844568  
   0.510974500    -0.0595693   -0.0798689  
   0.512974400    -0.0662162   -0.0743060  
   0.514974300    -0.0718435   -0.0676355  
   0.516974200    -0.0764517   -0.0603853  
   0.518974100    -0.0798825   -0.0525410  
   0.520974000    -0.0820921   -0.0440975  
   0.522973900    -0.0829750   -0.0355593  
   0.524973800    -0.0826443   -0.0271688  
   0.526973700    -0.0811062   -0.0189454  
   0.528973600    -0.0783376   -0.0111631  
   0.530973500    -0.0745148   -0.0038892  
   0.532973400    -0.0696692    0.0026006  
   0.534973300    -0.0639597    0.0082523  
   0.536973200    -0.0575612    0.0129674  
   0.538973100    -0.0505246    0.0166428  
   0.540973000    -0.0431225    0.0192533  
   0.542972900    -0.0355026    0.0207297  
   0.544972800    -0.0277809    0.0210631  
   0.546972700    -0.0201877    0.0202218  
   0.548972600    -0.0128281    0.0182437  
   0.550972500    -0.0058558    0.0151869  
   0.552972400     0.0005063    0.0110520  
   0.554972300     0.0062106    0.0059655  
   0.556972200     0.0110427   -0.0000175  
   0.558972100     0.0150390   -0.0067023  
   0.560972000     0.0180073   -0.0138982  
   0.562971900     0.0197446   -0.0215160  
   0.564971800     0.0204584   -0.0294648  
   0.566971700     0.0198083   -0.0373109  
   0.568971600     0.0180118   -0.0450229  
   0.570971500     0.0150022   -0.0524307  
   0.572971400     0.0108242   -0.0594336  
   0.574971300     0.0053991   -0.0658522  
   0.576971200    -0.0010837   -0.0715777  
   0.578971100    -0.0083493   -0.0764480  
   0.580971000    -0.0163355   -0.0802419  
   0.582970900    -0.0248680   -0.0827838  
   0.584970800    -0.0337627   -0.0840404  
   0.586970700    -0.0428550   -0.0839451  
   0.588970600    -0.0520735   -0.0824846  
   0.590970500    -0.0610296   -0.0796787  
   0.592970400    -0.0696279   -0.0755981  
   0.594970300    -0.0777243   -0.0704027  
   0.596970200    -0.0850531   -0.0640631  
   0.598970100    -0.0914941   -0.0566771  
   0.600970000    -0.0969810   -0.0483770  
   0.602969900    -0.1012923   -0.0392939  
   0.604969800    -0.1044269   -0.0296254  
   0.606969700    -0.1062299   -0.0194984  
   0.608969600    -0.1066340   -0.0091140  
   0.610969500    -0.1056120    0.0013309  
   0.612969400    -0.1031329    0.0115834  
   0.614969300    -0.0992256    0.0214195  
   0.616969200    -0.0940909    0.0306918  
   0.618969100    -0.0877607    0.0391909  
   0.620969000    -0.0803903    0.0468027  
   0.622968900    -0.0719864    0.0533476  
   0.624968800    -0.0628087    0.0587251  
   0.626968700    -0.0529412    0.0627421  
   0.628968600    -0.0426556    0.0655650  
   0.630968500    -0.0319859    0.0670568  
   0.632968400    -0.0213703    0.0668167  
   0.634968300    -0.0108968    0.0652379  
   0.636968200    -0.0007307    0.0620865  
   0.638968100     0.0089464    0.0575057  
   0.640968000     0.0179266    0.0516851  
   0.642967900     0.0258120    0.0448144  
   0.644967800     0.0325974    0.0369643  
   0.646967700     0.0381657    0.0283169  
   0.648967600     0.0424015    0.0190901  
   0.650967500     0.0452123    0.0094942  
   0.652967400     0.0466507   -0.0003206  
   0.654967300     0.0466944   -0.0102594  
   0.656967200     0.0453573   -0.0198733  
   0.658967100     0.0424981   -0.0292232  
   0.660967000     0.0383608   -0.0379820  
   0.662966900     0.0330741   -0.0459904  
   0.664966800     0.0267318   -0.0531357  
   0.666966700     0.0194721   -0.0592927  
   0.668966600     0.0114245   -0.0642490  
   0.670966500     0.0025322   -0.0679677  
   0.672966400    -0.0062999   -0.0703528  
   0.674966300    -0.0153660   -0.0712734  
   0.676966200    -0.0243566   -0.0707560  
   0.678966100    -0.0330854   -0.0688734  
   0.680966000    -0.0413544   -0.0657062  
   0.682965900    -0.0489834   -0.0613663  
   0.684965800    -0.0558223   -0.0559294  
   0.686965700    -0.0617370   -0.0495564  
   0.688965600    -0.0665814   -0.0424171  
   0.690965500    -0.0702889   -0.0347787  
   0.692965400    -0.0727242   -0.0266823  
   0.694965300    -0.0738791   -0.0183748  
   0.696965200    -0.0737713   -0.0100416  
   0.698965100    -0.0723444   -0.0018567  
   0.700965000    -0.0696217    0.0058874  
   0.702964900    -0.0657946    0.0132255  
   0.704964800    -0.0609097    0.0198851  
   0.706964700    -0.0550443    0.0255211  
   0.708964600    -0.0481141    0.0303040  
   0.710964500    -0.0407750    0.0340075  
   0.712964400    -0.0329478    0.0362981  
   0.714964300    -0.0248322    0.0373085  
   0.716964200    -0.0167564    0.0371020  
   0.718964100    -0.0088822    0.0356500  
   0.720964000    -0.0014623    0.0330498  
   0.722963900     0.0055001    0.0292594  
   0.724963800     0.0118792    0.0243535  
   0.726963700     0.0173511    0.0186886  
   0.728963600     0.0218812    0.0123598  
   0.730963500     0.0252093    0.0051449  
   0.732963400     0.0274237   -0.0023295  
   0.734963300     0.0286154   -0.0101340  
   0.736963200     0.0291808   -0.0191752  
   0.738963100     0.0281769   -0.0280798  
   0.740963000     0.0256420   -0.0366379  
   0.742962900     0.0216494   -0.0445897  
   0.744962800     0.0162307   -0.0516327  
   0.746962700     0.0099076   -0.0574363  
   0.748962600     0.0027524   -0.0621042  
   0.750962500     0.0001186   -0.0602231  
   0.752962400    -0.0072285   -0.0645361  
   0.754962300    -0.0152549   -0.0674440  
   0.756962200    -0.0237476   -0.0688293  
   0.758962100    -0.0324388   -0.0686837  
   0.760962000    -0.0410663   -0.0669702  
   0.762961900    -0.0491960   -0.0640207  
   0.764961800    -0.0565895   -0.0603756  
   0.766961700    -0.0634309   -0.0557113  
   0.768961600    -0.0695527   -0.0500852  
   0.770961500    -0.0748845   -0.0436381  
   0.772961400    -0.0792541   -0.0365182  
   0.774961300    -0.0827358   -0.0287820  
   0.776961200    -0.0850917   -0.0205261  
   0.778961100    -0.0861250   -0.0121112  
   0.780961000    -0.0859488   -0.0037528  
   0.782960900    -0.0844856    0.0045142  
   0.784960800    -0.0817117    0.0125149  
   0.786960700    -0.0777125    0.0200422  
   0.788960600    -0.0726981    0.0268803  
   0.790960500    -0.0665725    0.0331102  
   0.792960400    -0.0597510    0.0381822  
   0.794960300    -0.0521709    0.0421490  
   0.796960200    -0.0442709    0.0449627  
   0.798960100    -0.0360354    0.0464911  
   0.800960000    -0.0275996    0.0467250  
   0.802959900    -0.0193379    0.0456725  
   0.804959800    -0.0114932    0.0434435  
   0.806959700    -0.0042822    0.0399525  
   0.808959600     0.0024522    0.0353730  
   0.810959500     0.0083153    0.0297997  
   0.812959400     0.0133016    0.0233686  
   0.814959300     0.0171443    0.0161603  
   0.816959200     0.0198295    0.0084196  
   0.818959100     0.0214124    0.0001764  
   0.820959000     0.0215593   -0.0080880  
   0.822958900     0.0203861   -0.0163076  
   0.824958800     0.0179134   -0.0243929  
   0.826958700     0.0141897   -0.0320841  
   0.828958600     0.0092706   -0.0389829  
   0.830958500     0.0032920   -0.0450858  
   0.832958400    -0.0036681   -0.0502268  
   0.834958300    -0.0114249   -0.0542821  
   0.836958200    -0.0197929   -0.0571129  
   0.838958100    -0.0285913   -0.0586585  
   0.840958000    -0.0376124   -0.0588806  
   0.842957900    -0.0466364   -0.0577131  
   0.844957800    -0.0555316   -0.0550933  
   0.846957700    -0.0640053   -0.0511450  
   0.848957600    -0.0717851   -0.0459931  
   0.850957500    -0.0788336   -0.0396878  
   0.852957400    -0.0849958   -0.0322381  
   0.854957300    -0.0899598   -0.0238657  
   0.856957200    -0.0936628   -0.0149422  
   0.858957100    -0.0960758   -0.0055168  
   0.860957000    -0.0971163    0.0041734  
   0.862956900    -0.0968022    0.0138828  
   0.864956800    -0.0953174    0.0233793  
   0.866956700    -0.0925535    0.0324749  
   0.868956600    -0.0885054    0.0410603  
   0.870956500    -0.0833587    0.0489467  
   0.872956400    -0.0770278    0.0562247  
   0.874956300    -0.0697823    0.0624482  
   0.876956200    -0.0616040    0.0676293  
   0.878956100    -0.0527746    0.0715234  
   0.880956000    -0.0434011    0.0741431  
   0.882955900    -0.0338343    0.0754242  
   0.884955800    -0.0242131    0.0752856  
   0.886955700    -0.0145955    0.0738420  
   0.888955600    -0.0054000    0.0710169  
   0.890955500     0.0030848    0.0669497  
   0.892955400     0.0107794    0.0617284  
   0.894955300     0.0175271    0.0554683  
