! MS46122B
! 2250307/22442219
! 7/22/2025 3:12:29 PM
! C:\USERS\SPARKY\DOCUMENTS\VNA_DATA\JULY22_2025\295\ECAL_LOAD_B.S1P
! CHANNEL.1
! TR.MEASUREMENT
! RAW.DATA
# GHZ S RI R 50.0
! FREQ.GHZ         S11RE         S11IM         
!; PortSelection: Port_1
   0.001000000     1.0451190   -0.0725465  
   0.002999900     0.9524615   -0.1948908  
   0.004999800     0.8768600   -0.2788993  
   0.006999700     0.7916799   -0.3681906  
   0.008999600     0.7000555   -0.4062129  
   0.010999500     0.6232904   -0.4312948  
   0.012999400     0.5568931   -0.4455557  
   0.014999300     0.5003648   -0.4523402  
   0.016999200     0.4515457   -0.4531204  
   0.018999100     0.4107625   -0.4497427  
   0.020999000     0.3769634   -0.4439644  
   0.022998900     0.3480743   -0.4369639  
   0.024998800     0.3180562   -0.4079879  
   0.026998700     0.3017448   -0.4207830  
   0.028998600     0.2825603   -0.4122593  
   0.030998500     0.2650946   -0.4037542  
   0.032998400     0.2451982   -0.3778109  
   0.034998300     0.2332309   -0.3872782  
   0.036998200     0.2188253   -0.3793064  
   0.038998100     0.2051784   -0.3717351  
   0.040998000     0.1920869   -0.3643608  
   0.042997900     0.1794658   -0.3572350  
   0.044997800     0.1659952   -0.3358784  
   0.046997700     0.1547069   -0.3437093  
   0.048997600     0.1433397   -0.3370454  
   0.050997500     0.1325203   -0.3304401  
   0.052997400     0.1221879   -0.3239158  
   0.054997300     0.1128223   -0.3171231  
   0.056997200     0.1029415   -0.3112094  
   0.058997100     0.0941403   -0.3050058  
   0.060997000     0.0856823   -0.2989979  
   0.062996900     0.0779286   -0.2930675  
   0.064996800     0.0707205   -0.2871715  
   0.066996700     0.0639977   -0.2813498  
   0.068996600     0.0577190   -0.2755580  
   0.070996500     0.0519104   -0.2700413  
   0.072996400     0.0464981   -0.2642688  
   0.074996300     0.0414541   -0.2585219  
   0.076996200     0.0368063   -0.2527713  
   0.078996100     0.0324782   -0.2470383  
   0.080996000     0.0283516   -0.2413465  
   0.082995900     0.0245024   -0.2357195  
   0.084995800     0.0208368   -0.2297774  
   0.086995700     0.0176461   -0.2241951  
   0.088995600     0.0147355   -0.2186951  
   0.090995500     0.0121097   -0.2132799  
   0.092995400     0.0097931   -0.2081783  
   0.094995300     0.0077159   -0.2029576  
   0.096995200     0.0058277   -0.1977687  
   0.098995100     0.0041993   -0.1927968  
   0.100995000     0.0016601   -0.1888895  
   0.102994900     0.0003934   -0.1842643  
   0.104994800    -0.0004764   -0.1798792  
   0.106994700    -0.0011377   -0.1755533  
   0.108994600    -0.0016183   -0.1715645  
   0.110994500    -0.0019305   -0.1678370  
   0.112994400    -0.0020897   -0.1643557  
   0.114994300    -0.0021031   -0.1610894  
   0.116994200    -0.0020092   -0.1580610  
   0.118994100    -0.0018134   -0.1552735  
   0.120994000    -0.0014719   -0.1526709  
   0.122993900    -0.0013116   -0.1502514  
   0.124993800    -0.0010642   -0.1481867  
   0.126993700    -0.0008779   -0.1463019  
   0.128993600    -0.0007352   -0.1446408  
   0.130993500    -0.0006646   -0.1432138  
   0.132993400    -0.0006768   -0.1419429  
   0.134993300    -0.0008487   -0.1408355  
   0.136993200    -0.0011278   -0.1398351  
   0.138993100    -0.0016177   -0.1389361  
   0.140993000    -0.0022478   -0.1381039  
   0.142992900    -0.0030769   -0.1373285  
   0.144992800    -0.0040211   -0.1366869  
   0.146992700    -0.0052295   -0.1359126  
   0.148992600    -0.0065723   -0.1350953  
   0.150992500    -0.0079990   -0.1340327  
   0.152992400    -0.0096606   -0.1329752  
   0.154992300    -0.0113977   -0.1317835  
   0.156992200    -0.0132679   -0.1303950  
   0.158992100    -0.0151682   -0.1288216  
   0.160992000    -0.0171233   -0.1270360  
   0.162991900    -0.0190643   -0.1250090  
   0.164991800    -0.0209673   -0.1227419  
   0.166991700    -0.0227654   -0.1202466  
   0.168991600    -0.0244782   -0.1174782  
   0.170991500    -0.0260618   -0.1144776  
   0.172991400    -0.0273551   -0.1113070  
   0.174991300    -0.0283943   -0.1079292  
   0.176991200    -0.0291767   -0.1043857  
   0.178991100    -0.0296456   -0.1006966  
   0.180991000    -0.0297649   -0.0969756  
   0.182990900    -0.0295198   -0.0931277  
   0.184990800    -0.0288560   -0.0893094  
   0.186990700    -0.0277977   -0.0855402  
   0.188990600    -0.0245724   -0.0824185  
   0.190990500    -0.0242503   -0.0783861  
   0.192990400    -0.0222163   -0.0750252  
   0.194990300    -0.0195888   -0.0720162  
   0.196990200    -0.0166124   -0.0693739  
   0.198990100    -0.0133402   -0.0671030  
   0.200990000    -0.0098251   -0.0652454  
   0.202989900    -0.0061038   -0.0638491  
   0.204989800    -0.0022410   -0.0629684  
   0.206989700     0.0016723   -0.0626188  
   0.208989600     0.0056572   -0.0628096  
   0.210989500     0.0095587   -0.0635366  
   0.212989400     0.0133543   -0.0647970  
   0.214989300     0.0169585   -0.0665671  
   0.216989200     0.0202812   -0.0688387  
   0.218989100     0.0232438   -0.0715630  
   0.220989000     0.0258410   -0.0747230  
   0.222988900     0.0279676   -0.0782436  
   0.224988800     0.0295779   -0.0820854  
   0.226988700     0.0306411   -0.0861698  
   0.228988600     0.0312067   -0.0904097  
   0.230988500     0.0311521   -0.0947480  
   0.232988400     0.0305328   -0.0990237  
   0.234988300     0.0292809   -0.1033149  
   0.236988200     0.0274512   -0.1074524  
   0.238988100     0.0250661   -0.1113855  
   0.240988000     0.0222287   -0.1150370  
   0.242987900     0.0189513   -0.1183293  
   0.244987800     0.0152702   -0.1212249  
   0.246987700     0.0111534   -0.1236384  
   0.248987600     0.0067490   -0.1256294  
   0.250987500     0.0021270   -0.1270586  
   0.252987400    -0.0026144   -0.1279588  
   0.254987300    -0.0073599   -0.1283358  
   0.256987200    -0.0120670   -0.1282220  
   0.258987100    -0.0166919   -0.1274411  
   0.260987000    -0.0211590   -0.1260872  
   0.262986900    -0.0253787   -0.1242906  
   0.264986800    -0.0293250   -0.1220152  
   0.266986700    -0.0328856   -0.1193664  
   0.268986600    -0.0360456   -0.1163990  
   0.270986500    -0.0386592   -0.1132431  
   0.272986400    -0.0408049   -0.1099645  
   0.274986300    -0.0424839   -0.1066493  
   0.276986200    -0.0437039   -0.1032783  
   0.278986100    -0.0444199   -0.0999321  
   0.280986000    -0.0446357   -0.0967173  
   0.282985900    -0.0444693   -0.0936624  
   0.284985800    -0.0438640   -0.0909559  
   0.286985700    -0.0429171   -0.0885450  
   0.288985600    -0.0416722   -0.0867174  
   0.290985500    -0.0401887   -0.0853864  
   0.292985400    -0.0385966   -0.0845901  
   0.294985300    -0.0370557   -0.0843623  
   0.296985200    -0.0356454   -0.0846269  
   0.298985100    -0.0345095   -0.0853463  
   0.300985000    -0.0337091   -0.0865779  
   0.302984900    -0.0333585   -0.0882623  
   0.304984800    -0.0335527   -0.0904547  
   0.306984700    -0.0343652   -0.0929311  
   0.308984600    -0.0358713   -0.0957509  
   0.310984500    -0.0381738   -0.0985710  
   0.312984400    -0.0414352   -0.1012663  
   0.314984300    -0.0456590   -0.1036160  
   0.316984200    -0.0509168   -0.1053627  
   0.318984100    -0.0572884   -0.1060728  
   0.320984000    -0.0645198   -0.1053965  
   0.322983900    -0.0721934   -0.1029741  
   0.324983800    -0.0797657   -0.0985271  
   0.326983700    -0.0865278   -0.0920544  
   0.328983600    -0.0917031   -0.0839151  
   0.330983500    -0.0945957   -0.0748137  
   0.332983400    -0.0949565   -0.0658282  
   0.334983300    -0.0932521   -0.0577462  
   0.336983200    -0.0901602   -0.0512834  
   0.338983100    -0.0866287   -0.0464186  
   0.340983000    -0.0831742   -0.0430310  
   0.342982900    -0.0803417   -0.0405667  
   0.344982800    -0.0781504   -0.0385550  
   0.346982700    -0.0766717   -0.0364994  
   0.348982600    -0.0753715   -0.0342151  
   0.350982500    -0.0746141   -0.0316741  
   0.352982400    -0.0738674   -0.0289582  
   0.354982300    -0.0731636   -0.0254814  
   0.356982200    -0.0724005   -0.0205702  
   0.358982100    -0.0710241   -0.0156715  
   0.360982000    -0.0689944   -0.0108982  
   0.362981900    -0.0664017   -0.0063731  
   0.364981800    -0.0631299   -0.0021154  
   0.366981700    -0.0593101    0.0016271  
   0.368981600    -0.0549224    0.0049080  
   0.370981500    -0.0501857    0.0074725  
   0.372981400    -0.0452538    0.0092997  
   0.374981300    -0.0401570    0.0103252  
   0.376981200    -0.0391329    0.0001576  
   0.378981100    -0.0342278    0.0012768  
   0.380981000    -0.0293696    0.0015206  
   0.382980900    -0.0247402    0.0006303  
   0.384980800    -0.0204451   -0.0010356  
   0.386980700    -0.0164628   -0.0032755  
   0.388980600    -0.0129488   -0.0060463  
   0.390980500    -0.0098943   -0.0093256  
   0.392980400    -0.0073738   -0.0130446  
   0.394980300    -0.0054526   -0.0170498  
   0.396980200    -0.0042111   -0.0212603  
   0.398980100    -0.0036390   -0.0255474  
   0.400980000    -0.0037159   -0.0298027  
   0.402979900    -0.0045185   -0.0339465  
   0.404979800    -0.0059056   -0.0378614  
   0.406979700    -0.0079068   -0.0414583  
   0.408979600    -0.0104206   -0.0446140  
   0.410979500    -0.0135172   -0.0472512  
   0.412979400    -0.0170582   -0.0493656  
   0.414979300    -0.0209173   -0.0507158  
   0.416979200    -0.0250279   -0.0513690  
   0.418979100    -0.0291986   -0.0513144  
   0.420979000    -0.0333634   -0.0505576  
   0.422978900    -0.0374088   -0.0490624  
   0.424978800    -0.0413094   -0.0468718  
   0.426978700    -0.0448708   -0.0440107  
   0.428978600    -0.0479384   -0.0405505  
   0.430978500    -0.0504096   -0.0365599  
   0.432978400    -0.0521619   -0.0320650  
   0.434978300    -0.0531788   -0.0272247  
   0.436978200    -0.0535080   -0.0222831  
   0.438978100    -0.0530304   -0.0171867  
   0.440978000    -0.0517736   -0.0121112  
   0.442977900    -0.0497122   -0.0071830  
   0.444977800    -0.0468617   -0.0024710  
   0.446977700    -0.0432384    0.0018562  
   0.448977600    -0.0389376    0.0056885  
   0.450977500    -0.0339845    0.0089005  
   0.452977400    -0.0285168    0.0114510  
   0.454977300    -0.0226422    0.0132517  
   0.456977200    -0.0164599    0.0141872  
   0.458977100    -0.0101079    0.0141897  
   0.460977000    -0.0036412    0.0132384  
   0.462976900     0.0027277    0.0113244  
   0.464976800     0.0088149    0.0084613  
   0.466976700     0.0145035    0.0046595  
   0.468976600     0.0196835   -0.0000244  
   0.470976500     0.0242023   -0.0054823  
   0.472976400     0.0279192   -0.0116469  
   0.474976300     0.0307737   -0.0183667  
   0.476976200     0.0326836   -0.0255167  
   0.478976100     0.0336598   -0.0330794  
   0.480976000     0.0336521   -0.0407265  
   0.482975900     0.0325618   -0.0481994  
   0.484975800     0.0304017   -0.0555430  
   0.486975700     0.0271871   -0.0625963  
   0.488975600     0.0229034   -0.0693255  
   0.490975500     0.0176934   -0.0754242  
   0.492975400     0.0117317   -0.0806911  
   0.494975300     0.0049534   -0.0850943  
   0.496975200    -0.0025254   -0.0885481  
   0.498975100    -0.0103646   -0.0908935  
   0.500975000    -0.0185310   -0.0921359  
   0.502974900    -0.0268194   -0.0922281  
   0.504974800    -0.0351609   -0.0910781  
   0.506974700    -0.0433431   -0.0887493  
   0.508974600    -0.0514294   -0.0852539  
   0.510974500    -0.0591506   -0.0806761  
   0.512974400    -0.0658875   -0.0750549  
   0.514974300    -0.0716029   -0.0683260  
   0.516974200    -0.0762826   -0.0610212  
   0.518974100    -0.0797990   -0.0531546  
   0.520974000    -0.0820403   -0.0446185  
   0.522973900    -0.0829950   -0.0359815  
   0.524973800    -0.0827300   -0.0274918  
   0.526973700    -0.0811893   -0.0191935  
   0.528973600    -0.0784436   -0.0113146  
   0.530973500    -0.0746414   -0.0039644  
   0.532973400    -0.0697942    0.0026428  
   0.534973300    -0.0640755    0.0083987  
   0.536973200    -0.0576299    0.0132173  
   0.538973100    -0.0505700    0.0169980  
   0.540973000    -0.0430914    0.0196927  
   0.542972900    -0.0353971    0.0212554  
   0.544972800    -0.0275882    0.0216922  
   0.546972700    -0.0199001    0.0209004  
   0.548972600    -0.0124238    0.0189784  
   0.550972500    -0.0053403    0.0159407  
   0.552972400     0.0011570    0.0118283  
   0.554972300     0.0069754    0.0067417  
   0.556972200     0.0119457    0.0007424  
   0.558972100     0.0160622   -0.0059967  
   0.560972000     0.0191438   -0.0132649  
   0.562971900     0.0210236   -0.0209714  
   0.564971800     0.0217988   -0.0289938  
   0.566971700     0.0212446   -0.0369354  
   0.568971600     0.0194678   -0.0447746  
   0.570971500     0.0165160   -0.0523076  
   0.572971400     0.0123431   -0.0594319  
   0.574971300     0.0069179   -0.0659851  
   0.576971200     0.0003966   -0.0718366  
   0.578971100    -0.0069132   -0.0768492  
   0.580971000    -0.0149893   -0.0807174  
   0.582970900    -0.0235683   -0.0833775  
   0.584970800    -0.0325395   -0.0847108  
   0.586970700    -0.0416916   -0.0847045  
   0.588970600    -0.0510743   -0.0832785  
   0.590970500    -0.0601431   -0.0805077  
   0.592970400    -0.0688678   -0.0764455  
   0.594970300    -0.0770790   -0.0712537  
   0.596970200    -0.0845334   -0.0648989  
   0.598970100    -0.0910994   -0.0574668  
   0.600970000    -0.0966787   -0.0491250  
   0.602969900    -0.1011064   -0.0399785  
   0.604969800    -0.1042977   -0.0302061  
   0.606969700    -0.1061780   -0.0199858  
   0.608969600    -0.1066448   -0.0095000  
   0.610969500    -0.1056590    0.0010509  
   0.612969400    -0.1031980    0.0114260  
   0.614969300    -0.0992892    0.0214041  
   0.616969200    -0.0941411    0.0307801  
   0.618969100    -0.0877711    0.0393925  
   0.620969000    -0.0803536    0.0471044  
   0.622968900    -0.0719118    0.0537781  
   0.624968800    -0.0626400    0.0592185  
   0.626968700    -0.0526718    0.0633265  
   0.628968600    -0.0422813    0.0662039  
   0.630968500    -0.0314990    0.0677778  
   0.632968400    -0.0207790    0.0675896  
   0.634968300    -0.0101661    0.0660089  
   0.636968200     0.0001120    0.0628705  
   0.638968100     0.0099433    0.0582382  
   0.640968000     0.0190197    0.0523039  
   0.642967900     0.0270012    0.0454257  
   0.644967800     0.0338774    0.0374767  
   0.646967700     0.0395358    0.0287204  
   0.648967600     0.0438351    0.0193923  
   0.650967500     0.0467290    0.0096684  
   0.652967400     0.0481410   -0.0002236  
   0.654967300     0.0482314   -0.0103135  
   0.656967200     0.0468709   -0.0200260  
   0.658967100     0.0440041   -0.0294758  
   0.660967000     0.0398264   -0.0383770  
   0.662966900     0.0344878   -0.0464875  
   0.664966800     0.0280685   -0.0537587  
   0.666966700     0.0207255   -0.0599873  
   0.668966600     0.0126179   -0.0649972  
   0.670966500     0.0036250   -0.0688054  
   0.672966400    -0.0053676   -0.0712217  
   0.674966300    -0.0145644   -0.0721402  
   0.676966200    -0.0236734   -0.0716239  
   0.678966100    -0.0325207   -0.0697129  
   0.680966000    -0.0408892   -0.0665335  
   0.682965900    -0.0486120   -0.0621124  
   0.684965800    -0.0555662   -0.0566157  
   0.686965700    -0.0615397   -0.0501665  
   0.688965600    -0.0664505   -0.0429453  
   0.690965500    -0.0701963   -0.0352033  
   0.692965400    -0.0726438   -0.0270003  
   0.694965300    -0.0738403   -0.0185670  
   0.696965200    -0.0737025   -0.0101414  
   0.698965100    -0.0722523   -0.0018625  
   0.700965000    -0.0694733    0.0060143  
   0.702964900    -0.0656125    0.0134366  
   0.704964800    -0.0606489    0.0201683  
   0.706964700    -0.0546950    0.0258926  
   0.708964600    -0.0476634    0.0307214  
   0.710964500    -0.0401748    0.0344386  
   0.712964400    -0.0322748    0.0367676  
   0.714964300    -0.0240417    0.0377771  
   0.716964200    -0.0158874    0.0375767  
   0.718964100    -0.0078820    0.0360876  
   0.720964000    -0.0003672    0.0334513  
   0.722963900     0.0066582    0.0295772  
   0.724963800     0.0131823    0.0246390  
   0.726963700     0.0188048    0.0189360  
   0.728963600     0.0232956    0.0124337  
   0.730963500     0.0266726    0.0050963  
   0.732963400     0.0289500   -0.0024923  
   0.734963300     0.0301373   -0.0104222  
   0.736963200     0.0307116   -0.0196562  
   0.738963100     0.0296619   -0.0286927  
   0.740963000     0.0270857   -0.0373795  
   0.742962900     0.0230056   -0.0455122  
   0.744962800     0.0175232   -0.0526898  
   0.746962700     0.0110276   -0.0586214  
   0.748962600     0.0037341   -0.0633779  
   0.750962500     0.0013473   -0.0612405  
   0.752962400    -0.0061266   -0.0656434  
   0.754962300    -0.0143055   -0.0686391  
   0.756962200    -0.0229570   -0.0700956  
   0.758962100    -0.0317989   -0.0699745  
   0.760962000    -0.0406088   -0.0682657  
   0.762961900    -0.0488910   -0.0653018  
   0.764961800    -0.0564080   -0.0616015  
   0.766961700    -0.0633611   -0.0568521  
   0.768961600    -0.0695919   -0.0511484  
   0.770961500    -0.0749850   -0.0445889  
   0.772961400    -0.0794543   -0.0373751  
   0.774961300    -0.0829576   -0.0295297  
   0.776961200    -0.0853556   -0.0211487  
   0.778961100    -0.0864105   -0.0126196  
   0.780961000    -0.0862077   -0.0041390  
   0.782960900    -0.0847195    0.0042498  
   0.784960800    -0.0818964    0.0123731  
   0.786960700    -0.0778601    0.0199821  
   0.788960600    -0.0727447    0.0269345  
   0.790960500    -0.0665326    0.0332452  
   0.792960400    -0.0595953    0.0383781  
   0.794960300    -0.0519081    0.0423925  
   0.796960200    -0.0438877    0.0452152  
   0.798960100    -0.0355366    0.0467839  
   0.800960000    -0.0270031    0.0469772  
   0.802959900    -0.0186191    0.0458975  
   0.804959800    -0.0106762    0.0435947  
   0.806959700    -0.0033396    0.0400624  
   0.808959600     0.0034551    0.0354007  
   0.810959500     0.0093790    0.0297206  
   0.812959400     0.0144412    0.0231793  
   0.814959300     0.0183068    0.0158720  
   0.816959200     0.0210038    0.0080221  
   0.818959100     0.0226140   -0.0003609  
   0.820959000     0.0227192   -0.0087366  
   0.822958900     0.0214969   -0.0170766  
   0.824958800     0.0189945   -0.0253096  
   0.826958700     0.0152005   -0.0330429  
   0.828958600     0.0101925   -0.0400484  
   0.830958500     0.0041053   -0.0462406  
   0.832958400    -0.0029574   -0.0514217  
   0.834958300    -0.0108477   -0.0555255  
   0.836958200    -0.0193390   -0.0583838  
   0.838958100    -0.0282598   -0.0599313  
   0.840958000    -0.0374052   -0.0601330  
   0.842957900    -0.0465497   -0.0589435  
   0.844957800    -0.0555419   -0.0562556  
   0.846957700    -0.0641214   -0.0522507  
   0.848957600    -0.0720049   -0.0469774  
   0.850957500    -0.0791194   -0.0405967  
   0.852957400    -0.0853874   -0.0330346  
   0.854957300    -0.0903475   -0.0245087  
   0.856957200    -0.0940898   -0.0154571  
   0.858957100    -0.0965079   -0.0059204  
   0.860957000    -0.0975503    0.0038751  
   0.862956900    -0.0972160    0.0137020  
   0.864956800    -0.0956780    0.0233191  
   0.866956700    -0.0928359    0.0325492  
   0.868956600    -0.0887085    0.0411641  
   0.870956500    -0.0834516    0.0491802  
   0.872956400    -0.0770087    0.0564867  
   0.874956300    -0.0696578    0.0627876  
   0.876956200    -0.0613490    0.0679909  
   0.878956100    -0.0523957    0.0719088  
   0.880956000    -0.0428681    0.0745389  
   0.882955900    -0.0331490    0.0757822  
   0.884955800    -0.0233922    0.0756293  
   0.886955700    -0.0136618    0.0740701  
   0.888955600    -0.0043610    0.0711978  
   0.890955500     0.0041898    0.0670071  
   0.892955400     0.0120052    0.0616977  
   0.894955300     0.0188377    0.0553152  
