! MS46122B
! 2250307/22442219
! 7/24/2025 12:33:41 PM
! C:\USERS\SPARKY\DOCUMENTS\VNA_DATA\JULY24_2025\295K\ECAL_OPEN.S1P
! CHANNEL.1
! TR.MEASUREMENT
! RAW.DATA
# GHZ S RI R 50.0
! FREQ.GHZ         S11RE         S11IM         
!; PortSelection: Port_1
   0.001000000     1.0450210   -0.0729743  
   0.002999900     0.9473628   -0.2224377  
   0.004999800     0.8096167   -0.0912370  
   0.006999700     0.5252716   -0.4058372  
   0.008999600     0.9394531    0.0020636  
   0.010999500     0.9259756   -0.2259534  
   0.012999400     0.8864907   -0.3347858  
   0.014999300     0.8467522   -0.4166306  
   0.016999200     0.8067671   -0.4872511  
   0.018999100     0.7641611   -0.5526542  
   0.020999000     0.7176859   -0.6134896  
   0.022998900     0.6660475   -0.6691993  
   0.024998800     0.6002641   -0.6850297  
   0.026998700     0.5469516   -0.7669662  
   0.028998600     0.4779194   -0.8081734  
   0.030998500     0.4022383   -0.8430110  
   0.032998400     0.3222123   -0.8362994  
   0.034998300     0.2297075   -0.8899935  
   0.036998200     0.1336134   -0.8992682  
   0.038998100     0.0316092   -0.8971215  
   0.040998000    -0.0752607   -0.8809724  
   0.042997900    -0.1855730   -0.8497658  
   0.044997800    -0.2748230   -0.7789880  
   0.046997700    -0.4076698   -0.7308494  
   0.048997600    -0.5126303   -0.6398518  
   0.050997500    -0.6076761   -0.5245885  
   0.052997400    -0.6857713   -0.3846704  
   0.054997300    -0.7388903   -0.2213738  
   0.056997200    -0.7574627   -0.0365220  
   0.058997100    -0.7317256    0.1588334  
   0.060997000    -0.6553797    0.3518961  
   0.062996900    -0.5269498    0.5261918  
   0.064996800    -0.3525840    0.6635122  
   0.066996700    -0.1465411    0.7500021  
   0.068996600     0.0722120    0.7773349  
   0.070996500     0.2850751    0.7478328  
   0.072996400     0.4751486    0.6684182  
   0.074996300     0.6313572    0.5522122  
   0.076996200     0.7497413    0.4123561  
   0.078996100     0.8301100    0.2611861  
   0.080996000     0.8753077    0.1071667  
   0.082995900     0.8901998   -0.0422514  
   0.084995800     0.8785241   -0.1819586  
   0.086995700     0.8470151   -0.3101683  
   0.088995600     0.7984898   -0.4257256  
   0.090995500     0.7371197   -0.5274630  
   0.092995400     0.6663994   -0.6167833  
   0.094995300     0.5863739   -0.6919855  
   0.096995200     0.5006510   -0.7541211  
   0.098995100     0.4099045   -0.8042887  
   0.100995000     0.3158474   -0.8421549  
   0.102994900     0.2195887   -0.8681256  
   0.104994800     0.1219414   -0.8825962  
   0.106994700     0.0236763   -0.8854033  
   0.108994600    -0.0742100   -0.8776370  
   0.110994500    -0.1712257   -0.8587970  
   0.112994400    -0.2657196   -0.8283604  
   0.114994300    -0.3577555   -0.7867473  
   0.116994200    -0.4453504   -0.7337967  
   0.118994100    -0.5271699   -0.6688979  
   0.120994000    -0.6036193   -0.5939701  
   0.122993900    -0.6705610   -0.5064863  
   0.124993800    -0.7271663   -0.4081351  
   0.126993700    -0.7718787   -0.2993285  
   0.128993600    -0.8000351   -0.1817654  
   0.130993500    -0.8127794   -0.0568249  
   0.132993400    -0.8067005    0.0732662  
   0.134993300    -0.7794164    0.2056384  
   0.136993200    -0.7291136    0.3362163  
   0.138993100    -0.6553282    0.4613330  
   0.140993000    -0.5580674    0.5750692  
   0.142992900    -0.4384211    0.6727061  
   0.144992800    -0.2999723    0.7495574  
   0.146992700    -0.1457671    0.7985127  
   0.148992600     0.0174939    0.8173591  
   0.150992500     0.1818175    0.8030345  
   0.152992400     0.3414363    0.7577339  
   0.154992300     0.4881021    0.6828821  
   0.156992200     0.6164500    0.5818857  
   0.158992100     0.7214033    0.4604459  
   0.160992000     0.7997271    0.3240012  
   0.162991900     0.8505256    0.1790889  
   0.164991800     0.8741748    0.0315878  
   0.166991700     0.8719292   -0.1133005  
   0.168991600     0.8459670   -0.2510700  
   0.170991500     0.7992285   -0.3792188  
   0.172991400     0.7345870   -0.4941469  
   0.174991300     0.6561732   -0.5944816  
   0.176991200     0.5657439   -0.6800473  
   0.178991100     0.4663680   -0.7494913  
   0.180991000     0.3616611   -0.8035461  
   0.182990900     0.2522375   -0.8406039  
   0.184990800     0.1405159   -0.8623806  
   0.186990700     0.0286866   -0.8689789  
   0.188990600    -0.0575008   -0.8617997  
   0.190990500    -0.1856734   -0.8381318  
   0.192990400    -0.2922668   -0.8010908  
   0.194990300    -0.3894690   -0.7516583  
   0.196990200    -0.4794930   -0.6904398  
   0.198990100    -0.5608493   -0.6174823  
   0.200990000    -0.6327174   -0.5335801  
   0.202989900    -0.6935147   -0.4393705  
   0.204989800    -0.7418841   -0.3369405  
   0.206989700    -0.7772375   -0.2275184  
   0.208989600    -0.7961812   -0.1123708  
   0.210989500    -0.7986875    0.0074098  
   0.212989400    -0.7834759    0.1289828  
   0.214989300    -0.7494952    0.2495459  
   0.216989200    -0.6967048    0.3658448  
   0.218989100    -0.6250092    0.4748935  
   0.220989000    -0.5344062    0.5733839  
   0.222988900    -0.4265212    0.6578735  
   0.224988800    -0.3035339    0.7249467  
   0.226988700    -0.1687291    0.7710779  
   0.228988600    -0.0266324    0.7929583  
   0.230988500     0.1192394    0.7900023  
   0.232988400     0.2629700    0.7598869  
   0.234988300     0.4007440    0.7058238  
   0.236988200     0.5266825    0.6276283  
   0.238988100     0.6363220    0.5291793  
   0.240988000     0.7261341    0.4135766  
   0.242987900     0.7934366    0.2863603  
   0.244987800     0.8371224    0.1508848  
   0.246987700     0.8570455    0.0123571  
   0.248987600     0.8537388   -0.1254070  
   0.250987500     0.8285137   -0.2583461  
   0.252987400     0.7831464   -0.3823039  
   0.254987300     0.7212712   -0.4945256  
   0.256987200     0.6446068   -0.5937396  
   0.258987100     0.5571672   -0.6796034  
   0.260987000     0.4589581   -0.7493613  
   0.262986900     0.3537998   -0.8037519  
   0.264986800     0.2443142   -0.8422342  
   0.266986700     0.1318085   -0.8646125  
   0.268986600     0.0196546   -0.8717578  
   0.270986500    -0.0902717   -0.8638844  
   0.272986400    -0.1972622   -0.8420362  
   0.274986300    -0.2996885   -0.8067513  
   0.276986200    -0.3962377   -0.7584968  
   0.278986100    -0.4861650   -0.6982703  
   0.280986000    -0.5675139   -0.6264717  
   0.282985900    -0.6392164   -0.5440562  
   0.284985800    -0.7001806   -0.4525625  
   0.286985700    -0.7483587   -0.3529745  
   0.288985600    -0.7829428   -0.2473826  
   0.290985500    -0.8031588   -0.1371613  
   0.292985400    -0.8077239   -0.0230734  
   0.294985300    -0.7960213    0.0925280  
   0.296985200    -0.7669866    0.2083556  
   0.298985100    -0.7190997    0.3216993  
   0.300985000    -0.6528464    0.4287952  
   0.302984900    -0.5682874    0.5257790  
   0.304984800    -0.4662385    0.6088902  
   0.306984700    -0.3490270    0.6744676  
   0.308984600    -0.2201708    0.7184377  
   0.310984500    -0.0838485    0.7381427  
   0.312984400     0.0550025    0.7307127  
   0.314984300     0.1898386    0.6959850  
   0.316984200     0.3135131    0.6347882  
   0.318984100     0.4201704    0.5506797  
   0.320984000     0.5030217    0.4499624  
   0.322983900     0.5601214    0.3404278  
   0.324983800     0.5913894    0.2319950  
   0.326983700     0.6025353    0.1315226  
   0.328983600     0.6006330    0.0422083  
   0.330983500     0.5932853   -0.0361859  
   0.332983400     0.5850696   -0.1083956  
   0.334983300     0.5768996   -0.1802724  
   0.336983200     0.5658968   -0.2565207  
   0.338983100     0.5469176   -0.3387033  
   0.340983000     0.5149103   -0.4252399  
   0.342982900     0.4665563   -0.5113898  
   0.344982800     0.4001914   -0.5929534  
   0.346982700     0.3168423   -0.6645932  
   0.348982600     0.2192174   -0.7202334  
   0.350982500     0.1114454   -0.7598981  
   0.352982400    -0.0023412   -0.7804068  
   0.354982300    -0.1241359   -0.7805858  
   0.356982200    -0.2573901   -0.7549826  
   0.358982100    -0.3831191   -0.7057337  
   0.360982000    -0.4967228   -0.6348254  
   0.362981900    -0.5955836   -0.5460244  
   0.364981800    -0.6774298   -0.4410168  
   0.366981700    -0.7395188   -0.3242505  
   0.368981600    -0.7808475   -0.1989698  
   0.370981500    -0.8005129   -0.0686400  
   0.372981400    -0.7978545    0.0630160  
   0.374981300    -0.7731717    0.1926042  
   0.376981200    -0.8008130    0.0640593  
   0.378981100    -0.7755305    0.1972740  
   0.380981000    -0.7274579    0.3254719  
   0.382980900    -0.6659645    0.4336007  
   0.384980800    -0.5915217    0.5272771  
   0.386980700    -0.5030606    0.6101404  
   0.388980600    -0.4017683    0.6793929  
   0.390980500    -0.2909310    0.7327541  
   0.392980400    -0.1721572    0.7686272  
   0.394980300    -0.0481396    0.7861567  
   0.396980200     0.0781971    0.7836297  
   0.398980100     0.2037848    0.7616870  
   0.400980000     0.3254661    0.7196297  
   0.402979900     0.4400557    0.6576762  
   0.404979800     0.5435562    0.5782239  
   0.406979700     0.6331523    0.4823348  
   0.408979600     0.7059879    0.3728738  
   0.410979500     0.7603503    0.2522929  
   0.412979400     0.7942089    0.1239872  
   0.414979300     0.8051468   -0.0078577  
   0.416979200     0.7952359   -0.1393252  
   0.418979100     0.7641540   -0.2660898  
   0.420979000     0.7131320   -0.3856111  
   0.422978900     0.6440215   -0.4942899  
   0.424978800     0.5589182   -0.5895370  
   0.426978700     0.4606425   -0.6693593  
   0.428978600     0.3524454   -0.7316083  
   0.430978500     0.2378711   -0.7755612  
   0.432978400     0.1196749   -0.8007583  
   0.434978300     0.0007027   -0.8094382  
   0.436978200    -0.1168103   -0.7987080  
   0.438978100    -0.2301873   -0.7709616  
   0.440978000    -0.3372664   -0.7275732  
   0.442977900    -0.4361288   -0.6692870  
   0.444977800    -0.5244562   -0.5978251  
   0.446977700    -0.6014321   -0.5152282  
   0.448977600    -0.6650572   -0.4230393  
   0.450977500    -0.7151182   -0.3226828  
   0.452977400    -0.7508151   -0.2159247  
   0.454977300    -0.7704852   -0.1045580  
   0.456977200    -0.7741612    0.0090518  
   0.458977100    -0.7611955    0.1230145  
   0.460977000    -0.7316514    0.2336677  
   0.462976900    -0.6857457    0.3393512  
   0.464976800    -0.6245105    0.4381040  
   0.466976700    -0.5486717    0.5271513  
   0.468976600    -0.4592061    0.6047108  
   0.470976500    -0.3579653    0.6681009  
   0.472976400    -0.2472243    0.7154426  
   0.474976300    -0.1292860    0.7453358  
   0.476976200    -0.0070808    0.7563671  
   0.478976100     0.1160156    0.7477586  
   0.480976000     0.2364992    0.7193083  
   0.482975900     0.3510787    0.6718225  
   0.484975800     0.4570096    0.6062052  
   0.486975700     0.5513418    0.5237367  
   0.488975600     0.6306752    0.4267432  
   0.490975500     0.6929187    0.3183642  
   0.492975400     0.7363446    0.2015705  
   0.494975300     0.7598074    0.0798102  
   0.496975200     0.7630478   -0.0431749  
   0.498975100     0.7463220   -0.1629434  
   0.500975000     0.7112669   -0.2773000  
   0.502974900     0.6595196   -0.3823103  
   0.504974800     0.5931014   -0.4764177  
   0.506974700     0.5143587   -0.5581709  
   0.508974600     0.4253907   -0.6262538  
   0.510974500     0.3293945   -0.6796095  
   0.512974400     0.2291231   -0.7182068  
   0.514974300     0.1263233   -0.7405400  
   0.516974200     0.0235694   -0.7504507  
   0.518974100    -0.0777763   -0.7466621  
   0.520974000    -0.1770824   -0.7300897  
   0.522973900    -0.2731479   -0.7016631  
   0.524973800    -0.3648964   -0.6605937  
   0.526973700    -0.4515745   -0.6080918  
   0.528973600    -0.5318384   -0.5438883  
   0.530973500    -0.6038414   -0.4677190  
   0.532973400    -0.6652983   -0.3812740  
   0.534973300    -0.7144370   -0.2850814  
   0.536973200    -0.7491951   -0.1810332  
   0.538973100    -0.7679282   -0.0720753  
   0.540973000    -0.7700993    0.0393917  
   0.542972900    -0.7550137    0.1508076  
   0.544972800    -0.7226831    0.2594833  
   0.546972700    -0.6737750    0.3627627  
   0.548972600    -0.6091344    0.4581250  
   0.550972500    -0.5302127    0.5427279  
   0.552972400    -0.4388545    0.6144856  
   0.554972300    -0.3367022    0.6717684  
   0.556972200    -0.2265861    0.7129327  
   0.558972100    -0.1108357    0.7366040  
   0.560972000     0.0072044    0.7420298  
   0.562971900     0.1252302    0.7291991  
   0.564971800     0.2401139    0.6982815  
   0.566971700     0.3488758    0.6497700  
   0.568971600     0.4491693    0.5845912  
   0.570971500     0.5384485    0.5042319  
   0.572971400     0.6141286    0.4100525  
   0.574971300     0.6742997    0.3047445  
   0.576971200     0.7172261    0.1902977  
   0.578971100     0.7410894    0.0698968  
   0.580971000     0.7452956   -0.0523133  
   0.582970900     0.7300017   -0.1738151  
   0.584970800     0.6954893   -0.2904864  
   0.586970700     0.6430994   -0.3991066  
   0.588970600     0.5745560   -0.4980157  
   0.590970500     0.4917876   -0.5841460  
   0.592970400     0.3971206   -0.6559789  
   0.594970300     0.2932193   -0.7116544  
   0.596970200     0.1826924   -0.7499340  
   0.598970100     0.0686160   -0.7709842  
   0.600970000    -0.0467829   -0.7745413  
   0.602969900    -0.1602893   -0.7609288  
   0.604969800    -0.2700322   -0.7304015  
   0.606969700    -0.3734339   -0.6844338  
   0.608969600    -0.4683101   -0.6237796  
   0.610969500    -0.5527351   -0.5503453  
   0.612969400    -0.6252632   -0.4662208  
   0.614969300    -0.6840557   -0.3729079  
   0.616969200    -0.7287940   -0.2731320  
   0.618969100    -0.7587116   -0.1686780  
   0.620969000    -0.7738116   -0.0618612  
   0.622968900    -0.7735027    0.0463918  
   0.624968800    -0.7582420    0.1535581  
   0.626968700    -0.7280849    0.2580231  
   0.628968600    -0.6831090    0.3577650  
   0.630968500    -0.6243404    0.4504116  
   0.632968400    -0.5523325    0.5344843  
   0.634968300    -0.4687636    0.6078845  
   0.636968200    -0.3742731    0.6690713  
   0.638968100    -0.2713824    0.7160854  
   0.640968000    -0.1616094    0.7476823  
   0.642967900    -0.0474835    0.7628323  
   0.644967800     0.0688146    0.7609119  
   0.646967700     0.1842585    0.7412562  
   0.648967600     0.2960455    0.7041280  
   0.650967500     0.4015360    0.6498954  
   0.652967400     0.4974938    0.5801091  
   0.654967300     0.5825602    0.4954343  
   0.656967200     0.6533855    0.3984064  
   0.658967100     0.7082611    0.2909391  
   0.660967000     0.7458961    0.1754436  
   0.662966900     0.7649180    0.0546445  
   0.664966800     0.7645349   -0.0683984  
   0.666966700     0.7443856   -0.1901107  
   0.668966600     0.7049410   -0.3064840  
   0.670966500     0.6477567   -0.4150856  
   0.672966400     0.5753914   -0.5132988  
   0.674966300     0.4883203   -0.5971220  
   0.676966200     0.3900461   -0.6653637  
   0.678966100     0.2835131   -0.7167045  
   0.680966000     0.1714429   -0.7508742  
   0.682965900     0.0567710   -0.7670872  
   0.684965800    -0.0575553   -0.7659913  
   0.686965700    -0.1695575   -0.7476010  
   0.688965600    -0.2763695   -0.7132114  
   0.690965500    -0.3755720   -0.6631267  
   0.692965400    -0.4656153   -0.6007342  
   0.694965300    -0.5452774   -0.5264902  
   0.696965200    -0.6125936   -0.4425642  
   0.698965100    -0.6671924   -0.3499182  
   0.700965000    -0.7077091   -0.2507923  
   0.702964900    -0.7338977   -0.1473120  
   0.704964800    -0.7446759   -0.0412896  
   0.706964700    -0.7405480    0.0654962  
   0.708964600    -0.7207284    0.1707693  
   0.710964500    -0.6862968    0.2728698  
   0.712964400    -0.6367800    0.3689280  
   0.714964300    -0.5731726    0.4571375  
   0.716964200    -0.4970880    0.5350080  
   0.718964100    -0.4101724    0.6010380  
   0.720964000    -0.3142497    0.6535736  
   0.722963900    -0.2109889    0.6912408  
   0.724963800    -0.1025343    0.7127160  
   0.726963700     0.0085206    0.7170222  
   0.728963600     0.1197021    0.7046458  
   0.730963500     0.2274596    0.6739798  
   0.732963400     0.3292016    0.6273378  
   0.734963300     0.4231811    0.5649456  
   0.736963200     0.5180608    0.4763209  
   0.738963100     0.5961653    0.3714129  
   0.740963000     0.6535313    0.2547354  
   0.742962900     0.6887916    0.1304202  
   0.744962800     0.7011030    0.0026756  
   0.746962700     0.6908484   -0.1238981  
   0.748962600     0.6585258   -0.2458657  
   0.750962500     0.6763666   -0.1362874  
   0.752962400     0.6435114   -0.2562663  
   0.754962300     0.5907890   -0.3678976  
   0.756962200     0.5202187   -0.4678686  
   0.758962100     0.4342958   -0.5542218  
   0.760962000     0.3352234   -0.6243520  
   0.762961900     0.2314617   -0.6743803  
   0.764961800     0.1314062   -0.7054815  
   0.766961700     0.0279399   -0.7217548  
   0.768961600    -0.0771021   -0.7229388  
   0.770961500    -0.1813635   -0.7087399  
   0.772961400    -0.2823350   -0.6797295  
   0.774961300    -0.3783720   -0.6359913  
   0.776961200    -0.4674275   -0.5786424  
   0.778961100    -0.5470757   -0.5083427  
   0.780961000    -0.6158519   -0.4265535  
   0.782960900    -0.6717495   -0.3350971  
   0.784960800    -0.7136803   -0.2356311  
   0.786960700    -0.7400214   -0.1307473  
   0.788960600    -0.7505232   -0.0228833  
   0.790960500    -0.7446907    0.0856910  
   0.792960400    -0.7226251    0.1920095  
   0.794960300    -0.6848387    0.2936862  
   0.796960200    -0.6323962    0.3889282  
   0.798960100    -0.5665442    0.4750684  
   0.800960000    -0.4884611    0.5498460  
   0.802959900    -0.3999605    0.6129572  
   0.804959800    -0.3031893    0.6620736  
   0.806959700    -0.1998355    0.6964325  
   0.808959600    -0.0925482    0.7151638  
   0.810959500     0.0165067    0.7173340  
   0.812959400     0.1255254    0.7032728  
   0.814959300     0.2316773    0.6727011  
   0.816959200     0.3324008    0.6264900  
   0.818959100     0.4253376    0.5649871  
   0.820959000     0.5084139    0.4896878  
   0.822958900     0.5790329    0.4018984  
   0.824958800     0.6358755    0.3037870  
   0.826958700     0.6767884    0.1974202  
   0.828958600     0.7005814    0.0858269  
   0.830958500     0.7066947   -0.0288093  
   0.832958400     0.6944676   -0.1429917  
   0.834958300     0.6642143   -0.2537488  
   0.836958200     0.6171293   -0.3581870  
   0.838958100     0.5539717   -0.4541745  
   0.840958000     0.4765176   -0.5389302  
   0.842957900     0.3869095   -0.6099417  
   0.844957800     0.2871979   -0.6661967  
   0.846957700     0.1806445   -0.7057953  
   0.848957600     0.0693219   -0.7279451  
   0.850957500    -0.0433267   -0.7327210  
   0.852957400    -0.1546537   -0.7197901  
   0.854957300    -0.2621595   -0.6902166  
   0.856957200    -0.3631251   -0.6446452  
   0.858957100    -0.4552606   -0.5851318  
   0.860957000    -0.5365853   -0.5131958  
   0.862956900    -0.6056338   -0.4313031  
   0.864956800    -0.6614425   -0.3408294  
   0.866956700    -0.7031408   -0.2441013  
   0.868956600    -0.7298735   -0.1435051  
   0.870956500    -0.7423707   -0.0402661  
   0.872956400    -0.7401074    0.0630729  
   0.874956300    -0.7233123    0.1649835  
   0.876956200    -0.6918677    0.2639751  
   0.878956100    -0.6472033    0.3572453  
   0.880956000    -0.5894648    0.4439232  
   0.882955900    -0.5198544    0.5215069  
   0.884955800    -0.4392758    0.5886517  
   0.886955700    -0.3498924    0.6438773  
   0.888955600    -0.2528042    0.6863973  
   0.890955500    -0.1503126    0.7144315  
   0.892955400    -0.0441215    0.7271609  
   0.894955300     0.0636435    0.7243031  
