! MS46122B
! 2250307/22442219
! 7/22/2025 3:22:10 PM
! C:\USERS\SPARKY\DOCUMENTS\VNA_DATA\JULY22_2025\295\ECAL_OPEN_B_REPEAT1.S1P
! CHANNEL.1
! TR.MEASUREMENT
! RAW.DATA
# GHZ S RI R 50.0
! FREQ.GHZ         S11RE         S11IM         
!; PortSelection: Port_1
   0.001000000     1.0457610   -0.0720808  
   0.002999900     0.9480998   -0.2219242  
   0.004999800     0.8077039   -0.0885909  
   0.006999700     0.5281115   -0.4055636  
   0.008999600     0.9397658    0.0028774  
   0.010999500     0.9265494   -0.2254596  
   0.012999400     0.8872118   -0.3344094  
   0.014999300     0.8474384   -0.4163943  
   0.016999200     0.8075097   -0.4870607  
   0.018999100     0.7648713   -0.5525975  
   0.020999000     0.7183517   -0.6135422  
   0.022998900     0.6667006   -0.6693759  
   0.024998800     0.6008995   -0.6854536  
   0.026998700     0.5475762   -0.7673725  
   0.028998600     0.4784770   -0.8086995  
   0.030998500     0.4026713   -0.8436078  
   0.032998400     0.3224978   -0.8370915  
   0.034998300     0.2300615   -0.8909143  
   0.036998200     0.1336457   -0.9002044  
   0.038998100     0.0314647   -0.8981133  
   0.040998000    -0.0755820   -0.8819041  
   0.042997900    -0.1861288   -0.8507363  
   0.044997800    -0.2756501   -0.7799166  
   0.046997700    -0.4086653   -0.7316085  
   0.048997600    -0.5138169   -0.6404316  
   0.050997500    -0.6090225   -0.5249392  
   0.052997400    -0.6872145   -0.3846437  
   0.054997300    -0.7402123   -0.2212895  
   0.056997200    -0.7588152   -0.0358892  
   0.058997100    -0.7327787    0.1596973  
   0.060997000    -0.6562023    0.3530179  
   0.062996900    -0.5273521    0.5273522  
   0.064996800    -0.3527682    0.6645960  
   0.066996700    -0.1464876    0.7509617  
   0.068996600     0.0724065    0.7780165  
   0.070996500     0.2853000    0.7483842  
   0.072996400     0.4753599    0.6688836  
   0.074996300     0.6315665    0.5526389  
   0.076996200     0.7498667    0.4126838  
   0.078996100     0.8302228    0.2614132  
   0.080996000     0.8753875    0.1075306  
   0.082995900     0.8903499   -0.0418792  
   0.084995800     0.8787395   -0.1816394  
   0.086995700     0.8473185   -0.3098270  
   0.088995600     0.7988416   -0.4254523  
   0.090995500     0.7375428   -0.5273396  
   0.092995400     0.6669222   -0.6166623  
   0.094995300     0.5869455   -0.6919753  
   0.096995200     0.5012229   -0.7542742  
   0.098995100     0.4103247   -0.8045282  
   0.100995000     0.3161801   -0.8425857  
   0.102994900     0.2198367   -0.8686503  
   0.104994800     0.1221276   -0.8832347  
   0.106994700     0.0236175   -0.8861316  
   0.108994600    -0.0742383   -0.8783831  
   0.110994500    -0.1713725   -0.8595738  
   0.112994400    -0.2660455   -0.8291628  
   0.114994300    -0.3582050   -0.7875553  
   0.116994200    -0.4459528   -0.7345937  
   0.118994100    -0.5279073   -0.6696408  
   0.120994000    -0.6044593   -0.5946026  
   0.122993900    -0.6715461   -0.5070590  
   0.124993800    -0.7282600   -0.4085462  
   0.126993700    -0.7731089   -0.2996498  
   0.128993600    -0.8013893   -0.1819388  
   0.130993500    -0.8140627   -0.0568474  
   0.132993400    -0.8080329    0.0734172  
   0.134993300    -0.7806914    0.2059940  
   0.136993200    -0.7304198    0.3367173  
   0.138993100    -0.6564606    0.4619744  
   0.140993000    -0.5590723    0.5758542  
   0.142992900    -0.4392559    0.6735855  
   0.144992800    -0.3006586    0.7504817  
   0.146992700    -0.1463915    0.7995142  
   0.148992600     0.0170348    0.8183104  
   0.150992500     0.1815065    0.8040068  
   0.152992400     0.3411218    0.7586681  
   0.154992300     0.4878539    0.6837860  
   0.156992200     0.6162606    0.5827702  
   0.158992100     0.7212585    0.4613719  
   0.160992000     0.7996712    0.3249144  
   0.162991900     0.8506714    0.1799670  
   0.164991800     0.8744688    0.0322588  
   0.166991700     0.8722473   -0.1124068  
   0.168991600     0.8464409   -0.2502828  
   0.170991500     0.7998056   -0.3782927  
   0.172991400     0.7352501   -0.4935644  
   0.174991300     0.6568820   -0.5940833  
   0.176991200     0.5665314   -0.6797608  
   0.178991100     0.4671561   -0.7493877  
   0.180991000     0.3626322   -0.8034688  
   0.182990900     0.2529450   -0.8408571  
   0.184990800     0.1412151   -0.8628013  
   0.186990700     0.0291370   -0.8695571  
   0.188990600    -0.0570825   -0.8624697  
   0.190990500    -0.1853962   -0.8389323  
   0.192990400    -0.2921508   -0.8019502  
   0.194990300    -0.3895385   -0.7525741  
   0.196990200    -0.4797083   -0.6913553  
   0.198990100    -0.5612979   -0.6183606  
   0.200990000    -0.6333171   -0.5343993  
   0.202989900    -0.6943083   -0.4401012  
   0.204989800    -0.7427885   -0.3375260  
   0.206989700    -0.7782774   -0.2280273  
   0.208989600    -0.7973031   -0.1127128  
   0.210989500    -0.7998561    0.0072744  
   0.212989400    -0.7846903    0.1289777  
   0.214989300    -0.7505805    0.2496474  
   0.216989200    -0.6978632    0.3661064  
   0.218989100    -0.6260731    0.4754158  
   0.220989000    -0.5353901    0.5739002  
   0.222988900    -0.4272664    0.6587493  
   0.224988800    -0.3041728    0.7258270  
   0.226988700    -0.1693994    0.7718837  
   0.228988600    -0.0270622    0.7937816  
   0.230988500     0.1188872    0.7908202  
   0.232988400     0.2627181    0.7606911  
   0.234988300     0.4004608    0.7065992  
   0.236988200     0.5267253    0.6283523  
   0.238988100     0.6362023    0.5298638  
   0.240988000     0.7261102    0.4143212  
   0.242987900     0.7934690    0.2870795  
   0.244987800     0.8372314    0.1515930  
   0.246987700     0.8572029    0.0130431  
   0.248987600     0.8540176   -0.1247308  
   0.250987500     0.8290472   -0.2578522  
   0.252987400     0.7835757   -0.3817627  
   0.254987300     0.7219134   -0.4940830  
   0.256987200     0.6452011   -0.5934244  
   0.258987100     0.5578706   -0.6793907  
   0.260987000     0.4596732   -0.7493188  
   0.262986900     0.3546311   -0.8038241  
   0.264986800     0.2449673   -0.8425542  
   0.266986700     0.1324452   -0.8650478  
   0.268986600     0.0201478   -0.8723120  
   0.270986500    -0.0899057   -0.8645537  
   0.272986400    -0.1969882   -0.8427737  
   0.274986300    -0.2995548   -0.8076199  
   0.276986200    -0.3962331   -0.7594913  
   0.278986100    -0.4863386   -0.6991488  
   0.280986000    -0.5679765   -0.6272752  
   0.282985900    -0.6397535   -0.5448694  
   0.284985800    -0.7008873   -0.4532852  
   0.286985700    -0.7491931   -0.3536101  
   0.288985600    -0.7838427   -0.2479060  
   0.290985500    -0.8041845   -0.1375578  
   0.292985400    -0.8087882   -0.0233105  
   0.294985300    -0.7971130    0.0924234  
   0.296985200    -0.7681508    0.2084152  
   0.298985100    -0.7201183    0.3217047  
   0.300985000    -0.6538663    0.4293662  
   0.302984900    -0.5692464    0.5262945  
   0.304984800    -0.4671559    0.6095349  
   0.306984700    -0.3497584    0.6752371  
   0.308984600    -0.2208737    0.7192071  
   0.310984500    -0.0844426    0.7389932  
   0.312984400     0.0545689    0.7316096  
   0.314984300     0.1895651    0.6969160  
   0.316984200     0.3133892    0.6357875  
   0.318984100     0.4202397    0.5516399  
   0.320984000     0.5034121    0.4507775  
   0.322983900     0.5605595    0.3411562  
   0.324983800     0.5918947    0.2325997  
   0.326983700     0.6031284    0.1317042  
   0.328983600     0.6010898    0.0421635  
   0.330983500     0.5933974   -0.0364037  
   0.332983400     0.5850343   -0.1085577  
   0.334983300     0.5766912   -0.1803182  
   0.336983200     0.5656229   -0.2563758  
   0.338983100     0.5466679   -0.3383606  
   0.340983000     0.5148824   -0.4247329  
   0.342982900     0.4667352   -0.5108617  
   0.344982800     0.4005754   -0.5924993  
   0.346982700     0.3173918   -0.6642838  
   0.348982600     0.2198873   -0.7200753  
   0.350982500     0.1121503   -0.7599804  
   0.352982400    -0.0016767   -0.7807034  
   0.354982300    -0.1234170   -0.7809901  
   0.356982200    -0.2569512   -0.7556365  
   0.358982100    -0.3828810   -0.7065224  
   0.360982000    -0.4966891   -0.6357742  
   0.362981900    -0.5957369   -0.5469162  
   0.364981800    -0.6776463   -0.4418818  
   0.366981700    -0.7401449   -0.3250466  
   0.368981600    -0.7816902   -0.1994449  
   0.370981500    -0.8014382   -0.0690908  
   0.372981400    -0.7988537    0.0624579  
   0.374981300    -0.7742459    0.1924288  
   0.376981200    -0.8019340    0.0636046  
   0.378981100    -0.7766936    0.1971147  
   0.380981000    -0.7285835    0.3254938  
   0.382980900    -0.6670724    0.4338640  
   0.384980800    -0.5925618    0.5276628  
   0.386980700    -0.5040728    0.6106420  
   0.388980600    -0.4027013    0.6800351  
   0.390980500    -0.2917876    0.7334616  
   0.392980400    -0.1728979    0.7694630  
   0.394980300    -0.0488026    0.7869923  
   0.396980200     0.0776891    0.7847360  
   0.398980100     0.2033886    0.7625831  
   0.400980000     0.3251357    0.7205305  
   0.402979900     0.4398089    0.6585760  
   0.404979800     0.5434116    0.5791113  
   0.406979700     0.6331159    0.4831803  
   0.408979600     0.7059859    0.3737325  
   0.410979500     0.7604485    0.2531828  
   0.412979400     0.7943860    0.1248768  
   0.414979300     0.8054034   -0.0069622  
   0.416979200     0.7956152   -0.1385182  
   0.418979100     0.7646270   -0.2653512  
   0.420979000     0.7136825   -0.3849057  
   0.422978900     0.6446843   -0.4937278  
   0.424978800     0.5596727   -0.5891159  
   0.426978700     0.4614454   -0.6690263  
   0.428978600     0.3532515   -0.7314628  
   0.430978500     0.2385918   -0.7755777  
   0.432978400     0.1204169   -0.8009309  
   0.434978300     0.0013667   -0.8097677  
   0.436978200    -0.1164651   -0.7991784  
   0.438978100    -0.2297008   -0.7715596  
   0.440978000    -0.3370029   -0.7282189  
   0.442977900    -0.4359630   -0.6699787  
   0.444977800    -0.5245062   -0.5985801  
   0.446977700    -0.6016206   -0.5159624  
   0.448977600    -0.6654220   -0.4236841  
   0.450977500    -0.7157032   -0.3232591  
   0.452977400    -0.7514474   -0.2166321  
   0.454977300    -0.7712169   -0.1049150  
   0.456977200    -0.7750278    0.0087801  
   0.458977100    -0.7621002    0.1228982  
   0.460977000    -0.7326009    0.2337123  
   0.462976900    -0.6866932    0.3395314  
   0.464976800    -0.6253708    0.4384301  
   0.466976700    -0.5495591    0.5276120  
   0.468976600    -0.4600344    0.6052893  
   0.470976500    -0.3587284    0.6687531  
   0.472976400    -0.2479532    0.7161043  
   0.474976300    -0.1298958    0.7461298  
   0.476976200    -0.0075830    0.7572837  
   0.478976100     0.1155746    0.7486717  
   0.480976000     0.2361320    0.7202424  
   0.482975900     0.3507298    0.6728011  
   0.484975800     0.4568860    0.6071650  
   0.486975700     0.5511947    0.5247629  
   0.488975600     0.6306192    0.4277793  
   0.490975500     0.6929732    0.3193946  
   0.492975400     0.7365197    0.2026470  
   0.494975300     0.7600805    0.0809024  
   0.496975200     0.7635111   -0.0421182  
   0.498975100     0.7467902   -0.1618216  
   0.500975000     0.7119852   -0.2761755  
   0.502974900     0.6603647   -0.3813091  
   0.504974800     0.5939757   -0.4756724  
   0.506974700     0.5153617   -0.5575684  
   0.508974600     0.4264367   -0.6258162  
   0.510974500     0.3305052   -0.6793385  
   0.512974400     0.2302148   -0.7180987  
   0.514974300     0.1274595   -0.7404698  
   0.516974200     0.0245118   -0.7506928  
   0.518974100    -0.0768582   -0.7470531  
   0.520974000    -0.1763231   -0.7306571  
   0.522973900    -0.2724531   -0.7023567  
   0.524973800    -0.3642570   -0.6615288  
   0.526973700    -0.4512281   -0.6089877  
   0.528973600    -0.5316189   -0.5448678  
   0.530973500    -0.6038062   -0.4687777  
   0.532973400    -0.6654800   -0.3823297  
   0.534973300    -0.7148322   -0.2860997  
   0.536973200    -0.7497685   -0.1819728  
   0.538973100    -0.7686867   -0.0729081  
   0.540973000    -0.7710030    0.0387101  
   0.542972900    -0.7560401    0.1502676  
   0.544972800    -0.7238061    0.2590612  
   0.546972700    -0.6749395    0.3626274  
   0.548972600    -0.6103576    0.4581128  
   0.550972500    -0.5314599    0.5428684  
   0.552972400    -0.4400817    0.6148313  
   0.554972300    -0.3378843    0.6722605  
   0.556972200    -0.2276503    0.7135897  
   0.558972100    -0.1119190    0.7373981  
   0.560972000     0.0062801    0.7429478  
   0.562971900     0.1244109    0.7301856  
   0.564971800     0.2394266    0.6992821  
   0.566971700     0.3482276    0.6508999  
   0.568971600     0.4486775    0.5857934  
   0.570971500     0.5379799    0.5053961  
   0.572971400     0.6138532    0.4113228  
   0.574971300     0.6741275    0.3061143  
   0.576971200     0.7172157    0.1916652  
   0.578971100     0.7412336    0.0712293  
   0.580971000     0.7455733   -0.0509798  
   0.582970900     0.7304425   -0.1726322  
   0.584970800     0.6961483   -0.2891261  
   0.586970700     0.6438238   -0.3982067  
   0.588970600     0.5754256   -0.4970976  
   0.590970500     0.4926631   -0.5835302  
   0.592970400     0.3982755   -0.6552908  
   0.594970300     0.2942393   -0.7113392  
   0.596970200     0.1837709   -0.7497928  
   0.598970100     0.0695453   -0.7710295  
   0.600970000    -0.0458487   -0.7747519  
   0.602969900    -0.1594896   -0.7613599  
   0.604969800    -0.2693696   -0.7309821  
   0.606969700    -0.3729861   -0.6850760  
   0.608969600    -0.4679399   -0.6245634  
   0.610969500    -0.5525771   -0.5511991  
   0.612969400    -0.6253274   -0.4670891  
   0.614969300    -0.6842896   -0.3737720  
   0.616969200    -0.7292545   -0.2739216  
   0.618969100    -0.7593224   -0.1693676  
   0.620969000    -0.7745326   -0.0624787  
   0.622968900    -0.7744086    0.0458784  
   0.624968800    -0.7592357    0.1531455  
   0.626968700    -0.7291909    0.2577755  
   0.628968600    -0.6844420    0.3575780  
   0.630968500    -0.6255922    0.4504191  
   0.632968400    -0.5536446    0.5346310  
   0.634968300    -0.4700587    0.6082599  
   0.636968200    -0.3755423    0.6694719  
   0.638968100    -0.2726758    0.7166990  
   0.640968000    -0.1628967    0.7484401  
   0.642967900    -0.0487132    0.7636979  
   0.644967800     0.0676433    0.7619556  
   0.646967700     0.1831408    0.7424778  
   0.648967600     0.2950236    0.7054635  
   0.650967500     0.4006829    0.6513160  
   0.652967400     0.4967183    0.5816370  
   0.654967300     0.5820314    0.4969828  
   0.656967200     0.6530326    0.4000863  
   0.658967100     0.7080761    0.2926331  
   0.660967000     0.7459484    0.1770330  
   0.662966900     0.7651697    0.0562787  
   0.664966800     0.7650344   -0.0667073  
   0.666966700     0.7450114   -0.1884815  
   0.668966600     0.7058106   -0.3048942  
   0.670966500     0.6488152   -0.4136654  
   0.672966400     0.5766380   -0.5120783  
   0.674966300     0.4896993   -0.5961524  
   0.676966200     0.3915017   -0.6646625  
   0.678966100     0.2851050   -0.7161875  
   0.680966000     0.1729494   -0.7506557  
   0.682965900     0.0582564   -0.7671403  
   0.684965800    -0.0560855   -0.7662709  
   0.686965700    -0.1682971   -0.7481378  
   0.688965600    -0.2752160   -0.7139342  
   0.690965500    -0.3746707   -0.6640295  
   0.692965400    -0.4649421   -0.6017786  
   0.694965300    -0.5447643   -0.5276678  
   0.696965200    -0.6123471   -0.4437477  
   0.698965100    -0.6672074   -0.3510492  
   0.700965000    -0.7079752   -0.2520714  
   0.702964900    -0.7342935   -0.1485210  
   0.704964800    -0.7454121   -0.0423520  
   0.706964700    -0.7414065    0.0645013  
   0.708964600    -0.7217780    0.1698814  
   0.710964500    -0.6874968    0.2721265  
   0.712964400    -0.6381438    0.3683621  
   0.714964300    -0.5746008    0.4568038  
   0.716964200    -0.4986316    0.5348051  
   0.718964100    -0.4116897    0.6010906  
   0.720964000    -0.3157806    0.6538221  
   0.722963900    -0.2124439    0.6916957  
   0.724963800    -0.1038194    0.7133796  
   0.726963700     0.0070692    0.7179043  
   0.728963600     0.1182962    0.7056384  
   0.730963500     0.2264010    0.6750931  
   0.732963400     0.3282377    0.6286229  
   0.734963300     0.4223842    0.5663092  
   0.736963200     0.5175686    0.4777809  
   0.738963100     0.5957880    0.3729237  
   0.740963000     0.6533880    0.2562665  
   0.742962900     0.6888356    0.1319279  
   0.744962800     0.7013780    0.0041385  
   0.746962700     0.6913107   -0.1225241  
   0.748962600     0.6591763   -0.2446657  
   0.750962500     0.6767151   -0.1349236  
   0.752962400     0.6440541   -0.2550703  
   0.754962300     0.5914850   -0.3668504  
   0.756962200     0.5210293   -0.4669663  
   0.758962100     0.4352747   -0.5534732  
   0.760962000     0.3362806   -0.6237615  
   0.762961900     0.2325439   -0.6740494  
   0.764961800     0.1324692   -0.7053584  
   0.766961700     0.0290342   -0.7218512  
   0.768961600    -0.0761015   -0.7230759  
   0.770961500    -0.1804630   -0.7092177  
   0.772961400    -0.2815326   -0.6803091  
   0.774961300    -0.3776559   -0.6367707  
   0.776961200    -0.4668696   -0.5795134  
   0.778961100    -0.5467170   -0.5093184  
   0.780961000    -0.6156784   -0.4276395  
   0.782960900    -0.6718049   -0.3362347  
   0.784960800    -0.7139052   -0.2369413  
   0.786960700    -0.7405421   -0.1319192  
   0.788960600    -0.7512596   -0.0239986  
   0.790960500    -0.7456789    0.0847040  
   0.792960400    -0.7237579    0.1910804  
   0.794960300    -0.6860779    0.2930138  
   0.796960200    -0.6338452    0.3884013  
   0.798960100    -0.5680215    0.4747401  
   0.800960000    -0.4900002    0.5497178  
   0.802959900    -0.4015528    0.6131125  
   0.804959800    -0.3048512    0.6624446  
   0.806959700    -0.2013867    0.6969536  
   0.808959600    -0.0939612    0.7157548  
   0.810959500     0.0152022    0.7182736  
   0.812959400     0.1243548    0.7042887  
   0.814959300     0.2305821    0.6738737  
   0.816959200     0.3314938    0.6277837  
   0.818959100     0.4245860    0.5663930  
   0.820959000     0.5078434    0.4911165  
   0.822958900     0.5786750    0.4033408  
   0.824958800     0.6356780    0.3052319  
   0.826958700     0.6767713    0.1988175  
   0.828958600     0.7007446    0.0872022  
   0.830958500     0.7070155   -0.0275158  
   0.832958400     0.6948873   -0.1417648  
   0.834958300     0.6648123   -0.2525624  
   0.836958200     0.6178465   -0.3571718  
   0.838958100     0.5547776   -0.4532462  
   0.840958000     0.4775255   -0.5382059  
   0.842957900     0.3879096   -0.6093813  
   0.844957800     0.2883009   -0.6657587  
   0.846957700     0.1816983   -0.7056126  
   0.848957600     0.0705144   -0.7278830  
   0.850957500    -0.0421752   -0.7329074  
   0.852957400    -0.1536304   -0.7201614  
   0.854957300    -0.2611684   -0.6908006  
   0.856957200    -0.3622418   -0.6454491  
   0.858957100    -0.4545783   -0.5860588  
   0.860957000    -0.5361204   -0.5142864  
   0.862956900    -0.6054195   -0.4323657  
   0.864956800    -0.6613847   -0.3420696  
   0.866956700    -0.7033107   -0.2452604  
   0.868956600    -0.7302102   -0.1445960  
   0.870956500    -0.7430129   -0.0413619  
   0.872956400    -0.7409455    0.0621208  
   0.874956300    -0.7242689    0.1641531  
   0.876956200    -0.6930656    0.2632673  
   0.878956100    -0.6484945    0.3567392  
   0.880956000    -0.5908395    0.4434994  
   0.882955900    -0.5211194    0.5212992  
   0.884955800    -0.4406887    0.5887683  
   0.886955700    -0.3512653    0.6441981  
   0.888955600    -0.2541655    0.6868498  
   0.890955500    -0.1515920    0.7150463  
   0.892955400    -0.0453189    0.7279615  
   0.894955300     0.0625944    0.7252585  
