! MS46122B
! 2250307/22442219
! 7/23/2025 1:13:07 PM
! C:\USERS\SPARKY\DOCUMENTS\VNA_DATA\JULY23_2025\295K\ECAL_SHORT_C_REPEAT1.S1P
! CHANNEL.1
! TR.MEASUREMENT
! RAW.DATA
# GHZ S RI R 50.0
! FREQ.GHZ         S11RE         S11IM         
!; PortSelection: Port_1
   0.001000000     1.0460590   -0.0711473  
   0.002999900     0.9645948   -0.1938022  
   0.004999800     0.9043893   -0.2988833  
   0.006999700     0.8373534   -0.3964916  
   0.008999600     0.7590874   -0.4915843  
   0.010999500     0.6670199   -0.5817860  
   0.012999400     0.5559410   -0.6645675  
   0.014999300     0.4210023   -0.7342892  
   0.016999200     0.2561845   -0.7798257  
   0.018999100     0.0580727   -0.7841908  
   0.020999000    -0.1668906   -0.7194939  
   0.022998900    -0.3905199   -0.5516574  
   0.024998800    -0.5269609   -0.2627062  
   0.026998700    -0.5513523    0.1083036  
   0.028998600    -0.3608783    0.4440510  
   0.030998500    -0.0442753    0.6322701  
   0.032998400     0.2582283    0.6366006  
   0.034998300     0.5426791    0.5591571  
   0.036998200     0.7226319    0.4103747  
   0.038998100     0.8324779    0.2459707  
   0.040998000     0.8895950    0.0854680  
   0.042997900     0.9088001   -0.0630979  
   0.044997800     0.8722130   -0.1740486  
   0.046997700     0.8715711   -0.3152787  
   0.048997600     0.8296319   -0.4199525  
   0.050997500     0.7767096   -0.5113375  
   0.052997400     0.7169034   -0.5894431  
   0.054997300     0.6493499   -0.6597665  
   0.056997200     0.5771104   -0.7193366  
   0.058997100     0.5013461   -0.7692844  
   0.060997000     0.4221801   -0.8106083  
   0.062996900     0.3397433   -0.8437953  
   0.064996800     0.2548629   -0.8681624  
   0.066996700     0.1673522   -0.8835354  
   0.068996600     0.0778119   -0.8904376  
   0.070996500    -0.0130024   -0.8885505  
   0.072996400    -0.1048814   -0.8757725  
   0.074996300    -0.1971734   -0.8524585  
   0.076996200    -0.2888032   -0.8176312  
   0.078996100    -0.3784707   -0.7713525  
   0.080996000    -0.4651423   -0.7123237  
   0.082995900    -0.5466616   -0.6398680  
   0.084995800    -0.6205510   -0.5531830  
   0.086995700    -0.6853321   -0.4537682  
   0.088995600    -0.7376560   -0.3407168  
   0.090995500    -0.7744039   -0.2151833  
   0.092995400    -0.7925519   -0.0790824  
   0.094995300    -0.7864869    0.0648405  
   0.096995200    -0.7538872    0.2126827  
   0.098995100    -0.6919088    0.3579741  
   0.100995000    -0.5990629    0.4957727  
   0.102994900    -0.4773010    0.6142112  
   0.104994800    -0.3299731    0.7076285  
   0.106994700    -0.1627259    0.7684203  
   0.108994600     0.0146422    0.7928635  
   0.110994500     0.1930595    0.7787748  
   0.112994400     0.3630978    0.7271580  
   0.114994300     0.5154935    0.6425588  
   0.116994200     0.6435282    0.5310642  
   0.118994100     0.7435727    0.4006245  
   0.120994000     0.8151817    0.2587630  
   0.122993900     0.8560422    0.1116194  
   0.124993800     0.8689017   -0.0341984  
   0.126993700     0.8571029   -0.1742690  
   0.128993600     0.8223119   -0.3038242  
   0.130993500     0.7712561   -0.4222527  
   0.132993400     0.7052116   -0.5274450  
   0.134993300     0.6275354   -0.6184333  
   0.136993200     0.5404084   -0.6950247  
   0.138993100     0.4464915   -0.7569733  
   0.140993000     0.3477977   -0.8043075  
   0.142992900     0.2456936   -0.8385589  
   0.144992800     0.1424523   -0.8595171  
   0.146992700     0.0382394   -0.8663990  
   0.148992600    -0.0651109   -0.8605105  
   0.150992500    -0.1659611   -0.8407357  
   0.152992400    -0.2637014   -0.8099510  
   0.154992300    -0.3568366   -0.7670445  
   0.156992200    -0.4450612   -0.7129493  
   0.158992100    -0.5265099   -0.6477355  
   0.160992000    -0.6000794   -0.5717738  
   0.162991900    -0.6642884   -0.4859633  
   0.164991800    -0.7178264   -0.3903567  
   0.166991700    -0.7590487   -0.2866612  
   0.168991600    -0.7863373   -0.1760608  
   0.170991500    -0.7985761   -0.0593232  
   0.172991400    -0.7938851    0.0603507  
   0.174991300    -0.7712920    0.1814059  
   0.176991200    -0.7293481    0.3012477  
   0.178991100    -0.6680438    0.4161361  
   0.180991000    -0.5879694    0.5231320  
   0.182990900    -0.4884779    0.6171451  
   0.184990800    -0.3716001    0.6954474  
   0.186990700    -0.2405111    0.7539254  
   0.188990600    -0.1221728    0.7853770  
   0.190990500     0.0441654    0.7981799  
   0.192990400     0.1955594    0.7814566  
   0.194990300     0.3390604    0.7383815  
   0.196990200     0.4718998    0.6705112  
   0.198990100     0.5899137    0.5803769  
   0.200990000     0.6896169    0.4709867  
   0.202989900     0.7676890    0.3472376  
   0.204989800     0.8222488    0.2137753  
   0.206989700     0.8533136    0.0762040  
   0.208989600     0.8595112   -0.0616310  
   0.210989500     0.8435361   -0.1960721  
   0.212989400     0.8068011   -0.3234221  
   0.214989300     0.7518463   -0.4404730  
   0.216989200     0.6815041   -0.5449218  
   0.218989100     0.5988168   -0.6351951  
   0.220989000     0.5053765   -0.7111872  
   0.222988900     0.4040023   -0.7716494  
   0.224988800     0.2968699   -0.8165587  
   0.226988700     0.1868038   -0.8457377  
   0.228988600     0.0762780   -0.8592107  
   0.230988500    -0.0339927   -0.8574852  
   0.232988400    -0.1423316   -0.8404495  
   0.234988300    -0.2471192   -0.8103786  
   0.236988200    -0.3466715   -0.7669219  
   0.238988100    -0.4395920   -0.7104602  
   0.240988000    -0.5239792   -0.6428035  
   0.242987900    -0.5986285   -0.5643260  
   0.244987800    -0.6625943   -0.4757425  
   0.246987700    -0.7149285   -0.3781846  
   0.248987600    -0.7536700   -0.2724719  
   0.250987500    -0.7779909   -0.1608144  
   0.252987400    -0.7861318   -0.0454140  
   0.254987300    -0.7773708    0.0717844  
   0.256987200    -0.7511125    0.1881941  
   0.258987100    -0.7078112    0.3025327  
   0.260987000    -0.6447865    0.4105660  
   0.262986900    -0.5633689    0.5099692  
   0.264986800    -0.4650937    0.5968460  
   0.266986700    -0.3515827    0.6677418  
   0.268986600    -0.2255922    0.7191138  
   0.270986500    -0.0908527    0.7483276  
   0.272986400     0.0485598    0.7538325  
   0.274986300     0.1881466    0.7345636  
   0.276986200     0.3234152    0.6902042  
   0.278986100     0.4492045    0.6219599  
   0.280986000     0.5608765    0.5318369  
   0.282985900     0.6544658    0.4233102  
   0.284985800     0.7259117    0.3009004  
   0.286985700     0.7739882    0.1692905  
   0.288985600     0.7978585    0.0337844  
   0.290985500     0.7976991   -0.1007230  
   0.292985400     0.7752292   -0.2304877  
   0.294985300     0.7328207   -0.3518804  
   0.296985200     0.6725491   -0.4629916  
   0.298985100     0.5965654   -0.5610868  
   0.300985000     0.5084550   -0.6441410  
   0.302984900     0.4114309   -0.7110248  
   0.304984800     0.3078120   -0.7614805  
   0.306984700     0.2013248   -0.7954627  
   0.308984600     0.0943282   -0.8134731  
   0.310984500    -0.0114872   -0.8169911  
   0.312984400    -0.1142238   -0.8063563  
   0.314984300    -0.2129404   -0.7831923  
   0.316984200    -0.3063744   -0.7481306  
   0.318984100    -0.3941279   -0.7020124  
   0.320984000    -0.4752791   -0.6463286  
   0.322983900    -0.5489326   -0.5815114  
   0.324983800    -0.6146570   -0.5088508  
   0.326983700    -0.6715797   -0.4289950  
   0.328983600    -0.7201320   -0.3417695  
   0.330983500    -0.7585004   -0.2470999  
   0.332983400    -0.7849515   -0.1459721  
   0.334983300    -0.7972454   -0.0390125  
   0.336983200    -0.7933196    0.0709452  
   0.338983100    -0.7722871    0.1807259  
   0.340983000    -0.7345047    0.2870982  
   0.342982900    -0.6806501    0.3875404  
   0.344982800    -0.6121590    0.4795104  
   0.346982700    -0.5293791    0.5618519  
   0.348982600    -0.4343930    0.6308662  
   0.350982500    -0.3293760    0.6864964  
   0.352982400    -0.2163874    0.7261962  
   0.354982300    -0.0920714    0.7490717  
   0.356982200     0.0482433    0.7506858  
   0.358982100     0.1872793    0.7267017  
   0.360982000     0.3203387    0.6781342  
   0.362981900     0.4430260    0.6059577  
   0.364981800     0.5514926    0.5120280  
   0.366981700     0.6412561    0.3988820  
   0.368981600     0.7089713    0.2703666  
   0.370981500     0.7518989    0.1310143  
   0.372981400     0.7678968   -0.0142566  
   0.374981300     0.7561369   -0.1607827  
   0.376981200     0.7704587   -0.0570998  
   0.378981100     0.7501807   -0.2019760  
   0.380981000     0.7034622   -0.3396366  
   0.382980900     0.6392810   -0.4550622  
   0.384980800     0.5610711   -0.5527152  
   0.386980700     0.4692145   -0.6357751  
   0.388980600     0.3661918   -0.7023293  
   0.390980500     0.2562545   -0.7510946  
   0.392980400     0.1417051   -0.7816811  
   0.394980300     0.0261362   -0.7943478  
   0.396980200    -0.0889716   -0.7900081  
   0.398980100    -0.2004528   -0.7691144  
   0.400980000    -0.3064583   -0.7322528  
   0.402979900    -0.4056674   -0.6807249  
   0.404979800    -0.4949104   -0.6166487  
   0.406979700    -0.5739555   -0.5408649  
   0.408979600    -0.6411819   -0.4557332  
   0.410979500    -0.6959671   -0.3613868  
   0.412979400    -0.7371436   -0.2599770  
   0.414979300    -0.7623241   -0.1536196  
   0.416979200    -0.7739516   -0.0443529  
   0.418979100    -0.7702507    0.0651538  
   0.420979000    -0.7509598    0.1739216  
   0.422978900    -0.7159666    0.2794484  
   0.424978800    -0.6657564    0.3800193  
   0.426978700    -0.6012302    0.4733669  
   0.428978600    -0.5228997    0.5571643  
   0.430978500    -0.4326651    0.6288643  
   0.432978400    -0.3319439    0.6868852  
   0.434978300    -0.2232405    0.7307786  
   0.436978200    -0.1075111    0.7573109  
   0.438978100     0.0122477    0.7656895  
   0.440978000     0.1331546    0.7558305  
   0.442977900     0.2522173    0.7270093  
   0.444977800     0.3660197    0.6796356  
   0.446977700     0.4718109    0.6143122  
   0.448977600     0.5662885    0.5325865  
   0.450977500     0.6469039    0.4363963  
   0.452977400     0.7114869    0.3281488  
   0.454977300     0.7578309    0.2100134  
   0.456977200     0.7847074    0.0857872  
   0.458977100     0.7907380   -0.0413548  
   0.460977000     0.7761862   -0.1670525  
   0.462976900     0.7421107   -0.2874002  
   0.464976800     0.6894075   -0.4002777  
   0.466976700     0.6204661   -0.5025184  
   0.468976600     0.5370571   -0.5915437  
   0.470976500     0.4414629   -0.6661625  
   0.472976400     0.3372642   -0.7238913  
   0.474976300     0.2264069   -0.7648067  
   0.476976200     0.1123516   -0.7881865  
   0.478976100    -0.0021010   -0.7943851  
   0.480976000    -0.1143091   -0.7838716  
   0.482975900    -0.2219702   -0.7575190  
   0.484975800    -0.3240162   -0.7167897  
   0.486975700    -0.4187392   -0.6622588  
   0.488975600    -0.5041080   -0.5955073  
   0.490975500    -0.5792576   -0.5179947  
   0.492975400    -0.6426288   -0.4304958  
   0.494975300    -0.6932037   -0.3351720  
   0.496975200    -0.7300410   -0.2333761  
   0.498975100    -0.7520080   -0.1276774  
   0.500975000    -0.7588511   -0.0191847  
   0.502974900    -0.7499974    0.0893426  
   0.504974800    -0.7252950    0.1967365  
   0.506974700    -0.6845589    0.3004303  
   0.508974600    -0.6278774    0.3982452  
   0.510974500    -0.5558726    0.4867207  
   0.512974400    -0.4705748    0.5633253  
   0.514974300    -0.3736084    0.6245831  
   0.516974200    -0.2684064    0.6703594  
   0.518974100    -0.1574699    0.6983067  
   0.520974000    -0.0440704    0.7082613  
   0.522973900     0.0683798    0.6999427  
   0.524973800     0.1771832    0.6745807  
   0.526973700     0.2793950    0.6331433  
   0.528973600     0.3733701    0.5776237  
   0.530973500     0.4571985    0.5095237  
   0.532973400     0.5298578    0.4311090  
   0.534973300     0.5901180    0.3435468  
   0.536973200     0.6376313    0.2483485  
   0.538973100     0.6706744    0.1479853  
   0.540973000     0.6897225    0.0444782  
   0.542972900     0.6936145   -0.0616165  
   0.544972800     0.6817427   -0.1669618  
   0.546972700     0.6546366   -0.2712084  
   0.548972600     0.6119288   -0.3707177  
   0.550972500     0.5549223   -0.4630886  
   0.552972400     0.4835956   -0.5466472  
   0.554972300     0.4002198   -0.6182770  
   0.556972200     0.3065156   -0.6770552  
   0.558972100     0.2043923   -0.7209017  
   0.560972000     0.0977957   -0.7485124  
   0.562971900    -0.0122598   -0.7599080  
   0.564971800    -0.1218018   -0.7538665  
   0.566971700    -0.2290946   -0.7321841  
   0.568971600    -0.3316495   -0.6948267  
   0.570971500    -0.4271778   -0.6430071  
   0.572971400    -0.5140460   -0.5777523  
   0.574971300    -0.5906946   -0.5002339  
   0.576971200    -0.6551837   -0.4123225  
   0.578971100    -0.7062755   -0.3158455  
   0.580971000    -0.7429060   -0.2132238  
   0.582970900    -0.7640783   -0.1064821  
   0.584970800    -0.7696701    0.0018730  
   0.586970700    -0.7595755    0.1099026  
   0.588970600    -0.7343748    0.2153094  
   0.590970500    -0.6941376    0.3164189  
   0.592970400    -0.6393869    0.4111592  
   0.594970300    -0.5715083    0.4971797  
   0.596970200    -0.4911789    0.5732698  
   0.598970100    -0.4002762    0.6371374  
   0.600970000    -0.2998630    0.6873612  
   0.602969900    -0.1924269    0.7223982  
   0.604969800    -0.0794699    0.7415009  
   0.606969700     0.0357551    0.7429765  
   0.608969600     0.1514479    0.7265128  
   0.610969500     0.2640363    0.6920383  
   0.612969400     0.3705664    0.6400002  
   0.614969300     0.4685132    0.5715948  
   0.616969200     0.5540455    0.4883521  
   0.618969100     0.6257676    0.3922415  
   0.620969000     0.6812119    0.2860551  
   0.622968900     0.7192003    0.1722163  
   0.624968800     0.7383078    0.0528396  
   0.626968700     0.7377386   -0.0680277  
   0.628968600     0.7180861   -0.1874699  
   0.630968500     0.6791365   -0.3017933  
   0.632968400     0.6226442   -0.4082434  
   0.634968300     0.5497379   -0.5036860  
   0.636968200     0.4632421   -0.5855796  
   0.638968100     0.3654683   -0.6517223  
   0.640968000     0.2589928   -0.7016468  
   0.642967900     0.1474183   -0.7340667  
   0.644967800     0.0330427   -0.7479651  
   0.646967700    -0.0806964   -0.7443525  
   0.648967600    -0.1911891   -0.7234751  
   0.650967500    -0.2957435   -0.6867095  
   0.652967400    -0.3927092   -0.6353117  
   0.654967300    -0.4801191   -0.5707129  
   0.656967200    -0.5563398   -0.4949338  
   0.658967100    -0.6204021   -0.4091876  
   0.660967000    -0.6713271   -0.3154688  
   0.662966900    -0.7079691   -0.2157171  
   0.664966800    -0.7299429   -0.1112870  
   0.666966700    -0.7365919   -0.0049229  
   0.668966600    -0.7278060    0.1013697  
   0.670966500    -0.7036514    0.2054057  
   0.672966400    -0.6654266    0.3055797  
   0.674966300    -0.6121958    0.3988620  
   0.676966200    -0.5455648    0.4836200  
   0.678966100    -0.4675065    0.5577139  
   0.680966000    -0.3785109    0.6201685  
   0.682965900    -0.2804505    0.6691026  
   0.684965800    -0.1757418    0.7031901  
   0.686965700    -0.0658012    0.7210368  
   0.688965600     0.0465891    0.7222056  
   0.690965500     0.1582229    0.7048469  
   0.692965400     0.2670266    0.6713492  
   0.694965300     0.3699978    0.6209681  
   0.696965200     0.4639580    0.5546669  
   0.698965100     0.5473734    0.4736313  
   0.700965000     0.6166697    0.3798089  
   0.702964900     0.6707032    0.2758691  
   0.704964800     0.7074527    0.1640722  
   0.706964700     0.7254306    0.0478659  
   0.708964600     0.7246318   -0.0702470  
   0.710964500     0.7055756   -0.1863648  
   0.712964400     0.6675845   -0.2966183  
   0.714964300     0.6124688   -0.3994311  
   0.716964200     0.5428250   -0.4900865  
   0.718964100     0.4609079   -0.5680727  
   0.720964000     0.3690573   -0.6312174  
   0.722963900     0.2702421   -0.6791176  
   0.724963800     0.1670361   -0.7110597  
   0.726963700     0.0611767   -0.7277302  
   0.728963600    -0.0445926   -0.7285143  
   0.730963500    -0.1482533   -0.7135180  
   0.732963400    -0.2477575   -0.6850506  
   0.734963300    -0.3417965   -0.6429712  
   0.736963200    -0.4407679   -0.5784323  
   0.738963100    -0.5278189   -0.4987996  
   0.740963000    -0.6004282   -0.4058550  
   0.742962900    -0.6570332   -0.3024955  
   0.744962800    -0.6957154   -0.1909890  
   0.746962700    -0.7155747   -0.0743754  
   0.748962600    -0.7157682    0.0449204  
   0.750962500    -0.7282479   -0.0653146  
   0.752962400    -0.7264680    0.0549907  
   0.754962300    -0.7043781    0.1737628  
   0.756962200    -0.6621518    0.2878354  
   0.758962100    -0.6011142    0.3929550  
   0.760962000    -0.5221649    0.4869427  
   0.762961900    -0.4330354    0.5625932  
   0.764961800    -0.3424615    0.6179757  
   0.766961700    -0.2445534    0.6588458  
   0.768961600    -0.1409688    0.6842490  
   0.770961500    -0.0349595    0.6940789  
   0.772961400     0.0711220    0.6876847  
   0.774961300     0.1748912    0.6654648  
   0.776961200     0.2747540    0.6276246  
   0.778961100     0.3675236    0.5753748  
   0.780961000     0.4521190    0.5092124  
   0.782960900     0.5259980    0.4307966  
   0.784960800     0.5878848    0.3415531  
   0.786960700     0.6354265    0.2435997  
   0.788960600     0.6674802    0.1388633  
   0.790960500     0.6832895    0.0304567  
   0.792960400     0.6819850   -0.0792529  
   0.794960300     0.6639013   -0.1873532  
   0.796960200     0.6293668   -0.2916028  
   0.798960100     0.5790699   -0.3890441  
   0.800960000     0.5144215   -0.4773009  
   0.802959900     0.4369515   -0.5547357  
   0.804959800     0.3488131   -0.6191623  
   0.806959700     0.2519678   -0.6692958  
   0.808959600     0.1488502   -0.7040834  
   0.810959500     0.0417054   -0.7225136  
   0.812959400    -0.0666330   -0.7245328  
   0.814959300    -0.1740509   -0.7101210  
   0.816959200    -0.2773047   -0.6798369  
   0.818959100    -0.3747718   -0.6343651  
   0.820959000    -0.4637474   -0.5752916  
   0.822958900    -0.5427214   -0.5036481  
   0.824958800    -0.6100849   -0.4213099  
   0.826958700    -0.6643798   -0.3302404  
   0.828958600    -0.7047269   -0.2325889  
   0.830958500    -0.7299052   -0.1304023  
   0.832958400    -0.7401504   -0.0260427  
   0.834958300    -0.7349922    0.0785941  
   0.836958200    -0.7151775    0.1809506  
   0.838958100    -0.6805804    0.2791854  
   0.840958000    -0.6318895    0.3715521  
   0.842957900    -0.5705439    0.4561197  
   0.844957800    -0.4971359    0.5316586  
   0.846957700    -0.4135775    0.5957966  
   0.848957600    -0.3211395    0.6471623  
   0.850957500    -0.2216712    0.6849899  
   0.852957400    -0.1168797    0.7075928  
   0.854957300    -0.0093171    0.7145925  
   0.856957200     0.0986753    0.7051764  
   0.858957100     0.2046050    0.6796121  
   0.860957000     0.3053748    0.6382374  
   0.862956900     0.3990669    0.5816923  
   0.864956800     0.4832668    0.5113382  
   0.866956700     0.5556591    0.4289289  
   0.868956600     0.6145602    0.3354284  
   0.870956500     0.6588716    0.2337054  
   0.872956400     0.6870871    0.1254708  
   0.874956300     0.6981359    0.0136717  
   0.876956200     0.6910985   -0.0995064  
   0.878956100     0.6661670   -0.2103506  
   0.880956000     0.6233978   -0.3160916  
   0.882955900     0.5643151   -0.4134490  
   0.884955800     0.4904905   -0.5000836  
   0.886955700     0.4035492   -0.5735323  
   0.888955600     0.3066882   -0.6315469  
   0.890955500     0.2020755   -0.6734312  
   0.892955400     0.0928666   -0.6976232  
   0.894955300    -0.0179077   -0.7043097  
