! MS46122B
! 2250307/22442219
! 7/24/2025 12:43:18 PM
! C:\USERS\SPARKY\DOCUMENTS\VNA_DATA\JULY24_2025\295K\ECAL_LOAD_D_REPEAT1.S1P
! CHANNEL.1
! TR.MEASUREMENT
! RAW.DATA
# GHZ S RI R 50.0
! FREQ.GHZ         S11RE         S11IM         
!; PortSelection: Port_1
   0.001000000     1.0448730   -0.0727722  
   0.002999900     0.9520835   -0.1948805  
   0.004999800     0.8765463   -0.2787232  
   0.006999700     0.7915057   -0.3679094  
   0.008999600     0.7000254   -0.4058309  
   0.010999500     0.6232889   -0.4309481  
   0.012999400     0.5569695   -0.4452037  
   0.014999300     0.5005269   -0.4519205  
   0.016999200     0.4517146   -0.4527275  
   0.018999100     0.4109142   -0.4493579  
   0.020999000     0.3771150   -0.4435709  
   0.022998900     0.3482552   -0.4365763  
   0.024998800     0.3183004   -0.4075464  
   0.026998700     0.3019863   -0.4203843  
   0.028998600     0.2828727   -0.4118235  
   0.030998500     0.2654530   -0.4033435  
   0.032998400     0.2456602   -0.3773794  
   0.034998300     0.2337157   -0.3869146  
   0.036998200     0.2193661   -0.3789274  
   0.038998100     0.2057856   -0.3713813  
   0.040998000     0.1927316   -0.3640655  
   0.042997900     0.1801424   -0.3569521  
   0.044997800     0.1667529   -0.3356919  
   0.046997700     0.1554706   -0.3435695  
   0.048997600     0.1441219   -0.3369740  
   0.050997500     0.1332726   -0.3304358  
   0.052997400     0.1230058   -0.3239265  
   0.054997300     0.1132995   -0.3174044  
   0.056997200     0.1036714   -0.3114035  
   0.058997100     0.0948562   -0.3052562  
   0.060997000     0.0863773   -0.2992910  
   0.062996900     0.0785248   -0.2933869  
   0.064996800     0.0712618   -0.2875516  
   0.066996700     0.0644866   -0.2817201  
   0.068996600     0.0581603   -0.2759358  
   0.070996500     0.0523049   -0.2704127  
   0.072996400     0.0467951   -0.2646253  
   0.074996300     0.0417138   -0.2588579  
   0.076996200     0.0370433   -0.2531076  
   0.078996100     0.0326679   -0.2473421  
   0.080996000     0.0285229   -0.2415999  
   0.082995900     0.0246442   -0.2359135  
   0.084995800     0.0209519   -0.2299191  
   0.086995700     0.0177525   -0.2242762  
   0.088995600     0.0148902   -0.2187257  
   0.090995500     0.0122787   -0.2132676  
   0.092995400     0.0099485   -0.2081086  
   0.094995300     0.0079346   -0.2028417  
   0.096995200     0.0061154   -0.1976767  
   0.098995100     0.0044596   -0.1926037  
   0.100995000     0.0020586   -0.1886767  
   0.102994900     0.0008620   -0.1840408  
   0.104994800     0.0000527   -0.1796509  
   0.106994700    -0.0005682   -0.1753439  
   0.108994600    -0.0009760   -0.1713754  
   0.110994500    -0.0012300   -0.1676720  
   0.112994400    -0.0013242   -0.1642490  
   0.114994300    -0.0013170   -0.1610145  
   0.116994200    -0.0011798   -0.1580411  
   0.118994100    -0.0009750   -0.1553316  
   0.120994000    -0.0005734   -0.1527903  
   0.122993900    -0.0003598   -0.1504877  
   0.124993800    -0.0001307   -0.1484670  
   0.126993700     0.0000536   -0.1466637  
   0.128993600     0.0001720   -0.1450581  
   0.130993500     0.0002279   -0.1437028  
   0.132993400     0.0001678   -0.1425234  
   0.134993300    -0.0000342   -0.1414656  
   0.136993200    -0.0003927   -0.1405155  
   0.138993100    -0.0009095   -0.1397011  
   0.140993000    -0.0015866   -0.1388954  
   0.142992900    -0.0025040   -0.1381305  
   0.144992800    -0.0035435   -0.1374900  
   0.146992700    -0.0048266   -0.1367198  
   0.148992600    -0.0062210   -0.1358830  
   0.150992500    -0.0077442   -0.1348195  
   0.152992400    -0.0094618   -0.1337406  
   0.154992300    -0.0112590   -0.1325112  
   0.156992200    -0.0131761   -0.1310778  
   0.158992100    -0.0151259   -0.1294657  
   0.160992000    -0.0171221   -0.1276106  
   0.162991900    -0.0190831   -0.1255313  
   0.164991800    -0.0210168   -0.1231969  
   0.166991700    -0.0228371   -0.1206352  
   0.168991600    -0.0245252   -0.1178092  
   0.170991500    -0.0260974   -0.1147491  
   0.172991400    -0.0273799   -0.1115215  
   0.174991300    -0.0284034   -0.1080897  
   0.176991200    -0.0291406   -0.1044818  
   0.178991100    -0.0295700   -0.1007682  
   0.180991000    -0.0296390   -0.0969974  
   0.182990900    -0.0293386   -0.0931297  
   0.184990800    -0.0286256   -0.0893078  
   0.186990700    -0.0275036   -0.0855153  
   0.188990600    -0.0242209   -0.0823804  
   0.190990500    -0.0238428   -0.0783711  
   0.192990400    -0.0217462   -0.0750360  
   0.194990300    -0.0190656   -0.0720611  
   0.196990200    -0.0160470   -0.0694473  
   0.198990100    -0.0127288   -0.0672116  
   0.200990000    -0.0091895   -0.0654093  
   0.202989900    -0.0054594   -0.0640735  
   0.204989800    -0.0015988   -0.0632392  
   0.206989700     0.0023267   -0.0629564  
   0.208989600     0.0063131   -0.0631958  
   0.210989500     0.0102178   -0.0639817  
   0.212989400     0.0139727   -0.0652796  
   0.214989300     0.0175351   -0.0670890  
   0.216989200     0.0208119   -0.0694028  
   0.218989100     0.0237502   -0.0721615  
   0.220989000     0.0262718   -0.0753415  
   0.222988900     0.0283419   -0.0788746  
   0.224988800     0.0299087   -0.0827218  
   0.226988700     0.0309092   -0.0867990  
   0.228988600     0.0313960   -0.0910297  
   0.230988500     0.0313277   -0.0953493  
   0.232988400     0.0306109   -0.0995861  
   0.234988300     0.0293385   -0.1038277  
   0.236988200     0.0274631   -0.1079296  
   0.238988100     0.0250634   -0.1118097  
   0.240988000     0.0221915   -0.1154040  
   0.242987900     0.0189008   -0.1186576  
   0.244987800     0.0152158   -0.1214753  
   0.246987700     0.0110769   -0.1238270  
   0.248987600     0.0066966   -0.1257516  
   0.250987500     0.0020931   -0.1271144  
   0.252987400    -0.0025949   -0.1279340  
   0.254987300    -0.0073201   -0.1283157  
   0.256987200    -0.0119781   -0.1281366  
   0.258987100    -0.0165657   -0.1273173  
   0.260987000    -0.0209498   -0.1259228  
   0.262986900    -0.0251088   -0.1240861  
   0.264986800    -0.0289686   -0.1218206  
   0.266986700    -0.0324904   -0.1191821  
   0.268986600    -0.0355873   -0.1161957  
   0.270986500    -0.0381267   -0.1130766  
   0.272986400    -0.0402018   -0.1098149  
   0.274986300    -0.0418239   -0.1065376  
   0.276986200    -0.0429998   -0.1032177  
   0.278986100    -0.0436570   -0.0999329  
   0.280986000    -0.0438578   -0.0967419  
   0.282985900    -0.0436485   -0.0937891  
   0.284985800    -0.0430755   -0.0911283  
   0.286985700    -0.0421115   -0.0887945  
   0.288985600    -0.0408588   -0.0870306  
   0.290985500    -0.0393863   -0.0857251  
   0.292985400    -0.0378624   -0.0850165  
   0.294985300    -0.0363393   -0.0848493  
   0.296985200    -0.0349726   -0.0851626  
   0.298985100    -0.0338889   -0.0859147  
   0.300985000    -0.0331547   -0.0871720  
   0.302984900    -0.0328619   -0.0888995  
   0.304984800    -0.0331192   -0.0911050  
   0.306984700    -0.0340106   -0.0935902  
   0.308984600    -0.0355679   -0.0963887  
   0.310984500    -0.0379478   -0.0991746  
   0.312984400    -0.0412592   -0.1018296  
   0.314984300    -0.0455681   -0.1041260  
   0.316984200    -0.0508975   -0.1058531  
   0.318984100    -0.0572409   -0.1064975  
   0.320984000    -0.0645069   -0.1057435  
   0.322983900    -0.0721848   -0.1032447  
   0.324983800    -0.0797459   -0.0987406  
   0.326983700    -0.0864852   -0.0922008  
   0.328983600    -0.0916357   -0.0840194  
   0.330983500    -0.0944863   -0.0748863  
   0.332983400    -0.0948264   -0.0658561  
   0.334983300    -0.0930918   -0.0577581  
   0.336983200    -0.0899764   -0.0512699  
   0.338983100    -0.0863803   -0.0464227  
   0.340983000    -0.0829726   -0.0430009  
   0.342982900    -0.0800562   -0.0405315  
   0.344982800    -0.0778562   -0.0384746  
   0.346982700    -0.0762918   -0.0363401  
   0.348982600    -0.0749914   -0.0341525  
   0.350982500    -0.0741561   -0.0315838  
   0.352982400    -0.0733079   -0.0288599  
   0.354982300    -0.0726001   -0.0254219  
   0.356982200    -0.0717623   -0.0205602  
   0.358982100    -0.0703507   -0.0157166  
   0.360982000    -0.0683217   -0.0110351  
   0.362981900    -0.0656799   -0.0065390  
   0.364981800    -0.0624257   -0.0023987  
   0.366981700    -0.0585835    0.0012870  
   0.368981600    -0.0541784    0.0044819  
   0.370981500    -0.0495351    0.0069606  
   0.372981400    -0.0446347    0.0086811  
   0.374981300    -0.0396047    0.0096555  
   0.376981200    -0.0384355   -0.0003796  
   0.378981100    -0.0336088    0.0006568  
   0.380981000    -0.0288146    0.0008335  
   0.382980900    -0.0242719   -0.0001015  
   0.384980800    -0.0200418   -0.0017891  
   0.386980700    -0.0161547   -0.0040476  
   0.388980600    -0.0127118   -0.0068305  
   0.390980500    -0.0097653   -0.0100986  
   0.392980400    -0.0073218   -0.0138093  
   0.394980300    -0.0054799   -0.0177797  
   0.396980200    -0.0042857   -0.0219485  
   0.398980100    -0.0037966   -0.0261835  
   0.400980000    -0.0039312   -0.0303795  
   0.402979900    -0.0047782   -0.0344493  
   0.404979800    -0.0062137   -0.0382854  
   0.406979700    -0.0082327   -0.0417970  
   0.408979600    -0.0107845   -0.0448918  
   0.410979500    -0.0138422   -0.0474222  
   0.412979400    -0.0174366   -0.0494587  
   0.414979300    -0.0212400   -0.0507270  
   0.416979200    -0.0253206   -0.0513026  
   0.418979100    -0.0294582   -0.0511844  
   0.420979000    -0.0335530   -0.0503657  
   0.422978900    -0.0375527   -0.0488056  
   0.424978800    -0.0414053   -0.0465995  
   0.426978700    -0.0448458   -0.0436829  
   0.428978600    -0.0478859   -0.0402227  
   0.430978500    -0.0502456   -0.0362166  
   0.432978400    -0.0519110   -0.0316979  
   0.434978300    -0.0528439   -0.0269006  
   0.436978200    -0.0530808   -0.0219590  
   0.438978100    -0.0525661   -0.0169261  
   0.440978000    -0.0512456   -0.0118901  
   0.442977900    -0.0491255   -0.0070019  
   0.444977800    -0.0462149   -0.0023929  
   0.446977700    -0.0425511    0.0018495  
   0.448977600    -0.0382292    0.0056015  
   0.450977500    -0.0332677    0.0087414  
   0.452977400    -0.0278087    0.0112252  
   0.454977300    -0.0219314    0.0129157  
   0.456977200    -0.0157823    0.0137566  
   0.458977100    -0.0094577    0.0136954  
   0.460977000    -0.0030429    0.0126559  
   0.462976900     0.0032439    0.0106754  
   0.464976800     0.0092635    0.0077656  
   0.466976700     0.0148695    0.0039095  
   0.468976600     0.0199666   -0.0007851  
   0.470976500     0.0243871   -0.0062827  
   0.472976400     0.0280296   -0.0124427  
   0.474976300     0.0307919   -0.0191616  
   0.476976200     0.0326152   -0.0263129  
   0.478976100     0.0335028   -0.0338650  
   0.480976000     0.0333975   -0.0413844  
   0.482975900     0.0322789   -0.0488842  
   0.484975800     0.0300236   -0.0561431  
   0.486975700     0.0267594   -0.0631123  
   0.488975600     0.0224289   -0.0697954  
   0.490975500     0.0171810   -0.0757979  
   0.492975400     0.0112130   -0.0809561  
   0.494975300     0.0044280   -0.0852688  
   0.496975200    -0.0030377   -0.0886457  
   0.498975100    -0.0108098   -0.0909069  
   0.500975000    -0.0189733   -0.0920932  
   0.502974900    -0.0271907   -0.0920611  
   0.504974800    -0.0355008   -0.0909273  
   0.506974700    -0.0436146   -0.0885371  
   0.508974600    -0.0516077   -0.0850000  
   0.510974500    -0.0592965   -0.0804046  
   0.512974400    -0.0659411   -0.0747469  
   0.514974300    -0.0715834   -0.0680123  
   0.516974200    -0.0761805   -0.0607298  
   0.518974100    -0.0796257   -0.0528628  
   0.520974000    -0.0818120   -0.0443540  
   0.522973900    -0.0827103   -0.0357656  
   0.524973800    -0.0823596   -0.0273406  
   0.526973700    -0.0807980   -0.0190596  
   0.528973600    -0.0780205   -0.0112287  
   0.530973500    -0.0741756   -0.0039480  
   0.532973400    -0.0693004    0.0025949  
   0.534973300    -0.0635540    0.0082656  
   0.536973200    -0.0571164    0.0130132  
   0.538973100    -0.0500366    0.0167246  
   0.540973000    -0.0425791    0.0193417  
   0.542972900    -0.0349098    0.0208246  
   0.544972800    -0.0271364    0.0211829  
   0.546972700    -0.0194800    0.0203404  
   0.548972600    -0.0120760    0.0183619  
   0.550972500    -0.0050559    0.0152818  
   0.552972400     0.0013983    0.0111201  
   0.554972300     0.0071505    0.0059855  
   0.556972200     0.0120103   -0.0000222  
   0.558972100     0.0160958   -0.0067671  
   0.560972000     0.0190584   -0.0140268  
   0.562971900     0.0208819   -0.0217575  
   0.564971800     0.0215514   -0.0297043  
   0.566971700     0.0209167   -0.0376123  
   0.568971600     0.0190987   -0.0454028  
   0.570971500     0.0160932   -0.0528768  
   0.572971400     0.0118675   -0.0599402  
   0.574971300     0.0064095   -0.0664270  
   0.576971200    -0.0001326   -0.0721846  
   0.578971100    -0.0074628   -0.0771112  
   0.580971000    -0.0154848   -0.0809729  
   0.582970900    -0.0240868   -0.0834777  
   0.584970800    -0.0330216   -0.0847414  
   0.586970700    -0.0421357   -0.0846745  
   0.588970600    -0.0514666   -0.0831741  
   0.590970500    -0.0604892   -0.0803552  
   0.592970400    -0.0691229   -0.0762523  
   0.594970300    -0.0772609   -0.0710234  
   0.596970200    -0.0846344   -0.0646440  
   0.598970100    -0.0911178   -0.0572131  
   0.600970000    -0.0965975   -0.0488640  
   0.602969900    -0.1009432   -0.0397320  
   0.604969800    -0.1040655   -0.0300035  
   0.606969700    -0.1058666   -0.0198133  
   0.608969600    -0.1062501   -0.0093712  
   0.610969500    -0.1052054    0.0011255  
   0.612969400    -0.1026922    0.0114140  
   0.614969300    -0.0987445    0.0213189  
   0.616969200    -0.0935623    0.0305999  
   0.618969100    -0.0871827    0.0391408  
   0.620969000    -0.0797504    0.0467634  
   0.622968900    -0.0712949    0.0533435  
   0.624968800    -0.0620490    0.0587043  
   0.626968700    -0.0521302    0.0627102  
   0.628968600    -0.0417774    0.0655208  
   0.630968500    -0.0310086    0.0670327  
   0.632968400    -0.0203726    0.0667154  
   0.634968300    -0.0097818    0.0651276  
   0.636968200     0.0003785    0.0618771  
   0.638968100     0.0101312    0.0572465  
   0.640968000     0.0191021    0.0513394  
   0.642967900     0.0270095    0.0444227  
   0.644967800     0.0338067    0.0364860  
   0.646967700     0.0393657    0.0277707  
   0.648967600     0.0435874    0.0184546  
   0.650967500     0.0463927    0.0087778  
   0.652967400     0.0477524   -0.0010453  
   0.654967300     0.0478023   -0.0111148  
   0.656967200     0.0463867   -0.0207512  
   0.658967100     0.0434658   -0.0301330  
   0.660967000     0.0392515   -0.0389612  
   0.662966900     0.0339259   -0.0469664  
   0.664966800     0.0275098   -0.0541368  
   0.666966700     0.0201650   -0.0602817  
   0.668966600     0.0120704   -0.0652334  
   0.670966500     0.0031268   -0.0689566  
   0.672966400    -0.0058071   -0.0713241  
   0.674966300    -0.0149340   -0.0721754  
   0.676966200    -0.0239937   -0.0716107  
   0.678966100    -0.0327630   -0.0696780  
   0.680966000    -0.0410651   -0.0664551  
   0.682965900    -0.0487072   -0.0620336  
   0.684965800    -0.0555664   -0.0565601  
   0.686965700    -0.0614898   -0.0500926  
   0.688965600    -0.0663076   -0.0428808  
   0.690965500    -0.0699905   -0.0351800  
   0.692965400    -0.0723746   -0.0270283  
   0.694965300    -0.0734973   -0.0186469  
   0.696965200    -0.0733345   -0.0102813  
   0.698965100    -0.0718402   -0.0020582  
   0.700965000    -0.0690417    0.0057400  
   0.702964900    -0.0651491    0.0130777  
   0.704964800    -0.0601875    0.0197516  
   0.706964700    -0.0542418    0.0253939  
   0.708964600    -0.0472279    0.0301610  
   0.710964500    -0.0397757    0.0338271  
   0.712964400    -0.0319031    0.0360984  
   0.714964300    -0.0237136    0.0370352  
   0.716964200    -0.0155833    0.0367818  
   0.718964100    -0.0076918    0.0352668  
   0.720964000    -0.0001853    0.0325770  
   0.722963900     0.0067619    0.0286802  
   0.724963800     0.0132188    0.0237297  
   0.726963700     0.0187215    0.0180714  
   0.728963600     0.0231771    0.0115665  
   0.730963500     0.0264856    0.0042562  
   0.732963400     0.0287038   -0.0032811  
   0.734963300     0.0298523   -0.0111783  
   0.736963200     0.0303548   -0.0203420  
   0.738963100     0.0292626   -0.0293264  
   0.740963000     0.0266257   -0.0379526  
   0.742962900     0.0225469   -0.0459926  
   0.744962800     0.0170032   -0.0530676  
   0.746962700     0.0105713   -0.0589360  
   0.748962600     0.0032566   -0.0636121  
   0.750962500     0.0009879   -0.0615511  
   0.752962400    -0.0064827   -0.0658813  
   0.754962300    -0.0146578   -0.0687946  
   0.756962200    -0.0232423   -0.0701835  
   0.758962100    -0.0320424   -0.0700103  
   0.760962000    -0.0407787   -0.0682558  
   0.762961900    -0.0489930   -0.0652549  
   0.764961800    -0.0564384   -0.0615468  
   0.766961700    -0.0633187   -0.0567788  
   0.768961600    -0.0694870   -0.0510835  
   0.770961500    -0.0747975   -0.0445594  
   0.772961400    -0.0792054   -0.0373521  
   0.774961300    -0.0826365   -0.0295430  
   0.776961200    -0.0849918   -0.0212055  
   0.778961100    -0.0860175   -0.0127307  
   0.780961000    -0.0857533   -0.0042866  
   0.782960900    -0.0842314    0.0040388  
   0.784960800    -0.0813837    0.0120641  
   0.786960700    -0.0773119    0.0196326  
   0.788960600    -0.0722004    0.0265265  
   0.790960500    -0.0660111    0.0327501  
   0.792960400    -0.0590914    0.0378002  
   0.794960300    -0.0514300    0.0417738  
   0.796960200    -0.0434612    0.0445531  
   0.798960100    -0.0351486    0.0460234  
   0.800960000    -0.0266586    0.0462014  
   0.802959900    -0.0183594    0.0450804  
   0.804959800    -0.0104562    0.0427524  
   0.806959700    -0.0031932    0.0392295  
   0.808959600     0.0035163    0.0345616  
   0.810959500     0.0093723    0.0288895  
   0.812959400     0.0143762    0.0223582  
   0.814959300     0.0181842    0.0150831  
   0.816959200     0.0208254    0.0072842  
   0.818959100     0.0223760   -0.0010609  
   0.820959000     0.0224542   -0.0093857  
   0.822958900     0.0212083   -0.0176561  
   0.824958800     0.0186521   -0.0258513  
   0.826958700     0.0148370   -0.0334942  
   0.828958600     0.0098594   -0.0404411  
   0.830958500     0.0037699   -0.0465593  
   0.832958400    -0.0032735   -0.0516769  
   0.834958300    -0.0111199   -0.0556873  
   0.836958200    -0.0195825   -0.0584980  
   0.838958100    -0.0284636   -0.0600051  
   0.840958000    -0.0375504   -0.0601716  
   0.842957900    -0.0466190   -0.0589306  
   0.844957800    -0.0555635   -0.0562128  
   0.846957700    -0.0640912   -0.0521803  
   0.848957600    -0.0718783   -0.0469260  
   0.850957500    -0.0789664   -0.0405418  
   0.852957400    -0.0851056   -0.0329683  
   0.854957300    -0.0900507   -0.0245380  
   0.856957200    -0.0937453   -0.0155196  
   0.858957100    -0.0960956   -0.0060075  
   0.860957000    -0.0970922    0.0037413  
   0.862956900    -0.0967553    0.0135068  
   0.864956800    -0.0951518    0.0230609  
   0.866956700    -0.0923255    0.0322229  
   0.868956600    -0.0881870    0.0407860  
   0.870956500    -0.0829305    0.0487278  
   0.872956400    -0.0765111    0.0559267  
   0.874956300    -0.0691472    0.0622227  
   0.876956200    -0.0608904    0.0673631  
   0.878956100    -0.0519811    0.0712219  
   0.880956000    -0.0424980    0.0738229  
   0.882955900    -0.0328500    0.0750253  
   0.884955800    -0.0231453    0.0748552  
   0.886955700    -0.0134826    0.0732965  
   0.888955600    -0.0042747    0.0703732  
   0.890955500     0.0042719    0.0662258  
   0.892955400     0.0119745    0.0609017  
   0.894955300     0.0187132    0.0545606  
