! MS46122B
! 2250307/22442219
! 7/26/2025 10:28:55 AM
! C:\USERS\SPARKY\DOCUMENTS\VNA_DATA\JULY26_2025\295K\ECAL_OPEN_E_REPEAT1.S1P
! CHANNEL.1
! TR.MEASUREMENT
! RAW.DATA
# GHZ S RI R 50.0
! FREQ.GHZ         S11RE         S11IM         
!; PortSelection: Port_1
   0.001000000     1.0456580   -0.0724820  
   0.002999900     0.9480989   -0.2218487  
   0.004999800     0.8080981   -0.0892893  
   0.006999700     0.5285373   -0.4056315  
   0.008999600     0.9397284    0.0027745  
   0.010999500     0.9266029   -0.2255673  
   0.012999400     0.8873149   -0.3344839  
   0.014999300     0.8476310   -0.4164715  
   0.016999200     0.8077808   -0.4871920  
   0.018999100     0.7653067   -0.5527706  
   0.020999000     0.7188776   -0.6138195  
   0.022998900     0.6674216   -0.6697227  
   0.024998800     0.6016663   -0.6859076  
   0.026998700     0.5484851   -0.7680778  
   0.028998600     0.4794527   -0.8096514  
   0.030998500     0.4037583   -0.8448181  
   0.032998400     0.3236592   -0.8386257  
   0.034998300     0.2309090   -0.8925976  
   0.036998200     0.1345865   -0.9023601  
   0.038998100     0.0322190   -0.9006063  
   0.040998000    -0.0751107   -0.8848431  
   0.042997900    -0.1859834   -0.8539842  
   0.044997800    -0.2758822   -0.7833666  
   0.046997700    -0.4095768   -0.7353433  
   0.048997600    -0.5154049   -0.6441980  
   0.050997500    -0.6113840   -0.5286657  
   0.052997400    -0.6897876   -0.3889934  
   0.054997300    -0.7443954   -0.2232429  
   0.056997200    -0.7632748   -0.0378643  
   0.058997100    -0.7375662    0.1587667  
   0.060997000    -0.6608215    0.3531677  
   0.062996900    -0.5316496    0.5286733  
   0.064996800    -0.3560752    0.6665613  
   0.066996700    -0.1488123    0.7532430  
   0.068996600     0.0710405    0.7802986  
   0.070996500     0.2846997    0.7502372  
   0.072996400     0.4752688    0.6703083  
   0.074996300     0.6316583    0.5535199  
   0.076996200     0.7500660    0.4131549  
   0.078996100     0.8304032    0.2616964  
   0.080996000     0.8755745    0.1075281  
   0.082995900     0.8905108   -0.0420012  
   0.084995800     0.8788759   -0.1818756  
   0.086995700     0.8474321   -0.3101601  
   0.088995600     0.7990565   -0.4259260  
   0.090995500     0.7378485   -0.5278745  
   0.092995400     0.6673395   -0.6173759  
   0.094995300     0.5874644   -0.6928787  
   0.096995200     0.5016113   -0.7553853  
   0.098995100     0.4109294   -0.8059051  
   0.100995000     0.3167257   -0.8442076  
   0.102994900     0.2203462   -0.8705820  
   0.104994800     0.1226306   -0.8854493  
   0.106994700     0.0239062   -0.8886716  
   0.108994600    -0.0742435   -0.8812706  
   0.110994500    -0.1716908   -0.8627105  
   0.112994400    -0.2667402   -0.8326189  
   0.114994300    -0.3592698   -0.7910972  
   0.116994200    -0.4474639   -0.7382336  
   0.118994100    -0.5298775   -0.6733674  
   0.120994000    -0.6071098   -0.5982520  
   0.122993900    -0.6746854   -0.5105509  
   0.124993800    -0.7320008   -0.4117740  
   0.126993700    -0.7772408   -0.3026025  
   0.128993600    -0.8062065   -0.1841599  
   0.130993500    -0.8191088   -0.0584013  
   0.132993400    -0.8132767    0.0725423  
   0.134993300    -0.7859709    0.2059204  
   0.136993200    -0.7355223    0.3375129  
   0.138993100    -0.6613217    0.4634596  
   0.140993000    -0.5633391    0.5780208  
   0.142992900    -0.4428878    0.6762284  
   0.144992800    -0.3035008    0.7534404  
   0.146992700    -0.1484351    0.8026510  
   0.148992600     0.0157800    0.8212648  
   0.150992500     0.1808835    0.8065956  
   0.152992400     0.3410217    0.7608760  
   0.154992300     0.4880650    0.6855508  
   0.156992200     0.6166190    0.5840306  
   0.158992100     0.7215684    0.4622594  
   0.160992000     0.8000205    0.3254637  
   0.162991900     0.8509006    0.1803989  
   0.164991800     0.8747733    0.0324452  
   0.166991700     0.8724365   -0.1122745  
   0.168991600     0.8466389   -0.2502102  
   0.170991500     0.8001558   -0.3783661  
   0.172991400     0.7356570   -0.4937296  
   0.174991300     0.6574296   -0.5944530  
   0.176991200     0.5673193   -0.6801661  
   0.178991100     0.4678873   -0.7502482  
   0.180991000     0.3633902   -0.8046304  
   0.182990900     0.2536651   -0.8424604  
   0.184990800     0.1417853   -0.8647310  
   0.186990700     0.0294676   -0.8719594  
   0.188990600    -0.0569013   -0.8651257  
   0.190990500    -0.1856440   -0.8420317  
   0.192990400    -0.2928904   -0.8051552  
   0.194990300    -0.3908385   -0.7560460  
   0.196990200    -0.4814993   -0.6948057  
   0.198990100    -0.5636288   -0.6217604  
   0.200990000    -0.6362735   -0.5376801  
   0.202989900    -0.6978345   -0.4430753  
   0.204989800    -0.7468512   -0.3401445  
   0.206989700    -0.7829513   -0.2301125  
   0.208989600    -0.8022048   -0.1141738  
   0.210989500    -0.8049887    0.0064966  
   0.212989400    -0.7899037    0.1288326  
   0.214989300    -0.7557410    0.2504001  
   0.216989200    -0.7027029    0.3676984  
   0.218989100    -0.6305603    0.4775062  
   0.220989000    -0.5393455    0.5765660  
   0.222988900    -0.4306189    0.6617690  
   0.224988800    -0.3068116    0.7291071  
   0.226988700    -0.1712980    0.7752594  
   0.228988600    -0.0281989    0.7970706  
   0.230988500     0.1182795    0.7938479  
   0.232988400     0.2624548    0.7633108  
   0.234988300     0.4004959    0.7088436  
   0.236988200     0.5269221    0.6302733  
   0.238988100     0.6365865    0.5314720  
   0.240988000     0.7265072    0.4155189  
   0.242987900     0.7938364    0.2881024  
   0.244987800     0.8375766    0.1524153  
   0.246987700     0.8575248    0.0138092  
   0.248987600     0.8543742   -0.1240535  
   0.250987500     0.8292363   -0.2568964  
   0.252987400     0.7841744   -0.3812285  
   0.254987300     0.7225600   -0.4937551  
   0.256987200     0.6460520   -0.5933124  
   0.258987100     0.5587318   -0.6796444  
   0.260987000     0.4606936   -0.7497953  
   0.262986900     0.3556891   -0.8046454  
   0.264986800     0.2460053   -0.8437392  
   0.266986700     0.1333227   -0.8666380  
   0.268986600     0.0208438   -0.8743415  
   0.270986500    -0.0895604   -0.8670114  
   0.272986400    -0.1970637   -0.8454909  
   0.274986300    -0.3000991   -0.8105762  
   0.276986200    -0.3973435   -0.7626113  
   0.278986100    -0.4879342   -0.7024283  
   0.280986000    -0.5701534   -0.6305540  
   0.282985900    -0.6426110   -0.5480618  
   0.284985800    -0.7042449   -0.4561830  
   0.286985700    -0.7531723   -0.3560441  
   0.288985600    -0.7882990   -0.2498278  
   0.290985500    -0.8090383   -0.1388411  
   0.292985400    -0.8138584   -0.0239782  
   0.294985300    -0.8025387    0.0924503  
   0.296985200    -0.7733188    0.2091921  
   0.298985100    -0.7254305    0.3233633  
   0.300985000    -0.6585903    0.4312932  
   0.302984900    -0.5735263    0.5289174  
   0.304984800    -0.4708872    0.6126764  
   0.306984700    -0.3528348    0.6786845  
   0.308984600    -0.2231622    0.7228224  
   0.310984500    -0.0860481    0.7425754  
   0.312984400     0.0535135    0.7350459  
   0.314984300     0.1889979    0.7000899  
   0.316984200     0.3131513    0.6385902  
   0.318984100     0.4202550    0.5541098  
   0.320984000     0.5036096    0.4528855  
   0.322983900     0.5607327    0.3429707  
   0.324983800     0.5922143    0.2339779  
   0.326983700     0.6033199    0.1329858  
   0.328983600     0.6012532    0.0432210  
   0.330983500     0.5935007   -0.0354472  
   0.332983400     0.5850967   -0.1076470  
   0.334983300     0.5767643   -0.1794754  
   0.336983200     0.5658013   -0.2555933  
   0.338983100     0.5469139   -0.3376990  
   0.340983000     0.5152955   -0.4242245  
   0.342982900     0.4672593   -0.5105569  
   0.344982800     0.4012389   -0.5924427  
   0.346982700     0.3181248   -0.6645346  
   0.348982600     0.2206188   -0.7207609  
   0.350982500     0.1127710   -0.7610412  
   0.352982400    -0.0012314   -0.7821928  
   0.354982300    -0.1233912   -0.7829425  
   0.356982200    -0.2573271   -0.7578740  
   0.358982100    -0.3836838   -0.7089870  
   0.360982000    -0.4982947   -0.6383591  
   0.362981900    -0.5980507   -0.5493455  
   0.364981800    -0.6807694   -0.4441141  
   0.366981700    -0.7439997   -0.3266340  
   0.368981600    -0.7856913   -0.2009462  
   0.370981500    -0.8059056   -0.0695863  
   0.372981400    -0.8036138    0.0624801  
   0.374981300    -0.7791308    0.1931826  
   0.376981200    -0.8071101    0.0634870  
   0.378981100    -0.7819433    0.1978564  
   0.380981000    -0.7338181    0.3269238  
   0.382980900    -0.6719214    0.4361939  
   0.384980800    -0.5972229    0.5304013  
   0.386980700    -0.5082363    0.6138842  
   0.388980600    -0.4063326    0.6837060  
   0.390980500    -0.2948750    0.7373583  
   0.392980400    -0.1753819    0.7736471  
   0.394980300    -0.0505114    0.7910950  
   0.396980200     0.0763619    0.7885283  
   0.398980100     0.2027461    0.7664191  
   0.400980000     0.3248476    0.7240300  
   0.402979900     0.4398759    0.6617543  
   0.404979800     0.5436713    0.5819658  
   0.406979700     0.6335483    0.4856554  
   0.408979600     0.7064248    0.3759356  
   0.410979500     0.7609671    0.2550587  
   0.412979400     0.7949417    0.1265089  
   0.414979300     0.8060025   -0.0055293  
   0.416979200     0.7962337   -0.1371985  
   0.418979100     0.7652826   -0.2642422  
   0.420979000     0.7144188   -0.3840148  
   0.422978900     0.6454790   -0.4929963  
   0.424978800     0.5604967   -0.5886784  
   0.426978700     0.4623058   -0.6689345  
   0.428978600     0.3541040   -0.7317036  
   0.430978500     0.2392458   -0.7762166  
   0.432978400     0.1209885   -0.8019270  
   0.434978300     0.0014064   -0.8111658  
   0.436978200    -0.1165670   -0.8008873  
   0.438978100    -0.2303566   -0.7735124  
   0.440978000    -0.3380709   -0.7303994  
   0.442977900    -0.4375767   -0.6722513  
   0.444977800    -0.5265349   -0.6009918  
   0.446977700    -0.6044044   -0.5181811  
   0.448977600    -0.6687347   -0.4257029  
   0.450977500    -0.7194857   -0.3249327  
   0.452977400    -0.7557271   -0.2177955  
   0.454977300    -0.7758963   -0.1057159  
   0.456977200    -0.7799509    0.0085491  
   0.458977100    -0.7672094    0.1233129  
   0.460977000    -0.7378145    0.2348177  
   0.462976900    -0.6918634    0.3412544  
   0.464976800    -0.6302682    0.4408881  
   0.466976700    -0.5540760    0.5305780  
   0.468976600    -0.4640630    0.6087573  
   0.470976500    -0.3622234    0.6725893  
   0.472976400    -0.2508279    0.7202910  
   0.474976300    -0.1321894    0.7503567  
   0.476976200    -0.0093261    0.7614812  
   0.478976100     0.1145376    0.7527543  
   0.480976000     0.2355346    0.7240893  
   0.482975900     0.3506814    0.6762776  
   0.484975800     0.4572008    0.6102172  
   0.486975700     0.5517197    0.5274162  
   0.488975600     0.6312892    0.4300161  
   0.490975500     0.6936814    0.3212445  
   0.492975400     0.7371878    0.2041319  
   0.494975300     0.7607039    0.0820864  
   0.496975200     0.7639126   -0.0412158  
   0.498975100     0.7472426   -0.1611158  
   0.500975000     0.7122771   -0.2758353  
   0.502974900     0.6606053   -0.3810575  
   0.504974800     0.5942295   -0.4754933  
   0.506974700     0.5155221   -0.5575398  
   0.508974600     0.4265575   -0.6259717  
   0.510974500     0.3305379   -0.6797535  
   0.512974400     0.2301649   -0.7187006  
   0.514974300     0.1272318   -0.7413015  
   0.516974200     0.0241150   -0.7517186  
   0.518974100    -0.0774453   -0.7483226  
   0.520974000    -0.1771895   -0.7321174  
   0.522973900    -0.2736480   -0.7039977  
   0.524973800    -0.3658614   -0.6632176  
   0.526973700    -0.4532616   -0.6108986  
   0.528973600    -0.5339693   -0.5467652  
   0.530973500    -0.6066580   -0.4706565  
   0.532973400    -0.6688150   -0.3841942  
   0.534973300    -0.7186866   -0.2876443  
   0.536973200    -0.7540811   -0.1830594  
   0.538973100    -0.7733890   -0.0735187  
   0.540973000    -0.7760079    0.0386588  
   0.542972900    -0.7612233    0.1508875  
   0.544972800    -0.7290115    0.2604452  
   0.546972700    -0.6800849    0.3646356  
   0.548972600    -0.6152372    0.4607329  
   0.550972500    -0.5359838    0.5460486  
   0.552972400    -0.4441232    0.6184929  
   0.554972300    -0.3413255    0.6762903  
   0.556972200    -0.2304914    0.7178078  
   0.558972100    -0.1142431    0.7417552  
   0.560972000     0.0046391    0.7473522  
   0.562971900     0.1234109    0.7343357  
   0.564971800     0.2389141    0.7031849  
   0.566971700     0.3482087    0.6544576  
   0.568971600     0.4489399    0.5889707  
   0.570971500     0.5385589    0.5082176  
   0.572971400     0.6144600    0.4137287  
   0.574971300     0.6748552    0.3082201  
   0.576971200     0.7178812    0.1933878  
   0.578971100     0.7418894    0.0727081  
   0.580971000     0.7461871   -0.0498153  
   0.582970900     0.7310466   -0.1714538  
   0.584970800     0.6965976   -0.2885325  
   0.586970700     0.6443777   -0.3974632  
   0.588970600     0.5759102   -0.4966891  
   0.590970500     0.4932795   -0.5831423  
   0.592970400     0.3985964   -0.6554095  
   0.594970300     0.2946181   -0.7116157  
   0.596970200     0.1841159   -0.7501666  
   0.598970100     0.0697783   -0.7719138  
   0.600970000    -0.0459179   -0.7759589  
   0.602969900    -0.1598000   -0.7628461  
   0.604969800    -0.2700184   -0.7327451  
   0.606969700    -0.3741295   -0.6869464  
   0.608969600    -0.4695095   -0.6266689  
   0.610969500    -0.5546509   -0.5533258  
   0.612969400    -0.6279584   -0.4691631  
   0.614969300    -0.6875039   -0.3755858  
   0.616969200    -0.7329884   -0.2754276  
   0.618969100    -0.7635452   -0.1704192  
   0.620969000    -0.7791231   -0.0629842  
   0.622968900    -0.7792332    0.0459750  
   0.624968800    -0.7642612    0.1538842  
   0.626968700    -0.7342257    0.2591154  
   0.628968600    -0.6892261    0.3596700  
   0.630968500    -0.6303297    0.4531125  
   0.632968400    -0.5578573    0.5378795  
   0.634968300    -0.4738456    0.6119503  
   0.636968200    -0.3789111    0.6736156  
   0.638968100    -0.2752788    0.7210513  
   0.640968000    -0.1647701    0.7529079  
   0.642967900    -0.0499848    0.7681782  
   0.644967800     0.0669151    0.7662982  
   0.646967700     0.1831877    0.7465127  
   0.648967600     0.2954551    0.7091630  
   0.650967500     0.4016348    0.6545351  
   0.652967400     0.4979018    0.5843740  
   0.654967300     0.5833511    0.4992673  
   0.656967200     0.6543248    0.4020354  
   0.658967100     0.7094284    0.2940289  
   0.660967000     0.7472381    0.1780227  
   0.662966900     0.7662883    0.0569748  
   0.664966800     0.7660069   -0.0661971  
   0.666966700     0.7458825   -0.1879985  
   0.668966600     0.7065799   -0.3046284  
   0.670966500     0.6494706   -0.4134262  
   0.672966400     0.5772163   -0.5120001  
   0.674966300     0.4902012   -0.5962688  
   0.676966200     0.3919643   -0.6649407  
   0.678966100     0.2854983   -0.7166681  
   0.680966000     0.1732609   -0.7513874  
   0.682965900     0.0583870   -0.7681156  
   0.684965800    -0.0561609   -0.7675164  
   0.686965700    -0.1686462   -0.7495739  
   0.688965600    -0.2759878   -0.7156339  
   0.690965500    -0.3757820   -0.6657687  
   0.692965400    -0.4664561   -0.6036179  
   0.694965300    -0.5467546   -0.5294603  
   0.696965200    -0.6148947   -0.4454860  
   0.698965100    -0.6701276   -0.3525897  
   0.700965000    -0.7113510   -0.2532640  
   0.702964900    -0.7381012   -0.1493671  
   0.704964800    -0.7494522   -0.0427726  
   0.706964700    -0.7457968    0.0646911  
   0.708964600    -0.7262935    0.1706798  
   0.710964500    -0.6920040    0.2736285  
   0.712964400    -0.6425340    0.3703930  
   0.714964300    -0.5787785    0.4594092  
   0.716964200    -0.5023258    0.5380976  
   0.718964100    -0.4149345    0.6048250  
   0.720964000    -0.3183851    0.6579347  
   0.722963900    -0.2144967    0.6959773  
   0.724963800    -0.1051664    0.7177659  
   0.726963700     0.0063100    0.7223077  
   0.728963600     0.1183442    0.7097791  
   0.730963500     0.2268008    0.6789763  
   0.732963400     0.3292331    0.6321334  
   0.734963300     0.4235512    0.5693817  
   0.736963200     0.5189183    0.4803615  
   0.738963100     0.5973815    0.3752173  
   0.740963000     0.6550420    0.2579932  
   0.742962900     0.6904830    0.1332147  
   0.744962800     0.7029389    0.0050776  
   0.746962700     0.6927079   -0.1218421  
   0.748962600     0.6604248   -0.2441950  
   0.750962500     0.6777090   -0.1342903  
   0.752962400     0.6449599   -0.2546271  
   0.754962300     0.5923089   -0.3665538  
   0.756962200     0.5218382   -0.4668239  
   0.758962100     0.4359382   -0.5534613  
   0.760962000     0.3368542   -0.6239930  
   0.762961900     0.2330853   -0.6743728  
   0.764961800     0.1329072   -0.7058803  
   0.766961700     0.0293038   -0.7225656  
   0.768961600    -0.0760242   -0.7239766  
   0.770961500    -0.1805299   -0.7103480  
   0.772961400    -0.2818978   -0.6815960  
   0.774961300    -0.3784266   -0.6381747  
   0.776961200    -0.4678657   -0.5811263  
   0.778961100    -0.5482600   -0.5109091  
   0.780961000    -0.6177081   -0.4291760  
   0.782960900    -0.6743678   -0.3376571  
   0.784960800    -0.7169094   -0.2379702  
   0.786960700    -0.7439361   -0.1327063  
   0.788960600    -0.7550083   -0.0243066  
   0.790960500    -0.7497833    0.0848027  
   0.792960400    -0.7280058    0.1919044  
   0.794960300    -0.6903445    0.2944376  
   0.796960200    -0.6379560    0.3905687  
   0.798960100    -0.5720302    0.4772815  
   0.800960000    -0.4936020    0.5530763  
   0.802959900    -0.4046463    0.6169562  
   0.804959800    -0.3073861    0.6666588  
   0.806959700    -0.2033217    0.7014340  
   0.808959600    -0.0952684    0.7204348  
   0.810959500     0.0145316    0.7228805  
   0.812959400     0.1243114    0.7088042  
   0.814959300     0.2311274    0.6781465  
   0.816959200     0.3325230    0.6317128  
   0.818959100     0.4259823    0.5699392  
   0.820959000     0.5095451    0.4942153  
   0.822958900     0.5806392    0.4060135  
   0.824958800     0.6376079    0.3074604  
   0.826958700     0.6787174    0.2006328  
   0.828958600     0.7025998    0.0886044  
   0.830958500     0.7087755   -0.0263907  
   0.832958400     0.6965107   -0.1409451  
   0.834958300     0.6663357   -0.2519220  
   0.836958200     0.6192173   -0.3567147  
   0.838958100     0.5560067   -0.4529692  
   0.840958000     0.4787416   -0.5380391  
   0.842957900     0.3890292   -0.6093699  
   0.844957800     0.2892748   -0.6658990  
   0.846957700     0.1826194   -0.7058730  
   0.848957600     0.0713120   -0.7283971  
   0.850957500    -0.0415511   -0.7336333  
   0.852957400    -0.1531775   -0.7211459  
   0.854957300    -0.2609524   -0.6920128  
   0.856957200    -0.3624319   -0.6468518  
   0.858957100    -0.4551629   -0.5876152  
   0.860957000    -0.5371854   -0.5158139  
   0.862956900    -0.6070684   -0.4338416  
   0.864956800    -0.6635460   -0.3432753  
   0.866956700    -0.7058864   -0.2464457  
   0.868956600    -0.7334596   -0.1454491  
   0.870956500    -0.7464852   -0.0416152  
   0.872956400    -0.7446308    0.0623734  
   0.874956300    -0.7281874    0.1650008  
   0.876956200    -0.6971059    0.2647675  
   0.878956100    -0.6524891    0.3588313  
   0.880956000    -0.5947507    0.4461646  
   0.882955900    -0.5247884    0.5245609  
   0.884955800    -0.4440227    0.5925408  
   0.886955700    -0.3541416    0.6483658  
   0.888955600    -0.2564785    0.6914419  
   0.890955500    -0.1532956    0.7199082  
   0.892955400    -0.0463807    0.7328929  
   0.894955300     0.0622627    0.7301069  
