! MS46122B
! 2250307/22442219
! 7/22/2025 3:13:40 PM
! C:\USERS\SPARKY\DOCUMENTS\VNA_DATA\JULY22_2025\295\ECAL_SHORT_B.S1P
! CHANNEL.1
! TR.MEASUREMENT
! RAW.DATA
# GHZ S RI R 50.0
! FREQ.GHZ         S11RE         S11IM         
!; PortSelection: Port_1
   0.001000000     1.0459000   -0.0717803  
   0.002999900     0.9643419   -0.1944755  
   0.004999800     0.9042882   -0.2994512  
   0.006999700     0.8370854   -0.3969485  
   0.008999600     0.7589920   -0.4918979  
   0.010999500     0.6669481   -0.5820057  
   0.012999400     0.5560634   -0.6648092  
   0.014999300     0.4209642   -0.7344503  
   0.016999200     0.2563976   -0.7799760  
   0.018999100     0.0584120   -0.7843253  
   0.020999000    -0.1663704   -0.7197201  
   0.022998900    -0.3899914   -0.5519630  
   0.024998800    -0.5264482   -0.2631538  
   0.026998700    -0.5509291    0.1076740  
   0.028998600    -0.3605464    0.4434308  
   0.030998500    -0.0439277    0.6319470  
   0.032998400     0.2587455    0.6357595  
   0.034998300     0.5429342    0.5583556  
   0.036998200     0.7227297    0.4095236  
   0.038998100     0.8324887    0.2450495  
   0.040998000     0.8893964    0.0845947  
   0.042997900     0.9085503   -0.0638744  
   0.044997800     0.8717905   -0.1749637  
   0.046997700     0.8713292   -0.3157706  
   0.048997600     0.8291888   -0.4204673  
   0.050997500     0.7762108   -0.5117576  
   0.052997400     0.7154741   -0.5909200  
   0.054997300     0.6500624   -0.6587623  
   0.056997200     0.5766731   -0.7194015  
   0.058997100     0.5009305   -0.7693684  
   0.060997000     0.4217540   -0.8106676  
   0.062996900     0.3393929   -0.8438001  
   0.064996800     0.2545223   -0.8681360  
   0.066996700     0.1670379   -0.8834498  
   0.068996600     0.0774828   -0.8903571  
   0.070996500    -0.0132391   -0.8884648  
   0.072996400    -0.1049719   -0.8757100  
   0.074996300    -0.1974052   -0.8522916  
   0.076996200    -0.2889804   -0.8174462  
   0.078996100    -0.3787389   -0.7711514  
   0.080996000    -0.4653163   -0.7121492  
   0.082995900    -0.5468119   -0.6397633  
   0.084995800    -0.6207181   -0.5530012  
   0.086995700    -0.6854466   -0.4535570  
   0.088995600    -0.7378316   -0.3404557  
   0.090995500    -0.7744999   -0.2149093  
   0.092995400    -0.7926278   -0.0788257  
   0.094995300    -0.7864793    0.0650800  
   0.096995200    -0.7538536    0.2129138  
   0.098995100    -0.6918193    0.3582093  
   0.100995000    -0.5989554    0.4958420  
   0.102994900    -0.4771750    0.6142142  
   0.104994800    -0.3297952    0.7075206  
   0.106994700    -0.1626883    0.7683062  
   0.108994600     0.0146743    0.7927192  
   0.110994500     0.1929764    0.7785963  
   0.112994400     0.3629537    0.7269370  
   0.114994300     0.5152982    0.6423708  
   0.116994200     0.6432625    0.5308610  
   0.118994100     0.7432457    0.4004497  
   0.120994000     0.8148993    0.2585897  
   0.122993900     0.8557170    0.1114754  
   0.124993800     0.8685065   -0.0342209  
   0.126993700     0.8567206   -0.1743542  
   0.128993600     0.8219082   -0.3038912  
   0.130993500     0.7708056   -0.4222997  
   0.132993400     0.7046375   -0.5272088  
   0.134993300     0.6270384   -0.6183683  
   0.136993200     0.5398960   -0.6949460  
   0.138993100     0.4459368   -0.7569162  
   0.140993000     0.3471464   -0.8044346  
   0.142992900     0.2450944   -0.8384050  
   0.144992800     0.1417523   -0.8593137  
   0.146992700     0.0374322   -0.8661386  
   0.148992600    -0.0657970   -0.8601851  
   0.150992500    -0.1665990   -0.8403199  
   0.152992400    -0.2643648   -0.8094837  
   0.154992300    -0.3575979   -0.7664585  
   0.156992200    -0.4456093   -0.7123151  
   0.158992100    -0.5270175   -0.6470318  
   0.160992000    -0.6005221   -0.5710217  
   0.162991900    -0.6645895   -0.4852831  
   0.164991800    -0.7180403   -0.3895443  
   0.166991700    -0.7592337   -0.2859262  
   0.168991600    -0.7863817   -0.1752734  
   0.170991500    -0.7984657   -0.0585194  
   0.172991400    -0.7937385    0.0610303  
   0.174991300    -0.7710775    0.1819446  
   0.176991200    -0.7290565    0.3017426  
   0.178991100    -0.6677219    0.4165800  
   0.180991000    -0.5876259    0.5234219  
   0.182990900    -0.4881671    0.6172929  
   0.184990800    -0.3712478    0.6955339  
   0.186990700    -0.2402116    0.7539401  
   0.188990600    -0.1219605    0.7852808  
   0.190990500     0.0443001    0.7980516  
   0.192990400     0.1956639    0.7812096  
   0.194990300     0.3391390    0.7381138  
   0.196990200     0.4718605    0.6702590  
   0.198990100     0.5897595    0.5800591  
   0.200990000     0.6893301    0.4707560  
   0.202989900     0.7673711    0.3468219  
   0.204989800     0.8217750    0.2135455  
   0.206989700     0.8529455    0.0757357  
   0.208989600     0.8590628   -0.0620637  
   0.210989500     0.8429862   -0.1964943  
   0.212989400     0.8061521   -0.3238554  
   0.214989300     0.7510825   -0.4408761  
   0.216989200     0.6806993   -0.5451845  
   0.218989100     0.5979272   -0.6353535  
   0.220989000     0.5044622   -0.7112549  
   0.222988900     0.4029460   -0.7717105  
   0.224988800     0.2960307   -0.8163614  
   0.226988700     0.1858025   -0.8454975  
   0.228988600     0.0753208   -0.8588645  
   0.230988500    -0.0349218   -0.8570853  
   0.232988400    -0.1430939   -0.8399303  
   0.234988300    -0.2478247   -0.8097236  
   0.236988200    -0.3474133   -0.7663052  
   0.238988100    -0.4402111   -0.7097564  
   0.240988000    -0.5244318   -0.6420954  
   0.242987900    -0.5989703   -0.5636872  
   0.244987800    -0.6629040   -0.4751495  
   0.246987700    -0.7151294   -0.3776124  
   0.248987600    -0.7538135   -0.2719207  
   0.250987500    -0.7780918   -0.1603281  
   0.252987400    -0.7861611   -0.0450333  
   0.254987300    -0.7774163    0.0720203  
   0.256987200    -0.7511323    0.1884516  
   0.258987100    -0.7078655    0.3026885  
   0.260987000    -0.6448485    0.4106381  
   0.262986900    -0.5635462    0.5099648  
   0.264986800    -0.4652021    0.5969559  
   0.266986700    -0.3516434    0.6677967  
   0.268986600    -0.2256821    0.7191201  
   0.270986500    -0.0910487    0.7483025  
   0.272986400     0.0482956    0.7537644  
   0.274986300     0.1879101    0.7345396  
   0.276986200     0.3232913    0.6900784  
   0.278986100     0.4491197    0.6217666  
   0.280986000     0.5607445    0.5315839  
   0.282985900     0.6543287    0.4230127  
   0.284985800     0.7257196    0.3005895  
   0.286985700     0.7737172    0.1687630  
   0.288985600     0.7974455    0.0333145  
   0.290985500     0.7973856   -0.1011859  
   0.292985400     0.7746414   -0.2309231  
   0.294985300     0.7321742   -0.3522355  
   0.296985200     0.6718051   -0.4633334  
   0.298985100     0.5957204   -0.5614377  
   0.300985000     0.5075991   -0.6443343  
   0.302984900     0.4105454   -0.7112050  
   0.304984800     0.3068986   -0.7615384  
   0.306984700     0.2004332   -0.7954907  
   0.308984600     0.0935145   -0.8133973  
   0.310984500    -0.0122265   -0.8168557  
   0.312984400    -0.1149572   -0.8062128  
   0.314984300    -0.2136519   -0.7830253  
   0.316984200    -0.3070826   -0.7479195  
   0.318984100    -0.3948512   -0.7017491  
   0.320984000    -0.4759449   -0.6459850  
   0.322983900    -0.5495486   -0.5811726  
   0.324983800    -0.6151192   -0.5085747  
   0.326983700    -0.6721676   -0.4284458  
   0.328983600    -0.7205793   -0.3412473  
   0.330983500    -0.7588086   -0.2466797  
   0.332983400    -0.7851262   -0.1456495  
   0.334983300    -0.7974060   -0.0388172  
   0.336983200    -0.7934810    0.0710488  
   0.338983100    -0.7724187    0.1807841  
   0.340983000    -0.7347161    0.2869718  
   0.342982900    -0.6807525    0.3875793  
   0.344982800    -0.6122833    0.4795355  
   0.346982700    -0.5294746    0.5619003  
   0.348982600    -0.4344493    0.6309111  
   0.350982500    -0.3295684    0.6863227  
   0.352982400    -0.2164109    0.7261312  
   0.354982300    -0.0921624    0.7488644  
   0.356982200     0.0481853    0.7504733  
   0.358982100     0.1874415    0.7265716  
   0.360982000     0.3202526    0.6778715  
   0.362981900     0.4428487    0.6056083  
   0.364981800     0.5512169    0.5117307  
   0.366981700     0.6409541    0.3985484  
   0.368981600     0.7085492    0.2700678  
   0.370981500     0.7514152    0.1307056  
   0.372981400     0.7673248   -0.0145254  
   0.374981300     0.7554994   -0.1610160  
   0.376981200     0.7698844   -0.0574969  
   0.378981100     0.7495054   -0.2023192  
   0.380981000     0.7027332   -0.3398492  
   0.382980900     0.6385798   -0.4551655  
   0.384980800     0.5603205   -0.5527034  
   0.386980700     0.4685178   -0.6357194  
   0.388980600     0.3656775   -0.7020814  
   0.390980500     0.2557760   -0.7508768  
   0.392980400     0.1413504   -0.7814084  
   0.394980300     0.0258403   -0.7941164  
   0.396980200    -0.0891173   -0.7896777  
   0.398980100    -0.2007188   -0.7689009  
   0.400980000    -0.3064919   -0.7320777  
   0.402979900    -0.4056911   -0.6806074  
   0.404979800    -0.4949250   -0.6167077  
   0.406979700    -0.5739323   -0.5408784  
   0.408979600    -0.6412560   -0.4558180  
   0.410979500    -0.6959584   -0.3613382  
   0.412979400    -0.7371505   -0.2600204  
   0.414979300    -0.7623292   -0.1537129  
   0.416979200    -0.7739971   -0.0444051  
   0.418979100    -0.7703699    0.0653258  
   0.420979000    -0.7509544    0.1739077  
   0.422978900    -0.7159191    0.2794899  
   0.424978800    -0.6657104    0.3800888  
   0.426978700    -0.6010455    0.4735159  
   0.428978600    -0.5227649    0.5571361  
   0.430978500    -0.4325219    0.6287427  
   0.432978400    -0.3317928    0.6867115  
   0.434978300    -0.2231334    0.7305563  
   0.436978200    -0.1074078    0.7570187  
   0.438978100     0.0123161    0.7653812  
   0.440978000     0.1332127    0.7554244  
   0.442977900     0.2522217    0.7266178  
   0.444977800     0.3659728    0.6791988  
   0.446977700     0.4716815    0.6138655  
   0.448977600     0.5660816    0.5321188  
   0.450977500     0.6467178    0.4359124  
   0.452977400     0.7112184    0.3276795  
   0.454977300     0.7574525    0.2095643  
   0.456977200     0.7843047    0.0853772  
   0.458977100     0.7902406   -0.0417757  
   0.460977000     0.7758446   -0.1672673  
   0.462976900     0.7416096   -0.2875870  
   0.464976800     0.6888827   -0.4005291  
   0.466976700     0.6199894   -0.5026085  
   0.468976600     0.5365196   -0.5918750  
   0.470976500     0.4411311   -0.6660781  
   0.472976400     0.3368890   -0.7238627  
   0.474976300     0.2261367   -0.7646894  
   0.476976200     0.1120251   -0.7880468  
   0.478976100    -0.0022076   -0.7942500  
   0.480976000    -0.1144247   -0.7837111  
   0.482975900    -0.2219696   -0.7574095  
   0.484975800    -0.3239935   -0.7167041  
   0.486975700    -0.4187119   -0.6621516  
   0.488975600    -0.5040737   -0.5954058  
   0.490975500    -0.5791639   -0.5178973  
   0.492975400    -0.6425348   -0.4304264  
   0.494975300    -0.6930822   -0.3350752  
   0.496975200    -0.7299314   -0.2333043  
   0.498975100    -0.7519163   -0.1275520  
   0.500975000    -0.7585997   -0.0191046  
   0.502974900    -0.7497600    0.0893811  
   0.504974800    -0.7250063    0.1967897  
   0.506974700    -0.6842185    0.3005337  
   0.508974600    -0.6275476    0.3982726  
   0.510974500    -0.5554819    0.4867437  
   0.512974400    -0.4701452    0.5632904  
   0.514974300    -0.3731879    0.6245129  
   0.516974200    -0.2679451    0.6702555  
   0.518974100    -0.1570142    0.6981087  
   0.520974000    -0.0436095    0.7079852  
   0.522973900     0.0688755    0.6996197  
   0.524973800     0.1776504    0.6741457  
   0.526973700     0.2797490    0.6326202  
   0.528973600     0.3736024    0.5770693  
   0.530973500     0.4573958    0.5088841  
   0.532973400     0.5300744    0.4305650  
   0.534973300     0.5900800    0.3428297  
   0.536973200     0.6374925    0.2477928  
   0.538973100     0.6704110    0.1474678  
   0.540973000     0.6893634    0.0440296  
   0.542972900     0.6932305   -0.0619072  
   0.544972800     0.6814227   -0.1672595  
   0.546972700     0.6542073   -0.2712237  
   0.548972600     0.6116172   -0.3705416  
   0.550972500     0.5545323   -0.4629761  
   0.552972400     0.4832473   -0.5464497  
   0.554972300     0.3998597   -0.6180869  
   0.556972200     0.3061013   -0.6768231  
   0.558972100     0.2041835   -0.7205691  
   0.560972000     0.0973544   -0.7484176  
   0.562971900    -0.0120749   -0.7592366  
   0.564971800    -0.1218989   -0.7534502  
   0.566971700    -0.2291710   -0.7317365  
   0.568971600    -0.3316423   -0.6943052  
   0.570971500    -0.4270954   -0.6425346  
   0.572971400    -0.5139566   -0.5772716  
   0.574971300    -0.5904639   -0.4997859  
   0.576971200    -0.6549609   -0.4117748  
   0.578971100    -0.7060900   -0.3152916  
   0.580971000    -0.7426434   -0.2126543  
   0.582970900    -0.7636721   -0.1059100  
   0.584970800    -0.7692463    0.0023451  
   0.586970700    -0.7590932    0.1103761  
   0.588970600    -0.7338607    0.2157066  
   0.590970500    -0.6935539    0.3167819  
   0.592970400    -0.6388096    0.4114407  
   0.594970300    -0.5708567    0.4974949  
   0.596970200    -0.4905416    0.5734707  
   0.598970100    -0.3995383    0.6372542  
   0.600970000    -0.2991475    0.6874699  
   0.602969900    -0.1916758    0.7224851  
   0.604969800    -0.0787404    0.7414533  
   0.606969700     0.0366028    0.7428237  
   0.608969600     0.1521765    0.7262007  
   0.610969500     0.2647555    0.6916580  
   0.612969400     0.3712758    0.6395255  
   0.614969300     0.4689952    0.5711561  
   0.616969200     0.5545703    0.4876621  
   0.618969100     0.6260836    0.3916770  
   0.620969000     0.6813877    0.2854693  
   0.622968900     0.7191807    0.1716388  
   0.624968800     0.7382519    0.0522690  
   0.626968700     0.7375208   -0.0684928  
   0.628968600     0.7177657   -0.1878293  
   0.630968500     0.6787082   -0.3021817  
   0.632968400     0.6221582   -0.4084592  
   0.634968300     0.5492039   -0.5036408  
   0.636968200     0.4625849   -0.5856614  
   0.638968100     0.3648297   -0.6515917  
   0.640968000     0.2583350   -0.7014636  
   0.642967900     0.1467735   -0.7336716  
   0.644967800     0.0324769   -0.7474566  
   0.646967700    -0.0811966   -0.7437441  
   0.648967600    -0.1916924   -0.7227978  
   0.650967500    -0.2960175   -0.6859446  
   0.652967400    -0.3929178   -0.6345122  
   0.654967300    -0.4801708   -0.5699595  
   0.656967200    -0.5563547   -0.4940927  
   0.658967100    -0.6203891   -0.4083767  
   0.660967000    -0.6712447   -0.3146191  
   0.662966900    -0.7078671   -0.2146787  
   0.664966800    -0.7296880   -0.1103912  
   0.666966700    -0.7362856   -0.0040649  
   0.668966600    -0.7273547    0.1022074  
   0.670966500    -0.7031120    0.2063116  
   0.672966400    -0.6649020    0.3065849  
   0.674966300    -0.6116183    0.3996198  
   0.676966200    -0.5449342    0.4841015  
   0.678966100    -0.4668430    0.5583350  
   0.680966000    -0.3777650    0.6207445  
   0.682965900    -0.2797352    0.6695586  
   0.684965800    -0.1750725    0.7034458  
   0.686965700    -0.0650161    0.7213142  
   0.688965600     0.0474025    0.7223901  
   0.690965500     0.1590189    0.7048678  
   0.692965400     0.2678407    0.6712989  
   0.694965300     0.3706744    0.6208119  
   0.696965200     0.4645158    0.5544441  
   0.698965100     0.5478640    0.4732637  
   0.700965000     0.6170248    0.3793423  
   0.702964900     0.6709509    0.2753221  
   0.704964800     0.7075563    0.1634849  
   0.706964700     0.7252961    0.0471945  
   0.708964600     0.7243522   -0.0708601  
   0.710964500     0.7051939   -0.1869602  
   0.712964400     0.6669250   -0.2970538  
   0.714964300     0.6116671   -0.3998409  
   0.716964200     0.5420773   -0.4902663  
   0.718964100     0.4601078   -0.5681947  
   0.720964000     0.3682117   -0.6309016  
   0.722963900     0.2695061   -0.6786678  
   0.724963800     0.1662353   -0.7106802  
   0.726963700     0.0604525   -0.7271535  
   0.728963600    -0.0450963   -0.7279125  
   0.730963500    -0.1487620   -0.7128486  
   0.732963400    -0.2482775   -0.6842873  
   0.734963300    -0.3421702   -0.6422388  
   0.736963200    -0.4410399   -0.5776605  
   0.738963100    -0.5279679   -0.4980205  
   0.740963000    -0.6007650   -0.4050297  
   0.742962900    -0.6570137   -0.3017800  
   0.744962800    -0.6956891   -0.1901936  
   0.746962700    -0.7154685   -0.0736769  
   0.748962600    -0.7156054    0.0456719  
   0.750962500    -0.7283020   -0.0646277  
   0.752962400    -0.7264547    0.0556885  
   0.754962300    -0.7043135    0.1744443  
   0.756962200    -0.6620173    0.2885539  
   0.758962100    -0.6009526    0.3935791  
   0.760962000    -0.5219863    0.4875166  
   0.762961900    -0.4327583    0.5631668  
   0.764961800    -0.3422134    0.6185147  
   0.766961700    -0.2442589    0.6592256  
   0.768961600    -0.1407721    0.6847837  
   0.770961500    -0.0346942    0.6943851  
   0.772961400     0.0713521    0.6878181  
   0.774961300     0.1751558    0.6655642  
   0.776961200     0.2749526    0.6276611  
   0.778961100     0.3676199    0.5752639  
   0.780961000     0.4521703    0.5089963  
   0.782960900     0.5259486    0.4305070  
   0.784960800     0.5877304    0.3412376  
   0.786960700     0.6351496    0.2432628  
   0.788960600     0.6670451    0.1385656  
   0.790960500     0.6827115    0.0302015  
   0.792960400     0.6813346   -0.0793829  
   0.794960300     0.6631486   -0.1874186  
   0.796960200     0.6285851   -0.2915246  
   0.798960100     0.5782413   -0.3888181  
   0.800960000     0.5136204   -0.4769652  
   0.802959900     0.4361983   -0.5542738  
   0.804959800     0.3481069   -0.6186393  
   0.806959700     0.2512842   -0.6686577  
   0.808959600     0.1482668   -0.7034101  
   0.810959500     0.0412770   -0.7218075  
   0.812959400    -0.0670377   -0.7238355  
   0.814959300    -0.1743564   -0.7093816  
   0.816959200    -0.2775081   -0.6791990  
   0.818959100    -0.3749696   -0.6337483  
   0.820959000    -0.4639304   -0.5746718  
   0.822958900    -0.5428463   -0.5029935  
   0.824958800    -0.6102297   -0.4207026  
   0.826958700    -0.6645209   -0.3297097  
   0.828958600    -0.7048421   -0.2319696  
   0.830958500    -0.7300353   -0.1297865  
   0.832958400    -0.7402319   -0.0255369  
   0.834958300    -0.7350727    0.0789570  
   0.836958200    -0.7152342    0.1814347  
   0.838958100    -0.6806817    0.2797619  
   0.840958000    -0.6317591    0.3720817  
   0.842957900    -0.5703943    0.4566915  
   0.844957800    -0.4970647    0.5321761  
   0.846957700    -0.4133107    0.5962133  
   0.848957600    -0.3206742    0.6475541  
   0.850957500    -0.2211996    0.6852795  
   0.852957400    -0.1163190    0.7077737  
   0.854957300    -0.0086663    0.7145173  
   0.856957200     0.0992963    0.7050641  
   0.858957100     0.2051440    0.6793148  
   0.860957000     0.3057162    0.6378152  
   0.862956900     0.3992659    0.5812150  
   0.864956800     0.4832715    0.5109019  
   0.866956700     0.5555047    0.4284777  
   0.868956600     0.6141531    0.3350177  
   0.870956500     0.6584123    0.2333508  
   0.872956400     0.6865498    0.1251658  
   0.874956300     0.6975691    0.0135114  
   0.876956200     0.6904668   -0.0996516  
   0.878956100     0.6653898   -0.2102661  
   0.880956000     0.6227450   -0.3160017  
   0.882955900     0.5636585   -0.4133092  
   0.884955800     0.4899081   -0.4998443  
   0.886955700     0.4029737   -0.5732272  
   0.888955600     0.3061233   -0.6312431  
   0.890955500     0.2016585   -0.6730614  
   0.892955400     0.0925054   -0.6972231  
   0.894955300    -0.0181006   -0.7039518  
