! MS46122B
! 2250307/22442219
! 7/21/2025 12:02:15 PM
! C:\USERS\SPARKY\DOCUMENTS\VNA_DATA\JULY21_2025\295K\ECAL_OPEN_A.S1P
! CHANNEL.1
! TR.MEASUREMENT
! RAW.DATA
# GHZ S RI R 50.0
! FREQ.GHZ         S11RE         S11IM         
!; PortSelection: Port_1
   0.001000000     1.0454030   -0.0717640  
   0.002999900     0.9477569   -0.2217945  
   0.004999800     0.8105805   -0.0905981  
   0.006999700     0.5251789   -0.4062846  
   0.008999600     0.9394665    0.0028038  
   0.010999500     0.9261780   -0.2251241  
   0.012999400     0.8869862   -0.3339629  
   0.014999300     0.8471528   -0.4159770  
   0.016999200     0.8071852   -0.4866057  
   0.018999100     0.7646713   -0.5521209  
   0.020999000     0.7181589   -0.6130797  
   0.022998900     0.6665462   -0.6688595  
   0.024998800     0.6008641   -0.6849525  
   0.026998700     0.5475395   -0.7668868  
   0.028998600     0.4784774   -0.8082319  
   0.030998500     0.4027689   -0.8431759  
   0.032998400     0.3226344   -0.8367195  
   0.034998300     0.2299917   -0.8904616  
   0.036998200     0.1338812   -0.8998680  
   0.038998100     0.0317034   -0.8978224  
   0.040998000    -0.0753402   -0.8817029  
   0.042997900    -0.1858258   -0.8505595  
   0.044997800    -0.2753569   -0.7797800  
   0.046997700    -0.4084183   -0.7315024  
   0.048997600    -0.5135788   -0.6403922  
   0.050997500    -0.6087982   -0.5248985  
   0.052997400    -0.6869744   -0.3847244  
   0.054997300    -0.7401607   -0.2211360  
   0.056997200    -0.7586660   -0.0359763  
   0.058997100    -0.7326875    0.1596186  
   0.060997000    -0.6560655    0.3528371  
   0.062996900    -0.5272446    0.5271544  
   0.064996800    -0.3526919    0.6643460  
   0.066996700    -0.1464964    0.7505977  
   0.068996600     0.0723275    0.7776796  
   0.070996500     0.2851087    0.7480072  
   0.072996400     0.4750277    0.6685487  
   0.074996300     0.6310355    0.5523154  
   0.076996200     0.7493607    0.4124964  
   0.078996100     0.8296652    0.2614941  
   0.080996000     0.8748184    0.1075347  
   0.082995900     0.8898327   -0.0417470  
   0.084995800     0.8782559   -0.1814044  
   0.086995700     0.8468384   -0.3095049  
   0.088995600     0.7984721   -0.4250922  
   0.090995500     0.7371985   -0.5268759  
   0.092995400     0.6666657   -0.6163090  
   0.094995300     0.5868217   -0.6916323  
   0.096995200     0.5009008   -0.7538935  
   0.098995100     0.4103137   -0.8042040  
   0.100995000     0.3160111   -0.8424434  
   0.102994900     0.2196396   -0.8685284  
   0.104994800     0.1219343   -0.8830921  
   0.106994700     0.0235010   -0.8859973  
   0.108994600    -0.0744122   -0.8783302  
   0.110994500    -0.1714757   -0.8594535  
   0.112994400    -0.2662160   -0.8290696  
   0.114994300    -0.3583413   -0.7874567  
   0.116994200    -0.4460287   -0.7344640  
   0.118994100    -0.5280374   -0.6695681  
   0.120994000    -0.6045535   -0.5944149  
   0.122993900    -0.6716403   -0.5069550  
   0.124993800    -0.7283810   -0.4084424  
   0.126993700    -0.7731237   -0.2997214  
   0.128993600    -0.8012004   -0.1818232  
   0.130993500    -0.8141349   -0.0565372  
   0.132993400    -0.8080530    0.0737204  
   0.134993300    -0.7806711    0.2063243  
   0.136993200    -0.7302818    0.3370332  
   0.138993100    -0.6562609    0.4622930  
   0.140993000    -0.5587536    0.5761302  
   0.142992900    -0.4388703    0.6737802  
   0.144992800    -0.3002246    0.7505143  
   0.146992700    -0.1459459    0.7993324  
   0.148992600     0.0175071    0.8181691  
   0.150992500     0.1819836    0.8036996  
   0.152992400     0.3415253    0.7582228  
   0.154992300     0.4881456    0.6832080  
   0.156992200     0.6164334    0.5821214  
   0.158992100     0.7212760    0.4606538  
   0.160992000     0.7995008    0.3242239  
   0.162991900     0.8502788    0.1793700  
   0.164991800     0.8740375    0.0317357  
   0.166991700     0.8717369   -0.1130340  
   0.168991600     0.8458269   -0.2505757  
   0.170991500     0.7992190   -0.3785569  
   0.172991400     0.7347523   -0.4935937  
   0.174991300     0.6563954   -0.5940013  
   0.176991200     0.5661496   -0.6795250  
   0.178991100     0.4666933   -0.7492626  
   0.180991000     0.3621320   -0.8033812  
   0.182990900     0.2525400   -0.8407987  
   0.184990800     0.1410258   -0.8625438  
   0.186990700     0.0289176   -0.8693346  
   0.188990600    -0.0573919   -0.8622932  
   0.190990500    -0.1855835   -0.8388160  
   0.192990400    -0.2924186   -0.8017855  
   0.194990300    -0.3897797   -0.7524326  
   0.196990200    -0.4799582   -0.6911799  
   0.198990100    -0.5613054   -0.6181845  
   0.200990000    -0.6335289   -0.5342130  
   0.202989900    -0.6945254   -0.4398951  
   0.204989800    -0.7429450   -0.3373784  
   0.206989700    -0.7782620   -0.2277574  
   0.208989600    -0.7973531   -0.1124760  
   0.210989500    -0.7999485    0.0074361  
   0.212989400    -0.7847609    0.1289949  
   0.214989300    -0.7506626    0.2498669  
   0.216989200    -0.6977800    0.3663922  
   0.218989100    -0.6260287    0.4755090  
   0.220989000    -0.5352774    0.5741022  
   0.222988900    -0.4271920    0.6587925  
   0.224988800    -0.3039924    0.7259726  
   0.226988700    -0.1691673    0.7718646  
   0.228988600    -0.0266313    0.7937511  
   0.230988500     0.1190548    0.7906808  
   0.232988400     0.2629366    0.7605979  
   0.234988300     0.4005868    0.7062753  
   0.236988200     0.5266988    0.6279907  
   0.238988100     0.6361821    0.5294314  
   0.240988000     0.7259808    0.4138609  
   0.242987900     0.7932678    0.2866416  
   0.244987800     0.8369569    0.1511212  
   0.246987700     0.8567825    0.0126339  
   0.248987600     0.8535699   -0.1251081  
   0.250987500     0.8285365   -0.2581545  
   0.252987400     0.7830261   -0.3820356  
   0.254987300     0.7212588   -0.4942293  
   0.256987200     0.6446075   -0.5935259  
   0.258987100     0.5572744   -0.6795436  
   0.260987000     0.4590534   -0.7492674  
   0.262986900     0.3539891   -0.8036899  
   0.264986800     0.2442827   -0.8424540  
   0.266986700     0.1319032   -0.8648059  
   0.268986600     0.0196472   -0.8720753  
   0.270986500    -0.0903784   -0.8643112  
   0.272986400    -0.1974116   -0.8424499  
   0.274986300    -0.2999328   -0.8072770  
   0.276986200    -0.3965451   -0.7592435  
   0.278986100    -0.4867107   -0.6987753  
   0.280986000    -0.5682907   -0.6268923  
   0.282985900    -0.6400052   -0.5445352  
   0.284985800    -0.7008975   -0.4530211  
   0.286985700    -0.7493650   -0.3532252  
   0.288985600    -0.7840503   -0.2477856  
   0.290985500    -0.8040982   -0.1370695  
   0.292985400    -0.8088397   -0.0229166  
   0.294985300    -0.7971345    0.0926875  
   0.296985200    -0.7680752    0.2088285  
   0.298985100    -0.7201018    0.3221106  
   0.300985000    -0.6537372    0.4294687  
   0.302984900    -0.5690137    0.5265988  
   0.304984800    -0.4668584    0.6097319  
   0.306984700    -0.3494140    0.6753164  
   0.308984600    -0.2205163    0.7192236  
   0.310984500    -0.0840032    0.7389463  
   0.312984400     0.0548823    0.7314822  
   0.314984300     0.1898568    0.6967203  
   0.316984200     0.3136289    0.6355096  
   0.318984100     0.4204663    0.5513182  
   0.320984000     0.5034954    0.4504435  
   0.322983900     0.5606580    0.3406886  
   0.324983800     0.5920097    0.2319848  
   0.326983700     0.6030772    0.1311209  
   0.328983600     0.6009031    0.0415307  
   0.330983500     0.5931791   -0.0370242  
   0.332983400     0.5845529   -0.1091927  
   0.334983300     0.5762129   -0.1808068  
   0.336983200     0.5649552   -0.2567256  
   0.338983100     0.5459464   -0.3385796  
   0.340983000     0.5141662   -0.4248751  
   0.342982900     0.4660346   -0.5108917  
   0.344982800     0.3998969   -0.5924340  
   0.346982700     0.3167665   -0.6641279  
   0.348982600     0.2192543   -0.7199157  
   0.350982500     0.1115402   -0.7597525  
   0.352982400    -0.0022480   -0.7804130  
   0.354982300    -0.1238203   -0.7806232  
   0.356982200    -0.2574020   -0.7552825  
   0.358982100    -0.3830666   -0.7061340  
   0.360982000    -0.4970229   -0.6354410  
   0.362981900    -0.5961868   -0.5463055  
   0.364981800    -0.6779699   -0.4414013  
   0.366981700    -0.7406085   -0.3243016  
   0.368981600    -0.7817656   -0.1989148  
   0.370981500    -0.8014644   -0.0686099  
   0.372981400    -0.7988530    0.0630679  
   0.374981300    -0.7740609    0.1929938  
   0.376981200    -0.8019226    0.0641967  
   0.378981100    -0.7765551    0.1978800  
   0.380981000    -0.7285079    0.3261238  
   0.382980900    -0.6668233    0.4343221  
   0.384980800    -0.5921726    0.5281869  
   0.386980700    -0.5036630    0.6110088  
   0.388980600    -0.4022006    0.6803079  
   0.390980500    -0.2911939    0.7336833  
   0.392980400    -0.1721964    0.7696143  
   0.394980300    -0.0482347    0.7869374  
   0.396980200     0.0783163    0.7845581  
   0.398980100     0.2039827    0.7622759  
   0.400980000     0.3257897    0.7200944  
   0.402979900     0.4402460    0.6580332  
   0.404979800     0.5437767    0.5783649  
   0.406979700     0.6332635    0.4824568  
   0.408979600     0.7059187    0.3730143  
   0.410979500     0.7603040    0.2523970  
   0.412979400     0.7940986    0.1241448  
   0.414979300     0.8049584   -0.0076681  
   0.416979200     0.7950530   -0.1390750  
   0.418979100     0.7639757   -0.2658322  
   0.420979000     0.7129909   -0.3853371  
   0.422978900     0.6438981   -0.4939857  
   0.424978800     0.5588923   -0.5892079  
   0.426978700     0.4607078   -0.6690046  
   0.428978600     0.3527026   -0.7313122  
   0.430978500     0.2378732   -0.7753969  
   0.432978400     0.1198002   -0.8006440  
   0.434978300     0.0009566   -0.8094102  
   0.436978200    -0.1167841   -0.7987518  
   0.438978100    -0.2299805   -0.7711776  
   0.440978000    -0.3375894   -0.7277042  
   0.442977900    -0.4363246   -0.6695200  
   0.444977800    -0.5246943   -0.5981683  
   0.446977700    -0.6016729   -0.5156015  
   0.448977600    -0.6657144   -0.4232293  
   0.450977500    -0.7158325   -0.3227775  
   0.452977400    -0.7515711   -0.2159558  
   0.454977300    -0.7712829   -0.1044667  
   0.456977200    -0.7750305    0.0092566  
   0.458977100    -0.7620983    0.1232302  
   0.460977000    -0.7325149    0.2342179  
   0.462976900    -0.6865820    0.3400117  
   0.464976800    -0.6251804    0.4390030  
   0.466976700    -0.5491455    0.5281022  
   0.468976600    -0.4597067    0.6056193  
   0.470976500    -0.3582222    0.6691231  
   0.472976400    -0.2473330    0.7165343  
   0.474976300    -0.1292670    0.7462903  
   0.476976200    -0.0069404    0.7572655  
   0.478976100     0.1162190    0.7485325  
   0.480976000     0.2367447    0.7199475  
   0.482975900     0.3513581    0.6723492  
   0.484975800     0.4574318    0.6066067  
   0.486975700     0.5515704    0.5241173  
   0.488975600     0.6308239    0.4270849  
   0.490975500     0.6930168    0.3185886  
   0.492975400     0.7364327    0.2018755  
   0.494975300     0.7598230    0.0801453  
   0.496975200     0.7631102   -0.0427926  
   0.498975100     0.7462543   -0.1624515  
   0.500975000     0.7112951   -0.2768569  
   0.502974900     0.6595845   -0.3818621  
   0.504974800     0.5932898   -0.4759448  
   0.506974700     0.5145925   -0.5577086  
   0.508974600     0.4257032   -0.6258555  
   0.510974500     0.3298002   -0.6792603  
   0.512974400     0.2295730   -0.7179722  
   0.514974300     0.1267570   -0.7404363  
   0.516974200     0.0240674   -0.7503763  
   0.518974100    -0.0773723   -0.7467121  
   0.520974000    -0.1765125   -0.7302393  
   0.522973900    -0.2728993   -0.7019786  
   0.524973800    -0.3646649   -0.6610270  
   0.526973700    -0.4514434   -0.6085622  
   0.528973600    -0.5318510   -0.5444506  
   0.530973500    -0.6040090   -0.4684460  
   0.532973400    -0.6656470   -0.3819051  
   0.534973300    -0.7149165   -0.2858087  
   0.536973200    -0.7498266   -0.1816176  
   0.538973100    -0.7687176   -0.0725600  
   0.540973000    -0.7710509    0.0391651  
   0.542972900    -0.7560483    0.1505966  
   0.544972800    -0.7237554    0.2595157  
   0.546972700    -0.6748438    0.3629515  
   0.548972600    -0.6102329    0.4584239  
   0.550972500    -0.5312504    0.5432134  
   0.552972400    -0.4399202    0.6150490  
   0.554972300    -0.3376435    0.6724051  
   0.556972200    -0.2274411    0.7136498  
   0.558972100    -0.1116885    0.7374094  
   0.560972000     0.0065649    0.7428654  
   0.562971900     0.1246220    0.7300292  
   0.564971800     0.2395740    0.6991969  
   0.566971700     0.3484049    0.6506140  
   0.568971600     0.4484861    0.5853648  
   0.570971500     0.5380343    0.5050873  
   0.572971400     0.6137682    0.4109308  
   0.574971300     0.6739693    0.3057074  
   0.576971200     0.7169293    0.1913379  
   0.578971100     0.7408788    0.0709884  
   0.580971000     0.7451605   -0.0513362  
   0.582970900     0.7299609   -0.1728268  
   0.584970800     0.6956053   -0.2893759  
   0.586970700     0.6433162   -0.3981729  
   0.588970600     0.5748452   -0.4971229  
   0.590970500     0.4921454   -0.5833527  
   0.592970400     0.3976108   -0.6552905  
   0.594970300     0.2937892   -0.7111543  
   0.596970200     0.1833882   -0.7496821  
   0.598970100     0.0692001   -0.7707450  
   0.600970000    -0.0462123   -0.7744974  
   0.602969900    -0.1597838   -0.7610598  
   0.604969800    -0.2695927   -0.7307038  
   0.606969700    -0.3732301   -0.6847298  
   0.608969600    -0.4680977   -0.6243278  
   0.610969500    -0.5526854   -0.5509254  
   0.612969400    -0.6254724   -0.4668206  
   0.614969300    -0.6844060   -0.3735526  
   0.616969200    -0.7292991   -0.2737175  
   0.618969100    -0.7593974   -0.1691761  
   0.620969000    -0.7746571   -0.0625641  
   0.622968900    -0.7744536    0.0460049  
   0.624968800    -0.7593000    0.1533769  
   0.626968700    -0.7291914    0.2579075  
   0.628968600    -0.6843230    0.3577728  
   0.630968500    -0.6254848    0.4505806  
   0.632968400    -0.5535753    0.5347673  
   0.634968300    -0.4699799    0.6082934  
   0.636968200    -0.3755348    0.6695646  
   0.638968100    -0.2725308    0.7167166  
   0.640968000    -0.1627673    0.7483262  
   0.642967900    -0.0486366    0.7636344  
   0.644967800     0.0678131    0.7617927  
   0.646967700     0.1834051    0.7421976  
   0.648967600     0.2952269    0.7051104  
   0.650967500     0.4005785    0.6510098  
   0.652967400     0.4969765    0.5810115  
   0.654967300     0.5819303    0.4965663  
   0.656967200     0.6528260    0.3995576  
   0.658967100     0.7078266    0.2921627  
   0.660967000     0.7455450    0.1765492  
   0.662966900     0.7646836    0.0556255  
   0.664966800     0.7645086   -0.0673974  
   0.666966700     0.7444067   -0.1889487  
   0.668966600     0.7049914   -0.3054687  
   0.670966500     0.6480240   -0.4140257  
   0.672966400     0.5757135   -0.5123872  
   0.674966300     0.4888150   -0.5963319  
   0.676966200     0.3905707   -0.6646939  
   0.678966100     0.2840867   -0.7161470  
   0.680966000     0.1720671   -0.7504468  
   0.682965900     0.0573725   -0.7668499  
   0.684965800    -0.0569585   -0.7658933  
   0.686965700    -0.1690019   -0.7476805  
   0.688965600    -0.2758446   -0.7134360  
   0.690965500    -0.3751625   -0.6635200  
   0.692965400    -0.4654002   -0.6012381  
   0.694965300    -0.5451545   -0.5270745  
   0.696965200    -0.6126032   -0.4432236  
   0.698965100    -0.6673260   -0.3506769  
   0.700965000    -0.7081238   -0.2515447  
   0.702964900    -0.7344010   -0.1479980  
   0.704964800    -0.7454414   -0.0419598  
   0.706964700    -0.7414668    0.0648872  
   0.708964600    -0.7217641    0.1702611  
   0.710964500    -0.6874747    0.2724159  
   0.712964400    -0.6381010    0.3686011  
   0.714964300    -0.5745314    0.4570176  
   0.716964200    -0.4985503    0.5349933  
   0.718964100    -0.4115254    0.6013190  
   0.720964000    -0.3156720    0.6539035  
   0.722963900    -0.2123553    0.6917484  
   0.724963800    -0.1038151    0.7134041  
   0.726963700     0.0073420    0.7178428  
   0.728963600     0.1183771    0.7054951  
   0.730963500     0.2264038    0.6750006  
   0.732963400     0.3282444    0.6284147  
   0.734963300     0.4223987    0.5660857  
   0.736963200     0.5175177    0.4775372  
   0.738963100     0.5956807    0.3726134  
   0.740963000     0.6532020    0.2559560  
   0.742962900     0.6886132    0.1316158  
   0.744962800     0.7010546    0.0038604  
   0.746962700     0.6908713   -0.1227479  
   0.748962600     0.6586972   -0.2448391  
   0.750962500     0.6762367   -0.1351970  
   0.752962400     0.6434974   -0.2552678  
   0.754962300     0.5908836   -0.3669581  
   0.756962200     0.5203530   -0.4669719  
   0.758962100     0.4346038   -0.5533811  
   0.760962000     0.3356247   -0.6235953  
   0.762961900     0.2319111   -0.6737826  
   0.764961800     0.1318954   -0.7050120  
   0.766961700     0.0284462   -0.7214172  
   0.768961600    -0.0765511   -0.7226921  
   0.770961500    -0.1808688   -0.7087047  
   0.772961400    -0.2819701   -0.6797702  
   0.774961300    -0.3780580   -0.6361899  
   0.776961200    -0.4671393   -0.5788425  
   0.778961100    -0.5469074   -0.5086430  
   0.780961000    -0.6158397   -0.4269550  
   0.782960900    -0.6718387   -0.3355762  
   0.784960800    -0.7139263   -0.2361605  
   0.786960700    -0.7404602   -0.1312730  
   0.788960600    -0.7511125   -0.0233198  
   0.790960500    -0.7454575    0.0853046  
   0.792960400    -0.7234450    0.1915941  
   0.794960300    -0.6857560    0.2935430  
   0.796960200    -0.6334138    0.3889238  
   0.798960100    -0.5675727    0.4751462  
   0.800960000    -0.4895881    0.5501400  
   0.802959900    -0.4009961    0.6134005  
   0.804959800    -0.3043037    0.6627399  
   0.806959700    -0.2008909    0.6970773  
   0.808959600    -0.0934800    0.7159002  
   0.810959500     0.0157667    0.7182130  
   0.812959400     0.1249351    0.7041736  
   0.814959300     0.2311586    0.6736376  
   0.816959200     0.3320345    0.6274194  
   0.818959100     0.4250151    0.5659564  
   0.820959000     0.5081869    0.4906222  
   0.822958900     0.5788821    0.4028294  
   0.824958800     0.6357448    0.3047027  
   0.826958700     0.6767172    0.1982683  
   0.828958600     0.7005671    0.0866820  
   0.830958500     0.7067365   -0.0280437  
   0.832958400     0.6945382   -0.1421493  
   0.834958300     0.6643512   -0.2528947  
   0.836958200     0.6173578   -0.3573679  
   0.838958100     0.5542200   -0.4533991  
   0.840958000     0.4768782   -0.5381351  
   0.842957900     0.3873419   -0.6092870  
   0.844957800     0.2877316   -0.6655957  
   0.846957700     0.1812814   -0.7052823  
   0.848957600     0.0700821   -0.7275530  
   0.850957500    -0.0427848   -0.7324474  
   0.852957400    -0.1540066   -0.7197081  
   0.854957300    -0.2614448   -0.6903564  
   0.856957200    -0.3624565   -0.6449991  
   0.858957100    -0.4546936   -0.5856008  
   0.860957000    -0.5362400   -0.5138636  
   0.862956900    -0.6054371   -0.4319490  
   0.864956800    -0.6614529   -0.3414336  
   0.866956700    -0.7032732   -0.2447546  
   0.868956600    -0.7301595   -0.1441534  
   0.870956500    -0.7429018   -0.0408547  
   0.872956400    -0.7407789    0.0625802  
   0.874956300    -0.7241551    0.1645743  
   0.876956200    -0.6928288    0.2637193  
   0.878956100    -0.6481975    0.3571829  
   0.880956000    -0.5904962    0.4439380  
   0.882955900    -0.5209008    0.5217137  
   0.884955800    -0.4403444    0.5890712  
   0.886955700    -0.3508380    0.6445680  
   0.888955600    -0.2537461    0.6870679  
   0.890955500    -0.1511619    0.7151754  
   0.892955400    -0.0448843    0.7280219  
   0.894955300     0.0631719    0.7251353  
