! MS46122B
! 2250307/22442219
! 7/22/2025 3:21:20 PM
! C:\USERS\SPARKY\DOCUMENTS\VNA_DATA\JULY22_2025\295\ECAL_SHORT_B_REPEAT1.S1P
! CHANNEL.1
! TR.MEASUREMENT
! RAW.DATA
# GHZ S RI R 50.0
! FREQ.GHZ         S11RE         S11IM         
!; PortSelection: Port_1
   0.001000000     1.0460650   -0.0714701  
   0.002999900     0.9645141   -0.1941045  
   0.004999800     0.9044407   -0.2990635  
   0.006999700     0.8374589   -0.3965571  
   0.008999600     0.7592905   -0.4915313  
   0.010999500     0.6673390   -0.5816437  
   0.012999400     0.5564190   -0.6643890  
   0.014999300     0.4215480   -0.7341353  
   0.016999200     0.2571063   -0.7798601  
   0.018999100     0.0592144   -0.7843656  
   0.020999000    -0.1655610   -0.7200801  
   0.022998900    -0.3893601   -0.5527927  
   0.024998800    -0.5262285   -0.2640934  
   0.026998700    -0.5513617    0.1068251  
   0.028998600    -0.3613737    0.4430359  
   0.030998500    -0.0447486    0.6320727  
   0.032998400     0.2581607    0.6363351  
   0.034998300     0.5426856    0.5589644  
   0.036998200     0.7227644    0.4101314  
   0.038998100     0.8326533    0.2455900  
   0.040998000     0.8896759    0.0850788  
   0.042997900     0.9088161   -0.0634628  
   0.044997800     0.8721215   -0.1745659  
   0.046997700     0.8714723   -0.3156411  
   0.048997600     0.8296565   -0.4202540  
   0.050997500     0.7766163   -0.5115716  
   0.052997400     0.7159262   -0.5907157  
   0.054997300     0.6502156   -0.6589131  
   0.056997200     0.5770839   -0.7193415  
   0.058997100     0.5013593   -0.7693557  
   0.060997000     0.4221486   -0.8106038  
   0.062996900     0.3398376   -0.8438253  
   0.064996800     0.2549742   -0.8680690  
   0.066996700     0.1674709   -0.8835469  
   0.068996600     0.0779642   -0.8904213  
   0.070996500    -0.0127588   -0.8885660  
   0.072996400    -0.1045390   -0.8758910  
   0.074996300    -0.1969088   -0.8525420  
   0.076996200    -0.2885708   -0.8177423  
   0.078996100    -0.3783012   -0.7715243  
   0.080996000    -0.4649066   -0.7125427  
   0.082995900    -0.5464524   -0.6402582  
   0.084995800    -0.6204216   -0.5534813  
   0.086995700    -0.6852173   -0.4540850  
   0.088995600    -0.7376761   -0.3410237  
   0.090995500    -0.7744266   -0.2154638  
   0.092995400    -0.7926614   -0.0794144  
   0.094995300    -0.7866307    0.0644963  
   0.096995200    -0.7541370    0.2123973  
   0.098995100    -0.6921830    0.3578110  
   0.100995000    -0.5993986    0.4956076  
   0.102994900    -0.4776044    0.6140996  
   0.104994800    -0.3302212    0.7075359  
   0.106994700    -0.1630304    0.7684341  
   0.108994600     0.0142615    0.7928749  
   0.110994500     0.1928152    0.7788657  
   0.112994400     0.3628948    0.7272166  
   0.114994300     0.5153357    0.6426821  
   0.116994200     0.6434004    0.5311502  
   0.118994100     0.7434626    0.4007053  
   0.120994000     0.8151450    0.2587947  
   0.122993900     0.8559676    0.1116382  
   0.124993800     0.8688174   -0.0341489  
   0.126993700     0.8569919   -0.1742814  
   0.128993600     0.8222234   -0.3038617  
   0.130993500     0.7711402   -0.4222996  
   0.132993400     0.7050052   -0.5273389  
   0.134993300     0.6273711   -0.6182208  
   0.136993200     0.5402309   -0.6950673  
   0.138993100     0.4464551   -0.7566994  
   0.140993000     0.3475738   -0.8043557  
   0.142992900     0.2454590   -0.8385578  
   0.144992800     0.1420162   -0.8595580  
   0.146992700     0.0378193   -0.8663830  
   0.148992600    -0.0654026   -0.8604631  
   0.150992500    -0.1662227   -0.8406527  
   0.152992400    -0.2639010   -0.8098925  
   0.154992300    -0.3570996   -0.7669489  
   0.156992200    -0.4454097   -0.7127371  
   0.158992100    -0.5267447   -0.6475928  
   0.160992000    -0.6003603   -0.5716023  
   0.162991900    -0.6645400   -0.4857811  
   0.164991800    -0.7179811   -0.3901652  
   0.166991700    -0.7593113   -0.2866541  
   0.168991600    -0.7865061   -0.1758853  
   0.170991500    -0.7986597   -0.0591195  
   0.172991400    -0.7940254    0.0605029  
   0.174991300    -0.7714016    0.1815246  
   0.176991200    -0.7294676    0.3013919  
   0.178991100    -0.6681715    0.4162854  
   0.180991000    -0.5881156    0.5232090  
   0.182990900    -0.4886285    0.6171921  
   0.184990800    -0.3717156    0.6955297  
   0.186990700    -0.2406707    0.7540563  
   0.188990600    -0.1223403    0.7854679  
   0.190990500     0.0439967    0.7983227  
   0.192990400     0.1954479    0.7815301  
   0.194990300     0.3389872    0.7384737  
   0.196990200     0.4718771    0.6704839  
   0.198990100     0.5898566    0.5803961  
   0.200990000     0.6895778    0.4709845  
   0.202989900     0.7675812    0.3472597  
   0.204989800     0.8222073    0.2136123  
   0.206989700     0.8532131    0.0759701  
   0.208989600     0.8593904   -0.0619744  
   0.210989500     0.8433351   -0.1963879  
   0.212989400     0.8065218   -0.3236836  
   0.214989300     0.7514561   -0.4408613  
   0.216989200     0.6811947   -0.5450326  
   0.218989100     0.5982748   -0.6354867  
   0.220989000     0.5048592   -0.7113497  
   0.222988900     0.4033637   -0.7718465  
   0.224988800     0.2964268   -0.8165252  
   0.226988700     0.1861677   -0.8457206  
   0.228988600     0.0756631   -0.8591295  
   0.230988500    -0.0345053   -0.8573677  
   0.232988400    -0.1428144   -0.8402981  
   0.234988300    -0.2476163   -0.8102381  
   0.236988200    -0.3471551   -0.7666973  
   0.238988100    -0.4399726   -0.7101948  
   0.240988000    -0.5243395   -0.6425315  
   0.242987900    -0.5990044   -0.5640439  
   0.244987800    -0.6628709   -0.4755737  
   0.246987700    -0.7151854   -0.3780431  
   0.248987600    -0.7540371   -0.2722108  
   0.250987500    -0.7782574   -0.1606740  
   0.252987400    -0.7863640   -0.0453335  
   0.254987300    -0.7776661    0.0718298  
   0.256987200    -0.7514370    0.1882480  
   0.258987100    -0.7081658    0.3025458  
   0.260987000    -0.6451752    0.4105903  
   0.262986900    -0.5637695    0.5100875  
   0.264986800    -0.4655558    0.5969119  
   0.266986700    -0.3519237    0.6678996  
   0.268986600    -0.2259877    0.7192414  
   0.270986500    -0.0912440    0.7485026  
   0.272986400     0.0481147    0.7540781  
   0.274986300     0.1880197    0.7347934  
   0.276986200     0.3232984    0.6904265  
   0.278986100     0.4492799    0.6220537  
   0.280986000     0.5608592    0.5319431  
   0.282985900     0.6545153    0.4233439  
   0.284985800     0.7259429    0.3008220  
   0.286985700     0.7739907    0.1692726  
   0.288985600     0.7978569    0.0336004  
   0.290985500     0.7976646   -0.1008914  
   0.292985400     0.7751096   -0.2307294  
   0.294985300     0.7326710   -0.3522595  
   0.296985200     0.6722355   -0.4633344  
   0.298985100     0.5962978   -0.5614531  
   0.300985000     0.5082521   -0.6444263  
   0.302984900     0.4110994   -0.7113801  
   0.304984800     0.3075077   -0.7617451  
   0.306984700     0.2009568   -0.7958072  
   0.308984600     0.0939833   -0.8138068  
   0.310984500    -0.0118834   -0.8173325  
   0.312984400    -0.1146129   -0.8066601  
   0.314984300    -0.2133936   -0.7835243  
   0.316984200    -0.3068942   -0.7484080  
   0.318984100    -0.3947332   -0.7022575  
   0.320984000    -0.4758275   -0.6466929  
   0.322983900    -0.5495919   -0.5815311  
   0.324983800    -0.6152522   -0.5089245  
   0.326983700    -0.6722915   -0.4287795  
   0.328983600    -0.7207582   -0.3414797  
   0.330983500    -0.7590917   -0.2469316  
   0.332983400    -0.7853794   -0.1458292  
   0.334983300    -0.7975190   -0.0392044  
   0.336983200    -0.7936888    0.0709323  
   0.338983100    -0.7726992    0.1808164  
   0.340983000    -0.7349023    0.2869436  
   0.342982900    -0.6810361    0.3874625  
   0.344982800    -0.6124622    0.4795317  
   0.346982700    -0.5297070    0.5619269  
   0.348982600    -0.4344755    0.6310726  
   0.350982500    -0.3297480    0.6864300  
   0.352982400    -0.2166015    0.7262655  
   0.354982300    -0.0922066    0.7490634  
   0.356982200     0.0481267    0.7506670  
   0.358982100     0.1872452    0.7267264  
   0.360982000     0.3202208    0.6780661  
   0.362981900     0.4429546    0.6058152  
   0.364981800     0.5513223    0.5119522  
   0.366981700     0.6411327    0.3987620  
   0.368981600     0.7088205    0.2701592  
   0.370981500     0.7516783    0.1308248  
   0.372981400     0.7676668   -0.0144857  
   0.374981300     0.7559463   -0.1610306  
   0.376981200     0.7701926   -0.0573429  
   0.378981100     0.7498551   -0.2022575  
   0.380981000     0.7030979   -0.3398666  
   0.382980900     0.6388818   -0.4552480  
   0.384980800     0.5606318   -0.5528122  
   0.386980700     0.4687406   -0.6359004  
   0.388980600     0.3658194   -0.7024577  
   0.390980500     0.2559395   -0.7511159  
   0.392980400     0.1414703   -0.7816846  
   0.394980300     0.0259050   -0.7944780  
   0.396980200    -0.0890251   -0.7899464  
   0.398980100    -0.2006944   -0.7692070  
   0.400980000    -0.3066259   -0.7323839  
   0.402979900    -0.4057535   -0.6808661  
   0.404979800    -0.4949897   -0.6169215  
   0.406979700    -0.5740712   -0.5411504  
   0.408979600    -0.6412929   -0.4559956  
   0.410979500    -0.6959765   -0.3615698  
   0.412979400    -0.7372978   -0.2600775  
   0.414979300    -0.7625386   -0.1539055  
   0.416979200    -0.7742229   -0.0445453  
   0.418979100    -0.7705737    0.0650636  
   0.420979000    -0.7512413    0.1737973  
   0.422978900    -0.7163198    0.2797278  
   0.424978800    -0.6660406    0.3800152  
   0.426978700    -0.6013951    0.4735243  
   0.428978600    -0.5231072    0.5571899  
   0.430978500    -0.4328256    0.6287451  
   0.432978400    -0.3321456    0.6868901  
   0.434978300    -0.2234557    0.7307962  
   0.436978200    -0.1077165    0.7574174  
   0.438978100     0.0119755    0.7658093  
   0.440978000     0.1329715    0.7558604  
   0.442977900     0.2520548    0.7270787  
   0.444977800     0.3658748    0.6797006  
   0.446977700     0.4716740    0.6143585  
   0.448977600     0.5661675    0.5326388  
   0.450977500     0.6468487    0.4364224  
   0.452977400     0.7113937    0.3281667  
   0.454977300     0.7578415    0.2099652  
   0.456977200     0.7846066    0.0856865  
   0.458977100     0.7907197   -0.0413239  
   0.460977000     0.7762122   -0.1670310  
   0.462976900     0.7420972   -0.2873699  
   0.464976800     0.6894139   -0.4004848  
   0.466976700     0.6204865   -0.5025561  
   0.468976600     0.5371083   -0.5916190  
   0.470976500     0.4415238   -0.6662528  
   0.472976400     0.3373317   -0.7240068  
   0.474976300     0.2264788   -0.7649360  
   0.476976200     0.1124095   -0.7883186  
   0.478976100    -0.0019165   -0.7945485  
   0.480976000    -0.1141912   -0.7840880  
   0.482975900    -0.2219118   -0.7577218  
   0.484975800    -0.3239152   -0.7170556  
   0.486975700    -0.4186744   -0.6624362  
   0.488975600    -0.5041445   -0.5957441  
   0.490975500    -0.5792395   -0.5182628  
   0.492975400    -0.6426871   -0.4307691  
   0.494975300    -0.6932815   -0.3353969  
   0.496975200    -0.7301661   -0.2335816  
   0.498975100    -0.7520735   -0.1279324  
   0.500975000    -0.7589855   -0.0192239  
   0.502974900    -0.7500890    0.0892494  
   0.504974800    -0.7253825    0.1966957  
   0.506974700    -0.6846730    0.3003334  
   0.508974600    -0.6279025    0.3982027  
   0.510974500    -0.5558677    0.4867480  
   0.512974400    -0.4704697    0.5634017  
   0.514974300    -0.3734277    0.6247253  
   0.516974200    -0.2681664    0.6704769  
   0.518974100    -0.1571867    0.6983542  
   0.520974000    -0.0437291    0.7082440  
   0.522973900     0.0688385    0.6998835  
   0.524973800     0.1776555    0.6744013  
   0.526973700     0.2798171    0.6328285  
   0.528973600     0.3736211    0.5772356  
   0.530973500     0.4574735    0.5090143  
   0.532973400     0.5301076    0.4304810  
   0.534973300     0.5901013    0.3429295  
   0.536973200     0.6374673    0.2478744  
   0.538973100     0.6704953    0.1476309  
   0.540973000     0.6893948    0.0441257  
   0.542972900     0.6932300   -0.0618403  
   0.544972800     0.6813676   -0.1670740  
   0.546972700     0.6542748   -0.2711804  
   0.548972600     0.6116914   -0.3705199  
   0.550972500     0.5546392   -0.4629274  
   0.552972400     0.4834000   -0.5464197  
   0.554972300     0.4000354   -0.6180774  
   0.556972200     0.3062926   -0.6769034  
   0.558972100     0.2044158   -0.7206530  
   0.560972000     0.0974878   -0.7485536  
   0.562971900    -0.0120166   -0.7594368  
   0.564971800    -0.1218671   -0.7538216  
   0.566971700    -0.2290227   -0.7320350  
   0.568971600    -0.3315606   -0.6947255  
   0.570971500    -0.4271061   -0.6428742  
   0.572971400    -0.5139829   -0.5776318  
   0.574971300    -0.5905378   -0.5001564  
   0.576971200    -0.6551464   -0.4121687  
   0.578971100    -0.7062019   -0.3156586  
   0.580971000    -0.7429101   -0.2130078  
   0.582970900    -0.7640034   -0.1062714  
   0.584970800    -0.7696117    0.0020689  
   0.586970700    -0.7595715    0.1100677  
   0.588970600    -0.7343218    0.2155003  
   0.590970500    -0.6940492    0.3166206  
   0.592970400    -0.6393188    0.4113633  
   0.594970300    -0.5712935    0.4975930  
   0.596970200    -0.4910719    0.5735118  
   0.598970100    -0.4000633    0.6373312  
   0.600970000    -0.2996926    0.6876353  
   0.602969900    -0.1922336    0.7225748  
   0.604969800    -0.0792579    0.7416996  
   0.606969700     0.0359591    0.7431099  
   0.608969600     0.1517029    0.7265964  
   0.610969500     0.2643999    0.6921526  
   0.612969400     0.3709978    0.6400249  
   0.614969300     0.4689411    0.5715373  
   0.616969200     0.5545104    0.4881850  
   0.618969100     0.6260750    0.3921736  
   0.620969000     0.6815193    0.2859071  
   0.622968900     0.7193167    0.1720743  
   0.624968800     0.7384611    0.0527007  
   0.626968700     0.7378497   -0.0681712  
   0.628968600     0.7181219   -0.1876151  
   0.630968500     0.6790761   -0.3020697  
   0.632968400     0.6225154   -0.4084199  
   0.634968300     0.5496164   -0.5037530  
   0.636968200     0.4630895   -0.5855463  
   0.638968100     0.3652195   -0.6518291  
   0.640968000     0.2586606   -0.7017030  
   0.642967900     0.1470885   -0.7339122  
   0.644967800     0.0327038   -0.7477835  
   0.646967700    -0.0810434   -0.7440770  
   0.648967600    -0.1916179   -0.7231818  
   0.650967500    -0.2959771   -0.6863552  
   0.652967400    -0.3929529   -0.6349082  
   0.654967300    -0.4803197   -0.5702947  
   0.656967200    -0.5565276   -0.4944386  
   0.658967100    -0.6205750   -0.4086957  
   0.660967000    -0.6715193   -0.3148753  
   0.662966900    -0.7081410   -0.2149274  
   0.664966800    -0.7300156   -0.1106440  
   0.666966700    -0.7366177   -0.0042284  
   0.668966600    -0.7276940    0.1021427  
   0.670966500    -0.7034923    0.2060722  
   0.672966400    -0.6652606    0.3065804  
   0.674966300    -0.6120909    0.3994973  
   0.676966200    -0.5453122    0.4843445  
   0.678966100    -0.4671198    0.5584620  
   0.680966000    -0.3780262    0.6208990  
   0.682965900    -0.2799928    0.6697347  
   0.684965800    -0.1750274    0.7038032  
   0.686965700    -0.0652049    0.7215460  
   0.688965600     0.0470502    0.7226527  
   0.690965500     0.1588268    0.7051813  
   0.692965400     0.2677528    0.6715798  
   0.694965300     0.3706410    0.6211085  
   0.696965200     0.4646181    0.5547082  
   0.698965100     0.5480263    0.4734985  
   0.700965000     0.6172456    0.3795227  
   0.702964900     0.6712314    0.2754920  
   0.704964800     0.7078463    0.1635974  
   0.706964700     0.7256367    0.0472688  
   0.708964600     0.7247220   -0.0708751  
   0.710964500     0.7055241   -0.1869327  
   0.712964400     0.6673589   -0.2972123  
   0.714964300     0.6121606   -0.3998407  
   0.716964200     0.5424421   -0.4906608  
   0.718964100     0.4603763   -0.5684858  
   0.720964000     0.3684536   -0.6314424  
   0.722963900     0.2696619   -0.6791610  
   0.724963800     0.1662447   -0.7113582  
   0.726963700     0.0603960   -0.7276683  
   0.728963600    -0.0451558   -0.7283047  
   0.730963500    -0.1489221   -0.7133418  
   0.732963400    -0.2483875   -0.6847715  
   0.734963300    -0.3424584   -0.6426522  
   0.736963200    -0.4413515   -0.5781175  
   0.738963100    -0.5283308   -0.4982724  
   0.740963000    -0.6008096   -0.4053754  
   0.742962900    -0.6574355   -0.3018879  
   0.744962800    -0.6960589   -0.1903668  
   0.746962700    -0.7158242   -0.0737546  
   0.748962600    -0.7159891    0.0455162  
   0.750962500    -0.7286229   -0.0647803  
   0.752962400    -0.7268082    0.0555772  
   0.754962300    -0.7046629    0.1743686  
   0.756962200    -0.6624237    0.2884133  
   0.758962100    -0.6013054    0.3935938  
   0.760962000    -0.5223390    0.4875445  
   0.762961900    -0.4331665    0.5631931  
   0.764961800    -0.3425207    0.6185893  
   0.766961700    -0.2445625    0.6594031  
   0.768961600    -0.1410048    0.6850277  
   0.770961500    -0.0349446    0.6945418  
   0.772961400     0.0711526    0.6880226  
   0.774961300     0.1750050    0.6657864  
   0.776961200     0.2748116    0.6279212  
   0.778961100     0.3675693    0.5755183  
   0.780961000     0.4521699    0.5092632  
   0.782960900     0.5260191    0.4308125  
   0.784960800     0.5878389    0.3415249  
   0.786960700     0.6353025    0.2435369  
   0.788960600     0.6672474    0.1388059  
   0.790960500     0.6829299    0.0304033  
   0.792960400     0.6816366   -0.0793304  
   0.794960300     0.6634726   -0.1872683  
   0.796960200     0.6289086   -0.2915123  
   0.798960100     0.5786026   -0.3888420  
   0.800960000     0.5139607   -0.4770846  
   0.802959900     0.4365475   -0.5544222  
   0.804959800     0.3484255   -0.6188766  
   0.806959700     0.2516518   -0.6691502  
   0.808959600     0.1485261   -0.7037287  
   0.810959500     0.0414778   -0.7221915  
   0.812959400    -0.0669159   -0.7242099  
   0.814959300    -0.1741471   -0.7098314  
   0.816959200    -0.2774560   -0.6795540  
   0.818959100    -0.3749626   -0.6341707  
   0.820959000    -0.4639682   -0.5750723  
   0.822958900    -0.5430182   -0.5034363  
   0.824958800    -0.6103907   -0.4211594  
   0.826958700    -0.6646221   -0.3302533  
   0.828958600    -0.7050328   -0.2324725  
   0.830958500    -0.7303007   -0.1302084  
   0.832958400    -0.7405130   -0.0257470  
   0.834958300    -0.7353819    0.0788011  
   0.836958200    -0.7156067    0.1812518  
   0.838958100    -0.6810223    0.2794961  
   0.840958000    -0.6322452    0.3718781  
   0.842957900    -0.5708390    0.4566004  
   0.844957800    -0.4973218    0.5320944  
   0.846957700    -0.4137294    0.5962819  
   0.848957600    -0.3211313    0.6476312  
   0.850957500    -0.2216439    0.6854287  
   0.852957400    -0.1167641    0.7079965  
   0.854957300    -0.0090473    0.7148071  
   0.856957200     0.0989343    0.7053887  
   0.858957100     0.2049086    0.6797338  
   0.860957000     0.3056402    0.6382957  
   0.862956900     0.3992550    0.5816772  
   0.864956800     0.4833247    0.5113034  
   0.866956700     0.5556657    0.4289119  
   0.868956600     0.6143463    0.3354051  
   0.870956500     0.6587423    0.2336463  
   0.872956400     0.6869270    0.1254258  
   0.874956300     0.6979887    0.0136222  
   0.876956200     0.6909016   -0.0995857  
   0.878956100     0.6659191   -0.2102927  
   0.880956000     0.6232578   -0.3159449  
   0.882955900     0.5640357   -0.4133746  
   0.884955800     0.4902620   -0.5000871  
   0.886955700     0.4033517   -0.5734738  
   0.888955600     0.3065282   -0.6315297  
   0.890955500     0.2019076   -0.6733994  
   0.892955400     0.0927712   -0.6976256  
   0.894955300    -0.0179442   -0.7043484  
