! MS46122B
! 2250307/22442219
! 7/22/2025 3:14:42 PM
! C:\USERS\SPARKY\DOCUMENTS\VNA_DATA\JULY22_2025\295\ECAL_OPEN_B.S1P
! CHANNEL.1
! TR.MEASUREMENT
! RAW.DATA
# GHZ S RI R 50.0
! FREQ.GHZ         S11RE         S11IM         
!; PortSelection: Port_1
   0.001000000     1.0453160   -0.0727605  
   0.002999900     0.9480766   -0.2222258  
   0.004999800     0.8097370   -0.0909838  
   0.006999700     0.5254299   -0.4065027  
   0.008999600     0.9398097    0.0021672  
   0.010999500     0.9263669   -0.2259219  
   0.012999400     0.8870059   -0.3347987  
   0.014999300     0.8471795   -0.4167894  
   0.016999200     0.8072329   -0.4874732  
   0.018999100     0.7647042   -0.5530648  
   0.020999000     0.7179099   -0.6138935  
   0.022998900     0.6663226   -0.6696824  
   0.024998800     0.6003952   -0.6858458  
   0.026998700     0.5471467   -0.7676891  
   0.028998600     0.4779691   -0.8089738  
   0.030998500     0.4021710   -0.8438417  
   0.032998400     0.3218796   -0.8373281  
   0.034998300     0.2294750   -0.8909979  
   0.036998200     0.1330211   -0.9002113  
   0.038998100     0.0308501   -0.8980621  
   0.040998000    -0.0762256   -0.8818119  
   0.042997900    -0.1867365   -0.8505080  
   0.044997800    -0.2763826   -0.7796649  
   0.046997700    -0.4091865   -0.7311592  
   0.048997600    -0.5143455   -0.6399166  
   0.050997500    -0.6094286   -0.5243024  
   0.052997400    -0.6875084   -0.3838010  
   0.054997300    -0.7402617   -0.2208696  
   0.056997200    -0.7586899   -0.0350840  
   0.058997100    -0.7325115    0.1604738  
   0.060997000    -0.6556544    0.3536649  
   0.062996900    -0.5266716    0.5278332  
   0.064996800    -0.3519286    0.6648645  
   0.066996700    -0.1456165    0.7509608  
   0.068996600     0.0733087    0.7778309  
   0.070996500     0.2859906    0.7480050  
   0.072996400     0.4758591    0.6683116  
   0.074996300     0.6318169    0.5519457  
   0.076996200     0.7499983    0.4119933  
   0.078996100     0.8302492    0.2608455  
   0.080996000     0.8752589    0.1068318  
   0.082995900     0.8901933   -0.0424323  
   0.084995800     0.8784459   -0.1822329  
   0.086995700     0.8469110   -0.3103695  
   0.088995600     0.7983795   -0.4259461  
   0.090995500     0.7369911   -0.5277042  
   0.092995400     0.6660588   -0.6170970  
   0.094995300     0.5862689   -0.6922643  
   0.096995200     0.5005752   -0.7544702  
   0.098995100     0.4096830   -0.8046553  
   0.100995000     0.3155262   -0.8425642  
   0.102994900     0.2191425   -0.8685510  
   0.104994800     0.1214405   -0.8830688  
   0.106994700     0.0229599   -0.8858817  
   0.108994600    -0.0749732   -0.8781249  
   0.110994500    -0.1720192   -0.8591619  
   0.112994400    -0.2665974   -0.8286304  
   0.114994300    -0.3588063   -0.7869800  
   0.116994200    -0.4464822   -0.7339378  
   0.118994100    -0.5283554   -0.6689247  
   0.120994000    -0.6048688   -0.5938123  
   0.122993900    -0.6718370   -0.5062295  
   0.124993800    -0.7284741   -0.4076743  
   0.126993700    -0.7731670   -0.2987458  
   0.128993600    -0.8014404   -0.1809387  
   0.130993500    -0.8138485   -0.0558706  
   0.132993400    -0.8076521    0.0743775  
   0.134993300    -0.7802343    0.2068360  
   0.136993200    -0.7297391    0.3374567  
   0.138993100    -0.6557242    0.4625772  
   0.140993000    -0.5582386    0.5763134  
   0.142992900    -0.4383654    0.6738408  
   0.144992800    -0.2997609    0.7505710  
   0.146992700    -0.1455217    0.7994423  
   0.148992600     0.0178398    0.8180538  
   0.150992500     0.1822294    0.8036085  
   0.152992400     0.3417135    0.7581530  
   0.154992300     0.4883000    0.6831830  
   0.156992200     0.6165988    0.5820708  
   0.158992100     0.7214358    0.4606392  
   0.160992000     0.7996817    0.3242076  
   0.162991900     0.8504801    0.1793176  
   0.164991800     0.8741314    0.0317995  
   0.166991700     0.8719218   -0.1131779  
   0.168991600     0.8459916   -0.2508244  
   0.170991500     0.7992824   -0.3788064  
   0.172991400     0.7346545   -0.4939785  
   0.174991300     0.6561855   -0.5943735  
   0.176991200     0.5659164   -0.6798167  
   0.178991100     0.4665062   -0.7493630  
   0.180991000     0.3616161   -0.8036425  
   0.182990900     0.2520605   -0.8407826  
   0.184990800     0.1403496   -0.8626052  
   0.186990700     0.0283111   -0.8691899  
   0.188990600    -0.0578789   -0.8621024  
   0.190990500    -0.1861006   -0.8384225  
   0.192990400    -0.2928474   -0.8013470  
   0.194990300    -0.3901809   -0.7518474  
   0.196990200    -0.4802859   -0.6905389  
   0.198990100    -0.5615523   -0.6174509  
   0.200990000    -0.6336400   -0.5334923  
   0.202989900    -0.6945086   -0.4391384  
   0.204989800    -0.7428419   -0.3365583  
   0.206989700    -0.7780473   -0.2269305  
   0.208989600    -0.7972014   -0.1119445  
   0.210989500    -0.7995046    0.0081749  
   0.212989400    -0.7842231    0.1298343  
   0.214989300    -0.7500133    0.2503871  
   0.216989200    -0.6971280    0.3668789  
   0.218989100    -0.6253664    0.4758232  
   0.220989000    -0.5345680    0.5743382  
   0.222988900    -0.4264957    0.6588638  
   0.224988800    -0.3033230    0.7258450  
   0.226988700    -0.1684511    0.7718250  
   0.228988600    -0.0260730    0.7936217  
   0.230988500     0.1195889    0.7904364  
   0.232988400     0.2635389    0.7602749  
   0.234988300     0.4009910    0.7059199  
   0.236988200     0.5270715    0.6276163  
   0.238988100     0.6365618    0.5289691  
   0.240988000     0.7262849    0.4134093  
   0.242987900     0.7934890    0.2861774  
   0.244987800     0.8371016    0.1506312  
   0.246987700     0.8568768    0.0121342  
   0.248987600     0.8535655   -0.1256247  
   0.250987500     0.8284235   -0.2586369  
   0.252987400     0.7829042   -0.3823418  
   0.254987300     0.7209930   -0.4947098  
   0.256987200     0.6443742   -0.5938865  
   0.258987100     0.5568682   -0.6798943  
   0.260987000     0.4586085   -0.7495571  
   0.262986900     0.3536117   -0.8038527  
   0.264986800     0.2438094   -0.8424989  
   0.266986700     0.1315168   -0.8649213  
   0.268986600     0.0191119   -0.8719646  
   0.270986500    -0.0908642   -0.8640144  
   0.272986400    -0.1978544   -0.8421043  
   0.274986300    -0.3003434   -0.8069018  
   0.276986200    -0.3969249   -0.7587292  
   0.278986100    -0.4869832   -0.6982822  
   0.280986000    -0.5684811   -0.6263493  
   0.282985900    -0.6401036   -0.5439318  
   0.284985800    -0.7010387   -0.4523745  
   0.286985700    -0.7492876   -0.3526139  
   0.288985600    -0.7837890   -0.2469466  
   0.290985500    -0.8039781   -0.1366393  
   0.292985400    -0.8084953   -0.0224219  
   0.294985300    -0.7966920    0.0932475  
   0.296985200    -0.7675653    0.2091780  
   0.298985100    -0.7197366    0.3226151  
   0.300985000    -0.6531692    0.4295972  
   0.302984900    -0.5684158    0.5268242  
   0.304984800    -0.4661870    0.6097738  
   0.306984700    -0.3488749    0.6753515  
   0.308984600    -0.2199181    0.7191340  
   0.310984500    -0.0834335    0.7387636  
   0.312984400     0.0554185    0.7311839  
   0.314984300     0.1903286    0.6963377  
   0.316984200     0.3140286    0.6350697  
   0.318984100     0.4206211    0.5508543  
   0.320984000     0.5036682    0.4498791  
   0.322983900     0.5607098    0.3401954  
   0.324983800     0.5920029    0.2315255  
   0.326983700     0.6029616    0.1308319  
   0.328983600     0.6008133    0.0413413  
   0.330983500     0.5931542   -0.0371663  
   0.332983400     0.5846257   -0.1093282  
   0.334983300     0.5762364   -0.1809946  
   0.336983200     0.5650765   -0.2570584  
   0.338983100     0.5458233   -0.3391237  
   0.340983000     0.5140588   -0.4253257  
   0.342982900     0.4657712   -0.5113467  
   0.344982800     0.3996788   -0.5928566  
   0.346982700     0.3162287   -0.6644939  
   0.348982600     0.2186734   -0.7201356  
   0.350982500     0.1109196   -0.7598238  
   0.352982400    -0.0028560   -0.7803484  
   0.354982300    -0.1244689   -0.7804225  
   0.356982200    -0.2579575   -0.7549604  
   0.358982100    -0.3836263   -0.7057037  
   0.360982000    -0.4973682   -0.6348883  
   0.362981900    -0.5964257   -0.5457215  
   0.364981800    -0.6779697   -0.4407497  
   0.366981700    -0.7405317   -0.3236361  
   0.368981600    -0.7816267   -0.1982691  
   0.370981500    -0.8012080   -0.0679230  
   0.372981400    -0.7984467    0.0636174  
   0.374981300    -0.7736474    0.1934815  
   0.376981200    -0.8015328    0.0647704  
   0.378981100    -0.7760715    0.1983821  
   0.380981000    -0.7280214    0.3266226  
   0.382980900    -0.6660637    0.4348110  
   0.384980800    -0.5915716    0.5282954  
   0.386980700    -0.5029650    0.6111189  
   0.388980600    -0.4015163    0.6803076  
   0.390980500    -0.2906138    0.7335411  
   0.392980400    -0.1715247    0.7694024  
   0.394980300    -0.0474792    0.7866885  
   0.396980200     0.0788786    0.7841848  
   0.398980100     0.2044750    0.7618883  
   0.400980000     0.3262063    0.7196289  
   0.402979900     0.4406375    0.6575451  
   0.404979800     0.5441071    0.5778697  
   0.406979700     0.6335791    0.4818984  
   0.408979600     0.7061200    0.3725248  
   0.410979500     0.7604584    0.2517980  
   0.412979400     0.7941589    0.1235096  
   0.414979300     0.8049270   -0.0083057  
   0.416979200     0.7949901   -0.1397048  
   0.418979100     0.7638313   -0.2664339  
   0.420979000     0.7127368   -0.3858937  
   0.422978900     0.6436015   -0.4945113  
   0.424978800     0.5584816   -0.5896907  
   0.426978700     0.4602250   -0.6694354  
   0.428978600     0.3520345   -0.7316336  
   0.430978500     0.2371646   -0.7755193  
   0.432978400     0.1192764   -0.8007594  
   0.434978300     0.0002313   -0.8094413  
   0.436978200    -0.1174270   -0.7986783  
   0.438978100    -0.2304926   -0.7709829  
   0.440978000    -0.3379737   -0.7274073  
   0.442977900    -0.4365091   -0.6692247  
   0.444977800    -0.5249293   -0.5977419  
   0.446977700    -0.6018435   -0.5150735  
   0.448977600    -0.6657406   -0.4227423  
   0.450977500    -0.7156724   -0.3223803  
   0.452977400    -0.7514103   -0.2154287  
   0.454977300    -0.7710264   -0.1039832  
   0.456977200    -0.7746501    0.0097382  
   0.458977100    -0.7615934    0.1236843  
   0.460977000    -0.7320443    0.2345719  
   0.462976900    -0.6859563    0.3402523  
   0.464976800    -0.6244802    0.4390596  
   0.466976700    -0.5484644    0.5280542  
   0.468976600    -0.4590037    0.6055178  
   0.470976500    -0.3575732    0.6689121  
   0.472976400    -0.2467232    0.7162261  
   0.474976300    -0.1287232    0.7459215  
   0.476976200    -0.0065158    0.7568033  
   0.478976100     0.1165988    0.7480499  
   0.480976000     0.2371123    0.7194727  
   0.482975900     0.3516906    0.6718343  
   0.484975800     0.4575182    0.6061446  
   0.486975700     0.5517284    0.5235997  
   0.488975600     0.6308942    0.4266081  
   0.490975500     0.6930947    0.3181210  
   0.492975400     0.7364632    0.2014015  
   0.494975300     0.7598065    0.0797033  
   0.496975200     0.7630536   -0.0432469  
   0.498975100     0.7461982   -0.1628644  
   0.500975000     0.7111806   -0.2772535  
   0.502974900     0.6595146   -0.3820521  
   0.504974800     0.5929911   -0.4763102  
   0.506974700     0.5142906   -0.5580637  
   0.508974600     0.4253297   -0.6261457  
   0.510974500     0.3293625   -0.6795284  
   0.512974400     0.2291249   -0.7181580  
   0.514974300     0.1262786   -0.7404752  
   0.516974200     0.0234992   -0.7503829  
   0.518974100    -0.0778255   -0.7466215  
   0.520974000    -0.1772250   -0.7301070  
   0.522973900    -0.2733131   -0.7016923  
   0.524973800    -0.3650857   -0.6605831  
   0.526973700    -0.4519844   -0.6081519  
   0.528973600    -0.5321466   -0.5438350  
   0.530973500    -0.6042094   -0.4676056  
   0.532973400    -0.6657322   -0.3811163  
   0.534973300    -0.7148811   -0.2850290  
   0.536973200    -0.7496563   -0.1806477  
   0.538973100    -0.7683454   -0.0716795  
   0.540973000    -0.7705160    0.0399594  
   0.542972900    -0.7552689    0.1514606  
   0.544972800    -0.7229094    0.2601261  
   0.546972700    -0.6739122    0.3634677  
   0.548972600    -0.6092546    0.4588229  
   0.550972500    -0.5302502    0.5433914  
   0.552972400    -0.4387651    0.6151744  
   0.554972300    -0.3365534    0.6723965  
   0.556972200    -0.2263328    0.7134950  
   0.558972100    -0.1105792    0.7371273  
   0.560972000     0.0076416    0.7425026  
   0.562971900     0.1255572    0.7295470  
   0.564971800     0.2404031    0.6986360  
   0.566971700     0.3491630    0.6499645  
   0.568971600     0.4492334    0.5846599  
   0.570971500     0.5386098    0.5042893  
   0.572971400     0.6142262    0.4101316  
   0.574971300     0.6743519    0.3048730  
   0.576971200     0.7171525    0.1905956  
   0.578971100     0.7410673    0.0700242  
   0.580971000     0.7452079   -0.0521953  
   0.582970900     0.7298891   -0.1734267  
   0.584970800     0.6954329   -0.2901044  
   0.586970700     0.6430193   -0.3988582  
   0.588970600     0.5745453   -0.4976094  
   0.590970500     0.4914955   -0.5840459  
   0.592970400     0.3970451   -0.6557518  
   0.594970300     0.2931955   -0.7114389  
   0.596970200     0.1827409   -0.7498359  
   0.598970100     0.0684954   -0.7707604  
   0.600970000    -0.0468598   -0.7743579  
   0.602969900    -0.1603967   -0.7607808  
   0.604969800    -0.2701926   -0.7302652  
   0.606969700    -0.3736058   -0.6843327  
   0.608969600    -0.4684792   -0.6236107  
   0.610969500    -0.5529841   -0.5501406  
   0.612969400    -0.6256521   -0.4658452  
   0.614969300    -0.6843897   -0.3726229  
   0.616969200    -0.7291444   -0.2728109  
   0.618969100    -0.7590647   -0.1682734  
   0.620969000    -0.7741723   -0.0616190  
   0.622968900    -0.7738605    0.0468819  
   0.624968800    -0.7585907    0.1541615  
   0.626968700    -0.7283885    0.2585905  
   0.628968600    -0.6835210    0.3583150  
   0.630968500    -0.6245755    0.4510965  
   0.632968400    -0.5525333    0.5351154  
   0.634968300    -0.4687711    0.6086797  
   0.636968200    -0.3745226    0.6697092  
   0.638968100    -0.2716075    0.7166544  
   0.640968000    -0.1616434    0.7482665  
   0.642967900    -0.0476676    0.7633871  
   0.644967800     0.0688155    0.7613686  
   0.646967700     0.1841617    0.7418601  
   0.648967600     0.2959803    0.7046633  
   0.650967500     0.4015791    0.6503332  
   0.652967400     0.4975893    0.5804387  
   0.654967300     0.5824279    0.4959387  
   0.656967200     0.6533837    0.3988345  
   0.658967100     0.7081803    0.2914675  
   0.660967000     0.7459018    0.1756674  
   0.662966900     0.7648994    0.0549384  
   0.664966800     0.7644367   -0.0677725  
   0.666966700     0.7443510   -0.1896354  
   0.668966600     0.7048527   -0.3061541  
   0.670966500     0.6477669   -0.4146039  
   0.672966400     0.5755407   -0.5127679  
   0.674966300     0.4883916   -0.5966491  
   0.676966200     0.3901003   -0.6649382  
   0.678966100     0.2835731   -0.7163065  
   0.680966000     0.1715421   -0.7504606  
   0.682965900     0.0568805   -0.7667403  
   0.684965800    -0.0574064   -0.7656813  
   0.686965700    -0.1694232   -0.7473399  
   0.688965600    -0.2762769   -0.7129809  
   0.690965500    -0.3755137   -0.6629323  
   0.692965400    -0.4656438   -0.6005563  
   0.694965300    -0.5453120   -0.5263426  
   0.696965200    -0.6126621   -0.4424051  
   0.698965100    -0.6672639   -0.3498250  
   0.700965000    -0.7078817   -0.2506114  
   0.702964900    -0.7340379   -0.1471227  
   0.704964800    -0.7449838   -0.0410657  
   0.706964700    -0.7408917    0.0658152  
   0.708964600    -0.7210009    0.1710506  
   0.710964500    -0.6865834    0.2732341  
   0.712964400    -0.6370543    0.3693332  
   0.714964300    -0.5734304    0.4576559  
   0.716964200    -0.4972458    0.5356124  
   0.718964100    -0.4103270    0.6016260  
   0.720964000    -0.3144058    0.6541051  
   0.722963900    -0.2110550    0.6918225  
   0.724963800    -0.1025863    0.7132106  
   0.726963700     0.0084800    0.7175801  
   0.728963600     0.1195168    0.7051479  
   0.730963500     0.2274882    0.6744046  
   0.732963400     0.3291539    0.6276991  
   0.734963300     0.4232482    0.5652590  
   0.736963200     0.5181244    0.4766492  
   0.738963100     0.5961983    0.3717031  
   0.740963000     0.6535271    0.2549739  
   0.742962900     0.6886913    0.1306919  
   0.744962800     0.7010215    0.0029170  
   0.746962700     0.6907185   -0.1236131  
   0.748962600     0.6584080   -0.2455874  
   0.750962500     0.6761253   -0.1360067  
   0.752962400     0.6432769   -0.2559808  
   0.754962300     0.5905555   -0.3675870  
   0.756962200     0.5198624   -0.4675380  
   0.758962100     0.4341660   -0.5537972  
   0.760962000     0.3350823   -0.6239232  
   0.762961900     0.2313586   -0.6739817  
   0.764961800     0.1313415   -0.7051255  
   0.766961700     0.0278977   -0.7214376  
   0.768961600    -0.0771087   -0.7226028  
   0.770961500    -0.1814166   -0.7084873  
   0.772961400    -0.2824173   -0.6794811  
   0.774961300    -0.3784532   -0.6358136  
   0.776961200    -0.4673927   -0.5784907  
   0.778961100    -0.5471992   -0.5081283  
   0.780961000    -0.6159654   -0.4265257  
   0.782960900    -0.6719593   -0.3349281  
   0.784960800    -0.7139004   -0.2354823  
   0.786960700    -0.7403131   -0.1305733  
   0.788960600    -0.7508483   -0.0226088  
   0.790960500    -0.7450499    0.0859384  
   0.792960400    -0.7230319    0.1922691  
   0.794960300    -0.6851972    0.2940111  
   0.796960200    -0.6327950    0.3892985  
   0.798960100    -0.5668943    0.4754321  
   0.800960000    -0.4887761    0.5503074  
   0.802959900    -0.4002552    0.6134904  
   0.804959800    -0.3035408    0.6626412  
   0.806959700    -0.1999813    0.6969241  
   0.808959600    -0.0926172    0.7156217  
   0.810959500     0.0164290    0.7178361  
   0.812959400     0.1255367    0.7037100  
   0.814959300     0.2317160    0.6730386  
   0.816959200     0.3324605    0.6268185  
   0.818959100     0.4253917    0.5652608  
   0.820959000     0.5084616    0.4898823  
   0.822958900     0.5790743    0.4020737  
   0.824958800     0.6358280    0.3039292  
   0.826958700     0.6767117    0.1975000  
   0.828958600     0.7004530    0.0859272  
   0.830958500     0.7064875   -0.0287666  
   0.832958400     0.6941752   -0.1428624  
   0.834958300     0.6638952   -0.2535906  
   0.836958200     0.6168532   -0.3579670  
   0.838958100     0.5536730   -0.4539261  
   0.840958000     0.4762258   -0.5386117  
   0.842957900     0.3866745   -0.6095997  
   0.844957800     0.2869755   -0.6658262  
   0.846957700     0.1803633   -0.7054496  
   0.848957600     0.0691817   -0.7275630  
   0.850957500    -0.0434035   -0.7323796  
   0.852957400    -0.1547590   -0.7194557  
   0.854957300    -0.2621983   -0.6899496  
   0.856957200    -0.3631788   -0.6445549  
   0.858957100    -0.4553127   -0.5849390  
   0.860957000    -0.5367006   -0.5130519  
   0.862956900    -0.6058708   -0.4310819  
   0.864956800    -0.6616289   -0.3406329  
   0.866956700    -0.7033373   -0.2440159  
   0.868956600    -0.7302303   -0.1435572  
   0.870956500    -0.7426563   -0.0402023  
   0.872956400    -0.7403981    0.0633023  
   0.874956300    -0.7236644    0.1652823  
   0.876956200    -0.6922703    0.2643017  
   0.878956100    -0.6475613    0.3576592  
   0.880956000    -0.5897382    0.4442162  
   0.882955900    -0.5201238    0.5219713  
   0.884955800    -0.4394990    0.5891348  
   0.886955700    -0.3500538    0.6444122  
   0.888955600    -0.2528434    0.6868939  
   0.890955500    -0.1502805    0.7149231  
   0.892955400    -0.0440207    0.7276002  
   0.894955300     0.0639567    0.7245929  
