! MS46122B
! 2250307/22442219
! 7/24/2025 12:41:40 PM
! C:\USERS\SPARKY\DOCUMENTS\VNA_DATA\JULY24_2025\295K\ECAL_SHORT_D_REPEAT1.S1P
! CHANNEL.1
! TR.MEASUREMENT
! RAW.DATA
# GHZ S RI R 50.0
! FREQ.GHZ         S11RE         S11IM         
!; PortSelection: Port_1
   0.001000000     1.0452070   -0.0721735  
   0.002999900     0.9638908   -0.1944659  
   0.004999800     0.9038221   -0.2992475  
   0.006999700     0.8366113   -0.3966275  
   0.008999600     0.7586424   -0.4913501  
   0.010999500     0.6667410   -0.5812339  
   0.012999400     0.5559680   -0.6637167  
   0.014999300     0.4215275   -0.7331401  
   0.016999200     0.2572384   -0.7786657  
   0.018999100     0.0599423   -0.7830433  
   0.020999000    -0.1641028   -0.7188779  
   0.022998900    -0.3871050   -0.5522410  
   0.024998800    -0.5237511   -0.2646109  
   0.026998700    -0.5493016    0.1050685  
   0.028998600    -0.3604208    0.4407027  
   0.030998500    -0.0448131    0.6299329  
   0.032998400     0.2575904    0.6346596  
   0.034998300     0.5420094    0.5577091  
   0.036998200     0.7220451    0.4091836  
   0.038998100     0.8319000    0.2448033  
   0.040998000     0.8889083    0.0844412  
   0.042997900     0.9080400   -0.0640106  
   0.044997800     0.8712806   -0.1748514  
   0.046997700     0.8707545   -0.3158126  
   0.048997600     0.8288457   -0.4203201  
   0.050997500     0.7757720   -0.5115662  
   0.052997400     0.7151538   -0.5905711  
   0.054997300     0.6491026   -0.6589980  
   0.056997200     0.5763631   -0.7189599  
   0.058997100     0.5006754   -0.7688512  
   0.060997000     0.4216219   -0.8100090  
   0.062996900     0.3393640   -0.8430833  
   0.064996800     0.2546324   -0.8673279  
   0.066996700     0.1672526   -0.8826556  
   0.068996600     0.0778743   -0.8894641  
   0.070996500    -0.0127534   -0.8875591  
   0.072996400    -0.1042713   -0.8748061  
   0.074996300    -0.1965489   -0.8514512  
   0.076996200    -0.2879687   -0.8166327  
   0.078996100    -0.3775370   -0.7704425  
   0.080996000    -0.4639484   -0.7115918  
   0.082995900    -0.5453237   -0.6393424  
   0.084995800    -0.6191103   -0.5527616  
   0.086995700    -0.6837920   -0.4535204  
   0.088995600    -0.7360387   -0.3407001  
   0.090995500    -0.7727810   -0.2153875  
   0.092995400    -0.7909253   -0.0795550  
   0.094995300    -0.7849377    0.0641031  
   0.096995200    -0.7525151    0.2117121  
   0.098995100    -0.6906732    0.3568088  
   0.100995000    -0.5980664    0.4943800  
   0.102994900    -0.4765431    0.6127423  
   0.104994800    -0.3294000    0.7060959  
   0.106994700    -0.1624896    0.7669694  
   0.108994600     0.0147084    0.7914808  
   0.110994500     0.1929038    0.7774942  
   0.112994400     0.3627940    0.7259239  
   0.114994300     0.5150844    0.6415427  
   0.116994200     0.6430323    0.5301208  
   0.118994100     0.7429938    0.3997882  
   0.120994000     0.8146092    0.2580201  
   0.122993900     0.8553899    0.1109498  
   0.124993800     0.8681515   -0.0347247  
   0.126993700     0.8562965   -0.1747096  
   0.128993600     0.8215306   -0.3039885  
   0.130993500     0.7704436   -0.4224282  
   0.132993400     0.7043715   -0.5274798  
   0.134993300     0.6267265   -0.6179348  
   0.136993200     0.5395989   -0.6947585  
   0.138993100     0.4457371   -0.7565483  
   0.140993000     0.3470597   -0.8040093  
   0.142992900     0.2451088   -0.8378673  
   0.144992800     0.1417561   -0.8588032  
   0.146992700     0.0379590   -0.8654997  
   0.148992600    -0.0652452   -0.8595268  
   0.150992500    -0.1659955   -0.8397194  
   0.152992400    -0.2635534   -0.8089080  
   0.154992300    -0.3566553   -0.7659696  
   0.156992200    -0.4445944   -0.7119247  
   0.158992100    -0.5258030   -0.6467819  
   0.160992000    -0.5992400   -0.5709319  
   0.162991900    -0.6631769   -0.4852845  
   0.164991800    -0.7166368   -0.3897856  
   0.166991700    -0.7578558   -0.2863975  
   0.168991600    -0.7849938   -0.1758857  
   0.170991500    -0.7971985   -0.0593937  
   0.172991400    -0.7925305    0.0600865  
   0.174991300    -0.7700602    0.1808010  
   0.176991200    -0.7281463    0.3005237  
   0.178991100    -0.6669233    0.4152570  
   0.180991000    -0.5870638    0.5220755  
   0.182990900    -0.4877831    0.6159272  
   0.184990800    -0.3710357    0.6942010  
   0.186990700    -0.2402332    0.7527037  
   0.188990600    -0.1220423    0.7841663  
   0.190990500     0.0441089    0.7970543  
   0.192990400     0.1953751    0.7803437  
   0.194990300     0.3388096    0.7373781  
   0.196990200     0.4715717    0.6695744  
   0.198990100     0.5895439    0.5794615  
   0.200990000     0.6891415    0.4701962  
   0.202989900     0.7671427    0.3463683  
   0.204989800     0.8214512    0.2131548  
   0.206989700     0.8526620    0.0753310  
   0.208989600     0.8587642   -0.0623166  
   0.210989500     0.8425551   -0.1968022  
   0.212989400     0.8058068   -0.3239887  
   0.214989300     0.7507345   -0.4409778  
   0.216989200     0.6803884   -0.5451297  
   0.218989100     0.5974935   -0.6354454  
   0.220989000     0.5041254   -0.7110973  
   0.222988900     0.4026896   -0.7714497  
   0.224988800     0.2956276   -0.8160948  
   0.226988700     0.1856918   -0.8450521  
   0.228988600     0.0750616   -0.8584610  
   0.230988500    -0.0347489   -0.8564762  
   0.232988400    -0.1427711   -0.8393381  
   0.234988300    -0.2474890   -0.8092576  
   0.236988200    -0.3468765   -0.7656462  
   0.238988100    -0.4395673   -0.7091787  
   0.240988000    -0.5236745   -0.6415945  
   0.242987900    -0.5981417   -0.5631929  
   0.244987800    -0.6618670   -0.4747775  
   0.246987700    -0.7140501   -0.3773777  
   0.248987600    -0.7526438   -0.2718145  
   0.250987500    -0.7768834   -0.1603376  
   0.252987400    -0.7849655   -0.0451415  
   0.254987300    -0.7762008    0.0717657  
   0.256987200    -0.7499840    0.1880074  
   0.258987100    -0.7067357    0.3020482  
   0.260987000    -0.6438177    0.4099052  
   0.262986900    -0.5624986    0.5091985  
   0.264986800    -0.4643983    0.5959229  
   0.266986700    -0.3509680    0.6667942  
   0.268986600    -0.2251515    0.7181316  
   0.270986500    -0.0907402    0.7472858  
   0.272986400     0.0485985    0.7528341  
   0.274986300     0.1880519    0.7336091  
   0.276986200     0.3234700    0.6892856  
   0.278986100     0.4492106    0.6208872  
   0.280986000     0.5608070    0.5307414  
   0.282985900     0.6542059    0.4222802  
   0.284985800     0.7254861    0.2997944  
   0.286985700     0.7734654    0.1683397  
   0.288985600     0.7971875    0.0328465  
   0.290985500     0.7967820   -0.1014367  
   0.292985400     0.7743170   -0.2312493  
   0.294985300     0.7317553   -0.3526109  
   0.296985200     0.6713851   -0.4635135  
   0.298985100     0.5952852   -0.5615217  
   0.300985000     0.5071715   -0.6443547  
   0.302984900     0.4101550   -0.7110640  
   0.304984800     0.3065513   -0.7612907  
   0.306984700     0.2001816   -0.7951208  
   0.308984600     0.0933526   -0.8129686  
   0.310984500    -0.0122856   -0.8164150  
   0.312984400    -0.1149363   -0.8056328  
   0.314984300    -0.2135131   -0.7823672  
   0.316984200    -0.3067537   -0.7472449  
   0.318984100    -0.3944308   -0.7010725  
   0.320984000    -0.4754074   -0.6454268  
   0.322983900    -0.5489053   -0.5804250  
   0.324983800    -0.6143686   -0.5079690  
   0.326983700    -0.6712710   -0.4279402  
   0.328983600    -0.7196250   -0.3408103  
   0.330983500    -0.7576428   -0.2464563  
   0.332983400    -0.7842255   -0.1451893  
   0.334983300    -0.7961938   -0.0387497  
   0.336983200    -0.7922158    0.0711340  
   0.338983100    -0.7712142    0.1805779  
   0.340983000    -0.7334887    0.2867581  
   0.342982900    -0.6797469    0.3869029  
   0.344982800    -0.6112229    0.4788638  
   0.346982700    -0.5285856    0.5611370  
   0.348982600    -0.4336604    0.6300390  
   0.350982500    -0.3288203    0.6854785  
   0.352982400    -0.2158713    0.7252022  
   0.354982300    -0.0917901    0.7479725  
   0.356982200     0.0482873    0.7495488  
   0.358982100     0.1875800    0.7256497  
   0.360982000     0.3202197    0.6769806  
   0.362981900     0.4429293    0.6047670  
   0.364981800     0.5511984    0.5109816  
   0.366981700     0.6407912    0.3978429  
   0.368981600     0.7083907    0.2693155  
   0.370981500     0.7511466    0.1300784  
   0.372981400     0.7670694   -0.0151401  
   0.374981300     0.7550794   -0.1615555  
   0.376981200     0.7696305   -0.0580419  
   0.378981100     0.7491531   -0.2028275  
   0.380981000     0.7023237   -0.3402986  
   0.382980900     0.6380732   -0.4555283  
   0.384980800     0.5597456   -0.5530040  
   0.386980700     0.4679607   -0.6358590  
   0.388980600     0.3649811   -0.7022392  
   0.390980500     0.2551420   -0.7507550  
   0.392980400     0.1407419   -0.7811660  
   0.394980300     0.0253363   -0.7937008  
   0.396980200    -0.0895549   -0.7892355  
   0.398980100    -0.2010023   -0.7683033  
   0.400980000    -0.3067007   -0.7314060  
   0.402979900    -0.4056887   -0.6798519  
   0.404979800    -0.4948398   -0.6157820  
   0.406979700    -0.5735717   -0.5401666  
   0.408979600    -0.6406475   -0.4550142  
   0.410979500    -0.6952986   -0.3607153  
   0.412979400    -0.7363913   -0.2593293  
   0.414979300    -0.7614242   -0.1533401  
   0.416979200    -0.7730165   -0.0441801  
   0.418979100    -0.7692998    0.0652816  
   0.420979000    -0.7499276    0.1737990  
   0.422978900    -0.7149553    0.2795497  
   0.424978800    -0.6647230    0.3794733  
   0.426978700    -0.6001661    0.4729680  
   0.428978600    -0.5219505    0.5564677  
   0.430978500    -0.4318019    0.6280176  
   0.432978400    -0.3311840    0.6858924  
   0.434978300    -0.2226428    0.7296715  
   0.436978200    -0.1070239    0.7562169  
   0.438978100     0.0126050    0.7644944  
   0.440978000     0.1333717    0.7545812  
   0.442977900     0.2523195    0.7257920  
   0.444977800     0.3660327    0.6783931  
   0.446977700     0.4716588    0.6130987  
   0.448977600     0.5660329    0.5314119  
   0.450977500     0.6465869    0.4351940  
   0.452977400     0.7110692    0.3270056  
   0.454977300     0.7573335    0.2087989  
   0.456977200     0.7840333    0.0846999  
   0.458977100     0.7899197   -0.0423444  
   0.460977000     0.7754696   -0.1678489  
   0.462976900     0.7411506   -0.2882054  
   0.464976800     0.6883174   -0.4009795  
   0.466976700     0.6193881   -0.5030045  
   0.468976600     0.5359679   -0.5919001  
   0.470976500     0.4403726   -0.6662933  
   0.472976400     0.3361812   -0.7238601  
   0.474976300     0.2253890   -0.7645929  
   0.476976200     0.1114328   -0.7878299  
   0.478976100    -0.0026360   -0.7939067  
   0.480976000    -0.1148337   -0.7832794  
   0.482975900    -0.2224152   -0.7568243  
   0.484975800    -0.3242008   -0.7161261  
   0.486975700    -0.4187727   -0.6614874  
   0.488975600    -0.5039253   -0.5947889  
   0.490975500    -0.5788503   -0.5173088  
   0.492975400    -0.6420932   -0.4298942  
   0.494975300    -0.6925250   -0.3346580  
   0.496975200    -0.7291791   -0.2330078  
   0.498975100    -0.7510135   -0.1275221  
   0.500975000    -0.7577691   -0.0190337  
   0.502974900    -0.7489031    0.0892871  
   0.504974800    -0.7241112    0.1965672  
   0.506974700    -0.6834715    0.3000054  
   0.508974600    -0.6267707    0.3976395  
   0.510974500    -0.5547925    0.4861176  
   0.512974400    -0.4695725    0.5625336  
   0.514974300    -0.3726079    0.6237092  
   0.516974200    -0.2676172    0.6693983  
   0.518974100    -0.1567275    0.6972588  
   0.520974000    -0.0434266    0.7071185  
   0.522973900     0.0689790    0.6987352  
   0.524973800     0.1777011    0.6732556  
   0.526973700     0.2797255    0.6317305  
   0.528973600     0.3734369    0.5761831  
   0.530973500     0.4571664    0.5080115  
   0.532973400     0.5297564    0.4296662  
   0.534973300     0.5896868    0.3420421  
   0.536973200     0.6369743    0.2469696  
   0.538973100     0.6698347    0.1467555  
   0.540973000     0.6887640    0.0434698  
   0.542972900     0.6925855   -0.0624036  
   0.544972800     0.6806936   -0.1677783  
   0.546972700     0.6535032   -0.2715538  
   0.548972600     0.6108068   -0.3709236  
   0.550972500     0.5538462   -0.4630764  
   0.552972400     0.4825762   -0.5464647  
   0.554972300     0.3992054   -0.6180120  
   0.556972200     0.3055801   -0.6766541  
   0.558972100     0.2036700   -0.7203314  
   0.560972000     0.0969040   -0.7480623  
   0.562971900    -0.0127316   -0.7590644  
   0.564971800    -0.1220746   -0.7529725  
   0.566971700    -0.2292391   -0.7312558  
   0.568971600    -0.3315565   -0.6938821  
   0.570971500    -0.4269384   -0.6420107  
   0.572971400    -0.5136538   -0.5767814  
   0.574971300    -0.5898597   -0.4993222  
   0.576971200    -0.6544892   -0.4114079  
   0.578971100    -0.7054215   -0.3150025  
   0.580971000    -0.7419302   -0.2124849  
   0.582970900    -0.7628832   -0.1058483  
   0.584970800    -0.7684335    0.0022758  
   0.586970700    -0.7582934    0.1101586  
   0.588970600    -0.7330354    0.2153750  
   0.590970500    -0.6927420    0.3163038  
   0.592970400    -0.6380899    0.4108619  
   0.594970300    -0.5701935    0.4967782  
   0.596970200    -0.4899555    0.5726635  
   0.598970100    -0.3991178    0.6363957  
   0.600970000    -0.2987712    0.6865417  
   0.602969900    -0.1914576    0.7213868  
   0.604969800    -0.0785964    0.7404851  
   0.606969700     0.0364712    0.7417970  
   0.608969600     0.1521508    0.7251947  
   0.610969500     0.2645455    0.6908430  
   0.612969400     0.3711529    0.6386366  
   0.614969300     0.4688394    0.5702688  
   0.616969200     0.5542320    0.4869635  
   0.618969100     0.6257520    0.3909528  
   0.620969000     0.6810294    0.2848196  
   0.622968900     0.7187043    0.1708645  
   0.624968800     0.7377587    0.0516474  
   0.626968700     0.7371082   -0.0690851  
   0.628968600     0.7173256   -0.1883863  
   0.630968500     0.6782724   -0.3025482  
   0.632968400     0.6216343   -0.4088487  
   0.634968300     0.5486970   -0.5037871  
   0.636968200     0.4621322   -0.5858031  
   0.638968100     0.3643804   -0.6516724  
   0.640968000     0.2579661   -0.7014753  
   0.642967900     0.1464476   -0.7335876  
   0.644967800     0.0322098   -0.7472914  
   0.646967700    -0.0813746   -0.7435101  
   0.648967600    -0.1916699   -0.7225406  
   0.650967500    -0.2959720   -0.6856900  
   0.652967400    -0.3927979   -0.6342354  
   0.654967300    -0.4799331   -0.5696667  
   0.656967200    -0.5559518   -0.4938725  
   0.658967100    -0.6198484   -0.4082465  
   0.660967000    -0.6706517   -0.3145643  
   0.662966900    -0.7071753   -0.2147273  
   0.664966800    -0.7289775   -0.1105665  
   0.666966700    -0.7355230   -0.0043019  
   0.668966600    -0.7265952    0.1017938  
   0.670966500    -0.7023816    0.2057707  
   0.672966400    -0.6641891    0.3059821  
   0.674966300    -0.6109669    0.3988281  
   0.676966200    -0.5443428    0.4834528  
   0.678966100    -0.4662622    0.5574358  
   0.680966000    -0.3774386    0.6196931  
   0.682965900    -0.2793880    0.6685188  
   0.684965800    -0.1747098    0.7024592  
   0.686965700    -0.0648964    0.7202129  
   0.688965600     0.0473416    0.7213419  
   0.690965500     0.1588607    0.7038989  
   0.692965400     0.2675605    0.6703008  
   0.694965300     0.3702172    0.6199626  
   0.696965200     0.4642135    0.5535665  
   0.698965100     0.5474846    0.4725255  
   0.700965000     0.6166465    0.3786665  
   0.702964900     0.6705564    0.2747019  
   0.704964800     0.7071365    0.1629474  
   0.706964700     0.7249575    0.0467351  
   0.708964600     0.7239764   -0.0713141  
   0.710964500     0.7047371   -0.1873253  
   0.712964400     0.6666864   -0.2974868  
   0.714964300     0.6114362   -0.4000917  
   0.716964200     0.5417182   -0.4905941  
   0.718964100     0.4597164   -0.5683546  
   0.720964000     0.3678630   -0.6312233  
   0.722963900     0.2691457   -0.6788784  
   0.724963800     0.1659291   -0.7107387  
   0.726963700     0.0601547   -0.7271969  
   0.728963600    -0.0453559   -0.7279155  
   0.730963500    -0.1489587   -0.7127032  
   0.732963400    -0.2483357   -0.6841267  
   0.734963300    -0.3424105   -0.6418636  
   0.736963200    -0.4409892   -0.5774850  
   0.738963100    -0.5278503   -0.4976518  
   0.740963000    -0.6003335   -0.4047107  
   0.742962900    -0.6565980   -0.3015447  
   0.744962800    -0.6951292   -0.1901260  
   0.746962700    -0.7148285   -0.0735774  
   0.748962600    -0.7149138    0.0455306  
   0.750962500    -0.7274929   -0.0644858  
   0.752962400    -0.7256019    0.0556868  
   0.754962300    -0.7034137    0.1742353  
   0.756962200    -0.6612178    0.2880309  
   0.758962100    -0.6000797    0.3930594  
   0.760962000    -0.5211946    0.4868048  
   0.762961900    -0.4321294    0.5622888  
   0.764961800    -0.3415200    0.6175864  
   0.766961700    -0.2436964    0.6582545  
   0.768961600    -0.1402475    0.6836013  
   0.770961500    -0.0344085    0.6933010  
   0.772961400     0.0715425    0.6867657  
   0.774961300     0.1752307    0.6644881  
   0.776961200     0.2749153    0.6266279  
   0.778961100     0.3675189    0.5743158  
   0.780961000     0.4519722    0.5080816  
   0.782960900     0.5256811    0.4296782  
   0.784960800     0.5874021    0.3404995  
   0.786960700     0.6347931    0.2426149  
   0.788960600     0.6666686    0.1379874  
   0.790960500     0.6823006    0.0296879  
   0.792960400     0.6809259   -0.0798308  
   0.794960300     0.6627112   -0.1877107  
   0.796960200     0.6281208   -0.2918379  
   0.798960100     0.5778942   -0.3890254  
   0.800960000     0.5132552   -0.4771348  
   0.802959900     0.4358145   -0.5543793  
   0.804959800     0.3477590   -0.6186904  
   0.806959700     0.2510249   -0.6685317  
   0.808959600     0.1480288   -0.7033259  
   0.810959500     0.0410473   -0.7216645  
   0.812959400    -0.0672080   -0.7235891  
   0.814959300    -0.1743894   -0.7091353  
   0.816959200    -0.2775680   -0.6788350  
   0.818959100    -0.3748677   -0.6334057  
   0.820959000    -0.4638881   -0.5741337  
   0.822958900    -0.5426075   -0.5025982  
   0.824958800    -0.6098300   -0.4203342  
   0.826958700    -0.6639488   -0.3294175  
   0.828958600    -0.7041672   -0.2317673  
   0.830958500    -0.7292715   -0.1296846  
   0.832958400    -0.7393621   -0.0254399  
   0.834958300    -0.7341549    0.0791471  
   0.836958200    -0.7142586    0.1814060  
   0.838958100    -0.6796470    0.2795375  
   0.840958000    -0.6307844    0.3716636  
   0.842957900    -0.5694228    0.4560792  
   0.844957800    -0.4960735    0.5314785  
   0.846957700    -0.4125601    0.5954310  
   0.848957600    -0.3200405    0.6466508  
   0.850957500    -0.2207082    0.6842929  
   0.852957400    -0.1158980    0.7067611  
   0.854957300    -0.0084206    0.7134706  
   0.856957200     0.0993662    0.7040392  
   0.858957100     0.2051363    0.6783289  
   0.860957000     0.3056819    0.6369306  
   0.862956900     0.3990844    0.5803862  
   0.864956800     0.4828587    0.5102677  
   0.866956700     0.5551510    0.4277644  
   0.868956600     0.6138330    0.3343759  
   0.870956500     0.6580223    0.2327978  
   0.872956400     0.6862371    0.1246513  
   0.874956300     0.6972665    0.0128990  
   0.876956200     0.6900811   -0.1001241  
   0.878956100     0.6650715   -0.2106658  
   0.880956000     0.6223428   -0.3163514  
   0.882955900     0.5632123   -0.4135500  
   0.884955800     0.4894252   -0.5001471  
   0.886955700     0.4025637   -0.5733912  
   0.888955600     0.3056832   -0.6313304  
   0.890955500     0.2010706   -0.6731184  
   0.892955400     0.0920451   -0.6971572  
   0.894955300    -0.0184839   -0.7037810  
