! MS46122B
! 2250307/22442219
! 7/28/2025 8:04:00 AM
! C:\USERS\SPARKY\DOCUMENTS\VNA_DATA\JULY28_2025\295K\ECAL_SHORT_F_REPEAT1.S1P
! CHANNEL.1
! TR.MEASUREMENT
! RAW.DATA
# GHZ S RI R 50.0
! FREQ.GHZ         S11RE         S11IM         
!; PortSelection: Port_1
   0.001000000     1.0463800   -0.0720422  
   0.002999900     0.9650998   -0.1944242  
   0.004999800     0.9049080   -0.2992562  
   0.006999700     0.8378497   -0.3968062  
   0.008999600     0.7599233   -0.4917372  
   0.010999500     0.6681038   -0.5818556  
   0.012999400     0.5573525   -0.6646651  
   0.014999300     0.4227577   -0.7344982  
   0.016999200     0.2583052   -0.7804146  
   0.018999100     0.0607086   -0.7854112  
   0.020999000    -0.1643322   -0.7214931  
   0.022998900    -0.3884557   -0.5548052  
   0.024998800    -0.5260541   -0.2662920  
   0.026998700    -0.5520879    0.1048108  
   0.028998600    -0.3625329    0.4417576  
   0.030998500    -0.0457832    0.6314459  
   0.032998400     0.2573884    0.6361017  
   0.034998300     0.5422757    0.5588466  
   0.036998200     0.7225685    0.4100126  
   0.038998100     0.8325628    0.2454771  
   0.040998000     0.8896585    0.0849639  
   0.042997900     0.9088845   -0.0636243  
   0.044997800     0.8722919   -0.1746210  
   0.046997700     0.8720831   -0.3157178  
   0.048997600     0.8300284   -0.4204944  
   0.050997500     0.7770146   -0.5119342  
   0.052997400     0.7167131   -0.5907977  
   0.054997300     0.6499968   -0.6602020  
   0.056997200     0.5776442   -0.7199952  
   0.058997100     0.5019478   -0.7700752  
   0.060997000     0.4227994   -0.8114969  
   0.062996900     0.3404540   -0.8447875  
   0.064996800     0.2555301   -0.8692750  
   0.066996700     0.1679816   -0.8847888  
   0.068996600     0.0784085   -0.8918538  
   0.070996500    -0.0124217   -0.8901305  
   0.072996400    -0.1043088   -0.8775681  
   0.074996300    -0.1968614   -0.8543518  
   0.076996200    -0.2886990   -0.8196533  
   0.078996100    -0.3786477   -0.7734758  
   0.080996000    -0.4655432   -0.7145110  
   0.082995900    -0.5473589   -0.6422304  
   0.084995800    -0.6215889   -0.5553610  
   0.086995700    -0.6866736   -0.4558470  
   0.088995600    -0.7393400   -0.3425305  
   0.090995500    -0.7763234   -0.2167104  
   0.092995400    -0.7947121   -0.0803008  
   0.094995300    -0.7888097    0.0640556  
   0.096995200    -0.7562393    0.2123179  
   0.098995100    -0.6941429    0.3581481  
   0.100995000    -0.6011355    0.4962533  
   0.102994900    -0.4790193    0.6150855  
   0.104994800    -0.3312616    0.7086814  
   0.106994700    -0.1636055    0.7695971  
   0.108994600     0.0142273    0.7939544  
   0.110994500     0.1929095    0.7796440  
   0.112994400     0.3631466    0.7277667  
   0.114994300     0.5156835    0.6429937  
   0.116994200     0.6437792    0.5312901  
   0.118994100     0.7437702    0.4006679  
   0.120994000     0.8153787    0.2586443  
   0.122993900     0.8561710    0.1114665  
   0.124993800     0.8689892   -0.0342877  
   0.126993700     0.8572022   -0.1743114  
   0.128993600     0.8224372   -0.3039985  
   0.130993500     0.7714616   -0.4224876  
   0.132993400     0.7055336   -0.5277084  
   0.134993300     0.6278458   -0.6185901  
   0.136993200     0.5408247   -0.6954705  
   0.138993100     0.4470477   -0.7574455  
   0.140993000     0.3482123   -0.8051830  
   0.142992900     0.2461397   -0.8394578  
   0.144992800     0.1426509   -0.8606569  
   0.146992700     0.0385742   -0.8676602  
   0.148992600    -0.0649239   -0.8619978  
   0.150992500    -0.1659277   -0.8423236  
   0.152992400    -0.2639485   -0.8117499  
   0.154992300    -0.3572587   -0.7689164  
   0.156992200    -0.4457125   -0.7148802  
   0.158992100    -0.5274529   -0.6496580  
   0.160992000    -0.6013468   -0.5736614  
   0.162991900    -0.6657096   -0.4878025  
   0.164991800    -0.7196311   -0.3919973  
   0.166991700    -0.7611494   -0.2881208  
   0.168991600    -0.7886635   -0.1772823  
   0.170991500    -0.8011228   -0.0604213  
   0.172991400    -0.7964633    0.0598755  
   0.174991300    -0.7738709    0.1813046  
   0.176991200    -0.7319008    0.3014707  
   0.178991100    -0.6704471    0.4168298  
   0.180991000    -0.5901562    0.5241144  
   0.182990900    -0.4903650    0.6183567  
   0.184990800    -0.3731436    0.6969112  
   0.186990700    -0.2416281    0.7555052  
   0.188990600    -0.1230351    0.7868616  
   0.190990500     0.0437262    0.7996588  
   0.192990400     0.1954782    0.7827115  
   0.194990300     0.3392293    0.7394480  
   0.196990200     0.4722049    0.6713183  
   0.198990100     0.5902900    0.5808905  
   0.200990000     0.6898492    0.4714182  
   0.202989900     0.7679116    0.3473815  
   0.204989800     0.8223802    0.2138112  
   0.206989700     0.8535316    0.0759430  
   0.208989600     0.8596389   -0.0618305  
   0.210989500     0.8435844   -0.1964736  
   0.212989400     0.8068187   -0.3237355  
   0.214989300     0.7517928   -0.4410320  
   0.216989200     0.6815823   -0.5452411  
   0.218989100     0.5987273   -0.6358475  
   0.220989000     0.5055664   -0.7116589  
   0.222988900     0.4039923   -0.7723501  
   0.224988800     0.2969818   -0.8173214  
   0.226988700     0.1867217   -0.8466560  
   0.228988600     0.0759794   -0.8603179  
   0.230988500    -0.0344164   -0.8587290  
   0.232988400    -0.1425795   -0.8418013  
   0.234988300    -0.2475851   -0.8118672  
   0.236988200    -0.3475021   -0.7684666  
   0.238988100    -0.4406404   -0.7119612  
   0.240988000    -0.5252447   -0.6442834  
   0.242987900    -0.6001894   -0.5657748  
   0.244987800    -0.6643728   -0.4771372  
   0.246987700    -0.7169418   -0.3794306  
   0.248987600    -0.7559134   -0.2734893  
   0.250987500    -0.7804518   -0.1615605  
   0.252987400    -0.7887012   -0.0458615  
   0.254987300    -0.7800289    0.0716372  
   0.256987200    -0.7537846    0.1884249  
   0.258987100    -0.7104034    0.3030400  
   0.260987000    -0.6473114    0.4112835  
   0.262986900    -0.5656248    0.5111231  
   0.264986800    -0.4672802    0.5982316  
   0.266986700    -0.3533033    0.6693277  
   0.268986600    -0.2271667    0.7207161  
   0.270986500    -0.0921201    0.7500122  
   0.272986400     0.0477450    0.7555534  
   0.274986300     0.1874921    0.7362318  
   0.276986200     0.3231238    0.6917112  
   0.278986100     0.4490809    0.6233420  
   0.280986000     0.5609120    0.5330176  
   0.282985900     0.6546266    0.4243397  
   0.284985800     0.7261062    0.3018379  
   0.286985700     0.7742704    0.1701530  
   0.288985600     0.7982410    0.0344635  
   0.290985500     0.7982094   -0.1000276  
   0.292985400     0.7758659   -0.2301853  
   0.294985300     0.7334492   -0.3516440  
   0.296985200     0.6733007   -0.4628797  
   0.298985100     0.5973616   -0.5612208  
   0.300985000     0.5093452   -0.6444941  
   0.302984900     0.4122387   -0.7116821  
   0.304984800     0.3086019   -0.7623894  
   0.306984700     0.2019811   -0.7967193  
   0.308984600     0.0948043   -0.8150040  
   0.310984500    -0.0112375   -0.8188022  
   0.312984400    -0.1143334   -0.8083495  
   0.314984300    -0.2134256   -0.7853428  
   0.316984200    -0.3072055   -0.7503086  
   0.318984100    -0.3954219   -0.7041485  
   0.320984000    -0.4769735   -0.6483853  
   0.322983900    -0.5509620   -0.5833675  
   0.324983800    -0.6169536   -0.5104290  
   0.326983700    -0.6741048   -0.4301387  
   0.328983600    -0.7228067   -0.3424518  
   0.330983500    -0.7613061   -0.2475878  
   0.332983400    -0.7876906   -0.1462180  
   0.334983300    -0.7999761   -0.0391086  
   0.336983200    -0.7961054    0.0712785  
   0.338983100    -0.7751318    0.1813636  
   0.340983000    -0.7371447    0.2879891  
   0.342982900    -0.6832014    0.3885734  
   0.344982800    -0.6143838    0.4809150  
   0.346982700    -0.5314080    0.5634571  
   0.348982600    -0.4359255    0.6327195  
   0.350982500    -0.3308612    0.6882017  
   0.352982400    -0.2174819    0.7279797  
   0.354982300    -0.0928785    0.7508079  
   0.356982200     0.0477151    0.7523453  
   0.358982100     0.1872482    0.7283418  
   0.360982000     0.3201763    0.6795018  
   0.362981900     0.4431693    0.6070952  
   0.364981800     0.5515184    0.5131121  
   0.366981700     0.6414054    0.3998481  
   0.368981600     0.7091966    0.2713058  
   0.370981500     0.7520058    0.1317300  
   0.372981400     0.7680694   -0.0135990  
   0.374981300     0.7564371   -0.1601834  
   0.376981200     0.7704763   -0.0564297  
   0.378981100     0.7502563   -0.2013384  
   0.380981000     0.7036615   -0.3390383  
   0.382980900     0.6395940   -0.4545293  
   0.384980800     0.5614755   -0.5522714  
   0.386980700     0.4697358   -0.6355552  
   0.388980600     0.3668399   -0.7023605  
   0.390980500     0.2567834   -0.7512121  
   0.392980400     0.1424124   -0.7821572  
   0.394980300     0.0267638   -0.7951072  
   0.396980200    -0.0882625   -0.7909921  
   0.398980100    -0.2002945   -0.7704098  
   0.400980000    -0.3064434   -0.7337590  
   0.402979900    -0.4059493   -0.6823892  
   0.404979800    -0.4955705   -0.6184809  
   0.406979700    -0.5749355   -0.5426926  
   0.408979600    -0.6425520   -0.4573677  
   0.410979500    -0.6975740   -0.3629399  
   0.412979400    -0.7391796   -0.2612252  
   0.414979300    -0.7646658   -0.1548132  
   0.416979200    -0.7765993   -0.0451751  
   0.418979100    -0.7730014    0.0648149  
   0.420979000    -0.7537619    0.1738722  
   0.422978900    -0.7188141    0.2802247  
   0.424978800    -0.6684233    0.3807909  
   0.426978700    -0.6036681    0.4746952  
   0.428978600    -0.5251800    0.5586057  
   0.430978500    -0.4345860    0.6305243  
   0.432978400    -0.3335299    0.6888154  
   0.434978300    -0.2245160    0.7328295  
   0.436978200    -0.1085550    0.7594702  
   0.438978100     0.0115763    0.7677543  
   0.440978000     0.1328570    0.7577088  
   0.442977900     0.2521442    0.7287953  
   0.444977800     0.3661652    0.6812337  
   0.446977700     0.4720426    0.6157152  
   0.448977600     0.5666507    0.5338039  
   0.450977500     0.6473441    0.4374105  
   0.452977400     0.7118881    0.3290742  
   0.454977300     0.7582572    0.2108218  
   0.456977200     0.7850695    0.0862972  
   0.458977100     0.7911802   -0.0406149  
   0.460977000     0.7766998   -0.1663802  
   0.462976900     0.7427150   -0.2867402  
   0.464976800     0.6901671   -0.3996323  
   0.466976700     0.6213201   -0.5020736  
   0.468976600     0.5380284   -0.5914558  
   0.470976500     0.4425767   -0.6660825  
   0.472976400     0.3384375   -0.7240828  
   0.474976300     0.2276984   -0.7652474  
   0.476976200     0.1134970   -0.7889341  
   0.478976100    -0.0010564   -0.7954425  
   0.480976000    -0.1134272   -0.7852358  
   0.482975900    -0.2214157   -0.7591334  
   0.484975800    -0.3235971   -0.7186733  
   0.486975700    -0.4186751   -0.6643050  
   0.488975600    -0.5044718   -0.5976412  
   0.490975500    -0.5799159   -0.5202130  
   0.492975400    -0.6437019   -0.4326824  
   0.494975300    -0.6946690   -0.3372494  
   0.496975200    -0.7318836   -0.2352950  
   0.498975100    -0.7540993   -0.1294012  
   0.500975000    -0.7614145   -0.0204325  
   0.502974900    -0.7526165    0.0884160  
   0.504974800    -0.7279903    0.1961700  
   0.506974700    -0.6874082    0.3001796  
   0.508974600    -0.6306364    0.3984073  
   0.510974500    -0.5584808    0.4874469  
   0.512974400    -0.4730037    0.5643741  
   0.514974300    -0.3756201    0.6259971  
   0.516974200    -0.2701710    0.6719843  
   0.518974100    -0.1587938    0.7000826  
   0.520974000    -0.0450267    0.7100094  
   0.522973900     0.0678581    0.7016134  
   0.524973800     0.1768909    0.6760765  
   0.526973700     0.2793639    0.6343503  
   0.528973600     0.3733431    0.5786162  
   0.530973500     0.4572678    0.5102313  
   0.532973400     0.5299995    0.4317477  
   0.534973300     0.5899882    0.3439161  
   0.536973200     0.6372638    0.2487967  
   0.538973100     0.6703467    0.1483683  
   0.540973000     0.6893330    0.0449260  
   0.542972900     0.6932554   -0.0610500  
   0.544972800     0.6814896   -0.1663779  
   0.546972700     0.6544408   -0.2704477  
   0.548972600     0.6118947   -0.3699837  
   0.550972500     0.5550966   -0.4622959  
   0.552972400     0.4839714   -0.5459135  
   0.554972300     0.4009104   -0.6176791  
   0.556972200     0.3071541   -0.6767493  
   0.558972100     0.2052799   -0.7208129  
   0.560972000     0.0984608   -0.7489570  
   0.562971900    -0.0111761   -0.7602952  
   0.564971800    -0.1208483   -0.7546881  
   0.566971700    -0.2283424   -0.7333403  
   0.568971600    -0.3310798   -0.6963119  
   0.570971500    -0.4268916   -0.6446778  
   0.572971400    -0.5141103   -0.5796521  
   0.574971300    -0.5908750   -0.5023421  
   0.576971200    -0.6560208   -0.4144181  
   0.578971100    -0.7074916   -0.3178900  
   0.580971000    -0.7445430   -0.2151501  
   0.582970900    -0.7661319   -0.1083070  
   0.584970800    -0.7719986    0.0004245  
   0.586970700    -0.7621789    0.1087493  
   0.588970600    -0.7371742    0.2145502  
   0.590970500    -0.6970512    0.3161042  
   0.592970400    -0.6423755    0.4112231  
   0.594970300    -0.5744106    0.4977655  
   0.596970200    -0.4939860    0.5741969  
   0.598970100    -0.4028296    0.6383900  
   0.600970000    -0.3021644    0.6889986  
   0.602969900    -0.1944535    0.7241855  
   0.604969800    -0.0812179    0.7434174  
   0.606969700     0.0343902    0.7450527  
   0.608969600     0.1504233    0.7285392  
   0.610969500     0.2633533    0.6942565  
   0.612969400     0.3702940    0.6419870  
   0.614969300     0.4685064    0.5734532  
   0.616969200     0.5543501    0.4898888  
   0.618969100     0.6262206    0.3935515  
   0.620969000     0.6817341    0.2871343  
   0.622968900     0.7196847    0.1730771  
   0.624968800     0.7388982    0.0535998  
   0.626968700     0.7382905   -0.0674221  
   0.628968600     0.7186246   -0.1869835  
   0.630968500     0.6796619   -0.3015324  
   0.632968400     0.6231836   -0.4079655  
   0.634968300     0.5503716   -0.5034748  
   0.636968200     0.4638751   -0.5853490  
   0.638968100     0.3660286   -0.6519530  
   0.640968000     0.2595893   -0.7018972  
   0.642967900     0.1480061   -0.7344298  
   0.644967800     0.0336367   -0.7484922  
   0.646967700    -0.0801470   -0.7450726  
   0.648967600    -0.1907802   -0.7244462  
   0.650967500    -0.2954196   -0.6879086  
   0.652967400    -0.3926387   -0.6366819  
   0.654967300    -0.4802574   -0.5722806  
   0.656967200    -0.5567753   -0.4966261  
   0.658967100    -0.6212087   -0.4109616  
   0.660967000    -0.6724756   -0.3172276  
   0.662966900    -0.7094865   -0.2173447  
   0.664966800    -0.7318023   -0.1130311  
   0.666966700    -0.7387868   -0.0064304  
   0.668966600    -0.7303849    0.1001006  
   0.670966500    -0.7063432    0.2044704  
   0.672966400    -0.6684389    0.3052696  
   0.674966300    -0.6153818    0.3987401  
   0.676966200    -0.5487853    0.4838969  
   0.678966100    -0.4707884    0.5584543  
   0.680966000    -0.3815645    0.6214058  
   0.682965900    -0.2833870    0.6706941  
   0.684965800    -0.1784692    0.7051541  
   0.686965700    -0.0681678    0.7233235  
   0.688965600     0.0446151    0.7247576  
   0.690965500     0.1564969    0.7075729  
   0.692965400     0.2659099    0.6740935  
   0.694965300     0.3693064    0.6237009  
   0.696965200     0.4636187    0.5573390  
   0.698965100     0.5473877    0.4761471  
   0.700965000     0.6169848    0.3820757  
   0.702964900     0.6712705    0.2778914  
   0.704964800     0.7082186    0.1658407  
   0.706964700     0.7262808    0.0492766  
   0.708964600     0.7255691   -0.0690593  
   0.710964500     0.7065392   -0.1854185  
   0.712964400     0.6684566   -0.2958785  
   0.714964300     0.6133963   -0.3988452  
   0.716964200     0.5437054   -0.4899258  
   0.718964100     0.4616162   -0.5681059  
   0.720964000     0.3696786   -0.6314709  
   0.722963900     0.2707743   -0.6793029  
   0.724963800     0.1673210   -0.7115252  
   0.726963700     0.0613274   -0.7282362  
   0.728963600    -0.0444399   -0.7291145  
   0.730963500    -0.1482733   -0.7142460  
   0.732963400    -0.2478835   -0.6858525  
   0.734963300    -0.3421440   -0.6438578  
   0.736963200    -0.4411980   -0.5795486  
   0.738963100    -0.5284040   -0.4998169  
   0.740963000    -0.6013798   -0.4068631  
   0.742962900    -0.6581905   -0.3035684  
   0.744962800    -0.6971844   -0.1919979  
   0.746962700    -0.7172845   -0.0752337  
   0.748962600    -0.7178156    0.0441515  
   0.750962500    -0.7303171   -0.0665112  
   0.752962400    -0.7288857    0.0540626  
   0.754962300    -0.7070978    0.1731110  
   0.756962200    -0.6652320    0.2874204  
   0.758962100    -0.6042143    0.3931157  
   0.760962000    -0.5253255    0.4876177  
   0.762961900    -0.4362054    0.5636941  
   0.764961800    -0.3455341    0.6195294  
   0.766961700    -0.2474129    0.6607438  
   0.768961600    -0.1437722    0.6866363  
   0.770961500    -0.0372537    0.6965949  
   0.772961400     0.0691184    0.6903398  
   0.774961300     0.1732917    0.6683159  
   0.776961200     0.2735092    0.6304945  
   0.778961100     0.3665708    0.5782197  
   0.780961000     0.4514789    0.5119729  
   0.782960900     0.5255878    0.4335134  
   0.784960800     0.5877315    0.3441812  
   0.786960700     0.6354638    0.2461221  
   0.788960600     0.6676840    0.1412583  
   0.790960500     0.6836557    0.0326913  
   0.792960400     0.6825332   -0.0771390  
   0.794960300     0.6645781   -0.1853317  
   0.796960200     0.6301421   -0.2897665  
   0.798960100     0.5800237   -0.3873473  
   0.800960000     0.5155856   -0.4757313  
   0.802959900     0.4381941   -0.5534149  
   0.804959800     0.3501666   -0.6180839  
   0.806959700     0.2533960   -0.6685489  
   0.808959600     0.1503239   -0.7035539  
   0.810959500     0.0432823   -0.7222960  
   0.812959400    -0.0651696   -0.7246595  
   0.814959300    -0.1725118   -0.7106289  
   0.816959200    -0.2759895   -0.6806986  
   0.818959100    -0.3737465   -0.6355841  
   0.820959000    -0.4631093   -0.5767278  
   0.822958900    -0.5424479   -0.5053915  
   0.824958800    -0.6101829   -0.4232302  
   0.826958700    -0.6649626   -0.3322949  
   0.828958600    -0.7057572   -0.2346895  
   0.830958500    -0.7314679   -0.1322766  
   0.832958400    -0.7421656   -0.0277875  
   0.834958300    -0.7374395    0.0769899  
   0.836958200    -0.7179818    0.1798454  
   0.838958100    -0.6837624    0.2785071  
   0.840958000    -0.6351797    0.3712309  
   0.842957900    -0.5739839    0.4563068  
   0.844957800    -0.5005376    0.5323638  
   0.846957700    -0.4169051    0.5970422  
   0.848957600    -0.3242187    0.6488642  
   0.850957500    -0.2245665    0.6870558  
   0.852957400    -0.1194102    0.7100130  
   0.854957300    -0.0114326    0.7172406  
   0.856957200     0.0969933    0.7080225  
   0.858957100     0.2033842    0.6825178  
   0.860957000     0.3044895    0.6411313  
   0.862956900     0.3985960    0.5845493  
   0.864956800     0.4830889    0.5141669  
   0.866956700     0.5558057    0.4315133  
   0.868956600     0.6148155    0.3378111  
   0.870956500     0.6592932    0.2359095  
   0.872956400     0.6877617    0.1274641  
   0.874956300     0.6989387    0.0154603  
   0.876956200     0.6919506   -0.0978115  
   0.878956100     0.6670828   -0.2087978  
   0.880956000     0.6244550   -0.3146330  
   0.882955900     0.5654328   -0.4122187  
   0.884955800     0.4916459   -0.4991463  
   0.886955700     0.4047201   -0.5727803  
   0.888955600     0.3079376   -0.6310281  
   0.890955500     0.2035291   -0.6730974  
   0.892955400     0.0943512   -0.6975632  
   0.894955300    -0.0163129   -0.7046149  
