! MS46122B
! 2250307/22442219
! 7/28/2025 7:57:01 AM
! C:\USERS\SPARKY\DOCUMENTS\VNA_DATA\JULY28_2025\295K\ECAL_SHORT_F.S1P
! CHANNEL.1
! TR.MEASUREMENT
! RAW.DATA
# GHZ S RI R 50.0
! FREQ.GHZ         S11RE         S11IM         
!; PortSelection: Port_1
   0.001000000     1.0464960   -0.0716525  
   0.002999900     0.9648328   -0.1940771  
   0.004999800     0.9048607   -0.2989530  
   0.006999700     0.8379596   -0.3964138  
   0.008999600     0.7599156   -0.4914156  
   0.010999500     0.6681052   -0.5815474  
   0.012999400     0.5574251   -0.6644108  
   0.014999300     0.4228986   -0.7342039  
   0.016999200     0.2584363   -0.7800099  
   0.018999100     0.0606665   -0.7851334  
   0.020999000    -0.1642053   -0.7212808  
   0.022998900    -0.3882609   -0.5545428  
   0.024998800    -0.5258294   -0.2661861  
   0.026998700    -0.5517538    0.1047721  
   0.028998600    -0.3623380    0.4414956  
   0.030998500    -0.0458626    0.6311769  
   0.032998400     0.2570973    0.6358055  
   0.034998300     0.5418419    0.5586829  
   0.036998200     0.7220280    0.4100108  
   0.038998100     0.8320975    0.2456232  
   0.040998000     0.8891823    0.0851980  
   0.042997900     0.9084775   -0.0632930  
   0.044997800     0.8719763   -0.1742847  
   0.046997700     0.8716726   -0.3153128  
   0.048997600     0.8297104   -0.4200574  
   0.050997500     0.7768179   -0.5114661  
   0.052997400     0.7162845   -0.5907431  
   0.054997300     0.6505949   -0.6589741  
   0.056997200     0.5776044   -0.7194942  
   0.058997100     0.5019294   -0.7696162  
   0.060997000     0.4228268   -0.8109832  
   0.062996900     0.3404732   -0.8443635  
   0.064996800     0.2555942   -0.8687825  
   0.066996700     0.1681347   -0.8843734  
   0.068996600     0.0785497   -0.8914805  
   0.070996500    -0.0122860   -0.8897240  
   0.072996400    -0.1041743   -0.8771747  
   0.074996300    -0.1967168   -0.8539762  
   0.076996200    -0.2884899   -0.8192628  
   0.078996100    -0.3785729   -0.7731446  
   0.080996000    -0.4653142   -0.7142009  
   0.082995900    -0.5471334   -0.6419140  
   0.084995800    -0.6213322   -0.5550721  
   0.086995700    -0.6863884   -0.4555667  
   0.088995600    -0.7390022   -0.3423329  
   0.090995500    -0.7759892   -0.2165675  
   0.092995400    -0.7943512   -0.0801669  
   0.094995300    -0.7884374    0.0640687  
   0.096995200    -0.7558501    0.2123066  
   0.098995100    -0.6937753    0.3579632  
   0.100995000    -0.6007738    0.4961254  
   0.102994900    -0.4787011    0.6148297  
   0.104994800    -0.3310521    0.7083474  
   0.106994700    -0.1635019    0.7692109  
   0.108994600     0.0140969    0.7934847  
   0.110994500     0.1927837    0.7792513  
   0.112994400     0.3629086    0.7274446  
   0.114994300     0.5153582    0.6427251  
   0.116994200     0.6434091    0.5310894  
   0.118994100     0.7433302    0.4005681  
   0.120994000     0.8149006    0.2586778  
   0.122993900     0.8556850    0.1115712  
   0.124993800     0.8685170   -0.0340783  
   0.126993700     0.8567899   -0.1741040  
   0.128993600     0.8220699   -0.3036896  
   0.130993500     0.7711259   -0.4221279  
   0.132993400     0.7052041   -0.5272290  
   0.134993300     0.6276506   -0.6181135  
   0.136993200     0.5406463   -0.6950426  
   0.138993100     0.4468227   -0.7571174  
   0.140993000     0.3480543   -0.8048778  
   0.142992900     0.2460786   -0.8390546  
   0.144992800     0.1428456   -0.8601960  
   0.146992700     0.0386041   -0.8672381  
   0.148992600    -0.0648983   -0.8615392  
   0.150992500    -0.1658525   -0.8419398  
   0.152992400    -0.2636310   -0.8113189  
   0.154992300    -0.3571375   -0.7685199  
   0.156992200    -0.4455957   -0.7145072  
   0.158992100    -0.5272470   -0.6493224  
   0.160992000    -0.6011249   -0.5733284  
   0.162991900    -0.6655844   -0.4874687  
   0.164991800    -0.7193523   -0.3917256  
   0.166991700    -0.7608796   -0.2880781  
   0.168991600    -0.7883356   -0.1770854  
   0.170991500    -0.8007689   -0.0601614  
   0.172991400    -0.7961004    0.0599170  
   0.174991300    -0.7736905    0.1811656  
   0.176991200    -0.7316628    0.3013863  
   0.178991100    -0.6701402    0.4166671  
   0.180991000    -0.5898959    0.5238916  
   0.182990900    -0.4901747    0.6181026  
   0.184990800    -0.3729898    0.6965808  
   0.186990700    -0.2415728    0.7551426  
   0.188990600    -0.1230114    0.7865519  
   0.190990500     0.0436075    0.7993088  
   0.192990400     0.1952730    0.7823674  
   0.194990300     0.3389821    0.7391362  
   0.196990200     0.4719098    0.6709679  
   0.198990100     0.5898970    0.5807036  
   0.200990000     0.6896056    0.4711627  
   0.202989900     0.7674595    0.3473459  
   0.204989800     0.8221187    0.2136716  
   0.206989700     0.8530686    0.0760632  
   0.208989600     0.8591967   -0.0617867  
   0.210989500     0.8431439   -0.1962515  
   0.212989400     0.8064238   -0.3235242  
   0.214989300     0.7514400   -0.4407080  
   0.216989200     0.6811636   -0.5450436  
   0.218989100     0.5983703   -0.6354848  
   0.220989000     0.5050949   -0.7113839  
   0.222988900     0.4036584   -0.7719967  
   0.224988800     0.2967450   -0.8168632  
   0.226988700     0.1865180   -0.8462319  
   0.228988600     0.0759179   -0.8598204  
   0.230988500    -0.0346331   -0.8584375  
   0.232988400    -0.1428103   -0.8412786  
   0.234988300    -0.2475935   -0.8114251  
   0.236988200    -0.3474304   -0.7679922  
   0.238988100    -0.4405087   -0.7115087  
   0.240988000    -0.5250551   -0.6438794  
   0.242987900    -0.5999359   -0.5654305  
   0.244987800    -0.6640736   -0.4768493  
   0.246987700    -0.7166408   -0.3792043  
   0.248987600    -0.7556064   -0.2733096  
   0.250987500    -0.7800961   -0.1614567  
   0.252987400    -0.7883523   -0.0458403  
   0.254987300    -0.7796803    0.0716062  
   0.256987200    -0.7534735    0.1883599  
   0.258987100    -0.7101603    0.3028775  
   0.260987000    -0.6470497    0.4111747  
   0.262986900    -0.5655375    0.5107684  
   0.264986800    -0.4671582    0.5979968  
   0.266986700    -0.3532084    0.6689785  
   0.268986600    -0.2269726    0.7204509  
   0.270986500    -0.0920440    0.7496733  
   0.272986400     0.0474606    0.7551510  
   0.274986300     0.1875080    0.7358221  
   0.276986200     0.3228283    0.6914117  
   0.278986100     0.4488999    0.6229904  
   0.280986000     0.5605297    0.5327935  
   0.282985900     0.6542279    0.4241917  
   0.284985800     0.7256843    0.3017864  
   0.286985700     0.7738575    0.1700704  
   0.288985600     0.7976975    0.0345385  
   0.290985500     0.7978053   -0.1000830  
   0.292985400     0.7753697   -0.2300064  
   0.294985300     0.7330298   -0.3514259  
   0.296985200     0.6727576   -0.4626616  
   0.298985100     0.5969600   -0.5609763  
   0.300985000     0.5090548   -0.6441143  
   0.302984900     0.4119353   -0.7112879  
   0.304984800     0.3083780   -0.7619702  
   0.306984700     0.2017719   -0.7962891  
   0.308984600     0.0946703   -0.8145481  
   0.310984500    -0.0113361   -0.8183261  
   0.312984400    -0.1143225   -0.8079112  
   0.314984300    -0.2133599   -0.7848893  
   0.316984200    -0.3070987   -0.7499244  
   0.318984100    -0.3952601   -0.7037762  
   0.320984000    -0.4767565   -0.6480134  
   0.322983900    -0.5507082   -0.5828738  
   0.324983800    -0.6166552   -0.5101310  
   0.326983700    -0.6738701   -0.4297965  
   0.328983600    -0.7224907   -0.3423028  
   0.330983500    -0.7609168   -0.2474928  
   0.332983400    -0.7873209   -0.1461913  
   0.334983300    -0.7995594   -0.0392968  
   0.336983200    -0.7957850    0.0710443  
   0.338983100    -0.7747818    0.1811998  
   0.340983000    -0.7368476    0.2878014  
   0.342982900    -0.6829290    0.3883405  
   0.344982800    -0.6140994    0.4806929  
   0.346982700    -0.5312117    0.5631120  
   0.348982600    -0.4357283    0.6324079  
   0.350982500    -0.3307877    0.6878168  
   0.352982400    -0.2173960    0.7276564  
   0.354982300    -0.0930084    0.7503583  
   0.356982200     0.0477378    0.7519558  
   0.358982100     0.1871845    0.7279390  
   0.360982000     0.3201288    0.6791250  
   0.362981900     0.4428676    0.6067398  
   0.364981800     0.5514428    0.5127286  
   0.366981700     0.6411198    0.3994687  
   0.368981600     0.7088735    0.2710217  
   0.370981500     0.7516511    0.1314906  
   0.372981400     0.7676213   -0.0137639  
   0.374981300     0.7558832   -0.1602947  
   0.376981200     0.7700370   -0.0566041  
   0.378981100     0.7497795   -0.2014791  
   0.380981000     0.7031660   -0.3390578  
   0.382980900     0.6391437   -0.4544695  
   0.384980800     0.5610163   -0.5521264  
   0.386980700     0.4693825   -0.6352991  
   0.388980600     0.3665047   -0.7020506  
   0.390980500     0.2567020   -0.7509525  
   0.392980400     0.1422184   -0.7817646  
   0.394980300     0.0267166   -0.7947187  
   0.396980200    -0.0882414   -0.7906013  
   0.398980100    -0.2002058   -0.7700254  
   0.400980000    -0.3063273   -0.7334223  
   0.402979900    -0.4057619   -0.6820540  
   0.404979800    -0.4952997   -0.6181985  
   0.406979700    -0.5746614   -0.5424868  
   0.408979600    -0.6422423   -0.4573146  
   0.410979500    -0.6973195   -0.3627871  
   0.412979400    -0.7388005   -0.2612518  
   0.414979300    -0.7643227   -0.1547592  
   0.416979200    -0.7761521   -0.0451700  
   0.418979100    -0.7726889    0.0648147  
   0.420979000    -0.7533840    0.1737441  
   0.422978900    -0.7184585    0.2800238  
   0.424978800    -0.6681256    0.3804755  
   0.426978700    -0.6033632    0.4744672  
   0.428978600    -0.5248836    0.5583940  
   0.430978500    -0.4343544    0.6301997  
   0.432978400    -0.3333751    0.6884725  
   0.434978300    -0.2244220    0.7324392  
   0.436978200    -0.1084868    0.7590613  
   0.438978100     0.0116267    0.7673124  
   0.440978000     0.1328215    0.7573237  
   0.442977900     0.2520373    0.7283807  
   0.444977800     0.3659869    0.6808585  
   0.446977700     0.4717677    0.6153655  
   0.448977600     0.5663422    0.5334728  
   0.450977500     0.6470492    0.4371543  
   0.452977400     0.7115293    0.3288538  
   0.454977300     0.7579204    0.2106109  
   0.456977200     0.7846937    0.0863546  
   0.458977100     0.7907589   -0.0406095  
   0.460977000     0.7764179   -0.1663464  
   0.462976900     0.7423147   -0.2865967  
   0.464976800     0.6897639   -0.3997243  
   0.466976700     0.6210122   -0.5018183  
   0.468976600     0.5376958   -0.5912354  
   0.470976500     0.4423189   -0.6657389  
   0.472976400     0.3382753   -0.7237154  
   0.474976300     0.2275410   -0.7648497  
   0.476976200     0.1134733   -0.7884812  
   0.478976100    -0.0007932   -0.7950404  
   0.480976000    -0.1132617   -0.7848497  
   0.482975900    -0.2211737   -0.7587616  
   0.484975800    -0.3233484   -0.7183747  
   0.486975700    -0.4182974   -0.6639810  
   0.488975600    -0.5040954   -0.5974129  
   0.490975500    -0.5795094   -0.5200050  
   0.492975400    -0.6432746   -0.4325365  
   0.494975300    -0.6942386   -0.3371386  
   0.496975200    -0.7314446   -0.2352280  
   0.498975100    -0.7536632   -0.1293959  
   0.500975000    -0.7608966   -0.0205192  
   0.502974900    -0.7521662    0.0882374  
   0.504974800    -0.7276192    0.1961140  
   0.506974700    -0.6870050    0.3000196  
   0.508974600    -0.6302233    0.3983057  
   0.510974500    -0.5581790    0.4871172  
   0.512974400    -0.4726479    0.5641111  
   0.514974300    -0.3753862    0.6257130  
   0.516974200    -0.2699037    0.6716866  
   0.518974100    -0.1585956    0.6997238  
   0.520974000    -0.0448564    0.7096356  
   0.522973900     0.0679482    0.7012427  
   0.524973800     0.1769173    0.6756842  
   0.526973700     0.2793678    0.6340002  
   0.528973600     0.3732991    0.5782999  
   0.530973500     0.4571508    0.5098994  
   0.532973400     0.5298368    0.4314412  
   0.534973300     0.5897999    0.3436553  
   0.536973200     0.6371232    0.2485738  
   0.538973100     0.6701472    0.1482322  
   0.540973000     0.6890730    0.0448167  
   0.542972900     0.6929839   -0.0610840  
   0.544972800     0.6811851   -0.1662756  
   0.546972700     0.6541402   -0.2703435  
   0.548972600     0.6117420   -0.3696623  
   0.550972500     0.5548446   -0.4620788  
   0.552972400     0.4838059   -0.5456623  
   0.554972300     0.4007605   -0.6173453  
   0.556972200     0.3070636   -0.6764143  
   0.558972100     0.2054396   -0.7203456  
   0.560972000     0.0984994   -0.7485774  
   0.562971900    -0.0108552   -0.7598191  
   0.564971800    -0.1208610   -0.7543587  
   0.566971700    -0.2281641   -0.7329342  
   0.568971600    -0.3308149   -0.6959627  
   0.570971500    -0.4265768   -0.6443799  
   0.572971400    -0.5137122   -0.5793821  
   0.574971300    -0.5905470   -0.5021086  
   0.576971200    -0.6555603   -0.4142267  
   0.578971100    -0.7070493   -0.3177533  
   0.580971000    -0.7441117   -0.2150555  
   0.582970900    -0.7656438   -0.1082352  
   0.584970800    -0.7715737    0.0004065  
   0.586970700    -0.7618610    0.1085981  
   0.588970600    -0.7367955    0.2144282  
   0.590970500    -0.6966729    0.3159151  
   0.592970400    -0.6420542    0.4109950  
   0.594970300    -0.5741548    0.4974487  
   0.596970200    -0.4937198    0.5739195  
   0.598970100    -0.4027217    0.6381117  
   0.600970000    -0.3020244    0.6886962  
   0.602969900    -0.1943475    0.7238836  
   0.604969800    -0.0810986    0.7431749  
   0.606969700     0.0344559    0.7447786  
   0.608969600     0.1503722    0.7282639  
   0.610969500     0.2632599    0.6939349  
   0.612969400     0.3702345    0.6416751  
   0.614969300     0.4682971    0.5732198  
   0.616969200     0.5542141    0.4895569  
   0.618969100     0.6259184    0.3934258  
   0.620969000     0.6813962    0.2870970  
   0.622968900     0.7192798    0.1731762  
   0.624968800     0.7384915    0.0536614  
   0.626968700     0.7379434   -0.0672792  
   0.628968600     0.7183074   -0.1865381  
   0.630968500     0.6793287   -0.3011847  
   0.632968400     0.6228827   -0.4076185  
   0.634968300     0.5500363   -0.5031247  
   0.636968200     0.4636273   -0.5850317  
   0.638968100     0.3659602   -0.6512896  
   0.640968000     0.2595634   -0.7013094  
   0.642967900     0.1480274   -0.7339064  
   0.644967800     0.0337228   -0.7479893  
   0.646967700    -0.0800079   -0.7446300  
   0.648967600    -0.1905606   -0.7239943  
   0.650967500    -0.2951055   -0.6874830  
   0.652967400    -0.3923097   -0.6363282  
   0.654967300    -0.4799115   -0.5719483  
   0.656967200    -0.5563858   -0.4962625  
   0.658967100    -0.6207937   -0.4107511  
   0.660967000    -0.6720738   -0.3170683  
   0.662966900    -0.7091150   -0.2171533  
   0.664966800    -0.7314125   -0.1129141  
   0.666966700    -0.7383838   -0.0063637  
   0.668966600    -0.7298591    0.1001988  
   0.670966500    -0.7059305    0.2045032  
   0.672966400    -0.6680753    0.3052201  
   0.674966300    -0.6150278    0.3986488  
   0.676966200    -0.5484557    0.4837652  
   0.678966100    -0.4703554    0.5583563  
   0.680966000    -0.3813164    0.6211921  
   0.682965900    -0.2831345    0.6704807  
   0.684965800    -0.1780804    0.7049111  
   0.686965700    -0.0679748    0.7230213  
   0.688965600     0.0445683    0.7244477  
   0.690965500     0.1563923    0.7072600  
   0.692965400     0.2659009    0.6737310  
   0.694965300     0.3691228    0.6234179  
   0.696965200     0.4634340    0.5570161  
   0.698965100     0.5471712    0.4758361  
   0.700965000     0.6166933    0.3817826  
   0.702964900     0.6709613    0.2776203  
   0.704964800     0.7078145    0.1655967  
   0.706964700     0.7258322    0.0491095  
   0.708964600     0.7250569   -0.0691428  
   0.710964500     0.7060068   -0.1854295  
   0.712964400     0.6679771   -0.2958087  
   0.714964300     0.6129540   -0.3988293  
   0.716964200     0.5432211   -0.4896584  
   0.718964100     0.4612070   -0.5677649  
   0.720964000     0.3693013   -0.6310235  
   0.722963900     0.2704752   -0.6788307  
   0.724963800     0.1671399   -0.7113223  
   0.726963700     0.0612195   -0.7277161  
   0.728963600    -0.0444400   -0.7285475  
   0.730963500    -0.1482189   -0.7137630  
   0.732963400    -0.2477828   -0.6853814  
   0.734963300    -0.3419308   -0.6434475  
   0.736963200    -0.4410095   -0.5791365  
   0.738963100    -0.5281675   -0.4994761  
   0.740963000    -0.6012612   -0.4065903  
   0.742962900    -0.6579166   -0.3032697  
   0.744962800    -0.6968632   -0.1918221  
   0.746962700    -0.7169836   -0.0751452  
   0.748962600    -0.7174804    0.0442915  
   0.750962500    -0.7300473   -0.0664536  
   0.752962400    -0.7286170    0.0540129  
   0.754962300    -0.7067789    0.1731532  
   0.756962200    -0.6648301    0.2875017  
   0.758962100    -0.6039571    0.3930584  
   0.760962000    -0.5250596    0.4875221  
   0.762961900    -0.4360322    0.5635146  
   0.764961800    -0.3453231    0.6193205  
   0.766961700    -0.2472646    0.6605133  
   0.768961600    -0.1435488    0.6864774  
   0.770961500    -0.0372710    0.6963087  
   0.772961400     0.0691138    0.6900223  
   0.774961300     0.1732364    0.6679730  
   0.776961200     0.2733821    0.6302171  
   0.778961100     0.3664144    0.5779106  
   0.780961000     0.4512601    0.5116776  
   0.782960900     0.5254316    0.4332122  
   0.784960800     0.5873991    0.3439656  
   0.786960700     0.6351027    0.2459438  
   0.788960600     0.6672642    0.1411469  
   0.790960500     0.6831707    0.0326490  
   0.792960400     0.6820804   -0.0770839  
   0.794960300     0.6641060   -0.1852109  
   0.796960200     0.6297327   -0.2895733  
   0.798960100     0.5796276   -0.3870981  
   0.800960000     0.5151675   -0.4754145  
   0.802959900     0.4378796   -0.5530629  
   0.804959800     0.3499151   -0.6176997  
   0.806959700     0.2532892   -0.6682925  
   0.808959600     0.1501999   -0.7030954  
   0.810959500     0.0431836   -0.7218703  
   0.812959400    -0.0651703   -0.7242280  
   0.814959300    -0.1724309   -0.7102380  
   0.816959200    -0.2758653   -0.6802706  
   0.818959100    -0.3735729   -0.6352354  
   0.820959000    -0.4629397   -0.5764108  
   0.822958900    -0.5421839   -0.5051010  
   0.824958800    -0.6099312   -0.4230075  
   0.826958700    -0.6646693   -0.3321149  
   0.828958600    -0.7054713   -0.2344967  
   0.830958500    -0.7311351   -0.1321042  
   0.832958400    -0.7418441   -0.0276633  
   0.834958300    -0.7370970    0.0771294  
   0.836958200    -0.7177022    0.1798143  
   0.838958100    -0.6834137    0.2782567  
   0.840958000    -0.6348666    0.3711403  
   0.842957900    -0.5736362    0.4562340  
   0.844957800    -0.5002139    0.5321643  
   0.846957700    -0.4166256    0.5968238  
   0.848957600    -0.3239477    0.6485649  
   0.850957500    -0.2243641    0.6867431  
   0.852957400    -0.1192149    0.7096640  
   0.854957300    -0.0112229    0.7167335  
   0.856957200     0.0970798    0.7075939  
   0.858957100     0.2033730    0.6820726  
   0.860957000     0.3044433    0.6406756  
   0.862956900     0.3984314    0.5841032  
   0.864956800     0.4828344    0.5137016  
   0.866956700     0.5554942    0.4311969  
   0.868956600     0.6143817    0.3375717  
   0.870956500     0.6587252    0.2357862  
   0.872956400     0.6872678    0.1273598  
   0.874956300     0.6984017    0.0154219  
   0.876956200     0.6914479   -0.0977600  
   0.878956100     0.6665501   -0.2085959  
   0.880956000     0.6240369   -0.3144338  
   0.882955900     0.5650126   -0.4119760  
   0.884955800     0.4913125   -0.4988331  
   0.886955700     0.4044633   -0.5724310  
   0.888955600     0.3077556   -0.6306587  
   0.890955500     0.2033489   -0.6727501  
   0.892955400     0.0942195   -0.6972260  
   0.894955300    -0.0164043   -0.7042710  
