! MS46122B
! 2250307/22442219
! 7/21/2025 12:11:52 PM
! C:\USERS\SPARKY\DOCUMENTS\VNA_DATA\JULY21_2025\295K\ECAL_SHORT_A_REPEAT1.S1P
! CHANNEL.1
! TR.MEASUREMENT
! RAW.DATA
# GHZ S RI R 50.0
! FREQ.GHZ         S11RE         S11IM         
!; PortSelection: Port_1
   0.001000000     1.0456020   -0.0709764  
   0.002999900     0.9640288   -0.1937618  
   0.004999800     0.9039952   -0.2985549  
   0.006999700     0.8370457   -0.3961359  
   0.008999600     0.7590304   -0.4910719  
   0.010999500     0.6671914   -0.5811125  
   0.012999400     0.5563180   -0.6638802  
   0.014999300     0.4217516   -0.7335854  
   0.016999200     0.2571767   -0.7793043  
   0.018999100     0.0594518   -0.7839006  
   0.020999000    -0.1652191   -0.7196831  
   0.022998900    -0.3888977   -0.5525989  
   0.024998800    -0.5257665   -0.2641334  
   0.026998700    -0.5509924    0.1065359  
   0.028998600    -0.3612060    0.4425907  
   0.030998500    -0.0448560    0.6315784  
   0.032998400     0.2577851    0.6358814  
   0.034998300     0.5421542    0.5586643  
   0.036998200     0.7221348    0.4100454  
   0.038998100     0.8320076    0.2456733  
   0.040998000     0.8890139    0.0853243  
   0.042997900     0.9082614   -0.0631697  
   0.044997800     0.8716843   -0.1741144  
   0.046997700     0.8711125   -0.3150986  
   0.048997600     0.8292707   -0.4196931  
   0.050997500     0.7764056   -0.5110305  
   0.052997400     0.7158514   -0.5900768  
   0.054997300     0.6498517   -0.6586097  
   0.056997200     0.5770722   -0.7187886  
   0.058997100     0.5014085   -0.7688141  
   0.060997000     0.4222578   -0.8101771  
   0.062996900     0.3400068   -0.8433716  
   0.064996800     0.2552117   -0.8677480  
   0.066996700     0.1677599   -0.8831783  
   0.068996600     0.0782704   -0.8901740  
   0.070996500    -0.0124325   -0.8883419  
   0.072996400    -0.1041624   -0.8757241  
   0.074996300    -0.1965721   -0.8524436  
   0.076996200    -0.2881950   -0.8177091  
   0.078996100    -0.3779805   -0.7715462  
   0.080996000    -0.4645639   -0.7126364  
   0.082995900    -0.5461577   -0.6402599  
   0.084995800    -0.6201620   -0.5536842  
   0.086995700    -0.6849709   -0.4543588  
   0.088995600    -0.7373880   -0.3413651  
   0.090995500    -0.7742078   -0.2157570  
   0.092995400    -0.7925710   -0.0797673  
   0.094995300    -0.7865965    0.0641159  
   0.096995200    -0.7541132    0.2120006  
   0.098995100    -0.6922225    0.3573915  
   0.100995000    -0.5994001    0.4954274  
   0.102994900    -0.4776390    0.6138872  
   0.104994800    -0.3303090    0.7072977  
   0.106994700    -0.1631152    0.7681575  
   0.108994600     0.0142681    0.7926179  
   0.110994500     0.1926372    0.7785311  
   0.112994400     0.3626842    0.7268474  
   0.114994300     0.5150830    0.6423775  
   0.116994200     0.6430562    0.5309080  
   0.118994100     0.7430869    0.4004682  
   0.120994000     0.8146453    0.2586672  
   0.122993900     0.8554959    0.1116219  
   0.124993800     0.8682269   -0.0339743  
   0.126993700     0.8565813   -0.1740168  
   0.128993600     0.8218391   -0.3036487  
   0.130993500     0.7708309   -0.4220263  
   0.132993400     0.7048506   -0.5271688  
   0.134993300     0.6272842   -0.6177257  
   0.136993200     0.5401396   -0.6947137  
   0.138993100     0.4462692   -0.7566825  
   0.140993000     0.3475187   -0.8043054  
   0.142992900     0.2455845   -0.8382975  
   0.144992800     0.1423044   -0.8592658  
   0.146992700     0.0380334   -0.8662094  
   0.148992600    -0.0650253   -0.8602971  
   0.150992500    -0.1659688   -0.8406129  
   0.152992400    -0.2636907   -0.8098752  
   0.154992300    -0.3570110   -0.7669522  
   0.156992200    -0.4451899   -0.7128777  
   0.158992100    -0.5265840   -0.6477670  
   0.160992000    -0.6001837   -0.5718555  
   0.162991900    -0.6642290   -0.4860980  
   0.164991800    -0.7179402   -0.3904368  
   0.166991700    -0.7593151   -0.2868970  
   0.168991600    -0.7865459   -0.1761673  
   0.170991500    -0.7987842   -0.0594261  
   0.172991400    -0.7941495    0.0602225  
   0.174991300    -0.7715164    0.1812940  
   0.176991200    -0.7296018    0.3010946  
   0.178991100    -0.6684281    0.4159334  
   0.180991000    -0.5882857    0.5230463  
   0.182990900    -0.4888019    0.6170465  
   0.184990800    -0.3718947    0.6954045  
   0.186990700    -0.2407823    0.7539137  
   0.188990600    -0.1224721    0.7853572  
   0.190990500     0.0438751    0.7981401  
   0.192990400     0.1953012    0.7813197  
   0.194990300     0.3387432    0.7383421  
   0.196990200     0.4716384    0.6703516  
   0.198990100     0.5894490    0.5802699  
   0.200990000     0.6892263    0.4707795  
   0.202989900     0.7671977    0.3469473  
   0.204989800     0.8217143    0.2135271  
   0.206989700     0.8527442    0.0759190  
   0.208989600     0.8588949   -0.0620221  
   0.210989500     0.8428588   -0.1962591  
   0.212989400     0.8060855   -0.3235915  
   0.214989300     0.7511035   -0.4405474  
   0.216989200     0.6807277   -0.5449129  
   0.218989100     0.5980510   -0.6351244  
   0.220989000     0.5046371   -0.7110387  
   0.222988900     0.4031842   -0.7715308  
   0.224988800     0.2962851   -0.8162521  
   0.226988700     0.1861178   -0.8454435  
   0.228988600     0.0754699   -0.8589871  
   0.230988500    -0.0347229   -0.8572600  
   0.232988400    -0.1426376   -0.8401450  
   0.234988300    -0.2475287   -0.8100096  
   0.236988200    -0.3471118   -0.7666339  
   0.238988100    -0.4399688   -0.7101610  
   0.240988000    -0.5242623   -0.6425946  
   0.242987900    -0.5988618   -0.5642142  
   0.244987800    -0.6628120   -0.4756679  
   0.246987700    -0.7151957   -0.3781354  
   0.248987600    -0.7540153   -0.2724068  
   0.250987500    -0.7783163   -0.1608582  
   0.252987400    -0.7864544   -0.0455225  
   0.254987300    -0.7777662    0.0716674  
   0.256987200    -0.7515258    0.1881069  
   0.258987100    -0.7083083    0.3023729  
   0.260987000    -0.6453329    0.4104035  
   0.262986900    -0.5639563    0.5098490  
   0.264986800    -0.4656991    0.5968549  
   0.266986700    -0.3521310    0.6677711  
   0.268986600    -0.2262078    0.7191606  
   0.270986500    -0.0915345    0.7483698  
   0.272986400     0.0478705    0.7539029  
   0.274986300     0.1876572    0.7347044  
   0.276986200     0.3228799    0.6903638  
   0.278986100     0.4489130    0.6220173  
   0.280986000     0.5604699    0.5319484  
   0.282985900     0.6540984    0.4234129  
   0.284985800     0.7255085    0.3009211  
   0.286985700     0.7736594    0.1692427  
   0.288985600     0.7974111    0.0338162  
   0.290985500     0.7974700   -0.1007805  
   0.292985400     0.7748238   -0.2305075  
   0.294985300     0.7324145   -0.3518987  
   0.296985200     0.6721641   -0.4629618  
   0.298985100     0.5961351   -0.5611944  
   0.300985000     0.5080370   -0.6441907  
   0.302984900     0.4110429   -0.7111081  
   0.304984800     0.3074004   -0.7615619  
   0.306984700     0.2009543   -0.7956111  
   0.308984600     0.0940183   -0.8135975  
   0.310984500    -0.0118731   -0.8171831  
   0.312984400    -0.1145759   -0.8065903  
   0.314984300    -0.2133609   -0.7834405  
   0.316984200    -0.3068746   -0.7483901  
   0.318984100    -0.3947041   -0.7022453  
   0.320984000    -0.4759034   -0.6465780  
   0.322983900    -0.5495557   -0.5815066  
   0.324983800    -0.6151933   -0.5090288  
   0.326983700    -0.6723125   -0.4288182  
   0.328983600    -0.7207931   -0.3415647  
   0.330983500    -0.7589856   -0.2470653  
   0.332983400    -0.7853938   -0.1459280  
   0.334983300    -0.7976080   -0.0392090  
   0.336983200    -0.7937806    0.0707555  
   0.338983100    -0.7727425    0.1805235  
   0.340983000    -0.7350203    0.2868703  
   0.342982900    -0.6811364    0.3873635  
   0.344982800    -0.6126429    0.4793603  
   0.346982700    -0.5299140    0.5617737  
   0.348982600    -0.4348758    0.6308650  
   0.350982500    -0.3299653    0.6863353  
   0.352982400    -0.2168533    0.7261532  
   0.354982300    -0.0926456    0.7489486  
   0.356982200     0.0476844    0.7506234  
   0.358982100     0.1869230    0.7267435  
   0.360982000     0.3197410    0.6780696  
   0.362981900     0.4426247    0.6058666  
   0.364981800     0.5509866    0.5120196  
   0.366981700     0.6407527    0.3989263  
   0.368981600     0.7084278    0.2704450  
   0.370981500     0.7513126    0.1310585  
   0.372981400     0.7673044   -0.0141274  
   0.374981300     0.7555616   -0.1606715  
   0.376981200     0.7698361   -0.0570591  
   0.378981100     0.7495624   -0.2019300  
   0.380981000     0.7028649   -0.3394549  
   0.382980900     0.6387545   -0.4548040  
   0.384980800     0.5605443   -0.5523496  
   0.386980700     0.4688242   -0.6354051  
   0.388980600     0.3659302   -0.7019743  
   0.390980500     0.2561302   -0.7507215  
   0.392980400     0.1417713   -0.7813319  
   0.394980300     0.0261794   -0.7941206  
   0.396980200    -0.0888490   -0.7898672  
   0.398980100    -0.2001983   -0.7690139  
   0.400980000    -0.3062255   -0.7323024  
   0.402979900    -0.4053973   -0.6809264  
   0.404979800    -0.4947290   -0.6170071  
   0.406979700    -0.5737893   -0.5412256  
   0.408979600    -0.6410782   -0.4562522  
   0.410979500    -0.6959676   -0.3618156  
   0.412979400    -0.7372502   -0.2605214  
   0.414979300    -0.7625095   -0.1541798  
   0.416979200    -0.7742952   -0.0448211  
   0.418979100    -0.7707440    0.0649268  
   0.420979000    -0.7514119    0.1735685  
   0.422978900    -0.7164412    0.2793869  
   0.424978800    -0.6662620    0.3799106  
   0.426978700    -0.6016152    0.4734282  
   0.428978600    -0.5233546    0.5571341  
   0.430978500    -0.4330070    0.6286810  
   0.432978400    -0.3323396    0.6868727  
   0.434978300    -0.2236978    0.7307464  
   0.436978200    -0.1080197    0.7574159  
   0.438978100     0.0118993    0.7657247  
   0.440978000     0.1328409    0.7558138  
   0.442977900     0.2519122    0.7270064  
   0.444977800     0.3657354    0.6796212  
   0.446977700     0.4714980    0.6142994  
   0.448977600     0.5659299    0.5325825  
   0.450977500     0.6465514    0.4364172  
   0.452977400     0.7111040    0.3281257  
   0.454977300     0.7573647    0.2100523  
   0.456977200     0.7842690    0.0858630  
   0.458977100     0.7902282   -0.0412684  
   0.460977000     0.7759475   -0.1667714  
   0.462976900     0.7417777   -0.2870547  
   0.464976800     0.6890848   -0.4000039  
   0.466976700     0.6202667   -0.5021214  
   0.468976600     0.5369222   -0.5912766  
   0.470976500     0.4414420   -0.6657541  
   0.472976400     0.3373667   -0.7234891  
   0.474976300     0.2265874   -0.7644735  
   0.476976200     0.1126148   -0.7879030  
   0.478976100    -0.0015773   -0.7942319  
   0.480976000    -0.1138963   -0.7838060  
   0.482975900    -0.2215231   -0.7575857  
   0.484975800    -0.3235802   -0.7169899  
   0.486975700    -0.4183254   -0.6625077  
   0.488975600    -0.5038293   -0.5958315  
   0.490975500    -0.5789953   -0.5184233  
   0.492975400    -0.6424555   -0.4310100  
   0.494975300    -0.6931090   -0.3356635  
   0.496975200    -0.7300689   -0.2338878  
   0.498975100    -0.7521027   -0.1281665  
   0.500975000    -0.7589616   -0.0195657  
   0.502974900    -0.7502384    0.0889325  
   0.504974800    -0.7254990    0.1964496  
   0.506974700    -0.6846894    0.3003235  
   0.508974600    -0.6281673    0.3980167  
   0.510974500    -0.5562092    0.4865621  
   0.512974400    -0.4707929    0.5633075  
   0.514974300    -0.3737021    0.6247116  
   0.516974200    -0.2684532    0.6704680  
   0.518974100    -0.1574581    0.6983685  
   0.520974000    -0.0439546    0.7082653  
   0.522973900     0.0686075    0.6999028  
   0.524973800     0.1774491    0.6743883  
   0.526973700     0.2796057    0.6328102  
   0.528973600     0.3734752    0.5771567  
   0.530973500     0.4572206    0.5089439  
   0.532973400     0.5298671    0.4304302  
   0.534973300     0.5898457    0.3428469  
   0.536973200     0.6370434    0.2478829  
   0.538973100     0.6700398    0.1475956  
   0.540973000     0.6890248    0.0441383  
   0.542972900     0.6928864   -0.0617572  
   0.544972800     0.6809685   -0.1669535  
   0.546972700     0.6538800   -0.2710016  
   0.548972600     0.6112247   -0.3705005  
   0.550972500     0.5542997   -0.4627353  
   0.552972400     0.4830895   -0.5461943  
   0.554972300     0.3997357   -0.6177938  
   0.556972200     0.3060350   -0.6766208  
   0.558972100     0.2041347   -0.7203845  
   0.560972000     0.0973323   -0.7483031  
   0.562971900    -0.0121373   -0.7592160  
   0.564971800    -0.1218776   -0.7534778  
   0.566971700    -0.2291804   -0.7317985  
   0.568971600    -0.3316728   -0.6944187  
   0.570971500    -0.4271683   -0.6426783  
   0.572971400    -0.5140413   -0.5774881  
   0.574971300    -0.5907152   -0.4999838  
   0.576971200    -0.6551859   -0.4120561  
   0.578971100    -0.7062544   -0.3155566  
   0.580971000    -0.7428914   -0.2130277  
   0.582970900    -0.7640942   -0.1061656  
   0.584970800    -0.7697245    0.0021270  
   0.586970700    -0.7596206    0.1101772  
   0.588970600    -0.7343987    0.2156103  
   0.590970500    -0.6941106    0.3167313  
   0.592970400    -0.6393920    0.4114351  
   0.594970300    -0.5714247    0.4975492  
   0.596970200    -0.4910987    0.5735945  
   0.598970100    -0.4001211    0.6374046  
   0.600970000    -0.2996968    0.6876505  
   0.602969900    -0.1922270    0.7225670  
   0.604969800    -0.0791759    0.7416829  
   0.606969700     0.0361709    0.7430989  
   0.608969600     0.1516538    0.7264516  
   0.610969500     0.2643965    0.6919870  
   0.612969400     0.3708345    0.6398780  
   0.614969300     0.4688303    0.5713485  
   0.616969200     0.5542907    0.4880103  
   0.618969100     0.6258810    0.3919286  
   0.620969000     0.6812024    0.2856800  
   0.622968900     0.7189872    0.1718678  
   0.624968800     0.7380546    0.0524831  
   0.626968700     0.7373853   -0.0683770  
   0.628968600     0.7176334   -0.1877734  
   0.630968500     0.6786293   -0.3020656  
   0.632968400     0.6220639   -0.4084242  
   0.634968300     0.5491193   -0.5037448  
   0.636968200     0.4625491   -0.5855677  
   0.638968100     0.3647697   -0.6515975  
   0.640968000     0.2582883   -0.7015487  
   0.642967900     0.1467492   -0.7337704  
   0.644967800     0.0324168   -0.7476047  
   0.646967700    -0.0812726   -0.7439067  
   0.648967600    -0.1918041   -0.7230175  
   0.650967500    -0.2961345   -0.6862131  
   0.652967400    -0.3930970   -0.6348305  
   0.654967300    -0.4804566   -0.5702149  
   0.656967200    -0.5566415   -0.4944050  
   0.658967100    -0.6206813   -0.4086942  
   0.660967000    -0.6716073   -0.3149618  
   0.662966900    -0.7082576   -0.2150154  
   0.664966800    -0.7301419   -0.1107599  
   0.666966700    -0.7367920   -0.0043526  
   0.668966600    -0.7279429    0.1018681  
   0.670966500    -0.7037650    0.2060399  
   0.672966400    -0.6655319    0.3062363  
   0.674966300    -0.6122676    0.3994916  
   0.676966200    -0.5455978    0.4841323  
   0.678966100    -0.4674872    0.5583096  
   0.680966000    -0.3783578    0.6208227  
   0.682965900    -0.2803463    0.6696528  
   0.684965800    -0.1756803    0.7036098  
   0.686965700    -0.0655922    0.7215288  
   0.688965600     0.0466610    0.7226303  
   0.690965500     0.1585458    0.7051464  
   0.692965400     0.2674345    0.6715916  
   0.694965300     0.3703851    0.6210999  
   0.696965200     0.4642606    0.5547540  
   0.698965100     0.5476252    0.4735416  
   0.700965000     0.6169093    0.3795839  
   0.702964900     0.6709327    0.2754775  
   0.704964800     0.7074886    0.1636367  
   0.706964700     0.7253196    0.0473245  
   0.708964600     0.7243593   -0.0708263  
   0.710964500     0.7052116   -0.1869937  
   0.712964400     0.6669304   -0.2971318  
   0.714964300     0.6118271   -0.3998908  
   0.716964200     0.5419782   -0.4904298  
   0.718964100     0.4599873   -0.5683060  
   0.720964000     0.3680361   -0.6312596  
   0.722963900     0.2692655   -0.6789383  
   0.724963800     0.1659315   -0.7110205  
   0.726963700     0.0601121   -0.7273736  
   0.728963600    -0.0454938   -0.7281045  
   0.730963500    -0.1492148   -0.7130150  
   0.732963400    -0.2486533   -0.6844591  
   0.734963300    -0.3426859   -0.6423231  
   0.736963200    -0.4415188   -0.5776706  
   0.738963100    -0.5284365   -0.4979492  
   0.740963000    -0.6011339   -0.4049608  
   0.742962900    -0.6575004   -0.3015936  
   0.744962800    -0.6960554   -0.1902613  
   0.746962700    -0.7158601   -0.0735822  
   0.748962600    -0.7159908    0.0457898  
   0.750962500    -0.7286831   -0.0647150  
   0.752962400    -0.7268939    0.0555598  
   0.754962300    -0.7047085    0.1744852  
   0.756962200    -0.6624228    0.2885935  
   0.758962100    -0.6013810    0.3936665  
   0.760962000    -0.5223895    0.4876436  
   0.762961900    -0.4331029    0.5633256  
   0.764961800    -0.3425414    0.6187015  
   0.766961700    -0.2446101    0.6594461  
   0.768961600    -0.1410076    0.6850579  
   0.770961500    -0.0349469    0.6946798  
   0.772961400     0.0711495    0.6881019  
   0.774961300     0.1750089    0.6658869  
   0.776961200     0.2748199    0.6279848  
   0.778961100     0.3675258    0.5756010  
   0.780961000     0.4521296    0.5093033  
   0.782960900     0.5259629    0.4308534  
   0.784960800     0.5877245    0.3415705  
   0.786960700     0.6351794    0.2435823  
   0.788960600     0.6670966    0.1389386  
   0.790960500     0.6828043    0.0305392  
   0.792960400     0.6814719   -0.0791866  
   0.794960300     0.6632832   -0.1871155  
   0.796960200     0.6287321   -0.2912916  
   0.798960100     0.5784548   -0.3886240  
   0.800960000     0.5138393   -0.4768330  
   0.802959900     0.4364178   -0.5541392  
   0.804959800     0.3483763   -0.6185355  
   0.806959700     0.2516288   -0.6687299  
   0.808959600     0.1485828   -0.7033873  
   0.810959500     0.0415195   -0.7218580  
   0.812959400    -0.0667619   -0.7238953  
   0.814959300    -0.1740526   -0.7095656  
   0.816959200    -0.2772740   -0.6792733  
   0.818959100    -0.3747636   -0.6339909  
   0.820959000    -0.4637646   -0.5749227  
   0.822958900    -0.5427704   -0.5033343  
   0.824958800    -0.6101837   -0.4210635  
   0.826958700    -0.6645225   -0.3300755  
   0.828958600    -0.7049560   -0.2323433  
   0.830958500    -0.7301580   -0.1302081  
   0.832958400    -0.7404159   -0.0257497  
   0.834958300    -0.7352766    0.0788298  
   0.836958200    -0.7155826    0.1812245  
   0.838958100    -0.6810110    0.2795543  
   0.840958000    -0.6322376    0.3720240  
   0.842957900    -0.5707871    0.4566128  
   0.844957800    -0.4973393    0.5321597  
   0.846957700    -0.4137413    0.5963790  
   0.848957600    -0.3211436    0.6477386  
   0.850957500    -0.2216763    0.6855191  
   0.852957400    -0.1167183    0.7080516  
   0.854957300    -0.0089657    0.7149563  
   0.856957200     0.0990113    0.7054379  
   0.858957100     0.2049795    0.6797673  
   0.860957000     0.3057373    0.6383227  
   0.862956900     0.3992808    0.5816616  
   0.864956800     0.4833773    0.5112540  
   0.866956700     0.5557538    0.4288994  
   0.868956600     0.6142884    0.3353439  
   0.870956500     0.6586052    0.2335886  
   0.872956400     0.6867482    0.1253735  
   0.874956300     0.6977648    0.0135680  
   0.876956200     0.6906835   -0.0995455  
   0.878956100     0.6656603   -0.2102511  
   0.880956000     0.6229821   -0.3158506  
   0.882955900     0.5637872   -0.4133068  
   0.884955800     0.4900296   -0.4998901  
   0.886955700     0.4031068   -0.5732625  
   0.888955600     0.3062937   -0.6312442  
   0.890955500     0.2016832   -0.6731308  
   0.892955400     0.0925968   -0.6973099  
   0.894955300    -0.0180121   -0.7040193  
