! MS46122B
! 2250307/22442219
! 7/23/2025 1:06:11 PM
! C:\USERS\SPARKY\DOCUMENTS\VNA_DATA\JULY23_2025\295K\ECAL_LOAD_C.S1P
! CHANNEL.1
! TR.MEASUREMENT
! RAW.DATA
# GHZ S RI R 50.0
! FREQ.GHZ         S11RE         S11IM         
!; PortSelection: Port_1
   0.001000000     1.0453190   -0.0718970  
   0.002999900     0.9524156   -0.1941846  
   0.004999800     0.8768408   -0.2782920  
   0.006999700     0.7916011   -0.3675226  
   0.008999600     0.6999824   -0.4056822  
   0.010999500     0.6234045   -0.4305904  
   0.012999400     0.5567107   -0.4450325  
   0.014999300     0.5000697   -0.4516607  
   0.016999200     0.4513279   -0.4525246  
   0.018999100     0.4105356   -0.4491083  
   0.020999000     0.3767302   -0.4432726  
   0.022998900     0.3478582   -0.4362580  
   0.024998800     0.3179708   -0.4072722  
   0.026998700     0.3015913   -0.4200434  
   0.028998600     0.2824515   -0.4115328  
   0.030998500     0.2650266   -0.4030323  
   0.032998400     0.2452534   -0.3770952  
   0.034998300     0.2332356   -0.3866070  
   0.036998200     0.2188988   -0.3786308  
   0.038998100     0.2052991   -0.3710890  
   0.040998000     0.1922437   -0.3637617  
   0.042997900     0.1796376   -0.3566364  
   0.044997800     0.1662529   -0.3353576  
   0.046997700     0.1549179   -0.3432383  
   0.048997600     0.1435710   -0.3366092  
   0.050997500     0.1327235   -0.3300363  
   0.052997400     0.1224934   -0.3234648  
   0.054997300     0.1126969   -0.3169681  
   0.056997200     0.1031310   -0.3108992  
   0.058997100     0.0943386   -0.3047400  
   0.060997000     0.0859075   -0.2987464  
   0.062996900     0.0780243   -0.2928262  
   0.064996800     0.0708204   -0.2869466  
   0.066996700     0.0640799   -0.2811113  
   0.068996600     0.0577578   -0.2753071  
   0.070996500     0.0519449   -0.2697893  
   0.072996400     0.0464582   -0.2639872  
   0.074996300     0.0414603   -0.2582404  
   0.076996200     0.0367761   -0.2524984  
   0.078996100     0.0324569   -0.2467072  
   0.080996000     0.0283557   -0.2409966  
   0.082995900     0.0245109   -0.2353280  
   0.084995800     0.0208313   -0.2293396  
   0.086995700     0.0176747   -0.2237597  
   0.088995600     0.0148224   -0.2182346  
   0.090995500     0.0122319   -0.2128264  
   0.092995400     0.0099059   -0.2076719  
   0.094995300     0.0079050   -0.2024571  
   0.096995200     0.0060942   -0.1972979  
   0.098995100     0.0045041   -0.1922801  
   0.100995000     0.0020196   -0.1884061  
   0.102994900     0.0008074   -0.1838069  
   0.104994800    -0.0000185   -0.1794472  
   0.106994700    -0.0006459   -0.1751484  
   0.108994600    -0.0010879   -0.1712325  
   0.110994500    -0.0013662   -0.1675438  
   0.112994400    -0.0014939   -0.1641082  
   0.114994300    -0.0014913   -0.1609141  
   0.116994200    -0.0014068   -0.1579465  
   0.118994100    -0.0012428   -0.1552315  
   0.120994000    -0.0008770   -0.1526692  
   0.122993900    -0.0006899   -0.1503367  
   0.124993800    -0.0004684   -0.1483006  
   0.126993700    -0.0002975   -0.1465030  
   0.128993600    -0.0002256   -0.1448702  
   0.130993500    -0.0001978   -0.1434769  
   0.132993400    -0.0002766   -0.1422502  
   0.134993300    -0.0004735   -0.1411898  
   0.136993200    -0.0008200   -0.1402150  
   0.138993100    -0.0013496   -0.1393395  
   0.140993000    -0.0020315   -0.1385041  
   0.142992900    -0.0029311   -0.1376914  
   0.144992800    -0.0039385   -0.1370343  
   0.146992700    -0.0051935   -0.1362419  
   0.148992600    -0.0065691   -0.1353712  
   0.150992500    -0.0080531   -0.1342764  
   0.152992400    -0.0097398   -0.1331867  
   0.154992300    -0.0114916   -0.1319556  
   0.156992200    -0.0133831   -0.1305195  
   0.158992100    -0.0152944   -0.1289007  
   0.160992000    -0.0172406   -0.1270472  
   0.162991900    -0.0191567   -0.1249765  
   0.164991800    -0.0210570   -0.1226664  
   0.166991700    -0.0228460   -0.1201136  
   0.168991600    -0.0244917   -0.1173195  
   0.170991500    -0.0260389   -0.1142980  
   0.172991400    -0.0273044   -0.1110715  
   0.174991300    -0.0283029   -0.1076876  
   0.176991200    -0.0290298   -0.1041277  
   0.178991100    -0.0294475   -0.1004395  
   0.180991000    -0.0295063   -0.0967191  
   0.182990900    -0.0292172   -0.0928877  
   0.184990800    -0.0285094   -0.0891003  
   0.186990700    -0.0274012   -0.0853425  
   0.188990600    -0.0241339   -0.0822548  
   0.190990500    -0.0237826   -0.0782678  
   0.192990400    -0.0217180   -0.0749502  
   0.194990300    -0.0190548   -0.0720000  
   0.196990200    -0.0160883   -0.0693956  
   0.198990100    -0.0128102   -0.0671792  
   0.200990000    -0.0093014   -0.0653827  
   0.202989900    -0.0055943   -0.0640355  
   0.204989800    -0.0017712   -0.0632062  
   0.206989700     0.0021314   -0.0628860  
   0.208989600     0.0060754   -0.0631222  
   0.210989500     0.0099546   -0.0638771  
   0.212989400     0.0136961   -0.0651619  
   0.214989300     0.0172356   -0.0669330  
   0.216989200     0.0205056   -0.0692059  
   0.218989100     0.0234221   -0.0719309  
   0.220989000     0.0259514   -0.0750752  
   0.222988900     0.0280323   -0.0785823  
   0.224988800     0.0296080   -0.0823826  
   0.226988700     0.0306229   -0.0864314  
   0.228988600     0.0311482   -0.0906343  
   0.230988500     0.0311014   -0.0948961  
   0.232988400     0.0304204   -0.0991249  
   0.234988300     0.0291895   -0.1033585  
   0.236988200     0.0273427   -0.1074479  
   0.238988100     0.0250055   -0.1113188  
   0.240988000     0.0221711   -0.1148998  
   0.242987900     0.0189004   -0.1181527  
   0.244987800     0.0152613   -0.1209901  
   0.246987700     0.0111793   -0.1233685  
   0.248987600     0.0068483   -0.1252948  
   0.250987500     0.0022658   -0.1267074  
   0.252987400    -0.0024112   -0.1275487  
   0.254987300    -0.0070969   -0.1279582  
   0.256987200    -0.0117539   -0.1278233  
   0.258987100    -0.0163117   -0.1270585  
   0.260987000    -0.0206812   -0.1257104  
   0.262986900    -0.0248567   -0.1239312  
   0.264986800    -0.0287089   -0.1217134  
   0.266986700    -0.0322433   -0.1190948  
   0.268986600    -0.0353642   -0.1161710  
   0.270986500    -0.0379164   -0.1131003  
   0.272986400    -0.0400349   -0.1098618  
   0.274986300    -0.0417155   -0.1065956  
   0.276986200    -0.0428955   -0.1032852  
   0.278986100    -0.0436243   -0.1000214  
   0.280986000    -0.0438764   -0.0968581  
   0.282985900    -0.0437162   -0.0938861  
   0.284985800    -0.0431561   -0.0912379  
   0.286985700    -0.0422440   -0.0888762  
   0.288985600    -0.0410396   -0.0871074  
   0.290985500    -0.0396252   -0.0857936  
   0.292985400    -0.0381236   -0.0850407  
   0.294985300    -0.0366343   -0.0848361  
   0.296985200    -0.0352911   -0.0850975  
   0.298985100    -0.0342199   -0.0858196  
   0.300985000    -0.0334825   -0.0870423  
   0.302984900    -0.0332246   -0.0887035  
   0.304984800    -0.0334691   -0.0908577  
   0.306984700    -0.0343624   -0.0932798  
   0.308984600    -0.0359015   -0.0960474  
   0.310984500    -0.0382788   -0.0987904  
   0.312984400    -0.0415581   -0.1013991  
   0.314984300    -0.0458402   -0.1036376  
   0.316984200    -0.0511382   -0.1053238  
   0.318984100    -0.0574491   -0.1059270  
   0.320984000    -0.0646866   -0.1051348  
   0.322983900    -0.0722920   -0.1026089  
   0.324983800    -0.0797784   -0.0980376  
   0.326983700    -0.0864263   -0.0914709  
   0.328983600    -0.0914589   -0.0833042  
   0.330983500    -0.0941952   -0.0742170  
   0.332983400    -0.0944457   -0.0652360  
   0.334983300    -0.0926135   -0.0572754  
   0.336983200    -0.0894857   -0.0508491  
   0.338983100    -0.0858581   -0.0461107  
   0.340983000    -0.0824732   -0.0427585  
   0.342982900    -0.0795567   -0.0403849  
   0.344982800    -0.0774124   -0.0383759  
   0.346982700    -0.0758588   -0.0362878  
   0.348982600    -0.0745484   -0.0340969  
   0.350982500    -0.0737434   -0.0316410  
   0.352982400    -0.0729850   -0.0289558  
   0.354982300    -0.0722864   -0.0255557  
   0.356982200    -0.0714948   -0.0207515  
   0.358982100    -0.0701337   -0.0159329  
   0.360982000    -0.0681748   -0.0112717  
   0.362981900    -0.0656091   -0.0067748  
   0.364981800    -0.0624302   -0.0026517  
   0.366981700    -0.0586442    0.0010520  
   0.368981600    -0.0543550    0.0042644  
   0.370981500    -0.0497246    0.0067772  
   0.372981400    -0.0448771    0.0085520  
   0.374981300    -0.0399025    0.0095767  
   0.376981200    -0.0387520   -0.0005092  
   0.378981100    -0.0339771    0.0006035  
   0.380981000    -0.0292265    0.0008337  
   0.382980900    -0.0247005   -0.0000302  
   0.384980800    -0.0204854   -0.0016555  
   0.386980700    -0.0166156   -0.0038428  
   0.388980600    -0.0131578   -0.0065582  
   0.390980500    -0.0101915   -0.0097659  
   0.392980400    -0.0077424   -0.0134057  
   0.394980300    -0.0058681   -0.0173222  
   0.396980200    -0.0046478   -0.0214314  
   0.398980100    -0.0040782   -0.0256290  
   0.400980000    -0.0041948   -0.0297741  
   0.402979900    -0.0049753   -0.0338026  
   0.404979800    -0.0063394   -0.0376243  
   0.406979700    -0.0082979   -0.0411129  
   0.408979600    -0.0107776   -0.0441809  
   0.410979500    -0.0137532   -0.0467378  
   0.412979400    -0.0172798   -0.0487819  
   0.414979300    -0.0210475   -0.0500729  
   0.416979200    -0.0250436   -0.0506843  
   0.418979100    -0.0291349   -0.0506053  
   0.420979000    -0.0331850   -0.0498293  
   0.422978900    -0.0371287   -0.0483311  
   0.424978800    -0.0409298   -0.0461725  
   0.426978700    -0.0443741   -0.0433460  
   0.428978600    -0.0473732   -0.0399191  
   0.430978500    -0.0497518   -0.0359655  
   0.432978400    -0.0514349   -0.0315040  
   0.434978300    -0.0523951   -0.0268092  
   0.436978200    -0.0526642   -0.0219437  
   0.438978100    -0.0521811   -0.0169523  
   0.440978000    -0.0509103   -0.0119556  
   0.442977900    -0.0488408   -0.0071311  
   0.444977800    -0.0459888   -0.0025241  
   0.446977700    -0.0423927    0.0016815  
   0.448977600    -0.0381246    0.0054021  
   0.450977500    -0.0332442    0.0085537  
   0.452977400    -0.0278543    0.0110370  
   0.454977300    -0.0220392    0.0127423  
   0.456977200    -0.0159598    0.0136260  
   0.458977100    -0.0097022    0.0135779  
   0.460977000    -0.0033408    0.0126014  
   0.462976900     0.0029066    0.0106639  
   0.464976800     0.0088806    0.0077968  
   0.466976700     0.0144566    0.0040107  
   0.468976600     0.0195316   -0.0006102  
   0.470976500     0.0239433   -0.0060340  
   0.472976400     0.0275699   -0.0121319  
   0.474976300     0.0303608   -0.0187672  
   0.476976200     0.0321893   -0.0258228  
   0.478976100     0.0331149   -0.0332728  
   0.480976000     0.0330566   -0.0407847  
   0.482975900     0.0319856   -0.0482278  
   0.484975800     0.0297877   -0.0554257  
   0.486975700     0.0265624   -0.0623783  
   0.488975600     0.0223232   -0.0690113  
   0.490975500     0.0171533   -0.0750007  
   0.492975400     0.0112299   -0.0801537  
   0.494975300     0.0045132   -0.0844624  
   0.496975200    -0.0028646   -0.0878660  
   0.498975100    -0.0105735   -0.0901297  
   0.500975000    -0.0186852   -0.0913466  
   0.502974900    -0.0268528   -0.0913723  
   0.504974800    -0.0350838   -0.0902405  
   0.506974700    -0.0431603   -0.0879085  
   0.508974600    -0.0511420   -0.0843977  
   0.510974500    -0.0587361   -0.0798653  
   0.512974400    -0.0653617   -0.0742620  
   0.514974300    -0.0709992   -0.0676346  
   0.516974200    -0.0755872   -0.0604214  
   0.518974100    -0.0790245   -0.0526141  
   0.520974000    -0.0812196   -0.0441900  
   0.522973900    -0.0821145   -0.0356612  
   0.524973800    -0.0818014   -0.0273050  
   0.526973700    -0.0802670   -0.0191141  
   0.528973600    -0.0775403   -0.0113595  
   0.530973500    -0.0737502   -0.0041186  
   0.532973400    -0.0689456    0.0023688  
   0.534973300    -0.0632741    0.0080079  
   0.536973200    -0.0569227    0.0127353  
   0.538973100    -0.0499324    0.0164271  
   0.540973000    -0.0425532    0.0190460  
   0.542972900    -0.0349712    0.0205514  
   0.544972800    -0.0272824    0.0209201  
   0.546972700    -0.0196846    0.0201337  
   0.548972600    -0.0123468    0.0181974  
   0.550972500    -0.0053766    0.0151827  
   0.552972400     0.0010142    0.0110699  
   0.554972300     0.0067212    0.0060081  
   0.556972200     0.0115741    0.0000739  
   0.558972100     0.0156242   -0.0065850  
   0.560972000     0.0186128   -0.0137693  
   0.562971900     0.0204433   -0.0214063  
   0.564971800     0.0211502   -0.0293094  
   0.566971700     0.0205618   -0.0371569  
   0.568971600     0.0187844   -0.0448843  
   0.570971500     0.0157735   -0.0523029  
   0.572971400     0.0116607   -0.0593458  
   0.574971300     0.0062377   -0.0657954  
   0.576971200    -0.0002275   -0.0715358  
   0.578971100    -0.0074908   -0.0764242  
   0.580971000    -0.0154324   -0.0802753  
   0.582970900    -0.0239974   -0.0828598  
   0.584970800    -0.0328578   -0.0841301  
   0.586970700    -0.0419493   -0.0840857  
   0.588970600    -0.0511996   -0.0826415  
   0.590970500    -0.0601483   -0.0798706  
   0.592970400    -0.0687837   -0.0758279  
   0.594970300    -0.0768936   -0.0706637  
   0.596970200    -0.0842542   -0.0643409  
   0.598970100    -0.0907361   -0.0569681  
   0.600970000    -0.0962431   -0.0486819  
   0.602969900    -0.1005995   -0.0396254  
   0.604969800    -0.1037465   -0.0299433  
   0.606969700    -0.1055808   -0.0198144  
   0.608969600    -0.1060123   -0.0094221  
   0.610969500    -0.1050197    0.0010214  
   0.612969400    -0.1025732    0.0113016  
   0.614969300    -0.0986852    0.0211635  
   0.616969200    -0.0935862    0.0304514  
   0.618969100    -0.0872662    0.0389931  
   0.620969000    -0.0799229    0.0466232  
   0.622968900    -0.0715179    0.0532162  
   0.624968800    -0.0623377    0.0586201  
   0.626968700    -0.0524627    0.0626590  
   0.628968600    -0.0421830    0.0655113  
   0.630968500    -0.0314780    0.0670742  
   0.632968400    -0.0208519    0.0668288  
   0.634968300    -0.0102934    0.0653098  
   0.636968200    -0.0001608    0.0621368  
   0.638968100     0.0095770    0.0576515  
   0.640968000     0.0185894    0.0517469  
   0.642967900     0.0265162    0.0449115  
   0.644967800     0.0333482    0.0370466  
   0.646967700     0.0389623    0.0283857  
   0.648967600     0.0432374    0.0191371  
   0.650967500     0.0460873    0.0094983  
   0.652967400     0.0474952   -0.0002882  
   0.654967300     0.0476647   -0.0102845  
   0.656967200     0.0462804   -0.0199509  
   0.658967100     0.0434570   -0.0293061  
   0.660967000     0.0393511   -0.0381115  
   0.662966900     0.0340840   -0.0461578  
   0.664966800     0.0277375   -0.0533738  
   0.666966700     0.0204661   -0.0595724  
   0.668966600     0.0124425   -0.0645524  
   0.670966500     0.0035724   -0.0683495  
   0.672966400    -0.0053288   -0.0707932  
   0.674966300    -0.0144184   -0.0717257  
   0.676966200    -0.0234465   -0.0712180  
   0.678966100    -0.0322050   -0.0693844  
   0.680966000    -0.0405169   -0.0662631  
   0.682965900    -0.0481693   -0.0619405  
   0.684965800    -0.0550600   -0.0565171  
   0.686965700    -0.0610101   -0.0501472  
   0.688965600    -0.0658971   -0.0430137  
   0.690965500    -0.0696344   -0.0353796  
   0.692965400    -0.0720919   -0.0272780  
   0.694965300    -0.0733080   -0.0189502  
   0.696965200    -0.0732093   -0.0105902  
   0.698965100    -0.0718044   -0.0024036  
   0.700965000    -0.0691065    0.0053873  
   0.702964900    -0.0652992    0.0127149  
   0.704964800    -0.0604291    0.0194375  
   0.706964700    -0.0545684    0.0250946  
   0.708964600    -0.0476194    0.0299004  
   0.710964500    -0.0402734    0.0336225  
   0.712964400    -0.0324467    0.0359519  
   0.714964300    -0.0243279    0.0370007  
   0.716964200    -0.0162148    0.0368231  
   0.718964100    -0.0083375    0.0353812  
   0.720964000    -0.0008773    0.0328188  
   0.722963900     0.0060819    0.0290155  
   0.724963800     0.0125607    0.0241678  
   0.726963700     0.0181092    0.0185512  
   0.728963600     0.0226307    0.0121378  
   0.730963500     0.0259709    0.0049297  
   0.732963400     0.0282698   -0.0025472  
   0.734963300     0.0294945   -0.0103731  
   0.736963200     0.0300969   -0.0194894  
   0.738963100     0.0291301   -0.0284453  
   0.740963000     0.0266190   -0.0370374  
   0.742962900     0.0226516   -0.0451009  
   0.744962800     0.0172666   -0.0521857  
   0.746962700     0.0109290   -0.0581427  
   0.748962600     0.0037381   -0.0628869  
   0.750962500     0.0013022   -0.0607364  
   0.752962400    -0.0060699   -0.0651417  
   0.754962300    -0.0141256   -0.0681421  
   0.756962200    -0.0226584   -0.0696427  
   0.758962100    -0.0314094   -0.0695780  
   0.760962000    -0.0400799   -0.0679494  
   0.762961900    -0.0482864   -0.0650602  
   0.764961800    -0.0557259   -0.0614510  
   0.766961700    -0.0626269   -0.0568064  
   0.768961600    -0.0688189   -0.0512037  
   0.770961500    -0.0741844   -0.0447859  
   0.772961400    -0.0786343   -0.0376486  
   0.774961300    -0.0821513   -0.0299373  
   0.776961200    -0.0845892   -0.0216819  
   0.778961100    -0.0857009   -0.0132621  
   0.780961000    -0.0855325   -0.0048526  
   0.782960900    -0.0841199    0.0034394  
   0.784960800    -0.0813834    0.0114659  
   0.786960700    -0.0774051    0.0190088  
   0.788960600    -0.0724167    0.0258989  
   0.790960500    -0.0663201    0.0321887  
   0.792960400    -0.0595109    0.0372741  
   0.794960300    -0.0519625    0.0412925  
   0.796960200    -0.0440358    0.0441405  
   0.798960100    -0.0357990    0.0456976  
   0.800960000    -0.0273758    0.0459610  
   0.802959900    -0.0191191    0.0449469  
   0.804959800    -0.0112441    0.0427153  
   0.806959700    -0.0039824    0.0393228  
   0.808959600     0.0027320    0.0347341  
   0.810959500     0.0085990    0.0291779  
   0.812959400     0.0136217    0.0227405  
   0.814959300     0.0174761    0.0155500  
   0.816959200     0.0201709    0.0078296  
   0.818959100     0.0217801   -0.0004000  
   0.820959000     0.0219803   -0.0086755  
   0.822958900     0.0208191   -0.0169028  
   0.824958800     0.0183707   -0.0250119  
   0.826958700     0.0146616   -0.0327036  
   0.828958600     0.0097791   -0.0396030  
   0.830958500     0.0037979   -0.0457215  
   0.832958400    -0.0031235   -0.0508955  
   0.834958300    -0.0108855   -0.0549447  
   0.836958200    -0.0192477   -0.0578056  
   0.838958100    -0.0280432   -0.0593799  
   0.840958000    -0.0370524   -0.0596192  
   0.842957900    -0.0460905   -0.0584692  
   0.844957800    -0.0549804   -0.0558719  
   0.846957700    -0.0634658   -0.0519398  
   0.848957600    -0.0712395   -0.0467616  
   0.850957500    -0.0783288   -0.0405093  
   0.852957400    -0.0844626   -0.0330421  
   0.854957300    -0.0894698   -0.0246954  
   0.856957200    -0.0931915   -0.0157808  
   0.858957100    -0.0956170   -0.0063586  
   0.860957000    -0.0967260    0.0032999  
   0.862956900    -0.0964094    0.0130361  
   0.864956800    -0.0949278    0.0225246  
   0.866956700    -0.0921795    0.0316594  
   0.868956600    -0.0881592    0.0402001  
   0.870956500    -0.0830019    0.0481438  
   0.872956400    -0.0766887    0.0553513  
   0.874956300    -0.0694491    0.0616470  
   0.876956200    -0.0612582    0.0668597  
   0.878956100    -0.0524330    0.0707684  
   0.880956000    -0.0430671    0.0734063  
   0.882955900    -0.0335252    0.0746659  
   0.884955800    -0.0238594    0.0746231  
   0.886955700    -0.0142583    0.0731598  
   0.888955600    -0.0050365    0.0703580  
   0.890955500     0.0034569    0.0663353  
   0.892955400     0.0111637    0.0611031  
   0.894955300     0.0179161    0.0548681  
