! MS46122B
! 2250307/22442219
! 7/28/2025 8:05:35 AM
! C:\USERS\SPARKY\DOCUMENTS\VNA_DATA\JULY28_2025\295K\ECAL_LOAD_F_REPEAT1.S1P
! CHANNEL.1
! TR.MEASUREMENT
! RAW.DATA
# GHZ S RI R 50.0
! FREQ.GHZ         S11RE         S11IM         
!; PortSelection: Port_1
   0.001000000     1.0461940   -0.0725724  
   0.002999900     0.9531808   -0.1948288  
   0.004999800     0.8776284   -0.2788914  
   0.006999700     0.7928112   -0.3682286  
   0.008999600     0.7011394   -0.4063138  
   0.010999500     0.6243389   -0.4316190  
   0.012999400     0.5578713   -0.4459894  
   0.014999300     0.5013393   -0.4528094  
   0.016999200     0.4523531   -0.4537071  
   0.018999100     0.4114603   -0.4503266  
   0.020999000     0.3775815   -0.4445612  
   0.022998900     0.3486206   -0.4374985  
   0.024998800     0.3185931   -0.4083874  
   0.026998700     0.3022401   -0.4212579  
   0.028998600     0.2830792   -0.4127088  
   0.030998500     0.2656472   -0.4042126  
   0.032998400     0.2458020   -0.3781890  
   0.034998300     0.2338202   -0.3877553  
   0.036998200     0.2194739   -0.3797764  
   0.038998100     0.2058764   -0.3723053  
   0.040998000     0.1928190   -0.3649781  
   0.042997900     0.1801883   -0.3579092  
   0.044997800     0.1667518   -0.3366210  
   0.046997700     0.1553992   -0.3445905  
   0.048997600     0.1439734   -0.3380379  
   0.050997500     0.1331138   -0.3314924  
   0.052997400     0.1229970   -0.3249025  
   0.054997300     0.1128599   -0.3185941  
   0.056997200     0.1033333   -0.3124958  
   0.058997100     0.0944199   -0.3063530  
   0.060997000     0.0859002   -0.3004059  
   0.062996900     0.0779844   -0.2944833  
   0.064996800     0.0706827   -0.2885885  
   0.066996700     0.0638337   -0.2827591  
   0.068996600     0.0574401   -0.2769599  
   0.070996500     0.0515570   -0.2714019  
   0.072996400     0.0460009   -0.2655731  
   0.074996300     0.0408834   -0.2597742  
   0.076996200     0.0361488   -0.2539260  
   0.078996100     0.0317706   -0.2481185  
   0.080996000     0.0276100   -0.2423396  
   0.082995900     0.0237232   -0.2365801  
   0.084995800     0.0200363   -0.2305561  
   0.086995700     0.0168531   -0.2248411  
   0.088995600     0.0139527   -0.2192343  
   0.090995500     0.0113675   -0.2137386  
   0.092995400     0.0090810   -0.2085227  
   0.094995300     0.0070756   -0.2032451  
   0.096995200     0.0052772   -0.1980409  
   0.098995100     0.0036770   -0.1929227  
   0.100995000     0.0012730   -0.1890064  
   0.102994900     0.0001568   -0.1844003  
   0.104994800    -0.0006679   -0.1799754  
   0.106994700    -0.0012412   -0.1756648  
   0.108994600    -0.0016212   -0.1717247  
   0.110994500    -0.0018295   -0.1680405  
   0.112994400    -0.0019235   -0.1646139  
   0.114994300    -0.0018679   -0.1614157  
   0.116994200    -0.0017617   -0.1584654  
   0.118994100    -0.0015354   -0.1557865  
   0.120994000    -0.0011261   -0.1532792  
   0.122993900    -0.0009655   -0.1509846  
   0.124993800    -0.0007267   -0.1490000  
   0.126993700    -0.0005637   -0.1472320  
   0.128993600    -0.0004978   -0.1456363  
   0.130993500    -0.0004690   -0.1442967  
   0.132993400    -0.0005742   -0.1431149  
   0.134993300    -0.0008001   -0.1420669  
   0.136993200    -0.0011996   -0.1411338  
   0.138993100    -0.0017560   -0.1402966  
   0.140993000    -0.0024969   -0.1394937  
   0.142992900    -0.0034506   -0.1386747  
   0.144992800    -0.0045201   -0.1380049  
   0.146992700    -0.0058334   -0.1371965  
   0.148992600    -0.0072721   -0.1363076  
   0.150992500    -0.0088033   -0.1351804  
   0.152992400    -0.0105453   -0.1340611  
   0.154992300    -0.0123433   -0.1327879  
   0.156992200    -0.0142553   -0.1313122  
   0.158992100    -0.0162118   -0.1296373  
   0.160992000    -0.0181865   -0.1277352  
   0.162991900    -0.0201357   -0.1255878  
   0.164991800    -0.0220427   -0.1232042  
   0.166991700    -0.0238159   -0.1205982  
   0.168991600    -0.0254979   -0.1177299  
   0.170991500    -0.0270105   -0.1146527  
   0.172991400    -0.0282386   -0.1113767  
   0.174991300    -0.0291859   -0.1079401  
   0.176991200    -0.0299065   -0.1043209  
   0.178991100    -0.0302607   -0.1006014  
   0.180991000    -0.0302977   -0.0968397  
   0.182990900    -0.0299548   -0.0929823  
   0.184990800    -0.0291838   -0.0891731  
   0.186990700    -0.0280210   -0.0854099  
   0.188990600    -0.0247094   -0.0823406  
   0.190990500    -0.0243051   -0.0783625  
   0.192990400    -0.0221836   -0.0750464  
   0.194990300    -0.0194929   -0.0721282  
   0.196990200    -0.0164723   -0.0695444  
   0.198990100    -0.0131746   -0.0673652  
   0.200990000    -0.0096208   -0.0656310  
   0.202989900    -0.0059054   -0.0643187  
   0.204989800    -0.0020729   -0.0635160  
   0.206989700     0.0018076   -0.0632552  
   0.208989600     0.0057557   -0.0635471  
   0.210989500     0.0096110   -0.0643491  
   0.212989400     0.0133097   -0.0656841  
   0.214989300     0.0168060   -0.0674920  
   0.216989200     0.0200402   -0.0698026  
   0.218989100     0.0229220   -0.0725469  
   0.220989000     0.0254046   -0.0757109  
   0.222988900     0.0274073   -0.0792170  
   0.224988800     0.0289107   -0.0830268  
   0.226988700     0.0298706   -0.0870680  
   0.228988600     0.0303378   -0.0912549  
   0.230988500     0.0302245   -0.0955089  
   0.232988400     0.0295108   -0.0996857  
   0.234988300     0.0282104   -0.1038605  
   0.236988200     0.0263407   -0.1079104  
   0.238988100     0.0239298   -0.1117167  
   0.240988000     0.0210851   -0.1152404  
   0.242987900     0.0178091   -0.1184375  
   0.244987800     0.0141195   -0.1211962  
   0.246987700     0.0100525   -0.1235061  
   0.248987600     0.0057144   -0.1253739  
   0.250987500     0.0011537   -0.1266994  
   0.252987400    -0.0034796   -0.1274828  
   0.254987300    -0.0081448   -0.1278477  
   0.256987200    -0.0127506   -0.1276443  
   0.258987100    -0.0172860   -0.1268121  
   0.260987000    -0.0215862   -0.1254620  
   0.262986900    -0.0257028   -0.1236449  
   0.264986800    -0.0295343   -0.1213921  
   0.266986700    -0.0329968   -0.1187664  
   0.268986600    -0.0360556   -0.1158413  
   0.270986500    -0.0385714   -0.1127587  
   0.272986400    -0.0406092   -0.1095575  
   0.274986300    -0.0422499   -0.1063041  
   0.276986200    -0.0433729   -0.1030204  
   0.278986100    -0.0440690   -0.0997992  
   0.280986000    -0.0442886   -0.0966744  
   0.282985900    -0.0440858   -0.0937731  
   0.284985800    -0.0435308   -0.0911602  
   0.286985700    -0.0426117   -0.0888445  
   0.288985600    -0.0413897   -0.0871057  
   0.290985500    -0.0399878   -0.0858458  
   0.292985400    -0.0384934   -0.0851499  
   0.294985300    -0.0370214   -0.0849892  
   0.296985200    -0.0357102   -0.0852941  
   0.298985100    -0.0346689   -0.0860482  
   0.300985000    -0.0339824   -0.0872859  
   0.302984900    -0.0337394   -0.0890341  
   0.304984800    -0.0340318   -0.0911559  
   0.306984700    -0.0349370   -0.0935940  
   0.308984600    -0.0365216   -0.0963503  
   0.310984500    -0.0389266   -0.0991160  
   0.312984400    -0.0422301   -0.1017431  
   0.314984300    -0.0464929   -0.1040476  
   0.316984200    -0.0518398   -0.1057562  
   0.318984100    -0.0581996   -0.1064240  
   0.320984000    -0.0654539   -0.1056956  
   0.322983900    -0.0731423   -0.1032722  
   0.324983800    -0.0808286   -0.0987941  
   0.326983700    -0.0876811   -0.0923000  
   0.328983600    -0.0929958   -0.0840614  
   0.330983500    -0.0960041   -0.0748052  
   0.332983400    -0.0965159   -0.0655649  
   0.334983300    -0.0947810   -0.0572494  
   0.336983200    -0.0916209   -0.0505301  
   0.338983100    -0.0879002   -0.0454532  
   0.340983000    -0.0843109   -0.0419014  
   0.342982900    -0.0812277   -0.0393531  
   0.344982800    -0.0788446   -0.0372496  
   0.346982700    -0.0771605   -0.0351628  
   0.348982600    -0.0757062   -0.0329181  
   0.350982500    -0.0747381   -0.0304574  
   0.352982400    -0.0738496   -0.0278392  
   0.354982300    -0.0729902   -0.0244802  
   0.356982200    -0.0720502   -0.0197048  
   0.358982100    -0.0705566   -0.0149187  
   0.360982000    -0.0685363   -0.0102927  
   0.362981900    -0.0658633   -0.0059348  
   0.364981800    -0.0626130   -0.0018605  
   0.366981700    -0.0587814    0.0017459  
   0.368981600    -0.0544543    0.0048858  
   0.370981500    -0.0498189    0.0072916  
   0.372981400    -0.0449850    0.0089907  
   0.374981300    -0.0400200    0.0099201  
   0.376981200    -0.0389986   -0.0002727  
   0.378981100    -0.0342217    0.0007534  
   0.380981000    -0.0295032    0.0009190  
   0.382980900    -0.0250152    0.0000053  
   0.384980800    -0.0208801   -0.0016717  
   0.386980700    -0.0170633   -0.0039031  
   0.388980600    -0.0136876   -0.0066499  
   0.390980500    -0.0107821   -0.0098622  
   0.392980400    -0.0084176   -0.0135160  
   0.394980300    -0.0066115   -0.0174391  
   0.396980200    -0.0054698   -0.0215283  
   0.398980100    -0.0049694   -0.0256902  
   0.400980000    -0.0051390   -0.0298102  
   0.402979900    -0.0059920   -0.0338054  
   0.404979800    -0.0073938   -0.0375667  
   0.406979700    -0.0093937   -0.0409991  
   0.408979600    -0.0118965   -0.0440174  
   0.410979500    -0.0149304   -0.0464917  
   0.412979400    -0.0184066   -0.0484862  
   0.414979300    -0.0222062   -0.0496859  
   0.416979200    -0.0262032   -0.0502252  
   0.418979100    -0.0302449   -0.0501013  
   0.420979000    -0.0342591   -0.0492583  
   0.422978900    -0.0381507   -0.0476973  
   0.424978800    -0.0419036   -0.0454909  
   0.426978700    -0.0452957   -0.0426097  
   0.428978600    -0.0482309   -0.0391421  
   0.430978500    -0.0505312   -0.0351367  
   0.432978400    -0.0521465   -0.0306508  
   0.434978300    -0.0530285   -0.0259785  
   0.436978200    -0.0532377   -0.0211108  
   0.438978100    -0.0526521   -0.0161585  
   0.440978000    -0.0513410   -0.0111884  
   0.442977900    -0.0491790   -0.0063866  
   0.444977800    -0.0462777   -0.0018328  
   0.446977700    -0.0426274    0.0023141  
   0.448977600    -0.0383078    0.0059879  
   0.450977500    -0.0333786    0.0090536  
   0.452977400    -0.0279423    0.0114610  
   0.454977300    -0.0221203    0.0131010  
   0.456977200    -0.0160235    0.0138871  
   0.458977100    -0.0097671    0.0137947  
   0.460977000    -0.0034167    0.0127215  
   0.462976900     0.0028173    0.0107197  
   0.464976800     0.0087589    0.0077709  
   0.466976700     0.0143087    0.0039229  
   0.468976600     0.0193360   -0.0007675  
   0.470976500     0.0236891   -0.0062288  
   0.472976400     0.0272864   -0.0123668  
   0.474976300     0.0300032   -0.0190472  
   0.476976200     0.0317757   -0.0261388  
   0.478976100     0.0326256   -0.0336143  
   0.480976000     0.0324840   -0.0411457  
   0.482975900     0.0313112   -0.0485309  
   0.484975800     0.0290953   -0.0557586  
   0.486975700     0.0258471   -0.0626951  
   0.488975600     0.0215545   -0.0692862  
   0.490975500     0.0163480   -0.0752842  
   0.492975400     0.0103627   -0.0803988  
   0.494975300     0.0036621   -0.0846924  
   0.496975200    -0.0037606   -0.0880377  
   0.498975100    -0.0114774   -0.0902887  
   0.500975000    -0.0196060   -0.0914788  
   0.502974900    -0.0277949   -0.0914600  
   0.504974800    -0.0360118   -0.0903105  
   0.506974700    -0.0440992   -0.0879630  
   0.508974600    -0.0520981   -0.0844269  
   0.510974500    -0.0596568   -0.0798508  
   0.512974400    -0.0662912   -0.0742991  
   0.514974300    -0.0719396   -0.0676236  
   0.516974200    -0.0765412   -0.0603941  
   0.518974100    -0.0799705   -0.0525690  
   0.520974000    -0.0821701   -0.0440950  
   0.522973900    -0.0830725   -0.0355690  
   0.524973800    -0.0827361   -0.0271794  
   0.526973700    -0.0811916   -0.0189637  
   0.528973600    -0.0784357   -0.0111703  
   0.530973500    -0.0746054   -0.0039156  
   0.532973400    -0.0697679    0.0025938  
   0.534973300    -0.0640718    0.0082383  
   0.536973200    -0.0576573    0.0129525  
   0.538973100    -0.0506359    0.0166201  
   0.540973000    -0.0432262    0.0192171  
   0.542972900    -0.0356261    0.0206707  
   0.544972800    -0.0279010    0.0210321  
   0.546972700    -0.0202984    0.0201856  
   0.548972600    -0.0129649    0.0182100  
   0.550972500    -0.0059936    0.0151550  
   0.552972400     0.0003683    0.0110077  
   0.554972300     0.0060633    0.0059101  
   0.556972200     0.0109108   -0.0000455  
   0.558972100     0.0148962   -0.0067238  
   0.560972000     0.0178674   -0.0139300  
   0.562971900     0.0196213   -0.0215463  
   0.564971800     0.0203087   -0.0294878  
   0.566971700     0.0196846   -0.0373347  
   0.568971600     0.0178696   -0.0450359  
   0.570971500     0.0148578   -0.0524384  
   0.572971400     0.0106774   -0.0594252  
   0.574971300     0.0052324   -0.0658390  
   0.576971200    -0.0012155   -0.0715587  
   0.578971100    -0.0084765   -0.0764386  
   0.580971000    -0.0164594   -0.0802064  
   0.582970900    -0.0249651   -0.0827625  
   0.584970800    -0.0338579   -0.0840110  
   0.586970700    -0.0429472   -0.0839190  
   0.588970600    -0.0521666   -0.0824548  
   0.590970500    -0.0610989   -0.0796727  
   0.592970400    -0.0696940   -0.0755937  
   0.594970300    -0.0777810   -0.0704067  
   0.596970200    -0.0850928   -0.0640722  
   0.598970100    -0.0915400   -0.0566885  
   0.600970000    -0.0970132   -0.0484012  
   0.602969900    -0.1013148   -0.0393356  
   0.604969800    -0.1044417   -0.0296776  
   0.606969700    -0.1062339   -0.0195619  
   0.608969600    -0.1066354   -0.0091897  
   0.610969500    -0.1056127    0.0012362  
   0.612969400    -0.1031399    0.0114815  
   0.614969300    -0.0992395    0.0213328  
   0.616969200    -0.0941237    0.0305738  
   0.618969100    -0.0877761    0.0390622  
   0.620969000    -0.0804189    0.0466573  
   0.622968900    -0.0720357    0.0532011  
   0.624968800    -0.0628604    0.0585760  
   0.626968700    -0.0530034    0.0625845  
   0.628968600    -0.0427323    0.0654157  
   0.630968500    -0.0320620    0.0668979  
   0.632968400    -0.0214596    0.0666732  
   0.634968300    -0.0109731    0.0650894  
   0.636968200    -0.0008348    0.0619330  
   0.638968100     0.0088450    0.0573423  
   0.640968000     0.0178137    0.0515128  
   0.642967900     0.0256828    0.0446601  
   0.644967800     0.0324548    0.0368308  
   0.646967700     0.0380122    0.0281752  
   0.648967600     0.0422441    0.0189670  
   0.650967500     0.0450825    0.0093416  
   0.652967400     0.0464763   -0.0004330  
   0.654967300     0.0465238   -0.0103805  
   0.656967200     0.0452085   -0.0199552  
   0.658967100     0.0423499   -0.0293038  
   0.660967000     0.0382131   -0.0380566  
   0.662966900     0.0329558   -0.0460421  
   0.664966800     0.0266247   -0.0531849  
   0.666966700     0.0193651   -0.0593557  
   0.668966600     0.0113244   -0.0642606  
   0.670966500     0.0024355   -0.0679811  
   0.672966400    -0.0063739   -0.0704024  
   0.674966300    -0.0154194   -0.0712904  
   0.676966200    -0.0244207   -0.0707743  
   0.678966100    -0.0331343   -0.0688865  
   0.680966000    -0.0413911   -0.0657398  
   0.682965900    -0.0489906   -0.0613887  
   0.684965800    -0.0558272   -0.0559724  
   0.686965700    -0.0617326   -0.0496112  
   0.688965600    -0.0665680   -0.0424758  
   0.690965500    -0.0702667   -0.0348563  
   0.692965400    -0.0726816   -0.0267566  
   0.694965300    -0.0738604   -0.0184683  
   0.696965200    -0.0737388   -0.0101442  
   0.698965100    -0.0723077   -0.0019608  
   0.700965000    -0.0695642    0.0057865  
   0.702964900    -0.0657565    0.0130818  
   0.704964800    -0.0608792    0.0197455  
   0.706964700    -0.0550212    0.0253688  
   0.708964600    -0.0480968    0.0301527  
   0.710964500    -0.0407595    0.0338320  
   0.712964400    -0.0329300    0.0361417  
   0.714964300    -0.0248173    0.0371543  
   0.716964200    -0.0167921    0.0369461  
   0.718964100    -0.0088899    0.0354831  
   0.720964000    -0.0014737    0.0328732  
   0.722963900     0.0054740    0.0291252  
   0.724963800     0.0118235    0.0241830  
   0.726963700     0.0173519    0.0185558  
   0.728963600     0.0218422    0.0121961  
   0.730963500     0.0251445    0.0049784  
   0.732963400     0.0273930   -0.0024760  
   0.734963300     0.0285716   -0.0102871  
   0.736963200     0.0291411   -0.0193310  
   0.738963100     0.0281204   -0.0282018  
   0.740963000     0.0255954   -0.0367077  
   0.742962900     0.0215988   -0.0447067  
   0.744962800     0.0161707   -0.0517242  
   0.746962700     0.0098608   -0.0575339  
   0.748962600     0.0027066   -0.0621935  
   0.750962500     0.0001066   -0.0603224  
   0.752962400    -0.0072370   -0.0646055  
   0.754962300    -0.0152634   -0.0675190  
   0.756962200    -0.0237509   -0.0689090  
   0.758962100    -0.0324210   -0.0687469  
   0.760962000    -0.0410449   -0.0670365  
   0.762961900    -0.0491650   -0.0640862  
   0.764961800    -0.0565397   -0.0604485  
   0.766961700    -0.0633830   -0.0557804  
   0.768961600    -0.0694975   -0.0501522  
   0.770961500    -0.0748134   -0.0437254  
   0.772961400    -0.0792080   -0.0366019  
   0.774961300    -0.0826640   -0.0288681  
   0.776961200    -0.0850240   -0.0206308  
   0.778961100    -0.0860523   -0.0122307  
   0.780961000    -0.0858624   -0.0038778  
   0.782960900    -0.0844254    0.0043757  
   0.784960800    -0.0816633    0.0123825  
   0.786960700    -0.0776634    0.0198973  
   0.788960600    -0.0726640    0.0267213  
   0.790960500    -0.0665508    0.0329662  
   0.792960400    -0.0597312    0.0380247  
   0.794960300    -0.0521574    0.0420038  
   0.796960200    -0.0442685    0.0448301  
   0.798960100    -0.0360373    0.0463643  
   0.800960000    -0.0276100    0.0465905  
   0.802959900    -0.0193669    0.0455547  
   0.804959800    -0.0115087    0.0432991  
   0.806959700    -0.0042753    0.0398611  
   0.808959600     0.0024267    0.0352913  
   0.810959500     0.0082850    0.0297141  
   0.812959400     0.0132706    0.0232825  
   0.814959300     0.0171112    0.0160833  
   0.816959200     0.0197956    0.0083800  
   0.818959100     0.0213617    0.0001434  
   0.820959000     0.0215082   -0.0081142  
   0.822958900     0.0203591   -0.0163242  
   0.824958800     0.0178906   -0.0244219  
   0.826958700     0.0141787   -0.0320669  
   0.828958600     0.0092780   -0.0389609  
   0.830958500     0.0032990   -0.0450640  
   0.832958400    -0.0036315   -0.0502012  
   0.834958300    -0.0113995   -0.0542387  
   0.836958200    -0.0197570   -0.0570789  
   0.838958100    -0.0285373   -0.0586133  
   0.840958000    -0.0375490   -0.0588370  
   0.842957900    -0.0465718   -0.0576666  
   0.844957800    -0.0554408   -0.0550569  
   0.846957700    -0.0639055   -0.0511269  
   0.848957600    -0.0716874   -0.0459671  
   0.850957500    -0.0787601   -0.0396758  
   0.852957400    -0.0849007   -0.0322430  
   0.854957300    -0.0898437   -0.0238798  
   0.856957200    -0.0935597   -0.0149570  
   0.858957100    -0.0959815   -0.0055620  
   0.860957000    -0.0970321    0.0041141  
   0.862956900    -0.0966802    0.0138418  
   0.864956800    -0.0952087    0.0233157  
   0.866956700    -0.0924600    0.0324433  
   0.868956600    -0.0883991    0.0410001  
   0.870956500    -0.0832386    0.0489155  
   0.872956400    -0.0769270    0.0561162  
   0.874956300    -0.0697009    0.0623848  
   0.876956200    -0.0615683    0.0675235  
   0.878956100    -0.0527181    0.0714558  
   0.880956000    -0.0433534    0.0740679  
   0.882955900    -0.0337855    0.0753585  
   0.884955800    -0.0241807    0.0752548  
   0.886955700    -0.0145731    0.0737772  
   0.888955600    -0.0054194    0.0709473  
   0.890955500     0.0030821    0.0669180  
   0.892955400     0.0107653    0.0617055  
   0.894955300     0.0175150    0.0554579  
