! MS46122B
! 2250307/22442219
! 7/26/2025 10:29:32 AM
! C:\USERS\SPARKY\DOCUMENTS\VNA_DATA\JULY26_2025\295K\ECAL_LOAD_E_REPEAT1.S1P
! CHANNEL.1
! TR.MEASUREMENT
! RAW.DATA
# GHZ S RI R 50.0
! FREQ.GHZ         S11RE         S11IM         
!; PortSelection: Port_1
   0.001000000     1.0454420   -0.0722259  
   0.002999900     0.9525194   -0.1944560  
   0.004999800     0.8770322   -0.2784695  
   0.006999700     0.7922041   -0.3677896  
   0.008999600     0.7006420   -0.4059527  
   0.010999500     0.6239963   -0.4312853  
   0.012999400     0.5574698   -0.4456919  
   0.014999300     0.5007217   -0.4524297  
   0.016999200     0.4520530   -0.4535556  
   0.018999100     0.4110897   -0.4501827  
   0.020999000     0.3771561   -0.4444449  
   0.022998900     0.3482446   -0.4374085  
   0.024998800     0.3182009   -0.4084562  
   0.026998700     0.3018249   -0.4213304  
   0.028998600     0.2826217   -0.4128069  
   0.030998500     0.2651610   -0.4043750  
   0.032998400     0.2453543   -0.3783711  
   0.034998300     0.2333258   -0.3879877  
   0.036998200     0.2189098   -0.3800146  
   0.038998100     0.2052862   -0.3725063  
   0.040998000     0.1922103   -0.3652126  
   0.042997900     0.1795499   -0.3581329  
   0.044997800     0.1661475   -0.3368870  
   0.046997700     0.1547259   -0.3448332  
   0.048997600     0.1433196   -0.3382538  
   0.050997500     0.1324306   -0.3317145  
   0.052997400     0.1224950   -0.3249831  
   0.054997300     0.1120753   -0.3189075  
   0.056997200     0.1026167   -0.3127183  
   0.058997100     0.0937095   -0.3065759  
   0.060997000     0.0851666   -0.3006187  
   0.062996900     0.0772522   -0.2946969  
   0.064996800     0.0699353   -0.2888294  
   0.066996700     0.0630801   -0.2829978  
   0.068996600     0.0566787   -0.2771981  
   0.070996500     0.0507655   -0.2716509  
   0.072996400     0.0452010   -0.2658284  
   0.074996300     0.0400996   -0.2600203  
   0.076996200     0.0353507   -0.2542178  
   0.078996100     0.0309401   -0.2484158  
   0.080996000     0.0267807   -0.2426329  
   0.082995900     0.0228524   -0.2369113  
   0.084995800     0.0191438   -0.2308532  
   0.086995700     0.0159708   -0.2251455  
   0.088995600     0.0130811   -0.2195779  
   0.090995500     0.0104167   -0.2140605  
   0.092995400     0.0081569   -0.2088694  
   0.094995300     0.0061111   -0.2035603  
   0.096995200     0.0042705   -0.1983729  
   0.098995100     0.0027204   -0.1932955  
   0.100995000     0.0002269   -0.1893131  
   0.102994900    -0.0009035   -0.1846809  
   0.104994800    -0.0017156   -0.1802572  
   0.106994700    -0.0023400   -0.1759401  
   0.108994600    -0.0027480   -0.1719702  
   0.110994500    -0.0029627   -0.1682531  
   0.112994400    -0.0030619   -0.1648004  
   0.114994300    -0.0030428   -0.1615895  
   0.116994200    -0.0028902   -0.1586258  
   0.118994100    -0.0026862   -0.1559211  
   0.120994000    -0.0023061   -0.1534030  
   0.122993900    -0.0021556   -0.1510697  
   0.124993800    -0.0018853   -0.1490661  
   0.126993700    -0.0017028   -0.1472616  
   0.128993600    -0.0016269   -0.1456598  
   0.130993500    -0.0015927   -0.1442905  
   0.132993400    -0.0016751   -0.1430805  
   0.134993300    -0.0018805   -0.1420259  
   0.136993200    -0.0022525   -0.1410786  
   0.138993100    -0.0028418   -0.1402167  
   0.140993000    -0.0035539   -0.1394124  
   0.142992900    -0.0044742   -0.1386054  
   0.144992800    -0.0055476   -0.1379234  
   0.146992700    -0.0068299   -0.1371133  
   0.148992600    -0.0082341   -0.1362307  
   0.150992500    -0.0097732   -0.1351240  
   0.152992400    -0.0114886   -0.1340127  
   0.154992300    -0.0132983   -0.1327408  
   0.156992200    -0.0152107   -0.1312582  
   0.158992100    -0.0171542   -0.1295897  
   0.160992000    -0.0191302   -0.1276920  
   0.162991900    -0.0210814   -0.1255785  
   0.164991800    -0.0230036   -0.1232020  
   0.166991700    -0.0247826   -0.1205998  
   0.168991600    -0.0264615   -0.1177374  
   0.170991500    -0.0279800   -0.1146580  
   0.172991400    -0.0292338   -0.1113857  
   0.174991300    -0.0302243   -0.1079339  
   0.176991200    -0.0308976   -0.1043087  
   0.178991100    -0.0312901   -0.1005756  
   0.180991000    -0.0313317   -0.0968099  
   0.182990900    -0.0309929   -0.0929349  
   0.184990800    -0.0302442   -0.0890980  
   0.186990700    -0.0290987   -0.0853311  
   0.188990600    -0.0257761   -0.0822510  
   0.190990500    -0.0253661   -0.0782322  
   0.192990400    -0.0232526   -0.0748848  
   0.194990300    -0.0205432   -0.0719391  
   0.196990200    -0.0175341   -0.0693410  
   0.198990100    -0.0142077   -0.0671308  
   0.200990000    -0.0106594   -0.0653502  
   0.202989900    -0.0069142   -0.0640293  
   0.204989800    -0.0030604   -0.0632202  
   0.206989700     0.0008497   -0.0629549  
   0.208989600     0.0048103   -0.0631999  
   0.210989500     0.0086816   -0.0639877  
   0.212989400     0.0124282   -0.0653216  
   0.214989300     0.0159664   -0.0671367  
   0.216989200     0.0192447   -0.0694283  
   0.218989100     0.0221443   -0.0721806  
   0.220989000     0.0246450   -0.0753496  
   0.222988900     0.0266812   -0.0788690  
   0.224988800     0.0282094   -0.0826959  
   0.226988700     0.0292135   -0.0867516  
   0.228988600     0.0296904   -0.0909490  
   0.230988500     0.0296077   -0.0952347  
   0.232988400     0.0288959   -0.0994368  
   0.234988300     0.0276101   -0.1036512  
   0.236988200     0.0257449   -0.1077149  
   0.238988100     0.0233538   -0.1115566  
   0.240988000     0.0204937   -0.1151098  
   0.242987900     0.0172050   -0.1183290  
   0.244987800     0.0135133   -0.1211166  
   0.246987700     0.0094234   -0.1234502  
   0.248987600     0.0050896   -0.1253459  
   0.250987500     0.0004957   -0.1267126  
   0.252987400    -0.0041555   -0.1274980  
   0.254987300    -0.0088600   -0.1278500  
   0.256987200    -0.0134740   -0.1276765  
   0.258987100    -0.0180335   -0.1268429  
   0.260987000    -0.0223792   -0.1254936  
   0.262986900    -0.0265139   -0.1236709  
   0.264986800    -0.0303856   -0.1214027  
   0.266986700    -0.0338572   -0.1187695  
   0.268986600    -0.0369444   -0.1158151  
   0.270986500    -0.0394504   -0.1127453  
   0.272986400    -0.0415869   -0.1095202  
   0.274986300    -0.0431878   -0.1062252  
   0.276986200    -0.0443810   -0.1029343  
   0.278986100    -0.0450284   -0.0996653  
   0.280986000    -0.0452198   -0.0965307  
   0.282985900    -0.0450487   -0.0935816  
   0.284985800    -0.0444850   -0.0909545  
   0.286985700    -0.0435517   -0.0886360  
   0.288985600    -0.0423469   -0.0868843  
   0.290985500    -0.0409416   -0.0856259  
   0.292985400    -0.0394005   -0.0848675  
   0.294985300    -0.0379279   -0.0846971  
   0.296985200    -0.0366060   -0.0849939  
   0.298985100    -0.0355540   -0.0857518  
   0.300985000    -0.0348620   -0.0869911  
   0.302984900    -0.0346090   -0.0887154  
   0.304984800    -0.0348943   -0.0908644  
   0.306984700    -0.0358158   -0.0932911  
   0.308984600    -0.0374268   -0.0960674  
   0.310984500    -0.0398245   -0.0988193  
   0.312984400    -0.0431454   -0.1014436  
   0.314984300    -0.0474301   -0.1037342  
   0.316984200    -0.0527974   -0.1054190  
   0.318984100    -0.0592496   -0.1060570  
   0.320984000    -0.0664599   -0.1052614  
   0.322983900    -0.0741346   -0.1027626  
   0.324983800    -0.0817397   -0.0981964  
   0.326983700    -0.0885277   -0.0916126  
   0.328983600    -0.0937098   -0.0833973  
   0.330983500    -0.0966077   -0.0741569  
   0.332983400    -0.0969469   -0.0650337  
   0.334983300    -0.0951721   -0.0568320  
   0.336983200    -0.0920479   -0.0502104  
   0.338983100    -0.0883924   -0.0452949  
   0.340983000    -0.0848408   -0.0418329  
   0.342982900    -0.0819037   -0.0393112  
   0.344982800    -0.0795642   -0.0372458  
   0.346982700    -0.0778977   -0.0351663  
   0.348982600    -0.0766184   -0.0328899  
   0.350982500    -0.0757102   -0.0304043  
   0.352982400    -0.0748412   -0.0277236  
   0.354982300    -0.0740911   -0.0243349  
   0.356982200    -0.0731556   -0.0194615  
   0.358982100    -0.0717372   -0.0146338  
   0.360982000    -0.0696917   -0.0099277  
   0.362981900    -0.0670176   -0.0054869  
   0.364981800    -0.0637294   -0.0013293  
   0.366981700    -0.0599294    0.0023266  
   0.368981600    -0.0555131    0.0055051  
   0.370981500    -0.0508143    0.0080067  
   0.372981400    -0.0459385    0.0097629  
   0.374981300    -0.0409202    0.0107432  
   0.376981200    -0.0400797    0.0002507  
   0.378981100    -0.0352694    0.0013299  
   0.380981000    -0.0305104    0.0015403  
   0.382980900    -0.0260050    0.0006379  
   0.384980800    -0.0218208   -0.0010334  
   0.386980700    -0.0179765   -0.0032742  
   0.388980600    -0.0145636   -0.0060059  
   0.390980500    -0.0116417   -0.0092405  
   0.392980400    -0.0092480   -0.0128907  
   0.394980300    -0.0074394   -0.0168390  
   0.396980200    -0.0062692   -0.0209584  
   0.398980100    -0.0057826   -0.0251361  
   0.400980000    -0.0059363   -0.0292944  
   0.402979900    -0.0067882   -0.0333032  
   0.404979800    -0.0082060   -0.0371017  
   0.406979700    -0.0102347   -0.0405610  
   0.408979600    -0.0127557   -0.0435688  
   0.410979500    -0.0158116   -0.0460967  
   0.412979400    -0.0193125   -0.0480855  
   0.414979300    -0.0231455   -0.0492930  
   0.416979200    -0.0271612   -0.0498491  
   0.418979100    -0.0312460   -0.0497201  
   0.420979000    -0.0352831   -0.0488698  
   0.422978900    -0.0392391   -0.0473134  
   0.424978800    -0.0430372   -0.0450980  
   0.426978700    -0.0464776   -0.0422091  
   0.428978600    -0.0494260   -0.0387168  
   0.430978500    -0.0517532   -0.0346702  
   0.432978400    -0.0533882   -0.0302024  
   0.434978300    -0.0542856   -0.0254368  
   0.436978200    -0.0544833   -0.0205416  
   0.438978100    -0.0539512   -0.0155184  
   0.440978000    -0.0526218   -0.0105295  
   0.442977900    -0.0504787   -0.0056702  
   0.444977800    -0.0475749   -0.0010949  
   0.446977700    -0.0439228    0.0031271  
   0.448977600    -0.0395876    0.0068427  
   0.450977500    -0.0346331    0.0099462  
   0.452977400    -0.0291649    0.0123711  
   0.454977300    -0.0233310    0.0140517  
   0.456977200    -0.0171902    0.0148658  
   0.458977100    -0.0108948    0.0147719  
   0.460977000    -0.0045058    0.0137342  
   0.462976900     0.0017643    0.0117353  
   0.464976800     0.0077505    0.0087994  
   0.466976700     0.0133374    0.0049462  
   0.468976600     0.0183995    0.0002587  
   0.470976500     0.0227853   -0.0052158  
   0.472976400     0.0264123   -0.0113915  
   0.474976300     0.0291518   -0.0180817  
   0.476976200     0.0309504   -0.0251991  
   0.478976100     0.0318323   -0.0326817  
   0.480976000     0.0316937   -0.0402819  
   0.482975900     0.0305249   -0.0476883  
   0.484975800     0.0283249   -0.0549517  
   0.486975700     0.0250238   -0.0619405  
   0.488975600     0.0207217   -0.0685662  
   0.490975500     0.0154770   -0.0745508  
   0.492975400     0.0095194   -0.0796960  
   0.494975300     0.0027334   -0.0840115  
   0.496975200    -0.0047005   -0.0873805  
   0.498975100    -0.0125024   -0.0896419  
   0.500975000    -0.0206040   -0.0908076  
   0.502974900    -0.0288540   -0.0908276  
   0.504974800    -0.0371129   -0.0896435  
   0.506974700    -0.0452092   -0.0872590  
   0.508974600    -0.0532963   -0.0837269  
   0.510974500    -0.0608537   -0.0791697  
   0.512974400    -0.0674850   -0.0734953  
   0.514974300    -0.0731007   -0.0668248  
   0.516974200    -0.0777425   -0.0595288  
   0.518974100    -0.0811853   -0.0516668  
   0.520974000    -0.0833678   -0.0431591  
   0.522973900    -0.0842701   -0.0345989  
   0.524973800    -0.0839455   -0.0261609  
   0.526973700    -0.0823702   -0.0179431  
   0.528973600    -0.0796142   -0.0101117  
   0.530973500    -0.0757584   -0.0028433  
   0.532973400    -0.0708967    0.0036921  
   0.534973300    -0.0651753    0.0093601  
   0.536973200    -0.0587477    0.0140924  
   0.538973100    -0.0517145    0.0177850  
   0.540973000    -0.0442734    0.0204033  
   0.542972900    -0.0366183    0.0218943  
   0.544972800    -0.0288697    0.0222642  
   0.546972700    -0.0212505    0.0214028  
   0.548972600    -0.0138674    0.0194203  
   0.550972500    -0.0068641    0.0163541  
   0.552972400    -0.0004528    0.0122288  
   0.554972300     0.0052661    0.0071305  
   0.556972200     0.0101341    0.0011364  
   0.558972100     0.0141563   -0.0055594  
   0.560972000     0.0171354   -0.0128081  
   0.562971900     0.0188944   -0.0204243  
   0.564971800     0.0196297   -0.0284210  
   0.566971700     0.0190083   -0.0362820  
   0.568971600     0.0171854   -0.0440434  
   0.570971500     0.0141839   -0.0514829  
   0.572971400     0.0099999   -0.0584965  
   0.574971300     0.0045243   -0.0649485  
   0.576971200    -0.0019293   -0.0706913  
   0.578971100    -0.0092193   -0.0755308  
   0.580971000    -0.0172162   -0.0793798  
   0.582970900    -0.0257646   -0.0819520  
   0.584970800    -0.0346770   -0.0831866  
   0.586970700    -0.0438314   -0.0830780  
   0.588970600    -0.0530566   -0.0816256  
   0.590970500    -0.0620305   -0.0788128  
   0.592970400    -0.0706445   -0.0747312  
   0.594970300    -0.0787618   -0.0695159  
   0.596970200    -0.0861059   -0.0631643  
   0.598970100    -0.0925710   -0.0557396  
   0.600970000    -0.0980460   -0.0474171  
   0.602969900    -0.1023775   -0.0383190  
   0.604969800    -0.1055027   -0.0286021  
   0.606969700    -0.1072920   -0.0184445  
   0.608969600    -0.1076840   -0.0080125  
   0.610969500    -0.1066329    0.0024492  
   0.612969400    -0.1041463    0.0127477  
   0.614969300    -0.1002178    0.0226138  
   0.616969200    -0.0950450    0.0319046  
   0.618969100    -0.0886756    0.0404388  
   0.620969000    -0.0812540    0.0480569  
   0.622968900    -0.0728217    0.0546335  
   0.624968800    -0.0635963    0.0600196  
   0.626968700    -0.0536650    0.0640417  
   0.628968600    -0.0433171    0.0668823  
   0.630968500    -0.0326226    0.0683745  
   0.632968400    -0.0219642    0.0681404  
   0.634968300    -0.0114333    0.0665317  
   0.636968200    -0.0012386    0.0633473  
   0.638968100     0.0084917    0.0587866  
   0.640968000     0.0175474    0.0528380  
   0.642967900     0.0254451    0.0459168  
   0.644967800     0.0322757    0.0380525  
   0.646967700     0.0378544    0.0293537  
   0.648967600     0.0421127    0.0200755  
   0.650967500     0.0449570    0.0104169  
   0.652967400     0.0463606    0.0005780  
   0.654967300     0.0463859   -0.0094311  
   0.656967200     0.0450838   -0.0190627  
   0.658967100     0.0422186   -0.0284080  
   0.660967000     0.0380657   -0.0372437  
   0.662966900     0.0327654   -0.0452586  
   0.664966800     0.0264078   -0.0524498  
   0.666966700     0.0191058   -0.0586005  
   0.668966600     0.0110529   -0.0635825  
   0.670966500     0.0021524   -0.0672950  
   0.672966400    -0.0067119   -0.0697340  
   0.674966300    -0.0158044   -0.0706253  
   0.676966200    -0.0248183   -0.0701017  
   0.678966100    -0.0335574   -0.0682103  
   0.680966000    -0.0418409   -0.0650501  
   0.682965900    -0.0494816   -0.0606907  
   0.684965800    -0.0563496   -0.0552424  
   0.686965700    -0.0622835   -0.0488423  
   0.688965600    -0.0671083   -0.0416799  
   0.690965500    -0.0708115   -0.0340336  
   0.692965400    -0.0732414   -0.0259078  
   0.694965300    -0.0743938   -0.0175642  
   0.696965200    -0.0742593   -0.0092263  
   0.698965100    -0.0728319   -0.0010284  
   0.700965000    -0.0700445    0.0067598  
   0.702964900    -0.0662057    0.0141101  
   0.704964800    -0.0612862    0.0207732  
   0.706964700    -0.0553936    0.0264002  
   0.708964600    -0.0484096    0.0311694  
   0.710964500    -0.0409736    0.0348536  
   0.712964400    -0.0331819    0.0371668  
   0.714964300    -0.0250012    0.0381571  
   0.716964200    -0.0168826    0.0379220  
   0.718964100    -0.0089891    0.0364438  
   0.720964000    -0.0015242    0.0338218  
   0.722963900     0.0054321    0.0299898  
   0.724963800     0.0118534    0.0250586  
   0.726963700     0.0174177    0.0194354  
   0.728963600     0.0219044    0.0129720  
   0.730963500     0.0252064    0.0057056  
   0.732963400     0.0274656   -0.0017901  
   0.734963300     0.0286288   -0.0096495  
   0.736963200     0.0292049   -0.0187617  
   0.738963100     0.0281974   -0.0276658  
   0.740963000     0.0256612   -0.0361807  
   0.742962900     0.0216629   -0.0442393  
   0.744962800     0.0162138   -0.0512931  
   0.746962700     0.0098598   -0.0571135  
   0.748962600     0.0026891   -0.0617990  
   0.750962500    -0.0000608   -0.0599935  
   0.752962400    -0.0074567   -0.0643113  
   0.754962300    -0.0154977   -0.0672130  
   0.756962200    -0.0240329   -0.0686232  
   0.758962100    -0.0327448   -0.0684710  
   0.760962000    -0.0414064   -0.0667452  
   0.762961900    -0.0495833   -0.0637565  
   0.764961800    -0.0569889   -0.0600980  
   0.766961700    -0.0638561   -0.0553985  
   0.768961600    -0.0700329   -0.0497499  
   0.770961500    -0.0753564   -0.0432692  
   0.772961400    -0.0797616   -0.0360907  
   0.774961300    -0.0832439   -0.0283040  
   0.776961200    -0.0856147   -0.0199845  
   0.778961100    -0.0866307   -0.0115666  
   0.780961000    -0.0864460   -0.0031692  
   0.782960900    -0.0849604    0.0051528  
   0.784960800    -0.0821724    0.0131630  
   0.786960700    -0.0781614    0.0207113  
   0.788960600    -0.0730739    0.0276719  
   0.790960500    -0.0669430    0.0338504  
   0.792960400    -0.0600822    0.0389423  
   0.794960300    -0.0524655    0.0429443  
   0.796960200    -0.0444928    0.0457493  
   0.798960100    -0.0362511    0.0473067  
   0.800960000    -0.0277525    0.0474881  
   0.802959900    -0.0194636    0.0464464  
   0.804959800    -0.0115806    0.0441548  
   0.806959700    -0.0043279    0.0406835  
   0.808959600     0.0023980    0.0360573  
   0.810959500     0.0082900    0.0304497  
   0.812959400     0.0132964    0.0239836  
   0.814959300     0.0171511    0.0167700  
   0.816959200     0.0198152    0.0089844  
   0.818959100     0.0213794    0.0007257  
   0.820959000     0.0215211   -0.0075819  
   0.822958900     0.0203263   -0.0158411  
   0.824958800     0.0178269   -0.0239579  
   0.826958700     0.0140913   -0.0316372  
   0.828958600     0.0091514   -0.0385603  
   0.830958500     0.0031216   -0.0446756  
   0.832958400    -0.0038588   -0.0498311  
   0.834958300    -0.0116559   -0.0538630  
   0.836958200    -0.0200608   -0.0566909  
   0.838958100    -0.0289007   -0.0582267  
   0.840958000    -0.0379434   -0.0584104  
   0.842957900    -0.0470135   -0.0572410  
   0.844957800    -0.0559709   -0.0545611  
   0.846957700    -0.0644330   -0.0506016  
   0.848957600    -0.0722432   -0.0453819  
   0.850957500    -0.0793339   -0.0390563  
   0.852957400    -0.0854881   -0.0314471  
   0.854957300    -0.0904591   -0.0231301  
   0.856957200    -0.0941719   -0.0141457  
   0.858957100    -0.0965709   -0.0046831  
   0.860957000    -0.0975873    0.0050578  
   0.862956900    -0.0972794    0.0148234  
   0.864956800    -0.0957242    0.0243742  
   0.866956700    -0.0929584    0.0335434  
   0.868956600    -0.0888521    0.0421315  
   0.870956500    -0.0836262    0.0500969  
   0.872956400    -0.0772603    0.0573392  
   0.874956300    -0.0699748    0.0636170  
   0.876956200    -0.0617489    0.0688031  
   0.878956100    -0.0529207    0.0726558  
   0.880956000    -0.0434655    0.0753223  
   0.882955900    -0.0338081    0.0766039  
   0.884955800    -0.0241137    0.0764894  
   0.886955700    -0.0145046    0.0749751  
   0.888955600    -0.0052503    0.0721311  
   0.890955500     0.0032816    0.0680487  
   0.892955400     0.0109770    0.0627557  
   0.894955300     0.0177398    0.0564994  
