! MS46122B
! 2250307/22442219
! 7/26/2025 10:19:28 AM
! C:\USERS\SPARKY\DOCUMENTS\VNA_DATA\JULY26_2025\295K\ECAL_OPEN_E.S1P
! CHANNEL.1
! TR.MEASUREMENT
! RAW.DATA
# GHZ S RI R 50.0
! FREQ.GHZ         S11RE         S11IM         
!; PortSelection: Port_1
   0.001000000     1.0453880   -0.0727387  
   0.002999900     0.9479672   -0.2220888  
   0.004999800     0.8071573   -0.0891828  
   0.006999700     0.5287025   -0.4056281  
   0.008999600     0.9395951    0.0024699  
   0.010999500     0.9264539   -0.2258619  
   0.012999400     0.8871678   -0.3347648  
   0.014999300     0.8474448   -0.4167712  
   0.016999200     0.8075227   -0.4874217  
   0.018999100     0.7650340   -0.5530146  
   0.020999000     0.7185877   -0.6140589  
   0.022998900     0.6670630   -0.6699162  
   0.024998800     0.6012447   -0.6861173  
   0.026998700     0.5481022   -0.7682279  
   0.028998600     0.4790416   -0.8097537  
   0.030998500     0.4033267   -0.8448846  
   0.032998400     0.3231498   -0.8386475  
   0.034998300     0.2306161   -0.8927259  
   0.036998200     0.1341509   -0.9023297  
   0.038998100     0.0317491   -0.9005437  
   0.040998000    -0.0755267   -0.8847221  
   0.042997900    -0.1864625   -0.8538259  
   0.044997800    -0.2765361   -0.7831855  
   0.046997700    -0.4099928   -0.7349994  
   0.048997600    -0.5157722   -0.6438504  
   0.050997500    -0.6117277   -0.5282013  
   0.052997400    -0.6904721   -0.3878010  
   0.054997300    -0.7444545   -0.2230375  
   0.056997200    -0.7633008   -0.0372744  
   0.058997100    -0.7375054    0.1593502  
   0.060997000    -0.6606267    0.3537159  
   0.062996900    -0.5313151    0.5290568  
   0.064996800    -0.3556519    0.6668341  
   0.066996700    -0.1483860    0.7534330  
   0.068996600     0.0714148    0.7803504  
   0.070996500     0.2850323    0.7501947  
   0.072996400     0.4754951    0.6701769  
   0.074996300     0.6318766    0.5534289  
   0.076996200     0.7501405    0.4130000  
   0.078996100     0.8304372    0.2616040  
   0.080996000     0.8755482    0.1073668  
   0.082995900     0.8904458   -0.0421533  
   0.084995800     0.8787342   -0.1819852  
   0.086995700     0.8473403   -0.3102720  
   0.088995600     0.7989434   -0.4259585  
   0.090995500     0.7376454   -0.5279199  
   0.092995400     0.6669677   -0.6174693  
   0.094995300     0.5870106   -0.6929477  
   0.096995200     0.5014897   -0.7554041  
   0.098995100     0.4106259   -0.8059134  
   0.100995000     0.3164915   -0.8440775  
   0.102994900     0.2200533   -0.8704427  
   0.104994800     0.1222440   -0.8852717  
   0.106994700     0.0235867   -0.8884547  
   0.108994600    -0.0746784   -0.8811689  
   0.110994500    -0.1719590   -0.8624431  
   0.112994400    -0.2670870   -0.8322570  
   0.114994300    -0.3596121   -0.7907205  
   0.116994200    -0.4478049   -0.7378287  
   0.118994100    -0.5302316   -0.6728609  
   0.120994000    -0.6073425   -0.5977377  
   0.122993900    -0.6749339   -0.5099764  
   0.124993800    -0.7321579   -0.4111818  
   0.126993700    -0.7774064   -0.3018284  
   0.128993600    -0.8061443   -0.1835200  
   0.130993500    -0.8189788   -0.0578825  
   0.132993400    -0.8130684    0.0731622  
   0.134993300    -0.7857087    0.2065009  
   0.136993200    -0.7351614    0.3379887  
   0.138993100    -0.6608080    0.4638937  
   0.140993000    -0.5628457    0.5783461  
   0.142992900    -0.4423918    0.6764439  
   0.144992800    -0.3030012    0.7535216  
   0.146992700    -0.1479735    0.8026428  
   0.148992600     0.0161704    0.8211975  
   0.150992500     0.1812332    0.8064262  
   0.152992400     0.3412707    0.7606453  
   0.154992300     0.4882125    0.6852405  
   0.156992200     0.6167200    0.5837401  
   0.158992100     0.7216254    0.4619299  
   0.160992000     0.7998865    0.3253222  
   0.162991900     0.8507931    0.1800658  
   0.164991800     0.8744258    0.0323259  
   0.166991700     0.8722579   -0.1126509  
   0.168991600     0.8463814   -0.2505102  
   0.170991500     0.7997770   -0.3787836  
   0.172991400     0.7352833   -0.4939604  
   0.174991300     0.6569917   -0.5945877  
   0.176991200     0.5667032   -0.6804916  
   0.178991100     0.4674914   -0.7501804  
   0.180991000     0.3626115   -0.8048328  
   0.182990900     0.2530736   -0.8423891  
   0.184990800     0.1412107   -0.8645814  
   0.186990700     0.0288602   -0.8717397  
   0.188990600    -0.0575151   -0.8648240  
   0.190990500    -0.1860664   -0.8416581  
   0.192990400    -0.2932306   -0.8048734  
   0.194990300    -0.3912920   -0.7554899  
   0.196990200    -0.4819246   -0.6942104  
   0.198990100    -0.5638696   -0.6211162  
   0.200990000    -0.6365398   -0.5370184  
   0.202989900    -0.6980082   -0.4424299  
   0.204989800    -0.7469417   -0.3394821  
   0.206989700    -0.7828957   -0.2294361  
   0.208989600    -0.8022668   -0.1136764  
   0.210989500    -0.8048193    0.0068990  
   0.212989400    -0.7896810    0.1293422  
   0.214989300    -0.7555153    0.2509597  
   0.216989200    -0.7023973    0.3680452  
   0.218989100    -0.6302269    0.4777924  
   0.220989000    -0.5390250    0.5768802  
   0.222988900    -0.4304920    0.6618534  
   0.224988800    -0.3064674    0.7293365  
   0.226988700    -0.1710007    0.7752726  
   0.228988600    -0.0277980    0.7970420  
   0.230988500     0.1184719    0.7937505  
   0.232988400     0.2628407    0.7632689  
   0.234988300     0.4007071    0.7086448  
   0.236988200     0.5271989    0.6299629  
   0.238988100     0.6367458    0.5311158  
   0.240988000     0.7265695    0.4151963  
   0.242987900     0.7938615    0.2875525  
   0.244987800     0.8374553    0.1519988  
   0.246987700     0.8573052    0.0133656  
   0.248987600     0.8540902   -0.1245134  
   0.250987500     0.8291079   -0.2576615  
   0.252987400     0.7836718   -0.3816601  
   0.254987300     0.7219630   -0.4940696  
   0.256987200     0.6456007   -0.5935308  
   0.258987100     0.5580530   -0.6798087  
   0.260987000     0.4599390   -0.7498880  
   0.262986900     0.3548643   -0.8046674  
   0.264986800     0.2451631   -0.8436891  
   0.266986700     0.1325785   -0.8664497  
   0.268986600     0.0200909   -0.8740309  
   0.270986500    -0.0902656   -0.8665848  
   0.272986400    -0.1976222   -0.8449792  
   0.274986300    -0.3006570   -0.8100497  
   0.276986200    -0.3977735   -0.7621532  
   0.278986100    -0.4883823   -0.7018209  
   0.280986000    -0.5705063   -0.6298933  
   0.282985900    -0.6428113   -0.5473374  
   0.284985800    -0.7044776   -0.4554951  
   0.286985700    -0.7532660   -0.3554012  
   0.288985600    -0.7882875   -0.2492308  
   0.290985500    -0.8087668   -0.1381794  
   0.292985400    -0.8137202   -0.0234735  
   0.294985300    -0.8022370    0.0929677  
   0.296985200    -0.7730615    0.2096808  
   0.298985100    -0.7252248    0.3237929  
   0.300985000    -0.6582183    0.4315091  
   0.302984900    -0.5731146    0.5293797  
   0.304984800    -0.4704649    0.6129018  
   0.306984700    -0.3524649    0.6787580  
   0.308984600    -0.2226947    0.7228730  
   0.310984500    -0.0856293    0.7425222  
   0.312984400     0.0539776    0.7348779  
   0.314984300     0.1894182    0.6998030  
   0.316984200     0.3136243    0.6382493  
   0.318984100     0.4205622    0.5536472  
   0.320984000     0.5037479    0.4523846  
   0.322983900     0.5609025    0.3423730  
   0.324983800     0.5923090    0.2333558  
   0.326983700     0.6032321    0.1324331  
   0.328983600     0.6010365    0.0427374  
   0.330983500     0.5933752   -0.0358637  
   0.332983400     0.5848563   -0.1081451  
   0.334983300     0.5765847   -0.1798049  
   0.336983200     0.5655622   -0.2559690  
   0.338983100     0.5465616   -0.3380332  
   0.340983000     0.5148358   -0.4245342  
   0.342982900     0.4667689   -0.5108497  
   0.344982800     0.4006921   -0.5926195  
   0.346982700     0.3175172   -0.6646680  
   0.348982600     0.2199831   -0.7207800  
   0.350982500     0.1121432   -0.7609771  
   0.352982400    -0.0018204   -0.7820454  
   0.354982300    -0.1237495   -0.7826071  
   0.356982200    -0.2577628   -0.7575763  
   0.358982100    -0.3839831   -0.7086419  
   0.360982000    -0.4985933   -0.6380047  
   0.362981900    -0.5982315   -0.5489848  
   0.364981800    -0.6807592   -0.4437092  
   0.366981700    -0.7440441   -0.3262653  
   0.368981600    -0.7857941   -0.2003943  
   0.370981500    -0.8058726   -0.0693606  
   0.372981400    -0.8035281    0.0629763  
   0.374981300    -0.7789179    0.1935081  
   0.376981200    -0.8070190    0.0638150  
   0.378981100    -0.7817625    0.1980521  
   0.380981000    -0.7337296    0.3274321  
   0.382980900    -0.6716878    0.4362471  
   0.384980800    -0.5968288    0.5306742  
   0.386980700    -0.5078322    0.6140323  
   0.388980600    -0.4059192    0.6837450  
   0.390980500    -0.2942710    0.7374039  
   0.392980400    -0.1747950    0.7735754  
   0.394980300    -0.0500026    0.7909029  
   0.396980200     0.0769932    0.7885473  
   0.398980100     0.2031536    0.7660253  
   0.400980000     0.3252884    0.7235444  
   0.402979900     0.4402343    0.6611673  
   0.404979800     0.5440089    0.5812190  
   0.406979700     0.6337138    0.4849471  
   0.408979600     0.7065710    0.3751381  
   0.410979500     0.7609695    0.2542409  
   0.412979400     0.7947863    0.1257101  
   0.414979300     0.8057302   -0.0064648  
   0.416979200     0.7958167   -0.1379713  
   0.418979100     0.7647758   -0.2649464  
   0.420979000     0.7138028   -0.3846853  
   0.422978900     0.6447611   -0.4935830  
   0.424978800     0.5597180   -0.5891182  
   0.426978700     0.4615058   -0.6692256  
   0.428978600     0.3533230   -0.7318501  
   0.430978500     0.2384821   -0.7762660  
   0.432978400     0.1201700   -0.8018922  
   0.434978300     0.0009665   -0.8109779  
   0.436978200    -0.1172532   -0.8006303  
   0.438978100    -0.2308352   -0.7732099  
   0.440978000    -0.3387816   -0.7299387  
   0.442977900    -0.4378674   -0.6718812  
   0.444977800    -0.5270050   -0.6003854  
   0.446977700    -0.6046506   -0.5176743  
   0.448977600    -0.6688533   -0.4252182  
   0.450977500    -0.7196088   -0.3243330  
   0.452977400    -0.7557451   -0.2171060  
   0.454977300    -0.7757716   -0.1050977  
   0.456977200    -0.7797412    0.0091807  
   0.458977100    -0.7668892    0.1238656  
   0.460977000    -0.7374989    0.2354394  
   0.462976900    -0.6913194    0.3417594  
   0.464976800    -0.6296904    0.4413433  
   0.466976700    -0.5532097    0.5310669  
   0.468976600    -0.4633703    0.6089051  
   0.470976500    -0.3613796    0.6727169  
   0.472976400    -0.2499260    0.7203758  
   0.474976300    -0.1312668    0.7502244  
   0.476976200    -0.0083603    0.7612373  
   0.478976100     0.1153626    0.7523562  
   0.480976000     0.2362143    0.7236096  
   0.482975900     0.3513183    0.6756583  
   0.484975800     0.4577647    0.6095379  
   0.486975700     0.5521392    0.5266439  
   0.488975600     0.6314811    0.4293301  
   0.490975500     0.6938355    0.3204339  
   0.492975400     0.7372887    0.2032040  
   0.494975300     0.7606093    0.0812949  
   0.496975200     0.7638377   -0.0419298  
   0.498975100     0.7469753   -0.1617695  
   0.500975000     0.7119631   -0.2763370  
   0.502974900     0.6602221   -0.3814668  
   0.504974800     0.5937520   -0.4759147  
   0.506974700     0.5149560   -0.5579238  
   0.508974600     0.4260515   -0.6262110  
   0.510974500     0.3300416   -0.6798283  
   0.512974400     0.2296914   -0.7187605  
   0.514974300     0.1266590   -0.7414938  
   0.516974200     0.0238223   -0.7515408  
   0.518974100    -0.0779037   -0.7481327  
   0.520974000    -0.1775331   -0.7318560  
   0.522973900    -0.2739797   -0.7036542  
   0.524973800    -0.3661188   -0.6628464  
   0.526973700    -0.4535281   -0.6104566  
   0.528973600    -0.5341641   -0.5462728  
   0.530973500    -0.6067634   -0.4699996  
   0.532973400    -0.6688420   -0.3834308  
   0.534973300    -0.7186088   -0.2871477  
   0.536973200    -0.7538927   -0.1824697  
   0.538973100    -0.7730975   -0.0729184  
   0.540973000    -0.7756616    0.0393837  
   0.542972900    -0.7607087    0.1515558  
   0.544972800    -0.7285031    0.2608337  
   0.546972700    -0.6794704    0.3650338  
   0.548972600    -0.6145502    0.4610812  
   0.550972500    -0.5352204    0.5463570  
   0.552972400    -0.4433354    0.6186472  
   0.554972300    -0.3405334    0.6763815  
   0.556972200    -0.2296728    0.7177861  
   0.558972100    -0.1133973    0.7416292  
   0.560972000     0.0054277    0.7470937  
   0.562971900     0.1241855    0.7340150  
   0.564971800     0.2396164    0.7028669  
   0.566971700     0.3488613    0.6539146  
   0.568971600     0.4493515    0.5883368  
   0.570971500     0.5390694    0.5075452  
   0.572971400     0.6148886    0.4129542  
   0.574971300     0.6750904    0.3073416  
   0.576971200     0.7180055    0.1926626  
   0.578971100     0.7419010    0.0719113  
   0.580971000     0.7460855   -0.0507096  
   0.582970900     0.7307685   -0.1723196  
   0.584970800     0.6962042   -0.2892116  
   0.586970700     0.6438635   -0.3980555  
   0.588970600     0.5752998   -0.4972323  
   0.590970500     0.4923267   -0.5837412  
   0.592970400     0.3978261   -0.6557283  
   0.594970300     0.2939283   -0.7116982  
   0.596970200     0.1832322   -0.7504123  
   0.598970100     0.0688884   -0.7717767  
   0.600970000    -0.0466975   -0.7756774  
   0.602969900    -0.1605585   -0.7623606  
   0.604969800    -0.2707270   -0.7321500  
   0.606969700    -0.3747999   -0.6862356  
   0.608969600    -0.4700300   -0.6258713  
   0.610969500    -0.5550455   -0.5524220  
   0.612969400    -0.6282951   -0.4680389  
   0.614969300    -0.6876114   -0.3746039  
   0.616969200    -0.7329332   -0.2744557  
   0.618969100    -0.7633587   -0.1694618  
   0.620969000    -0.7788318   -0.0622484  
   0.622968900    -0.7788216    0.0468028  
   0.624968800    -0.7637662    0.1547505  
   0.626968700    -0.7335827    0.2599136  
   0.628968600    -0.6886048    0.3603211  
   0.630968500    -0.6295061    0.4536945  
   0.632968400    -0.5570421    0.5383698  
   0.634968300    -0.4729871    0.6123247  
   0.636968200    -0.3778488    0.6739861  
   0.638968100    -0.2744880    0.7211867  
   0.640968000    -0.1638645    0.7529593  
   0.642967900    -0.0490409    0.7681627  
   0.644967800     0.0679731    0.7660649  
   0.646967700     0.1840385    0.7462518  
   0.648967600     0.2963405    0.7087355  
   0.650967500     0.4020523    0.6541961  
   0.652967400     0.4984864    0.5838220  
   0.654967300     0.5838485    0.4986320  
   0.656967200     0.6546314    0.4013078  
   0.658967100     0.7096608    0.2933488  
   0.660967000     0.7472864    0.1773506  
   0.662966900     0.7661436    0.0564377  
   0.664966800     0.7659019   -0.0669307  
   0.666966700     0.7455671   -0.1886413  
   0.668966600     0.7060443   -0.3053591  
   0.670966500     0.6489153   -0.4139793  
   0.672966400     0.5765072   -0.5124111  
   0.674966300     0.4895502   -0.5964801  
   0.676966200     0.3912145   -0.6650251  
   0.678966100     0.2847745   -0.7166604  
   0.680966000     0.1725086   -0.7512064  
   0.682965900     0.0576962   -0.7678023  
   0.684965800    -0.0568822   -0.7671015  
   0.686965700    -0.1692029   -0.7490565  
   0.688965600    -0.2764581   -0.7150019  
   0.690965500    -0.3761078   -0.6651666  
   0.692965400    -0.4667502   -0.6029361  
   0.694965300    -0.5469977   -0.5287030  
   0.696965200    -0.6149487   -0.4447386  
   0.698965100    -0.6701215   -0.3519649  
   0.700965000    -0.7113162   -0.2524921  
   0.702964900    -0.7379602   -0.1485374  
   0.704964800    -0.7492518   -0.0419978  
   0.706964700    -0.7455382    0.0655945  
   0.708964600    -0.7259142    0.1713950  
   0.710964500    -0.6915672    0.2742352  
   0.712964400    -0.6420106    0.3710330  
   0.714964300    -0.5781570    0.4600060  
   0.716964200    -0.5017570    0.5384922  
   0.718964100    -0.4141467    0.6052788  
   0.720964000    -0.3177991    0.6581488  
   0.722963900    -0.2136582    0.6962292  
   0.724963800    -0.1046173    0.7178450  
   0.726963700     0.0071893    0.7223136  
   0.728963600     0.1187935    0.7096345  
   0.730963500     0.2272588    0.6787385  
   0.732963400     0.3295556    0.6317511  
   0.734963300     0.4239803    0.5689305  
   0.736963200     0.5192517    0.4798122  
   0.738963100     0.5975838    0.3744413  
   0.740963000     0.6550918    0.2573161  
   0.742962900     0.6904033    0.1325823  
   0.744962800     0.7026638    0.0044627  
   0.746962700     0.6923200   -0.1224123  
   0.748962600     0.6599454   -0.2446679  
   0.750962500     0.6772637   -0.1349415  
   0.752962400     0.6443979   -0.2551155  
   0.754962300     0.5916604   -0.3669513  
   0.756962200     0.5210652   -0.4670849  
   0.758962100     0.4351752   -0.5536134  
   0.760962000     0.3360932   -0.6239752  
   0.762961900     0.2322854   -0.6742661  
   0.764961800     0.1321200   -0.7056167  
   0.766961700     0.0285844   -0.7222288  
   0.768961600    -0.0766873   -0.7236419  
   0.770961500    -0.1810697   -0.7098665  
   0.772961400    -0.2825020   -0.6809943  
   0.774961300    -0.3789500   -0.6375290  
   0.776961200    -0.4684959   -0.5803307  
   0.778961100    -0.5486878   -0.5101150  
   0.780961000    -0.6180487   -0.4282967  
   0.782960900    -0.6745985   -0.3367512  
   0.784960800    -0.7170026   -0.2371323  
   0.786960700    -0.7439581   -0.1317583  
   0.788960600    -0.7549042   -0.0232737  
   0.790960500    -0.7495378    0.0858166  
   0.792960400    -0.7275983    0.1927582  
   0.794960300    -0.6898522    0.2953534  
   0.796960200    -0.6374456    0.3912199  
   0.798960100    -0.5712202    0.4781576  
   0.800960000    -0.4928187    0.5535554  
   0.802959900    -0.4038589    0.6173121  
   0.804959800    -0.3065565    0.6669402  
   0.806959700    -0.2024036    0.7015709  
   0.808959600    -0.0943734    0.7204500  
   0.810959500     0.0153946    0.7226862  
   0.812959400     0.1251523    0.7084626  
   0.814959300     0.2319190    0.6776317  
   0.816959200     0.3331626    0.6310826  
   0.818959100     0.4265487    0.5691871  
   0.820959000     0.5099438    0.4934048  
   0.822958900     0.5807841    0.4051293  
   0.824958800     0.6377021    0.3065254  
   0.826958700     0.6786538    0.1996778  
   0.828958600     0.7024103    0.0877252  
   0.830958500     0.7084037   -0.0272960  
   0.832958400     0.6960169   -0.1417452  
   0.834958300     0.6657128   -0.2526115  
   0.836958200     0.6184710   -0.3573230  
   0.838958100     0.5552359   -0.4534662  
   0.840958000     0.4776751   -0.5383661  
   0.842957900     0.3881216   -0.6095915  
   0.844957800     0.2882528   -0.6659863  
   0.846957700     0.1816823   -0.7058526  
   0.848957600     0.0703388   -0.7282560  
   0.850957500    -0.0426439   -0.7333106  
   0.852957400    -0.1542326   -0.7206594  
   0.854957300    -0.2618512   -0.6914728  
   0.856957200    -0.3632541   -0.6462096  
   0.858957100    -0.4558358   -0.5869148  
   0.860957000    -0.5378032   -0.5150479  
   0.862956900    -0.6075031   -0.4330321  
   0.864956800    -0.6638407   -0.3424101  
   0.866956700    -0.7061064   -0.2454669  
   0.868956600    -0.7335202   -0.1445859  
   0.870956500    -0.7463699   -0.0408546  
   0.872956400    -0.7445456    0.0631283  
   0.874956300    -0.7279561    0.1656808  
   0.876956200    -0.6967064    0.2654395  
   0.878956100    -0.6519934    0.3593857  
   0.880956000    -0.5941348    0.4466886  
   0.882955900    -0.5241861    0.5250080  
   0.884955800    -0.4433585    0.5927770  
   0.886955700    -0.3533650    0.6486328  
   0.888955600    -0.2557170    0.6914414  
   0.890955500    -0.1525042    0.7197678  
   0.892955400    -0.0456023    0.7326486  
   0.894955300     0.0629653    0.7296976  
