! MS46122B
! 2250307/22442219
! 7/21/2025 12:11:05 PM
! C:\USERS\SPARKY\DOCUMENTS\VNA_DATA\JULY21_2025\295K\ECAL_LOAD_A_REPEAT1.S1P
! CHANNEL.1
! TR.MEASUREMENT
! RAW.DATA
# GHZ S RI R 50.0
! FREQ.GHZ         S11RE         S11IM         
!; PortSelection: Port_1
   0.001000000     1.0451180   -0.0717427  
   0.002999900     0.9521835   -0.1941255  
   0.004999800     0.8767478   -0.2780470  
   0.006999700     0.7915550   -0.3673776  
   0.008999600     0.7000890   -0.4051925  
   0.010999500     0.6237039   -0.4301007  
   0.012999400     0.5572457   -0.4445655  
   0.014999300     0.5009259   -0.4514464  
   0.016999200     0.4522438   -0.4523602  
   0.018999100     0.4115591   -0.4491395  
   0.020999000     0.3777915   -0.4435576  
   0.022998900     0.3489202   -0.4366495  
   0.024998800     0.3188623   -0.4078858  
   0.026998700     0.3024324   -0.4209294  
   0.028998600     0.2831610   -0.4125264  
   0.030998500     0.2655813   -0.4041336  
   0.032998400     0.2455798   -0.3781906  
   0.034998300     0.2333965   -0.3878060  
   0.036998200     0.2188519   -0.3797886  
   0.038998100     0.2050952   -0.3721949  
   0.040998000     0.1918608   -0.3647901  
   0.042997900     0.1791809   -0.3575508  
   0.044997800     0.1656472   -0.3360742  
   0.046997700     0.1541962   -0.3438641  
   0.048997600     0.1427707   -0.3370688  
   0.050997500     0.1319316   -0.3303482  
   0.052997400     0.1216468   -0.3236595  
   0.054997300     0.1120394   -0.3169343  
   0.056997200     0.1024546   -0.3107819  
   0.058997100     0.0937092   -0.3044640  
   0.060997000     0.0853348   -0.2983804  
   0.062996900     0.0776632   -0.2923822  
   0.064996800     0.0705777   -0.2864292  
   0.066996700     0.0639902   -0.2805859  
   0.068996600     0.0578390   -0.2747694  
   0.070996500     0.0521499   -0.2692596  
   0.072996400     0.0468742   -0.2635295  
   0.074996300     0.0419524   -0.2578535  
   0.076996200     0.0373873   -0.2521413  
   0.078996100     0.0331687   -0.2465377  
   0.080996000     0.0291684   -0.2409743  
   0.082995900     0.0253716   -0.2354227  
   0.084995800     0.0217475   -0.2296275  
   0.086995700     0.0185751   -0.2241553  
   0.088995600     0.0157173   -0.2187925  
   0.090995500     0.0130295   -0.2135328  
   0.092995400     0.0106567   -0.2085391  
   0.094995300     0.0085288   -0.2034626  
   0.096995200     0.0066298   -0.1984758  
   0.098995100     0.0048837   -0.1935315  
   0.100995000     0.0021560   -0.1897529  
   0.102994900     0.0007980   -0.1852209  
   0.104994800    -0.0002283   -0.1808576  
   0.106994700    -0.0010414   -0.1765658  
   0.108994600    -0.0016416   -0.1725903  
   0.110994500    -0.0020956   -0.1688379  
   0.112994400    -0.0023909   -0.1653200  
   0.114994300    -0.0025192   -0.1620099  
   0.116994200    -0.0025210   -0.1589026  
   0.118994100    -0.0024824   -0.1560202  
   0.120994000    -0.0021767   -0.1533144  
   0.122993900    -0.0020957   -0.1507815  
   0.124993800    -0.0018609   -0.1485997  
   0.126993700    -0.0017158   -0.1465904  
   0.128993600    -0.0015802   -0.1447789  
   0.130993500    -0.0014975   -0.1432294  
   0.132993400    -0.0014730   -0.1418330  
   0.134993300    -0.0015752   -0.1406128  
   0.136993200    -0.0017976   -0.1394899  
   0.138993100    -0.0021736   -0.1385114  
   0.140993000    -0.0027325   -0.1375965  
   0.142992900    -0.0034217   -0.1367650  
   0.144992800    -0.0042563   -0.1360925  
   0.146992700    -0.0053400   -0.1352868  
   0.148992600    -0.0065368   -0.1344493  
   0.150992500    -0.0078496   -0.1334118  
   0.152992400    -0.0093885   -0.1324037  
   0.154992300    -0.0110020   -0.1312686  
   0.156992200    -0.0127726   -0.1299454  
   0.158992100    -0.0145792   -0.1284763  
   0.160992000    -0.0164339   -0.1267852  
   0.162991900    -0.0183235   -0.1248732  
   0.164991800    -0.0201928   -0.1227209  
   0.166991700    -0.0219761   -0.1203543  
   0.168991600    -0.0236593   -0.1177347  
   0.170991500    -0.0252669   -0.1148698  
   0.172991400    -0.0266038   -0.1118067  
   0.174991300    -0.0276909   -0.1085717  
   0.176991200    -0.0285497   -0.1051180  
   0.178991100    -0.0291140   -0.1015437  
   0.180991000    -0.0293360   -0.0979030  
   0.182990900    -0.0292172   -0.0941269  
   0.184990800    -0.0286760   -0.0903509  
   0.186990700    -0.0277402   -0.0866240  
   0.188990600    -0.0246407   -0.0835077  
   0.190990500    -0.0244713   -0.0794612  
   0.192990400    -0.0225682   -0.0760641  
   0.194990300    -0.0200662   -0.0730012  
   0.196990200    -0.0172199   -0.0702881  
   0.198990100    -0.0140486   -0.0679328  
   0.200990000    -0.0106354   -0.0659724  
   0.202989900    -0.0069879   -0.0644571  
   0.204989800    -0.0031896   -0.0634497  
   0.206989700     0.0006802   -0.0629590  
   0.208989600     0.0046464   -0.0630123  
   0.210989500     0.0085515   -0.0635989  
   0.212989400     0.0123697   -0.0647305  
   0.214989300     0.0159919   -0.0663619  
   0.216989200     0.0193995   -0.0685001  
   0.218989100     0.0224573   -0.0711048  
   0.220989000     0.0251359   -0.0741606  
   0.222988900     0.0273756   -0.0776004  
   0.224988800     0.0291117   -0.0813770  
   0.226988700     0.0303061   -0.0854078  
   0.228988600     0.0309852   -0.0896327  
   0.230988500     0.0310996   -0.0939632  
   0.232988400     0.0305831   -0.0982411  
   0.234988300     0.0294872   -0.1025646  
   0.236988200     0.0277639   -0.1067602  
   0.238988100     0.0255218   -0.1107747  
   0.240988000     0.0227739   -0.1144888  
   0.242987900     0.0195708   -0.1179021  
   0.244987800     0.0159519   -0.1209130  
   0.246987700     0.0119097   -0.1234610  
   0.248987600     0.0075124   -0.1255442  
   0.250987500     0.0028965   -0.1271073  
   0.252987400    -0.0018451   -0.1281215  
   0.254987300    -0.0066248   -0.1286736  
   0.256987200    -0.0113832   -0.1286499  
   0.258987100    -0.0160695   -0.1279908  
   0.260987000    -0.0205891   -0.1267517  
   0.262986900    -0.0249322   -0.1249942  
   0.264986800    -0.0289662   -0.1228078  
   0.266986700    -0.0326483   -0.1202196  
   0.268986600    -0.0359320   -0.1172601  
   0.270986500    -0.0386697   -0.1141311  
   0.272986400    -0.0409657   -0.1108524  
   0.274986300    -0.0427668   -0.1074762  
   0.276986200    -0.0441029   -0.1040774  
   0.278986100    -0.0449107   -0.1006799  
   0.280986000    -0.0452273   -0.0973698  
   0.282985900    -0.0451424   -0.0942372  
   0.284985800    -0.0446579   -0.0914278  
   0.286985700    -0.0437459   -0.0889199  
   0.288985600    -0.0425291   -0.0869370  
   0.290985500    -0.0410770   -0.0854678  
   0.292985400    -0.0394918   -0.0845215  
   0.294985300    -0.0379175   -0.0841746  
   0.296985200    -0.0364643   -0.0843216  
   0.298985100    -0.0352886   -0.0849262  
   0.300985000    -0.0343853   -0.0860483  
   0.302984900    -0.0339406   -0.0876566  
   0.304984800    -0.0340153   -0.0897019  
   0.306984700    -0.0347222   -0.0921880  
   0.308984600    -0.0360919   -0.0949270  
   0.310984500    -0.0382868   -0.0977770  
   0.312984400    -0.0414060   -0.1004626  
   0.314984300    -0.0455055   -0.1028548  
   0.316984200    -0.0506502   -0.1046503  
   0.318984100    -0.0569109   -0.1054306  
   0.320984000    -0.0640538   -0.1048462  
   0.322983900    -0.0716595   -0.1025307  
   0.324983800    -0.0791705   -0.0981949  
   0.326983700    -0.0859333   -0.0918065  
   0.328983600    -0.0910870   -0.0837832  
   0.330983500    -0.0940004   -0.0747705  
   0.332983400    -0.0943819   -0.0658358  
   0.334983300    -0.0926894   -0.0578210  
   0.336983200    -0.0896081   -0.0514096  
   0.338983100    -0.0860435   -0.0466435  
   0.340983000    -0.0826453   -0.0433356  
   0.342982900    -0.0798278   -0.0409715  
   0.344982800    -0.0776997   -0.0390573  
   0.346982700    -0.0762747   -0.0370284  
   0.348982600    -0.0750776   -0.0348602  
   0.350982500    -0.0743652   -0.0324123  
   0.352982400    -0.0737741   -0.0296873  
   0.354982300    -0.0731765   -0.0262337  
   0.356982200    -0.0725664   -0.0213453  
   0.358982100    -0.0712876   -0.0163994  
   0.360982000    -0.0694875   -0.0115661  
   0.362981900    -0.0670057   -0.0069768  
   0.364981800    -0.0638498   -0.0026110  
   0.366981700    -0.0601136    0.0012389  
   0.368981600    -0.0557640    0.0046424  
   0.370981500    -0.0510625    0.0073654  
   0.372981400    -0.0461470    0.0093252  
   0.374981300    -0.0410275    0.0104968  
   0.376981200    -0.0400636    0.0001965  
   0.378981100    -0.0351352    0.0014571  
   0.380981000    -0.0302541    0.0018546  
   0.382980900    -0.0255659    0.0010791  
   0.384980800    -0.0211915   -0.0004642  
   0.386980700    -0.0171478   -0.0026255  
   0.388980600    -0.0135182   -0.0053148  
   0.390980500    -0.0103672   -0.0085232  
   0.392980400    -0.0077403   -0.0121891  
   0.394980300    -0.0056946   -0.0161887  
   0.396980200    -0.0043261   -0.0203786  
   0.398980100    -0.0036067   -0.0246684  
   0.400980000    -0.0035796   -0.0289699  
   0.402979900    -0.0042752   -0.0331589  
   0.404979800    -0.0055498   -0.0371360  
   0.406979700    -0.0074490   -0.0407787  
   0.408979600    -0.0098988   -0.0440491  
   0.410979500    -0.0129164   -0.0467888  
   0.412979400    -0.0164120   -0.0490054  
   0.414979300    -0.0202493   -0.0504787  
   0.416979200    -0.0243303   -0.0512823  
   0.418979100    -0.0285310   -0.0513349  
   0.420979000    -0.0327080   -0.0506987  
   0.422978900    -0.0368054   -0.0493193  
   0.424978800    -0.0407753   -0.0472537  
   0.426978700    -0.0444037   -0.0444992  
   0.428978600    -0.0475834   -0.0411115  
   0.430978500    -0.0501374   -0.0371854  
   0.432978400    -0.0520152   -0.0327288  
   0.434978300    -0.0531380   -0.0279338  
   0.436978200    -0.0535889   -0.0229781  
   0.438978100    -0.0532373   -0.0178906  
   0.440978000    -0.0521204   -0.0127839  
   0.442977900    -0.0501658   -0.0078014  
   0.444977800    -0.0474174   -0.0030519  
   0.446977700    -0.0439015    0.0013488  
   0.448977600    -0.0396829    0.0052669  
   0.450977500    -0.0348139    0.0085757  
   0.452977400    -0.0293902    0.0112485  
   0.454977300    -0.0235529    0.0131654  
   0.456977200    -0.0173836    0.0142113  
   0.458977100    -0.0110250    0.0143638  
   0.460977000    -0.0045594    0.0135365  
   0.462976900     0.0018564    0.0117356  
   0.464976800     0.0080032    0.0089786  
   0.466976700     0.0137747    0.0052814  
   0.468976600     0.0190387    0.0006985  
   0.470976500     0.0236571   -0.0046800  
   0.472976400     0.0274918   -0.0107928  
   0.474976300     0.0304756   -0.0174722  
   0.476976200     0.0325168   -0.0246017  
   0.478976100     0.0336095   -0.0321354  
   0.480976000     0.0337182   -0.0398051  
   0.482975900     0.0327622   -0.0473186  
   0.484975800     0.0307469   -0.0547368  
   0.486975700     0.0276227   -0.0618712  
   0.488975600     0.0234996   -0.0686131  
   0.490975500     0.0183151   -0.0748933  
   0.492975400     0.0124053   -0.0802656  
   0.494975300     0.0056885   -0.0847953  
   0.496975200    -0.0017402   -0.0883851  
   0.498975100    -0.0095573   -0.0908544  
   0.500975000    -0.0177376   -0.0922296  
   0.502974900    -0.0260620   -0.0924335  
   0.504974800    -0.0344615   -0.0914554  
   0.506974700    -0.0427290   -0.0892463  
   0.508974600    -0.0508313   -0.0858688  
   0.510974500    -0.0586914   -0.0813666  
   0.512974400    -0.0655223   -0.0758100  
   0.514974300    -0.0714021   -0.0691574  
   0.516974200    -0.0761753   -0.0619201  
   0.518974100    -0.0798324   -0.0540525  
   0.520974000    -0.0822065   -0.0455651  
   0.522973900    -0.0833093   -0.0369006  
   0.524973800    -0.0831554   -0.0283893  
   0.526973700    -0.0817610   -0.0200336  
   0.528973600    -0.0791345   -0.0121004  
   0.530973500    -0.0754161   -0.0046606  
   0.532973400    -0.0706832    0.0020361  
   0.534973300    -0.0650382    0.0078804  
   0.536973200    -0.0586724    0.0128227  
   0.538973100    -0.0516544    0.0167101  
   0.540973000    -0.0442196    0.0195437  
   0.542972900    -0.0365253    0.0212374  
   0.544972800    -0.0287154    0.0217919  
   0.546972700    -0.0209960    0.0211432  
   0.548972600    -0.0134853    0.0193333  
   0.550972500    -0.0063355    0.0164362  
   0.552972400     0.0002356    0.0124151  
   0.554972300     0.0061661    0.0074315  
   0.556972200     0.0112363    0.0015096  
   0.558972100     0.0154612   -0.0051659  
   0.560972000     0.0186681   -0.0124068  
   0.562971900     0.0206305   -0.0200497  
   0.564971800     0.0215894   -0.0281040  
   0.566971700     0.0211620   -0.0360736  
   0.568971600     0.0195172   -0.0439258  
   0.570971500     0.0166621   -0.0515290  
   0.572971400     0.0126201   -0.0587196  
   0.574971300     0.0073007   -0.0653494  
   0.576971200     0.0008657   -0.0712847  
   0.578971100    -0.0063750   -0.0764367  
   0.580971000    -0.0143822   -0.0804240  
   0.582970900    -0.0229514   -0.0832107  
   0.584970800    -0.0319177   -0.0846566  
   0.586970700    -0.0410690   -0.0848061  
   0.588970600    -0.0504828   -0.0834858  
   0.590970500    -0.0595935   -0.0808586  
   0.592970400    -0.0683776   -0.0769040  
   0.594970300    -0.0766758   -0.0718068  
   0.596970200    -0.0842150   -0.0655410  
   0.598970100    -0.0908748   -0.0581928  
   0.600970000    -0.0965639   -0.0499025  
   0.602969900    -0.1011061   -0.0407919  
   0.604969800    -0.1044407   -0.0310484  
   0.606969700    -0.1064416   -0.0208285  
   0.608969600    -0.1070262   -0.0103378  
   0.610969500    -0.1061702    0.0002478  
   0.612969400    -0.1038256    0.0106946  
   0.614969300    -0.1000369    0.0207311  
   0.616969200    -0.0949734    0.0301835  
   0.618969100    -0.0886814    0.0389075  
   0.620969000    -0.0813309    0.0467175  
   0.622968900    -0.0729308    0.0534980  
   0.624968800    -0.0636926    0.0590704  
   0.626968700    -0.0537373    0.0632984  
   0.628968600    -0.0433395    0.0663005  
   0.630968500    -0.0325164    0.0680225  
   0.632968400    -0.0217572    0.0679131  
   0.634968300    -0.0110927    0.0664536  
   0.636968200    -0.0007285    0.0634224  
   0.638968100     0.0091574    0.0588691  
   0.640968000     0.0183815    0.0530597  
   0.642967900     0.0264764    0.0461328  
   0.644967800     0.0334724    0.0382405  
   0.646967700     0.0392518    0.0295149  
   0.648967600     0.0436643    0.0201717  
   0.650967500     0.0466722    0.0104260  
   0.652967400     0.0482008    0.0005200  
   0.654967300     0.0484010   -0.0096697  
   0.656967200     0.0471526   -0.0194429  
   0.658967100     0.0443810   -0.0289857  
   0.660967000     0.0402520   -0.0379759  
   0.662966900     0.0349899   -0.0462033  
   0.664966800     0.0286031   -0.0535758  
   0.666966700     0.0212850   -0.0599293  
   0.668966600     0.0131736   -0.0650444  
   0.670966500     0.0041773   -0.0689762  
   0.672966400    -0.0048655   -0.0715291  
   0.674966300    -0.0141026   -0.0725536  
   0.676966200    -0.0232664   -0.0721495  
   0.678966100    -0.0321961   -0.0703286  
   0.680966000    -0.0406794   -0.0672100  
   0.682965900    -0.0485162   -0.0628767  
   0.684965800    -0.0555503   -0.0574150  
   0.686965700    -0.0616688   -0.0510077  
   0.688965600    -0.0666864   -0.0437846  
   0.690965500    -0.0705640   -0.0360182  
   0.692965400    -0.0731407   -0.0278048  
   0.694965300    -0.0744335   -0.0193258  
   0.696965200    -0.0744175   -0.0108286  
   0.698965100    -0.0730709   -0.0024945  
   0.700965000    -0.0703777    0.0054768  
   0.702964900    -0.0665662    0.0129726  
   0.704964800    -0.0616658    0.0198484  
   0.706964700    -0.0557572    0.0256716  
   0.708964600    -0.0487325    0.0306462  
   0.710964500    -0.0412738    0.0344715  
   0.712964400    -0.0333453    0.0369372  
   0.714964300    -0.0250844    0.0380692  
   0.716964200    -0.0168721    0.0379784  
   0.718964100    -0.0088300    0.0365836  
   0.720964000    -0.0012052    0.0340348  
   0.722963900     0.0059185    0.0303102  
   0.724963800     0.0125026    0.0253548  
   0.726963700     0.0181888    0.0196719  
   0.728963600     0.0228735    0.0132295  
   0.730963500     0.0263687    0.0059424  
   0.732963400     0.0287523   -0.0016622  
   0.734963300     0.0300366   -0.0096056  
   0.736963200     0.0307527   -0.0188712  
   0.738963100     0.0298164   -0.0279734  
   0.740963000     0.0273266   -0.0367178  
   0.742962900     0.0233510   -0.0449503  
   0.744962800     0.0179565   -0.0522021  
   0.746962700     0.0114916   -0.0582537  
   0.748962600     0.0042373   -0.0631328  
   0.750962500     0.0017992   -0.0609507  
   0.752962400    -0.0056592   -0.0654549  
   0.754962300    -0.0138399   -0.0685629  
   0.756962200    -0.0224946   -0.0701387  
   0.758962100    -0.0313726   -0.0700835  
   0.760962000    -0.0402230   -0.0684929  
   0.762961900    -0.0485558   -0.0655970  
   0.764961800    -0.0561412   -0.0619634  
   0.766961700    -0.0631636   -0.0572622  
   0.768961600    -0.0695012   -0.0516017  
   0.770961500    -0.0749625   -0.0450972  
   0.772961400    -0.0795323   -0.0378681  
   0.774961300    -0.0831283   -0.0300165  
   0.776961200    -0.0856140   -0.0216397  
   0.778961100    -0.0867622   -0.0130727  
   0.780961000    -0.0866632   -0.0045432  
   0.782960900    -0.0852542    0.0038974  
   0.784960800    -0.0825078    0.0120828  
   0.786960700    -0.0784807    0.0198065  
   0.788960600    -0.0734360    0.0268088  
   0.790960500    -0.0672537    0.0332351  
   0.792960400    -0.0603396    0.0384544  
   0.794960300    -0.0526605    0.0425838  
   0.796960200    -0.0446096    0.0455147  
   0.798960100    -0.0362209    0.0471442  
   0.800960000    -0.0276235    0.0474394  
   0.802959900    -0.0191945    0.0464425  
   0.804959800    -0.0111477    0.0442068  
   0.806959700    -0.0037693    0.0407435  
   0.808959600     0.0031264    0.0361297  
   0.810959500     0.0091660    0.0304858  
   0.812959400     0.0143303    0.0239733  
   0.814959300     0.0183050    0.0166621  
   0.816959200     0.0211044    0.0087965  
   0.818959100     0.0228076    0.0003847  
   0.820959000     0.0230210   -0.0080387  
   0.822958900     0.0219199   -0.0164440  
   0.824958800     0.0194627   -0.0247095  
   0.826958700     0.0157506   -0.0325506  
   0.828958600     0.0108003   -0.0396487  
   0.830958500     0.0047531   -0.0459333  
   0.832958400    -0.0022901   -0.0512433  
   0.834958300    -0.0101559   -0.0554291  
   0.836958200    -0.0186533   -0.0584042  
   0.838958100    -0.0275965   -0.0600684  
   0.840958000    -0.0367834   -0.0603727  
   0.842957900    -0.0459788   -0.0592732  
   0.844957800    -0.0550489   -0.0566851  
   0.846957700    -0.0637094   -0.0527462  
   0.848957600    -0.0716648   -0.0475374  
   0.850957500    -0.0789239   -0.0411983  
   0.852957400    -0.0852445   -0.0336882  
   0.854957300    -0.0903472   -0.0251918  
   0.856957200    -0.0941758   -0.0161238  
   0.858957100    -0.0967260   -0.0065748  
   0.860957000    -0.0978472    0.0032536  
   0.862956900    -0.0976841    0.0131178  
   0.864956800    -0.0961639    0.0228101  
   0.866956700    -0.0934268    0.0321075  
   0.868956600    -0.0893672    0.0408378  
   0.870956500    -0.0841571    0.0489277  
   0.872956400    -0.0777668    0.0563587  
   0.874956300    -0.0704298    0.0627346  
   0.876956200    -0.0621291    0.0680612  
   0.878956100    -0.0531738    0.0720784  
   0.880956000    -0.0436564    0.0748115  
   0.882955900    -0.0338992    0.0761518  
   0.884955800    -0.0240942    0.0760976  
   0.886955700    -0.0142980    0.0746475  
   0.888955600    -0.0049099    0.0718405  
   0.890955500     0.0037714    0.0677461  
   0.892955400     0.0116445    0.0624710  
   0.894955300     0.0185558    0.0561071  
