! MS46122B
! 2250307/22442219
! 7/28/2025 7:57:39 AM
! C:\USERS\SPARKY\DOCUMENTS\VNA_DATA\JULY28_2025\295K\ECAL_OPEN_F.S1P
! CHANNEL.1
! TR.MEASUREMENT
! RAW.DATA
# GHZ S RI R 50.0
! FREQ.GHZ         S11RE         S11IM         
!; PortSelection: Port_1
   0.001000000     1.0460680   -0.0727179  
   0.002999900     0.9485605   -0.2222119  
   0.004999800     0.8073284   -0.0879867  
   0.006999700     0.5304495   -0.4061585  
   0.008999600     0.9401236    0.0028458  
   0.010999500     0.9270688   -0.2257331  
   0.012999400     0.8876561   -0.3347333  
   0.014999300     0.8480391   -0.4166762  
   0.016999200     0.8079991   -0.4875391  
   0.018999100     0.7656452   -0.5530390  
   0.020999000     0.7189994   -0.6139545  
   0.022998900     0.6673974   -0.6698553  
   0.024998800     0.6016645   -0.6858937  
   0.026998700     0.5484458   -0.7679809  
   0.028998600     0.4793153   -0.8094429  
   0.030998500     0.4035700   -0.8444842  
   0.032998400     0.3233860   -0.8380520  
   0.034998300     0.2305541   -0.8919623  
   0.036998200     0.1344756   -0.9015346  
   0.038998100     0.0322068   -0.8996318  
   0.040998000    -0.0750030   -0.8836578  
   0.042997900    -0.1857362   -0.8527043  
   0.044997800    -0.2754793   -0.7819510  
   0.046997700    -0.4088977   -0.7337893  
   0.048997600    -0.5144233   -0.6426964  
   0.050997500    -0.6100701   -0.5271330  
   0.052997400    -0.6886483   -0.3867381  
   0.054997300    -0.7421413   -0.2230220  
   0.056997200    -0.7610702   -0.0372221  
   0.058997100    -0.7352480    0.1588861  
   0.060997000    -0.6586693    0.3528295  
   0.062996900    -0.5296893    0.5278051  
   0.064996800    -0.3547023    0.6655116  
   0.066996700    -0.1479037    0.7521878  
   0.068996600     0.0714123    0.7794109  
   0.070996500     0.2848059    0.7497637  
   0.072996400     0.4751765    0.6700764  
   0.074996300     0.6315896    0.5536554  
   0.076996200     0.7500894    0.4135689  
   0.078996100     0.8305953    0.2622801  
   0.080996000     0.8758934    0.1080958  
   0.082995900     0.8909249   -0.0414297  
   0.084995800     0.8793842   -0.1812969  
   0.086995700     0.8480110   -0.3096750  
   0.088995600     0.7995976   -0.4253446  
   0.090995500     0.7383737   -0.5273590  
   0.092995400     0.6678814   -0.6168836  
   0.094995300     0.5880312   -0.6923660  
   0.096995200     0.5022668   -0.7548317  
   0.098995100     0.4113204   -0.8052666  
   0.100995000     0.3172123   -0.8435360  
   0.102994900     0.2208108   -0.8697816  
   0.104994800     0.1230070   -0.8845716  
   0.106994700     0.0244282   -0.8876885  
   0.108994600    -0.0737003   -0.8801749  
   0.110994500    -0.1709960   -0.8615015  
   0.112994400    -0.2659793   -0.8312491  
   0.114994300    -0.3583141   -0.7897596  
   0.116994200    -0.4463699   -0.7368618  
   0.118994100    -0.5287783   -0.6719587  
   0.120994000    -0.6055396   -0.5968477  
   0.122993900    -0.6729993   -0.5092517  
   0.124993800    -0.7300661   -0.4105794  
   0.126993700    -0.7750911   -0.3016492  
   0.128993600    -0.8038990   -0.1833886  
   0.130993500    -0.8166789   -0.0578915  
   0.132993400    -0.8107926    0.0727273  
   0.134993300    -0.7835039    0.2057735  
   0.136993200    -0.7330936    0.3369607  
   0.138993100    -0.6590389    0.4626605  
   0.140993000    -0.5614017    0.5769429  
   0.142992900    -0.4412389    0.6750084  
   0.144992800    -0.3022350    0.7521288  
   0.146992700    -0.1475135    0.8011207  
   0.148992600     0.0162917    0.8200794  
   0.150992500     0.1811601    0.8056924  
   0.152992400     0.3411010    0.7601715  
   0.154992300     0.4878653    0.6851562  
   0.156992200     0.6166292    0.5838355  
   0.158992100     0.7217053    0.4622413  
   0.160992000     0.8002023    0.3256149  
   0.162991900     0.8513042    0.1805080  
   0.164991800     0.8748879    0.0330408  
   0.166991700     0.8728889   -0.1122369  
   0.168991600     0.8471274   -0.2498874  
   0.170991500     0.8006086   -0.3781364  
   0.172991400     0.7361160   -0.4935381  
   0.174991300     0.6578475   -0.5941898  
   0.176991200     0.5676176   -0.6799546  
   0.178991100     0.4683421   -0.7497266  
   0.180991000     0.3635108   -0.8043496  
   0.182990900     0.2540081   -0.8418015  
   0.184990800     0.1423429   -0.8639454  
   0.186990700     0.0300339   -0.8710613  
   0.188990600    -0.0563419   -0.8641680  
   0.190990500    -0.1848657   -0.8408881  
   0.192990400    -0.2919460   -0.8040352  
   0.194990300    -0.3896684   -0.7548327  
   0.196990200    -0.4800045   -0.6937630  
   0.198990100    -0.5619962   -0.6207435  
   0.200990000    -0.6344611   -0.5368084  
   0.202989900    -0.6958557   -0.4423673  
   0.204989800    -0.7446610   -0.3396933  
   0.206989700    -0.7804672   -0.2298854  
   0.208989600    -0.7997829   -0.1142697  
   0.210989500    -0.8026162    0.0060082  
   0.212989400    -0.7876187    0.1280471  
   0.214989300    -0.7536502    0.2492490  
   0.216989200    -0.7009127    0.3661462  
   0.218989100    -0.6290650    0.4757895  
   0.220989000    -0.5382317    0.5747359  
   0.222988900    -0.4298717    0.6600380  
   0.224988800    -0.3066425    0.7272649  
   0.226988700    -0.1713675    0.7736384  
   0.228988600    -0.0286663    0.7957111  
   0.230988500     0.1174506    0.7927963  
   0.232988400     0.2617356    0.7627187  
   0.234988300     0.3998997    0.7085748  
   0.236988200     0.5261756    0.6302714  
   0.238988100     0.6360663    0.5316522  
   0.240988000     0.7262200    0.4160111  
   0.242987900     0.7937461    0.2886688  
   0.244987800     0.8376974    0.1530247  
   0.246987700     0.8577979    0.0143697  
   0.248987600     0.8548234   -0.1235774  
   0.250987500     0.8299484   -0.2566688  
   0.252987400     0.7847301   -0.3807910  
   0.254987300     0.7230876   -0.4934613  
   0.256987200     0.6466006   -0.5930815  
   0.258987100     0.5591809   -0.6794263  
   0.260987000     0.4610876   -0.7495671  
   0.262986900     0.3559867   -0.8043533  
   0.264986800     0.2463182   -0.8433793  
   0.266986700     0.1336784   -0.8662039  
   0.268986600     0.0212033   -0.8737430  
   0.270986500    -0.0891225   -0.8662108  
   0.272986400    -0.1964261   -0.8446831  
   0.274986300    -0.2993249   -0.8096811  
   0.276986200    -0.3963189   -0.7617353  
   0.278986100    -0.4868565   -0.7013976  
   0.280986000    -0.5688418   -0.6295794  
   0.282985900    -0.6409630   -0.5471244  
   0.284985800    -0.7024611   -0.4554649  
   0.286985700    -0.7511826   -0.3555175  
   0.288985600    -0.7861967   -0.2496829  
   0.290985500    -0.8067370   -0.1389240  
   0.292985400    -0.8115637   -0.0243375  
   0.294985300    -0.8000858    0.0917674  
   0.296985200    -0.7712565    0.2082295  
   0.298985100    -0.7235328    0.3221391  
   0.300985000    -0.6568822    0.4299827  
   0.302984900    -0.5721725    0.5272571  
   0.304984800    -0.4698996    0.6107936  
   0.306984700    -0.3521723    0.6769739  
   0.308984600    -0.2229854    0.7212326  
   0.310984500    -0.0861812    0.7412812  
   0.312984400     0.0532004    0.7340823  
   0.314984300     0.1886564    0.6995379  
   0.316984200     0.3129722    0.6384349  
   0.318984100     0.4203560    0.5541726  
   0.320984000     0.5040728    0.4530318  
   0.322983900     0.5617038    0.3428993  
   0.324983800     0.5933402    0.2335401  
   0.326983700     0.6044136    0.1320643  
   0.328983600     0.6018836    0.0421112  
   0.330983500     0.5937380   -0.0367345  
   0.332983400     0.5847131   -0.1087917  
   0.334983300     0.5760922   -0.1800399  
   0.336983200     0.5650187   -0.2555985  
   0.338983100     0.5460408   -0.3372222  
   0.340983000     0.5149432   -0.4232689  
   0.342982900     0.4673333   -0.5094163  
   0.344982800     0.4017188   -0.5912137  
   0.346982700     0.3189534   -0.6633979  
   0.348982600     0.2217407   -0.7197523  
   0.350982500     0.1140847   -0.7601771  
   0.352982400     0.0002281   -0.7814703  
   0.354982300    -0.1218705   -0.7824161  
   0.356982200    -0.2556390   -0.7574693  
   0.358982100    -0.3818370   -0.7087434  
   0.360982000    -0.4964440   -0.6382866  
   0.362981900    -0.5961225   -0.5494592  
   0.364981800    -0.6787317   -0.4443858  
   0.366981700    -0.7419511   -0.3271491  
   0.368981600    -0.7836599   -0.2017154  
   0.370981500    -0.8039087   -0.0706811  
   0.372981400    -0.8017174    0.0612268  
   0.374981300    -0.7772938    0.1917528  
   0.376981200    -0.8049797    0.0624347  
   0.378981100    -0.7799194    0.1964532  
   0.380981000    -0.7320063    0.3254228  
   0.382980900    -0.6703141    0.4343423  
   0.384980800    -0.5957559    0.5284998  
   0.386980700    -0.5070633    0.6119311  
   0.388980600    -0.4054400    0.6816440  
   0.390980500    -0.2941514    0.7354245  
   0.392980400    -0.1750015    0.7716303  
   0.394980300    -0.0504516    0.7893150  
   0.396980200     0.0762855    0.7872868  
   0.398980100     0.2022225    0.7650418  
   0.400980000     0.3243901    0.7229595  
   0.402979900     0.4393277    0.6609529  
   0.404979800     0.5431752    0.5814410  
   0.406979700     0.6330548    0.4854287  
   0.408979600     0.7061213    0.3759562  
   0.410979500     0.7608342    0.2553034  
   0.412979400     0.7949681    0.1269442  
   0.414979300     0.8062029   -0.0050146  
   0.416979200     0.7966589   -0.1366312  
   0.418979100     0.7658988   -0.2636678  
   0.420979000     0.7152192   -0.3834845  
   0.422978900     0.6464183   -0.4924999  
   0.424978800     0.5616063   -0.5882251  
   0.426978700     0.4635322   -0.6685023  
   0.428978600     0.3554517   -0.7313367  
   0.430978500     0.2408158   -0.7759095  
   0.432978400     0.1224884   -0.8017294  
   0.434978300     0.0031194   -0.8110321  
   0.436978200    -0.1145538   -0.8008316  
   0.438978100    -0.2284298   -0.7735685  
   0.440978000    -0.3360305   -0.7305387  
   0.442977900    -0.4355292   -0.6725475  
   0.444977800    -0.5245450   -0.6012385  
   0.446977700    -0.6020855   -0.5187622  
   0.448977600    -0.6665150   -0.4263926  
   0.450977500    -0.7171661   -0.3258988  
   0.452977400    -0.7534782   -0.2188246  
   0.454977300    -0.7736453   -0.1069709  
   0.456977200    -0.7777972    0.0071127  
   0.458977100    -0.7651687    0.1214626  
   0.460977000    -0.7358384    0.2329589  
   0.462976900    -0.6900961    0.3393310  
   0.464976800    -0.6286791    0.4387062  
   0.466976700    -0.5527623    0.5283842  
   0.468976600    -0.4631131    0.6064179  
   0.470976500    -0.3614376    0.6704031  
   0.472976400    -0.2502953    0.7182679  
   0.474976300    -0.1318757    0.7483646  
   0.476976200    -0.0092649    0.7596071  
   0.478976100     0.1144036    0.7511389  
   0.480976000     0.2353714    0.7227092  
   0.482975900     0.3503303    0.6751835  
   0.484975800     0.4567579    0.6095124  
   0.486975700     0.5514214    0.5269189  
   0.488975600     0.6310754    0.4297702  
   0.490975500     0.6936545    0.3212543  
   0.492975400     0.7373618    0.2042506  
   0.494975300     0.7610763    0.0823053  
   0.496975200     0.7646388   -0.0409385  
   0.498975100     0.7480617   -0.1608677  
   0.500975000     0.7132558   -0.2755995  
   0.502974900     0.6617287   -0.3809149  
   0.504974800     0.5955023   -0.4754041  
   0.506974700     0.5168673   -0.5575761  
   0.508974600     0.4279201   -0.6260635  
   0.510974500     0.3319094   -0.6798751  
   0.512974400     0.2315519   -0.7188904  
   0.514974300     0.1285933   -0.7416231  
   0.516974200     0.0256229   -0.7518997  
   0.518974100    -0.0757999   -0.7484952  
   0.520974000    -0.1755440   -0.7322891  
   0.522973900    -0.2718719   -0.7041848  
   0.524973800    -0.3638834   -0.6635037  
   0.526973700    -0.4511896   -0.6112285  
   0.528973600    -0.5317983   -0.5472146  
   0.530973500    -0.6043488   -0.4712472  
   0.532973400    -0.6664507   -0.3850698  
   0.534973300    -0.7162564   -0.2886223  
   0.536973200    -0.7517088   -0.1843302  
   0.538973100    -0.7710725   -0.0751108  
   0.540973000    -0.7738168    0.0369602  
   0.542972900    -0.7591757    0.1488337  
   0.544972800    -0.7271772    0.2582381  
   0.546972700    -0.6784586    0.3622383  
   0.548972600    -0.6139076    0.4582524  
   0.550972500    -0.5349507    0.5435163  
   0.552972400    -0.4433856    0.6159530  
   0.554972300    -0.3408702    0.6738247  
   0.556972200    -0.2303185    0.7155064  
   0.558972100    -0.1142518    0.7396112  
   0.560972000     0.0043046    0.7453744  
   0.562971900     0.1229748    0.7326657  
   0.564971800     0.2383521    0.7018994  
   0.566971700     0.3476266    0.6533357  
   0.568971600     0.4482201    0.5881063  
   0.570971500     0.5380499    0.5076658  
   0.572971400     0.6141038    0.4133879  
   0.574971300     0.6745906    0.3081040  
   0.576971200     0.7177912    0.1936042  
   0.578971100     0.7420729    0.0727948  
   0.580971000     0.7465724   -0.0496663  
   0.582970900     0.7315659   -0.1713829  
   0.584970800     0.6973689   -0.2881666  
   0.586970700     0.6451566   -0.3974321  
   0.588970600     0.5768985   -0.4965164  
   0.590970500     0.4943254   -0.5831391  
   0.592970400     0.3997381   -0.6554484  
   0.594970300     0.2959110   -0.7116318  
   0.596970200     0.1854969   -0.7505813  
   0.598970100     0.0713211   -0.7719623  
   0.600970000    -0.0443719   -0.7761453  
   0.602969900    -0.1581848   -0.7630737  
   0.604969800    -0.2683015   -0.7330290  
   0.606969700    -0.3721537   -0.6875326  
   0.608969600    -0.4675612   -0.6271729  
   0.610969500    -0.5526621   -0.5539668  
   0.612969400    -0.6258375   -0.4700285  
   0.614969300    -0.6853948   -0.3766355  
   0.616969200    -0.7308072   -0.2766726  
   0.618969100    -0.7613545   -0.1719414  
   0.620969000    -0.7770219   -0.0649498  
   0.622968900    -0.7772568    0.0438787  
   0.624968800    -0.7624829    0.1515917  
   0.626968700    -0.7326621    0.2565755  
   0.628968600    -0.6879030    0.3569458  
   0.630968500    -0.6293858    0.4503093  
   0.632968400    -0.5573086    0.5350156  
   0.634968300    -0.4735896    0.6091729  
   0.636968200    -0.3791001    0.6709042  
   0.638968100    -0.2757357    0.7185109  
   0.640968000    -0.1657471    0.7505865  
   0.642967900    -0.0509851    0.7661569  
   0.644967800     0.0656564    0.7646236  
   0.646967700     0.1818509    0.7451887  
   0.648967600     0.2940791    0.7082378  
   0.650967500     0.4000681    0.6540921  
   0.652967400     0.4967568    0.5841345  
   0.654967300     0.5824111    0.4992545  
   0.656967200     0.6535718    0.4022080  
   0.658967100     0.7089574    0.2943904  
   0.660967000     0.7469004    0.1785644  
   0.662966900     0.7662728    0.0574833  
   0.664966800     0.7662492   -0.0657651  
   0.666966700     0.7462761   -0.1876716  
   0.668966600     0.7070821   -0.3044410  
   0.670966500     0.6500630   -0.4134055  
   0.672966400     0.5778449   -0.5120457  
   0.674966300     0.4908800   -0.5963573  
   0.676966200     0.3926502   -0.6650479  
   0.678966100     0.2861458   -0.7168211  
   0.680966000     0.1739542   -0.7515005  
   0.682965900     0.0591308   -0.7682179  
   0.684965800    -0.0553313   -0.7675629  
   0.686965700    -0.1677141   -0.7496260  
   0.688965600    -0.2748789   -0.7156472  
   0.690965500    -0.3746095   -0.6658871  
   0.692965400    -0.4651238   -0.6038361  
   0.694965300    -0.5453020   -0.5297776  
   0.696965200    -0.6132250   -0.4459794  
   0.698965100    -0.6684816   -0.3532774  
   0.700965000    -0.7096589   -0.2543142  
   0.702964900    -0.7363274   -0.1505180  
   0.704964800    -0.7477962   -0.0442383  
   0.706964700    -0.7442822    0.0629469  
   0.708964600    -0.7248288    0.1685915  
   0.710964500    -0.6909021    0.2712735  
   0.712964400    -0.6417099    0.3679742  
   0.714964300    -0.5782969    0.4568939  
   0.716964200    -0.5022829    0.5354955  
   0.718964100    -0.4152850    0.6022538  
   0.720964000    -0.3192294    0.6554589  
   0.722963900    -0.2156262    0.6938227  
   0.724963800    -0.1065899    0.7158340  
   0.726963700     0.0046863    0.7206728  
   0.728963600     0.1163162    0.7086625  
   0.730963500     0.2248432    0.6782922  
   0.732963400     0.3271124    0.6318067  
   0.734963300     0.4218428    0.5694719  
   0.736963200     0.5175305    0.4808384  
   0.738963100     0.5961807    0.3758797  
   0.740963000     0.6541708    0.2588434  
   0.742962900     0.6899453    0.1341626  
   0.744962800     0.7026986    0.0059897  
   0.746962700     0.6927345   -0.1209751  
   0.748962600     0.6606893   -0.2434189  
   0.750962500     0.6778785   -0.1335468  
   0.752962400     0.6452913   -0.2539576  
   0.754962300     0.5927683   -0.3659968  
   0.756962200     0.5222387   -0.4663555  
   0.758962100     0.4365507   -0.5531766  
   0.760962000     0.3375698   -0.6236001  
   0.762961900     0.2338610   -0.6741207  
   0.764961800     0.1337885   -0.7056322  
   0.766961700     0.0302184   -0.7223485  
   0.768961600    -0.0748639   -0.7239738  
   0.770961500    -0.1793995   -0.7101685  
   0.772961400    -0.2807379   -0.6816653  
   0.774961300    -0.3771527   -0.6384067  
   0.776961200    -0.4666065   -0.5812542  
   0.778961100    -0.5467874   -0.5112736  
   0.780961000    -0.6161330   -0.4297748  
   0.782960900    -0.6727170   -0.3383846  
   0.784960800    -0.7153010   -0.2389273  
   0.786960700    -0.7423343   -0.1339134  
   0.788960600    -0.7535052   -0.0257977  
   0.790960500    -0.7483207    0.0831611  
   0.792960400    -0.7267003    0.1898723  
   0.794960300    -0.6893699    0.2922612  
   0.796960200    -0.6372048    0.3881153  
   0.798960100    -0.5715897    0.4750518  
   0.800960000    -0.4935106    0.5506120  
   0.802959900    -0.4049757    0.6144788  
   0.804959800    -0.3079114    0.6643125  
   0.806959700    -0.2042472    0.6992570  
   0.808959600    -0.0965813    0.7183949  
   0.810959500     0.0130051    0.7212145  
   0.812959400     0.1226417    0.7074875  
   0.814959300     0.2293402    0.6771706  
   0.816959200     0.3306843    0.6311143  
   0.818959100     0.4242269    0.5697324  
   0.820959000     0.5079014    0.4943313  
   0.822958900     0.5790732    0.4064522  
   0.824958800     0.6363883    0.3082044  
   0.826958700     0.6778013    0.2015250  
   0.828958600     0.7020147    0.0896898  
   0.830958500     0.7084695   -0.0252898  
   0.832958400     0.6965501   -0.1398294  
   0.834958300     0.6666808   -0.2509019  
   0.836958200     0.6198177   -0.3557352  
   0.838958100     0.5568644   -0.4521551  
   0.840958000     0.4796374   -0.5373337  
   0.842957900     0.3901618   -0.6088909  
   0.844957800     0.2906149   -0.6656291  
   0.846957700     0.1839694   -0.7058264  
   0.848957600     0.0725967   -0.7285369  
   0.850957500    -0.0402371   -0.7338938  
   0.852957400    -0.1518485   -0.7215109  
   0.854957300    -0.2595185   -0.6925811  
   0.856957200    -0.3609807   -0.6476238  
   0.858957100    -0.4537226   -0.5884795  
   0.860957000    -0.5356778   -0.5168173  
   0.862956900    -0.6056441   -0.4350001  
   0.864956800    -0.6620957   -0.3446486  
   0.866956700    -0.7045138   -0.2479414  
   0.868956600    -0.7319933   -0.1471019  
   0.870956500    -0.7452059   -0.0437502  
   0.872956400    -0.7436281    0.0602012  
   0.874956300    -0.7273059    0.1625887  
   0.876956200    -0.6964309    0.2621600  
   0.878956100    -0.6520687    0.3561348  
   0.880956000    -0.5946043    0.4434325  
   0.882955900    -0.5250274    0.5217851  
   0.884955800    -0.4446796    0.5897127  
   0.886955700    -0.3550338    0.6456671  
   0.888955600    -0.2576483    0.6888765  
   0.890955500    -0.1547728    0.7175254  
   0.892955400    -0.0481111    0.7308372  
   0.894955300     0.0603651    0.7283398  
