! MS46122B
! 2250307/22442219
! 7/23/2025 1:15:09 PM
! C:\USERS\SPARKY\DOCUMENTS\VNA_DATA\JULY23_2025\295K\ECAL_LOAD_C_REPEAT1.S1P
! CHANNEL.1
! TR.MEASUREMENT
! RAW.DATA
# GHZ S RI R 50.0
! FREQ.GHZ         S11RE         S11IM         
!; PortSelection: Port_1
   0.001000000     1.0456340   -0.0718703  
   0.002999900     0.9526021   -0.1942100  
   0.004999800     0.8769817   -0.2783474  
   0.006999700     0.7918196   -0.3677148  
   0.008999600     0.7001825   -0.4057770  
   0.010999500     0.6235762   -0.4307494  
   0.012999400     0.5568627   -0.4451586  
   0.014999300     0.5000941   -0.4517460  
   0.016999200     0.4515263   -0.4527318  
   0.018999100     0.4106370   -0.4492618  
   0.020999000     0.3767833   -0.4434635  
   0.022998900     0.3480220   -0.4362556  
   0.024998800     0.3180427   -0.4073651  
   0.026998700     0.3016644   -0.4202135  
   0.028998600     0.2825027   -0.4116734  
   0.030998500     0.2651293   -0.4032174  
   0.032998400     0.2453480   -0.3772294  
   0.034998300     0.2333452   -0.3867740  
   0.036998200     0.2190079   -0.3788011  
   0.038998100     0.2053984   -0.3712429  
   0.040998000     0.1923520   -0.3639390  
   0.042997900     0.1797118   -0.3568307  
   0.044997800     0.1663765   -0.3355342  
   0.046997700     0.1550229   -0.3434339  
   0.048997600     0.1436467   -0.3368363  
   0.050997500     0.1328262   -0.3302672  
   0.052997400     0.1230586   -0.3233749  
   0.054997300     0.1125721   -0.3174009  
   0.056997200     0.1031906   -0.3111832  
   0.058997100     0.0943632   -0.3050216  
   0.060997000     0.0858501   -0.2990087  
   0.062996900     0.0780698   -0.2931210  
   0.064996800     0.0708176   -0.2872353  
   0.066996700     0.0640637   -0.2814210  
   0.068996600     0.0577454   -0.2756302  
   0.070996500     0.0518975   -0.2701011  
   0.072996400     0.0464249   -0.2643031  
   0.074996300     0.0414100   -0.2585484  
   0.076996200     0.0367294   -0.2527264  
   0.078996100     0.0323958   -0.2469871  
   0.080996000     0.0283005   -0.2412849  
   0.082995900     0.0244213   -0.2355819  
   0.084995800     0.0207866   -0.2296071  
   0.086995700     0.0176113   -0.2239981  
   0.088995600     0.0147651   -0.2184748  
   0.090995500     0.0121687   -0.2130610  
   0.092995400     0.0098469   -0.2078991  
   0.094995300     0.0078537   -0.2026757  
   0.096995200     0.0060497   -0.1975217  
   0.098995100     0.0044454   -0.1925045  
   0.100995000     0.0019718   -0.1886092  
   0.102994900     0.0007651   -0.1840140  
   0.104994800    -0.0000185   -0.1796599  
   0.106994700    -0.0006773   -0.1753654  
   0.108994600    -0.0011210   -0.1714396  
   0.110994500    -0.0013632   -0.1677463  
   0.112994400    -0.0014981   -0.1643156  
   0.114994300    -0.0014941   -0.1611099  
   0.116994200    -0.0014061   -0.1581520  
   0.118994100    -0.0012213   -0.1554414  
   0.120994000    -0.0008521   -0.1529085  
   0.122993900    -0.0006627   -0.1505811  
   0.124993800    -0.0004779   -0.1485324  
   0.126993700    -0.0003046   -0.1467265  
   0.128993600    -0.0002204   -0.1450989  
   0.130993500    -0.0001730   -0.1437115  
   0.132993400    -0.0002575   -0.1425079  
   0.134993300    -0.0004585   -0.1414324  
   0.136993200    -0.0008243   -0.1404556  
   0.138993100    -0.0013462   -0.1395948  
   0.140993000    -0.0020374   -0.1387527  
   0.142992900    -0.0029203   -0.1379404  
   0.144992800    -0.0039444   -0.1372672  
   0.146992700    -0.0051951   -0.1364614  
   0.148992600    -0.0065548   -0.1355907  
   0.150992500    -0.0080581   -0.1345030  
   0.152992400    -0.0097474   -0.1334169  
   0.154992300    -0.0115176   -0.1321579  
   0.156992200    -0.0133893   -0.1307107  
   0.158992100    -0.0152851   -0.1290793  
   0.160992000    -0.0172509   -0.1272236  
   0.162991900    -0.0191630   -0.1251462  
   0.164991800    -0.0210366   -0.1228229  
   0.166991700    -0.0228257   -0.1202498  
   0.168991600    -0.0244860   -0.1174629  
   0.170991500    -0.0260158   -0.1144291  
   0.172991400    -0.0272567   -0.1111965  
   0.174991300    -0.0282486   -0.1078068  
   0.176991200    -0.0289512   -0.1042415  
   0.178991100    -0.0293566   -0.1005630  
   0.180991000    -0.0294245   -0.0968325  
   0.182990900    -0.0291164   -0.0929962  
   0.184990800    -0.0284045   -0.0892053  
   0.186990700    -0.0272824   -0.0854573  
   0.188990600    -0.0240201   -0.0823539  
   0.190990500    -0.0236381   -0.0784067  
   0.192990400    -0.0215697   -0.0750797  
   0.194990300    -0.0188998   -0.0721250  
   0.196990200    -0.0159271   -0.0695284  
   0.198990100    -0.0126243   -0.0673204  
   0.200990000    -0.0091172   -0.0655325  
   0.202989900    -0.0054075   -0.0642007  
   0.204989800    -0.0015764   -0.0633605  
   0.206989700     0.0023164   -0.0630573  
   0.208989600     0.0062557   -0.0632939  
   0.210989500     0.0101257   -0.0640522  
   0.212989400     0.0138761   -0.0653365  
   0.214989300     0.0174048   -0.0671200  
   0.216989200     0.0206666   -0.0693967  
   0.218989100     0.0235956   -0.0721100  
   0.220989000     0.0261074   -0.0752623  
   0.222988900     0.0281821   -0.0787581  
   0.224988800     0.0297483   -0.0825574  
   0.226988700     0.0307681   -0.0866169  
   0.228988600     0.0312732   -0.0907936  
   0.230988500     0.0312098   -0.0950955  
   0.232988400     0.0305487   -0.0992805  
   0.234988300     0.0293059   -0.1035201  
   0.236988200     0.0274639   -0.1075932  
   0.238988100     0.0251029   -0.1114574  
   0.240988000     0.0222860   -0.1150224  
   0.242987900     0.0190152   -0.1182647  
   0.244987800     0.0153937   -0.1210984  
   0.246987700     0.0112957   -0.1234587  
   0.248987600     0.0069720   -0.1254017  
   0.250987500     0.0024044   -0.1267961  
   0.252987400    -0.0022545   -0.1276516  
   0.254987300    -0.0069569   -0.1280164  
   0.256987200    -0.0115966   -0.1278929  
   0.258987100    -0.0161642   -0.1271256  
   0.260987000    -0.0205319   -0.1257942  
   0.262986900    -0.0246771   -0.1240055  
   0.264986800    -0.0285651   -0.1217657  
   0.266986700    -0.0320586   -0.1191679  
   0.268986600    -0.0351841   -0.1162417  
   0.270986500    -0.0377526   -0.1131607  
   0.272986400    -0.0398528   -0.1099266  
   0.274986300    -0.0415352   -0.1066604  
   0.276986200    -0.0427337   -0.1033917  
   0.278986100    -0.0434439   -0.1001059  
   0.280986000    -0.0436713   -0.0969589  
   0.282985900    -0.0435474   -0.0939914  
   0.284985800    -0.0429917   -0.0913516  
   0.286985700    -0.0420953   -0.0889992  
   0.288985600    -0.0408699   -0.0872121  
   0.290985500    -0.0394754   -0.0859212  
   0.292985400    -0.0379807   -0.0851478  
   0.294985300    -0.0364858   -0.0849373  
   0.296985200    -0.0351663   -0.0852165  
   0.298985100    -0.0341261   -0.0859271  
   0.300985000    -0.0334000   -0.0871446  
   0.302984900    -0.0331358   -0.0888197  
   0.304984800    -0.0334072   -0.0909566  
   0.306984700    -0.0342832   -0.0933702  
   0.308984600    -0.0358765   -0.0961113  
   0.310984500    -0.0382342   -0.0988604  
   0.312984400    -0.0415502   -0.1014387  
   0.314984300    -0.0458020   -0.1036953  
   0.316984200    -0.0511102   -0.1053319  
   0.318984100    -0.0574888   -0.1059304  
   0.320984000    -0.0646738   -0.1051085  
   0.322983900    -0.0722958   -0.1025554  
   0.324983800    -0.0797870   -0.0979727  
   0.326983700    -0.0864211   -0.0913927  
   0.328983600    -0.0914345   -0.0831937  
   0.330983500    -0.0941706   -0.0740823  
   0.332983400    -0.0943790   -0.0651308  
   0.334983300    -0.0925624   -0.0571080  
   0.336983200    -0.0894086   -0.0507302  
   0.338983100    -0.0858120   -0.0459709  
   0.340983000    -0.0823611   -0.0426530  
   0.342982900    -0.0795032   -0.0402453  
   0.344982800    -0.0772997   -0.0382106  
   0.346982700    -0.0757898   -0.0362285  
   0.348982600    -0.0744747   -0.0339878  
   0.350982500    -0.0736709   -0.0315074  
   0.352982400    -0.0728773   -0.0288389  
   0.354982300    -0.0722080   -0.0254469  
   0.356982200    -0.0713878   -0.0206232  
   0.358982100    -0.0700575   -0.0158199  
   0.360982000    -0.0680704   -0.0111452  
   0.362981900    -0.0654925   -0.0066928  
   0.364981800    -0.0623084   -0.0025333  
   0.366981700    -0.0585442    0.0011427  
   0.368981600    -0.0542703    0.0043415  
   0.370981500    -0.0496113    0.0068661  
   0.372981400    -0.0447741    0.0086270  
   0.374981300    -0.0397995    0.0096490  
   0.376981200    -0.0387032   -0.0004093  
   0.378981100    -0.0339128    0.0006864  
   0.380981000    -0.0291683    0.0009238  
   0.382980900    -0.0246506    0.0000553  
   0.384980800    -0.0204661   -0.0015670  
   0.386980700    -0.0165725   -0.0037668  
   0.388980600    -0.0131309   -0.0064538  
   0.390980500    -0.0101843   -0.0096597  
   0.392980400    -0.0077382   -0.0132926  
   0.394980300    -0.0058618   -0.0172173  
   0.396980200    -0.0046582   -0.0213002  
   0.398980100    -0.0041028   -0.0254848  
   0.400980000    -0.0042097   -0.0296367  
   0.402979900    -0.0049949   -0.0336716  
   0.404979800    -0.0063633   -0.0374621  
   0.406979700    -0.0083275   -0.0409681  
   0.408979600    -0.0107891   -0.0440274  
   0.410979500    -0.0138068   -0.0465801  
   0.412979400    -0.0172761   -0.0486267  
   0.414979300    -0.0210502   -0.0499024  
   0.416979200    -0.0250548   -0.0505301  
   0.418979100    -0.0291289   -0.0504431  
   0.420979000    -0.0331704   -0.0496687  
   0.422978900    -0.0371141   -0.0481715  
   0.424978800    -0.0408943   -0.0460010  
   0.426978700    -0.0443440   -0.0431826  
   0.428978600    -0.0473339   -0.0397482  
   0.430978500    -0.0497147   -0.0358180  
   0.432978400    -0.0513945   -0.0313825  
   0.434978300    -0.0523666   -0.0266743  
   0.436978200    -0.0526633   -0.0218222  
   0.438978100    -0.0521439   -0.0168386  
   0.440978000    -0.0508710   -0.0118672  
   0.442977900    -0.0488277   -0.0070393  
   0.444977800    -0.0459844   -0.0024563  
   0.446977700    -0.0423973    0.0017493  
   0.448977600    -0.0381447    0.0054644  
   0.450977500    -0.0332524    0.0085953  
   0.452977400    -0.0278820    0.0110586  
   0.454977300    -0.0220980    0.0127812  
   0.456977200    -0.0160123    0.0136359  
   0.458977100    -0.0097725    0.0135924  
   0.460977000    -0.0034208    0.0126210  
   0.462976900     0.0028138    0.0106875  
   0.464976800     0.0087758    0.0078207  
   0.466976700     0.0143437    0.0040312  
   0.468976600     0.0194093   -0.0005902  
   0.470976500     0.0237999   -0.0060016  
   0.472976400     0.0274376   -0.0120809  
   0.474976300     0.0302149   -0.0187238  
   0.476976200     0.0320436   -0.0257745  
   0.478976100     0.0329392   -0.0332251  
   0.480976000     0.0328592   -0.0407540  
   0.482975900     0.0317597   -0.0481311  
   0.484975800     0.0295956   -0.0553641  
   0.486975700     0.0263709   -0.0622983  
   0.488975600     0.0221299   -0.0689200  
   0.490975500     0.0169374   -0.0749124  
   0.492975400     0.0110481   -0.0800666  
   0.494975300     0.0043327   -0.0843679  
   0.496975200    -0.0030441   -0.0877654  
   0.498975100    -0.0107734   -0.0900370  
   0.500975000    -0.0188346   -0.0912236  
   0.502974900    -0.0270296   -0.0912813  
   0.504974800    -0.0352502   -0.0901422  
   0.506974700    -0.0433413   -0.0878018  
   0.508974600    -0.0512921   -0.0842954  
   0.510974500    -0.0588570   -0.0797487  
   0.512974400    -0.0654508   -0.0741660  
   0.514974300    -0.0710804   -0.0675847  
   0.516974200    -0.0757042   -0.0603496  
   0.518974100    -0.0791219   -0.0525728  
   0.520974000    -0.0813139   -0.0441488  
   0.522973900    -0.0822347   -0.0356425  
   0.524973800    -0.0819293   -0.0272854  
   0.526973700    -0.0803727   -0.0191090  
   0.528973600    -0.0776585   -0.0113341  
   0.530973500    -0.0738492   -0.0041455  
   0.532973400    -0.0690563    0.0023411  
   0.534973300    -0.0633989    0.0079651  
   0.536973200    -0.0570383    0.0126625  
   0.538973100    -0.0500684    0.0163545  
   0.540973000    -0.0427110    0.0189735  
   0.542972900    -0.0351249    0.0204741  
   0.544972800    -0.0274494    0.0208445  
   0.546972700    -0.0198880    0.0200379  
   0.548972600    -0.0125392    0.0180985  
   0.550972500    -0.0055929    0.0150834  
   0.552972400     0.0007883    0.0109944  
   0.554972300     0.0064712    0.0059344  
   0.556972200     0.0113250   -0.0000053  
   0.558972100     0.0153671   -0.0066604  
   0.560972000     0.0183560   -0.0138329  
   0.562971900     0.0201555   -0.0214354  
   0.564971800     0.0208735   -0.0293667  
   0.566971700     0.0202851   -0.0372006  
   0.568971600     0.0184969   -0.0449156  
   0.570971500     0.0155418   -0.0523478  
   0.572971400     0.0113993   -0.0593422  
   0.574971300     0.0060270   -0.0657978  
   0.576971200    -0.0004583   -0.0715403  
   0.578971100    -0.0076850   -0.0764582  
   0.580971000    -0.0156760   -0.0802247  
   0.582970900    -0.0241510   -0.0828515  
   0.584970800    -0.0330241   -0.0841260  
   0.586970700    -0.0420816   -0.0840842  
   0.588970600    -0.0513379   -0.0826518  
   0.590970500    -0.0602873   -0.0798773  
   0.592970400    -0.0689010   -0.0758389  
   0.594970300    -0.0769950   -0.0706796  
   0.596970200    -0.0843469   -0.0643829  
   0.598970100    -0.0908232   -0.0570205  
   0.600970000    -0.0963073   -0.0487549  
   0.602969900    -0.1006492   -0.0397155  
   0.604969800    -0.1038040   -0.0300443  
   0.606969700    -0.1056316   -0.0199359  
   0.608969600    -0.1060765   -0.0095588  
   0.610969500    -0.1050919    0.0008759  
   0.612969400    -0.1026553    0.0111304  
   0.614969300    -0.0987818    0.0209869  
   0.616969200    -0.0936617    0.0302506  
   0.618969100    -0.0873432    0.0387725  
   0.620969000    -0.0799999    0.0464168  
   0.622968900    -0.0716405    0.0529789  
   0.624968800    -0.0624601    0.0583589  
   0.626968700    -0.0525978    0.0624204  
   0.628968600    -0.0423193    0.0652841  
   0.630968500    -0.0316419    0.0667901  
   0.632968400    -0.0210170    0.0666104  
   0.634968300    -0.0105276    0.0650452  
   0.636968200    -0.0003404    0.0619588  
   0.638968100     0.0094047    0.0573628  
   0.640968000     0.0183865    0.0515331  
   0.642967900     0.0263013    0.0446847  
   0.644967800     0.0331262    0.0368466  
   0.646967700     0.0387308    0.0281915  
   0.648967600     0.0430220    0.0189539  
   0.650967500     0.0458966    0.0093242  
   0.652967400     0.0473037   -0.0004288  
   0.654967300     0.0474349   -0.0104613  
   0.656967200     0.0461191   -0.0200742  
   0.658967100     0.0433088   -0.0294430  
   0.660967000     0.0391883   -0.0382247  
   0.662966900     0.0339342   -0.0462843  
   0.664966800     0.0276326   -0.0534532  
   0.666966700     0.0203716   -0.0596405  
   0.668966600     0.0123793   -0.0646228  
   0.670966500     0.0034956   -0.0684225  
   0.672966400    -0.0053847   -0.0708695  
   0.674966300    -0.0144719   -0.0718093  
   0.676966200    -0.0234584   -0.0713288  
   0.678966100    -0.0322021   -0.0694867  
   0.680966000    -0.0405018   -0.0663693  
   0.682965900    -0.0481474   -0.0620591  
   0.684965800    -0.0550209   -0.0566423  
   0.686965700    -0.0609733   -0.0502993  
   0.688965600    -0.0658415   -0.0431750  
   0.690965500    -0.0695756   -0.0355490  
   0.692965400    -0.0720311   -0.0274724  
   0.694965300    -0.0732346   -0.0191447  
   0.696965200    -0.0731256   -0.0108204  
   0.698965100    -0.0717527   -0.0026380  
   0.700965000    -0.0690435    0.0051607  
   0.702964900    -0.0652626    0.0124640  
   0.704964800    -0.0603947    0.0191767  
   0.706964700    -0.0545432    0.0248362  
   0.708964600    -0.0476176    0.0296475  
   0.710964500    -0.0402488    0.0333545  
   0.712964400    -0.0324510    0.0357054  
   0.714964300    -0.0243268    0.0367483  
   0.716964200    -0.0162423    0.0365617  
   0.718964100    -0.0083515    0.0351461  
   0.720964000    -0.0009081    0.0325802  
   0.722963900     0.0060923    0.0287890  
   0.724963800     0.0125594    0.0239373  
   0.726963700     0.0181020    0.0183600  
   0.728963600     0.0226053    0.0119494  
   0.730963500     0.0259761    0.0047461  
   0.732963400     0.0282647   -0.0027189  
   0.734963300     0.0294898   -0.0105430  
   0.736963200     0.0301115   -0.0196534  
   0.738963100     0.0291383   -0.0285823  
   0.740963000     0.0266560   -0.0371330  
   0.742962900     0.0226751   -0.0452320  
   0.744962800     0.0173140   -0.0523212  
   0.746962700     0.0109483   -0.0582467  
   0.748962600     0.0037924   -0.0629982  
   0.750962500     0.0013957   -0.0608279  
   0.752962400    -0.0059274   -0.0652319  
   0.754962300    -0.0139722   -0.0682466  
   0.756962200    -0.0225093   -0.0697476  
   0.758962100    -0.0312225   -0.0696952  
   0.760962000    -0.0398959   -0.0680704  
   0.762961900    -0.0480974   -0.0652060  
   0.764961800    -0.0555338   -0.0615941  
   0.766961700    -0.0624226   -0.0569672  
   0.768961600    -0.0686163   -0.0513625  
   0.770961500    -0.0739629   -0.0449563  
   0.772961400    -0.0784197   -0.0378362  
   0.774961300    -0.0819059   -0.0301621  
   0.776961200    -0.0843616   -0.0218916  
   0.778961100    -0.0854600   -0.0134516  
   0.780961000    -0.0853308   -0.0050855  
   0.782960900    -0.0839246    0.0031935  
   0.784960800    -0.0812071    0.0112217  
   0.786960700    -0.0772680    0.0187580  
   0.788960600    -0.0722715    0.0256496  
   0.790960500    -0.0661706    0.0319087  
   0.792960400    -0.0593921    0.0370240  
   0.794960300    -0.0518768    0.0410306  
   0.796960200    -0.0439756    0.0438924  
   0.798960100    -0.0357218    0.0454659  
   0.800960000    -0.0273309    0.0457537  
   0.802959900    -0.0190788    0.0447352  
   0.804959800    -0.0112095    0.0425242  
   0.806959700    -0.0039722    0.0391179  
   0.808959600     0.0027341    0.0345792  
   0.810959500     0.0086183    0.0290391  
   0.812959400     0.0136486    0.0226397  
   0.814959300     0.0174966    0.0154696  
   0.816959200     0.0202059    0.0077809  
   0.818959100     0.0218364   -0.0004580  
   0.820959000     0.0219924   -0.0087003  
   0.822958900     0.0208655   -0.0169028  
   0.824958800     0.0184180   -0.0250097  
   0.826958700     0.0147315   -0.0326694  
   0.828958600     0.0098704   -0.0395731  
   0.830958500     0.0038970   -0.0456831  
   0.832958400    -0.0030072   -0.0508327  
   0.834958300    -0.0107477   -0.0548845  
   0.836958200    -0.0190944   -0.0577437  
   0.838958100    -0.0278752   -0.0593132  
   0.840958000    -0.0368737   -0.0595462  
   0.842957900    -0.0458854   -0.0584163  
   0.844957800    -0.0547576   -0.0558238  
   0.846957700    -0.0632335   -0.0518910  
   0.848957600    -0.0710156   -0.0467605  
   0.850957500    -0.0780274   -0.0404710  
   0.852957400    -0.0842149   -0.0330304  
   0.854957300    -0.0892477   -0.0247114  
   0.856957200    -0.0929481   -0.0158104  
   0.858957100    -0.0953976   -0.0064182  
   0.860957000    -0.0964546    0.0032773  
   0.862956900    -0.0961722    0.0129942  
   0.864956800    -0.0947049    0.0224820  
   0.866956700    -0.0919704    0.0316070  
   0.868956600    -0.0879226    0.0401633  
   0.870956500    -0.0827866    0.0481181  
   0.872956400    -0.0764658    0.0553362  
   0.874956300    -0.0692435    0.0616239  
   0.876956200    -0.0610869    0.0668197  
   0.878956100    -0.0522725    0.0707315  
   0.880956000    -0.0429589    0.0733183  
   0.882955900    -0.0333650    0.0746815  
   0.884955800    -0.0237646    0.0745829  
   0.886955700    -0.0141498    0.0731600  
   0.888955600    -0.0049583    0.0703738  
   0.890955500     0.0035342    0.0663330  
   0.892955400     0.0111979    0.0611300  
   0.894955300     0.0179579    0.0549055  
