! MS46122B
! 2250307/22442219
! 7/26/2025 10:27:53 AM
! C:\USERS\SPARKY\DOCUMENTS\VNA_DATA\JULY26_2025\295K\ECAL_SHORT_E_REPEAT1.S1P
! CHANNEL.1
! TR.MEASUREMENT
! RAW.DATA
# GHZ S RI R 50.0
! FREQ.GHZ         S11RE         S11IM         
!; PortSelection: Port_1
   0.001000000     1.0460220   -0.0715242  
   0.002999900     0.9645141   -0.1940888  
   0.004999800     0.9044181   -0.2989927  
   0.006999700     0.8375289   -0.3964420  
   0.008999600     0.7595587   -0.4914396  
   0.010999500     0.6677984   -0.5816560  
   0.012999400     0.5571058   -0.6645742  
   0.014999300     0.4225670   -0.7346143  
   0.016999200     0.2580882   -0.7807222  
   0.018999100     0.0600796   -0.7859983  
   0.020999000    -0.1651722   -0.7223913  
   0.022998900    -0.3899689   -0.5554820  
   0.024998800    -0.5280603   -0.2665843  
   0.026998700    -0.5541523    0.1055359  
   0.028998600    -0.3639199    0.4432332  
   0.030998500    -0.0462748    0.6326446  
   0.032998400     0.2574364    0.6370075  
   0.034998300     0.5423886    0.5592710  
   0.036998200     0.7225542    0.4101204  
   0.038998100     0.8323942    0.2454156  
   0.040998000     0.8894113    0.0848345  
   0.042997900     0.9085628   -0.0637216  
   0.044997800     0.8719450   -0.1747312  
   0.046997700     0.8713067   -0.3159057  
   0.048997600     0.8296581   -0.4204756  
   0.050997500     0.7767487   -0.5118995  
   0.052997400     0.7169198   -0.5901918  
   0.054997300     0.6496447   -0.6604567  
   0.056997200     0.5775324   -0.7201515  
   0.058997100     0.5019159   -0.7703360  
   0.060997000     0.4227362   -0.8118092  
   0.062996900     0.3403922   -0.8452492  
   0.064996800     0.2554823   -0.8698330  
   0.066996700     0.1679488   -0.8855342  
   0.068996600     0.0782935   -0.8927225  
   0.070996500    -0.0126405   -0.8911294  
   0.072996400    -0.1046107   -0.8787166  
   0.074996300    -0.1973145   -0.8555813  
   0.076996200    -0.2893962   -0.8211069  
   0.078996100    -0.3795774   -0.7749767  
   0.080996000    -0.4665849   -0.7160392  
   0.082995900    -0.5486667   -0.6436162  
   0.084995800    -0.6231834   -0.5568577  
   0.086995700    -0.6885091   -0.4572113  
   0.088995600    -0.7414504   -0.3437697  
   0.090995500    -0.7787407   -0.2178943  
   0.092995400    -0.7973008   -0.0809677  
   0.094995300    -0.7914684    0.0636706  
   0.096995200    -0.7589176    0.2123628  
   0.098995100    -0.6967379    0.3585640  
   0.100995000    -0.6034758    0.4971198  
   0.102994900    -0.4810531    0.6161674  
   0.104994800    -0.3328866    0.7099309  
   0.106994700    -0.1648881    0.7709197  
   0.108994600     0.0132146    0.7952058  
   0.110994500     0.1923252    0.7807931  
   0.112994400     0.3627817    0.7286597  
   0.114994300     0.5154488    0.6436568  
   0.116994200     0.6435750    0.5317134  
   0.118994100     0.7436072    0.4009095  
   0.120994000     0.8151391    0.2587951  
   0.122993900     0.8558619    0.1115137  
   0.124993800     0.8686084   -0.0343362  
   0.126993700     0.8568043   -0.1745429  
   0.128993600     0.8220466   -0.3041202  
   0.130993500     0.7710361   -0.4226159  
   0.132993400     0.7050784   -0.5279005  
   0.134993300     0.6274947   -0.6189959  
   0.136993200     0.5404384   -0.6957966  
   0.138993100     0.4465853   -0.7579316  
   0.140993000     0.3478341   -0.8057705  
   0.142992900     0.2457450   -0.8400645  
   0.144992800     0.1423845   -0.8613115  
   0.146992700     0.0380687   -0.8684777  
   0.148992600    -0.0653668   -0.8628418  
   0.150992500    -0.1666876   -0.8433747  
   0.152992400    -0.2646796   -0.8127626  
   0.154992300    -0.3585345   -0.7699761  
   0.156992200    -0.4470635   -0.7159781  
   0.158992100    -0.5289457   -0.6507993  
   0.160992000    -0.6030794   -0.5747042  
   0.162991900    -0.6677762   -0.4886784  
   0.164991800    -0.7217407   -0.3927060  
   0.166991700    -0.7634069   -0.2886931  
   0.168991600    -0.7910537   -0.1775368  
   0.170991500    -0.8035015   -0.0601613  
   0.172991400    -0.7989600    0.0601410  
   0.174991300    -0.7763148    0.1818988  
   0.176991200    -0.7342754    0.3023743  
   0.178991100    -0.6725472    0.4179806  
   0.180991000    -0.5920140    0.5255052  
   0.182990900    -0.4919460    0.6199051  
   0.184990800    -0.3743930    0.6985220  
   0.186990700    -0.2425340    0.7570772  
   0.188990600    -0.1236116    0.7883932  
   0.190990500     0.0434081    0.8009813  
   0.192990400     0.1953155    0.7838021  
   0.194990300     0.3391626    0.7402991  
   0.196990200     0.4722315    0.6718103  
   0.198990100     0.5902246    0.5813578  
   0.200990000     0.6899060    0.4715868  
   0.202989900     0.7677978    0.3475183  
   0.204989800     0.8222836    0.2138487  
   0.206989700     0.8531682    0.0761168  
   0.208989600     0.8592750   -0.0617067  
   0.210989500     0.8432239   -0.1962634  
   0.212989400     0.8064649   -0.3235782  
   0.214989300     0.7514923   -0.4408413  
   0.216989200     0.6813711   -0.5450727  
   0.218989100     0.5985872   -0.6356764  
   0.220989000     0.5052601   -0.7117825  
   0.222988900     0.4038543   -0.7725402  
   0.224988800     0.2969630   -0.8175416  
   0.226988700     0.1866065   -0.8471123  
   0.228988600     0.0759256   -0.8608859  
   0.230988500    -0.0348471   -0.8595854  
   0.232988400    -0.1431189   -0.8426604  
   0.234988300    -0.2483720   -0.8128555  
   0.236988200    -0.3483053   -0.7694649  
   0.238988100    -0.4415144   -0.7131332  
   0.240988000    -0.5265442   -0.6453647  
   0.242987900    -0.6016778   -0.5668069  
   0.244987800    -0.6661422   -0.4779842  
   0.246987700    -0.7189458   -0.3800849  
   0.248987600    -0.7581936   -0.2739808  
   0.250987500    -0.7827545   -0.1617014  
   0.252987400    -0.7910751   -0.0457269  
   0.254987300    -0.7824062    0.0721333  
   0.256987200    -0.7560835    0.1892456  
   0.258987100    -0.7125658    0.3041322  
   0.260987000    -0.6491719    0.4128266  
   0.262986900    -0.5673100    0.5127130  
   0.264986800    -0.4684560    0.5999466  
   0.266986700    -0.3541903    0.6711639  
   0.268986600    -0.2274898    0.7225768  
   0.270986500    -0.0921308    0.7516499  
   0.272986400     0.0477055    0.7569267  
   0.274986300     0.1880982    0.7372478  
   0.276986200     0.3235425    0.6925139  
   0.278986100     0.4497394    0.6236549  
   0.280986000     0.5613396    0.5331643  
   0.282985900     0.6549067    0.4242427  
   0.284985800     0.7262205    0.3014796  
   0.286985700     0.7741725    0.1697035  
   0.288985600     0.7979425    0.0339959  
   0.290985500     0.7977983   -0.1006886  
   0.292985400     0.7751203   -0.2304744  
   0.294985300     0.7327182   -0.3520233  
   0.296985200     0.6723475   -0.4631583  
   0.298985100     0.5964956   -0.5614073  
   0.300985000     0.5085913   -0.6445704  
   0.302984900     0.4114361   -0.7117503  
   0.304984800     0.3078082   -0.7623942  
   0.306984700     0.2011812   -0.7967809  
   0.308984600     0.0940455   -0.8150605  
   0.310984500    -0.0119863   -0.8188547  
   0.312984400    -0.1150960   -0.8085028  
   0.314984300    -0.2142019   -0.7855395  
   0.316984200    -0.3080793   -0.7505662  
   0.318984100    -0.3963019   -0.7045010  
   0.320984000    -0.4779361   -0.6487833  
   0.322983900    -0.5520507   -0.5837438  
   0.324983800    -0.6182547   -0.5110359  
   0.326983700    -0.6756349   -0.4305965  
   0.328983600    -0.7245001   -0.3429425  
   0.330983500    -0.7632227   -0.2479496  
   0.332983400    -0.7897557   -0.1464390  
   0.334983300    -0.8022215   -0.0389173  
   0.336983200    -0.7983944    0.0715753  
   0.338983100    -0.7773969    0.1821160  
   0.340983000    -0.7393615    0.2889430  
   0.342982900    -0.6852555    0.3898103  
   0.344982800    -0.6162851    0.4823671  
   0.346982700    -0.5330317    0.5651767  
   0.348982600    -0.4372798    0.6345631  
   0.350982500    -0.3319783    0.6900769  
   0.352982400    -0.2182644    0.7299527  
   0.354982300    -0.0932632    0.7526746  
   0.356982200     0.0476404    0.7540771  
   0.358982100     0.1874455    0.7298467  
   0.360982000     0.3205864    0.6807333  
   0.362981900     0.4435944    0.6080828  
   0.364981800     0.5521140    0.5137584  
   0.366981700     0.6419538    0.4001882  
   0.368981600     0.7095325    0.2712747  
   0.370981500     0.7522824    0.1316221  
   0.372981400     0.7681414   -0.0138581  
   0.374981300     0.7563105   -0.1605025  
   0.376981200     0.7703061   -0.0568781  
   0.378981100     0.7498730   -0.2018797  
   0.380981000     0.7031063   -0.3395149  
   0.382980900     0.6389158   -0.4550427  
   0.384980800     0.5606884   -0.5527596  
   0.386980700     0.4687827   -0.6359648  
   0.388980600     0.3658063   -0.7027380  
   0.390980500     0.2557655   -0.7516025  
   0.392980400     0.1412154   -0.7824767  
   0.394980300     0.0255101   -0.7954322  
   0.396980200    -0.0895300   -0.7912422  
   0.398980100    -0.2016999   -0.7706868  
   0.400980000    -0.3077791   -0.7338895  
   0.402979900    -0.4075588   -0.6825933  
   0.404979800    -0.4972367   -0.6185749  
   0.406979700    -0.5767673   -0.5427456  
   0.408979600    -0.6444776   -0.4573555  
   0.410979500    -0.6996228   -0.3628641  
   0.412979400    -0.7413948   -0.2609223  
   0.414979300    -0.7668626   -0.1542398  
   0.416979200    -0.7787812   -0.0444317  
   0.418979100    -0.7752534    0.0656902  
   0.420979000    -0.7559397    0.1749845  
   0.422978900    -0.7208181    0.2814139  
   0.424978800    -0.6703623    0.3823074  
   0.426978700    -0.6054695    0.4763676  
   0.428978600    -0.5267251    0.5604820  
   0.430978500    -0.4359027    0.6324614  
   0.432978400    -0.3346458    0.6907633  
   0.434978300    -0.2254166    0.7348089  
   0.436978200    -0.1091853    0.7613305  
   0.438978100     0.0111786    0.7696168  
   0.440978000     0.1326611    0.7593799  
   0.442977900     0.2521287    0.7302201  
   0.444977800     0.3662447    0.6824496  
   0.446977700     0.4722127    0.6167105  
   0.448977600     0.5668049    0.5346493  
   0.450977500     0.6474595    0.4379833  
   0.452977400     0.7119596    0.3294497  
   0.454977300     0.7583513    0.2109910  
   0.456977200     0.7848945    0.0864551  
   0.458977100     0.7908453   -0.0406644  
   0.460977000     0.7762874   -0.1664827  
   0.462976900     0.7421089   -0.2867970  
   0.464976800     0.6893936   -0.4000078  
   0.466976700     0.6204649   -0.5021436  
   0.468976600     0.5369235   -0.5916899  
   0.470976500     0.4416605   -0.6660296  
   0.472976400     0.3373199   -0.7240655  
   0.474976300     0.2264340   -0.7652652  
   0.476976200     0.1122701   -0.7888997  
   0.478976100    -0.0022775   -0.7954448  
   0.480976000    -0.1147902   -0.7851914  
   0.482975900    -0.2229075   -0.7590755  
   0.484975800    -0.3252208   -0.7186010  
   0.486975700    -0.4203729   -0.6640639  
   0.488975600    -0.5062713   -0.5974008  
   0.490975500    -0.5818511   -0.5198635  
   0.492975400    -0.6457292   -0.4321866  
   0.494975300    -0.6967591   -0.3365839  
   0.496975200    -0.7340398   -0.2344578  
   0.498975100    -0.7563098   -0.1283733  
   0.500975000    -0.7635111   -0.0192741  
   0.502974900    -0.7547411    0.0897225  
   0.504974800    -0.7300619    0.1978697  
   0.506974700    -0.6893220    0.3019900  
   0.508974600    -0.6323686    0.4003843  
   0.510974500    -0.5600508    0.4894306  
   0.512974400    -0.4742762    0.5665656  
   0.514974300    -0.3767106    0.6282339  
   0.516974200    -0.2709690    0.6741931  
   0.518974100    -0.1594075    0.7021614  
   0.520974000    -0.0454129    0.7120206  
   0.522973900     0.0676460    0.7036000  
   0.524973800     0.1768549    0.6777821  
   0.526973700     0.2793385    0.6359537  
   0.528973600     0.3733906    0.5800676  
   0.530973500     0.4574083    0.5115808  
   0.532973400     0.5301663    0.4327091  
   0.534973300     0.5902836    0.3447879  
   0.536973200     0.6375045    0.2495979  
   0.538973100     0.6705982    0.1490445  
   0.540973000     0.6894448    0.0453038  
   0.542972900     0.6932344   -0.0608201  
   0.544972800     0.6812949   -0.1662269  
   0.546972700     0.6541553   -0.2704712  
   0.548972600     0.6115105   -0.3698920  
   0.550972500     0.5544286   -0.4623669  
   0.552972400     0.4832021   -0.5460967  
   0.554972300     0.3999803   -0.6177911  
   0.556972200     0.3060737   -0.6769278  
   0.558972100     0.2042509   -0.7207716  
   0.560972000     0.0972078   -0.7489045  
   0.562971900    -0.0127052   -0.7601988  
   0.564971800    -0.1225014   -0.7545822  
   0.566971700    -0.2300771   -0.7331420  
   0.568971600    -0.3329347   -0.6959277  
   0.570971500    -0.4288239   -0.6442803  
   0.572971400    -0.5161031   -0.5791045  
   0.574971300    -0.5931159   -0.5016068  
   0.576971200    -0.6581773   -0.4135075  
   0.578971100    -0.7096832   -0.3167787  
   0.580971000    -0.7467707   -0.2138025  
   0.582970900    -0.7682922   -0.1067045  
   0.584970800    -0.7740718    0.0021809  
   0.586970700    -0.7642322    0.1107103  
   0.588970600    -0.7389868    0.2167715  
   0.590970500    -0.6986506    0.3184986  
   0.592970400    -0.6437237    0.4137844  
   0.594970300    -0.5755002    0.5003179  
   0.596970200    -0.4947582    0.5768505  
   0.598970100    -0.4033777    0.6410775  
   0.600970000    -0.3023641    0.6915420  
   0.602969900    -0.1943843    0.7266071  
   0.604969800    -0.0808576    0.7457604  
   0.606969700     0.0349927    0.7471057  
   0.608969600     0.1510737    0.7303109  
   0.610969500     0.2641587    0.6956575  
   0.612969400     0.3710858    0.6431261  
   0.614969300     0.4691572    0.5743809  
   0.616969200     0.5550203    0.4905133  
   0.618969100     0.6266369    0.3941432  
   0.620969000     0.6820348    0.2875692  
   0.622968900     0.7199007    0.1734503  
   0.624968800     0.7388580    0.0538221  
   0.626968700     0.7381617   -0.0672112  
   0.628968600     0.7183700   -0.1865704  
   0.630968500     0.6793138   -0.3012030  
   0.632968400     0.6227151   -0.4077001  
   0.634968300     0.5498052   -0.5032296  
   0.636968200     0.4631887   -0.5852431  
   0.638968100     0.3654322   -0.6516166  
   0.640968000     0.2589292   -0.7016207  
   0.642967900     0.1472625   -0.7341781  
   0.644967800     0.0328008   -0.7483005  
   0.646967700    -0.0811178   -0.7449283  
   0.648967600    -0.1919332   -0.7242873  
   0.650967500    -0.2966031   -0.6876541  
   0.652967400    -0.3939821   -0.6363776  
   0.654967300    -0.4817623   -0.5718609  
   0.656967200    -0.5584227   -0.4960028  
   0.658967100    -0.6229785   -0.4101983  
   0.660967000    -0.6743352   -0.3162653  
   0.662966900    -0.7113458   -0.2160713  
   0.664966800    -0.7336766   -0.1115085  
   0.666966700    -0.7405564   -0.0046304  
   0.668966600    -0.7319592    0.1022964  
   0.670966500    -0.7077546    0.2068098  
   0.672966400    -0.6696481    0.3077511  
   0.674966300    -0.6162070    0.4014458  
   0.676966200    -0.5493166    0.4867447  
   0.678966100    -0.4708773    0.5612441  
   0.680966000    -0.3814370    0.6240516  
   0.682965900    -0.2827652    0.6732647  
   0.684965800    -0.1773658    0.7076459  
   0.686965700    -0.0669171    0.7253979  
   0.688965600     0.0458990    0.7264844  
   0.690965500     0.1579155    0.7089499  
   0.692965400     0.2675457    0.6750576  
   0.694965300     0.3708056    0.6242778  
   0.696965200     0.4650248    0.5575644  
   0.698965100     0.5486000    0.4760349  
   0.700965000     0.6179256    0.3817606  
   0.702964900     0.6719262    0.2773943  
   0.704964800     0.7085516    0.1652544  
   0.706964700     0.7264054    0.0487680  
   0.708964600     0.7254066   -0.0695705  
   0.710964500     0.7061400   -0.1858006  
   0.712964400     0.6680745   -0.2962070  
   0.714964300     0.6128644   -0.3990869  
   0.716964200     0.5430531   -0.4898270  
   0.718964100     0.4609936   -0.5679197  
   0.720964000     0.3690802   -0.6311506  
   0.722963900     0.2702042   -0.6790050  
   0.724963800     0.1667621   -0.7113550  
   0.726963700     0.0608460   -0.7279711  
   0.728963600    -0.0448641   -0.7288536  
   0.730963500    -0.1487929   -0.7141172  
   0.732963400    -0.2484882   -0.6857690  
   0.734963300    -0.3428774   -0.6438222  
   0.736963200    -0.4420824   -0.5794751  
   0.738963100    -0.5294712   -0.4997081  
   0.740963000    -0.6025016   -0.4066729  
   0.742962900    -0.6595232   -0.3031041  
   0.744962800    -0.6985971   -0.1913267  
   0.746962700    -0.7187695   -0.0743275  
   0.748962600    -0.7192556    0.0454043  
   0.750962500    -0.7320794   -0.0654899  
   0.752962400    -0.7305773    0.0553185  
   0.754962300    -0.7085639    0.1748533  
   0.756962200    -0.6663837    0.2895781  
   0.758962100    -0.6051195    0.3953684  
   0.760962000    -0.5258057    0.4899907  
   0.762961900    -0.4364048    0.5661592  
   0.764961800    -0.3452904    0.6218942  
   0.766961700    -0.2468505    0.6630489  
   0.768961600    -0.1426483    0.6887820  
   0.770961500    -0.0360415    0.6984113  
   0.772961400     0.0705851    0.6919419  
   0.774961300     0.1748658    0.6695045  
   0.776961200     0.2751171    0.6314102  
   0.778961100     0.3681996    0.5787210  
   0.780961000     0.4530163    0.5121732  
   0.782960900     0.5271029    0.4333419  
   0.784960800     0.5889473    0.3437943  
   0.786960700     0.6364725    0.2455163  
   0.788960600     0.6684169    0.1404991  
   0.790960500     0.6841108    0.0318573  
   0.792960400     0.6826743   -0.0779499  
   0.794960300     0.6644794   -0.1861984  
   0.796960200     0.6298481   -0.2905641  
   0.798960100     0.5795000   -0.3880357  
   0.800960000     0.5148177   -0.4763690  
   0.802959900     0.4373889   -0.5538689  
   0.804959800     0.3492256   -0.6184490  
   0.806959700     0.2524131   -0.6687611  
   0.808959600     0.1492922   -0.7036766  
   0.810959500     0.0421926   -0.7223094  
   0.812959400    -0.0662918   -0.7245702  
   0.814959300    -0.1737621   -0.7104522  
   0.816959200    -0.2772940   -0.6804599  
   0.818959100    -0.3750840   -0.6352036  
   0.820959000    -0.4645394   -0.5762202  
   0.822958900    -0.5438733   -0.5047819  
   0.824958800    -0.6116738   -0.4225245  
   0.826958700    -0.6664655   -0.3314072  
   0.828958600    -0.7073080   -0.2334629  
   0.830958500    -0.7329355   -0.1309031  
   0.832958400    -0.7436015   -0.0261492  
   0.834958300    -0.7387247    0.0788690  
   0.836958200    -0.7191886    0.1817590  
   0.838958100    -0.6846687    0.2805346  
   0.840958000    -0.6359411    0.3735065  
   0.842957900    -0.5744241    0.4587783  
   0.844957800    -0.5006799    0.5348658  
   0.846957700    -0.4167722    0.5995219  
   0.848957600    -0.3238230    0.6513088  
   0.850957500    -0.2238513    0.6893620  
   0.852957400    -0.1183829    0.7121395  
   0.854957300    -0.0102323    0.7191674  
   0.856957200     0.0983866    0.7096491  
   0.858957100     0.2048359    0.6838903  
   0.860957000     0.3061078    0.6421455  
   0.862956900     0.4001533    0.5851923  
   0.864956800     0.4845724    0.5144954  
   0.866956700     0.5572410    0.4316193  
   0.868956600     0.6159539    0.3376451  
   0.870956500     0.6601629    0.2355673  
   0.872956400     0.6884487    0.1269071  
   0.874956300     0.6993151    0.0148788  
   0.876956200     0.6920975   -0.0984858  
   0.878956100     0.6670164   -0.2094439  
   0.880956000     0.6241209   -0.3152439  
   0.882955900     0.5648752   -0.4126451  
   0.884955800     0.4909505   -0.4994753  
   0.886955700     0.4039499   -0.5729159  
   0.888955600     0.3070605   -0.6310357  
   0.890955500     0.2024329   -0.6730193  
   0.892955400     0.0932701   -0.6973556  
   0.894955300    -0.0174351   -0.7042474  
