! MS46122B
! 2250307/22442219
! 7/21/2025 12:12:47 PM
! C:\USERS\SPARKY\DOCUMENTS\VNA_DATA\JULY21_2025\295K\ECAL_OPEN_A_REPEAT1.S1P
! CHANNEL.1
! TR.MEASUREMENT
! RAW.DATA
# GHZ S RI R 50.0
! FREQ.GHZ         S11RE         S11IM         
!; PortSelection: Port_1
   0.001000000     1.0453950   -0.0716038  
   0.002999900     0.9478404   -0.2216460  
   0.004999800     0.8113587   -0.0914203  
   0.006999700     0.5243950   -0.4062424  
   0.008999600     0.9395187    0.0026110  
   0.010999500     0.9261248   -0.2251455  
   0.012999400     0.8867479   -0.3340070  
   0.014999300     0.8471422   -0.4158456  
   0.016999200     0.8071614   -0.4865904  
   0.018999100     0.7646750   -0.5520977  
   0.020999000     0.7181668   -0.6129671  
   0.022998900     0.6665605   -0.6687732  
   0.024998800     0.6008663   -0.6848524  
   0.026998700     0.5476173   -0.7668115  
   0.028998600     0.4785714   -0.8081339  
   0.030998500     0.4028317   -0.8430625  
   0.032998400     0.3227378   -0.8365665  
   0.034998300     0.2300077   -0.8902808  
   0.036998200     0.1339982   -0.8997514  
   0.038998100     0.0319109   -0.8976893  
   0.040998000    -0.0751259   -0.8816398  
   0.042997900    -0.1856258   -0.8505516  
   0.044997800    -0.2750842   -0.7797699  
   0.046997700    -0.4081400   -0.7315447  
   0.048997600    -0.5133206   -0.6404601  
   0.050997500    -0.6084861   -0.5250735  
   0.052997400    -0.6867298   -0.3849021  
   0.054997300    -0.7399169   -0.2214099  
   0.056997200    -0.7584999   -0.0362370  
   0.058997100    -0.7326297    0.1593349  
   0.060997000    -0.6560391    0.3525548  
   0.062996900    -0.5272725    0.5269211  
   0.064996800    -0.3527893    0.6641728  
   0.066996700    -0.1466101    0.7505032  
   0.068996600     0.0722575    0.7776212  
   0.070996500     0.2850415    0.7479923  
   0.072996400     0.4750075    0.6685312  
   0.074996300     0.6310229    0.5522992  
   0.076996200     0.7493377    0.4125395  
   0.078996100     0.8296108    0.2614710  
   0.080996000     0.8748294    0.1075148  
   0.082995900     0.8898451   -0.0417470  
   0.084995800     0.8782271   -0.1814071  
   0.086995700     0.8468623   -0.3095721  
   0.088995600     0.7984343   -0.4251408  
   0.090995500     0.7372140   -0.5268856  
   0.092995400     0.6664682   -0.6163496  
   0.094995300     0.5868086   -0.6916013  
   0.096995200     0.5011567   -0.7538700  
   0.098995100     0.4101784   -0.8041275  
   0.100995000     0.3160283   -0.8423858  
   0.102994900     0.2198353   -0.8684101  
   0.104994800     0.1220693   -0.8830580  
   0.106994700     0.0235864   -0.8859438  
   0.108994600    -0.0742571   -0.8782002  
   0.110994500    -0.1712337   -0.8594766  
   0.112994400    -0.2660755   -0.8290380  
   0.114994300    -0.3581758   -0.7874641  
   0.116994200    -0.4458866   -0.7345059  
   0.118994100    -0.5278752   -0.6696202  
   0.120994000    -0.6043903   -0.5945362  
   0.122993900    -0.6714671   -0.5070562  
   0.124993800    -0.7282268   -0.4085632  
   0.126993700    -0.7730651   -0.2996302  
   0.128993600    -0.8015002   -0.1818682  
   0.130993500    -0.8140584   -0.0567629  
   0.132993400    -0.8079771    0.0735908  
   0.134993300    -0.7806435    0.2061347  
   0.136993200    -0.7302917    0.3368464  
   0.138993100    -0.6562785    0.4620921  
   0.140993000    -0.5588041    0.5759665  
   0.142992900    -0.4389618    0.6736022  
   0.144992800    -0.3003439    0.7504158  
   0.146992700    -0.1459856    0.7993653  
   0.148992600     0.0174323    0.8180436  
   0.150992500     0.1819405    0.8036155  
   0.152992400     0.3414504    0.7581912  
   0.154992300     0.4880648    0.6831888  
   0.156992200     0.6163536    0.5820820  
   0.158992100     0.7211554    0.4606893  
   0.160992000     0.7994716    0.3242575  
   0.162991900     0.8503166    0.1793636  
   0.164991800     0.8741379    0.0316549  
   0.166991700     0.8717141   -0.1128322  
   0.168991600     0.8458239   -0.2505717  
   0.170991500     0.7992205   -0.3785334  
   0.172991400     0.7346762   -0.4936504  
   0.174991300     0.6563509   -0.5940947  
   0.176991200     0.5660827   -0.6795863  
   0.178991100     0.4667834   -0.7491382  
   0.180991000     0.3619927   -0.8034711  
   0.182990900     0.2525492   -0.8407540  
   0.184990800     0.1408582   -0.8625858  
   0.186990700     0.0288411   -0.8693221  
   0.188990600    -0.0573255   -0.8622857  
   0.190990500    -0.1855438   -0.8387939  
   0.192990400    -0.2922200   -0.8019289  
   0.194990300    -0.3897158   -0.7524632  
   0.196990200    -0.4798706   -0.6911989  
   0.198990100    -0.5612290   -0.6181909  
   0.200990000    -0.6334698   -0.5341825  
   0.202989900    -0.6944032   -0.4399640  
   0.204989800    -0.7428584   -0.3374455  
   0.206989700    -0.7782404   -0.2278060  
   0.208989600    -0.7972888   -0.1125814  
   0.210989500    -0.7998843    0.0071893  
   0.212989400    -0.7846821    0.1290257  
   0.214989300    -0.7506462    0.2498176  
   0.216989200    -0.6977776    0.3662907  
   0.218989100    -0.6260100    0.4754648  
   0.220989000    -0.5353280    0.5741031  
   0.222988900    -0.4273353    0.6586192  
   0.224988800    -0.3040598    0.7260494  
   0.226988700    -0.1692204    0.7718222  
   0.228988600    -0.0268207    0.7937140  
   0.230988500     0.1188793    0.7906440  
   0.232988400     0.2629281    0.7605058  
   0.234988300     0.4005966    0.7062357  
   0.236988200     0.5267650    0.6279789  
   0.238988100     0.6361902    0.5294041  
   0.240988000     0.7259821    0.4138401  
   0.242987900     0.7932436    0.2866259  
   0.244987800     0.8369437    0.1511081  
   0.246987700     0.8568054    0.0126468  
   0.248987600     0.8535865   -0.1250946  
   0.250987500     0.8283855   -0.2578759  
   0.252987400     0.7830330   -0.3820629  
   0.254987300     0.7212857   -0.4942731  
   0.256987200     0.6447474   -0.5934989  
   0.258987100     0.5573148   -0.6793704  
   0.260987000     0.4590670   -0.7493035  
   0.262986900     0.3539350   -0.8037446  
   0.264986800     0.2443477   -0.8423895  
   0.266986700     0.1319191   -0.8647630  
   0.268986600     0.0196918   -0.8720422  
   0.270986500    -0.0903716   -0.8642764  
   0.272986400    -0.1973133   -0.8423312  
   0.274986300    -0.2998745   -0.8072423  
   0.276986200    -0.3965844   -0.7590422  
   0.278986100    -0.4866570   -0.6987485  
   0.280986000    -0.5681681   -0.6269678  
   0.282985900    -0.6399356   -0.5445479  
   0.284985800    -0.7010071   -0.4529822  
   0.286985700    -0.7492917   -0.3532751  
   0.288985600    -0.7839066   -0.2475701  
   0.290985500    -0.8040208   -0.1370969  
   0.292985400    -0.8087786   -0.0230951  
   0.294985300    -0.7970329    0.0927057  
   0.296985200    -0.7680462    0.2087385  
   0.298985100    -0.7203328    0.3221985  
   0.300985000    -0.6537243    0.4292372  
   0.302984900    -0.5690458    0.5264574  
   0.304984800    -0.4668820    0.6096061  
   0.306984700    -0.3496428    0.6751967  
   0.308984600    -0.2205941    0.7191756  
   0.310984500    -0.0841228    0.7389067  
   0.312984400     0.0548362    0.7314693  
   0.314984300     0.1898118    0.6967579  
   0.316984200     0.3136371    0.6355395  
   0.318984100     0.4205165    0.5513410  
   0.320984000     0.5036575    0.4503956  
   0.322983900     0.5606537    0.3406986  
   0.324983800     0.5922194    0.2318228  
   0.326983700     0.6031166    0.1310253  
   0.328983600     0.6009295    0.0413625  
   0.330983500     0.5931262   -0.0371935  
   0.332983400     0.5844788   -0.1093314  
   0.334983300     0.5759960   -0.1808710  
   0.336983200     0.5648338   -0.2567803  
   0.338983100     0.5457902   -0.3386100  
   0.340983000     0.5140408   -0.4248604  
   0.342982900     0.4659277   -0.5108653  
   0.344982800     0.3999735   -0.5923231  
   0.346982700     0.3167848   -0.6640341  
   0.348982600     0.2192520   -0.7198738  
   0.350982500     0.1115319   -0.7597055  
   0.352982400    -0.0022042   -0.7803875  
   0.354982300    -0.1238748   -0.7806252  
   0.356982200    -0.2573458   -0.7552468  
   0.358982100    -0.3832484   -0.7061120  
   0.360982000    -0.4969822   -0.6354133  
   0.362981900    -0.5960678   -0.5463892  
   0.364981800    -0.6779131   -0.4414073  
   0.366981700    -0.7405414   -0.3243618  
   0.368981600    -0.7817177   -0.1989490  
   0.370981500    -0.8014290   -0.0684533  
   0.372981400    -0.7988094    0.0631843  
   0.374981300    -0.7740413    0.1928863  
   0.376981200    -0.8019329    0.0641125  
   0.378981100    -0.7765561    0.1975696  
   0.380981000    -0.7284313    0.3259500  
   0.382980900    -0.6667366    0.4344401  
   0.384980800    -0.5922303    0.5280842  
   0.386980700    -0.5036885    0.6109340  
   0.388980600    -0.4022182    0.6802562  
   0.390980500    -0.2912064    0.7336526  
   0.392980400    -0.1722956    0.7695798  
   0.394980300    -0.0481638    0.7869171  
   0.396980200     0.0781732    0.7843012  
   0.398980100     0.2039363    0.7622481  
   0.400980000     0.3256323    0.7200820  
   0.402979900     0.4402352    0.6580197  
   0.404979800     0.5437258    0.5784446  
   0.406979700     0.6332648    0.4824473  
   0.408979600     0.7059135    0.3729911  
   0.410979500     0.7602949    0.2523815  
   0.412979400     0.7940677    0.1240994  
   0.414979300     0.8050081   -0.0078107  
   0.416979200     0.7950487   -0.1390839  
   0.418979100     0.7639601   -0.2658547  
   0.420979000     0.7129758   -0.3853406  
   0.422978900     0.6439124   -0.4939686  
   0.424978800     0.5588899   -0.5892129  
   0.426978700     0.4606794   -0.6690135  
   0.428978600     0.3525158   -0.7313190  
   0.430978500     0.2379442   -0.7753806  
   0.432978400     0.1198039   -0.8006642  
   0.434978300     0.0007243   -0.8094212  
   0.436978200    -0.1168487   -0.7987480  
   0.438978100    -0.2300343   -0.7711926  
   0.440978000    -0.3375336   -0.7276885  
   0.442977900    -0.4361449   -0.6696055  
   0.444977800    -0.5245557   -0.5982243  
   0.446977700    -0.6016600   -0.5155709  
   0.448977600    -0.6655599   -0.4232319  
   0.450977500    -0.7157694   -0.3228942  
   0.452977400    -0.7515126   -0.2162183  
   0.454977300    -0.7712252   -0.1045000  
   0.456977200    -0.7749980    0.0092237  
   0.458977100    -0.7620735    0.1233239  
   0.460977000    -0.7326222    0.2342231  
   0.462976900    -0.6866008    0.3400404  
   0.464976800    -0.6251576    0.4388704  
   0.466976700    -0.5491481    0.5279956  
   0.468976600    -0.4596656    0.6056196  
   0.470976500    -0.3582550    0.6690335  
   0.472976400    -0.2473802    0.7164444  
   0.474976300    -0.1293141    0.7462130  
   0.476976200    -0.0069957    0.7572245  
   0.478976100     0.1161921    0.7485049  
   0.480976000     0.2366471    0.7199537  
   0.482975900     0.3512862    0.6723650  
   0.484975800     0.4574419    0.6065754  
   0.486975700     0.5515822    0.5241067  
   0.488975600     0.6308150    0.4270562  
   0.490975500     0.6930318    0.3186271  
   0.492975400     0.7364561    0.2018364  
   0.494975300     0.7598542    0.0801527  
   0.496975200     0.7631188   -0.0428188  
   0.498975100     0.7463084   -0.1625071  
   0.500975000     0.7113839   -0.2767272  
   0.502974900     0.6595929   -0.3819297  
   0.504974800     0.5932288   -0.4760253  
   0.506974700     0.5146452   -0.5577740  
   0.508974600     0.4257052   -0.6259279  
   0.510974500     0.3297848   -0.6793640  
   0.512974400     0.2295572   -0.7180440  
   0.514974300     0.1267007   -0.7404390  
   0.516974200     0.0238994   -0.7504488  
   0.518974100    -0.0774286   -0.7467543  
   0.520974000    -0.1768145   -0.7303302  
   0.522973900    -0.2729310   -0.7019402  
   0.524973800    -0.3647234   -0.6610667  
   0.526973700    -0.4514585   -0.6085363  
   0.528973600    -0.5318421   -0.5444235  
   0.530973500    -0.6040031   -0.4682179  
   0.532973400    -0.6656180   -0.3818773  
   0.534973300    -0.7148874   -0.2859287  
   0.536973200    -0.7497036   -0.1816876  
   0.538973100    -0.7686851   -0.0725831  
   0.540973000    -0.7709969    0.0390079  
   0.542972900    -0.7559533    0.1506436  
   0.544972800    -0.7237530    0.2593170  
   0.546972700    -0.6748447    0.3628774  
   0.548972600    -0.6102406    0.4583787  
   0.550972500    -0.5312554    0.5431393  
   0.552972400    -0.4399031    0.6149836  
   0.554972300    -0.3376671    0.6723623  
   0.556972200    -0.2274281    0.7135677  
   0.558972100    -0.1118035    0.7373349  
   0.560972000     0.0063978    0.7428149  
   0.562971900     0.1245919    0.7299915  
   0.564971800     0.2395269    0.6991639  
   0.566971700     0.3483688    0.6505877  
   0.568971600     0.4485523    0.5853279  
   0.570971500     0.5380196    0.5050544  
   0.572971400     0.6137188    0.4109654  
   0.574971300     0.6740450    0.3057539  
   0.576971200     0.7169137    0.1912490  
   0.578971100     0.7408717    0.0708963  
   0.580971000     0.7451067   -0.0513733  
   0.582970900     0.7299405   -0.1726665  
   0.584970800     0.6955510   -0.2894811  
   0.586970700     0.6433491   -0.3981339  
   0.588970600     0.5748613   -0.4971141  
   0.590970500     0.4921370   -0.5833682  
   0.592970400     0.3977295   -0.6551805  
   0.594970300     0.2937646   -0.7111570  
   0.596970200     0.1833720   -0.7493932  
   0.598970100     0.0692876   -0.7707100  
   0.600970000    -0.0461947   -0.7744397  
   0.602969900    -0.1597824   -0.7610570  
   0.604969800    -0.2696063   -0.7306507  
   0.606969700    -0.3732659   -0.6846872  
   0.608969600    -0.4681050   -0.6242763  
   0.610969500    -0.5526713   -0.5509148  
   0.612969400    -0.6254804   -0.4667018  
   0.614969300    -0.6843995   -0.3735534  
   0.616969200    -0.7292745   -0.2737390  
   0.618969100    -0.7593488   -0.1691768  
   0.620969000    -0.7746377   -0.0625565  
   0.622968900    -0.7744412    0.0460285  
   0.624968800    -0.7592950    0.1533342  
   0.626968700    -0.7291849    0.2579117  
   0.628968600    -0.6842948    0.3577551  
   0.630968500    -0.6254939    0.4505257  
   0.632968400    -0.5535475    0.5346988  
   0.634968300    -0.4698623    0.6083940  
   0.636968200    -0.3754514    0.6694095  
   0.638968100    -0.2727166    0.7166057  
   0.640968000    -0.1627843    0.7482841  
   0.642967900    -0.0486844    0.7635930  
   0.644967800     0.0677220    0.7617661  
   0.646967700     0.1831771    0.7422660  
   0.648967600     0.2951432    0.7051184  
   0.650967500     0.4008263    0.6508835  
   0.652967400     0.4968619    0.5810496  
   0.654967300     0.5819722    0.4964868  
   0.656967200     0.6528648    0.3995011  
   0.658967100     0.7078718    0.2920145  
   0.660967000     0.7456261    0.1763554  
   0.662966900     0.7646545    0.0556880  
   0.664966800     0.7644141   -0.0673461  
   0.666966700     0.7443660   -0.1889994  
   0.668966600     0.7050102   -0.3053499  
   0.670966500     0.6479983   -0.4140338  
   0.672966400     0.5759644   -0.5122232  
   0.674966300     0.4887579   -0.5963513  
   0.676966200     0.3905463   -0.6647041  
   0.678966100     0.2840968   -0.7161486  
   0.680966000     0.1720303   -0.7504600  
   0.682965900     0.0573841   -0.7668531  
   0.684965800    -0.0569174   -0.7659245  
   0.686965700    -0.1689835   -0.7476884  
   0.688965600    -0.2758473   -0.7134268  
   0.690965500    -0.3751495   -0.6635100  
   0.692965400    -0.4653749   -0.6012352  
   0.694965300    -0.5451387   -0.5270832  
   0.696965200    -0.6126157   -0.4431838  
   0.698965100    -0.6673031   -0.3506753  
   0.700965000    -0.7080984   -0.2516300  
   0.702964900    -0.7343813   -0.1480339  
   0.704964800    -0.7453572   -0.0420568  
   0.706964700    -0.7414322    0.0649372  
   0.708964600    -0.7217880    0.1702448  
   0.710964500    -0.6874322    0.2724603  
   0.712964400    -0.6380888    0.3685750  
   0.714964300    -0.5745330    0.4569398  
   0.716964200    -0.4985364    0.5349730  
   0.718964100    -0.4115560    0.6012551  
   0.720964000    -0.3156751    0.6538783  
   0.722963900    -0.2121920    0.6917782  
   0.724963800    -0.1038021    0.7133410  
   0.726963700     0.0072111    0.7178070  
   0.728963600     0.1183961    0.7055131  
   0.730963500     0.2264712    0.6749599  
   0.732963400     0.3283197    0.6283784  
   0.734963300     0.4224275    0.5660456  
   0.736963200     0.5175111    0.4773812  
   0.738963100     0.5957119    0.3725705  
   0.740963000     0.6531821    0.2559228  
   0.742962900     0.6885806    0.1315578  
   0.744962800     0.7010173    0.0037988  
   0.746962700     0.6908244   -0.1228042  
   0.748962600     0.6586603   -0.2449036  
   0.750962500     0.6762229   -0.1353729  
   0.752962400     0.6434659   -0.2553726  
   0.754962300     0.5908126   -0.3670441  
   0.756962200     0.5202595   -0.4670227  
   0.758962100     0.4345294   -0.5534358  
   0.760962000     0.3355273   -0.6236280  
   0.762961900     0.2318297   -0.6737769  
   0.764961800     0.1318509   -0.7049727  
   0.766961700     0.0283784   -0.7213783  
   0.768961600    -0.0765991   -0.7226725  
   0.770961500    -0.1808717   -0.7086857  
   0.772961400    -0.2819434   -0.6796618  
   0.774961300    -0.3780577   -0.6361393  
   0.776961200    -0.4671538   -0.5788063  
   0.778961100    -0.5469184   -0.5086274  
   0.780961000    -0.6158406   -0.4269142  
   0.782960900    -0.6717583   -0.3355908  
   0.784960800    -0.7138863   -0.2362636  
   0.786960700    -0.7404324   -0.1312460  
   0.788960600    -0.7510709   -0.0232905  
   0.790960500    -0.7454401    0.0853066  
   0.792960400    -0.7234538    0.1916512  
   0.794960300    -0.6857488    0.2935497  
   0.796960200    -0.6334962    0.3887800  
   0.798960100    -0.5675569    0.4751311  
   0.800960000    -0.4895721    0.5500870  
   0.802959900    -0.4010015    0.6133696  
   0.804959800    -0.3042531    0.6627102  
   0.806959700    -0.2007915    0.6970596  
   0.808959600    -0.0934320    0.7158957  
   0.810959500     0.0157438    0.7182012  
   0.812959400     0.1249175    0.7041376  
   0.814959300     0.2311726    0.6735871  
   0.816959200     0.3320222    0.6274113  
   0.818959100     0.4250239    0.5659100  
   0.820959000     0.5081761    0.4906135  
   0.822958900     0.5788610    0.4027857  
   0.824958800     0.6357109    0.3046888  
   0.826958700     0.6767163    0.1982456  
   0.828958600     0.7005578    0.0866409  
   0.830958500     0.7067114   -0.0280412  
   0.832958400     0.6945140   -0.1421359  
   0.834958300     0.6643493   -0.2528868  
   0.836958200     0.6172966   -0.3574264  
   0.838958100     0.5541968   -0.4534089  
   0.840958000     0.4769040   -0.5380870  
   0.842957900     0.3873672   -0.6093138  
   0.844957800     0.2876968   -0.6656281  
   0.846957700     0.1812654   -0.7053091  
   0.848957600     0.0701151   -0.7275546  
   0.850957500    -0.0427824   -0.7324772  
   0.852957400    -0.1540780   -0.7196617  
   0.854957300    -0.2614905   -0.6903090  
   0.856957200    -0.3624839   -0.6448861  
   0.858957100    -0.4547314   -0.5855566  
   0.860957000    -0.5362471   -0.5137447  
   0.862956900    -0.6054589   -0.4319069  
   0.864956800    -0.6614577   -0.3413695  
   0.866956700    -0.7032980   -0.2447567  
   0.868956600    -0.7301913   -0.1441344  
   0.870956500    -0.7429031   -0.0408659  
   0.872956400    -0.7408060    0.0625834  
   0.874956300    -0.7240809    0.1646234  
   0.876956200    -0.6928936    0.2637164  
   0.878956100    -0.6481923    0.3571850  
   0.880956000    -0.5905117    0.4439089  
   0.882955900    -0.5209391    0.5216977  
   0.884955800    -0.4403290    0.5890740  
   0.886955700    -0.3508347    0.6445279  
   0.888955600    -0.2537337    0.6870474  
   0.890955500    -0.1512244    0.7151642  
   0.892955400    -0.0448836    0.7279986  
   0.894955300     0.0630290    0.7250935  
