! MS46122B
! 2250307/22442219
! 7/24/2025 12:42:25 PM
! C:\USERS\SPARKY\DOCUMENTS\VNA_DATA\JULY24_2025\295K\ECAL_OPEN_D_REPEAT1.S1P
! CHANNEL.1
! TR.MEASUREMENT
! RAW.DATA
# GHZ S RI R 50.0
! FREQ.GHZ         S11RE         S11IM         
!; PortSelection: Port_1
   0.001000000     1.0451120   -0.0729950  
   0.002999900     0.9475967   -0.2222637  
   0.004999800     0.8090541   -0.0902258  
   0.006999700     0.5266586   -0.4056875  
   0.008999600     0.9394092    0.0020926  
   0.010999500     0.9260173   -0.2260222  
   0.012999400     0.8867083   -0.3347959  
   0.014999300     0.8468531   -0.4166473  
   0.016999200     0.8068148   -0.4872428  
   0.018999100     0.7642241   -0.5526718  
   0.020999000     0.7176966   -0.6134589  
   0.022998900     0.6660672   -0.6691303  
   0.024998800     0.6002415   -0.6850805  
   0.026998700     0.5470659   -0.7669124  
   0.028998600     0.4779739   -0.8081223  
   0.030998500     0.4023194   -0.8429466  
   0.032998400     0.3222430   -0.8362544  
   0.034998300     0.2299419   -0.8899943  
   0.036998200     0.1337458   -0.8992182  
   0.038998100     0.0317836   -0.8970261  
   0.040998000    -0.0750397   -0.8809212  
   0.042997900    -0.1853632   -0.8497567  
   0.044997800    -0.2746456   -0.7790166  
   0.046997700    -0.4074534   -0.7309450  
   0.048997600    -0.5123831   -0.6399580  
   0.050997500    -0.6074554   -0.5247770  
   0.052997400    -0.6855145   -0.3848886  
   0.054997300    -0.7386954   -0.2215278  
   0.056997200    -0.7572864   -0.0368181  
   0.058997100    -0.7316081    0.1585282  
   0.060997000    -0.6553302    0.3516955  
   0.062996900    -0.5268345    0.5260220  
   0.064996800    -0.3525900    0.6633452  
   0.066996700    -0.1465377    0.7499132  
   0.068996600     0.0722759    0.7772269  
   0.070996500     0.2851782    0.7477490  
   0.072996400     0.4752142    0.6683372  
   0.074996300     0.6314899    0.5521366  
   0.076996200     0.7498094    0.4122137  
   0.078996100     0.8301746    0.2609890  
   0.080996000     0.8753786    0.1069831  
   0.082995900     0.8902535   -0.0424575  
   0.084995800     0.8785185   -0.1821267  
   0.086995700     0.8469921   -0.3102661  
   0.088995600     0.7984906   -0.4258636  
   0.090995500     0.7371392   -0.5275918  
   0.092995400     0.6664768   -0.6168312  
   0.094995300     0.5862564   -0.6920863  
   0.096995200     0.5004665   -0.7542183  
   0.098995100     0.4098773   -0.8043528  
   0.100995000     0.3158316   -0.8421998  
   0.102994900     0.2195899   -0.8681526  
   0.104994800     0.1219814   -0.8826208  
   0.106994700     0.0236885   -0.8854558  
   0.108994600    -0.0741783   -0.8776918  
   0.110994500    -0.1711527   -0.8588318  
   0.112994400    -0.2657399   -0.8284081  
   0.114994300    -0.3575108   -0.7867632  
   0.116994200    -0.4452680   -0.7338300  
   0.118994100    -0.5270138   -0.6690046  
   0.120994000    -0.6035242   -0.5939352  
   0.122993900    -0.6704617   -0.5066094  
   0.124993800    -0.7270808   -0.4082153  
   0.126993700    -0.7717539   -0.2996143  
   0.128993600    -0.7998281   -0.1819478  
   0.130993500    -0.8127189   -0.0569373  
   0.132993400    -0.8066992    0.0731540  
   0.134993300    -0.7794051    0.2055188  
   0.136993200    -0.7291452    0.3361114  
   0.138993100    -0.6553474    0.4612472  
   0.140993000    -0.5580933    0.5749969  
   0.142992900    -0.4384731    0.6726412  
   0.144992800    -0.2999756    0.7495109  
   0.146992700    -0.1457506    0.7985932  
   0.148992600     0.0174988    0.8173614  
   0.150992500     0.1819168    0.8030278  
   0.152992400     0.3414735    0.7577397  
   0.154992300     0.4881604    0.6828731  
   0.156992200     0.6165033    0.5818231  
   0.158992100     0.7214824    0.4603293  
   0.160992000     0.7997713    0.3238937  
   0.162991900     0.8505977    0.1790064  
   0.164991800     0.8744252    0.0312175  
   0.166991700     0.8719736   -0.1135430  
   0.168991600     0.8460612   -0.2510754  
   0.170991500     0.7992385   -0.3792939  
   0.172991400     0.7346721   -0.4942011  
   0.174991300     0.6561195   -0.5946087  
   0.176991200     0.5657303   -0.6801366  
   0.178991100     0.4664851   -0.7494243  
   0.180991000     0.3616237   -0.8036051  
   0.182990900     0.2521729   -0.8406537  
   0.184990800     0.1404891   -0.8624125  
   0.186990700     0.0285950   -0.8690314  
   0.188990600    -0.0575136   -0.8618463  
   0.190990500    -0.1856205   -0.8381755  
   0.192990400    -0.2922404   -0.8011011  
   0.194990300    -0.3894508   -0.7516867  
   0.196990200    -0.4794600   -0.6904459  
   0.198990100    -0.5607058   -0.6174983  
   0.200990000    -0.6327240   -0.5335057  
   0.202989900    -0.6935143   -0.4393516  
   0.204989800    -0.7418227   -0.3369647  
   0.206989700    -0.7770780   -0.2274502  
   0.208989600    -0.7961046   -0.1123571  
   0.210989500    -0.7986425    0.0073773  
   0.212989400    -0.7834665    0.1287571  
   0.214989300    -0.7494246    0.2495429  
   0.216989200    -0.6966305    0.3658446  
   0.218989100    -0.6250212    0.4748058  
   0.220989000    -0.5344007    0.5732471  
   0.222988900    -0.4265406    0.6578064  
   0.224988800    -0.3034702    0.7249724  
   0.226988700    -0.1686038    0.7711285  
   0.228988600    -0.0263339    0.7929935  
   0.230988500     0.1192488    0.7899446  
   0.232988400     0.2631757    0.7598902  
   0.234988300     0.4006354    0.7057503  
   0.236988200     0.5267663    0.6275512  
   0.238988100     0.6364283    0.5289634  
   0.240988000     0.7262377    0.4134240  
   0.242987900     0.7935203    0.2861684  
   0.244987800     0.8371738    0.1506820  
   0.246987700     0.8570378    0.0121672  
   0.248987600     0.8537428   -0.1255801  
   0.250987500     0.8285885   -0.2586094  
   0.252987400     0.7831141   -0.3823045  
   0.254987300     0.7211912   -0.4946527  
   0.256987200     0.6446951   -0.5938489  
   0.258987100     0.5571234   -0.6798511  
   0.260987000     0.4588826   -0.7494591  
   0.262986900     0.3536898   -0.8038321  
   0.264986800     0.2440415   -0.8423903  
   0.266986700     0.1317150   -0.8646650  
   0.268986600     0.0195202   -0.8718048  
   0.270986500    -0.0903671   -0.8639041  
   0.272986400    -0.1973471   -0.8419867  
   0.274986300    -0.2997708   -0.8067462  
   0.276986200    -0.3962957   -0.7585970  
   0.278986100    -0.4862024   -0.6982599  
   0.280986000    -0.5677044   -0.6263237  
   0.282985900    -0.6392491   -0.5440084  
   0.284985800    -0.7001574   -0.4525245  
   0.286985700    -0.7483739   -0.3529878  
   0.288985600    -0.7829965   -0.2475690  
   0.290985500    -0.8031006   -0.1370764  
   0.292985400    -0.8076715   -0.0230671  
   0.294985300    -0.7959343    0.0925775  
   0.296985200    -0.7669711    0.2084991  
   0.298985100    -0.7191240    0.3217676  
   0.300985000    -0.6527812    0.4287269  
   0.302984900    -0.5681751    0.5259251  
   0.304984800    -0.4660827    0.6089453  
   0.306984700    -0.3488473    0.6745390  
   0.308984600    -0.2200137    0.7184206  
   0.310984500    -0.0836621    0.7381388  
   0.312984400     0.0550941    0.7307119  
   0.314984300     0.1900074    0.6959839  
   0.316984200     0.3137667    0.6347805  
   0.318984100     0.4203430    0.5506645  
   0.320984000     0.5032965    0.4498342  
   0.322983900     0.5602083    0.3403091  
   0.324983800     0.5916826    0.2317061  
   0.326983700     0.6026736    0.1313171  
   0.328983600     0.6007152    0.0418186  
   0.330983500     0.5932924   -0.0365889  
   0.332983400     0.5849447   -0.1087929  
   0.334983300     0.5767784   -0.1805547  
   0.336983200     0.5656494   -0.2567795  
   0.338983100     0.5466126   -0.3388640  
   0.340983000     0.5146861   -0.4252961  
   0.342982900     0.4663356   -0.5114335  
   0.344982800     0.3999894   -0.5929643  
   0.346982700     0.3167141   -0.6645722  
   0.348982600     0.2190808   -0.7202306  
   0.350982500     0.1113033   -0.7599022  
   0.352982400    -0.0024521   -0.7803919  
   0.354982300    -0.1240124   -0.7804040  
   0.356982200    -0.2574733   -0.7549335  
   0.358982100    -0.3829780   -0.7057199  
   0.360982000    -0.4967696   -0.6349226  
   0.362981900    -0.5957727   -0.5458324  
   0.364981800    -0.6772973   -0.4409617  
   0.366981700    -0.7395509   -0.3242165  
   0.368981600    -0.7809206   -0.1987114  
   0.370981500    -0.8005270   -0.0684736  
   0.372981400    -0.7978029    0.0629294  
   0.374981300    -0.7729516    0.1927308  
   0.376981200    -0.8008610    0.0640758  
   0.378981100    -0.7754971    0.1975480  
   0.380981000    -0.7275756    0.3256872  
   0.382980900    -0.6657947    0.4338863  
   0.384980800    -0.5914348    0.5273327  
   0.386980700    -0.5029969    0.6101930  
   0.388980600    -0.4017069    0.6794299  
   0.390980500    -0.2910198    0.7326735  
   0.392980400    -0.1720616    0.7687187  
   0.394980300    -0.0480142    0.7861499  
   0.396980200     0.0782957    0.7837943  
   0.398980100     0.2038849    0.7616372  
   0.400980000     0.3256783    0.7195619  
   0.402979900     0.4401529    0.6576171  
   0.404979800     0.5436765    0.5780735  
   0.406979700     0.6332705    0.4821821  
   0.408979600     0.7061301    0.3726842  
   0.410979500     0.7604340    0.2521042  
   0.412979400     0.7942474    0.1238040  
   0.414979300     0.8051464   -0.0080996  
   0.416979200     0.7952123   -0.1395206  
   0.418979100     0.7641054   -0.2663262  
   0.420979000     0.7130353   -0.3858447  
   0.422978900     0.6438872   -0.4944821  
   0.424978800     0.5587586   -0.5897357  
   0.426978700     0.4604537   -0.6695091  
   0.428978600     0.3522352   -0.7317287  
   0.430978500     0.2375410   -0.7756579  
   0.432978400     0.1194393   -0.8008111  
   0.434978300     0.0002910   -0.8094856  
   0.436978200    -0.1172722   -0.7986722  
   0.438978100    -0.2303788   -0.7709347  
   0.440978000    -0.3376320   -0.7274532  
   0.442977900    -0.4361798   -0.6692067  
   0.444977800    -0.5246618   -0.5976496  
   0.446977700    -0.6013820   -0.5151986  
   0.448977600    -0.6652661   -0.4227932  
   0.450977500    -0.7151559   -0.3225800  
   0.452977400    -0.7508090   -0.2159410  
   0.454977300    -0.7704937   -0.1043151  
   0.456977200    -0.7741566    0.0092294  
   0.458977100    -0.7611429    0.1231628  
   0.460977000    -0.7316901    0.2338904  
   0.462976900    -0.6856632    0.3396307  
   0.464976800    -0.6243292    0.4382710  
   0.466976700    -0.5483834    0.5272824  
   0.468976600    -0.4591148    0.6047481  
   0.470976500    -0.3577621    0.6681890  
   0.472976400    -0.2470157    0.7155650  
   0.474976300    -0.1290639    0.7453418  
   0.476976200    -0.0068962    0.7563784  
   0.478976100     0.1162328    0.7477322  
   0.480976000     0.2366914    0.7192403  
   0.482975900     0.3511890    0.6717619  
   0.484975800     0.4573187    0.6060234  
   0.486975700     0.5515057    0.5236247  
   0.488975600     0.6307951    0.4266183  
   0.490975500     0.6930597    0.3181253  
   0.492975400     0.7365416    0.2012910  
   0.494975300     0.7598978    0.0795741  
   0.496975200     0.7631897   -0.0434598  
   0.498975100     0.7463291   -0.1631654  
   0.500975000     0.7113224   -0.2774046  
   0.502974900     0.6594774   -0.3826205  
   0.504974800     0.5930287   -0.4767292  
   0.506974700     0.5142285   -0.5585069  
   0.508974600     0.4252231   -0.6265674  
   0.510974500     0.3291862   -0.6798568  
   0.512974400     0.2288946   -0.7184133  
   0.514974300     0.1260318   -0.7406423  
   0.516974200     0.0233246   -0.7505202  
   0.518974100    -0.0780711   -0.7466530  
   0.520974000    -0.1771366   -0.7300306  
   0.522973900    -0.2734447   -0.7016324  
   0.524973800    -0.3651267   -0.6605870  
   0.526973700    -0.4517993   -0.6079341  
   0.528973600    -0.5320352   -0.5437405  
   0.530973500    -0.6039832   -0.4674821  
   0.532973400    -0.6654219   -0.3810751  
   0.534973300    -0.7144879   -0.2849304  
   0.536973200    -0.7491879   -0.1808878  
   0.538973100    -0.7679317   -0.0719128  
   0.540973000    -0.7701147    0.0396576  
   0.542972900    -0.7549003    0.1510189  
   0.544972800    -0.7225489    0.2596392  
   0.546972700    -0.6736436    0.3629472  
   0.548972600    -0.6090288    0.4582639  
   0.550972500    -0.5300767    0.5428167  
   0.552972400    -0.4386950    0.6145411  
   0.554972300    -0.3365364    0.6718069  
   0.556972200    -0.2263896    0.7129045  
   0.558972100    -0.1107932    0.7365987  
   0.560972000     0.0075216    0.7420438  
   0.562971900     0.1254126    0.7291148  
   0.564971800     0.2402490    0.6982428  
   0.566971700     0.3490204    0.6496242  
   0.568971600     0.4491442    0.5843257  
   0.570971500     0.5385070    0.5039876  
   0.572971400     0.6142017    0.4098988  
   0.574971300     0.6743817    0.3045546  
   0.576971200     0.7172598    0.1900354  
   0.578971100     0.7410346    0.0698656  
   0.580971000     0.7452344   -0.0526319  
   0.582970900     0.7299287   -0.1740254  
   0.584970800     0.6953948   -0.2906148  
   0.586970700     0.6429054   -0.3994555  
   0.588970600     0.5744182   -0.4981554  
   0.590970500     0.4913636   -0.5844845  
   0.592970400     0.3968753   -0.6561311  
   0.594970300     0.2931246   -0.7116390  
   0.596970200     0.1824572   -0.7500942  
   0.598970100     0.0682974   -0.7710130  
   0.600970000    -0.0470520   -0.7745410  
   0.602969900    -0.1605789   -0.7608448  
   0.604969800    -0.2703043   -0.7303164  
   0.606969700    -0.3737595   -0.6842561  
   0.608969600    -0.4684830   -0.6236332  
   0.610969500    -0.5528938   -0.5501479  
   0.612969400    -0.6254942   -0.4658583  
   0.614969300    -0.6841844   -0.3726660  
   0.616969200    -0.7288520   -0.2728903  
   0.618969100    -0.7587112   -0.1684584  
   0.620969000    -0.7738248   -0.0618104  
   0.622968900    -0.7734620    0.0465513  
   0.624968800    -0.7581938    0.1538490  
   0.626968700    -0.7279923    0.2582468  
   0.628968600    -0.6829843    0.3579642  
   0.630968500    -0.6241519    0.4505927  
   0.632968400    -0.5521683    0.5346277  
   0.634968300    -0.4686133    0.6079585  
   0.636968200    -0.3741093    0.6691455  
   0.638968100    -0.2713228    0.7160962  
   0.640968000    -0.1614221    0.7476339  
   0.642967900    -0.0472519    0.7628160  
   0.644967800     0.0690147    0.7608699  
   0.646967700     0.1842808    0.7412775  
   0.648967600     0.2962573    0.7040132  
   0.650967500     0.4016994    0.6497686  
   0.652967400     0.4977522    0.5799064  
   0.654967300     0.5825893    0.4953176  
   0.656967200     0.6534986    0.3981615  
   0.658967100     0.7083513    0.2906734  
   0.660967000     0.7459888    0.1750290  
   0.662966900     0.7649351    0.0542943  
   0.664966800     0.7646603   -0.0688574  
   0.666966700     0.7443629   -0.1904059  
   0.668966600     0.7047843   -0.3069165  
   0.670966500     0.6476313   -0.4153419  
   0.672966400     0.5753211   -0.5135061  
   0.674966300     0.4881660   -0.5973195  
   0.676966200     0.3898048   -0.6655619  
   0.678966100     0.2832612   -0.7168752  
   0.680966000     0.1711870   -0.7509875  
   0.682965900     0.0565215   -0.7671550  
   0.684965800    -0.0578236   -0.7660153  
   0.686965700    -0.1698045   -0.7475930  
   0.688965600    -0.2765854   -0.7131419  
   0.690965500    -0.3757507   -0.6630458  
   0.692965400    -0.4658289   -0.6006273  
   0.694965300    -0.5454390   -0.5263398  
   0.696965200    -0.6127734   -0.4423391  
   0.698965100    -0.6672250   -0.3497943  
   0.700965000    -0.7078046   -0.2506436  
   0.702964900    -0.7338563   -0.1471142  
   0.704964800    -0.7447674   -0.0409925  
   0.706964700    -0.7405514    0.0657622  
   0.708964600    -0.7206694    0.1709572  
   0.710964500    -0.6861988    0.2730530  
   0.712964400    -0.6366721    0.3690799  
   0.714964300    -0.5730338    0.4573019  
   0.716964200    -0.4969538    0.5350928  
   0.718964100    -0.4099010    0.6011815  
   0.720964000    -0.3140606    0.6535897  
   0.722963900    -0.2107335    0.6912473  
   0.724963800    -0.1022980    0.7126986  
   0.726963700     0.0088202    0.7169888  
   0.728963600     0.1197454    0.7045013  
   0.730963500     0.2276398    0.6738545  
   0.732963400     0.3293393    0.6271486  
   0.734963300     0.4233864    0.5647494  
   0.736963200     0.5182524    0.4760981  
   0.738963100     0.5963225    0.3711410  
   0.740963000     0.6536522    0.2544449  
   0.742962900     0.6888584    0.1300848  
   0.744962800     0.7011086    0.0023417  
   0.746962700     0.6907383   -0.1242433  
   0.748962600     0.6583971   -0.2462447  
   0.750962500     0.6762668   -0.1366207  
   0.752962400     0.6433557   -0.2566229  
   0.754962300     0.5905498   -0.3682340  
   0.756962200     0.5197511   -0.4681690  
   0.758962100     0.4339693   -0.5543743  
   0.760962000     0.3348945   -0.6244727  
   0.762961900     0.2311144   -0.6744720  
   0.764961800     0.1310221   -0.7055160  
   0.766961700     0.0275891   -0.7217487  
   0.768961600    -0.0774111   -0.7228585  
   0.770961500    -0.1816166   -0.7086989  
   0.772961400    -0.2826739   -0.6794738  
   0.774961300    -0.3786360   -0.6358306  
   0.776961200    -0.4676237   -0.5783886  
   0.778961100    -0.5472563   -0.5080661  
   0.780961000    -0.6159772   -0.4263125  
   0.782960900    -0.6718528   -0.3348005  
   0.784960800    -0.7137080   -0.2353550  
   0.786960700    -0.7400498   -0.1304765  
   0.788960600    -0.7504892   -0.0225503  
   0.790960500    -0.7446182    0.0859710  
   0.792960400    -0.7224816    0.1921135  
   0.794960300    -0.6846662    0.2939780  
   0.796960200    -0.6321703    0.3890724  
   0.798960100    -0.5663148    0.4751472  
   0.800960000    -0.4882283    0.5499585  
   0.802959900    -0.3997507    0.6130136  
   0.804959800    -0.3030265    0.6622398  
   0.806959700    -0.1996251    0.6964061  
   0.808959600    -0.0922231    0.7149680  
   0.810959500     0.0167485    0.7173032  
   0.812959400     0.1258356    0.7031521  
   0.814959300     0.2319330    0.6725401  
   0.816959200     0.3326754    0.6263074  
   0.818959100     0.4255561    0.5647962  
   0.820959000     0.5086235    0.4894142  
   0.822958900     0.5792271    0.4015999  
   0.824958800     0.6359643    0.3035334  
   0.826958700     0.6768613    0.1970754  
   0.828958600     0.7006215    0.0855241  
   0.830958500     0.7066290   -0.0291632  
   0.832958400     0.6944341   -0.1431395  
   0.834958300     0.6641141   -0.2540511  
   0.836958200     0.6169472   -0.3584954  
   0.838958100     0.5537467   -0.4544202  
   0.840958000     0.4763165   -0.5389922  
   0.842957900     0.3866626   -0.6101869  
   0.844957800     0.2869492   -0.6663136  
   0.846957700     0.1804020   -0.7058553  
   0.848957600     0.0689903   -0.7279529  
   0.850957500    -0.0437934   -0.7326569  
   0.852957400    -0.1550447   -0.7197017  
   0.854957300    -0.2624248   -0.6901219  
   0.856957200    -0.3633803   -0.6445774  
   0.858957100    -0.4554538   -0.5850160  
   0.860957000    -0.5368215   -0.5130002  
   0.862956900    -0.6058890   -0.4309735  
   0.864956800    -0.6616079   -0.3404805  
   0.866956700    -0.7032170   -0.2438471  
   0.868956600    -0.7298955   -0.1432329  
   0.870956500    -0.7423769   -0.0399419  
   0.872956400    -0.7400690    0.0633801  
   0.874956300    -0.7231870    0.1653175  
   0.876956200    -0.6917792    0.2642448  
   0.878956100    -0.6470541    0.3575438  
   0.880956000    -0.5892086    0.4440427  
   0.882955900    -0.5196461    0.5216739  
   0.884955800    -0.4390092    0.5888741  
   0.886955700    -0.3495724    0.6441045  
   0.888955600    -0.2525832    0.6864300  
   0.890955500    -0.1500022    0.7144294  
   0.892955400    -0.0438207    0.7271371  
   0.894955300     0.0641198    0.7241516  
