! MS46122B
! 2250307/22442219
! 7/23/2025 1:05:03 PM
! C:\USERS\SPARKY\DOCUMENTS\VNA_DATA\JULY23_2025\295K\ECAL_OPEN_C.S1P
! CHANNEL.1
! TR.MEASUREMENT
! RAW.DATA
# GHZ S RI R 50.0
! FREQ.GHZ         S11RE         S11IM         
!; PortSelection: Port_1
   0.001000000     1.0452160   -0.0720486  
   0.002999900     0.9478388   -0.2216791  
   0.004999800     0.8098480   -0.0907957  
   0.006999700     0.5239719   -0.4055846  
   0.008999600     0.9395871    0.0027587  
   0.010999500     0.9262564   -0.2252174  
   0.012999400     0.8869770   -0.3341545  
   0.014999300     0.8471596   -0.4161148  
   0.016999200     0.8071526   -0.4868506  
   0.018999100     0.7645667   -0.5524173  
   0.020999000     0.7180321   -0.6133524  
   0.022998900     0.6664284   -0.6691527  
   0.024998800     0.6005816   -0.6851808  
   0.026998700     0.5471774   -0.7671157  
   0.028998600     0.4780834   -0.8084263  
   0.030998500     0.4023217   -0.8433573  
   0.032998400     0.3222260   -0.8367769  
   0.034998300     0.2295363   -0.8904890  
   0.036998200     0.1333033   -0.8997432  
   0.038998100     0.0311049   -0.8976180  
   0.040998000    -0.0759102   -0.8814323  
   0.042997900    -0.1863777   -0.8501809  
   0.044997800    -0.2757797   -0.7793944  
   0.046997700    -0.4087894   -0.7309645  
   0.048997600    -0.5138767   -0.6397613  
   0.050997500    -0.6089412   -0.5243157  
   0.052997400    -0.6869928   -0.3841363  
   0.054997300    -0.7400509   -0.2205337  
   0.056997200    -0.7584777   -0.0355369  
   0.058997100    -0.7324970    0.1599053  
   0.060997000    -0.6558659    0.3530280  
   0.062996900    -0.5271644    0.5272548  
   0.064996800    -0.3527581    0.6644419  
   0.066996700    -0.1466924    0.7508079  
   0.068996600     0.0720926    0.7779787  
   0.070996500     0.2848670    0.7484615  
   0.072996400     0.4748594    0.6691080  
   0.074996300     0.6310780    0.5529795  
   0.076996200     0.7494535    0.4132127  
   0.078996100     0.8298988    0.2620395  
   0.080996000     0.8752275    0.1081238  
   0.082995900     0.8902198   -0.0412913  
   0.084995800     0.8787004   -0.1810553  
   0.086995700     0.8473115   -0.3092805  
   0.088995600     0.7989267   -0.4249310  
   0.090995500     0.7375953   -0.5268051  
   0.092995400     0.6669073   -0.6162831  
   0.094995300     0.5871382   -0.6915450  
   0.096995200     0.5013804   -0.7538353  
   0.098995100     0.4105606   -0.8041233  
   0.100995000     0.3163330   -0.8422145  
   0.102994900     0.2199939   -0.8682787  
   0.104994800     0.1223365   -0.8828121  
   0.106994700     0.0238324   -0.8857502  
   0.108994600    -0.0740868   -0.8780730  
   0.110994500    -0.1711355   -0.8591956  
   0.112994400    -0.2656652   -0.8287625  
   0.114994300    -0.3578627   -0.7872117  
   0.116994200    -0.4455407   -0.7342188  
   0.118994100    -0.5275770   -0.6693669  
   0.120994000    -0.6040433   -0.5942607  
   0.122993900    -0.6710304   -0.5068948  
   0.124993800    -0.7277601   -0.4084271  
   0.126993700    -0.7724751   -0.2997446  
   0.128993600    -0.8005352   -0.1820194  
   0.130993500    -0.8135334   -0.0568635  
   0.132993400    -0.8075209    0.0732636  
   0.134993300    -0.7802127    0.2057975  
   0.136993200    -0.7299495    0.3364340  
   0.138993100    -0.6561167    0.4616311  
   0.140993000    -0.5588250    0.5754619  
   0.142992900    -0.4392028    0.6730409  
   0.144992800    -0.3006620    0.7500460  
   0.146992700    -0.1464886    0.7990694  
   0.148992600     0.0168098    0.8179728  
   0.150992500     0.1812260    0.8037351  
   0.152992400     0.3408239    0.7585105  
   0.154992300     0.4875359    0.6837341  
   0.156992200     0.6159431    0.5827775  
   0.158992100     0.7208023    0.4614650  
   0.160992000     0.7993757    0.3250686  
   0.162991900     0.8504188    0.1801891  
   0.164991800     0.8743337    0.0324542  
   0.166991700     0.8721014   -0.1123062  
   0.168991600     0.8463082   -0.2499937  
   0.170991500     0.7997253   -0.3780004  
   0.172991400     0.7353812   -0.4930886  
   0.174991300     0.6568651   -0.5937386  
   0.176991200     0.5665821   -0.6793676  
   0.178991100     0.4673611   -0.7488937  
   0.180991000     0.3626941   -0.8031437  
   0.182990900     0.2531087   -0.8405443  
   0.184990800     0.1413785   -0.8624426  
   0.186990700     0.0292463   -0.8691530  
   0.188990600    -0.0568448   -0.8621174  
   0.190990500    -0.1850903   -0.8386099  
   0.192990400    -0.2918170   -0.8016323  
   0.194990300    -0.3891782   -0.7522756  
   0.196990200    -0.4793382   -0.6910911  
   0.198990100    -0.5607786   -0.6181194  
   0.200990000    -0.6328211   -0.5342587  
   0.202989900    -0.6938236   -0.4399857  
   0.204989800    -0.7422122   -0.3375443  
   0.206989700    -0.7776408   -0.2279472  
   0.208989600    -0.7968293   -0.1129394  
   0.210989500    -0.7993484    0.0070385  
   0.212989400    -0.7842178    0.1285224  
   0.214989300    -0.7501785    0.2492327  
   0.216989200    -0.6974725    0.3657725  
   0.218989100    -0.6258336    0.4749289  
   0.220989000    -0.5352387    0.5734383  
   0.222988900    -0.4272702    0.6581741  
   0.224988800    -0.3042706    0.7253861  
   0.226988700    -0.1695747    0.7714222  
   0.228988600    -0.0271137    0.7934469  
   0.230988500     0.1183490    0.7905179  
   0.232988400     0.2623509    0.7605512  
   0.234988300     0.4000957    0.7065159  
   0.236988200     0.5261139    0.6284440  
   0.238988100     0.6357871    0.5300487  
   0.240988000     0.7257555    0.4145396  
   0.242987900     0.7931493    0.2874080  
   0.244987800     0.8369833    0.1519620  
   0.246987700     0.8570017    0.0134612  
   0.248987600     0.8539082   -0.1243055  
   0.250987500     0.8288491   -0.2572277  
   0.252987400     0.7836202   -0.3813254  
   0.254987300     0.7219083   -0.4935858  
   0.256987200     0.6455636   -0.5929427  
   0.258987100     0.5580308   -0.6790963  
   0.260987000     0.4598926   -0.7489361  
   0.262986900     0.3548938   -0.8033977  
   0.264986800     0.2452656   -0.8421655  
   0.266986700     0.1327238   -0.8646820  
   0.268986600     0.0205066   -0.8719836  
   0.270986500    -0.0895007   -0.8642473  
   0.272986400    -0.1965228   -0.8424441  
   0.274986300    -0.2990738   -0.8073367  
   0.276986200    -0.3957509   -0.7593338  
   0.278986100    -0.4859090   -0.6989194  
   0.280986000    -0.5674376   -0.6271703  
   0.282985900    -0.6392069   -0.5448385  
   0.284985800    -0.7002328   -0.4533719  
   0.286985700    -0.7486640   -0.3536838  
   0.288985600    -0.7833003   -0.2480635  
   0.290985500    -0.8035069   -0.1376800  
   0.292985400    -0.8082961   -0.0235760  
   0.294985300    -0.7966679    0.0920954  
   0.296985200    -0.7677197    0.2080698  
   0.298985100    -0.7199070    0.3214728  
   0.300985000    -0.6536343    0.4286047  
   0.302984900    -0.5690368    0.5258616  
   0.304984800    -0.4670848    0.6088653  
   0.306984700    -0.3497764    0.6746889  
   0.308984600    -0.2209663    0.7186556  
   0.310984500    -0.0845180    0.7384661  
   0.312984400     0.0542094    0.7311143  
   0.314984300     0.1890878    0.6964750  
   0.316984200     0.3127209    0.6354048  
   0.318984100     0.4194168    0.5514317  
   0.320984000     0.5023932    0.4508127  
   0.322983900     0.5595043    0.3414889  
   0.324983800     0.5909609    0.2331935  
   0.326983700     0.6023028    0.1328822  
   0.328983600     0.6006526    0.0436496  
   0.330983500     0.5935907   -0.0347667  
   0.332983400     0.5856453   -0.1071203  
   0.334983300     0.5777814   -0.1790451  
   0.336983200     0.5668505   -0.2555809  
   0.338983100     0.5478249   -0.3379930  
   0.340983000     0.5159465   -0.4246304  
   0.342982900     0.4676412   -0.5109392  
   0.344982800     0.4014412   -0.5926039  
   0.346982700     0.3179524   -0.6644346  
   0.348982600     0.2203441   -0.7202102  
   0.350982500     0.1125480   -0.7600524  
   0.352982400    -0.0012605   -0.7807066  
   0.354982300    -0.1229158   -0.7808985  
   0.356982200    -0.2564853   -0.7556397  
   0.358982100    -0.3821934   -0.7065555  
   0.360982000    -0.4960698   -0.6359636  
   0.362981900    -0.5952833   -0.5469388  
   0.364981800    -0.6770508   -0.4420869  
   0.366981700    -0.7398371   -0.3250942  
   0.368981600    -0.7810562   -0.1999650  
   0.370981500    -0.8009093   -0.0696251  
   0.372981400    -0.7984087    0.0619187  
   0.374981300    -0.7738835    0.1918255  
   0.376981200    -0.8014871    0.0631181  
   0.378981100    -0.7762598    0.1966646  
   0.380981000    -0.7284864    0.3248962  
   0.382980900    -0.6668999    0.4332827  
   0.384980800    -0.5924770    0.5270445  
   0.386980700    -0.5042135    0.6099069  
   0.388980600    -0.4029441    0.6793559  
   0.390980500    -0.2921493    0.7328718  
   0.392980400    -0.1732547    0.7690386  
   0.394980300    -0.0494329    0.7865834  
   0.396980200     0.0770449    0.7844527  
   0.398980100     0.2027178    0.7624708  
   0.400980000     0.3245233    0.7205240  
   0.402979900     0.4391900    0.6587636  
   0.404979800     0.5428909    0.5793033  
   0.406979700     0.6325773    0.4836352  
   0.408979600     0.7054757    0.3743539  
   0.410979500     0.7601163    0.2537301  
   0.412979400     0.7941963    0.1255224  
   0.414979300     0.8053551   -0.0063374  
   0.416979200     0.7956730   -0.1377999  
   0.418979100     0.7648116   -0.2646971  
   0.420979000     0.7139885   -0.3843099  
   0.422978900     0.6450581   -0.4931437  
   0.424978800     0.5601013   -0.5885791  
   0.426978700     0.4619599   -0.6685773  
   0.428978600     0.3538349   -0.7310379  
   0.430978500     0.2389880   -0.7751657  
   0.432978400     0.1211882   -0.8006384  
   0.434978300     0.0019317   -0.8096043  
   0.436978200    -0.1155730   -0.7990614  
   0.438978100    -0.2288621   -0.7715408  
   0.440978000    -0.3363181   -0.7282405  
   0.442977900    -0.4351282   -0.6701537  
   0.444977800    -0.5236604   -0.5988322  
   0.446977700    -0.6007619   -0.5163502  
   0.448977600    -0.6648431   -0.4240443  
   0.450977500    -0.7150412   -0.3237282  
   0.452977400    -0.7509050   -0.2169493  
   0.454977300    -0.7707237   -0.1055847  
   0.456977200    -0.7745879    0.0080823  
   0.458977100    -0.7617878    0.1221409  
   0.460977000    -0.7325104    0.2329610  
   0.462976900    -0.6866078    0.3387152  
   0.464976800    -0.6254351    0.4377324  
   0.466976700    -0.5496192    0.5268228  
   0.468976600    -0.4603808    0.6044617  
   0.470976500    -0.3591070    0.6680961  
   0.472976400    -0.2483837    0.7156506  
   0.474976300    -0.1304391    0.7456560  
   0.476976200    -0.0082049    0.7568966  
   0.478976100     0.1149195    0.7484336  
   0.480976000     0.2354697    0.7201329  
   0.482975900     0.3501225    0.6727871  
   0.484975800     0.4562498    0.6072950  
   0.486975700     0.5505775    0.5249825  
   0.488975600     0.6300253    0.4281650  
   0.490975500     0.6924710    0.3197966  
   0.492975400     0.7361200    0.2030625  
   0.494975300     0.7596885    0.0814615  
   0.496975200     0.7631873   -0.0415114  
   0.498975100     0.7465966   -0.1611690  
   0.500975000     0.7118074   -0.2756370  
   0.502974900     0.6603928   -0.3805184  
   0.504974800     0.5941159   -0.4748819  
   0.506974700     0.5155620   -0.5568354  
   0.508974600     0.4267797   -0.6250912  
   0.510974500     0.3309496   -0.6786440  
   0.512974400     0.2308445   -0.7174754  
   0.514974300     0.1281296   -0.7400181  
   0.516974200     0.0255329   -0.7501692  
   0.518974100    -0.0759623   -0.7467242  
   0.520974000    -0.1751338   -0.7304181  
   0.522973900    -0.2715343   -0.7023158  
   0.524973800    -0.3634384   -0.6615070  
   0.526973700    -0.4505008   -0.6092402  
   0.528973600    -0.5308693   -0.5451488  
   0.530973500    -0.6031266   -0.4690322  
   0.532973400    -0.6648900   -0.3828362  
   0.534973300    -0.7142459   -0.2865782  
   0.536973200    -0.7492440   -0.1824647  
   0.538973100    -0.7682434   -0.0734482  
   0.540973000    -0.7706559    0.0382025  
   0.542972900    -0.7557573    0.1496490  
   0.544972800    -0.7235517    0.2585162  
   0.546972700    -0.6748298    0.3620139  
   0.548972600    -0.6103362    0.4575278  
   0.550972500    -0.5315350    0.5422800  
   0.552972400    -0.4401975    0.6142456  
   0.554972300    -0.3380921    0.6717771  
   0.556972200    -0.2279439    0.7131353  
   0.558972100    -0.1123716    0.7370136  
   0.560972000     0.0059515    0.7426441  
   0.562971900     0.1240069    0.7299684  
   0.564971800     0.2389417    0.6992795  
   0.566971700     0.3478591    0.6508601  
   0.568971600     0.4481279    0.5857857  
   0.570971500     0.5377077    0.5055537  
   0.572971400     0.6135641    0.4114808  
   0.574971300     0.6739174    0.3062558  
   0.576971200     0.7170341    0.1918727  
   0.578971100     0.7410980    0.0715203  
   0.580971000     0.7455011   -0.0506481  
   0.582970900     0.7304357   -0.1721056  
   0.584970800     0.6961332   -0.2889500  
   0.586970700     0.6439821   -0.3976761  
   0.588970600     0.5755925   -0.4966975  
   0.590970500     0.4927877   -0.5832936  
   0.592970400     0.3983278   -0.6551666  
   0.594970300     0.2947416   -0.7107903  
   0.596970200     0.1841326   -0.7494962  
   0.598970100     0.0698852   -0.7708519  
   0.600970000    -0.0454973   -0.7746277  
   0.602969900    -0.1590882   -0.7612316  
   0.604969800    -0.2689593   -0.7309010  
   0.606969700    -0.3725830   -0.6849853  
   0.608969600    -0.4675187   -0.6245834  
   0.610969500    -0.5521484   -0.5512541  
   0.612969400    -0.6249302   -0.4670477  
   0.614969300    -0.6838555   -0.3739037  
   0.616969200    -0.7287800   -0.2741361  
   0.618969100    -0.7589424   -0.1696421  
   0.620969000    -0.7742164   -0.0630320  
   0.622968900    -0.7740450    0.0455248  
   0.624968800    -0.7589461    0.1528719  
   0.626968700    -0.7289263    0.2573527  
   0.628968600    -0.6840390    0.3572492  
   0.630968500    -0.6254320    0.4500631  
   0.632968400    -0.5534345    0.5342250  
   0.634968300    -0.4699523    0.6077585  
   0.636968200    -0.3755351    0.6691125  
   0.638968100    -0.2727662    0.7162249  
   0.640968000    -0.1629922    0.7479900  
   0.642967900    -0.0486887    0.7633203  
   0.644967800     0.0674941    0.7615913  
   0.646967700     0.1828867    0.7421850  
   0.648967600     0.2949439    0.7050724  
   0.650967500     0.4004422    0.6510742  
   0.652967400     0.4967234    0.5812488  
   0.654967300     0.5816762    0.4969413  
   0.656967200     0.6528113    0.3999591  
   0.658967100     0.7077297    0.2927095  
   0.660967000     0.7456211    0.1771465  
   0.662966900     0.7649087    0.0562951  
   0.664966800     0.7649071   -0.0668212  
   0.666966700     0.7448784   -0.1884135  
   0.668966600     0.7056413   -0.3047841  
   0.670966500     0.6487166   -0.4135678  
   0.672966400     0.5765333   -0.5120108  
   0.674966300     0.4896782   -0.5960412  
   0.676966200     0.3915159   -0.6645229  
   0.678966100     0.2850678   -0.7161099  
   0.680966000     0.1730600   -0.7505407  
   0.682965900     0.0583801   -0.7669980  
   0.684965800    -0.0559842   -0.7661771  
   0.686965700    -0.1680625   -0.7480522  
   0.688965600    -0.2749829   -0.7138897  
   0.690965500    -0.3743382   -0.6640192  
   0.692965400    -0.4645828   -0.6018107  
   0.694965300    -0.5444504   -0.5277071  
   0.696965200    -0.6119809   -0.4438773  
   0.698965100    -0.6667648   -0.3513552  
   0.700965000    -0.7076448   -0.2522151  
   0.702964900    -0.7339553   -0.1487502  
   0.704964800    -0.7451338   -0.0426251  
   0.706964700    -0.7412149    0.0642393  
   0.708964600    -0.7214922    0.1694727  
   0.710964500    -0.6872637    0.2718337  
   0.712964400    -0.6379884    0.3679521  
   0.714964300    -0.5745121    0.4563599  
   0.716964200    -0.4986019    0.5343503  
   0.718964100    -0.4116903    0.6006786  
   0.720964000    -0.3159410    0.6533227  
   0.722963900    -0.2126681    0.6912363  
   0.724963800    -0.1042355    0.7129335  
   0.726963700     0.0068529    0.7175564  
   0.728963600     0.1179224    0.7052768  
   0.730963500     0.2257987    0.6748505  
   0.732963400     0.3276763    0.6284601  
   0.734963300     0.4218833    0.5662649  
   0.736963200     0.5171151    0.4778540  
   0.738963100     0.5952736    0.3731385  
   0.740963000     0.6529728    0.2566224  
   0.742962900     0.6885623    0.1323681  
   0.744962800     0.7012333    0.0046541  
   0.746962700     0.6912739   -0.1219452  
   0.748962600     0.6593039   -0.2440697  
   0.750962500     0.6768569   -0.1343544  
   0.752962400     0.6443431   -0.2545062  
   0.754962300     0.5918974   -0.3663361  
   0.756962200     0.5215397   -0.4664939  
   0.758962100     0.4358782   -0.5531092  
   0.760962000     0.3369444   -0.6236043  
   0.762961900     0.2332643   -0.6739775  
   0.764961800     0.1332018   -0.7053654  
   0.766961700     0.0296974   -0.7219844  
   0.768961600    -0.0753976   -0.7233596  
   0.770961500    -0.1796473   -0.7095084  
   0.772961400    -0.2809617   -0.6806899  
   0.774961300    -0.3771119   -0.6371337  
   0.776961200    -0.4663551   -0.5799608  
   0.778961100    -0.5462668   -0.5097835  
   0.780961000    -0.6152793   -0.4281628  
   0.782960900    -0.6713988   -0.3367813  
   0.784960800    -0.7136015   -0.2373401  
   0.786960700    -0.7402370   -0.1324606  
   0.788960600    -0.7509880   -0.0244921  
   0.790960500    -0.7454509    0.0840819  
   0.792960400    -0.7236035    0.1904774  
   0.794960300    -0.6860292    0.2923821  
   0.796960200    -0.6337094    0.3876294  
   0.798960100    -0.5680916    0.4740934  
   0.800960000    -0.4902204    0.5490500  
   0.802959900    -0.4018566    0.6123949  
   0.804959800    -0.3052142    0.6618667  
   0.806959700    -0.2018363    0.6963753  
   0.808959600    -0.0944661    0.7154167  
   0.810959500     0.0145857    0.7179207  
   0.812959400     0.1237397    0.7040300  
   0.814959300     0.2299852    0.6737312  
   0.816959200     0.3309047    0.6277441  
   0.818959100     0.4239956    0.5664753  
   0.820959000     0.5073118    0.4913153  
   0.822958900     0.5781834    0.4036753  
   0.824958800     0.6352503    0.3057275  
   0.826958700     0.6764744    0.1993636  
   0.828958600     0.7005551    0.0877951  
   0.830958500     0.7069792   -0.0268809  
   0.832958400     0.6950409   -0.1411136  
   0.834958300     0.6650488   -0.2519830  
   0.836958200     0.6182082   -0.3565772  
   0.838958100     0.5552683   -0.4527547  
   0.840958000     0.4780315   -0.5378118  
   0.842957900     0.3886224   -0.6090671  
   0.844957800     0.2889734   -0.6655693  
   0.846957700     0.1825550   -0.7054301  
   0.848957600     0.0711355   -0.7278944  
   0.850957500    -0.0416418   -0.7329491  
   0.852957400    -0.1530588   -0.7202700  
   0.854957300    -0.2604665   -0.6910620  
   0.856957200    -0.3616390   -0.6457520  
   0.858957100    -0.4538683   -0.5865878  
   0.860957000    -0.5355448   -0.5146842  
   0.862956900    -0.6049581   -0.4328219  
   0.864956800    -0.6609706   -0.3424823  
   0.866956700    -0.7028961   -0.2458753  
   0.868956600    -0.7298524   -0.1453542  
   0.870956500    -0.7426400   -0.0422095  
   0.872956400    -0.7406742    0.0613808  
   0.874956300    -0.7240985    0.1633955  
   0.876956200    -0.6929179    0.2625046  
   0.878956100    -0.6484447    0.3559813  
   0.880956000    -0.5908582    0.4427086  
   0.882955900    -0.5213523    0.5205505  
   0.884955800    -0.4411804    0.5879894  
   0.886955700    -0.3517203    0.6435607  
   0.888955600    -0.2547503    0.6862103  
   0.890955500    -0.1522589    0.7144775  
   0.892955400    -0.0460559    0.7275456  
   0.894955300     0.0618053    0.7248536  
