! MS46122B
! 2250307/22442219
! 7/23/2025 1:04:03 PM
! C:\USERS\SPARKY\DOCUMENTS\VNA_DATA\JULY23_2025\295K\ECAL_SHORT_C.S1P
! CHANNEL.1
! TR.MEASUREMENT
! RAW.DATA
# GHZ S RI R 50.0
! FREQ.GHZ         S11RE         S11IM         
!; PortSelection: Port_1
   0.001000000     1.0457340   -0.0711691  
   0.002999900     0.9641820   -0.1938063  
   0.004999800     0.9040669   -0.2987463  
   0.006999700     0.8370363   -0.3963574  
   0.008999600     0.7588653   -0.4913180  
   0.010999500     0.6668899   -0.5814283  
   0.012999400     0.5559781   -0.6641321  
   0.014999300     0.4210004   -0.7338170  
   0.016999200     0.2565722   -0.7792404  
   0.018999100     0.0586250   -0.7837085  
   0.020999000    -0.1659867   -0.7191352  
   0.022998900    -0.3894032   -0.5516483  
   0.024998800    -0.5258194   -0.2631372  
   0.026998700    -0.5504844    0.1073299  
   0.028998600    -0.3605503    0.4428460  
   0.030998500    -0.0443886    0.6313003  
   0.032998400     0.2579016    0.6356924  
   0.034998300     0.5421373    0.5584630  
   0.036998200     0.7220619    0.4099133  
   0.038998100     0.8319158    0.2456053  
   0.040998000     0.8889295    0.0852678  
   0.042997900     0.9081438   -0.0631840  
   0.044997800     0.8715765   -0.1741657  
   0.046997700     0.8710745   -0.3151552  
   0.048997600     0.8291695   -0.4197487  
   0.050997500     0.7761826   -0.5110427  
   0.052997400     0.7155609   -0.5901762  
   0.054997300     0.6497351   -0.6584695  
   0.056997200     0.5768088   -0.7187936  
   0.058997100     0.5011261   -0.7687820  
   0.060997000     0.4219286   -0.8100749  
   0.062996900     0.3395924   -0.8432419  
   0.064996800     0.2548041   -0.8675550  
   0.066996700     0.1673775   -0.8828852  
   0.068996600     0.0778300   -0.8897604  
   0.070996500    -0.0128765   -0.8878860  
   0.072996400    -0.1046036   -0.8751552  
   0.074996300    -0.1969235   -0.8517871  
   0.076996200    -0.2884803   -0.8169412  
   0.078996100    -0.3782100   -0.7707356  
   0.080996000    -0.4646929   -0.7117281  
   0.082995900    -0.5461406   -0.6393569  
   0.084995800    -0.6199964   -0.5527263  
   0.086995700    -0.6846855   -0.4533837  
   0.088995600    -0.7369891   -0.3404222  
   0.090995500    -0.7737108   -0.2150509  
   0.092995400    -0.7918029   -0.0790117  
   0.094995300    -0.7857043    0.0648174  
   0.096995200    -0.7531871    0.2125299  
   0.098995100    -0.6912078    0.3576550  
   0.100995000    -0.5984768    0.4953202  
   0.102994900    -0.4767580    0.6136553  
   0.104994800    -0.3295261    0.7069314  
   0.106994700    -0.1625742    0.7676485  
   0.108994600     0.0146023    0.7920873  
   0.110994500     0.1928894    0.7780890  
   0.112994400     0.3627654    0.7264961  
   0.114994300     0.5150335    0.6420311  
   0.116994200     0.6429791    0.5306311  
   0.118994100     0.7429612    0.4003405  
   0.120994000     0.8145736    0.2586054  
   0.122993900     0.8553807    0.1115557  
   0.124993800     0.8681849   -0.0340351  
   0.126993700     0.8564469   -0.1741221  
   0.128993600     0.8216980   -0.3035973  
   0.130993500     0.7706578   -0.4219329  
   0.132993400     0.7046595   -0.5270376  
   0.134993300     0.6270076   -0.6178530  
   0.136993200     0.5400445   -0.6943143  
   0.138993100     0.4460932   -0.7564340  
   0.140993000     0.3474028   -0.8037103  
   0.142992900     0.2455364   -0.8377182  
   0.144992800     0.1421792   -0.8588424  
   0.146992700     0.0379057   -0.8657527  
   0.148992600    -0.0652054   -0.8597893  
   0.150992500    -0.1659155   -0.8399827  
   0.152992400    -0.2636591   -0.8091959  
   0.154992300    -0.3566848   -0.7663394  
   0.156992200    -0.4448233   -0.7122552  
   0.158992100    -0.5262065   -0.6470286  
   0.160992000    -0.5997277   -0.5711350  
   0.162991900    -0.6636549   -0.4854227  
   0.164991800    -0.7172636   -0.3898538  
   0.166991700    -0.7584214   -0.2865627  
   0.168991600    -0.7857396   -0.1758295  
   0.170991500    -0.7979699   -0.0593092  
   0.172991400    -0.7932351    0.0603531  
   0.174991300    -0.7707435    0.1811913  
   0.176991200    -0.7286763    0.3009925  
   0.178991100    -0.6675106    0.4157927  
   0.180991000    -0.5875505    0.5226040  
   0.182990900    -0.4881740    0.6165516  
   0.184990800    -0.3713733    0.6948080  
   0.186990700    -0.2404668    0.7532923  
   0.188990600    -0.1222697    0.7847113  
   0.190990500     0.0439234    0.7975898  
   0.192990400     0.1952297    0.7808633  
   0.194990300     0.3386414    0.7378664  
   0.196990200     0.4714330    0.6699865  
   0.198990100     0.5893513    0.5799923  
   0.200990000     0.6890130    0.4707312  
   0.202989900     0.7669880    0.3469587  
   0.204989800     0.8215829    0.2136060  
   0.206989700     0.8526216    0.0762340  
   0.208989600     0.8588226   -0.0618909  
   0.210989500     0.8428046   -0.1961112  
   0.212989400     0.8060401   -0.3233397  
   0.214989300     0.7510036   -0.4405345  
   0.216989200     0.6808041   -0.5445824  
   0.218989100     0.5980301   -0.6349248  
   0.220989000     0.5046403   -0.7107558  
   0.222988900     0.4031919   -0.7712432  
   0.224988800     0.2962449   -0.8159601  
   0.226988700     0.1861567   -0.8450812  
   0.228988600     0.0756801   -0.8584667  
   0.230988500    -0.0346891   -0.8568379  
   0.232988400    -0.1424999   -0.8396261  
   0.234988300    -0.2472073   -0.8095942  
   0.236988200    -0.3467736   -0.7660545  
   0.238988100    -0.4395623   -0.7096056  
   0.240988000    -0.5238085   -0.6419942  
   0.242987900    -0.5984040   -0.5635281  
   0.244987800    -0.6622024   -0.4751701  
   0.246987700    -0.7144322   -0.3776814  
   0.248987600    -0.7531460   -0.2720513  
   0.250987500    -0.7774194   -0.1605287  
   0.252987400    -0.7855087   -0.0452871  
   0.254987300    -0.7767916    0.0717647  
   0.256987200    -0.7505349    0.1880300  
   0.258987100    -0.7073696    0.3021101  
   0.260987000    -0.6443844    0.4101525  
   0.262986900    -0.5630403    0.5095248  
   0.264986800    -0.4649428    0.5962567  
   0.266986700    -0.3514087    0.6672173  
   0.268986600    -0.2257506    0.7184442  
   0.270986500    -0.0909748    0.7477223  
   0.272986400     0.0482472    0.7532743  
   0.274986300     0.1878355    0.7340391  
   0.276986200     0.3230110    0.6897128  
   0.278986100     0.4489316    0.6214235  
   0.280986000     0.5604239    0.5313829  
   0.282985900     0.6539650    0.4229083  
   0.284985800     0.7253379    0.3005061  
   0.286985700     0.7733406    0.1690529  
   0.288985600     0.7972126    0.0335467  
   0.290985500     0.7968895   -0.1007064  
   0.292985400     0.7745000   -0.2306117  
   0.294985300     0.7320820   -0.3519104  
   0.296985200     0.6717041   -0.4629484  
   0.298985100     0.5957825   -0.5610044  
   0.300985000     0.5078226   -0.6438748  
   0.302984900     0.4107421   -0.7107325  
   0.304984800     0.3071788   -0.7610641  
   0.306984700     0.2007915   -0.7950088  
   0.308984600     0.0939270   -0.8129939  
   0.310984500    -0.0118061   -0.8164179  
   0.312984400    -0.1144270   -0.8058199  
   0.314984300    -0.2130600   -0.7826516  
   0.316984200    -0.3063618   -0.7475701  
   0.318984100    -0.3941386   -0.7014878  
   0.320984000    -0.4752127   -0.6458310  
   0.322983900    -0.5487832   -0.5809800  
   0.324983800    -0.6143759   -0.5084772  
   0.326983700    -0.6713781   -0.4284361  
   0.328983600    -0.7197691   -0.3413845  
   0.330983500    -0.7581376   -0.2468262  
   0.332983400    -0.7844058   -0.1458962  
   0.334983300    -0.7966795   -0.0390649  
   0.336983200    -0.7927466    0.0709285  
   0.338983100    -0.7717556    0.1803620  
   0.340983000    -0.7341036    0.2865518  
   0.342982900    -0.6803244    0.3869686  
   0.344982800    -0.6118073    0.4789807  
   0.346982700    -0.5291858    0.5612181  
   0.348982600    -0.4340616    0.6303652  
   0.350982500    -0.3293508    0.6856976  
   0.352982400    -0.2162580    0.7255476  
   0.354982300    -0.0921794    0.7482860  
   0.356982200     0.0482011    0.7499507  
   0.358982100     0.1873856    0.7260760  
   0.360982000     0.3202223    0.6774733  
   0.362981900     0.4426891    0.6052299  
   0.364981800     0.5510355    0.5114091  
   0.366981700     0.6407593    0.3982575  
   0.368981600     0.7084317    0.2697886  
   0.370981500     0.7512175    0.1305260  
   0.372981400     0.7671549   -0.0146943  
   0.374981300     0.7553350   -0.1611332  
   0.376981200     0.7697362   -0.0575530  
   0.378981100     0.7493485   -0.2023840  
   0.380981000     0.7025669   -0.3398382  
   0.382980900     0.6383681   -0.4551390  
   0.384980800     0.5601343   -0.5526162  
   0.386980700     0.4684240   -0.6355639  
   0.388980600     0.3654372   -0.7020818  
   0.390980500     0.2555747   -0.7506157  
   0.392980400     0.1412479   -0.7811452  
   0.394980300     0.0257992   -0.7938294  
   0.396980200    -0.0890295   -0.7893171  
   0.398980100    -0.2006090   -0.7685366  
   0.400980000    -0.3063578   -0.7316815  
   0.402979900    -0.4054632   -0.6802065  
   0.404979800    -0.4945820   -0.6163163  
   0.406979700    -0.5735064   -0.5405617  
   0.408979600    -0.6406851   -0.4554364  
   0.410979500    -0.6952996   -0.3611460  
   0.412979400    -0.7366263   -0.2598005  
   0.414979300    -0.7617463   -0.1536072  
   0.416979200    -0.7733550   -0.0443718  
   0.418979100    -0.7697213    0.0651922  
   0.420979000    -0.7503434    0.1737233  
   0.422978900    -0.7153649    0.2792151  
   0.424978800    -0.6652300    0.3798363  
   0.426978700    -0.6005722    0.4731294  
   0.428978600    -0.5223702    0.5566891  
   0.430978500    -0.4321721    0.6282574  
   0.432978400    -0.3315534    0.6862523  
   0.434978300    -0.2229847    0.7300891  
   0.436978200    -0.1073521    0.7566577  
   0.438978100     0.0123385    0.7649541  
   0.440978000     0.1331810    0.7550471  
   0.442977900     0.2521074    0.7262750  
   0.444977800     0.3658447    0.6789033  
   0.446977700     0.4715144    0.6136183  
   0.448977600     0.5659052    0.5319612  
   0.450977500     0.6464763    0.4359299  
   0.452977400     0.7110375    0.3275888  
   0.454977300     0.7573636    0.2094375  
   0.456977200     0.7840864    0.0852124  
   0.458977100     0.7901270   -0.0416345  
   0.460977000     0.7755798   -0.1673495  
   0.462976900     0.7414425   -0.2874814  
   0.464976800     0.6887432   -0.4004775  
   0.466976700     0.6198604   -0.5024390  
   0.468976600     0.5364382   -0.5915759  
   0.470976500     0.4410662   -0.6657745  
   0.472976400     0.3368140   -0.7235377  
   0.474976300     0.2262449   -0.7642915  
   0.476976200     0.1120977   -0.7876815  
   0.478976100    -0.0020519   -0.7938486  
   0.480976000    -0.1142711   -0.7833484  
   0.482975900    -0.2218719   -0.7570273  
   0.484975800    -0.3237646   -0.7163460  
   0.486975700    -0.4183797   -0.6617258  
   0.488975600    -0.5037230   -0.5950899  
   0.490975500    -0.5787355   -0.5176566  
   0.492975400    -0.6420528   -0.4302313  
   0.494975300    -0.6925855   -0.3349715  
   0.496975200    -0.7293636   -0.2332543  
   0.498975100    -0.7512732   -0.1277185  
   0.500975000    -0.7581194   -0.0191519  
   0.502974900    -0.7492600    0.0892337  
   0.504974800    -0.7245224    0.1966051  
   0.506974700    -0.6838610    0.3001215  
   0.508974600    -0.6271494    0.3978948  
   0.510974500    -0.5551813    0.4863207  
   0.512974400    -0.4698971    0.5628679  
   0.514974300    -0.3729343    0.6241037  
   0.516974200    -0.2678337    0.6697993  
   0.518974100    -0.1569566    0.6976532  
   0.520974000    -0.0436537    0.7075629  
   0.522973900     0.0687746    0.6992289  
   0.524973800     0.1774129    0.6738048  
   0.526973700     0.2795778    0.6323178  
   0.528973600     0.3733332    0.5768154  
   0.530973500     0.4571646    0.5086874  
   0.532973400     0.5298009    0.4302495  
   0.534973300     0.5898717    0.3426833  
   0.536973200     0.6372080    0.2477713  
   0.538973100     0.6701738    0.1474685  
   0.540973000     0.6891488    0.0441186  
   0.542972900     0.6930034   -0.0618273  
   0.544972800     0.6811642   -0.1671025  
   0.546972700     0.6540272   -0.2710981  
   0.548972600     0.6113409   -0.3705323  
   0.550972500     0.5543814   -0.4627506  
   0.552972400     0.4831692   -0.5462068  
   0.554972300     0.3998359   -0.6177651  
   0.556972200     0.3061122   -0.6765594  
   0.558972100     0.2042523   -0.7202901  
   0.560972000     0.0974370   -0.7480960  
   0.562971900    -0.0120913   -0.7589434  
   0.564971800    -0.1215922   -0.7531603  
   0.566971700    -0.2288041   -0.7314972  
   0.568971600    -0.3312819   -0.6940426  
   0.570971500    -0.4266547   -0.6423980  
   0.572971400    -0.5134724   -0.5772030  
   0.574971300    -0.5900371   -0.4997281  
   0.576971200    -0.6545251   -0.4118716  
   0.578971100    -0.7055277   -0.3154603  
   0.580971000    -0.7421448   -0.2129404  
   0.582970900    -0.7632254   -0.1062506  
   0.584970800    -0.7688675    0.0019327  
   0.586970700    -0.7587701    0.1098865  
   0.588970600    -0.7336044    0.2151791  
   0.590970500    -0.6933721    0.3162051  
   0.592970400    -0.6387261    0.4108120  
   0.594970300    -0.5708812    0.4968214  
   0.596970200    -0.4906277    0.5728365  
   0.598970100    -0.3998187    0.6366546  
   0.600970000    -0.2994322    0.6868775  
   0.602969900    -0.1921241    0.7218022  
   0.604969800    -0.0792269    0.7409226  
   0.606969700     0.0358933    0.7423871  
   0.608969600     0.1515019    0.7258760  
   0.610969500     0.2639508    0.6915954  
   0.612969400     0.3705747    0.6394500  
   0.614969300     0.4683016    0.5711843  
   0.616969200     0.5539162    0.4877872  
   0.618969100     0.6254691    0.3919175  
   0.620969000     0.6808389    0.2858235  
   0.622968900     0.7187161    0.1720935  
   0.624968800     0.7379080    0.0528527  
   0.626968700     0.7372579   -0.0679638  
   0.628968600     0.7176115   -0.1873067  
   0.630968500     0.6786247   -0.3015875  
   0.632968400     0.6221964   -0.4078875  
   0.634968300     0.5493649   -0.5031054  
   0.636968200     0.4628773   -0.5849393  
   0.638968100     0.3651942   -0.6511554  
   0.640968000     0.2588067   -0.7009779  
   0.642967900     0.1473394   -0.7332586  
   0.644967800     0.0330449   -0.7471700  
   0.646967700    -0.0805720   -0.7435395  
   0.648967600    -0.1910471   -0.7227229  
   0.650967500    -0.2953533   -0.6859642  
   0.652967400    -0.3922311   -0.6346400  
   0.654967300    -0.4795431   -0.5701064  
   0.656967200    -0.5557245   -0.4943719  
   0.658967100    -0.6197718   -0.4087286  
   0.660967000    -0.6706658   -0.3150598  
   0.662966900    -0.7072763   -0.2152665  
   0.664966800    -0.7292416   -0.1110250  
   0.666966700    -0.7358751   -0.0047128  
   0.668966600    -0.7270048    0.1015759  
   0.670966500    -0.7028548    0.2053855  
   0.672966400    -0.6647235    0.3057970  
   0.674966300    -0.6116304    0.3987105  
   0.676966200    -0.5449105    0.4831801  
   0.678966100    -0.4668913    0.5575480  
   0.680966000    -0.3778809    0.6199976  
   0.682965900    -0.2799756    0.6688344  
   0.684965800    -0.1753190    0.7028211  
   0.686965700    -0.0654721    0.7206313  
   0.688965600     0.0467093    0.7218115  
   0.690965500     0.1582906    0.7044374  
   0.692965400     0.2671390    0.6708829  
   0.694965300     0.3700399    0.6204518  
   0.696965200     0.4638510    0.5542132  
   0.698965100     0.5471925    0.4731756  
   0.700965000     0.6163906    0.3793192  
   0.702964900     0.6704788    0.2753806  
   0.704964800     0.7069925    0.1636510  
   0.706964700     0.7248356    0.0474270  
   0.708964600     0.7239624   -0.0705465  
   0.710964500     0.7048146   -0.1865441  
   0.712964400     0.6668499   -0.2967230  
   0.714964300     0.6117380   -0.3993479  
   0.716964200     0.5420728   -0.4898791  
   0.718964100     0.4601772   -0.5677330  
   0.720964000     0.3683738   -0.6306953  
   0.722963900     0.2697504   -0.6783597  
   0.724963800     0.1664838   -0.7105560  
   0.726963700     0.0607918   -0.7269232  
   0.728963600    -0.0447475   -0.7276716  
   0.730963500    -0.1483786   -0.7127367  
   0.732963400    -0.2479489   -0.6842328  
   0.734963300    -0.3417488   -0.6422083  
   0.736963200    -0.4405992   -0.5778325  
   0.738963100    -0.5275645   -0.4980704  
   0.740963000    -0.6002452   -0.4051614  
   0.742962900    -0.6566570   -0.3018917  
   0.744962800    -0.6952267   -0.1906570  
   0.746962700    -0.7150846   -0.0740266  
   0.748962600    -0.7152395    0.0452378  
   0.750962500    -0.7278524   -0.0650375  
   0.752962400    -0.7260256    0.0553030  
   0.754962300    -0.7039033    0.1739569  
   0.756962200    -0.6616627    0.2879699  
   0.758962100    -0.6006593    0.3929373  
   0.760962000    -0.5217200    0.4868693  
   0.762961900    -0.4326354    0.5624079  
   0.764961800    -0.3421775    0.6177415  
   0.766961700    -0.2442548    0.6585743  
   0.768961600    -0.1408260    0.6840577  
   0.770961500    -0.0348837    0.6936482  
   0.772961400     0.0710661    0.6871958  
   0.774961300     0.1747654    0.6649860  
   0.776961200     0.2745252    0.6271513  
   0.778961100     0.3671630    0.5748968  
   0.780961000     0.4517164    0.5086738  
   0.782960900     0.5255101    0.4302888  
   0.784960800     0.5872481    0.3411479  
   0.786960700     0.6347198    0.2432657  
   0.788960600     0.6666653    0.1386102  
   0.790960500     0.6823812    0.0302959  
   0.792960400     0.6811140   -0.0793154  
   0.794960300     0.6629624   -0.1872202  
   0.796960200     0.6284567   -0.2913624  
   0.798960100     0.5782043   -0.3886321  
   0.800960000     0.5136573   -0.4767868  
   0.802959900     0.4362168   -0.5541284  
   0.804959800     0.3481509   -0.6185088  
   0.806959700     0.2514556   -0.6686093  
   0.808959600     0.1484510   -0.7032893  
   0.810959500     0.0414441   -0.7217319  
   0.812959400    -0.0668331   -0.7237778  
   0.814959300    -0.1741125   -0.7093411  
   0.816959200    -0.2772668   -0.6791254  
   0.818959100    -0.3746437   -0.6337348  
   0.820959000    -0.4636119   -0.5746521  
   0.822958900    -0.5425221   -0.5030549  
   0.824958800    -0.6098241   -0.4208211  
   0.826958700    -0.6640453   -0.3299392  
   0.828958600    -0.7044115   -0.2321333  
   0.830958500    -0.7295138   -0.1299768  
   0.832958400    -0.7397344   -0.0257162  
   0.834958300    -0.7345359    0.0787915  
   0.836958200    -0.7147537    0.1810617  
   0.838958100    -0.6801454    0.2791208  
   0.840958000    -0.6314186    0.3715116  
   0.842957900    -0.5700104    0.4560233  
   0.844957800    -0.4966204    0.5314534  
   0.846957700    -0.4131090    0.5955202  
   0.848957600    -0.3206414    0.6468275  
   0.850957500    -0.2212821    0.6845538  
   0.852957400    -0.1164991    0.7070549  
   0.854957300    -0.0089303    0.7138488  
   0.856957200     0.0989016    0.7044744  
   0.858957100     0.2047278    0.6788350  
   0.860957000     0.3052322    0.6373984  
   0.862956900     0.3988109    0.5809065  
   0.864956800     0.4828004    0.5106359  
   0.866956700     0.5550261    0.4283282  
   0.868956600     0.6137134    0.3349497  
   0.870956500     0.6579541    0.2333464  
   0.872956400     0.6862289    0.1251711  
   0.874956300     0.6972780    0.0134719  
   0.876956200     0.6902267   -0.0995616  
   0.878956100     0.6652181   -0.2102042  
   0.880956000     0.6226131   -0.3158433  
   0.882955900     0.5635157   -0.4132222  
   0.884955800     0.4897543   -0.4998157  
   0.886955700     0.4028708   -0.5731187  
   0.888955600     0.3060879   -0.6311314  
   0.890955500     0.2015152   -0.6729633  
   0.892955400     0.0924673   -0.6971154  
   0.894955300    -0.0180992   -0.7037987  
