! MS46122B
! 2250307/22442219
! 7/24/2025 12:32:39 PM
! C:\USERS\SPARKY\DOCUMENTS\VNA_DATA\JULY24_2025\295K\ECAL_SHORT_D.S1P
! CHANNEL.1
! TR.MEASUREMENT
! RAW.DATA
# GHZ S RI R 50.0
! FREQ.GHZ         S11RE         S11IM         
!; PortSelection: Port_1
   0.001000000     1.0456020   -0.0720156  
   0.002999900     0.9638589   -0.1944450  
   0.004999800     0.9038209   -0.2993031  
   0.006999700     0.8368024   -0.3965990  
   0.008999600     0.7585925   -0.4914410  
   0.010999500     0.6666873   -0.5813091  
   0.012999400     0.5558767   -0.6637856  
   0.014999300     0.4212242   -0.7332227  
   0.016999200     0.2570735   -0.7785095  
   0.018999100     0.0596837   -0.7829624  
   0.020999000    -0.1643689   -0.7185987  
   0.022998900    -0.3872519   -0.5517969  
   0.024998800    -0.5235747   -0.2641172  
   0.026998700    -0.5487028    0.1053300  
   0.028998600    -0.3597241    0.4405020  
   0.030998500    -0.0443330    0.6292959  
   0.032998400     0.2576427    0.6340168  
   0.034998300     0.5417256    0.5571314  
   0.036998200     0.7216476    0.4087280  
   0.038998100     0.8314784    0.2445622  
   0.040998000     0.8884661    0.0843167  
   0.042997900     0.9075996   -0.0640240  
   0.044997800     0.8709361   -0.1748577  
   0.046997700     0.8703211   -0.3158490  
   0.048997600     0.8285151   -0.4202583  
   0.050997500     0.7755193   -0.5114399  
   0.052997400     0.7148973   -0.5904653  
   0.054997300     0.6489206   -0.6587715  
   0.056997200     0.5761511   -0.7188362  
   0.058997100     0.5005178   -0.7686706  
   0.060997000     0.4214102   -0.8098302  
   0.062996900     0.3391804   -0.8429130  
   0.064996800     0.2544172   -0.8671132  
   0.066996700     0.1671036   -0.8824450  
   0.068996600     0.0777267   -0.8892499  
   0.070996500    -0.0128775   -0.8873175  
   0.072996400    -0.1044364   -0.8746014  
   0.074996300    -0.1966464   -0.8512130  
   0.076996200    -0.2880381   -0.8163509  
   0.078996100    -0.3777672   -0.7702090  
   0.080996000    -0.4639847   -0.7112573  
   0.082995900    -0.5453465   -0.6389582  
   0.084995800    -0.6190785   -0.5524129  
   0.086995700    -0.6836701   -0.4532246  
   0.088995600    -0.7359166   -0.3403408  
   0.090995500    -0.7725152   -0.2150828  
   0.092995400    -0.7906476   -0.0793000  
   0.094995300    -0.7845622    0.0642975  
   0.096995200    -0.7521065    0.2118879  
   0.098995100    -0.6901991    0.3568888  
   0.100995000    -0.5976197    0.4943278  
   0.102994900    -0.4761053    0.6125845  
   0.104994800    -0.3290575    0.7058173  
   0.106994700    -0.1621956    0.7665966  
   0.108994600     0.0148480    0.7909815  
   0.110994500     0.1929733    0.7770172  
   0.112994400     0.3627129    0.7254303  
   0.114994300     0.5149113    0.6410723  
   0.116994200     0.6427665    0.5297289  
   0.118994100     0.7426299    0.3994919  
   0.120994000     0.8141822    0.2577779  
   0.122993900     0.8549497    0.1108717  
   0.124993800     0.8677332   -0.0348844  
   0.126993700     0.8558756   -0.1746525  
   0.128993600     0.8211261   -0.3040172  
   0.130993500     0.7701146   -0.4221817  
   0.132993400     0.7040347   -0.5272310  
   0.134993300     0.6264916   -0.6176991  
   0.136993200     0.5393912   -0.6944218  
   0.138993100     0.4455495   -0.7563131  
   0.140993000     0.3468366   -0.8037621  
   0.142992900     0.2449606   -0.8376215  
   0.144992800     0.1417425   -0.8584876  
   0.146992700     0.0376618   -0.8652657  
   0.148992600    -0.0653827   -0.8592689  
   0.150992500    -0.1660170   -0.8394400  
   0.152992400    -0.2634116   -0.8085867  
   0.154992300    -0.3566528   -0.7656929  
   0.156992200    -0.4445479   -0.7116125  
   0.158992100    -0.5257203   -0.6465061  
   0.160992000    -0.5991351   -0.5706823  
   0.162991900    -0.6629439   -0.4849718  
   0.164991800    -0.7164679   -0.3895338  
   0.166991700    -0.7575589   -0.2862245  
   0.168991600    -0.7847660   -0.1756920  
   0.170991500    -0.7969956   -0.0593594  
   0.172991400    -0.7922066    0.0602140  
   0.174991300    -0.7697089    0.1808887  
   0.176991200    -0.7277974    0.3005521  
   0.178991100    -0.6666267    0.4151867  
   0.180991000    -0.5867335    0.5219269  
   0.182990900    -0.4874677    0.6157476  
   0.184990800    -0.3707948    0.6939455  
   0.186990700    -0.2400031    0.7523853  
   0.188990600    -0.1218714    0.7837890  
   0.190990500     0.0441564    0.7966696  
   0.192990400     0.1953574    0.7799256  
   0.194990300     0.3387153    0.7369598  
   0.196990200     0.4713905    0.6691300  
   0.198990100     0.5892248    0.5791435  
   0.200990000     0.6888430    0.4698978  
   0.202989900     0.7667311    0.3462119  
   0.204989800     0.8212528    0.2128543  
   0.206989700     0.8522392    0.0753139  
   0.208989600     0.8583182   -0.0625301  
   0.210989500     0.8422602   -0.1966891  
   0.212989400     0.8054153   -0.3238204  
   0.214989300     0.7503420   -0.4408590  
   0.216989200     0.6801096   -0.5448582  
   0.218989100     0.5972495   -0.6351286  
   0.220989000     0.5040498   -0.7107113  
   0.222988900     0.4024538   -0.7711217  
   0.224988800     0.2957107   -0.8156778  
   0.226988700     0.1855620   -0.8447084  
   0.228988600     0.0750740   -0.8580658  
   0.230988500    -0.0349754   -0.8561761  
   0.232988400    -0.1428538   -0.8389915  
   0.234988300    -0.2474834   -0.8089274  
   0.236988200    -0.3468348   -0.7653565  
   0.238988100    -0.4394550   -0.7088557  
   0.240988000    -0.5235581   -0.6412787  
   0.242987900    -0.5980021   -0.5628906  
   0.244987800    -0.6616466   -0.4745067  
   0.246987700    -0.7138259   -0.3771358  
   0.248987600    -0.7524058   -0.2715875  
   0.250987500    -0.7766026   -0.1601799  
   0.252987400    -0.7846274   -0.0450517  
   0.254987300    -0.7758548    0.0718607  
   0.256987200    -0.7495712    0.1879689  
   0.258987100    -0.7063521    0.3020361  
   0.260987000    -0.6434229    0.4098482  
   0.262986900    -0.5621537    0.5090832  
   0.264986800    -0.4640977    0.5956821  
   0.266986700    -0.3506780    0.6665026  
   0.268986600    -0.2249329    0.7177483  
   0.270986500    -0.0904738    0.7469039  
   0.272986400     0.0487386    0.7523211  
   0.274986300     0.1882845    0.7331059  
   0.276986200     0.3232618    0.6887499  
   0.278986100     0.4490341    0.6204989  
   0.280986000     0.5604149    0.5304650  
   0.282985900     0.6537998    0.4220892  
   0.284985800     0.7251677    0.2997071  
   0.286985700     0.7730765    0.1680339  
   0.288985600     0.7967312    0.0327069  
   0.290985500     0.7964901   -0.1016809  
   0.292985400     0.7738745   -0.2312273  
   0.294985300     0.7313608   -0.3525400  
   0.296985200     0.6708882   -0.4633668  
   0.298985100     0.5949798   -0.5612707  
   0.300985000     0.5069744   -0.6440443  
   0.302984900     0.4098576   -0.7107304  
   0.304984800     0.3063888   -0.7609160  
   0.306984700     0.2000116   -0.7947451  
   0.308984600     0.0932350   -0.8126010  
   0.310984500    -0.0124012   -0.8159194  
   0.312984400    -0.1149454   -0.8052521  
   0.314984300    -0.2134808   -0.7820134  
   0.316984200    -0.3066887   -0.7468932  
   0.318984100    -0.3943211   -0.7007357  
   0.320984000    -0.4752495   -0.6451595  
   0.322983900    -0.5487159   -0.5802121  
   0.324983800    -0.6141542   -0.5076970  
   0.326983700    -0.6710445   -0.4277070  
   0.328983600    -0.7192855   -0.3407243  
   0.330983500    -0.7575726   -0.2462024  
   0.332983400    -0.7837005   -0.1453853  
   0.334983300    -0.7958904   -0.0386841  
   0.336983200    -0.7919273    0.0711153  
   0.338983100    -0.7708691    0.1804378  
   0.340983000    -0.7332224    0.2865450  
   0.342982900    -0.6794633    0.3867756  
   0.344982800    -0.6109426    0.4787155  
   0.346982700    -0.5284570    0.5608298  
   0.348982600    -0.4333020    0.6299070  
   0.350982500    -0.3287673    0.6851712  
   0.352982400    -0.2158113    0.7249396  
   0.354982300    -0.0917905    0.7476145  
   0.356982200     0.0484281    0.7492347  
   0.358982100     0.1873904    0.7252976  
   0.360982000     0.3202225    0.6767808  
   0.362981900     0.4426899    0.6045069  
   0.364981800     0.5510020    0.5107093  
   0.366981700     0.6404839    0.3976423  
   0.368981600     0.7080980    0.2692642  
   0.370981500     0.7507901    0.1300204  
   0.372981400     0.7666637   -0.0150943  
   0.374981300     0.7547812   -0.1614050  
   0.376981200     0.7692420   -0.0579631  
   0.378981100     0.7488150   -0.2027392  
   0.380981000     0.7019921   -0.3400909  
   0.382980900     0.6377956   -0.4552993  
   0.384980800     0.5595001   -0.5526618  
   0.386980700     0.4676650   -0.6355559  
   0.388980600     0.3648192   -0.7019196  
   0.390980500     0.2550690   -0.7504051  
   0.392980400     0.1406935   -0.7807956  
   0.394980300     0.0252924   -0.7934465  
   0.396980200    -0.0893515   -0.7888291  
   0.398980100    -0.2008919   -0.7679497  
   0.400980000    -0.3064218   -0.7310141  
   0.402979900    -0.4054728   -0.6795859  
   0.404979800    -0.4945106   -0.6156360  
   0.406979700    -0.5733240   -0.5399287  
   0.408979600    -0.6403689   -0.4548595  
   0.410979500    -0.6948863   -0.3605651  
   0.412979400    -0.7361001   -0.2593020  
   0.414979300    -0.7611138   -0.1532775  
   0.416979200    -0.7727022   -0.0441493  
   0.418979100    -0.7689711    0.0653214  
   0.420979000    -0.7495920    0.1737413  
   0.422978900    -0.7145860    0.2791762  
   0.424978800    -0.6644216    0.3795837  
   0.426978700    -0.5998355    0.4727677  
   0.428978600    -0.5216521    0.5562614  
   0.430978500    -0.4315120    0.6277422  
   0.432978400    -0.3309627    0.6856303  
   0.434978300    -0.2224670    0.7293741  
   0.436978200    -0.1070320    0.7558999  
   0.438978100     0.0126336    0.7641655  
   0.440978000     0.1334241    0.7541975  
   0.442977900     0.2522476    0.7254235  
   0.444977800     0.3658811    0.6780537  
   0.446977700     0.4714041    0.6127278  
   0.448977600     0.5657730    0.5310638  
   0.450977500     0.6463315    0.4349178  
   0.452977400     0.7107152    0.3267945  
   0.454977300     0.7570232    0.2086544  
   0.456977200     0.7836280    0.0844994  
   0.458977100     0.7894846   -0.0423862  
   0.460977000     0.7749903   -0.1678438  
   0.462976900     0.7407492   -0.2880031  
   0.464976800     0.6879964   -0.4007607  
   0.466976700     0.6190544   -0.5027618  
   0.468976600     0.5356413   -0.5917011  
   0.470976500     0.4400845   -0.6660027  
   0.472976400     0.3359943   -0.7235163  
   0.474976300     0.2254198   -0.7641544  
   0.476976200     0.1113570   -0.7874116  
   0.478976100    -0.0027202   -0.7935123  
   0.480976000    -0.1148199   -0.7829019  
   0.482975900    -0.2222806   -0.7564653  
   0.484975800    -0.3240812   -0.7157643  
   0.486975700    -0.4185292   -0.6611605  
   0.488975600    -0.5037479   -0.5944543  
   0.490975500    -0.5786165   -0.5170183  
   0.492975400    -0.6418248   -0.4296835  
   0.494975300    -0.6922192   -0.3344373  
   0.496975200    -0.7289189   -0.2328418  
   0.498975100    -0.7507075   -0.1274135  
   0.500975000    -0.7575476   -0.0190333  
   0.502974900    -0.7485517    0.0892833  
   0.504974800    -0.7237977    0.1965029  
   0.506974700    -0.6831606    0.2998837  
   0.508974600    -0.6264560    0.3975152  
   0.510974500    -0.5545354    0.4858713  
   0.512974400    -0.4693307    0.5622901  
   0.514974300    -0.3724508    0.6234593  
   0.516974200    -0.2674407    0.6690974  
   0.518974100    -0.1566798    0.6969345  
   0.520974000    -0.0434604    0.7067646  
   0.522973900     0.0689068    0.6983998  
   0.524973800     0.1774679    0.6729898  
   0.526973700     0.2795283    0.6314937  
   0.528973600     0.3731813    0.5759733  
   0.530973500     0.4569013    0.5078685  
   0.532973400     0.5294736    0.4294254  
   0.534973300     0.5894196    0.3419585  
   0.536973200     0.6365647    0.2470757  
   0.538973100     0.6696126    0.1468473  
   0.540973000     0.6884910    0.0435717  
   0.542972900     0.6923100   -0.0622723  
   0.544972800     0.6804188   -0.1674589  
   0.546972700     0.6532801   -0.2713967  
   0.548972600     0.6105855   -0.3707138  
   0.550972500     0.5536444   -0.4627868  
   0.552972400     0.4824502   -0.5462099  
   0.554972300     0.3991157   -0.6177132  
   0.556972200     0.3054288   -0.6763815  
   0.558972100     0.2037565   -0.7199374  
   0.560972000     0.0968973   -0.7477131  
   0.562971900    -0.0125437   -0.7584783  
   0.564971800    -0.1220787   -0.7527446  
   0.566971700    -0.2291145   -0.7309311  
   0.568971600    -0.3314576   -0.6934205  
   0.570971500    -0.4267099   -0.6417464  
   0.572971400    -0.5133783   -0.5765445  
   0.574971300    -0.5897297   -0.4991224  
   0.576971200    -0.6541650   -0.4112516  
   0.578971100    -0.7050316   -0.3148766  
   0.580971000    -0.7416049   -0.2124147  
   0.582970900    -0.7625970   -0.1058885  
   0.584970800    -0.7680565    0.0022764  
   0.586970700    -0.7579519    0.1100814  
   0.588970600    -0.7327026    0.2152648  
   0.590970500    -0.6924179    0.3161656  
   0.592970400    -0.6377814    0.4106863  
   0.594970300    -0.5699148    0.4965725  
   0.596970200    -0.4897056    0.5723996  
   0.598970100    -0.3987709    0.6360632  
   0.600970000    -0.2986023    0.6862346  
   0.602969900    -0.1914296    0.7210234  
   0.604969800    -0.0785352    0.7400557  
   0.606969700     0.0366017    0.7415016  
   0.608969600     0.1520897    0.7248152  
   0.610969500     0.2643878    0.6905208  
   0.612969400     0.3708919    0.6383380  
   0.614969300     0.4686075    0.5699396  
   0.616969200     0.5540175    0.4866230  
   0.618969100     0.6254119    0.3907578  
   0.620969000     0.6806588    0.2846507  
   0.622968900     0.7183545    0.1709124  
   0.624968800     0.7374699    0.0517520  
   0.626968700     0.7366918   -0.0689825  
   0.628968600     0.7169292   -0.1882394  
   0.630968500     0.6778639   -0.3023906  
   0.632968400     0.6213105   -0.4085577  
   0.634968300     0.5483811   -0.5037624  
   0.636968200     0.4618931   -0.5854514  
   0.638968100     0.3641886   -0.6513800  
   0.640968000     0.2578250   -0.7010216  
   0.642967900     0.1463732   -0.7331830  
   0.644967800     0.0321953   -0.7468990  
   0.646967700    -0.0813288   -0.7431283  
   0.648967600    -0.1915733   -0.7221760  
   0.650967500    -0.2958031   -0.6853373  
   0.652967400    -0.3925394   -0.6339159  
   0.654967300    -0.4796690   -0.5693949  
   0.656967200    -0.5556905   -0.4935308  
   0.658967100    -0.6195359   -0.4080533  
   0.660967000    -0.6703138   -0.3144338  
   0.662966900    -0.7068171   -0.2146021  
   0.664966800    -0.7286004   -0.1105190  
   0.666966700    -0.7351593   -0.0043208  
   0.668966600    -0.7261818    0.1018400  
   0.670966500    -0.7020259    0.2055202  
   0.672966400    -0.6638333    0.3058396  
   0.674966300    -0.6106324    0.3986722  
   0.676966200    -0.5440273    0.4828880  
   0.678966100    -0.4659831    0.5571685  
   0.680966000    -0.3771217    0.6194524  
   0.682965900    -0.2792432    0.6681697  
   0.684965800    -0.1744671    0.7021180  
   0.686965700    -0.0648877    0.7198527  
   0.688965600     0.0471686    0.7209892  
   0.690965500     0.1586649    0.7035595  
   0.692965400     0.2674079    0.6700113  
   0.694965300     0.3701750    0.6196094  
   0.696965200     0.4639016    0.5533463  
   0.698965100     0.5471706    0.4723009  
   0.700965000     0.6162643    0.3785118  
   0.702964900     0.6703165    0.2745948  
   0.704964800     0.7067015    0.1628985  
   0.706964700     0.7245077    0.0467761  
   0.708964600     0.7235506   -0.0711687  
   0.710964500     0.7043485   -0.1870981  
   0.712964400     0.6662463   -0.2971500  
   0.714964300     0.6111277   -0.3996583  
   0.716964200     0.5414431   -0.4901811  
   0.718964100     0.4595547   -0.5679254  
   0.720964000     0.3677747   -0.6307818  
   0.722963900     0.2691032   -0.6783533  
   0.724963800     0.1658821   -0.7104198  
   0.726963700     0.0602178   -0.7267039  
   0.728963600    -0.0452368   -0.7273315  
   0.730963500    -0.1487690   -0.7123123  
   0.732963400    -0.2481911   -0.6837255  
   0.734963300    -0.3420726   -0.6416009  
   0.736963200    -0.4406483   -0.5771864  
   0.738963100    -0.5274674   -0.4974444  
   0.740963000    -0.5998440   -0.4045849  
   0.742962900    -0.6562169   -0.3014072  
   0.744962800    -0.6947555   -0.1899719  
   0.746962700    -0.7144406   -0.0735037  
   0.748962600    -0.7145213    0.0455060  
   0.750962500    -0.7271086   -0.0645281  
   0.752962400    -0.7252392    0.0555212  
   0.754962300    -0.7030545    0.1741294  
   0.756962200    -0.6607704    0.2879736  
   0.758962100    -0.5997500    0.3928572  
   0.760962000    -0.5209025    0.4865730  
   0.762961900    -0.4317949    0.5620048  
   0.764961800    -0.3414500    0.6172358  
   0.766961700    -0.2435722    0.6579354  
   0.768961600    -0.1401734    0.6833267  
   0.770961500    -0.0343649    0.6929442  
   0.772961400     0.0714903    0.6863792  
   0.774961300     0.1751212    0.6641603  
   0.776961200     0.2747500    0.6263091  
   0.778961100     0.3672784    0.5740080  
   0.780961000     0.4516894    0.5078418  
   0.782960900     0.5254195    0.4294893  
   0.784960800     0.5870793    0.3403469  
   0.786960700     0.6344480    0.2424958  
   0.788960600     0.6662819    0.1379448  
   0.790960500     0.6819252    0.0296975  
   0.792960400     0.6805914   -0.0798147  
   0.794960300     0.6624226   -0.1876008  
   0.796960200     0.6278351   -0.2916461  
   0.798960100     0.5775677   -0.3888343  
   0.800960000     0.5129715   -0.4768808  
   0.802959900     0.4356219   -0.5540394  
   0.804959800     0.3475889   -0.6183403  
   0.806959700     0.2509094   -0.6683534  
   0.808959600     0.1479412   -0.7029384  
   0.810959500     0.0410166   -0.7212877  
   0.812959400    -0.0671678   -0.7232193  
   0.814959300    -0.1743502   -0.7086890  
   0.816959200    -0.2774005   -0.6784482  
   0.818959100    -0.3746940   -0.6330065  
   0.820959000    -0.4635383   -0.5739340  
   0.822958900    -0.5423397   -0.5023503  
   0.824958800    -0.6095119   -0.4201503  
   0.826958700    -0.6635702   -0.3293088  
   0.828958600    -0.7038384   -0.2315461  
   0.830958500    -0.7288991   -0.1294752  
   0.832958400    -0.7390155   -0.0252900  
   0.834958300    -0.7337914    0.0790162  
   0.836958200    -0.7139671    0.1812036  
   0.838958100    -0.6792099    0.2791404  
   0.840958000    -0.6305025    0.3714509  
   0.842957900    -0.5691794    0.4559192  
   0.844957800    -0.4958026    0.5311611  
   0.846957700    -0.4122869    0.5951651  
   0.848957600    -0.3198760    0.6463149  
   0.850957500    -0.2206192    0.6839737  
   0.852957400    -0.1158951    0.7063925  
   0.854957300    -0.0084134    0.7131146  
   0.856957200     0.0992912    0.7036526  
   0.858957100     0.2049986    0.6779917  
   0.860957000     0.3053686    0.6365705  
   0.862956900     0.3988258    0.5800796  
   0.864956800     0.4827473    0.5098105  
   0.866956700     0.5549292    0.4276360  
   0.868956600     0.6134520    0.3342474  
   0.870956500     0.6576937    0.2327212  
   0.872956400     0.6858017    0.1246647  
   0.874956300     0.6967747    0.0130758  
   0.876956200     0.6897078   -0.0998490  
   0.878956100     0.6647152   -0.2104984  
   0.880956000     0.6220248   -0.3160062  
   0.882955900     0.5628704   -0.4132640  
   0.884955800     0.4891157   -0.4998244  
   0.886955700     0.4022687   -0.5730498  
   0.888955600     0.3055044   -0.6309668  
   0.890955500     0.2010540   -0.6726462  
   0.892955400     0.0920798   -0.6967304  
   0.894955300    -0.0184195   -0.7033425  
