! MS46122B
! 2250307/22442219
! 7/21/2025 11:57:32 AM
! C:\USERS\SPARKY\DOCUMENTS\VNA_DATA\JULY21_2025\ECAL_LOAD_A.S1P
! CHANNEL.1
! TR.MEASUREMENT
! RAW.DATA
# GHZ S RI R 50.0
! FREQ.GHZ         S11RE         S11IM         
!; PortSelection: Port_1
   0.001000000     1.0450470   -0.0717325  
   0.002999900     0.9522961   -0.1941521  
   0.004999800     0.8767555   -0.2780746  
   0.006999700     0.7915893   -0.3671528  
   0.008999600     0.7001785   -0.4053577  
   0.010999500     0.6233866   -0.4305181  
   0.012999400     0.5572048   -0.4447852  
   0.014999300     0.5008478   -0.4516119  
   0.016999200     0.4520559   -0.4525534  
   0.018999100     0.4113185   -0.4492815  
   0.020999000     0.3775162   -0.4436345  
   0.022998900     0.3486557   -0.4367524  
   0.024998800     0.3186127   -0.4078668  
   0.026998700     0.3022417   -0.4208129  
   0.028998600     0.2829895   -0.4123817  
   0.030998500     0.2654486   -0.4039785  
   0.032998400     0.2454977   -0.3780314  
   0.034998300     0.2333852   -0.3875476  
   0.036998200     0.2189064   -0.3795693  
   0.038998100     0.2051814   -0.3719849  
   0.040998000     0.1920110   -0.3645939  
   0.042997900     0.1792991   -0.3574156  
   0.044997800     0.1658265   -0.3360285  
   0.046997700     0.1544396   -0.3438212  
   0.048997600     0.1430345   -0.3370901  
   0.050997500     0.1322076   -0.3303982  
   0.052997400     0.1219398   -0.3237512  
   0.054997300     0.1122744   -0.3171193  
   0.056997200     0.1026906   -0.3109852  
   0.058997100     0.0939006   -0.3047355  
   0.060997000     0.0855558   -0.2986777  
   0.062996900     0.0778054   -0.2927250  
   0.064996800     0.0706650   -0.2867867  
   0.066996700     0.0639984   -0.2809569  
   0.068996600     0.0578003   -0.2751259  
   0.070996500     0.0520906   -0.2696331  
   0.072996400     0.0467162   -0.2638826  
   0.074996300     0.0417685   -0.2581597  
   0.076996200     0.0371421   -0.2524683  
   0.078996100     0.0328856   -0.2467703  
   0.080996000     0.0288455   -0.2411619  
   0.082995900     0.0250167   -0.2356154  
   0.084995800     0.0213494   -0.2297233  
   0.086995700     0.0181950   -0.2242117  
   0.088995600     0.0153435   -0.2187868  
   0.090995500     0.0126504   -0.2134781  
   0.092995400     0.0102952   -0.2084278  
   0.094995300     0.0081963   -0.2032958  
   0.096995200     0.0063263   -0.1982341  
   0.098995100     0.0045558   -0.1932725  
   0.100995000     0.0019228   -0.1894577  
   0.102994900     0.0006056   -0.1848920  
   0.104994800    -0.0003478   -0.1805224  
   0.106994700    -0.0010885   -0.1762122  
   0.108994600    -0.0016435   -0.1722412  
   0.110994500    -0.0020383   -0.1685009  
   0.112994400    -0.0022659   -0.1649877  
   0.114994300    -0.0023675   -0.1616953  
   0.116994200    -0.0023372   -0.1586239  
   0.118994100    -0.0022351   -0.1557975  
   0.120994000    -0.0018876   -0.1531436  
   0.122993900    -0.0017735   -0.1506557  
   0.124993800    -0.0015567   -0.1485015  
   0.126993700    -0.0013643   -0.1465671  
   0.128993600    -0.0012498   -0.1448203  
   0.130993500    -0.0011644   -0.1433133  
   0.132993400    -0.0011768   -0.1419696  
   0.134993300    -0.0013103   -0.1407985  
   0.136993200    -0.0015543   -0.1397265  
   0.138993100    -0.0019978   -0.1387590  
   0.140993000    -0.0025520   -0.1379051  
   0.142992900    -0.0033053   -0.1370899  
   0.144992800    -0.0041930   -0.1364267  
   0.146992700    -0.0053248   -0.1356434  
   0.148992600    -0.0065797   -0.1347999  
   0.150992500    -0.0079522   -0.1337586  
   0.152992400    -0.0095473   -0.1327220  
   0.154992300    -0.0112097   -0.1315668  
   0.156992200    -0.0130069   -0.1302312  
   0.158992100    -0.0148534   -0.1287083  
   0.160992000    -0.0167716   -0.1269737  
   0.162991900    -0.0186779   -0.1250100  
   0.164991800    -0.0205611   -0.1228189  
   0.166991700    -0.0223436   -0.1203834  
   0.168991600    -0.0240309   -0.1177036  
   0.170991500    -0.0256244   -0.1147903  
   0.172991400    -0.0269474   -0.1116646  
   0.174991300    -0.0280400   -0.1083625  
   0.176991200    -0.0288559   -0.1048974  
   0.178991100    -0.0293647   -0.1012717  
   0.180991000    -0.0295640   -0.0976052  
   0.182990900    -0.0293846   -0.0937985  
   0.184990800    -0.0287956   -0.0900034  
   0.186990700    -0.0278061   -0.0862512  
   0.188990600    -0.0246488   -0.0831368  
   0.190990500    -0.0244407   -0.0790908  
   0.192990400    -0.0224802   -0.0757100  
   0.194990300    -0.0199223   -0.0726825  
   0.196990200    -0.0170271   -0.0699949  
   0.198990100    -0.0138256   -0.0676692  
   0.200990000    -0.0103490   -0.0657490  
   0.202989900    -0.0066912   -0.0642887  
   0.204989800    -0.0028735   -0.0633147  
   0.206989700     0.0010091   -0.0628936  
   0.208989600     0.0049888   -0.0629850  
   0.210989500     0.0088977   -0.0636281  
   0.212989400     0.0127140   -0.0648087  
   0.214989300     0.0163146   -0.0664913  
   0.216989200     0.0196802   -0.0686841  
   0.218989100     0.0227161   -0.0713287  
   0.220989000     0.0253555   -0.0744249  
   0.222988900     0.0275476   -0.0778942  
   0.224988800     0.0292350   -0.0817029  
   0.226988700     0.0303591   -0.0857595  
   0.228988600     0.0310050   -0.0899696  
   0.230988500     0.0310692   -0.0943015  
   0.232988400     0.0304865   -0.0985880  
   0.234988300     0.0293353   -0.1028840  
   0.236988200     0.0275701   -0.1070613  
   0.238988100     0.0252882   -0.1110397  
   0.240988000     0.0224828   -0.1147061  
   0.242987900     0.0192793   -0.1180970  
   0.244987800     0.0156216   -0.1210266  
   0.246987700     0.0115380   -0.1235272  
   0.248987600     0.0071581   -0.1255679  
   0.250987500     0.0025240   -0.1270757  
   0.252987400    -0.0021907   -0.1280447  
   0.254987300    -0.0069749   -0.1285385  
   0.256987200    -0.0116947   -0.1284814  
   0.258987100    -0.0163618   -0.1277862  
   0.260987000    -0.0208440   -0.1264683  
   0.262986900    -0.0251439   -0.1247026  
   0.264986800    -0.0291396   -0.1224810  
   0.266986700    -0.0327866   -0.1198685  
   0.268986600    -0.0360159   -0.1168929  
   0.270986500    -0.0386928   -0.1137623  
   0.272986400    -0.0409300   -0.1105186  
   0.274986300    -0.0426697   -0.1071504  
   0.276986200    -0.0439786   -0.1037693  
   0.278986100    -0.0447257   -0.1003893  
   0.280986000    -0.0450250   -0.0970965  
   0.282985900    -0.0448868   -0.0940166  
   0.284985800    -0.0443677   -0.0912547  
   0.286985700    -0.0434354   -0.0887662  
   0.288985600    -0.0422231   -0.0868529  
   0.290985500    -0.0407514   -0.0854479  
   0.292985400    -0.0391892   -0.0845777  
   0.294985300    -0.0376207   -0.0842744  
   0.296985200    -0.0361711   -0.0844740  
   0.298985100    -0.0350091   -0.0851106  
   0.300985000    -0.0341763   -0.0862682  
   0.302984900    -0.0337559   -0.0879023  
   0.304984800    -0.0338882   -0.0899919  
   0.306984700    -0.0346414   -0.0924772  
   0.308984600    -0.0360795   -0.0952468  
   0.310984500    -0.0383024   -0.0980828  
   0.312984400    -0.0414939   -0.1007550  
   0.314984300    -0.0456363   -0.1031230  
   0.316984200    -0.0508116   -0.1049017  
   0.318984100    -0.0571739   -0.1056688  
   0.320984000    -0.0643213   -0.1050325  
   0.322983900    -0.0719307   -0.1026552  
   0.324983800    -0.0794550   -0.0982656  
   0.326983700    -0.0862158   -0.0918611  
   0.328983600    -0.0913824   -0.0837894  
   0.330983500    -0.0942723   -0.0747359  
   0.332983400    -0.0946422   -0.0657806  
   0.334983300    -0.0929462   -0.0577421  
   0.336983200    -0.0898597   -0.0513140  
   0.338983100    -0.0863093   -0.0465201  
   0.340983000    -0.0828860   -0.0431803  
   0.342982900    -0.0800677   -0.0407516  
   0.344982800    -0.0779010   -0.0388136  
   0.346982700    -0.0764624   -0.0367734  
   0.348982600    -0.0752205   -0.0345561  
   0.350982500    -0.0744816   -0.0320846  
   0.352982400    -0.0738060   -0.0293469  
   0.354982300    -0.0731950   -0.0259142  
   0.356982200    -0.0725213   -0.0210055  
   0.358982100    -0.0712347   -0.0160740  
   0.360982000    -0.0692947   -0.0112808  
   0.362981900    -0.0667798   -0.0066999  
   0.364981800    -0.0635938   -0.0023889  
   0.366981700    -0.0598139    0.0014441  
   0.368981600    -0.0554677    0.0047757  
   0.370981500    -0.0507419    0.0074280  
   0.372981400    -0.0458310    0.0093330  
   0.374981300    -0.0407192    0.0104443  
   0.376981200    -0.0397202    0.0001971  
   0.378981100    -0.0348260    0.0014082  
   0.380981000    -0.0299496    0.0017257  
   0.382980900    -0.0252956    0.0008979  
   0.384980800    -0.0209587   -0.0006770  
   0.386980700    -0.0169342   -0.0028655  
   0.388980600    -0.0133553   -0.0055765  
   0.390980500    -0.0102548   -0.0088127  
   0.392980400    -0.0076783   -0.0125060  
   0.394980300    -0.0056685   -0.0165113  
   0.396980200    -0.0043468   -0.0206919  
   0.398980100    -0.0036939   -0.0249884  
   0.400980000    -0.0037212   -0.0292565  
   0.402979900    -0.0044495   -0.0334308  
   0.404979800    -0.0057733   -0.0373766  
   0.406979700    -0.0077186   -0.0409988  
   0.408979600    -0.0101995   -0.0442117  
   0.410979500    -0.0132294   -0.0469168  
   0.412979400    -0.0167582   -0.0490966  
   0.414979300    -0.0206003   -0.0505051  
   0.416979200    -0.0246946   -0.0512371  
   0.418979100    -0.0288638   -0.0512686  
   0.420979000    -0.0330463   -0.0505648  
   0.422978900    -0.0370979   -0.0491390  
   0.424978800    -0.0410608   -0.0470371  
   0.426978700    -0.0446327   -0.0442383  
   0.428978600    -0.0477704   -0.0408102  
   0.430978500    -0.0503017   -0.0368719  
   0.432978400    -0.0521328   -0.0323773  
   0.434978300    -0.0532066   -0.0275903  
   0.436978200    -0.0536040   -0.0226213  
   0.438978100    -0.0532080   -0.0175509  
   0.440978000    -0.0520447   -0.0124512  
   0.442977900    -0.0500429   -0.0074863  
   0.444977800    -0.0472461   -0.0027633  
   0.446977700    -0.0436834    0.0015977  
   0.448977600    -0.0394342    0.0054837  
   0.450977500    -0.0345308    0.0087604  
   0.452977400    -0.0290910    0.0113931  
   0.454977300    -0.0232410    0.0132406  
   0.456977200    -0.0170748    0.0142547  
   0.458977100    -0.0107097    0.0143523  
   0.460977000    -0.0042535    0.0134655  
   0.462976900     0.0021304    0.0116227  
   0.464976800     0.0082617    0.0088198  
   0.466976700     0.0140081    0.0050624  
   0.468976600     0.0192434    0.0004556  
   0.470976500     0.0237957   -0.0049599  
   0.472976400     0.0276083   -0.0110791  
   0.474976300     0.0305448   -0.0177831  
   0.476976200     0.0325329   -0.0249136  
   0.478976100     0.0335735   -0.0324512  
   0.480976000     0.0336372   -0.0401213  
   0.482975900     0.0326200   -0.0476209  
   0.484975800     0.0305434   -0.0550159  
   0.486975700     0.0274008   -0.0621082  
   0.488975600     0.0231810   -0.0689030  
   0.490975500     0.0180288   -0.0750463  
   0.492975400     0.0121050   -0.0803872  
   0.494975300     0.0053451   -0.0848683  
   0.496975200    -0.0020845   -0.0884144  
   0.498975100    -0.0099088   -0.0908345  
   0.500975000    -0.0181074   -0.0921584  
   0.502974900    -0.0264069   -0.0923346  
   0.504974800    -0.0347802   -0.0912983  
   0.506974700    -0.0430266   -0.0890426  
   0.508974600    -0.0511622   -0.0856140  
   0.510974500    -0.0588980   -0.0810309  
   0.512974400    -0.0657013   -0.0755096  
   0.514974300    -0.0714894   -0.0688574  
   0.516974200    -0.0762775   -0.0615774  
   0.518974100    -0.0798746   -0.0537195  
   0.520974000    -0.0822002   -0.0452396  
   0.522973900    -0.0832388   -0.0365677  
   0.524973800    -0.0830531   -0.0280602  
   0.526973700    -0.0816025   -0.0197417  
   0.528973600    -0.0789516   -0.0118198  
   0.530973500    -0.0751996   -0.0044278  
   0.532973400    -0.0704187    0.0022313  
   0.534973300    -0.0647528    0.0080342  
   0.536973200    -0.0583678    0.0129293  
   0.538973100    -0.0513517    0.0167754  
   0.540973000    -0.0438860    0.0195524  
   0.542972900    -0.0362187    0.0212170  
   0.544972800    -0.0284017    0.0217127  
   0.546972700    -0.0207103    0.0210148  
   0.548972600    -0.0132157    0.0191724  
   0.550972500    -0.0060890    0.0162236  
   0.552972400     0.0004368    0.0121696  
   0.554972300     0.0063313    0.0071498  
   0.556972200     0.0113531    0.0012056  
   0.558972100     0.0155175   -0.0054780  
   0.560972000     0.0187067   -0.0127079  
   0.562971900     0.0206477   -0.0203967  
   0.564971800     0.0215009   -0.0284249  
   0.566971700     0.0210358   -0.0363659  
   0.568971600     0.0193478   -0.0442082  
   0.570971500     0.0164674   -0.0517740  
   0.572971400     0.0123731   -0.0589387  
   0.574971300     0.0070334   -0.0655436  
   0.576971200     0.0005644   -0.0714400  
   0.578971100    -0.0066916   -0.0765324  
   0.580971000    -0.0147056   -0.0804655  
   0.582970900    -0.0232641   -0.0832056  
   0.584970800    -0.0322294   -0.0846179  
   0.586970700    -0.0413848   -0.0846992  
   0.588970600    -0.0507747   -0.0833580  
   0.590970500    -0.0598573   -0.0806650  
   0.592970400    -0.0686131   -0.0766788  
   0.594970300    -0.0768620   -0.0715504  
   0.596970200    -0.0843764   -0.0652497  
   0.598970100    -0.0909879   -0.0578783  
   0.600970000    -0.0966325   -0.0495939  
   0.602969900    -0.1011333   -0.0404771  
   0.604969800    -0.1044208   -0.0307299  
   0.606969700    -0.1063634   -0.0205161  
   0.608969600    -0.1068822   -0.0100393  
   0.610969500    -0.1059965    0.0005211  
   0.612969400    -0.1036165    0.0109399  
   0.614969300    -0.0997862    0.0209343  
   0.616969200    -0.0946892    0.0303559  
   0.618969100    -0.0883911    0.0390289  
   0.620969000    -0.0810183    0.0468071  
   0.622968900    -0.0726038    0.0535290  
   0.624968800    -0.0633627    0.0590639  
   0.626968700    -0.0534179    0.0632383  
   0.628968600    -0.0430336    0.0662064  
   0.630968500    -0.0322435    0.0678551  
   0.632968400    -0.0215051    0.0677050  
   0.634968300    -0.0108206    0.0662073  
   0.636968200    -0.0005389    0.0631379  
   0.638968100     0.0093345    0.0585868  
   0.640968000     0.0184639    0.0527531  
   0.642967900     0.0265292    0.0458273  
   0.644967800     0.0334797    0.0379218  
   0.646967700     0.0392042    0.0291934  
   0.648967600     0.0435837    0.0198591  
   0.650967500     0.0465332    0.0101296  
   0.652967400     0.0480358    0.0002256  
   0.654967300     0.0481905   -0.0099103  
   0.656967200     0.0469089   -0.0196504  
   0.658967100     0.0441024   -0.0291297  
   0.660967000     0.0399547   -0.0380990  
   0.662966900     0.0346817   -0.0462633  
   0.664966800     0.0282862   -0.0535841  
   0.666966700     0.0209585   -0.0599113  
   0.668966600     0.0128621   -0.0649766  
   0.670966500     0.0038899   -0.0688398  
   0.672966400    -0.0051380   -0.0713641  
   0.674966300    -0.0143517   -0.0723472  
   0.676966200    -0.0234773   -0.0719027  
   0.678966100    -0.0323814   -0.0700474  
   0.680966000    -0.0407934   -0.0669277  
   0.682965900    -0.0485810   -0.0625607  
   0.684965800    -0.0555793   -0.0570984  
   0.686965700    -0.0616512   -0.0506756  
   0.688965600    -0.0666267   -0.0434579  
   0.690965500    -0.0704545   -0.0357144  
   0.692965400    -0.0729886   -0.0275200  
   0.694965300    -0.0742368   -0.0190647  
   0.696965200    -0.0741784   -0.0105917  
   0.698965100    -0.0727963   -0.0022902  
   0.700965000    -0.0700922    0.0056518  
   0.702964900    -0.0662561    0.0130932  
   0.704964800    -0.0613452    0.0199249  
   0.706964700    -0.0554366    0.0257091  
   0.708964600    -0.0484134    0.0306124  
   0.710964500    -0.0409674    0.0344184  
   0.712964400    -0.0330664    0.0368339  
   0.714964300    -0.0248240    0.0379201  
   0.716964200    -0.0166500    0.0377903  
   0.718964100    -0.0085963    0.0363583  
   0.720964000    -0.0010546    0.0337953  
   0.722963900     0.0060435    0.0299958  
   0.724963800     0.0126205    0.0250779  
   0.726963700     0.0182670    0.0194101  
   0.728963600     0.0228862    0.0129437  
   0.730963500     0.0263034    0.0056536  
   0.732963400     0.0286581   -0.0019241  
   0.734963300     0.0299153   -0.0098525  
   0.736963200     0.0305757   -0.0190844  
   0.738963100     0.0296185   -0.0281394  
   0.740963000     0.0271144   -0.0368290  
   0.742962900     0.0230996   -0.0450309  
   0.744962800     0.0176791   -0.0522292  
   0.746962700     0.0112484   -0.0582323  
   0.748962600     0.0039838   -0.0630697  
   0.750962500     0.0015212   -0.0609111  
   0.752962400    -0.0059345   -0.0653800  
   0.754962300    -0.0140728   -0.0684366  
   0.756962200    -0.0227177   -0.0699497  
   0.758962100    -0.0315661   -0.0698934  
   0.760962000    -0.0403765   -0.0682432  
   0.762961900    -0.0486897   -0.0653331  
   0.764961800    -0.0562423   -0.0616720  
   0.766961700    -0.0632285   -0.0569615  
   0.768961600    -0.0694827   -0.0513055  
   0.770961500    -0.0749285   -0.0447937  
   0.772961400    -0.0794416   -0.0375676  
   0.774961300    -0.0829843   -0.0297509  
   0.776961200    -0.0854586   -0.0213723  
   0.778961100    -0.0865425   -0.0128227  
   0.780961000    -0.0864229   -0.0043180  
   0.782960900    -0.0849754    0.0040862  
   0.784960800    -0.0822131    0.0122355  
   0.786960700    -0.0782180    0.0198959  
   0.788960600    -0.0731069    0.0268856  
   0.790960500    -0.0669483    0.0332390  
   0.792960400    -0.0600429    0.0384341  
   0.794960300    -0.0523337    0.0425137  
   0.796960200    -0.0443324    0.0453890  
   0.798960100    -0.0359630    0.0470004  
   0.800960000    -0.0273897    0.0472492  
   0.802959900    -0.0190070    0.0462296  
   0.804959800    -0.0109909    0.0439582  
   0.806959700    -0.0036296    0.0404958  
   0.808959600     0.0032007    0.0358697  
   0.810959500     0.0091898    0.0302165  
   0.812959400     0.0143221    0.0236753  
   0.814959300     0.0182559    0.0163830  
   0.816959200     0.0210167    0.0085498  
   0.818959100     0.0226578    0.0001505  
   0.820959000     0.0228295   -0.0082419  
   0.822958900     0.0216990   -0.0166251  
   0.824958800     0.0192351   -0.0248641  
   0.826958700     0.0154681   -0.0326633  
   0.828958600     0.0105257   -0.0397065  
   0.830958500     0.0044552   -0.0459510  
   0.832958400    -0.0025743   -0.0512014  
   0.834958300    -0.0104498   -0.0553434  
   0.836958200    -0.0189315   -0.0582740  
   0.838958100    -0.0278657   -0.0599025  
   0.840958000    -0.0370134   -0.0601484  
   0.842957900    -0.0461782   -0.0590176  
   0.844957800    -0.0552094   -0.0563955  
   0.846957700    -0.0638313   -0.0524365  
   0.848957600    -0.0717541   -0.0472169  
   0.850957500    -0.0789329   -0.0408723  
   0.852957400    -0.0852503   -0.0333500  
   0.854957300    -0.0903004   -0.0248595  
   0.856957200    -0.0940940   -0.0158031  
   0.858957100    -0.0965917   -0.0062721  
   0.860957000    -0.0977225    0.0035316  
   0.862956900    -0.0974091    0.0134157  
   0.864956800    -0.0959208    0.0230467  
   0.866956700    -0.0931747    0.0322933  
   0.868956600    -0.0890803    0.0409690  
   0.870956500    -0.0838371    0.0490406  
   0.872956400    -0.0774554    0.0564145  
   0.874956300    -0.0701208    0.0627591  
   0.876956200    -0.0618684    0.0679856  
   0.878956100    -0.0529173    0.0719755  
   0.880956000    -0.0433747    0.0746942  
   0.882955900    -0.0336476    0.0760141  
   0.884955800    -0.0238946    0.0759202  
   0.886955700    -0.0141143    0.0744300  
   0.888955600    -0.0048059    0.0715901  
   0.890955500     0.0038392    0.0674797  
   0.892955400     0.0116720    0.0621781  
   0.894955300     0.0185644    0.0558589  
