! MS46122B
! 2250307/22442219
! 7/23/2025 1:13:51 PM
! C:\USERS\SPARKY\DOCUMENTS\VNA_DATA\JULY23_2025\295K\ECAL_OPEN_C_REPEAT1.S1P
! CHANNEL.1
! TR.MEASUREMENT
! RAW.DATA
# GHZ S RI R 50.0
! FREQ.GHZ         S11RE         S11IM         
!; PortSelection: Port_1
   0.001000000     1.0456180   -0.0720008  
   0.002999900     0.9482037   -0.2216026  
   0.004999800     0.8086407   -0.0891390  
   0.006999700     0.5252379   -0.4058366  
   0.008999600     0.9399117    0.0030026  
   0.010999500     0.9266527   -0.2252266  
   0.012999400     0.8873939   -0.3342057  
   0.014999300     0.8474712   -0.4162201  
   0.016999200     0.8075294   -0.4870105  
   0.018999100     0.7648805   -0.5525577  
   0.020999000     0.7183474   -0.6135858  
   0.022998900     0.6667092   -0.6694276  
   0.024998800     0.6009039   -0.6853766  
   0.026998700     0.5474620   -0.7674696  
   0.028998600     0.4782814   -0.8088124  
   0.030998500     0.4024552   -0.8437547  
   0.032998400     0.3224232   -0.8372694  
   0.034998300     0.2296073   -0.8909205  
   0.036998200     0.1332532   -0.9002252  
   0.038998100     0.0310535   -0.8981084  
   0.040998000    -0.0760331   -0.8819135  
   0.042997900    -0.1865364   -0.8505917  
   0.044997800    -0.2760513   -0.7799137  
   0.046997700    -0.4090903   -0.7313364  
   0.048997600    -0.5141851   -0.6400591  
   0.050997500    -0.6093258   -0.5245909  
   0.052997400    -0.6867388   -0.3854102  
   0.054997300    -0.7406735   -0.2199663  
   0.056997200    -0.7588803   -0.0355380  
   0.058997100    -0.7328780    0.1599755  
   0.060997000    -0.6562369    0.3532046  
   0.062996900    -0.5275366    0.5275287  
   0.064996800    -0.3529648    0.6646987  
   0.066996700    -0.1467668    0.7510402  
   0.068996600     0.0720615    0.7782810  
   0.070996500     0.2849401    0.7486538  
   0.072996400     0.4750794    0.6693699  
   0.074996300     0.6313211    0.5531344  
   0.076996200     0.7497234    0.4132667  
   0.078996100     0.8302177    0.2621400  
   0.080996000     0.8755205    0.1080497  
   0.082995900     0.8906003   -0.0413931  
   0.084995800     0.8790371   -0.1811798  
   0.086995700     0.8476678   -0.3094940  
   0.088995600     0.7992287   -0.4252037  
   0.090995500     0.7379053   -0.5270529  
   0.092995400     0.6672771   -0.6165460  
   0.094995300     0.5871361   -0.6919380  
   0.096995200     0.5016134   -0.7542618  
   0.098995100     0.4104014   -0.8045102  
   0.100995000     0.3165216   -0.8426933  
   0.102994900     0.2201661   -0.8687658  
   0.104994800     0.1224918   -0.8833280  
   0.106994700     0.0240362   -0.8862708  
   0.108994600    -0.0739261   -0.8785889  
   0.110994500    -0.1710879   -0.8597697  
   0.112994400    -0.2658129   -0.8294559  
   0.114994300    -0.3579184   -0.7877983  
   0.116994200    -0.4453177   -0.7347793  
   0.118994100    -0.5277396   -0.6699548  
   0.120994000    -0.6042157   -0.5949215  
   0.122993900    -0.6712910   -0.5073844  
   0.124993800    -0.7280613   -0.4089411  
   0.126993700    -0.7729291   -0.2999897  
   0.128993600    -0.8012055   -0.1823102  
   0.130993500    -0.8140063   -0.0572092  
   0.132993400    -0.8080174    0.0730220  
   0.134993300    -0.7807693    0.2055981  
   0.136993200    -0.7304412    0.3363777  
   0.138993100    -0.6566231    0.4616718  
   0.140993000    -0.5592850    0.5755967  
   0.142992900    -0.4395310    0.6733766  
   0.144992800    -0.3009830    0.7503588  
   0.146992700    -0.1466057    0.7995526  
   0.148992600     0.0167441    0.8183682  
   0.150992500     0.1812652    0.8041001  
   0.152992400     0.3409500    0.7588373  
   0.154992300     0.4877247    0.6840270  
   0.156992200     0.6161804    0.5830465  
   0.158992100     0.7212854    0.4616805  
   0.160992000     0.7997015    0.3253143  
   0.162991900     0.8508713    0.1802886  
   0.164991800     0.8745892    0.0327334  
   0.166991700     0.8725036   -0.1120489  
   0.168991600     0.8467731   -0.2499727  
   0.170991500     0.8002622   -0.3780350  
   0.172991400     0.7357602   -0.4933248  
   0.174991300     0.6575716   -0.5937229  
   0.176991200     0.5671301   -0.6796248  
   0.178991100     0.4679248   -0.7491455  
   0.180991000     0.3630828   -0.8035948  
   0.182990900     0.2536004   -0.8409084  
   0.184990800     0.1420147   -0.8628393  
   0.186990700     0.0299242   -0.8697106  
   0.188990600    -0.0564152   -0.8627253  
   0.190990500    -0.1846981   -0.8392838  
   0.192990400    -0.2915173   -0.8023828  
   0.194990300    -0.3890153   -0.7530426  
   0.196990200    -0.4792259   -0.6918261  
   0.198990100    -0.5607380   -0.6188036  
   0.200990000    -0.6329873   -0.5347947  
   0.202989900    -0.6940194   -0.4406147  
   0.204989800    -0.7425298   -0.3380806  
   0.206989700    -0.7779945   -0.2283292  
   0.208989600    -0.7971258   -0.1131569  
   0.210989500    -0.7997621    0.0067784  
   0.212989400    -0.7846522    0.1285161  
   0.214989300    -0.7506271    0.2492944  
   0.216989200    -0.6978413    0.3658623  
   0.218989100    -0.6262233    0.4749507  
   0.220989000    -0.5354857    0.5737255  
   0.222988900    -0.4275639    0.6583458  
   0.224988800    -0.3043642    0.7256709  
   0.226988700    -0.1694950    0.7718306  
   0.228988600    -0.0271580    0.7937587  
   0.230988500     0.1185235    0.7908379  
   0.232988400     0.2624314    0.7607377  
   0.234988300     0.4002580    0.7067689  
   0.236988200     0.5263030    0.6286932  
   0.238988100     0.6361256    0.5302414  
   0.240988000     0.7260421    0.4147863  
   0.242987900     0.7935784    0.2874971  
   0.244987800     0.8373891    0.1521646  
   0.246987700     0.8574472    0.0136940  
   0.248987600     0.8544303   -0.1241110  
   0.250987500     0.8296047   -0.2572015  
   0.252987400     0.7842489   -0.3811595  
   0.254987300     0.7225737   -0.4935355  
   0.256987200     0.6460963   -0.5930241  
   0.258987100     0.5587787   -0.6790984  
   0.260987000     0.4607290   -0.7490624  
   0.262986900     0.3556166   -0.8037401  
   0.264986800     0.2458556   -0.8426123  
   0.266986700     0.1334466   -0.8651893  
   0.268986600     0.0211138   -0.8725373  
   0.270986500    -0.0890207   -0.8648737  
   0.272986400    -0.1961646   -0.8431180  
   0.274986300    -0.2988446   -0.8080053  
   0.276986200    -0.3955769   -0.7600328  
   0.278986100    -0.4858312   -0.6996415  
   0.280986000    -0.5674828   -0.6278118  
   0.282985900    -0.6392985   -0.5454614  
   0.284985800    -0.7005245   -0.4539063  
   0.286985700    -0.7489230   -0.3541785  
   0.288985600    -0.7836511   -0.2484440  
   0.290985500    -0.8038459   -0.1379165  
   0.292985400    -0.8086661   -0.0237699  
   0.294985300    -0.7970483    0.0920137  
   0.296985200    -0.7681344    0.2079443  
   0.298985100    -0.7203347    0.3214553  
   0.300985000    -0.6539758    0.4286231  
   0.302984900    -0.5693861    0.5260280  
   0.304984800    -0.4673008    0.6092178  
   0.306984700    -0.3501418    0.6748455  
   0.308984600    -0.2211277    0.7189788  
   0.310984500    -0.0847533    0.7387721  
   0.312984400     0.0541429    0.7314193  
   0.314984300     0.1890235    0.6968043  
   0.316984200     0.3126965    0.6357557  
   0.318984100     0.4193844    0.5518086  
   0.320984000     0.5023711    0.4512671  
   0.322983900     0.5595167    0.3420009  
   0.324983800     0.5911245    0.2337605  
   0.326983700     0.6024725    0.1335039  
   0.328983600     0.6009675    0.0443086  
   0.330983500     0.5940636   -0.0341173  
   0.332983400     0.5862345   -0.1065488  
   0.334983300     0.5784591   -0.1786496  
   0.336983200     0.5675717   -0.2552761  
   0.338983100     0.5487503   -0.3377802  
   0.340983000     0.5167183   -0.4246089  
   0.342982900     0.4683517   -0.5110484  
   0.344982800     0.4019799   -0.5927833  
   0.346982700     0.3186648   -0.6646203  
   0.348982600     0.2209354   -0.7205620  
   0.350982500     0.1130347   -0.7604659  
   0.352982400    -0.0008657   -0.7811860  
   0.354982300    -0.1225752   -0.7814073  
   0.356982200    -0.2563400   -0.7561311  
   0.358982100    -0.3823399   -0.7070188  
   0.360982000    -0.4962210   -0.6363552  
   0.362981900    -0.5954026   -0.5473732  
   0.364981800    -0.6773956   -0.4423967  
   0.366981700    -0.7400966   -0.3253233  
   0.368981600    -0.7814413   -0.1999994  
   0.370981500    -0.8012518   -0.0696020  
   0.372981400    -0.7987663    0.0622114  
   0.374981300    -0.7741927    0.1919155  
   0.376981200    -0.8018705    0.0631263  
   0.378981100    -0.7766802    0.1965546  
   0.380981000    -0.7288039    0.3250011  
   0.382980900    -0.6673096    0.4333026  
   0.384980800    -0.5928093    0.5273138  
   0.386980700    -0.5045533    0.6102281  
   0.388980600    -0.4032836    0.6796979  
   0.390980500    -0.2925732    0.7331499  
   0.392980400    -0.1735764    0.7694650  
   0.394980300    -0.0495691    0.7870640  
   0.396980200     0.0768995    0.7849604  
   0.398980100     0.2025350    0.7630293  
   0.400980000     0.3243932    0.7211642  
   0.402979900     0.4391667    0.6593905  
   0.404979800     0.5428545    0.5800866  
   0.406979700     0.6326793    0.4842845  
   0.408979600     0.7056885    0.3750110  
   0.410979500     0.7604359    0.2544200  
   0.412979400     0.7945588    0.1261713  
   0.414979300     0.8058297   -0.0058215  
   0.416979200     0.7962406   -0.1372704  
   0.418979100     0.7654885   -0.2642603  
   0.420979000     0.7146900   -0.3839597  
   0.422978900     0.6457981   -0.4929066  
   0.424978800     0.5608469   -0.5884361  
   0.426978700     0.4626992   -0.6685687  
   0.428978600     0.3545478   -0.7311559  
   0.430978500     0.2398904   -0.7754571  
   0.432978400     0.1215683   -0.8010116  
   0.434978300     0.0023607   -0.8099889  
   0.436978200    -0.1155159   -0.7994508  
   0.438978100    -0.2288640   -0.7719732  
   0.440978000    -0.3364215   -0.7286176  
   0.442977900    -0.4351673   -0.6705759  
   0.444977800    -0.5239326   -0.5990761  
   0.446977700    -0.6012094   -0.5166226  
   0.448977600    -0.6650433   -0.4244839  
   0.450977500    -0.7153428   -0.3241065  
   0.452977400    -0.7512213   -0.2174674  
   0.454977300    -0.7711729   -0.1057939  
   0.456977200    -0.7750877    0.0078550  
   0.458977100    -0.7623283    0.1219122  
   0.460977000    -0.7331055    0.2328542  
   0.462976900    -0.6872242    0.3386557  
   0.464976800    -0.6261135    0.4377291  
   0.466976700    -0.5502205    0.5270478  
   0.468976600    -0.4610511    0.6046364  
   0.470976500    -0.3597880    0.6683402  
   0.472976400    -0.2490937    0.7159424  
   0.474976300    -0.1310780    0.7460660  
   0.476976200    -0.0088156    0.7574418  
   0.478976100     0.1143984    0.7490097  
   0.480976000     0.2349396    0.7207903  
   0.482975900     0.3497588    0.6734732  
   0.484975800     0.4560668    0.6079311  
   0.486975700     0.5505092    0.5256324  
   0.488975600     0.6299768    0.4288667  
   0.490975500     0.6925588    0.3203986  
   0.492975400     0.7362496    0.2036849  
   0.494975300     0.7599422    0.0819244  
   0.496975200     0.7633929   -0.0411271  
   0.498975100     0.7469315   -0.1608823  
   0.500975000     0.7121577   -0.2754191  
   0.502974900     0.6606677   -0.3804699  
   0.504974800     0.5944540   -0.4748690  
   0.506974700     0.5159457   -0.5567797  
   0.508974600     0.4271530   -0.6251047  
   0.510974500     0.3313303   -0.6787330  
   0.512974400     0.2311521   -0.7175927  
   0.514974300     0.1283859   -0.7404823  
   0.516974200     0.0258060   -0.7504970  
   0.518974100    -0.0757431   -0.7470940  
   0.520974000    -0.1752032   -0.7309221  
   0.522973900    -0.2714362   -0.7028300  
   0.524973800    -0.3634000   -0.6621965  
   0.526973700    -0.4505735   -0.6098089  
   0.528973600    -0.5309900   -0.5457454  
   0.530973500    -0.6033642   -0.4696695  
   0.532973400    -0.6651625   -0.3833232  
   0.534973300    -0.7146685   -0.2873151  
   0.536973200    -0.7497603   -0.1830442  
   0.538973100    -0.7688370   -0.0739114  
   0.540973000    -0.7713206    0.0378957  
   0.542972900    -0.7564335    0.1493877  
   0.544972800    -0.7243353    0.2582667  
   0.546972700    -0.6755863    0.3619343  
   0.548972600    -0.6111050    0.4575298  
   0.550972500    -0.5322620    0.5424076  
   0.552972400    -0.4409525    0.6144262  
   0.554972300    -0.3388291    0.6720010  
   0.556972200    -0.2286146    0.7134181  
   0.558972100    -0.1129622    0.7374088  
   0.560972000     0.0053706    0.7431058  
   0.562971900     0.1235584    0.7304849  
   0.564971800     0.2385739    0.6998095  
   0.566971700     0.3475919    0.6513711  
   0.568971600     0.4479568    0.5863329  
   0.570971500     0.5376441    0.5060896  
   0.572971400     0.6134900    0.4121677  
   0.574971300     0.6739640    0.3068085  
   0.576971200     0.7171507    0.1924127  
   0.578971100     0.7413532    0.0719584  
   0.580971000     0.7458373   -0.0503899  
   0.582970900     0.7308266   -0.1718354  
   0.584970800     0.6966143   -0.2887078  
   0.586970700     0.6443651   -0.3977411  
   0.588970600     0.5760801   -0.4968042  
   0.590970500     0.4932578   -0.5833921  
   0.592970400     0.3988392   -0.6554040  
   0.594970300     0.2952100   -0.7111111  
   0.596970200     0.1846443   -0.7497510  
   0.598970100     0.0703102   -0.7713521  
   0.600970000    -0.0451304   -0.7752327  
   0.602969900    -0.1588210   -0.7618800  
   0.604969800    -0.2687427   -0.7316524  
   0.606969700    -0.3725088   -0.6857684  
   0.608969600    -0.4674603   -0.6254572  
   0.610969500    -0.5522003   -0.5521460  
   0.612969400    -0.6250324   -0.4680912  
   0.614969300    -0.6841612   -0.3747610  
   0.616969200    -0.7291971   -0.2749616  
   0.618969100    -0.7594430   -0.1703290  
   0.620969000    -0.7747473   -0.0635028  
   0.622968900    -0.7747014    0.0450400  
   0.624968800    -0.7596480    0.1524279  
   0.626968700    -0.7296222    0.2570258  
   0.628968600    -0.6847727    0.3569883  
   0.630968500    -0.6261225    0.4498491  
   0.632968400    -0.5541657    0.5341634  
   0.634968300    -0.4706322    0.6077880  
   0.636968200    -0.3761519    0.6690581  
   0.638968100    -0.2732371    0.7164379  
   0.640968000    -0.1634821    0.7480925  
   0.642967900    -0.0491687    0.7635612  
   0.644967800     0.0671716    0.7618807  
   0.646967700     0.1827563    0.7423901  
   0.648967600     0.2946809    0.7054353  
   0.650967500     0.4001909    0.6514664  
   0.652967400     0.4964865    0.5817177  
   0.654967300     0.5817416    0.4972253  
   0.656967200     0.6528008    0.4003101  
   0.658967100     0.7080600    0.2928458  
   0.660967000     0.7459747    0.1772429  
   0.662966900     0.7652787    0.0565492  
   0.664966800     0.7651811   -0.0665022  
   0.666966700     0.7453552   -0.1881883  
   0.668966600     0.7062477   -0.3046811  
   0.670966500     0.6493682   -0.4135516  
   0.672966400     0.5772353   -0.5120552  
   0.674966300     0.4903869   -0.5962089  
   0.676966200     0.3921404   -0.6648034  
   0.678966100     0.2857330   -0.7164915  
   0.680966000     0.1736331   -0.7510358  
   0.682965900     0.0588798   -0.7676326  
   0.684965800    -0.0554832   -0.7669077  
   0.686965700    -0.1677745   -0.7487908  
   0.688965600    -0.2748078   -0.7146683  
   0.690965500    -0.3742580   -0.6648037  
   0.692965400    -0.4645962   -0.6025945  
   0.694965300    -0.5445550   -0.5284727  
   0.696965200    -0.6122256   -0.4445367  
   0.698965100    -0.6670187   -0.3520666  
   0.700965000    -0.7079343   -0.2528886  
   0.702964900    -0.7343171   -0.1493598  
   0.704964800    -0.7454538   -0.0432815  
   0.706964700    -0.7416443    0.0637253  
   0.708964600    -0.7220136    0.1690524  
   0.710964500    -0.6878212    0.2713580  
   0.712964400    -0.6385415    0.3675866  
   0.714964300    -0.5750667    0.4560611  
   0.716964200    -0.4990678    0.5342499  
   0.718964100    -0.4121214    0.6006518  
   0.720964000    -0.3163260    0.6533440  
   0.722963900    -0.2129554    0.6913930  
   0.724963800    -0.1045419    0.7130930  
   0.726963700     0.0066070    0.7178197  
   0.728963600     0.1175937    0.7055784  
   0.730963500     0.2256757    0.6752018  
   0.732963400     0.3275904    0.6288137  
   0.734963300     0.4218765    0.5666632  
   0.736963200     0.5170686    0.4782816  
   0.738963100     0.5955081    0.3736828  
   0.740963000     0.6533096    0.2570564  
   0.742962900     0.6889712    0.1327926  
   0.744962800     0.7017596    0.0050170  
   0.746962700     0.6918886   -0.1216867  
   0.748962600     0.6600026   -0.2439346  
   0.750962500     0.6775201   -0.1340185  
   0.752962400     0.6450811   -0.2543231  
   0.754962300     0.5927165   -0.3662812  
   0.756962200     0.5223989   -0.4666023  
   0.758962100     0.4366778   -0.5533732  
   0.760962000     0.3376950   -0.6239610  
   0.762961900     0.2339672   -0.6744815  
   0.764961800     0.1338862   -0.7059136  
   0.766961700     0.0302938   -0.7226369  
   0.768961600    -0.0749762   -0.7240189  
   0.770961500    -0.1794257   -0.7102463  
   0.772961400    -0.2806362   -0.6813850  
   0.774961300    -0.3768945   -0.6378807  
   0.776961200    -0.4662243   -0.5807086  
   0.778961100    -0.5462123   -0.5105135  
   0.780961000    -0.6152642   -0.4289492  
   0.782960900    -0.6715124   -0.3374770  
   0.784960800    -0.7137153   -0.2381929  
   0.786960700    -0.7404713   -0.1331238  
   0.788960600    -0.7512705   -0.0251219  
   0.790960500    -0.7458096    0.0834249  
   0.792960400    -0.7240112    0.1899102  
   0.794960300    -0.6864735    0.2918623  
   0.796960200    -0.6343967    0.3872568  
   0.798960100    -0.5686825    0.4736987  
   0.800960000    -0.4907998    0.5488436  
   0.802959900    -0.4023297    0.6123634  
   0.804959800    -0.3056959    0.6618460  
   0.806959700    -0.2023422    0.6965359  
   0.808959600    -0.0950034    0.7156664  
   0.810959500     0.0141422    0.7182510  
   0.812959400     0.1233897    0.7044931  
   0.814959300     0.2297282    0.6742738  
   0.816959200     0.3307123    0.6283358  
   0.818959100     0.4239414    0.5671460  
   0.820959000     0.5073767    0.4919906  
   0.822958900     0.5783896    0.4043736  
   0.824958800     0.6355900    0.3063435  
   0.826958700     0.6769152    0.1999645  
   0.828958600     0.7011173    0.0883366  
   0.830958500     0.7076090   -0.0264360  
   0.832958400     0.6957047   -0.1407865  
   0.834958300     0.6658633   -0.2516662  
   0.836958200     0.6190249   -0.3564504  
   0.838958100     0.5561191   -0.4527009  
   0.840958000     0.4789092   -0.5378439  
   0.842957900     0.3893678   -0.6092208  
   0.844957800     0.2897409   -0.6658029  
   0.846957700     0.1831600   -0.7057885  
   0.848957600     0.0718833   -0.7282894  
   0.850957500    -0.0409795   -0.7334092  
   0.852957400    -0.1524124   -0.7208120  
   0.854957300    -0.2598886   -0.6916713  
   0.856957200    -0.3611144   -0.6464651  
   0.858957100    -0.4534940   -0.5872540  
   0.860957000    -0.5352735   -0.5154119  
   0.862956900    -0.6047592   -0.4335371  
   0.864956800    -0.6608862   -0.3431183  
   0.866956700    -0.7029102   -0.2464088  
   0.868956600    -0.7300535   -0.1457553  
   0.870956500    -0.7428886   -0.0424844  
   0.872956400    -0.7409467    0.0610208  
   0.874956300    -0.7243925    0.1631508  
   0.876956200    -0.6933471    0.2622707  
   0.878956100    -0.6489111    0.3557866  
   0.880956000    -0.5913478    0.4426816  
   0.882955900    -0.5218817    0.5206196  
   0.884955800    -0.4415277    0.5881328  
   0.886955700    -0.3521904    0.6437494  
   0.888955600    -0.2552015    0.6865488  
   0.890955500    -0.1527032    0.7149100  
   0.892955400    -0.0464400    0.7280610  
   0.894955300     0.0616054    0.7254983  
