! MS46122B
! 2250307/22442219
! 7/28/2025 8:04:51 AM
! C:\USERS\SPARKY\DOCUMENTS\VNA_DATA\JULY28_2025\295K\ECAL_OPEN_F_REPEAT1.S1P
! CHANNEL.1
! TR.MEASUREMENT
! RAW.DATA
# GHZ S RI R 50.0
! FREQ.GHZ         S11RE         S11IM         
!; PortSelection: Port_1
   0.001000000     1.0465860   -0.0727869  
   0.002999900     0.9487940   -0.2221107  
   0.004999800     0.8077013   -0.0879686  
   0.006999700     0.5306002   -0.4060646  
   0.008999600     0.9402642    0.0027468  
   0.010999500     0.9271908   -0.2258683  
   0.012999400     0.8879108   -0.3347903  
   0.014999300     0.8481063   -0.4168134  
   0.016999200     0.8081635   -0.4874797  
   0.018999100     0.7656224   -0.5530633  
   0.020999000     0.7191822   -0.6140375  
   0.022998900     0.6675405   -0.6698949  
   0.024998800     0.6017099   -0.6859806  
   0.026998700     0.5485367   -0.7680497  
   0.028998600     0.4794413   -0.8094985  
   0.030998500     0.4036770   -0.8445560  
   0.032998400     0.3236036   -0.8380705  
   0.034998300     0.2310745   -0.8922114  
   0.036998200     0.1346334   -0.9016525  
   0.038998100     0.0323770   -0.8997449  
   0.040998000    -0.0747881   -0.8838385  
   0.042997900    -0.1855081   -0.8528390  
   0.044997800    -0.2752205   -0.7820850  
   0.046997700    -0.4087093   -0.7340407  
   0.048997600    -0.5142226   -0.6429547  
   0.050997500    -0.6098791   -0.5274480  
   0.052997400    -0.6882588   -0.3874783  
   0.054997300    -0.7422572   -0.2227724  
   0.056997200    -0.7610381   -0.0375950  
   0.058997100    -0.7353304    0.1585295  
   0.060997000    -0.6587964    0.3525056  
   0.062996900    -0.5298871    0.5275425  
   0.064996800    -0.3548964    0.6653669  
   0.066996700    -0.1481512    0.7521353  
   0.068996600     0.0713252    0.7793758  
   0.070996500     0.2847993    0.7497044  
   0.072996400     0.4752403    0.6700493  
   0.074996300     0.6316736    0.5535842  
   0.076996200     0.7501976    0.4134294  
   0.078996100     0.8307667    0.2621554  
   0.080996000     0.8760620    0.1079813  
   0.082995900     0.8910814   -0.0416383  
   0.084995800     0.8794987   -0.1815093  
   0.086995700     0.8481082   -0.3098183  
   0.088995600     0.7997330   -0.4255954  
   0.090995500     0.7384860   -0.5275646  
   0.092995400     0.6678020   -0.6171490  
   0.094995300     0.5880622   -0.6925850  
   0.096995200     0.5023059   -0.7550470  
   0.098995100     0.4113927   -0.8054819  
   0.100995000     0.3173131   -0.8437551  
   0.102994900     0.2209134   -0.8700374  
   0.104994800     0.1231264   -0.8848135  
   0.106994700     0.0245079   -0.8879478  
   0.108994600    -0.0735782   -0.8804563  
   0.110994500    -0.1706765   -0.8617528  
   0.112994400    -0.2658229   -0.8315662  
   0.114994300    -0.3582146   -0.7900806  
   0.116994200    -0.4462811   -0.7372006  
   0.118994100    -0.5285155   -0.6723329  
   0.120994000    -0.6054673   -0.5971370  
   0.122993900    -0.6729531   -0.5096112  
   0.124993800    -0.7300627   -0.4109861  
   0.126993700    -0.7751731   -0.3020066  
   0.128993600    -0.8037972   -0.1839910  
   0.130993500    -0.8168324   -0.0582774  
   0.132993400    -0.8109817    0.0723770  
   0.134993300    -0.7837722    0.2054564  
   0.136993200    -0.7334149    0.3366812  
   0.138993100    -0.6593529    0.4624784  
   0.140993000    -0.5617196    0.5768453  
   0.142992900    -0.4415638    0.6749619  
   0.144992800    -0.3025412    0.7521579  
   0.146992700    -0.1479083    0.8012966  
   0.148992600     0.0161281    0.8202185  
   0.150992500     0.1810593    0.8058385  
   0.152992400     0.3410686    0.7603636  
   0.154992300     0.4879476    0.6853488  
   0.156992200     0.6167153    0.5839943  
   0.158992100     0.7218745    0.4623600  
   0.160992000     0.8003883    0.3256984  
   0.162991900     0.8513939    0.1806106  
   0.164991800     0.8752291    0.0328834  
   0.166991700     0.8731124   -0.1121821  
   0.168991600     0.8474077   -0.2499449  
   0.170991500     0.8008523   -0.3781952  
   0.172991400     0.7363800   -0.4936004  
   0.174991300     0.6581966   -0.5941694  
   0.176991200     0.5679500   -0.6799862  
   0.178991100     0.4686068   -0.7498742  
   0.180991000     0.3639378   -0.8044075  
   0.182990900     0.2542492   -0.8420292  
   0.184990800     0.1424975   -0.8642028  
   0.186990700     0.0301719   -0.8712257  
   0.188990600    -0.0560918   -0.8644651  
   0.190990500    -0.1846590   -0.8412038  
   0.192990400    -0.2917711   -0.8044182  
   0.194990300    -0.3895051   -0.7552149  
   0.196990200    -0.4799025   -0.6941558  
   0.198990100    -0.5620295   -0.6211268  
   0.200990000    -0.6344625   -0.5371504  
   0.202989900    -0.6958614   -0.4427366  
   0.204989800    -0.7447261   -0.3400041  
   0.206989700    -0.7805823   -0.2302157  
   0.208989600    -0.8000287   -0.1147430  
   0.210989500    -0.8027779    0.0057615  
   0.212989400    -0.7877773    0.1279053  
   0.214989300    -0.7538492    0.2490684  
   0.216989200    -0.7011175    0.3659544  
   0.218989100    -0.6292230    0.4757730  
   0.220989000    -0.5384093    0.5747257  
   0.222988900    -0.4300483    0.6599321  
   0.224988800    -0.3067599    0.7273364  
   0.226988700    -0.1714845    0.7737120  
   0.228988600    -0.0286958    0.7958254  
   0.230988500     0.1174463    0.7929305  
   0.232988400     0.2618962    0.7629548  
   0.234988300     0.3997661    0.7086880  
   0.236988200     0.5263062    0.6304098  
   0.238988100     0.6361601    0.5318146  
   0.240988000     0.7263495    0.4161296  
   0.242987900     0.7938839    0.2888236  
   0.244987800     0.8378943    0.1531308  
   0.246987700     0.8580322    0.0144950  
   0.248987600     0.8550907   -0.1234731  
   0.250987500     0.8302479   -0.2566347  
   0.252987400     0.7850231   -0.3809202  
   0.254987300     0.7234684   -0.4934222  
   0.256987200     0.6469966   -0.5931057  
   0.258987100     0.5596027   -0.6794882  
   0.260987000     0.4615150   -0.7496474  
   0.262986900     0.3563523   -0.8044879  
   0.264986800     0.2467206   -0.8435879  
   0.266986700     0.1339980   -0.8663859  
   0.268986600     0.0215591   -0.8740601  
   0.270986500    -0.0888126   -0.8665543  
   0.272986400    -0.1961509   -0.8449266  
   0.274986300    -0.2991250   -0.8100287  
   0.276986200    -0.3962073   -0.7620347  
   0.278986100    -0.4867432   -0.7018001  
   0.280986000    -0.5687810   -0.6299589  
   0.282985900    -0.6409734   -0.5475399  
   0.284985800    -0.7024383   -0.4558521  
   0.286985700    -0.7512550   -0.3559055  
   0.288985600    -0.7862477   -0.2498809  
   0.290985500    -0.8068826   -0.1392176  
   0.292985400    -0.8117218   -0.0245666  
   0.294985300    -0.8003380    0.0915435  
   0.296985200    -0.7713630    0.2080709  
   0.298985100    -0.7235123    0.3217866  
   0.300985000    -0.6571181    0.4295291  
   0.302984900    -0.5723311    0.5273222  
   0.304984800    -0.4701301    0.6108492  
   0.306984700    -0.3525277    0.6769387  
   0.308984600    -0.2231861    0.7213593  
   0.310984500    -0.0862656    0.7414296  
   0.312984400     0.0530777    0.7342675  
   0.314984300     0.1885638    0.6997650  
   0.316984200     0.3129312    0.6386811  
   0.318984100     0.4203934    0.5544957  
   0.320984000     0.5040970    0.4533477  
   0.322983900     0.5618583    0.3431612  
   0.324983800     0.5934295    0.2338270  
   0.326983700     0.6045500    0.1322550  
   0.328983600     0.6021055    0.0420608  
   0.330983500     0.5939119   -0.0367433  
   0.332983400     0.5848340   -0.1087904  
   0.334983300     0.5761753   -0.1800362  
   0.336983200     0.5650378   -0.2556175  
   0.338983100     0.5462566   -0.3370745  
   0.340983000     0.5150803   -0.4232267  
   0.342982900     0.4675365   -0.5093523  
   0.344982800     0.4020211   -0.5911844  
   0.346982700     0.3192206   -0.6634505  
   0.348982600     0.2219896   -0.7198551  
   0.350982500     0.1144536   -0.7603083  
   0.352982400     0.0004480   -0.7816582  
   0.354982300    -0.1216922   -0.7826319  
   0.356982200    -0.2555423   -0.7577217  
   0.358982100    -0.3819113   -0.7089658  
   0.360982000    -0.4964074   -0.6385904  
   0.362981900    -0.5963078   -0.5495317  
   0.364981800    -0.6789135   -0.4445811  
   0.366981700    -0.7421075   -0.3272609  
   0.368981600    -0.7838222   -0.2018022  
   0.370981500    -0.8040724   -0.0707016  
   0.372981400    -0.8019111    0.0611879  
   0.374981300    -0.7775046    0.1917526  
   0.376981200    -0.8051541    0.0623956  
   0.378981100    -0.7800906    0.1964787  
   0.380981000    -0.7322590    0.3255455  
   0.382980900    -0.6704686    0.4344241  
   0.384980800    -0.5959595    0.5285516  
   0.386980700    -0.5073166    0.6119584  
   0.388980600    -0.4056394    0.6817526  
   0.390980500    -0.2943810    0.7355229  
   0.392980400    -0.1751679    0.7717942  
   0.394980300    -0.0506236    0.7895220  
   0.396980200     0.0761338    0.7874566  
   0.398980100     0.2020850    0.7653046  
   0.400980000     0.3243043    0.7232534  
   0.402979900     0.4392578    0.6613084  
   0.404979800     0.5431864    0.5816922  
   0.406979700     0.6331007    0.4858092  
   0.408979600     0.7061808    0.3763226  
   0.410979500     0.7609701    0.2556480  
   0.412979400     0.7951822    0.1272847  
   0.414979300     0.8064652   -0.0047197  
   0.416979200     0.7969732   -0.1363951  
   0.418979100     0.7662486   -0.2634566  
   0.420979000     0.7156011   -0.3832962  
   0.422978900     0.6468354   -0.4924093  
   0.424978800     0.5620132   -0.5881743  
   0.426978700     0.4639438   -0.6685333  
   0.428978600     0.3558132   -0.7314315  
   0.430978500     0.2410492   -0.7760940  
   0.432978400     0.1227648   -0.8019205  
   0.434978300     0.0033571   -0.8112398  
   0.436978200    -0.1144820   -0.8010777  
   0.438978100    -0.2282808   -0.7738581  
   0.440978000    -0.3360057   -0.7308003  
   0.442977900    -0.4353752   -0.6728657  
   0.444977800    -0.5244033   -0.6016070  
   0.446977700    -0.6022022   -0.5189810  
   0.448977600    -0.6666128   -0.4266974  
   0.450977500    -0.7173824   -0.3260534  
   0.452977400    -0.7536604   -0.2189877  
   0.454977300    -0.7738678   -0.1071997  
   0.456977200    -0.7780349    0.0069657  
   0.458977100    -0.7654364    0.1212403  
   0.460977000    -0.7361414    0.2327929  
   0.462976900    -0.6904565    0.3391955  
   0.464976800    -0.6290463    0.4386300  
   0.466976700    -0.5531232    0.5283188  
   0.468976600    -0.4635103    0.6064199  
   0.470976500    -0.3618581    0.6704513  
   0.472976400    -0.2507384    0.7182723  
   0.474976300    -0.1323165    0.7485420  
   0.476976200    -0.0096659    0.7598641  
   0.478976100     0.1140400    0.7514219  
   0.480976000     0.2351145    0.7230219  
   0.482975900     0.3501065    0.6755376  
   0.484975800     0.4566323    0.6098838  
   0.486975700     0.5513478    0.5272885  
   0.488975600     0.6310996    0.4301403  
   0.490975500     0.6937159    0.3215640  
   0.492975400     0.7374994    0.2045827  
   0.494975300     0.7612743    0.0825910  
   0.496975200     0.7649351   -0.0406868  
   0.498975100     0.7483370   -0.1607094  
   0.500975000     0.7135453   -0.2755118  
   0.502974900     0.6620121   -0.3809691  
   0.504974800     0.5957776   -0.4754607  
   0.506974700     0.5171225   -0.5576881  
   0.508974600     0.4281554   -0.6261687  
   0.510974500     0.3321418   -0.6800780  
   0.512974400     0.2317613   -0.7191150  
   0.514974300     0.1287263   -0.7418507  
   0.516974200     0.0256369   -0.7521739  
   0.518974100    -0.0758852   -0.7487255  
   0.520974000    -0.1755559   -0.7325390  
   0.522973900    -0.2719397   -0.7044094  
   0.524973800    -0.3639752   -0.6637415  
   0.526973700    -0.4513075   -0.6114648  
   0.528973600    -0.5318999   -0.5474525  
   0.530973500    -0.6044915   -0.4714937  
   0.532973400    -0.6665783   -0.3851422  
   0.534973300    -0.7164029   -0.2889521  
   0.536973200    -0.7519152   -0.1846172  
   0.538973100    -0.7713339   -0.0753599  
   0.540973000    -0.7741125    0.0366691  
   0.542972900    -0.7594857    0.1486493  
   0.544972800    -0.7275131    0.2580909  
   0.546972700    -0.6788387    0.3621124  
   0.548972600    -0.6143166    0.4581679  
   0.550972500    -0.5353282    0.5434569  
   0.552972400    -0.4437430    0.6159845  
   0.554972300    -0.3412932    0.6738939  
   0.556972200    -0.2307193    0.7155826  
   0.558972100    -0.1146726    0.7397286  
   0.560972000     0.0039781    0.7455385  
   0.562971900     0.1226727    0.7328859  
   0.564971800     0.2380754    0.7021623  
   0.566971700     0.3474076    0.6536198  
   0.568971600     0.4480650    0.5883966  
   0.570971500     0.5379640    0.5079831  
   0.572971400     0.6139464    0.4138882  
   0.574971300     0.6745872    0.3083967  
   0.576971200     0.7178579    0.1939267  
   0.578971100     0.7421595    0.0732045  
   0.580971000     0.7467270   -0.0493841  
   0.582970900     0.7317530   -0.1711026  
   0.584970800     0.6976293   -0.2879329  
   0.586970700     0.6454492   -0.3972873  
   0.588970600     0.5772870   -0.4962970  
   0.590970500     0.4944783   -0.5832936  
   0.592970400     0.4000556   -0.6555161  
   0.594970300     0.2962657   -0.7117948  
   0.596970200     0.1859270   -0.7505749  
   0.598970100     0.0714626   -0.7723019  
   0.600970000    -0.0441297   -0.7764467  
   0.602969900    -0.1579514   -0.7634185  
   0.604969800    -0.2681355   -0.7334171  
   0.606969700    -0.3720069   -0.6879649  
   0.608969600    -0.4674625   -0.6276214  
   0.610969500    -0.5525907   -0.5544581  
   0.612969400    -0.6258859   -0.4704978  
   0.614969300    -0.6854474   -0.3771302  
   0.616969200    -0.7309452   -0.2771702  
   0.618969100    -0.7615753   -0.1723726  
   0.620969000    -0.7772823   -0.0653442  
   0.622968900    -0.7776169    0.0434645  
   0.624968800    -0.7628323    0.1512875  
   0.626968700    -0.7330278    0.2562861  
   0.628968600    -0.6884477    0.3566799  
   0.630968500    -0.6297716    0.4501208  
   0.632968400    -0.5577182    0.5348739  
   0.634968300    -0.4739960    0.6091017  
   0.636968200    -0.3793073    0.6708604  
   0.638968100    -0.2761737    0.7185310  
   0.640968000    -0.1661302    0.7506369  
   0.642967900    -0.0514407    0.7663220  
   0.644967800     0.0654615    0.7647579  
   0.646967700     0.1813367    0.7454970  
   0.648967600     0.2938183    0.7084596  
   0.650967500     0.3999530    0.6543458  
   0.652967400     0.4968264    0.5842623  
   0.654967300     0.5824056    0.4995485  
   0.656967200     0.6537064    0.4024014  
   0.658967100     0.7089376    0.2948716  
   0.660967000     0.7470566    0.1787845  
   0.662966900     0.7664173    0.0577952  
   0.664966800     0.7665416   -0.0656181  
   0.666966700     0.7465801   -0.1875636  
   0.668966600     0.7073449   -0.3043191  
   0.670966500     0.6504332   -0.4133852  
   0.672966400     0.5782444   -0.5120952  
   0.674966300     0.4912676   -0.5964472  
   0.676966200     0.3930059   -0.6652219  
   0.678966100     0.2864281   -0.7170866  
   0.680966000     0.1742485   -0.7517907  
   0.682965900     0.0593825   -0.7685520  
   0.684965800    -0.0551365   -0.7679376  
   0.686965700    -0.1675579   -0.7500619  
   0.688965600    -0.2748322   -0.7162225  
   0.690965500    -0.3745814   -0.6663083  
   0.692965400    -0.4651399   -0.6042385  
   0.694965300    -0.5453842   -0.5302110  
   0.696965200    -0.6133330   -0.4463413  
   0.698965100    -0.6686381   -0.3537449  
   0.700965000    -0.7098225   -0.2546670  
   0.702964900    -0.7365320   -0.1508330  
   0.704964800    -0.7480199   -0.0445341  
   0.706964700    -0.7444640    0.0626405  
   0.708964600    -0.7251515    0.1683677  
   0.710964500    -0.6911914    0.2710500  
   0.712964400    -0.6420126    0.3677584  
   0.714964300    -0.5786307    0.4567159  
   0.716964200    -0.5025764    0.5353846  
   0.718964100    -0.4156011    0.6021846  
   0.720964000    -0.3195041    0.6554376  
   0.722963900    -0.2159084    0.6938324  
   0.724963800    -0.1070286    0.7159128  
   0.726963700     0.0044633    0.7207658  
   0.728963600     0.1161214    0.7087720  
   0.730963500     0.2247031    0.6784551  
   0.732963400     0.3270487    0.6320111  
   0.734963300     0.4217886    0.5697135  
   0.736963200     0.5174831    0.4811082  
   0.738963100     0.5963008    0.3760177  
   0.740963000     0.6543165    0.2590504  
   0.742962900     0.6901011    0.1343916  
   0.744962800     0.7029446    0.0061684  
   0.746962700     0.6930269   -0.1208806  
   0.748962600     0.6609967   -0.2433368  
   0.750962500     0.6782076   -0.1334530  
   0.752962400     0.6456043   -0.2539314  
   0.754962300     0.5931077   -0.3660137  
   0.756962200     0.5225659   -0.4664100  
   0.758962100     0.4369018   -0.5532267  
   0.760962000     0.3378818   -0.6238045  
   0.762961900     0.2341555   -0.6743102  
   0.764961800     0.1340685   -0.7058470  
   0.766961700     0.0304793   -0.7225919  
   0.768961600    -0.0747026   -0.7242259  
   0.770961500    -0.1792624   -0.7105502  
   0.772961400    -0.2805454   -0.6819283  
   0.774961300    -0.3770401   -0.6387194  
   0.776961200    -0.4665092   -0.5816357  
   0.778961100    -0.5467107   -0.5116462  
   0.780961000    -0.6160977   -0.4302191  
   0.782960900    -0.6727402   -0.3387756  
   0.784960800    -0.7153479   -0.2393163  
   0.786960700    -0.7424513   -0.1343165  
   0.788960600    -0.7536499   -0.0261315  
   0.790960500    -0.7485615    0.0827831  
   0.792960400    -0.7269559    0.1895446  
   0.794960300    -0.6896864    0.2920085  
   0.796960200    -0.6376324    0.3879461  
   0.798960100    -0.5719509    0.4747672  
   0.800960000    -0.4939350    0.5504541  
   0.802959900    -0.4054631    0.6143729  
   0.804959800    -0.3084731    0.6643355  
   0.806959700    -0.2046835    0.6993011  
   0.808959600    -0.0969726    0.7186117  
   0.810959500     0.0126568    0.7213694  
   0.812959400     0.1223161    0.7077354  
   0.814959300     0.2290958    0.6774446  
   0.816959200     0.3304960    0.6314434  
   0.818959100     0.4240960    0.5700709  
   0.820959000     0.5078399    0.4947443  
   0.822958900     0.5791047    0.4068560  
   0.824958800     0.6364810    0.3086030  
   0.826958700     0.6779864    0.2019063  
   0.828958600     0.7022756    0.0900153  
   0.830958500     0.7088003   -0.0250051  
   0.832958400     0.6969276   -0.1395675  
   0.834958300     0.6670560   -0.2507267  
   0.836958200     0.6202312   -0.3556189  
   0.838958100     0.5573334   -0.4520380  
   0.840958000     0.4800749   -0.5372247  
   0.842957900     0.3906276   -0.6088874  
   0.844957800     0.2910418   -0.6657124  
   0.846957700     0.1843487   -0.7059692  
   0.848957600     0.0730192   -0.7287244  
   0.850957500    -0.0398789   -0.7341233  
   0.852957400    -0.1515048   -0.7217928  
   0.854957300    -0.2592771   -0.6928636  
   0.856957200    -0.3606865   -0.6479199  
   0.858957100    -0.4534137   -0.5889594  
   0.860957000    -0.5355551   -0.5172325  
   0.862956900    -0.6055130   -0.4354412  
   0.864956800    -0.6620800   -0.3449955  
   0.866956700    -0.7045389   -0.2483227  
   0.868956600    -0.7320743   -0.1474115  
   0.870956500    -0.7453472   -0.0438967  
   0.872956400    -0.7437878    0.0599037  
   0.874956300    -0.7274867    0.1623659  
   0.876956200    -0.6966477    0.2619635  
   0.878956100    -0.6523375    0.3559698  
   0.880956000    -0.5948763    0.4432951  
   0.882955900    -0.5253968    0.5217745  
   0.884955800    -0.4450704    0.5897028  
   0.886955700    -0.3553413    0.6457305  
   0.888955600    -0.2579368    0.6889911  
   0.890955500    -0.1550532    0.7177457  
   0.892955400    -0.0483880    0.7310665  
   0.894955300     0.0600961    0.7286395  
