! MS46122B
! 2250307/22442219
! 7/22/2025 3:22:57 PM
! C:\USERS\SPARKY\DOCUMENTS\VNA_DATA\JULY22_2025\295\ECAL_LOAD_B_REPEAT1.S1P
! CHANNEL.1
! TR.MEASUREMENT
! RAW.DATA
# GHZ S RI R 50.0
! FREQ.GHZ         S11RE         S11IM         
!; PortSelection: Port_1
   0.001000000     1.0455690   -0.0720483  
   0.002999900     0.9526854   -0.1943159  
   0.004999800     0.8770804   -0.2784042  
   0.006999700     0.7920398   -0.3675939  
   0.008999600     0.7003667   -0.4058152  
   0.010999500     0.6238089   -0.4307715  
   0.012999400     0.5571805   -0.4452341  
   0.014999300     0.5007017   -0.4519865  
   0.016999200     0.4518343   -0.4528648  
   0.018999100     0.4109936   -0.4494472  
   0.020999000     0.3771832   -0.4436808  
   0.022998900     0.3483147   -0.4367163  
   0.024998800     0.3183261   -0.4077046  
   0.026998700     0.3019633   -0.4205268  
   0.028998600     0.2827819   -0.4120191  
   0.030998500     0.2653348   -0.4035783  
   0.032998400     0.2455063   -0.3776056  
   0.034998300     0.2334794   -0.3871323  
   0.036998200     0.2190648   -0.3790987  
   0.038998100     0.2054539   -0.3715626  
   0.040998000     0.1923526   -0.3642069  
   0.042997900     0.1797484   -0.3570835  
   0.044997800     0.1662965   -0.3357606  
   0.046997700     0.1549259   -0.3436511  
   0.048997600     0.1435313   -0.3369925  
   0.050997500     0.1327351   -0.3303905  
   0.052997400     0.1224330   -0.3238311  
   0.054997300     0.1127936   -0.3172427  
   0.056997200     0.1031411   -0.3112189  
   0.058997100     0.0943195   -0.3050443  
   0.060997000     0.0858549   -0.2990326  
   0.062996900     0.0780696   -0.2930745  
   0.064996800     0.0708321   -0.2872255  
   0.066996700     0.0641180   -0.2813851  
   0.068996600     0.0578147   -0.2755975  
   0.070996500     0.0520221   -0.2700685  
   0.072996400     0.0465619   -0.2643031  
   0.074996300     0.0415241   -0.2585378  
   0.076996200     0.0368585   -0.2527697  
   0.078996100     0.0325475   -0.2470646  
   0.080996000     0.0284162   -0.2413448  
   0.082995900     0.0245901   -0.2356831  
   0.084995800     0.0208946   -0.2297520  
   0.086995700     0.0177379   -0.2241454  
   0.088995600     0.0148740   -0.2186586  
   0.090995500     0.0122194   -0.2132335  
   0.092995400     0.0098935   -0.2081104  
   0.094995300     0.0078432   -0.2029038  
   0.096995200     0.0060099   -0.1977621  
   0.098995100     0.0043822   -0.1927564  
   0.100995000     0.0018365   -0.1888618  
   0.102994900     0.0006006   -0.1842629  
   0.104994800    -0.0002749   -0.1798832  
   0.106994700    -0.0009266   -0.1755597  
   0.108994600    -0.0013869   -0.1716155  
   0.110994500    -0.0016983   -0.1678936  
   0.112994400    -0.0018505   -0.1644255  
   0.114994300    -0.0018831   -0.1611923  
   0.116994200    -0.0017917   -0.1581775  
   0.118994100    -0.0016294   -0.1554382  
   0.120994000    -0.0012452   -0.1528417  
   0.122993900    -0.0011195   -0.1504542  
   0.124993800    -0.0008752   -0.1483949  
   0.126993700    -0.0007118   -0.1465349  
   0.128993600    -0.0005959   -0.1448709  
   0.130993500    -0.0005284   -0.1434578  
   0.132993400    -0.0005811   -0.1421985  
   0.134993300    -0.0007512   -0.1411107  
   0.136993200    -0.0010798   -0.1401075  
   0.138993100    -0.0015877   -0.1392032  
   0.140993000    -0.0022350   -0.1383721  
   0.142992900    -0.0030809   -0.1375662  
   0.144992800    -0.0040543   -0.1369140  
   0.146992700    -0.0052686   -0.1361137  
   0.148992600    -0.0066196   -0.1352715  
   0.150992500    -0.0080745   -0.1341921  
   0.152992400    -0.0097361   -0.1331028  
   0.154992300    -0.0114763   -0.1319036  
   0.156992200    -0.0133279   -0.1304880  
   0.158992100    -0.0152266   -0.1289089  
   0.160992000    -0.0171792   -0.1270804  
   0.162991900    -0.0191017   -0.1250357  
   0.164991800    -0.0210057   -0.1227517  
   0.166991700    -0.0227781   -0.1202407  
   0.168991600    -0.0244623   -0.1174629  
   0.170991500    -0.0260352   -0.1144631  
   0.172991400    -0.0272853   -0.1112611  
   0.174991300    -0.0283273   -0.1078929  
   0.176991200    -0.0290694   -0.1043432  
   0.178991100    -0.0295117   -0.1006786  
   0.180991000    -0.0296117   -0.0969543  
   0.182990900    -0.0293559   -0.0931163  
   0.184990800    -0.0286858   -0.0893238  
   0.186990700    -0.0276016   -0.0855633  
   0.188990600    -0.0243693   -0.0824639  
   0.190990500    -0.0240324   -0.0784705  
   0.192990400    -0.0219885   -0.0751163  
   0.194990300    -0.0193495   -0.0721378  
   0.196990200    -0.0163908   -0.0695154  
   0.198990100    -0.0131212   -0.0672719  
   0.200990000    -0.0096195   -0.0654354  
   0.202989900    -0.0059107   -0.0640491  
   0.204989800    -0.0020753   -0.0631893  
   0.206989700     0.0018045   -0.0628591  
   0.208989600     0.0057914   -0.0630523  
   0.210989500     0.0096894   -0.0637798  
   0.212989400     0.0134395   -0.0650476  
   0.214989300     0.0170062   -0.0668160  
   0.216989200     0.0203076   -0.0690791  
   0.218989100     0.0232584   -0.0717784  
   0.220989000     0.0258238   -0.0749395  
   0.222988900     0.0279174   -0.0784361  
   0.224988800     0.0295272   -0.0822487  
   0.226988700     0.0305838   -0.0863065  
   0.228988600     0.0311337   -0.0905054  
   0.230988500     0.0310850   -0.0948423  
   0.232988400     0.0304271   -0.0990679  
   0.234988300     0.0292016   -0.1033338  
   0.236988200     0.0273741   -0.1074462  
   0.238988100     0.0250463   -0.1113444  
   0.240988000     0.0222054   -0.1149566  
   0.242987900     0.0189406   -0.1182488  
   0.244987800     0.0152716   -0.1211095  
   0.246987700     0.0111880   -0.1235201  
   0.248987600     0.0068230   -0.1254792  
   0.250987500     0.0022216   -0.1269026  
   0.252987400    -0.0024729   -0.1277751  
   0.254987300    -0.0072063   -0.1281957  
   0.256987200    -0.0118900   -0.1280839  
   0.258987100    -0.0164823   -0.1273081  
   0.260987000    -0.0208946   -0.1259681  
   0.262986900    -0.0250914   -0.1241805  
   0.264986800    -0.0289913   -0.1219534  
   0.266986700    -0.0325666   -0.1193185  
   0.268986600    -0.0357002   -0.1163626  
   0.270986500    -0.0383033   -0.1132592  
   0.272986400    -0.0404443   -0.1100226  
   0.274986300    -0.0421394   -0.1067083  
   0.276986200    -0.0433347   -0.1034000  
   0.278986100    -0.0440568   -0.1000703  
   0.280986000    -0.0443099   -0.0968622  
   0.282985900    -0.0441551   -0.0938712  
   0.284985800    -0.0435756   -0.0911866  
   0.286985700    -0.0426399   -0.0887825  
   0.288985600    -0.0414316   -0.0869698  
   0.290985500    -0.0399781   -0.0856345  
   0.292985400    -0.0384510   -0.0848633  
   0.294985300    -0.0369137   -0.0846585  
   0.296985200    -0.0355472   -0.0849009  
   0.298985100    -0.0344331   -0.0856091  
   0.300985000    -0.0336718   -0.0868141  
   0.302984900    -0.0333612   -0.0884968  
   0.304984800    -0.0335607   -0.0906514  
   0.306984700    -0.0343971   -0.0930991  
   0.308984600    -0.0359408   -0.0958840  
   0.310984500    -0.0382363   -0.0986643  
   0.312984400    -0.0415065   -0.1013127  
   0.314984300    -0.0457467   -0.1036373  
   0.316984200    -0.0510262   -0.1053661  
   0.318984100    -0.0573735   -0.1060390  
   0.320984000    -0.0645604   -0.1053216  
   0.322983900    -0.0722090   -0.1028926  
   0.324983800    -0.0797412   -0.0984031  
   0.326983700    -0.0865069   -0.0919149  
   0.328983600    -0.0916281   -0.0837909  
   0.330983500    -0.0945430   -0.0746522  
   0.332983400    -0.0948531   -0.0656612  
   0.334983300    -0.0931535   -0.0575547  
   0.336983200    -0.0900136   -0.0510718  
   0.338983100    -0.0863886   -0.0462494  
   0.340983000    -0.0829770   -0.0428556  
   0.342982900    -0.0800635   -0.0404155  
   0.344982800    -0.0778660   -0.0383974  
   0.346982700    -0.0763300   -0.0363272  
   0.348982600    -0.0750361   -0.0341138  
   0.350982500    -0.0742419   -0.0316203  
   0.352982400    -0.0734244   -0.0289340  
   0.354982300    -0.0727826   -0.0255055  
   0.356982200    -0.0719550   -0.0206292  
   0.358982100    -0.0705995   -0.0157751  
   0.360982000    -0.0686124   -0.0110663  
   0.362981900    -0.0660530   -0.0065726  
   0.364981800    -0.0628530   -0.0023697  
   0.366981700    -0.0590369    0.0013412  
   0.368981600    -0.0546909    0.0045952  
   0.370981500    -0.0500402    0.0071415  
   0.372981400    -0.0451286    0.0089284  
   0.374981300    -0.0400934    0.0099716  
   0.376981200    -0.0390249   -0.0001695  
   0.378981100    -0.0341945    0.0009387  
   0.380981000    -0.0293746    0.0011944  
   0.382980900    -0.0248055    0.0003127  
   0.384980800    -0.0205526   -0.0013449  
   0.386980700    -0.0166283   -0.0035408  
   0.388980600    -0.0131436   -0.0062719  
   0.390980500    -0.0101372   -0.0095029  
   0.392980400    -0.0076508   -0.0131797  
   0.394980300    -0.0057446   -0.0171502  
   0.396980200    -0.0045064   -0.0212916  
   0.398980100    -0.0039386   -0.0255296  
   0.400980000    -0.0040234   -0.0297481  
   0.402979900    -0.0048268   -0.0338298  
   0.404979800    -0.0061905   -0.0377068  
   0.406979700    -0.0081579   -0.0412291  
   0.408979600    -0.0106549   -0.0443528  
   0.410979500    -0.0136943   -0.0469484  
   0.412979400    -0.0172068   -0.0490460  
   0.414979300    -0.0210450   -0.0503635  
   0.416979200    -0.0250854   -0.0509977  
   0.418979100    -0.0292380   -0.0509348  
   0.420979000    -0.0333364   -0.0501652  
   0.422978900    -0.0373331   -0.0486751  
   0.424978800    -0.0411672   -0.0464863  
   0.426978700    -0.0446781   -0.0436524  
   0.428978600    -0.0477274   -0.0401972  
   0.430978500    -0.0501690   -0.0362452  
   0.432978400    -0.0518792   -0.0317647  
   0.434978300    -0.0528764   -0.0270057  
   0.436978200    -0.0531642   -0.0220756  
   0.438978100    -0.0527053   -0.0170448  
   0.440978000    -0.0514458   -0.0120106  
   0.442977900    -0.0493827   -0.0071128  
   0.444977800    -0.0465331   -0.0024609  
   0.446977700    -0.0429384    0.0018146  
   0.448977600    -0.0386632    0.0056146  
   0.450977500    -0.0337356    0.0087986  
   0.452977400    -0.0282977    0.0113225  
   0.454977300    -0.0224463    0.0130791  
   0.456977200    -0.0163139    0.0139932  
   0.458977100    -0.0100021    0.0139839  
   0.460977000    -0.0035978    0.0130255  
   0.462976900     0.0027263    0.0111204  
   0.464976800     0.0087512    0.0082704  
   0.466976700     0.0144134    0.0044531  
   0.468976600     0.0195371   -0.0001820  
   0.470976500     0.0240102   -0.0056165  
   0.472976400     0.0277134   -0.0117593  
   0.474976300     0.0305578   -0.0184391  
   0.476976200     0.0324305   -0.0255391  
   0.478976100     0.0333909   -0.0330472  
   0.480976000     0.0333560   -0.0406284  
   0.482975900     0.0322923   -0.0480885  
   0.484975800     0.0301268   -0.0553839  
   0.486975700     0.0269377   -0.0624018  
   0.488975600     0.0226745   -0.0690977  
   0.490975500     0.0174827   -0.0751528  
   0.492975400     0.0115433   -0.0803745  
   0.494975300     0.0048089   -0.0847419  
   0.496975200    -0.0025995   -0.0881928  
   0.498975100    -0.0103683   -0.0905238  
   0.500975000    -0.0185298   -0.0917529  
   0.502974900    -0.0267192   -0.0918272  
   0.504974800    -0.0350603   -0.0907353  
   0.506974700    -0.0431915   -0.0883982  
   0.508974600    -0.0512482   -0.0849374  
   0.510974500    -0.0589363   -0.0804095  
   0.512974400    -0.0655906   -0.0747658  
   0.514974300    -0.0713052   -0.0681387  
   0.516974200    -0.0759707   -0.0608603  
   0.518974100    -0.0794690   -0.0530221  
   0.520974000    -0.0817201   -0.0445640  
   0.522973900    -0.0826623   -0.0359774  
   0.524973800    -0.0823836   -0.0275390  
   0.526973700    -0.0808913   -0.0192708  
   0.528973600    -0.0781766   -0.0114354  
   0.530973500    -0.0743761   -0.0041285  
   0.532973400    -0.0695638    0.0024420  
   0.534973300    -0.0638860    0.0081485  
   0.536973200    -0.0574955    0.0129408  
   0.538973100    -0.0504690    0.0166886  
   0.540973000    -0.0430471    0.0193555  
   0.542972900    -0.0354037    0.0209218  
   0.544972800    -0.0276483    0.0213389  
   0.546972700    -0.0200076    0.0205568  
   0.548972600    -0.0125958    0.0186514  
   0.550972500    -0.0055619    0.0156413  
   0.552972400     0.0008815    0.0115468  
   0.554972300     0.0066715    0.0064867  
   0.556972200     0.0115925    0.0005130  
   0.558972100     0.0156959   -0.0061557  
   0.560972000     0.0187393   -0.0133974  
   0.562971900     0.0206118   -0.0210321  
   0.564971800     0.0213666   -0.0290074  
   0.566971700     0.0208031   -0.0369128  
   0.568971600     0.0190460   -0.0446850  
   0.570971500     0.0160999   -0.0521780  
   0.572971400     0.0119579   -0.0592487  
   0.574971300     0.0065671   -0.0657595  
   0.576971200     0.0000737   -0.0715595  
   0.578971100    -0.0071870   -0.0765352  
   0.580971000    -0.0151687   -0.0804473  
   0.582970900    -0.0237454   -0.0830552  
   0.584970800    -0.0326703   -0.0843690  
   0.586970700    -0.0417803   -0.0843760  
   0.588970600    -0.0511204   -0.0829437  
   0.590970500    -0.0601274   -0.0801999  
   0.592970400    -0.0688048   -0.0761486  
   0.594970300    -0.0769547   -0.0709954  
   0.596970200    -0.0843922   -0.0646515  
   0.598970100    -0.0909295   -0.0572872  
   0.600970000    -0.0964854   -0.0489803  
   0.602969900    -0.1008889   -0.0398891  
   0.604969800    -0.1040778   -0.0301720  
   0.606969700    -0.1059579   -0.0200022  
   0.608969600    -0.1064254   -0.0095664  
   0.610969500    -0.1054739    0.0009347  
   0.612969400    -0.1030282    0.0112675  
   0.614969300    -0.0991492    0.0211881  
   0.616969200    -0.0940333    0.0305416  
   0.618969100    -0.0877201    0.0391242  
   0.620969000    -0.0803415    0.0468142  
   0.622968900    -0.0719578    0.0534640  
   0.624968800    -0.0627390    0.0589072  
   0.626968700    -0.0528239    0.0629957  
   0.628968600    -0.0424875    0.0658855  
   0.630968500    -0.0317390    0.0674613  
   0.632968400    -0.0210755    0.0672571  
   0.634968300    -0.0104767    0.0657478  
   0.636968200    -0.0002614    0.0626402  
   0.638968100     0.0095169    0.0580929  
   0.640968000     0.0185863    0.0522101  
   0.642967900     0.0265520    0.0453450  
   0.644967800     0.0334182    0.0374559  
   0.646967700     0.0390967    0.0287565  
   0.648967600     0.0433667    0.0195243  
   0.650967500     0.0463103    0.0098109  
   0.652967400     0.0477202   -0.0000053  
   0.654967300     0.0478735   -0.0100517  
   0.656967200     0.0465315   -0.0197442  
   0.658967100     0.0437031   -0.0291635  
   0.660967000     0.0395932   -0.0380166  
   0.662966900     0.0343232   -0.0461142  
   0.664966800     0.0279646   -0.0533439  
   0.666966700     0.0206741   -0.0595620  
   0.668966600     0.0126215   -0.0645904  
   0.670966500     0.0037059   -0.0684126  
   0.672966400    -0.0052395   -0.0708655  
   0.674966300    -0.0143589   -0.0718181  
   0.676966200    -0.0234209   -0.0713354  
   0.678966100    -0.0322276   -0.0694769  
   0.680966000    -0.0405579   -0.0663447  
   0.682965900    -0.0482506   -0.0620029  
   0.684965800    -0.0551672   -0.0565751  
   0.686965700    -0.0611429   -0.0501924  
   0.688965600    -0.0660464   -0.0430101  
   0.690965500    -0.0698106   -0.0353493  
   0.692965400    -0.0722807   -0.0272104  
   0.694965300    -0.0735028   -0.0188397  
   0.696965200    -0.0734040   -0.0104724  
   0.698965100    -0.0720018   -0.0022438  
   0.700965000    -0.0692656    0.0055748  
   0.702964900    -0.0654528    0.0129443  
   0.704964800    -0.0605599    0.0196852  
   0.706964700    -0.0546794    0.0253791  
   0.708964600    -0.0477030    0.0301920  
   0.710964500    -0.0402979    0.0339290  
   0.712964400    -0.0324561    0.0362583  
   0.714964300    -0.0242936    0.0373051  
   0.716964200    -0.0161958    0.0371016  
   0.718964100    -0.0082828    0.0356648  
   0.720964000    -0.0007366    0.0330430  
   0.722963900     0.0062311    0.0292225  
   0.724963800     0.0126479    0.0243365  
   0.726963700     0.0182848    0.0187198  
   0.728963600     0.0228052    0.0122685  
   0.730963500     0.0261429    0.0050224  
   0.732963400     0.0284668   -0.0025103  
   0.734963300     0.0296538   -0.0103632  
   0.736963200     0.0302503   -0.0195314  
   0.738963100     0.0292526   -0.0285021  
   0.740963000     0.0267186   -0.0371195  
   0.742962900     0.0226933   -0.0452135  
   0.744962800     0.0172561   -0.0523524  
   0.746962700     0.0108809   -0.0582822  
   0.748962600     0.0036533   -0.0630276  
   0.750962500     0.0012232   -0.0609082  
   0.752962400    -0.0062057   -0.0653023  
   0.754962300    -0.0143086   -0.0683007  
   0.756962200    -0.0228727   -0.0697694  
   0.758962100    -0.0316589   -0.0696728  
   0.760962000    -0.0403822   -0.0679971  
   0.762961900    -0.0486139   -0.0650848  
   0.764961800    -0.0560894   -0.0614268  
   0.766961700    -0.0630163   -0.0567387  
   0.768961600    -0.0692171   -0.0510967  
   0.770961500    -0.0745872   -0.0446159  
   0.772961400    -0.0790462   -0.0374543  
   0.774961300    -0.0825593   -0.0296924  
   0.776961200    -0.0849589   -0.0213767  
   0.778961100    -0.0860550   -0.0129000  
   0.780961000    -0.0858833   -0.0044702  
   0.782960900    -0.0844295    0.0038553  
   0.784960800    -0.0816568    0.0119318  
   0.786960700    -0.0776482    0.0195132  
   0.788960600    -0.0726104    0.0264199  
   0.790960500    -0.0664818    0.0327121  
   0.792960400    -0.0596281    0.0378131  
   0.794960300    -0.0519978    0.0418460  
   0.796960200    -0.0440016    0.0446774  
   0.798960100    -0.0357488    0.0462329  
   0.800960000    -0.0272556    0.0464699  
   0.802959900    -0.0189511    0.0454204  
   0.804959800    -0.0110322    0.0431586  
   0.806959700    -0.0037511    0.0397108  
   0.808959600     0.0030108    0.0351006  
   0.810959500     0.0089016    0.0294780  
   0.812959400     0.0139434    0.0229984  
   0.814959300     0.0177901    0.0157537  
   0.816959200     0.0205184    0.0079820  
   0.818959100     0.0221248   -0.0003307  
   0.820959000     0.0222720   -0.0086517  
   0.822958900     0.0210890   -0.0169199  
   0.824958800     0.0186067   -0.0250921  
   0.826958700     0.0148488   -0.0327916  
   0.828958600     0.0099348   -0.0397580  
   0.830958500     0.0038890   -0.0459054  
   0.832958400    -0.0030928   -0.0510754  
   0.834958300    -0.0109157   -0.0551489  
   0.836958200    -0.0193293   -0.0580261  
   0.838958100    -0.0281946   -0.0595798  
   0.840958000    -0.0372667   -0.0598105  
   0.842957900    -0.0463514   -0.0586468  
   0.844957800    -0.0552955   -0.0559913  
   0.846957700    -0.0638198   -0.0520274  
   0.848957600    -0.0716483   -0.0468302  
   0.850957500    -0.0787673   -0.0404860  
   0.852957400    -0.0849210   -0.0329569  
   0.854957300    -0.0899443   -0.0245565  
   0.856957200    -0.0936756   -0.0155783  
   0.858957100    -0.0961011   -0.0061024  
   0.860957000    -0.0971990    0.0036169  
   0.862956900    -0.0968590    0.0133971  
   0.864956800    -0.0953176    0.0229719  
   0.866956700    -0.0925517    0.0321349  
   0.868956600    -0.0884816    0.0407023  
   0.870956500    -0.0832631    0.0486949  
   0.872956400    -0.0768732    0.0559890  
   0.874956300    -0.0695810    0.0622687  
   0.876956200    -0.0613300    0.0674875  
   0.878956100    -0.0524646    0.0713923  
   0.880956000    -0.0430072    0.0740263  
   0.882955900    -0.0333841    0.0752967  
   0.884955800    -0.0236612    0.0751973  
   0.886955700    -0.0140010    0.0736737  
   0.888955600    -0.0047197    0.0708520  
   0.890955500     0.0038270    0.0667312  
   0.892955400     0.0115765    0.0614855  
   0.894955300     0.0183657    0.0551584  
