! MS46122B
! 2250307/22442219
! 7/28/2025 8:09:54 AM
! C:\USERS\SPARKY\DOCUMENTS\VNA_DATA\JULY28_2025\295K\PORT6_MOS1_REPEAT1.S1P
! CHANNEL.1
! TR.MEASUREMENT
! RAW.DATA
# GHZ S RI R 50.0
! FREQ.GHZ         S11RE         S11IM         
!; PortSelection: Port_1
   0.001000000     1.0466870   -0.0719537  
   0.002999900     0.9646677   -0.1943551  
   0.004999800     0.9039256   -0.2989936  
   0.006999700     0.8362279   -0.3961786  
   0.008999600     0.7562945   -0.4904537  
   0.010999500     0.6619836   -0.5792118  
   0.012999400     0.5477352   -0.6593174  
   0.014999300     0.4083106   -0.7240528  
   0.016999200     0.2391763   -0.7600647  
   0.018999100     0.0381704   -0.7485207  
   0.020999000    -0.1817359   -0.6577911  
   0.022998900    -0.3799123   -0.4573365  
   0.024998800    -0.4634442   -0.1509466  
   0.026998700    -0.4074846    0.1982802  
   0.028998600    -0.1689417    0.4579180  
   0.030998500     0.1380911    0.5586891  
   0.032998400     0.3900057    0.5115484  
   0.034998300     0.6198317    0.4044122  
   0.036998200     0.7520908    0.2559718  
   0.038998100     0.8267981    0.1029407  
   0.040998000     0.8589963   -0.0422298  
   0.042997900     0.8604326   -0.1746193  
   0.044997800     0.8151591   -0.2685777  
   0.046997700     0.8022621   -0.3979331  
   0.048997600     0.7533725   -0.4903164  
   0.050997500     0.6955897   -0.5701271  
   0.052997400     0.6315937   -0.6383032  
   0.054997300     0.5603014   -0.6982393  
   0.056997200     0.4853624   -0.7481655  
   0.058997100     0.4068495   -0.7888544  
   0.060997000     0.3248391   -0.8208451  
   0.062996900     0.2403427   -0.8442156  
   0.064996800     0.1531390   -0.8579952  
   0.066996700     0.0636681   -0.8629889  
   0.068996600    -0.0269409   -0.8576691  
   0.070996500    -0.1183855   -0.8428352  
   0.072996400    -0.2102861   -0.8155316  
   0.074996300    -0.3006597   -0.7764907  
   0.076996200    -0.3885738   -0.7246885  
   0.078996100    -0.4723030   -0.6597177  
   0.080996000    -0.5495840   -0.5804808  
   0.082995900    -0.6181369   -0.4870663  
   0.084995800    -0.6737728   -0.3796298  
   0.086995700    -0.7150026   -0.2594149  
   0.088995600    -0.7367951   -0.1277497  
   0.090995500    -0.7356812    0.0124181  
   0.092995400    -0.7087826    0.1567782  
   0.094995300    -0.6516530    0.2994289  
   0.096995200    -0.5642930    0.4328642  
   0.098995100    -0.4469071    0.5488821  
   0.100995000    -0.3026914    0.6409706  
   0.102994900    -0.1408276    0.6988697  
   0.104994800     0.0310374    0.7195185  
   0.106994700     0.2023632    0.7005302  
   0.108994600     0.3635420    0.6460437  
   0.110994500     0.5059506    0.5596038  
   0.112994400     0.6234229    0.4480766  
   0.114994300     0.7123021    0.3193370  
   0.116994200     0.7714724    0.1810068  
   0.118994100     0.8018740    0.0402849  
   0.120994000     0.8074617   -0.0979721  
   0.122993900     0.7878990   -0.2291659  
   0.124993800     0.7483789   -0.3501289  
   0.126993700     0.6923818   -0.4587508  
   0.128993600     0.6220040   -0.5531226  
   0.130993500     0.5418310   -0.6337019  
   0.132993400     0.4535140   -0.7000431  
   0.134993300     0.3593824   -0.7518691  
   0.136993200     0.2612904   -0.7896642  
   0.138993100     0.1607026   -0.8134692  
   0.140993000     0.0594512   -0.8236793  
   0.142992900    -0.0416173   -0.8206544  
   0.144992800    -0.1408198   -0.8063597  
   0.146992700    -0.2372370   -0.7778918  
   0.148992600    -0.3297392   -0.7372323  
   0.150992500    -0.4155418   -0.6837919  
   0.152992400    -0.4954748   -0.6197519  
   0.154992300    -0.5673254   -0.5452315  
   0.156992200    -0.6295913   -0.4601599  
   0.158992100    -0.6807069   -0.3654210  
   0.160992000    -0.7188817   -0.2625537  
   0.162991900    -0.7427779   -0.1522792  
   0.164991800    -0.7504060   -0.0368419  
   0.166991700    -0.7404021    0.0809126  
   0.168991600    -0.7116816    0.1993293  
   0.170991500    -0.6630422    0.3151752  
   0.172991400    -0.5947606    0.4238620  
   0.174991300    -0.5070004    0.5219796  
   0.176991200    -0.4009967    0.6058878  
   0.178991100    -0.2792677    0.6713601  
   0.180991000    -0.1457117    0.7152014  
   0.182990900    -0.0045236    0.7337441  
   0.184990800     0.1395214    0.7253845  
   0.186990700     0.2802939    0.6904559  
   0.188990600     0.3929505    0.6405303  
   0.190990500     0.5263649    0.5477427  
   0.192990400     0.6275006    0.4422380  
   0.194990300     0.7050207    0.3235574  
   0.196990200     0.7587253    0.1957123  
   0.198990100     0.7885223    0.0631129  
   0.200990000     0.7940131   -0.0702287  
   0.202989900     0.7773154   -0.1997699  
   0.204989800     0.7400627   -0.3217762  
   0.206989700     0.6859741   -0.4336313  
   0.208989600     0.6155902   -0.5319181  
   0.210989500     0.5323845   -0.6164726  
   0.212989400     0.4390516   -0.6865643  
   0.214989300     0.3387304   -0.7399102  
   0.216989200     0.2335592   -0.7775992  
   0.218989100     0.1260633   -0.7992534  
   0.220989000     0.0180426   -0.8055447  
   0.222988900    -0.0890681   -0.7964295  
   0.224988800    -0.1934107   -0.7723009  
   0.226988700    -0.2925640   -0.7343926  
   0.228988600    -0.3848277   -0.6831789  
   0.230988500    -0.4693927   -0.6199300  
   0.232988400    -0.5438427   -0.5438532  
   0.234988300    -0.6083133   -0.4578481  
   0.236988200    -0.6602489   -0.3628232  
   0.238988100    -0.6985767   -0.2598636  
   0.240988000    -0.7215157   -0.1514525  
   0.242987900    -0.7279284   -0.0393206  
   0.244987800    -0.7171095    0.0746381  
   0.246987700    -0.6881066    0.1878307  
   0.248987600    -0.6405139    0.2977949  
   0.250987500    -0.5741467    0.4007808  
   0.252987400    -0.4900122    0.4927039  
   0.254987300    -0.3905371    0.5700743  
   0.256987200    -0.2769541    0.6305346  
   0.258987100    -0.1528018    0.6720911  
   0.260987000    -0.0208753    0.6895410  
   0.262986900     0.1137731    0.6828145  
   0.264986800     0.2461236    0.6514444  
   0.266986700     0.3712671    0.5958411  
   0.268986600     0.4836178    0.5183517  
   0.270986500     0.5789812    0.4222386  
   0.272986400     0.6550030    0.3106773  
   0.274986300     0.7086758    0.1891540  
   0.276986200     0.7394586    0.0612178  
   0.278986100     0.7472104   -0.0683151  
   0.280986000     0.7324797   -0.1949786  
   0.282985900     0.6970050   -0.3153038  
   0.284985800     0.6430853   -0.4255123  
   0.286985700     0.5736170   -0.5232133  
   0.288985600     0.4917675   -0.6062796  
   0.290985500     0.4001656   -0.6739525  
   0.292985400     0.3020954   -0.7257010  
   0.294985300     0.1992017   -0.7620202  
   0.296985200     0.0937745   -0.7827047  
   0.298985100    -0.0124576   -0.7878241  
   0.300985000    -0.1174181   -0.7779862  
   0.302984900    -0.2182145   -0.7540899  
   0.304984800    -0.3141627   -0.7170752  
   0.306984700    -0.4030324   -0.6679550  
   0.308984600    -0.4835118   -0.6079174  
   0.310984500    -0.5549619   -0.5382258  
   0.312984400    -0.6166239   -0.4594048  
   0.314984300    -0.6676698   -0.3728632  
   0.316984200    -0.7069238   -0.2794349  
   0.318984100    -0.7332541   -0.1794306  
   0.320984000    -0.7452288   -0.0746218  
   0.322983900    -0.7419157    0.0329359  
   0.324983800    -0.7216051    0.1406744  
   0.326983700    -0.6840881    0.2444173  
   0.328983600    -0.6291655    0.3415366  
   0.330983500    -0.5593627    0.4278890  
   0.332983400    -0.4778574    0.5006647  
   0.334983300    -0.3874692    0.5596515  
   0.336983200    -0.2902652    0.6043216  
   0.338983100    -0.1879503    0.6351238  
   0.340983000    -0.0817853    0.6512130  
   0.342982900     0.0268235    0.6521511  
   0.344982800     0.1359728    0.6364484  
   0.346982700     0.2438353    0.6031866  
   0.348982600     0.3462555    0.5514221  
   0.350982500     0.4403038    0.4834465  
   0.352982400     0.5226889    0.3993900  
   0.354982300     0.5923393    0.2978601  
   0.356982200     0.6461214    0.1735437  
   0.358982100     0.6746163    0.0408963  
   0.360982000     0.6765183   -0.0949740  
   0.362981900     0.6519092   -0.2283539  
   0.364981800     0.6016420   -0.3543903  
   0.366981700     0.5283801   -0.4678763  
   0.368981600     0.4343883   -0.5647724  
   0.370981500     0.3244639   -0.6414572  
   0.372981400     0.2023978   -0.6953003  
   0.374981300     0.0732921   -0.7251126  
   0.376981200     0.1803423   -0.7052658  
   0.378981100     0.0518228   -0.7295014  
   0.380981000    -0.0779005   -0.7297287  
   0.382980900    -0.1928771   -0.7093707  
   0.384980800    -0.2973835   -0.6736954  
   0.386980700    -0.3940410   -0.6218441  
   0.388980600    -0.4816039   -0.5563745  
   0.390980500    -0.5568812   -0.4794616  
   0.392980400    -0.6194766   -0.3924630  
   0.394980300    -0.6682606   -0.2980849  
   0.396980200    -0.7021454   -0.1975500  
   0.398980100    -0.7208864   -0.0933536  
   0.400980000    -0.7242904    0.0128291  
   0.402979900    -0.7118594    0.1190495  
   0.404979800    -0.6836319    0.2224969  
   0.406979700    -0.6404634    0.3211305  
   0.408979600    -0.5824553    0.4130473  
   0.410979500    -0.5100398    0.4963096  
   0.412979400    -0.4245715    0.5683534  
   0.414979300    -0.3273711    0.6264514  
   0.416979200    -0.2215851    0.6699211  
   0.418979100    -0.1092052    0.6963968  
   0.420979000     0.0069782    0.7047998  
   0.422978900     0.1247690    0.6938942  
   0.424978800     0.2402500    0.6637260  
   0.426978700     0.3502710    0.6143174  
   0.428978600     0.4510715    0.5468826  
   0.430978500     0.5393288    0.4630990  
   0.432978400     0.6122087    0.3657510  
   0.434978300     0.6689801    0.2576403  
   0.436978200     0.7054812    0.1414350  
   0.438978100     0.7218539    0.0209039  
   0.440978000     0.7177133   -0.1001831  
   0.442977900     0.6937119   -0.2183574  
   0.444977800     0.6503637   -0.3298664  
   0.446977700     0.5896305   -0.4315823  
   0.448977600     0.5138069   -0.5213020  
   0.450977500     0.4252207   -0.5970578  
   0.452977400     0.3265133   -0.6566790  
   0.454977300     0.2196919   -0.6992654  
   0.456977200     0.1082512   -0.7241141  
   0.458977100    -0.0044334   -0.7307978  
   0.460977000    -0.1158732   -0.7197573  
   0.462976900    -0.2228575   -0.6917273  
   0.464976800    -0.3231955   -0.6481685  
   0.466976700    -0.4150831   -0.5897367  
   0.468976600    -0.4963150   -0.5186881  
   0.470976500    -0.5655447   -0.4363404  
   0.472976400    -0.6211189   -0.3444287  
   0.474976300    -0.6622695   -0.2458911  
   0.476976200    -0.6877778   -0.1420812  
   0.478976100    -0.6968380   -0.0356964  
   0.480976000    -0.6895953    0.0704793  
   0.482975900    -0.6659215    0.1744364  
   0.484975800    -0.6268359    0.2740436  
   0.486975700    -0.5721311    0.3671873  
   0.488975600    -0.5025313    0.4512164  
   0.490975500    -0.4199251    0.5238866  
   0.492975400    -0.3259068    0.5825644  
   0.494975300    -0.2223892    0.6254802  
   0.496975200    -0.1122222    0.6503931  
   0.498975100     0.0007835    0.6566977  
   0.500975000     0.1137545    0.6433794  
   0.502974900     0.2225246    0.6107403  
   0.504974800     0.3239849    0.5594789  
   0.506974700     0.4147400    0.4918435  
   0.508974600     0.4917661    0.4094802  
   0.510974500     0.5525060    0.3159287  
   0.512974400     0.5957026    0.2152747  
   0.514974300     0.6196546    0.1113284  
   0.516974200     0.6271924    0.0075626  
   0.518974100     0.6186604   -0.0933218  
   0.520974000     0.5953141   -0.1893046  
   0.522973900     0.5599947   -0.2790468  
   0.524973800     0.5130281   -0.3610415  
   0.526973700     0.4560398   -0.4355119  
   0.528973600     0.3901570   -0.5009564  
   0.530973500     0.3158985   -0.5574481  
   0.532973400     0.2345679   -0.6037850  
   0.534973300     0.1466931   -0.6384471  
   0.536973200     0.0530607   -0.6609764  
   0.538973100    -0.0436238   -0.6695441  
   0.540973000    -0.1415346   -0.6629682  
   0.542972900    -0.2388277   -0.6420116  
   0.544972800    -0.3326422   -0.6055128  
   0.546972700    -0.4210672   -0.5538483  
   0.548972600    -0.5011896   -0.4883834  
   0.550972500    -0.5706109   -0.4099602  
   0.552972400    -0.6268283   -0.3209991  
   0.554972300    -0.6685512   -0.2234320  
   0.556972200    -0.6942109   -0.1197865  
   0.558972100    -0.7027473   -0.0128741  
   0.560972000    -0.6947138    0.0940770  
   0.562971900    -0.6694793    0.1986339  
   0.564971800    -0.6278216    0.2981133  
   0.566971700    -0.5706743    0.3897855  
   0.568971600    -0.5000146    0.4717060  
   0.570971500    -0.4166829    0.5416738  
   0.572971400    -0.3225926    0.5978546  
   0.574971300    -0.2197244    0.6387206  
   0.576971200    -0.1110272    0.6624613  
   0.578971100     0.0012920    0.6683160  
   0.580971000     0.1136790    0.6556329  
   0.582970900     0.2231038    0.6243393  
   0.584970800     0.3261535    0.5754675  
   0.586970700     0.4197647    0.5097643  
   0.588970600     0.5014665    0.4290884  
   0.590970500     0.5688155    0.3353452  
   0.592970400     0.6190945    0.2319131  
   0.594970300     0.6515850    0.1208349  
   0.596970200     0.6646723    0.0056309  
   0.598970100     0.6576753   -0.1099264  
   0.600970000     0.6320252   -0.2222272  
   0.602969900     0.5873358   -0.3286023  
   0.604969800     0.5255307   -0.4256548  
   0.606969700     0.4487013   -0.5104975  
   0.608969600     0.3588278   -0.5812193  
   0.610969500     0.2594964   -0.6355552  
   0.612969400     0.1530047   -0.6720493  
   0.614969300     0.0432551   -0.6907790  
   0.616969200    -0.0668140   -0.6909241  
   0.618969100    -0.1741383   -0.6740776  
   0.620969000    -0.2758476   -0.6409926  
   0.622968900    -0.3709542   -0.5924545  
   0.624968800    -0.4568415   -0.5303252  
   0.626968700    -0.5318882   -0.4559805  
   0.628968600    -0.5945286   -0.3714756  
   0.630968500    -0.6430039   -0.2787149  
   0.632968400    -0.6771469   -0.1798871  
   0.634968300    -0.6957749   -0.0771172  
   0.636968200    -0.6986493    0.0269317  
   0.638968100    -0.6860203    0.1303399  
   0.640968000    -0.6576874    0.2311729  
   0.642967900    -0.6147205    0.3266997  
   0.644967800    -0.5573754    0.4149567  
   0.646967700    -0.4869641    0.4937644  
   0.648967600    -0.4051616    0.5614743  
   0.650967500    -0.3135622    0.6162773  
   0.652967400    -0.2142496    0.6563205  
   0.654967300    -0.1090431    0.6808298  
   0.656967200    -0.0008324    0.6888019  
   0.658967100     0.1086758    0.6797629  
   0.660967000     0.2158750    0.6529695  
   0.662966900     0.3193134    0.6088226  
   0.664966800     0.4151135    0.5478583  
   0.666966700     0.5007757    0.4712721  
   0.668966600     0.5730082    0.3808364  
   0.670966500     0.6295702    0.2791825  
   0.672966400     0.6698394    0.1697621  
   0.674966300     0.6899639    0.0547725  
   0.676966200     0.6908026   -0.0616412  
   0.678966100     0.6715494   -0.1762836  
   0.680966000     0.6342083   -0.2859368  
   0.682965900     0.5794122   -0.3871236  
   0.684965800     0.5093076   -0.4771765  
   0.686965700     0.4254662   -0.5542065  
   0.688965600     0.3314177   -0.6160423  
   0.690965500     0.2289928   -0.6603566  
   0.692965400     0.1222641   -0.6884416  
   0.694965300     0.0136947   -0.6987797  
   0.696965200    -0.0938565   -0.6922227  
   0.698965100    -0.1981999   -0.6690635  
   0.700965000    -0.2970653   -0.6306168  
   0.702964900    -0.3878256   -0.5778776  
   0.704964800    -0.4688362   -0.5123862  
   0.706964700    -0.5386599   -0.4355742  
   0.708964600    -0.5959643   -0.3494931  
   0.710964500    -0.6399922   -0.2564032  
   0.712964400    -0.6687145   -0.1576016  
   0.714964300    -0.6821033   -0.0559907  
   0.716964200    -0.6802687    0.0462546  
   0.718964100    -0.6628309    0.1468854  
   0.720964000    -0.6305057    0.2437899  
   0.722963900    -0.5840612    0.3345970  
   0.724963800    -0.5241769    0.4176919  
   0.726963700    -0.4515780    0.4908056  
   0.728963600    -0.3681625    0.5522274  
   0.730963500    -0.2753347    0.5997719  
   0.732963400    -0.1759125    0.6323633  
   0.734963300    -0.0718102    0.6485823  
   0.736963200     0.0502885    0.6467897  
   0.738963100     0.1709460    0.6221173  
   0.740963000     0.2850742    0.5754913  
   0.742962900     0.3885289    0.5079969  
   0.744962800     0.4775028    0.4229539  
   0.746962700     0.5488905    0.3228996  
   0.748962600     0.6002114    0.2116564  
   0.750962500     0.5473708    0.2996794  
   0.752962400     0.5947875    0.1884971  
   0.754962300     0.6206856    0.0717535  
   0.756962200     0.6252131   -0.0474053  
   0.758962100     0.6080570   -0.1642674  
   0.760962000     0.5704867   -0.2759578  
   0.762961900     0.5166297   -0.3738157  
   0.764961800     0.4537799   -0.4539791  
   0.766961700     0.3794497   -0.5234867  
   0.768961600     0.2953106   -0.5807798  
   0.770961500     0.2036478   -0.6246716  
   0.772961400     0.1062950   -0.6537455  
   0.774961300     0.0054410   -0.6677760  
   0.776961200    -0.0964053   -0.6661435  
   0.778961100    -0.1974262   -0.6489210  
   0.780961000    -0.2947074   -0.6157776  
   0.782960900    -0.3863158   -0.5678962  
   0.784960800    -0.4694808   -0.5059921  
   0.786960700    -0.5422502   -0.4313857  
   0.788960600    -0.6024579   -0.3461311  
   0.790960500    -0.6483926   -0.2523457  
   0.792960400    -0.6792041   -0.1526284  
   0.794960300    -0.6940579   -0.0492490  
   0.796960200    -0.6927545    0.0551333  
   0.798960100    -0.6749714    0.1577812  
   0.800960000    -0.6415027    0.2563384  
   0.802959900    -0.5932421    0.3487769  
   0.804959800    -0.5311230    0.4325124  
   0.806959700    -0.4570427    0.5055704  
   0.808959600    -0.3722343    0.5665196  
   0.810959500    -0.2787451    0.6132146  
   0.812959400    -0.1787379    0.6455460  
   0.814959300    -0.0747404    0.6616208  
   0.816959200     0.0310007    0.6611634  
   0.818959100     0.1358887    0.6443441  
   0.820959000     0.2372803    0.6108830  
   0.822958900     0.3329264    0.5614093  
   0.824958800     0.4197770    0.4969987  
   0.826958700     0.4953210    0.4188969  
   0.828958600     0.5578389    0.3292584  
   0.830958500     0.6048700    0.2302404  
   0.832958400     0.6352542    0.1243518  
   0.834958300     0.6479422    0.0148933  
   0.836958200     0.6423504   -0.0952020  
   0.838958100     0.6186423   -0.2028654  
   0.840958000     0.5775629   -0.3057028  
   0.842957900     0.5200788   -0.4001138  
   0.844957800     0.4477091   -0.4840355  
   0.846957700     0.3627786   -0.5543569  
   0.848957600     0.2675170   -0.6099963  
   0.850957500     0.1646271   -0.6487180  
   0.852957400     0.0576460   -0.6700677  
   0.854957300    -0.0511040   -0.6738609  
   0.856957200    -0.1579550   -0.6600085  
   0.858957100    -0.2609118   -0.6294294  
   0.860957000    -0.3566083   -0.5836090  
   0.862956900    -0.4430605   -0.5237563  
   0.864956800    -0.5183316   -0.4522732  
   0.866956700    -0.5813802   -0.3707729  
   0.868956600    -0.6304711   -0.2812942  
   0.870956500    -0.6657831   -0.1860269  
   0.872956400    -0.6862538   -0.0869146  
   0.874956300    -0.6916932    0.0135458  
   0.876956200    -0.6823156    0.1141688  
   0.878956100    -0.6575277    0.2121497  
   0.880956000    -0.6188805    0.3052191  
   0.882955900    -0.5666221    0.3919330  
   0.884955800    -0.5017510    0.4699036  
   0.886955700    -0.4257824    0.5379146  
   0.888955600    -0.3401154    0.5938010  
   0.890955500    -0.2466424    0.6367167  
   0.892955400    -0.1472601    0.6649594  
   0.894955300    -0.0440267    0.6776147  
