! MS46122B
! 2250307/22442219
! 7/22/2025 3:26:04 PM
! C:\USERS\SPARKY\DOCUMENTS\VNA_DATA\JULY22_2025\295\PORT4_MOS3_REPEAT1.S1P
! CHANNEL.1
! TR.MEASUREMENT
! RAW.DATA
# GHZ S RI R 50.0
! FREQ.GHZ         S11RE         S11IM         
!; PortSelection: Port_1
   0.001000000     1.0461460   -0.0710768  
   0.002999900     0.9643443   -0.1937007  
   0.004999800     0.9035164   -0.2985684  
   0.006999700     0.8356050   -0.3959918  
   0.008999600     0.7555964   -0.4905261  
   0.010999500     0.6608749   -0.5795697  
   0.012999400     0.5459560   -0.6599493  
   0.014999300     0.4054330   -0.7248091  
   0.016999200     0.2342642   -0.7606096  
   0.018999100     0.0312878   -0.7473437  
   0.020999000    -0.1907702   -0.6528845  
   0.022998900    -0.3889857   -0.4460043  
   0.024998800    -0.4674194   -0.1329025  
   0.026998700    -0.4000401    0.2198895  
   0.028998600    -0.1506160    0.4738224  
   0.030998500     0.1610915    0.5641227  
   0.032998400     0.4108748    0.5080640  
   0.034998300     0.6366830    0.3943920  
   0.036998200     0.7639051    0.2428311  
   0.038998100     0.8341891    0.0886276  
   0.040998000     0.8626922   -0.0566032  
   0.042997900     0.8610865   -0.1888005  
   0.044997800     0.8138378   -0.2812788  
   0.046997700     0.7985636   -0.4103639  
   0.048997600     0.7479300   -0.5014761  
   0.050997500     0.6886659   -0.5802765  
   0.052997400     0.6230142   -0.6478661  
   0.054997300     0.5512471   -0.7059975  
   0.056997200     0.4749866   -0.7550201  
   0.058997100     0.3954581   -0.7945257  
   0.060997000     0.3125363   -0.8252923  
   0.062996900     0.2270152   -0.8472629  
   0.064996800     0.1389987   -0.8595479  
   0.066996700     0.0487211   -0.8628495  
   0.068996600    -0.0425482   -0.8556915  
   0.070996500    -0.1347401   -0.8387656  
   0.072996400    -0.2268986   -0.8091149  
   0.074996300    -0.3174597   -0.7675253  
   0.076996200    -0.4054399   -0.7128472  
   0.078996100    -0.4884369   -0.6447113  
   0.080996000    -0.5647517   -0.5619976  
   0.082995900    -0.6313068   -0.4648618  
   0.084995800    -0.6843273   -0.3536427  
   0.086995700    -0.7218488   -0.2299916  
   0.088995600    -0.7387479   -0.0951569  
   0.090995500    -0.7316539    0.0474323  
   0.092995400    -0.6975638    0.1931289  
   0.094995300    -0.6323351    0.3354136  
   0.096995200    -0.5363261    0.4664098  
   0.098995100    -0.4104391    0.5775713  
   0.100995000    -0.2592276    0.6620253  
   0.102994900    -0.0920415    0.7103333  
   0.104994800     0.0823729    0.7199579  
   0.106994700     0.2532377    0.6897388  
   0.108994600     0.4111388    0.6242554  
   0.110994500     0.5477427    0.5285323  
   0.112994400     0.6573226    0.4094519  
   0.114994300     0.7373104    0.2755677  
   0.116994200     0.7871634    0.1343729  
   0.118994100     0.8084347   -0.0074591  
   0.120994000     0.8053740   -0.1447425  
   0.122993900     0.7782860   -0.2739057  
   0.124993800     0.7319222   -0.3913016  
   0.126993700     0.6699165   -0.4959849  
   0.128993600     0.5948392   -0.5854940  
   0.130993500     0.5107033   -0.6612311  
   0.132993400     0.4189751   -0.7225640  
   0.134993300     0.3226506   -0.7691463  
   0.136993200     0.2226808   -0.8015417  
   0.138993100     0.1208743   -0.8199332  
   0.140993000     0.0189671   -0.8248556  
   0.142992900    -0.0822010   -0.8164316  
   0.144992800    -0.1810607   -0.7967705  
   0.146992700    -0.2764634   -0.7627460  
   0.148992600    -0.3671023   -0.7169018  
   0.150992500    -0.4503716   -0.6580961  
   0.152992400    -0.5279297   -0.5888237  
   0.154992300    -0.5961158   -0.5089976  
   0.156992200    -0.6537319   -0.4188537  
   0.158992100    -0.6996043   -0.3199176  
   0.160992000    -0.7316399   -0.2125673  
   0.162991900    -0.7484453   -0.0994560  
   0.164991800    -0.7482910    0.0182154  
   0.166991700    -0.7292909    0.1377894  
   0.168991600    -0.6910190    0.2557331  
   0.170991500    -0.6324140    0.3697666  
   0.172991400    -0.5538146    0.4747494  
   0.174991300    -0.4562824    0.5669650  
   0.176991200    -0.3410630    0.6425956  
   0.178991100    -0.2115787    0.6977596  
   0.180991000    -0.0722552    0.7294897  
   0.182990900     0.0720494    0.7343462  
   0.184990800     0.2165607    0.7117514  
   0.186990700     0.3545139    0.6621791  
   0.188990600     0.4625076    0.6007411  
   0.190990500     0.5862948    0.4937648  
   0.192990400     0.6765586    0.3778023  
   0.194990300     0.7412208    0.2517157  
   0.196990200     0.7811701    0.1190102  
   0.198990100     0.7970104   -0.0159850  
   0.200990000     0.7891478   -0.1488091  
   0.202989900     0.7593259   -0.2754291  
   0.204989800     0.7100374   -0.3923804  
   0.206989700     0.6452709   -0.4975077  
   0.208989600     0.5657036   -0.5881925  
   0.210989500     0.4754828   -0.6637208  
   0.212989400     0.3758595   -0.7238188  
   0.214989300     0.2710617   -0.7674763  
   0.216989200     0.1633456   -0.7946436  
   0.218989100     0.0541193   -0.8058990  
   0.220989000    -0.0544551   -0.8018874  
   0.222988900    -0.1603005   -0.7820547  
   0.224988800    -0.2623520   -0.7479664  
   0.226988700    -0.3579596   -0.7003307  
   0.228988600    -0.4455758   -0.6399164  
   0.230988500    -0.5243211   -0.5674499  
   0.232988400    -0.5914398   -0.4832795  
   0.234988300    -0.6474507   -0.3897963  
   0.236988200    -0.6900333   -0.2879810  
   0.238988100    -0.7171987   -0.1796428  
   0.240988000    -0.7281786   -0.0669961  
   0.242987900    -0.7216060    0.0478015  
   0.244987800    -0.6970087    0.1620599  
   0.246987700    -0.6536334    0.2738981  
   0.248987600    -0.5911706    0.3795084  
   0.250987500    -0.5103047    0.4753078  
   0.252987400    -0.4124133    0.5572667  
   0.254987300    -0.3005075    0.6222402  
   0.256987200    -0.1770176    0.6670333  
   0.258987100    -0.0455549    0.6906796  
   0.260987000     0.0902985    0.6888946  
   0.262986900     0.2249754    0.6617676  
   0.264986800     0.3528898    0.6100142  
   0.266986700     0.4691974    0.5351536  
   0.268986600     0.5690445    0.4405820  
   0.270986500     0.6489246    0.3303480  
   0.272986400     0.7068006    0.2085306  
   0.274986300     0.7413660    0.0799708  
   0.276986200     0.7523267   -0.0507689  
   0.278986100     0.7407215   -0.1794953  
   0.280986000     0.7072516   -0.3017188  
   0.282985900     0.6550844   -0.4145190  
   0.284985800     0.5864520   -0.5150596  
   0.286985700     0.5043683   -0.6010851  
   0.288985600     0.4125598   -0.6711804  
   0.290985500     0.3136682   -0.7251315  
   0.292985400     0.2100466   -0.7630986  
   0.294985300     0.1041287   -0.7851102  
   0.296985200    -0.0026265   -0.7915687  
   0.298985100    -0.1083995   -0.7828879  
   0.300985000    -0.2109219   -0.7596271  
   0.302984900    -0.3084363   -0.7229273  
   0.304984800    -0.3989769   -0.6737632  
   0.306984700    -0.4813081   -0.6130381  
   0.308984600    -0.5541372   -0.5425254  
   0.310984500    -0.6166720   -0.4630488  
   0.312984400    -0.6683791   -0.3751228  
   0.314984300    -0.7078065   -0.2804918  
   0.316984200    -0.7342889   -0.1800717  
   0.318984100    -0.7460355   -0.0746763  
   0.320984000    -0.7422438    0.0340098  
   0.322983900    -0.7212048    0.1431315  
   0.324983800    -0.6823058    0.2483808  
   0.326983700    -0.6257147    0.3463899  
   0.328983600    -0.5531711    0.4332050  
   0.330983500    -0.4682855    0.5058978  
   0.332983400    -0.3750135    0.5626929  
   0.334983300    -0.2758126    0.6043136  
   0.336983200    -0.1733779    0.6315798  
   0.338983100    -0.0677597    0.6446798  
   0.340983000     0.0393620    0.6431412  
   0.342982900     0.1468977    0.6257296  
   0.344982800     0.2524130    0.5915159  
   0.346982700     0.3538688    0.5395693  
   0.348982600     0.4462560    0.4700087  
   0.350982500     0.5275180    0.3853350  
   0.352982400     0.5938483    0.2868412  
   0.354982300     0.6436378    0.1729331  
   0.356982200     0.6730963    0.0395552  
   0.358982100     0.6755021   -0.0974870  
   0.360982000     0.6507803   -0.2318689  
   0.362981900     0.6000726   -0.3586172  
   0.364981800     0.5258504   -0.4728402  
   0.366981700     0.4306902   -0.5699932  
   0.368981600     0.3193842   -0.6466262  
   0.370981500     0.1958975   -0.6998780  
   0.372981400     0.0657590   -0.7286313  
   0.374981300    -0.0669587   -0.7322827  
   0.376981200     0.0443289   -0.7331837  
   0.378981100    -0.0864736   -0.7319497  
   0.380981000    -0.2141886   -0.7069712  
   0.382980900    -0.3233387   -0.6652808  
   0.384980800    -0.4192891   -0.6091658  
   0.386980700    -0.5045941   -0.5397157  
   0.388980600    -0.5781707   -0.4582250  
   0.390980500    -0.6379377   -0.3671684  
   0.392980400    -0.6832329   -0.2691697  
   0.394980300    -0.7128386   -0.1658755  
   0.396980200    -0.7270110   -0.0593102  
   0.398980100    -0.7250125    0.0484948  
   0.400980000    -0.7072425    0.1552365  
   0.402979900    -0.6730285    0.2591512  
   0.404979800    -0.6239107    0.3569909  
   0.406979700    -0.5599434    0.4470334  
   0.408979600    -0.4821548    0.5270430  
   0.410979500    -0.3914452    0.5950031  
   0.412979400    -0.2900107    0.6493880  
   0.414979300    -0.1793303    0.6859557  
   0.416979200    -0.0630537    0.7057443  
   0.418979100     0.0558676    0.7067227  
   0.420979000     0.1744158    0.6876683  
   0.422978900     0.2896986    0.6490275  
   0.424978800     0.3979286    0.5910474  
   0.426978700     0.4954283    0.5149494  
   0.428978600     0.5788943    0.4227875  
   0.430978500     0.6453755    0.3178519  
   0.432978400     0.6930109    0.2033863  
   0.434978300     0.7214863    0.0826269  
   0.436978200     0.7276663   -0.0409235  
   0.438978100     0.7130367   -0.1630180  
   0.440978000     0.6781151   -0.2802792  
   0.442977900     0.6243266   -0.3891213  
   0.444977800     0.5535516   -0.4866063  
   0.446977700     0.4687977   -0.5700687  
   0.448977600     0.3724260   -0.6378596  
   0.450977500     0.2675404   -0.6884754  
   0.452977400     0.1566184   -0.7208273  
   0.454977300     0.0425195   -0.7352381  
   0.456977200    -0.0715912   -0.7312675  
   0.458977100    -0.1825864   -0.7093861  
   0.460977000    -0.2880599   -0.6707461  
   0.462976900    -0.3845468   -0.6169415  
   0.464976800    -0.4715296   -0.5490934  
   0.466976700    -0.5464794   -0.4689425  
   0.468976600    -0.6076585   -0.3788411  
   0.470976500    -0.6545888   -0.2804136  
   0.472976400    -0.6857861   -0.1762131  
   0.474976300    -0.7005070   -0.0683565  
   0.476976200    -0.6980425    0.0403463  
   0.478976100    -0.6788484    0.1478365  
   0.480976000    -0.6434940    0.2507617  
   0.482975900    -0.5919572    0.3476349  
   0.484975800    -0.5254019    0.4354689  
   0.486975700    -0.4447710    0.5125714  
   0.488975600    -0.3523339    0.5760877  
   0.490975500    -0.2494587    0.6242283  
   0.492975400    -0.1389686    0.6544552  
   0.494975300    -0.0240966    0.6660585  
   0.496975200     0.0917999    0.6575022  
   0.498975100     0.2048410    0.6290765  
   0.500975000     0.3107472    0.5813237  
   0.502974900     0.4068137    0.5160694  
   0.504974800     0.4894089    0.4352402  
   0.506974700     0.5560670    0.3417681  
   0.508974600     0.6047627    0.2384404  
   0.510974500     0.6347521    0.1304359  
   0.512974400     0.6457862    0.0208506  
   0.514974300     0.6372027   -0.0858183  
   0.516974200     0.6136243   -0.1871513  
   0.518974100     0.5758144   -0.2814745  
   0.520974000     0.5259636   -0.3671211  
   0.522973900     0.4658149   -0.4430324  
   0.524973800     0.3967434   -0.5090975  
   0.526973700     0.3200840   -0.5645390  
   0.528973600     0.2370902   -0.6096410  
   0.530973500     0.1479317   -0.6434520  
   0.532973400     0.0542555   -0.6648075  
   0.534973300    -0.0424093   -0.6727146  
   0.536973200    -0.1411408   -0.6663489  
   0.538973100    -0.2389032   -0.6451262  
   0.540973000    -0.3330775   -0.6087295  
   0.542972900    -0.4221099   -0.5576135  
   0.544972800    -0.5027226   -0.4922741  
   0.546972700    -0.5728834   -0.4135170  
   0.548972600    -0.6306130   -0.3239273  
   0.550972500    -0.6732640   -0.2252566  
   0.552972400    -0.6995749   -0.1200970  
   0.554972300    -0.7086067   -0.0117410  
   0.556972200    -0.7000598    0.0977515  
   0.558972100    -0.6738868    0.2047432  
   0.560972000    -0.6306304    0.3063908  
   0.562971900    -0.5716396    0.3996817  
   0.564971800    -0.4979857    0.4829180  
   0.566971700    -0.4118620    0.5533742  
   0.568971600    -0.3152163    0.6092831  
   0.570971500    -0.2102140    0.6493339  
   0.572971400    -0.0995378    0.6716233  
   0.574971300     0.0145550    0.6757754  
   0.576971200     0.1287939    0.6608666  
   0.578971100     0.2400319    0.6269969  
   0.580971000     0.3441467    0.5748101  
   0.582970900     0.4389971    0.5056335  
   0.584970800     0.5206469    0.4210343  
   0.586970700     0.5870782    0.3236834  
   0.588970600     0.6357777    0.2168059  
   0.590970500     0.6658801    0.1024789  
   0.592970400     0.6760036   -0.0151084  
   0.594970300     0.6659303   -0.1325417  
   0.596970200     0.6361405   -0.2466828  
   0.598970100     0.5875015   -0.3533777  
   0.600970000     0.5218259   -0.4501318  
   0.602969900     0.4412507   -0.5340532  
   0.604969800     0.3478214   -0.6031101  
   0.606969700     0.2454160   -0.6549466  
   0.608969600     0.1358302   -0.6892955  
   0.610969500     0.0230823   -0.7049412  
   0.612969400    -0.0895731   -0.7017239  
   0.614969300    -0.1991916   -0.6811826  
   0.616969200    -0.3027775   -0.6434339  
   0.618969100    -0.3980470   -0.5905460  
   0.620969000    -0.4829574   -0.5243391  
   0.622968900    -0.5565146   -0.4460911  
   0.624968800    -0.6168421   -0.3580475  
   0.626968700    -0.6634434   -0.2622331  
   0.628968600    -0.6944145   -0.1604150  
   0.630968500    -0.7099588   -0.0552894  
   0.632968400    -0.7095963    0.0506569  
   0.634968300    -0.6930938    0.1558712  
   0.636968200    -0.6607489    0.2575221  
   0.638968100    -0.6134332    0.3533443  
   0.640968000    -0.5519030    0.4415417  
   0.642967900    -0.4772238    0.5196522  
   0.644967800    -0.3910586    0.5860140  
   0.646967700    -0.2948827    0.6388679  
   0.648967600    -0.1912127    0.6760713  
   0.650967500    -0.0826086    0.6970473  
   0.652967400     0.0286561    0.7008051  
   0.654967300     0.1403669    0.6869992  
   0.656967200     0.2487472    0.6551404  
   0.658967100     0.3518179    0.6061473  
   0.660967000     0.4464147    0.5403146  
   0.662966900     0.5300098    0.4594146  
   0.664966800     0.5998756    0.3644148  
   0.666966700     0.6534265    0.2582445  
   0.668966600     0.6885285    0.1446472  
   0.670966500     0.7042331    0.0259698  
   0.672966400     0.7010781   -0.0936445  
   0.674966300     0.6763135   -0.2103438  
   0.676966200     0.6329386   -0.3208614  
   0.678966100     0.5719869   -0.4215874  
   0.680966000     0.4956279   -0.5102742  
   0.682965900     0.4063932   -0.5847862  
   0.684965800     0.3074383   -0.6428074  
   0.686965700     0.2009958   -0.6838610  
   0.688965600     0.0901132   -0.7067414  
   0.690965500    -0.0214422   -0.7106444  
   0.692965400    -0.1309103   -0.6982744  
   0.694965300    -0.2359191   -0.6689709  
   0.696965200    -0.3342905   -0.6242592  
   0.698965100    -0.4238390   -0.5655032  
   0.700965000    -0.5027422   -0.4942071  
   0.702964900    -0.5694071   -0.4120899  
   0.704964800    -0.6228856   -0.3215796  
   0.706964700    -0.6617359   -0.2242816  
   0.708964600    -0.6854242   -0.1218200  
   0.710964500    -0.6939039   -0.0174003  
   0.712964400    -0.6858654    0.0872495  
   0.714964300    -0.6618011    0.1895029  
   0.716964200    -0.6224612    0.2870704  
   0.718964100    -0.5685891    0.3771109  
   0.720964000    -0.5015283    0.4584008  
   0.722963900    -0.4223501    0.5282362  
   0.724963800    -0.3328223    0.5852621  
   0.726963700    -0.2345838    0.6275367  
   0.728963600    -0.1303827    0.6540625  
   0.730963500    -0.0230792    0.6628246  
   0.732963400     0.0850417    0.6545156  
   0.734963300     0.1908453    0.6284541  
   0.736963200     0.3056261    0.5779412  
   0.738963100     0.4098294    0.5063704  
   0.740963000     0.4986611    0.4169762  
   0.742962900     0.5689393    0.3122291  
   0.744962800     0.6178809    0.1969591  
   0.746962700     0.6445614    0.0754958  
   0.748962600     0.6482120   -0.0483127  
   0.750962500     0.6348769    0.0509169  
   0.752962400     0.6348960   -0.0708116  
   0.754962300     0.6130394   -0.1897333  
   0.756962200     0.5704383   -0.3021243  
   0.758962100     0.5086834   -0.4042768  
   0.760962000     0.4300259   -0.4936758  
   0.762961900     0.3417517   -0.5640266  
   0.764961800     0.2516434   -0.6146885  
   0.766961700     0.1551090   -0.6511950  
   0.768961600     0.0538561   -0.6723243  
   0.770961500    -0.0495847   -0.6778235  
   0.772961400    -0.1522927   -0.6674936  
   0.774961300    -0.2527771   -0.6414549  
   0.776961200    -0.3482181   -0.6002145  
   0.778961100    -0.4366120   -0.5442275  
   0.780961000    -0.5154223   -0.4749896  
   0.782960900    -0.5825043   -0.3938730  
   0.784960800    -0.6363599   -0.3027208  
   0.786960700    -0.6751614   -0.2039034  
   0.788960600    -0.6981016   -0.0998116  
   0.790960500    -0.7042815    0.0066565  
   0.792960400    -0.6939882    0.1126291  
   0.794960300    -0.6667463    0.2158827  
   0.796960200    -0.6237997    0.3136165  
   0.798960100    -0.5664093    0.4030654  
   0.800960000    -0.4954185    0.4824040  
   0.802959900    -0.4127547    0.5500595  
   0.804959800    -0.3207506    0.6040150  
   0.806959700    -0.2211447    0.6429096  
   0.808959600    -0.1166504    0.6660213  
   0.810959500    -0.0094739    0.6724662  
   0.812959400     0.0979791    0.6615515  
   0.814959300     0.2029006    0.6339400  
   0.816959200     0.3026902    0.5897552  
   0.818959100     0.3944496    0.5301260  
   0.820959000     0.4758943    0.4560902  
   0.822958900     0.5445681    0.3692438  
   0.824958800     0.5988240    0.2719538  
   0.826958700     0.6365957    0.1665978  
   0.828958600     0.6562580    0.0560012  
   0.830958500     0.6577428   -0.0564489  
   0.832958400     0.6404454   -0.1678523  
   0.834958300     0.6053197   -0.2747011  
   0.836958200     0.5527359   -0.3742042  
   0.838958100     0.4846977   -0.4635094  
   0.840958000     0.4027454   -0.5406601  
   0.842957900     0.3094005   -0.6028892  
   0.844957800     0.2074091   -0.6489058  
   0.846957700     0.0996211   -0.6773506  
   0.848957600    -0.0105583   -0.6878287  
   0.850957500    -0.1208333   -0.6805374  
   0.852957400    -0.2277459   -0.6555732  
   0.854957300    -0.3286162   -0.6139532  
   0.856957200    -0.4210777   -0.5573904  
   0.858957100    -0.5025533   -0.4876104  
   0.860957000    -0.5716081   -0.4066235  
   0.862956900    -0.6272036   -0.3172176  
   0.864956800    -0.6678327   -0.2211237  
   0.866956700    -0.6934028   -0.1210333  
   0.868956600    -0.7031316   -0.0186377  
   0.870956500    -0.6980158    0.0835071  
   0.872956400    -0.6778778    0.1835965  
   0.874956300    -0.6427894    0.2794871  
   0.876956200    -0.5942229    0.3696825  
   0.878956100    -0.5324565    0.4521011  
   0.880956000    -0.4584411    0.5244775  
   0.882955900    -0.3742038    0.5852821  
   0.884955800    -0.2812812    0.6331802  
   0.886955700    -0.1817329    0.6667668  
   0.888955600    -0.0775599    0.6848865  
   0.890955500     0.0289186    0.6865500  
   0.892955400     0.1351748    0.6719964  
   0.894955300     0.2384658    0.6405907  
