! MS46122B
! 2250307/22442219
! 7/26/2025 10:26:54 AM
! C:\USERS\SPARKY\DOCUMENTS\VNA_DATA\JULY26_2025\295K\PORT6_MOS2.S1P
! CHANNEL.1
! TR.MEASUREMENT
! RAW.DATA
# GHZ S RI R 50.0
! FREQ.GHZ         S11RE         S11IM         
!; PortSelection: Port_1
   0.001000000     1.0456830   -0.0717338  
   0.002999900     0.9641462   -0.1940915  
   0.004999800     0.9032696   -0.2987530  
   0.006999700     0.8356419   -0.3959725  
   0.008999600     0.7557427   -0.4903787  
   0.010999500     0.6613460   -0.5792032  
   0.012999400     0.5468916   -0.6594376  
   0.014999300     0.4071410   -0.7242444  
   0.016999200     0.2372909   -0.7603413  
   0.018999100     0.0354503   -0.7480928  
   0.020999000    -0.1852799   -0.6558565  
   0.022998900    -0.3833480   -0.4526640  
   0.024998800    -0.4643378   -0.1435061  
   0.026998700    -0.4031679    0.2067085  
   0.028998600    -0.1600392    0.4630733  
   0.030998500     0.1484499    0.5587156  
   0.032998400     0.3987963    0.5075369  
   0.034998300     0.6260536    0.3977022  
   0.036998200     0.7556702    0.2483012  
   0.038998100     0.8281829    0.0951505  
   0.040998000     0.8587173   -0.0496725  
   0.042997900     0.8588623   -0.1817261  
   0.044997800     0.8128713   -0.2747003  
   0.046997700     0.7989154   -0.4035741  
   0.048997600     0.7495070   -0.4953551  
   0.050997500     0.6912213   -0.5746388  
   0.052997400     0.6269280   -0.6422858  
   0.054997300     0.5552496   -0.7017755  
   0.056997200     0.4799170   -0.7512046  
   0.058997100     0.4010340   -0.7914670  
   0.060997000     0.3187583   -0.8229643  
   0.062996900     0.2337898   -0.8458033  
   0.064996800     0.1463120   -0.8590695  
   0.066996700     0.0565396   -0.8634057  
   0.068996600    -0.0344603   -0.8574061  
   0.070996500    -0.1263821   -0.8417574  
   0.072996400    -0.2183781   -0.8135242  
   0.074996300    -0.3089885   -0.7734002  
   0.076996200    -0.3970244   -0.7203449  
   0.078996100    -0.4806834   -0.6539832  
   0.080996000    -0.5577437   -0.5731543  
   0.082995900    -0.6254935   -0.4779455  
   0.084995800    -0.6801387   -0.3686736  
   0.086995700    -0.7198365   -0.2467104  
   0.088995600    -0.7393898   -0.1133695  
   0.090995500    -0.7355971    0.0282012  
   0.092995400    -0.7052721    0.1734129  
   0.094995300    -0.6442471    0.3161330  
   0.096995200    -0.5526744    0.4485835  
   0.098995100    -0.4309006    0.5624392  
   0.100995000    -0.2834063    0.6507839  
   0.102994900    -0.1188377    0.7040155  
   0.104994800     0.0543118    0.7192315  
   0.106994700     0.2254127    0.6948742  
   0.108994600     0.3849313    0.6349162  
   0.110994500     0.5243400    0.5440833  
   0.112994400     0.6379058    0.4290994  
   0.114994300     0.7223465    0.2980209  
   0.116994200     0.7771358    0.1584025  
   0.118994100     0.8032314    0.0172842  
   0.120994000     0.8045756   -0.1203118  
   0.122993900     0.7815723   -0.2501256  
   0.124993800     0.7389591   -0.3693115  
   0.126993700     0.6802287   -0.4760238  
   0.128993600     0.6079490   -0.5679796  
   0.130993500     0.5260270   -0.6463647  
   0.132993400     0.4363909   -0.7102149  
   0.134993300     0.3412307   -0.7599441  
   0.136993200     0.2424694   -0.7951661  
   0.138993100     0.1412187   -0.8166333  
   0.140993000     0.0398404   -0.8245072  
   0.142992900    -0.0611033   -0.8190262  
   0.144992800    -0.1601684   -0.8024549  
   0.146992700    -0.2564891   -0.7714743  
   0.148992600    -0.3482946   -0.7285672  
   0.150992500    -0.4329590   -0.6726219  
   0.152992400    -0.5119841   -0.6063008  
   0.154992300    -0.5822848   -0.5293220  
   0.156992200    -0.6426229   -0.4417352  
   0.158992100    -0.6914352   -0.3449522  
   0.160992000    -0.7268406   -0.2398792  
   0.162991900    -0.7476487   -0.1279891  
   0.164991800    -0.7516674   -0.0111824  
   0.166991700    -0.7375207    0.1076565  
   0.168991600    -0.7042449    0.2260709  
   0.170991500    -0.6508256    0.3413114  
   0.172991400    -0.5776140    0.4484502  
   0.174991300    -0.4849492    0.5440831  
   0.176991200    -0.3744165    0.6240865  
   0.178991100    -0.2486147    0.6847196  
   0.180991000    -0.1123147    0.7228169  
   0.182990900     0.0307180    0.7347490  
   0.184990800     0.1751841    0.7196376  
   0.186990700     0.3147848    0.6774373  
   0.188990600     0.4250971    0.6221020  
   0.190990500     0.5537726    0.5223493  
   0.192990400     0.6498605    0.4118699  
   0.194990300     0.7212554    0.2897078  
   0.196990200     0.7682611    0.1595728  
   0.198990100     0.7913694    0.0257237  
   0.200990000     0.7906595   -0.1070016  
   0.202989900     0.7677917   -0.2353442  
   0.204989800     0.7250443   -0.3548909  
   0.206989700     0.6659429   -0.4634112  
   0.208989600     0.5915360   -0.5579801  
   0.210989500     0.5048586   -0.6384725  
   0.212989400     0.4089479   -0.7038827  
   0.214989300     0.3064564   -0.7528004  
   0.216989200     0.2000227   -0.7857746  
   0.218989100     0.0920399   -0.8027281  
   0.220989000    -0.0162640   -0.8043764  
   0.222988900    -0.1231486   -0.7903516  
   0.224988800    -0.2267609   -0.7619223  
   0.226988700    -0.3240416   -0.7194838  
   0.228988600    -0.4147387   -0.6640442  
   0.230988500    -0.4967318   -0.5965368  
   0.232988400    -0.5678379   -0.5165796  
   0.234988300    -0.6286372   -0.4270349  
   0.236988200    -0.6763713   -0.3286825  
   0.238988100    -0.7099273   -0.2229104  
   0.240988000    -0.7274296   -0.1122234  
   0.242987900    -0.7280565    0.0015087  
   0.244987800    -0.7107098    0.1160435  
   0.246987700    -0.6750083    0.2291238  
   0.248987600    -0.6202688    0.3373874  
   0.250987500    -0.5468228    0.4372129  
   0.252987400    -0.4559146    0.5248346  
   0.254987300    -0.3500163    0.5966036  
   0.256987200    -0.2315026    0.6498785  
   0.258987100    -0.1031907    0.6830353  
   0.260987000     0.0308116    0.6914365  
   0.262986900     0.1659118    0.6750002  
   0.264986800     0.2966432    0.6338279  
   0.266986700     0.4173691    0.5688873  
   0.268986600     0.5241591    0.4829017  
   0.270986500     0.6124240    0.3796399  
   0.272986400     0.6798465    0.2630610  
   0.274986300     0.7245470    0.1378665  
   0.276986200     0.7458603    0.0085423  
   0.278986100     0.7444230   -0.1206010  
   0.280986000     0.7205036   -0.2454153  
   0.282985900     0.6772107   -0.3622446  
   0.284985800     0.6162744   -0.4679471  
   0.286985700     0.5409332   -0.5603222  
   0.288985600     0.4543314   -0.6373248  
   0.290985500     0.3592820   -0.6986470  
   0.292985400     0.2585305   -0.7440603  
   0.294985300     0.1541706   -0.7737692  
   0.296985200     0.0478239   -0.7879321  
   0.298985100    -0.0581523   -0.7867361  
   0.300985000    -0.1621716   -0.7708070  
   0.302984900    -0.2618130   -0.7411098  
   0.304984800    -0.3552367   -0.6983358  
   0.306984700    -0.4413671   -0.6439122  
   0.308984600    -0.5185675   -0.5788190  
   0.310984500    -0.5862849   -0.5045468  
   0.312984400    -0.6434966   -0.4214115  
   0.314984300    -0.6895700   -0.3306884  
   0.316984200    -0.7231834   -0.2338849  
   0.318984100    -0.7430781   -0.1309951  
   0.320984000    -0.7479928   -0.0236081  
   0.322983900    -0.7366033    0.0849135  
   0.324983800    -0.7074711    0.1920308  
   0.326983700    -0.6610131    0.2940559  
   0.328983600    -0.5975316    0.3869271  
   0.330983500    -0.5201857    0.4674591  
   0.332983400    -0.4326269    0.5331496  
   0.334983300    -0.3373815    0.5842084  
   0.336983200    -0.2372503    0.6209610  
   0.338983100    -0.1327237    0.6434635  
   0.340983000    -0.0256667    0.6511808  
   0.342982900     0.0828373    0.6432600  
   0.344982800     0.1910849    0.6186178  
   0.346982700     0.2963194    0.5764084  
   0.348982600     0.3941962    0.5159690  
   0.350982500     0.4825887    0.4395467  
   0.352982400     0.5578341    0.3484441  
   0.354982300     0.6183602    0.2406149  
   0.356982200     0.6608040    0.1113498  
   0.358982100     0.6769665   -0.0240548  
   0.360982000     0.6662429   -0.1593499  
   0.362981900     0.6293170   -0.2900691  
   0.364981800     0.5673678   -0.4111193  
   0.366981700     0.4836372   -0.5175226  
   0.368981600     0.3811193   -0.6050594  
   0.370981500     0.2644780   -0.6710302  
   0.372981400     0.1380936   -0.7133051  
   0.374981300     0.0065765   -0.7309384  
   0.376981200     0.1160583   -0.7208951  
   0.378981100    -0.0139094   -0.7333808  
   0.380981000    -0.1432429   -0.7218677  
   0.382980900    -0.2561136   -0.6914676  
   0.384980800    -0.3571608   -0.6462517  
   0.386980700    -0.4487458   -0.5859807  
   0.388980600    -0.5303801   -0.5126432  
   0.390980500    -0.5990245   -0.4286593  
   0.392980400    -0.6536775   -0.3362488  
   0.394980300    -0.6939116   -0.2372328  
   0.396980200    -0.7188313   -0.1336097  
   0.398980100    -0.7284002   -0.0268838  
   0.400980000    -0.7219012    0.0803320  
   0.402979900    -0.6992912    0.1859629  
   0.404979800    -0.6613063    0.2876253  
   0.406979700    -0.6078863    0.3829423  
   0.408979600    -0.5402817    0.4699584  
   0.410979500    -0.4591012    0.5467640  
   0.412979400    -0.3654619    0.6111494  
   0.414979300    -0.2612539    0.6595231  
   0.416979200    -0.1499475    0.6922333  
   0.418979100    -0.0335945    0.7069694  
   0.420979000     0.0847543    0.7027503  
   0.422978900     0.2022550    0.6787695  
   0.424978800     0.3149704    0.6353067  
   0.426978700     0.4200865    0.5729311  
   0.428978600     0.5135990    0.4934431  
   0.430978500     0.5922716    0.3989886  
   0.432978400     0.6540031    0.2927599  
   0.434978300     0.6977282    0.1778315  
   0.436978200     0.7201649    0.0573268  
   0.438978100     0.7219644   -0.0649544  
   0.440978000     0.7031507   -0.1852503  
   0.442977900     0.6651397   -0.2998371  
   0.444977800     0.6086279   -0.4054927  
   0.446977700     0.5359604   -0.4995273  
   0.448977600     0.4500522   -0.5796414  
   0.450977500     0.3531197   -0.6439376  
   0.452977400     0.2478228   -0.6913268  
   0.454977300     0.1367913   -0.7207624  
   0.456977200     0.0234151   -0.7323340  
   0.458977100    -0.0898032   -0.7257041  
   0.460977000    -0.1988027   -0.7016830  
   0.462976900    -0.3019837   -0.6614127  
   0.464976800    -0.3969668   -0.6058646  
   0.466976700    -0.4815937   -0.5371845  
   0.468976600    -0.5543137   -0.4565306  
   0.470976500    -0.6134832   -0.3658261  
   0.472976400    -0.6584484   -0.2675862  
   0.474976300    -0.6874827   -0.1638383  
   0.476976200    -0.7002290   -0.0566754  
   0.478976100    -0.6963397    0.0513160  
   0.480976000    -0.6757954    0.1572308  
   0.482975900    -0.6391485    0.2588455  
   0.484975800    -0.5867657    0.3542217  
   0.486975700    -0.5191323    0.4407939  
   0.488975600    -0.4381547    0.5162432  
   0.490975500    -0.3452459    0.5781443  
   0.492975400    -0.2422342    0.6243593  
   0.494975300    -0.1320746    0.6528150  
   0.496975200    -0.0178503    0.6626486  
   0.498975100     0.0966093    0.6525896  
   0.500975000     0.2078355    0.6227114  
   0.502974900     0.3118052    0.5738081  
   0.504974800     0.4056305    0.5081950  
   0.506974700     0.4860665    0.4272858  
   0.508974600     0.5505960    0.3338654  
   0.510974500     0.5971212    0.2319767  
   0.512974400     0.6255700    0.1260790  
   0.514974300     0.6340578    0.0197435  
   0.516974200     0.6266852   -0.0842656  
   0.518974100     0.6037838   -0.1827655  
   0.520974000     0.5678071   -0.2749299  
   0.522973900     0.5200980   -0.3589385  
   0.524973800     0.4622219   -0.4338827  
   0.526973700     0.3954863   -0.5003515  
   0.528973600     0.3207207   -0.5564448  
   0.530973500     0.2389648   -0.6030018  
   0.532973400     0.1510437   -0.6381069  
   0.534973300     0.0581016   -0.6606061  
   0.536973200    -0.0388465   -0.6700645  
   0.538973100    -0.1372454   -0.6644910  
   0.540973000    -0.2343718   -0.6442871  
   0.542972900    -0.3289784   -0.6087744  
   0.544972800    -0.4178699   -0.5584159  
   0.546972700    -0.4991238   -0.4935724  
   0.548972600    -0.5698138   -0.4155883  
   0.550972500    -0.6274632   -0.3271241  
   0.552972400    -0.6706721   -0.2291807  
   0.554972300    -0.6977069   -0.1249099  
   0.556972200    -0.7075518   -0.0173521  
   0.558972100    -0.7001131    0.0913586  
   0.560972000    -0.6753041    0.1974939  
   0.562971900    -0.6336252    0.2985125  
   0.564971800    -0.5763860    0.3916959  
   0.566971700    -0.5047077    0.4749099  
   0.568971600    -0.4204952    0.5458630  
   0.570971500    -0.3255604    0.6026900  
   0.572971400    -0.2218292    0.6439894  
   0.574971300    -0.1122626    0.6679549  
   0.576971200     0.0010911    0.6738189  
   0.578971100     0.1147043    0.6609226  
   0.580971000     0.2255386    0.6291639  
   0.582970900     0.3293250    0.5792169  
   0.584970800     0.4242412    0.5126107  
   0.586970700     0.5063660    0.4307004  
   0.588970600     0.5740326    0.3357031  
   0.590970500     0.6245219    0.2306606  
   0.592970400     0.6566051    0.1184433  
   0.594970300     0.6691445    0.0022377  
   0.596970200     0.6615983   -0.1141225  
   0.598970100     0.6348127   -0.2277189  
   0.600970000     0.5891302   -0.3345406  
   0.602969900     0.5263330   -0.4319117  
   0.604969800     0.4484432   -0.5170409  
   0.606969700     0.3576369   -0.5874780  
   0.608969600     0.2570381   -0.6417831  
   0.610969500     0.1493652   -0.6783338  
   0.612969400     0.0381937   -0.6963390  
   0.614969300    -0.0732013   -0.6959921  
   0.616969200    -0.1819722   -0.6781502  
   0.618969100    -0.2852233   -0.6436624  
   0.620969000    -0.3805628   -0.5940785  
   0.622968900    -0.4668653   -0.5304141  
   0.624968800    -0.5418554   -0.4548724  
   0.626968700    -0.6043568   -0.3690410  
   0.628968600    -0.6527869   -0.2748478  
   0.630968500    -0.6861899   -0.1746682  
   0.632968400    -0.7042137   -0.0707928  
   0.634968300    -0.7063877    0.0348653  
   0.636968200    -0.6924911    0.1394513  
   0.638968100    -0.6630182    0.2409866  
   0.640968000    -0.6183335    0.3375150  
   0.642967900    -0.5594159    0.4261882  
   0.644967800    -0.4872324    0.5053724  
   0.646967700    -0.4036091    0.5731792  
   0.648967600    -0.3096030    0.6277776  
   0.650967500    -0.2081662    0.6670839  
   0.652967400    -0.1013806    0.6904606  
   0.654967300     0.0088123    0.6970127  
   0.656967200     0.1192948    0.6863109  
   0.658967100     0.2274880    0.6575633  
   0.660967000     0.3309440    0.6116247  
   0.662966900     0.4267114    0.5487359  
   0.664966800     0.5117365    0.4705791  
   0.666966700     0.5836681    0.3781222  
   0.668966600     0.6394566    0.2744919  
   0.670966500     0.6771523    0.1629530  
   0.672966400     0.6969367    0.0464369  
   0.674966300     0.6959600   -0.0717926  
   0.676966200     0.6750334   -0.1876575  
   0.678966100     0.6354225   -0.2975782  
   0.680966000     0.5782655   -0.3990728  
   0.682965900     0.5057077   -0.4890806  
   0.684965800     0.4201818   -0.5655742  
   0.686965700     0.3239317   -0.6262522  
   0.688965600     0.2200055   -0.6704374  
   0.690965500     0.1111800   -0.6958379  
   0.692965400     0.0012497   -0.7044638  
   0.694965300    -0.1075530   -0.6958451  
   0.696965200    -0.2125013   -0.6705212  
   0.698965100    -0.3116540   -0.6299567  
   0.700965000    -0.4025308   -0.5748737  
   0.702964900    -0.4832115   -0.5071223  
   0.704964800    -0.5523411   -0.4281210  
   0.706964700    -0.6086414   -0.3402618  
   0.708964600    -0.6506960   -0.2448289  
   0.710964500    -0.6785889   -0.1443499  
   0.712964400    -0.6901114   -0.0412401  
   0.714964300    -0.6860123    0.0629003  
   0.716964200    -0.6659327    0.1647878  
   0.718964100    -0.6307905    0.2627521  
   0.720964000    -0.5810912    0.3537003  
   0.722963900    -0.5179306    0.4367584  
   0.724963800    -0.4424414    0.5089098  
   0.726963700    -0.3561162    0.5688632  
   0.728963600    -0.2605151    0.6146334  
   0.730963500    -0.1584157    0.6447139  
   0.732963400    -0.0529188    0.6581326  
   0.734963300     0.0548089    0.6543177  
   0.736963200     0.1761394    0.6286087  
   0.738963100     0.2914750    0.5804651  
   0.740963000     0.3960839    0.5115867  
   0.742962900     0.4855590    0.4247993  
   0.744962800     0.5570678    0.3226103  
   0.746962700     0.6078996    0.2097118  
   0.748962600     0.6370278    0.0897737  
   0.750962500     0.6020103    0.1851485  
   0.752962400     0.6270274    0.0665939  
   0.754962300     0.6302196   -0.0539960  
   0.756962200     0.6114380   -0.1721770  
   0.758962100     0.5721534   -0.2842183  
   0.760962000     0.5134951   -0.3870972  
   0.762961900     0.4417964   -0.4734901  
   0.764961800     0.3644482   -0.5407982  
   0.766961700     0.2777170   -0.5954075  
   0.768961600     0.1836616   -0.6365180  
   0.770961500     0.0845298   -0.6623990  
   0.772961400    -0.0177049   -0.6730527  
   0.774961300    -0.1199902   -0.6679078  
   0.776961200    -0.2211577   -0.6470083  
   0.778961100    -0.3179635   -0.6107761  
   0.780961000    -0.4087191   -0.5594181  
   0.782960900    -0.4903477   -0.4944725  
   0.784960800    -0.5611883   -0.4169184  
   0.786960700    -0.6191646   -0.3289045  
   0.788960600    -0.6625276   -0.2327063  
   0.790960500    -0.6903596   -0.1304818  
   0.792960400    -0.7017707   -0.0254075  
   0.794960300    -0.6967388    0.0803539  
   0.796960200    -0.6750919    0.1839845  
   0.798960100    -0.6374716    0.2827615  
   0.800960000    -0.5851287    0.3743840  
   0.802959900    -0.5188164    0.4570228  
   0.804959800    -0.4404476    0.5279129  
   0.806959700    -0.3521876    0.5864642  
   0.808959600    -0.2553450    0.6300532  
   0.810959500    -0.1531011    0.6583728  
   0.812959400    -0.0468363    0.6704307  
   0.814959300     0.0602503    0.6653306  
   0.816959200     0.1656782    0.6436360  
   0.818959100     0.2667760    0.6052740  
   0.820959000     0.3611660    0.5509417  
   0.822958900     0.4460220    0.4819407  
   0.824958800     0.5187822    0.3995992  
   0.826958700     0.5778375    0.3061894  
   0.828958600     0.6209943    0.2038202  
   0.830958500     0.6466670    0.0956030  
   0.832958400     0.6544188   -0.0157399  
   0.834958300     0.6436239   -0.1267112  
   0.836958200     0.6146579   -0.2342528  
   0.838958100     0.5684782   -0.3360395  
   0.840958000     0.5061283   -0.4285423  
   0.842957900     0.4293323   -0.5097029  
   0.844957800     0.3404314   -0.5768699  
   0.846957700     0.2420019   -0.6283664  
   0.848957600     0.1365605   -0.6627966  
   0.850957500     0.0277393   -0.6795086  
   0.852957400    -0.0820672   -0.6784992  
   0.854957300    -0.1894379   -0.6598758  
   0.856957200    -0.2918458   -0.6243871  
   0.858957100    -0.3867164   -0.5736583  
   0.860957000    -0.4714651   -0.5092137  
   0.862956900    -0.5444403   -0.4332943  
   0.864956800    -0.6045731   -0.3480098  
   0.866956700    -0.6506255   -0.2551829  
   0.868956600    -0.6812208   -0.1573176  
   0.870956500    -0.6975822   -0.0563477  
   0.872956400    -0.6984720    0.0453474  
   0.874956300    -0.6841874    0.1460146  
   0.876956200    -0.6547740    0.2441050  
   0.878956100    -0.6115435    0.3364436  
   0.880956000    -0.5547257    0.4217059  
   0.882955900    -0.4852962    0.4977055  
   0.884955800    -0.4053054    0.5630103  
   0.886955700    -0.3158661    0.6157809  
   0.888955600    -0.2190616    0.6547336  
   0.890955500    -0.1167232    0.6785592  
   0.892955400    -0.0114828    0.6863045  
   0.894955300     0.0943996    0.6781039  
