! MS46122B
! 2250307/22442219
! 7/21/2025 12:04:05 PM
! C:\USERS\SPARKY\DOCUMENTS\VNA_DATA\JULY21_2025\295K\PORT1_MOS1.S1P
! CHANNEL.1
! TR.MEASUREMENT
! RAW.DATA
# GHZ S RI R 50.0
! FREQ.GHZ         S11RE         S11IM         
!; PortSelection: Port_1
   0.001000000     1.0455100   -0.0709654  
   0.002999900     0.9635897   -0.1936284  
   0.004999800     0.9028863   -0.2982102  
   0.006999700     0.8352827   -0.3955634  
   0.008999600     0.7554064   -0.4898894  
   0.010999500     0.6610500   -0.5787286  
   0.012999400     0.5466862   -0.6589038  
   0.014999300     0.4071709   -0.7236975  
   0.016999200     0.2375200   -0.7599029  
   0.018999100     0.0364490   -0.7481578  
   0.020999000    -0.1839474   -0.6571678  
   0.022998900    -0.3825374   -0.4560573  
   0.024998800    -0.4660358   -0.1488336  
   0.026998700    -0.4094492    0.2015589  
   0.028998600    -0.1697817    0.4615576  
   0.030998500     0.1383207    0.5620571  
   0.032998400     0.3907985    0.5142192  
   0.034998300     0.6208965    0.4065911  
   0.036998200     0.7531615    0.2576241  
   0.038998100     0.8277749    0.1042284  
   0.040998000     0.8598470   -0.0411830  
   0.042997900     0.8611534   -0.1737271  
   0.044997800     0.8157579   -0.2678756  
   0.046997700     0.8026431   -0.3972815  
   0.048997600     0.7537128   -0.4896433  
   0.050997500     0.6958535   -0.5695080  
   0.052997400     0.6311066   -0.6384596  
   0.054997300     0.5611285   -0.6970847  
   0.056997200     0.4854423   -0.7474537  
   0.058997100     0.4069407   -0.7880648  
   0.060997000     0.3248592   -0.8200748  
   0.062996900     0.2402977   -0.8433975  
   0.064996800     0.1531239   -0.8571358  
   0.066996700     0.0637003   -0.8620628  
   0.068996600    -0.0268677   -0.8566706  
   0.070996500    -0.1183017   -0.8418690  
   0.072996400    -0.2100929   -0.8144947  
   0.074996300    -0.3003951   -0.7754938  
   0.076996200    -0.3881907   -0.7236674  
   0.078996100    -0.4718884   -0.6587371  
   0.080996000    -0.5490845   -0.5795874  
   0.082995900    -0.6175005   -0.4862765  
   0.084995800    -0.6730335   -0.3790595  
   0.086995700    -0.7141845   -0.2589840  
   0.088995600    -0.7360390   -0.1274444  
   0.090995500    -0.7349880    0.0124369  
   0.092995400    -0.7082840    0.1566498  
   0.094995300    -0.6515382    0.2991033  
   0.096995200    -0.5643582    0.4325354  
   0.098995100    -0.4473775    0.5485623  
   0.100995000    -0.3032553    0.6408768  
   0.102994900    -0.1415144    0.6990606  
   0.104994800     0.0302257    0.7198865  
   0.106994700     0.2014001    0.7013837  
   0.108994600     0.3626785    0.6472177  
   0.110994500     0.5052955    0.5610174  
   0.112994400     0.6230389    0.4496847  
   0.114994300     0.7121873    0.3209812  
   0.116994200     0.7716327    0.1827235  
   0.118994100     0.8022905    0.0418136  
   0.120994000     0.8080183   -0.0965324  
   0.122993900     0.7885638   -0.2278529  
   0.124993800     0.7490908   -0.3488869  
   0.126993700     0.6931314   -0.4576632  
   0.128993600     0.6227411   -0.5522086  
   0.130993500     0.5424997   -0.6329117  
   0.132993400     0.4541422   -0.6992644  
   0.134993300     0.3599651   -0.7510939  
   0.136993200     0.2619021   -0.7888564  
   0.138993100     0.1612513   -0.8126704  
   0.140993000     0.0600348   -0.8228226  
   0.142992900    -0.0410562   -0.8197684  
   0.144992800    -0.1399812   -0.8054851  
   0.146992700    -0.2365735   -0.7771198  
   0.148992600    -0.3287341   -0.7364423  
   0.150992500    -0.4144446   -0.6828976  
   0.152992400    -0.4944017   -0.6189665  
   0.154992300    -0.5661145   -0.5445616  
   0.156992200    -0.6282331   -0.4594986  
   0.158992100    -0.6792603   -0.3651051  
   0.160992000    -0.7173939   -0.2623883  
   0.162991900    -0.7412973   -0.1524358  
   0.164991800    -0.7489716   -0.0372963  
   0.166991700    -0.7391224    0.0800398  
   0.168991600    -0.7105873    0.1982348  
   0.170991500    -0.6622366    0.3138870  
   0.172991400    -0.5943417    0.4223894  
   0.174991300    -0.5070007    0.5203865  
   0.176991200    -0.4013384    0.6043537  
   0.178991100    -0.2801751    0.6699497  
   0.180991000    -0.1470562    0.7140960  
   0.182990900    -0.0061920    0.7330280  
   0.184990800     0.1376325    0.7250840  
   0.186990700     0.2783369    0.6906207  
   0.188990600     0.3909974    0.6411518  
   0.190990500     0.5245226    0.5489435  
   0.192990400     0.6260209    0.4437416  
   0.194990300     0.7038295    0.3253865  
   0.196990200     0.7579583    0.1978029  
   0.198990100     0.7878758    0.0653725  
   0.200990000     0.7939356   -0.0682102  
   0.202989900     0.7776020   -0.1980153  
   0.204989800     0.7405254   -0.3200118  
   0.206989700     0.6866133   -0.4316952  
   0.208989600     0.6163817   -0.5301790  
   0.210989500     0.5333583   -0.6147957  
   0.212989400     0.4402909   -0.6848533  
   0.214989300     0.3397216   -0.7385119  
   0.216989200     0.2349499   -0.7761859  
   0.218989100     0.1275881   -0.7979705  
   0.220989000     0.0195837   -0.8043991  
   0.222988900    -0.0874997   -0.7954396  
   0.224988800    -0.1917063   -0.7713045  
   0.226988700    -0.2906324   -0.7336134  
   0.228988600    -0.3826804   -0.6826426  
   0.230988500    -0.4671917   -0.6195616  
   0.232988400    -0.5415542   -0.5437858  
   0.234988300    -0.6059682   -0.4580884  
   0.236988200    -0.6579230   -0.3634185  
   0.238988100    -0.6963216   -0.2608159  
   0.240988000    -0.7194155   -0.1528550  
   0.242987900    -0.7259946   -0.0411563  
   0.244987800    -0.7154831    0.0724584  
   0.246987700    -0.6869040    0.1853365  
   0.248987600    -0.6397770    0.2950874  
   0.250987500    -0.5740060    0.3979518  
   0.252987400    -0.4905787    0.4897164  
   0.254987300    -0.3914130    0.5673020  
   0.256987200    -0.2786530    0.6280307  
   0.258987100    -0.1550446    0.6699468  
   0.260987000    -0.0234664    0.6878234  
   0.262986900     0.1109069    0.6817835  
   0.264986800     0.2430365    0.6510979  
   0.266986700     0.3682168    0.5961292  
   0.268986600     0.4806696    0.5192631  
   0.270986500     0.5764175    0.4235754  
   0.272986400     0.6526341    0.3127652  
   0.274986300     0.7067658    0.1915110  
   0.276986200     0.7380597    0.0637344  
   0.278986100     0.7462335   -0.0656577  
   0.280986000     0.7319358   -0.1922971  
   0.282985900     0.6968914   -0.3127704  
   0.284985800     0.6433223   -0.4228291  
   0.286985700     0.5742189   -0.5205644  
   0.288985600     0.4926595   -0.6038677  
   0.290985500     0.4012583   -0.6716104  
   0.292985400     0.3034346   -0.7234871  
   0.294985300     0.2007501   -0.7599118  
   0.296985200     0.0955638   -0.7807727  
   0.298985100    -0.0103838   -0.7860411  
   0.300985000    -0.1151078   -0.7763816  
   0.302984900    -0.2156862   -0.7527440  
   0.304984800    -0.3113562   -0.7159915  
   0.306984700    -0.4000639   -0.6672320  
   0.308984600    -0.4803161   -0.6075975  
   0.310984500    -0.5516862   -0.5382900  
   0.312984400    -0.6132395   -0.4599730  
   0.314984300    -0.6642614   -0.3739211  
   0.316984200    -0.7036772   -0.2809878  
   0.318984100    -0.7302166   -0.1815358  
   0.320984000    -0.7425101   -0.0773110  
   0.322983900    -0.7397112    0.0299704  
   0.324983800    -0.7198378    0.1371649  
   0.326983700    -0.6828651    0.2407424  
   0.328983600    -0.6286626    0.3376728  
   0.330983500    -0.5598066    0.4236962  
   0.332983400    -0.4789725    0.4968349  
   0.334983300    -0.3892781    0.5561501  
   0.336983200    -0.2925625    0.6013169  
   0.338983100    -0.1905893    0.6326367  
   0.340983000    -0.0848448    0.6492311  
   0.342982900     0.0235067    0.6507411  
   0.344982800     0.1327329    0.6355895  
   0.346982700     0.2405509    0.6029012  
   0.348982600     0.3429445    0.5517214  
   0.350982500     0.4371240    0.4842515  
   0.352982400     0.5197821    0.4007692  
   0.354982300     0.5897334    0.2997800  
   0.356982200     0.6439197    0.1759721  
   0.358982100     0.6729411    0.0437295  
   0.360982000     0.6754408   -0.0917788  
   0.362981900     0.6514740   -0.2249499  
   0.364981800     0.6018505   -0.3510303  
   0.366981700     0.5292333   -0.4645781  
   0.368981600     0.4358414   -0.5616171  
   0.370981500     0.3264993   -0.6385157  
   0.372981400     0.2048863   -0.6927675  
   0.374981300     0.0762813   -0.7229807  
   0.376981200     0.1826794   -0.7025588  
   0.378981100     0.0546525   -0.7272845  
   0.380981000    -0.0744875   -0.7278398  
   0.382980900    -0.1892970   -0.7080427  
   0.384980800    -0.2935520   -0.6728188  
   0.386980700    -0.3900194   -0.6214737  
   0.388980600    -0.4775093   -0.5565688  
   0.390980500    -0.5526999   -0.4800408  
   0.392980400    -0.6151551   -0.3939831  
   0.394980300    -0.6640984   -0.3000778  
   0.396980200    -0.6982299   -0.2003106  
   0.398980100    -0.7173411   -0.0963464  
   0.400980000    -0.7211049    0.0091191  
   0.402979900    -0.7092535    0.1148936  
   0.404979800    -0.6816192    0.2179030  
   0.406979700    -0.6391396    0.3161982  
   0.408979600    -0.5818601    0.4079318  
   0.410979500    -0.5103545    0.4910259  
   0.412979400    -0.4255998    0.5633926  
   0.414979300    -0.3292836    0.6215996  
   0.416979200    -0.2241499    0.6655330  
   0.418979100    -0.1124416    0.6925441  
   0.420979000     0.0031571    0.7015964  
   0.422978900     0.1204398    0.6914049  
   0.424978800     0.2356329    0.6621183  
   0.426978700     0.3454270    0.6135182  
   0.428978600     0.4462883    0.5470555  
   0.430978500     0.5345432    0.4641814  
   0.432978400     0.6078435    0.3676453  
   0.434978300     0.6649998    0.2603820  
   0.436978200     0.7021755    0.1448391  
   0.438978100     0.7191010    0.0249756  
   0.440978000     0.7158328   -0.0958630  
   0.442977900     0.6925198   -0.2138025  
   0.444977800     0.6500573   -0.3252727  
   0.446977700     0.5901078   -0.4270063  
   0.448977600     0.5150717   -0.5167533  
   0.450977500     0.4271893   -0.5925721  
   0.452977400     0.3290967   -0.6526725  
   0.454977300     0.2226088   -0.6956505  
   0.456977200     0.1118371   -0.7209961  
   0.458977100    -0.0003846   -0.7281661  
   0.460977000    -0.1116354   -0.7176741  
   0.462976900    -0.2184158   -0.6903611  
   0.464976800    -0.3185473   -0.6472175  
   0.466976700    -0.4101683   -0.5894843  
   0.468976600    -0.4913899   -0.5190871  
   0.470976500    -0.5606304   -0.4373679  
   0.472976400    -0.6163444   -0.3461700  
   0.474976300    -0.6577259   -0.2481198  
   0.476976200    -0.6834331   -0.1451282  
   0.478976100    -0.6930853   -0.0392904  
   0.480976000    -0.6863747    0.0661823  
   0.482975900    -0.6633909    0.1696282  
   0.484975800    -0.6250492    0.2687787  
   0.486975700    -0.5709701    0.3617819  
   0.488975600    -0.5024393    0.4456957  
   0.490975500    -0.4207434    0.5183878  
   0.492975400    -0.3276856    0.5772102  
   0.494975300    -0.2250102    0.6205256  
   0.496975200    -0.1156881    0.6460298  
   0.498975100    -0.0034558    0.6530749  
   0.500975000     0.1088760    0.6406482  
   0.502974900     0.2172852    0.6089453  
   0.504974800     0.3184126    0.5587135  
   0.506974700     0.4091523    0.4922284  
   0.508974600     0.4865305    0.4107334  
   0.510974500     0.5476055    0.3183193  
   0.512974400     0.5914065    0.2184549  
   0.514974300     0.6160541    0.1152865  
   0.516974200     0.6244256    0.0121171  
   0.518974100     0.6166665   -0.0885562  
   0.520974000     0.5941461   -0.1842552  
   0.522973900     0.5595981   -0.2739292  
   0.524973800     0.5134960   -0.3558492  
   0.526973700     0.4572095   -0.4306146  
   0.528973600     0.3919706   -0.4962044  
   0.530973500     0.3182999   -0.5530593  
   0.532973400     0.2375600   -0.5996861  
   0.534973300     0.1501652   -0.6348587  
   0.536973200     0.0569830   -0.6577527  
   0.538973100    -0.0392877   -0.6667648  
   0.540973000    -0.1366545   -0.6606091  
   0.542972900    -0.2336784   -0.6402704  
   0.544972800    -0.3271027   -0.6043386  
   0.546972700    -0.4154838   -0.5535181  
   0.548972600    -0.4955042   -0.4887159  
   0.550972500    -0.5648643   -0.4112539  
   0.552972400    -0.6212922   -0.3229132  
   0.554972300    -0.6632627   -0.2260731  
   0.556972200    -0.6893159   -0.1231956  
   0.558972100    -0.6983353   -0.0170504  
   0.560972000    -0.6909821    0.0892602  
   0.562971900    -0.6664598    0.1932499  
   0.564971800    -0.6257025    0.2922783  
   0.566971700    -0.5694990    0.3835922  
   0.568971600    -0.4999276    0.4654210  
   0.570971500    -0.4176574    0.5354577  
   0.572971400    -0.3246033    0.5918840  
   0.574971300    -0.2228171    0.6332026  
   0.576971200    -0.1148995    0.6575586  
   0.578971100    -0.0034948    0.6641979  
   0.580971000     0.1081509    0.6525059  
   0.582970900     0.2171264    0.6223778  
   0.584970800     0.3196405    0.5745999  
   0.586970700     0.4132945    0.5102063  
   0.588970600     0.4951490    0.4307494  
   0.590970500     0.5628054    0.3381862  
   0.592970400     0.6137927    0.2358428  
   0.594970300     0.6470458    0.1255506  
   0.596970200     0.6609642    0.0114639  
   0.598970100     0.6550534   -0.1034414  
   0.600970000     0.6304797   -0.2155698  
   0.602969900     0.5869643   -0.3215874  
   0.604969800     0.5262334   -0.4188408  
   0.606969700     0.4503556   -0.5037934  
   0.608969600     0.3615903   -0.5750265  
   0.610969500     0.2632892   -0.6295791  
   0.612969400     0.1575204   -0.6670740  
   0.614969300     0.0483932   -0.6860802  
   0.616969200    -0.0610589   -0.6872962  
   0.618969100    -0.1677812   -0.6712070  
   0.620969000    -0.2694369   -0.6389830  
   0.622968900    -0.3642872   -0.5914615  
   0.624968800    -0.4501361   -0.5302389  
   0.626968700    -0.5253310   -0.4567158  
   0.628968600    -0.5880860   -0.3730036  
   0.630968500    -0.6369594   -0.2810557  
   0.632968400    -0.6714276   -0.1830731  
   0.634968300    -0.6905499   -0.0810173  
   0.636968200    -0.6939833    0.0224087  
   0.638968100    -0.6820360    0.1251452  
   0.640968000    -0.6544764    0.2254907  
   0.642967900    -0.6121702    0.3205237  
   0.644967800    -0.5559901    0.4084255  
   0.646967700    -0.4866422    0.4872476  
   0.648967600    -0.4058169    0.5549280  
   0.650967500    -0.3153591    0.6097828  
   0.652967400    -0.2171736    0.6502204  
   0.654967300    -0.1129369    0.6752748  
   0.656967200    -0.0054801    0.6839783  
   0.658967100     0.1030198    0.6758094  
   0.660967000     0.2097840    0.6500667  
   0.662966900     0.3126430    0.6070978  
   0.664966800     0.4082911    0.5472821  
   0.666966700     0.4938872    0.4721101  
   0.668966600     0.5663053    0.3828965  
   0.670966500     0.6233159    0.2825276  
   0.672966400     0.6642565    0.1741655  
   0.674966300     0.6852573    0.0600224  
   0.676966200     0.6871256   -0.0555231  
   0.678966100     0.6690086   -0.1695502  
   0.680966000     0.6328628   -0.2788535  
   0.682965900     0.5792829   -0.3798673  
   0.684965800     0.5103732   -0.4699466  
   0.686965700     0.4275602   -0.5472484  
   0.688965600     0.3346821   -0.6095838  
   0.690965500     0.2331585   -0.6545710  
   0.692965400     0.1272894   -0.6832675  
   0.694965300     0.0193753   -0.6944462  
   0.696965200    -0.0874124   -0.6887347  
   0.698965100    -0.1914434   -0.6666381  
   0.700965000    -0.2901976   -0.6290771  
   0.702964900    -0.3808486   -0.5772743  
   0.704964800    -0.4618905   -0.5127317  
   0.706964700    -0.5318276   -0.4368205  
   0.708964600    -0.5894567   -0.3515868  
   0.710964500    -0.6338156   -0.2594281  
   0.712964400    -0.6629421   -0.1614142  
   0.714964300    -0.6770020   -0.0605483  
   0.716964200    -0.6758423    0.0411188  
   0.718964100    -0.6592082    0.1409405  
   0.720964000    -0.6277325    0.2374483  
   0.722963900    -0.5823095    0.3277816  
   0.724963800    -0.5233663    0.4108177  
   0.726963700    -0.4518639    0.4837846  
   0.728963600    -0.3694339    0.5454278  
   0.730963500    -0.2779492    0.5931426  
   0.732963400    -0.1793346    0.6262027  
   0.734963300    -0.0761502    0.6430866  
   0.736963200     0.0447787    0.6421856  
   0.738963100     0.1646079    0.6186469  
   0.740963000     0.2785142    0.5733981  
   0.742962900     0.3816735    0.5072849  
   0.744962800     0.4704712    0.4235720  
   0.746962700     0.5424097    0.3248592  
   0.748962600     0.5943445    0.2147885  
   0.750962500     0.5411071    0.3018622  
   0.752962400     0.5890619    0.1920391  
   0.754962300     0.6158201    0.0763526  
   0.756962200     0.6213679   -0.0419355  
   0.758962100     0.6053308   -0.1582486  
   0.760962000     0.5688443   -0.2695087  
   0.762961900     0.5162218   -0.3671710  
   0.764961800     0.4544619   -0.4473615  
   0.766961700     0.3811991   -0.5169876  
   0.768961600     0.2980314   -0.5745979  
   0.770961500     0.2072533   -0.6190038  
   0.772961400     0.1107225   -0.6486448  
   0.774961300     0.0106198   -0.6633202  
   0.776961200    -0.0906713   -0.6624345  
   0.778961100    -0.1911641   -0.6460751  
   0.780961000    -0.2881668   -0.6139191  
   0.782960900    -0.3795006   -0.5669208  
   0.784960800    -0.4625257   -0.5059543  
   0.786960700    -0.5354418   -0.4322219  
   0.788960600    -0.5958104   -0.3479511  
   0.790960500    -0.6419251   -0.2551288  
   0.792960400    -0.6732927   -0.1561672  
   0.794960300    -0.6885728   -0.0536799  
   0.796960200    -0.6877965    0.0499820  
   0.798960100    -0.6708546    0.1520492  
   0.800960000    -0.6383352    0.2499331  
   0.802959900    -0.5909908    0.3419385  
   0.804959800    -0.5299094    0.4254030  
   0.806959700    -0.4568933    0.4983854  
   0.808959600    -0.3731626    0.5593094  
   0.810959500    -0.2807928    0.6062522  
   0.812959400    -0.1819545    0.6389107  
   0.814959300    -0.0788300    0.6556944  
   0.816959200     0.0258930    0.6559493  
   0.818959100     0.1301202    0.6400145  
   0.820959000     0.2308319    0.6075609  
   0.822958900     0.3260271    0.5591444  
   0.824958800     0.4127803    0.4960337  
   0.826958700     0.4882686    0.4191541  
   0.828958600     0.5509570    0.3307548  
   0.830958500     0.5983862    0.2329364  
   0.832958400     0.6294025    0.1281722  
   0.834958300     0.6428826    0.0196964  
   0.836958200     0.6382259   -0.0896187  
   0.838958100     0.6156958   -0.1966821  
   0.840958000     0.5757197   -0.2992061  
   0.842957900     0.5193774   -0.3932856  
   0.844957800     0.4481737   -0.4774265  
   0.846957700     0.3643223   -0.5479998  
   0.848957600     0.2700119   -0.6039927  
   0.850957500     0.1681106   -0.6432384  
   0.852957400     0.0618595   -0.6652299  
   0.854957300    -0.0461860   -0.6696547  
   0.856957200    -0.1524720   -0.6567131  
   0.858957100    -0.2550427   -0.6268335  
   0.860957000    -0.3502885   -0.5818141  
   0.862956900    -0.4367642   -0.5229292  
   0.864956800    -0.5119659   -0.4523689  
   0.866956700    -0.5749329   -0.3717959  
   0.868956600    -0.6241898   -0.2832396  
   0.870956500    -0.6597564   -0.1888044  
   0.872956400    -0.6805915   -0.0904633  
   0.874956300    -0.6866206    0.0092499  
   0.876956200    -0.6776913    0.1092580  
   0.878956100    -0.6535165    0.2065529  
   0.880956000    -0.6156713    0.2992539  
   0.882955900    -0.5643001    0.3854944  
   0.884955800    -0.5002261    0.4632585  
   0.886955700    -0.4251187    0.5311251  
   0.888955600    -0.3405533    0.5869416  
   0.890955500    -0.2479517    0.6298621  
   0.892955400    -0.1496872    0.6584956  
   0.894955300    -0.0474018    0.6716354  
