! MS46122B
! 2250307/22442219
! 7/26/2025 10:30:56 AM
! C:\USERS\SPARKY\DOCUMENTS\VNA_DATA\JULY26_2025\295K\PORT2_MOS4_REPEAT1.S1P
! CHANNEL.1
! TR.MEASUREMENT
! RAW.DATA
# GHZ S RI R 50.0
! FREQ.GHZ         S11RE         S11IM         
!; PortSelection: Port_1
   0.001000000     1.0460640   -0.0715380  
   0.002999900     0.9642447   -0.1940700  
   0.004999800     0.9033177   -0.2988013  
   0.006999700     0.8356573   -0.3961263  
   0.008999600     0.7556472   -0.4906387  
   0.010999500     0.6610509   -0.5797025  
   0.012999400     0.5461419   -0.6602107  
   0.014999300     0.4054977   -0.7252338  
   0.016999200     0.2340783   -0.7612872  
   0.018999100     0.0301237   -0.7477691  
   0.020999000    -0.1930051   -0.6523063  
   0.022998900    -0.3916661   -0.4428189  
   0.024998800    -0.4681279   -0.1263312  
   0.026998700    -0.3952904    0.2281467  
   0.028998600    -0.1402931    0.4790407  
   0.030998500     0.1736145    0.5636713  
   0.032998400     0.4218315    0.5028209  
   0.034998300     0.6450939    0.3854677  
   0.036998200     0.7691352    0.2326896  
   0.038998100     0.8366724    0.0782013  
   0.040998000     0.8630502   -0.0668023  
   0.042997900     0.8598590   -0.1983628  
   0.044997800     0.8114876   -0.2899024  
   0.046997700     0.7952214   -0.4185704  
   0.048997600     0.7436777   -0.5088535  
   0.050997500     0.6837996   -0.5869651  
   0.052997400     0.6182137   -0.6533310  
   0.054997300     0.5450393   -0.7117842  
   0.056997200     0.4685780   -0.7599738  
   0.058997100     0.3886225   -0.7990093  
   0.060997000     0.3053197   -0.8292705  
   0.062996900     0.2192082   -0.8505047  
   0.064996800     0.1306985   -0.8622770  
   0.066996700     0.0399754   -0.8647682  
   0.068996600    -0.0518114   -0.8567778  
   0.070996500    -0.1447016   -0.8388733  
   0.072996400    -0.2372028   -0.8080819  
   0.074996300    -0.3281467   -0.7651160  
   0.076996200    -0.4164968   -0.7088163  
   0.078996100    -0.4994608   -0.6387879  
   0.080996000    -0.5756982   -0.5539216  
   0.082995900    -0.6414682   -0.4543978  
   0.084995800    -0.6932370   -0.3406623  
   0.086995700    -0.7288328   -0.2143348  
   0.088995600    -0.7430384   -0.0768368  
   0.090995500    -0.7321799    0.0676963  
   0.092995400    -0.6934682    0.2146586  
   0.094995300    -0.6229063    0.3570159  
   0.096995200    -0.5210855    0.4867160  
   0.098995100    -0.3896911    0.5947397  
   0.100995000    -0.2333714    0.6743454  
   0.102994900    -0.0626950    0.7163519  
   0.104994800     0.1133414    0.7186208  
   0.106994700     0.2834708    0.6808710  
   0.108994600     0.4387936    0.6085336  
   0.110994500     0.5711994    0.5069051  
   0.112994400     0.6754605    0.3834803  
   0.114994300     0.7495849    0.2467783  
   0.116994200     0.7934862    0.1043043  
   0.118994100     0.8090371   -0.0376014  
   0.120994000     0.8008457   -0.1738731  
   0.122993900     0.7691543   -0.3012158  
   0.124993800     0.7191184   -0.4163524  
   0.126993700     0.6539930   -0.5180918  
   0.128993600     0.5762066   -0.6050432  
   0.130993500     0.4900089   -0.6777283  
   0.132993400     0.3967775   -0.7359022  
   0.134993300     0.2992705   -0.7794870  
   0.136993200     0.1984182   -0.8088312  
   0.138993100     0.0959354   -0.8243369  
   0.140993000    -0.0061072   -0.8261907  
   0.142992900    -0.1074186   -0.8148413  
   0.144992800    -0.2060869   -0.7920462  
   0.146992700    -0.3011175   -0.7549710  
   0.148992600    -0.3911005   -0.7059897  
   0.150992500    -0.4734848   -0.6440676  
   0.152992400    -0.5492178   -0.5716689  
   0.154992300    -0.6153914   -0.4887948  
   0.156992200    -0.6706447   -0.3954481  
   0.158992100    -0.7136205   -0.2934074  
   0.160992000    -0.7420326   -0.1832975  
   0.162991900    -0.7545258   -0.0675988  
   0.164991800    -0.7492644    0.0518201  
   0.166991700    -0.7246599    0.1725047  
   0.168991600    -0.6801195    0.2907953  
   0.170991500    -0.6148699    0.4036618  
   0.172991400    -0.5295297    0.5062936  
   0.174991300    -0.4250655    0.5946311  
   0.176991200    -0.3040175    0.6650448  
   0.178991100    -0.1696201    0.7128971  
   0.180991000    -0.0267861    0.7365186  
   0.182990900     0.1194675    0.7320700  
   0.184990800     0.2636543    0.6998073  
   0.186990700     0.3990667    0.6407855  
   0.188990600     0.5033205    0.5719961  
   0.190990500     0.6199503    0.4564326  
   0.192990400     0.7024195    0.3346560  
   0.194990300     0.7585748    0.2045562  
   0.196990200     0.7898507    0.0696414  
   0.198990100     0.7965376   -0.0656357  
   0.200990000     0.7802309   -0.1973814  
   0.202989900     0.7426325   -0.3213939  
   0.204989800     0.6865988   -0.4344360  
   0.206989700     0.6158095   -0.5349706  
   0.208989600     0.5313750   -0.6202298  
   0.210989500     0.4369205   -0.6904118  
   0.212989400     0.3343954   -0.7442670  
   0.214989300     0.2273777   -0.7817235  
   0.216989200     0.1180326   -0.8027279  
   0.218989100     0.0087439   -0.8079554  
   0.220989000    -0.0997569   -0.7975549  
   0.222988900    -0.2049623   -0.7716245  
   0.224988800    -0.3053926   -0.7315765  
   0.226988700    -0.3987719   -0.6779022  
   0.228988600    -0.4835593   -0.6120572  
   0.230988500    -0.5585802   -0.5341501  
   0.232988400    -0.6211817   -0.4446113  
   0.234988300    -0.6718842   -0.3466314  
   0.236988200    -0.7083623   -0.2405722  
   0.238988100    -0.7288435   -0.1288559  
   0.240988000    -0.7319066   -0.0137052  
   0.242987900    -0.7169342    0.1025816  
   0.244987800    -0.6833928    0.2172400  
   0.246987700    -0.6304476    0.3273809  
   0.248987600    -0.5582779    0.4297810  
   0.250987500    -0.4676680    0.5204501  
   0.252987400    -0.3613980    0.5951023  
   0.254987300    -0.2420429    0.6510643  
   0.256987200    -0.1124936    0.6852692  
   0.258987100     0.0231098    0.6967721  
   0.260987000     0.1599775    0.6817680  
   0.262986900     0.2925399    0.6416209  
   0.264986800     0.4160153    0.5768316  
   0.266986700     0.5251822    0.4903336  
   0.268986600     0.6155919    0.3858477  
   0.270986500     0.6845847    0.2678305  
   0.272986400     0.7303336    0.1409063  
   0.274986300     0.7522156    0.0096801  
   0.276986200     0.7508964   -0.1207263  
   0.278986100     0.7269216   -0.2471590  
   0.280986000     0.6829008   -0.3650772  
   0.282985900     0.6210095   -0.4722652  
   0.284985800     0.5445266   -0.5657334  
   0.286985700     0.4559094   -0.6440139  
   0.288985600     0.3589139   -0.7058535  
   0.290985500     0.2564130   -0.7512096  
   0.292985400     0.1504806   -0.7805973  
   0.294985300     0.0434248   -0.7941119  
   0.296985200    -0.0635683   -0.7920917  
   0.298985100    -0.1687003   -0.7751405  
   0.300985000    -0.2696873   -0.7440575  
   0.302984900    -0.3642229   -0.6996314  
   0.304984800    -0.4513248   -0.6431623  
   0.306984700    -0.5294776   -0.5754116  
   0.308984600    -0.5974621   -0.4980358  
   0.310984500    -0.6541306   -0.4127196  
   0.312984400    -0.6992539   -0.3190561  
   0.314984300    -0.7312541   -0.2196278  
   0.316984200    -0.7487745   -0.1149460  
   0.318984100    -0.7509496   -0.0058798  
   0.320984000    -0.7361103    0.1039895  
   0.322983900    -0.7031060    0.2130542  
   0.324983800    -0.6517487    0.3159189  
   0.326983700    -0.5829101    0.4083494  
   0.328983600    -0.4996535    0.4871499  
   0.330983500    -0.4057378    0.5495699  
   0.332983400    -0.3062334    0.5947952  
   0.334983300    -0.2032594    0.6248481  
   0.336983200    -0.0986800    0.6404184  
   0.338983100     0.0074993    0.6420245  
   0.340983000     0.1138424    0.6288772  
   0.342982900     0.2192575    0.5997965  
   0.344982800     0.3209479    0.5538737  
   0.346982700     0.4165286    0.4908828  
   0.348982600     0.5008868    0.4104088  
   0.350982500     0.5723431    0.3165367  
   0.352982400     0.6270103    0.2100921  
   0.354982300     0.6629906    0.0901887  
   0.356982200     0.6760750   -0.0468132  
   0.358982100     0.6614662   -0.1834676  
   0.360982000     0.6202346   -0.3142864  
   0.362981900     0.5539984   -0.4344322  
   0.364981800     0.4657158   -0.5387934  
   0.366981700     0.3589906   -0.6236550  
   0.368981600     0.2388100   -0.6857699  
   0.370981500     0.1095080   -0.7236646  
   0.372981400    -0.0235489   -0.7360458  
   0.374981300    -0.1558292   -0.7231507  
   0.376981200    -0.0439928   -0.7382290  
   0.378981100    -0.1743742   -0.7211820  
   0.380981000    -0.2988590   -0.6813052  
   0.382980900    -0.4028156   -0.6262969  
   0.384980800    -0.4918555   -0.5587597  
   0.386980700    -0.5690515   -0.4789943  
   0.388980600    -0.6331019   -0.3881194  
   0.390980500    -0.6822266   -0.2897825  
   0.392980400    -0.7154796   -0.1854717  
   0.394980300    -0.7327360   -0.0776473  
   0.396980200    -0.7338255    0.0316601  
   0.398980100    -0.7184554    0.1404603  
   0.400980000    -0.6865836    0.2464535  
   0.402979900    -0.6387998    0.3469963  
   0.404979800    -0.5759431    0.4398183  
   0.406979700    -0.4986179    0.5225610  
   0.408979600    -0.4087031    0.5930268  
   0.410979500    -0.3071431    0.6498370  
   0.412979400    -0.1962159    0.6902491  
   0.414979300    -0.0786653    0.7111835  
   0.416979200     0.0419618    0.7141723  
   0.418979100     0.1625850    0.6968619  
   0.420979000     0.2797023    0.6595470  
   0.422978900     0.3901173    0.6025127  
   0.424978800     0.4898605    0.5269899  
   0.426978700     0.5756912    0.4347166  
   0.428978600     0.6445460    0.3288099  
   0.430978500     0.6941780    0.2128543  
   0.432978400     0.7229560    0.0905414  
   0.434978300     0.7313721   -0.0347017  
   0.436978200     0.7172532   -0.1583465  
   0.438978100     0.6827646   -0.2774113  
   0.440978000     0.6287845   -0.3879767  
   0.442977900     0.5575802   -0.4869648  
   0.444977800     0.4718055   -0.5717978  
   0.446977700     0.3744252   -0.6407683  
   0.448977600     0.2683323   -0.6923246  
   0.450977500     0.1561974   -0.7251906  
   0.452977400     0.0415198   -0.7397730  
   0.454977300    -0.0736646   -0.7357844  
   0.456977200    -0.1861218   -0.7137923  
   0.458977100    -0.2933019   -0.6744965  
   0.460977000    -0.3914930   -0.6195603  
   0.462976900    -0.4793788   -0.5506107  
   0.464976800    -0.5552209   -0.4689373  
   0.466976700    -0.6170805   -0.3772439  
   0.468976600    -0.6641865   -0.2771358  
   0.470976500    -0.6951417   -0.1708091  
   0.472976400    -0.7093198   -0.0611436  
   0.474976300    -0.7062460    0.0497831  
   0.476976200    -0.6852275    0.1591788  
   0.478976100    -0.6478749    0.2640634  
   0.480976000    -0.5940023    0.3622016  
   0.482975900    -0.5249179    0.4508797  
   0.484975800    -0.4415658    0.5278990  
   0.486975700    -0.3462202    0.5910546  
   0.488975600    -0.2406235    0.6380715  
   0.490975500    -0.1276312    0.6670744  
   0.492975400    -0.0103210    0.6764330  
   0.494975300     0.1075702    0.6655753  
   0.496975200     0.2223578    0.6341010  
   0.498975100     0.3296055    0.5831614  
   0.500975000     0.4263895    0.5141051  
   0.502974900     0.5087988    0.4297106  
   0.504974800     0.5746291    0.3327487  
   0.506974700     0.6219634    0.2264164  
   0.508974600     0.6499044    0.1147077  
   0.510974500     0.6578761    0.0019751  
   0.512974400     0.6470323   -0.1083949  
   0.514974300     0.6180442   -0.2116084  
   0.516974200     0.5752075   -0.3075213  
   0.518974100     0.5200810   -0.3932861  
   0.520974000     0.4547948   -0.4684794  
   0.522973900     0.3809384   -0.5325299  
   0.524973800     0.2999157   -0.5850278  
   0.526973700     0.2134882   -0.6265801  
   0.528973600     0.1222708   -0.6557048  
   0.530973500     0.0268036   -0.6729913  
   0.532973400    -0.0710520   -0.6766676  
   0.534973300    -0.1696960   -0.6655057  
   0.536973200    -0.2677551   -0.6405246  
   0.538973100    -0.3616869   -0.5999319  
   0.540973000    -0.4492158   -0.5448054  
   0.542972900    -0.5284004   -0.4754821  
   0.544972800    -0.5965053   -0.3936000  
   0.546972700    -0.6510541   -0.3004338  
   0.548972600    -0.6904109   -0.1985684  
   0.550972500    -0.7128676   -0.0907459  
   0.552972400    -0.7176207    0.0199464  
   0.554972300    -0.7040095    0.1309920  
   0.556972200    -0.6724383    0.2388638  
   0.558972100    -0.6234345    0.3406731  
   0.560972000    -0.5585749    0.4334083  
   0.562971900    -0.4790387    0.5144803  
   0.564971800    -0.3872266    0.5819709  
   0.566971700    -0.2853729    0.6337643  
   0.568971600    -0.1760022    0.6687177  
   0.570971500    -0.0620246    0.6850362  
   0.572971400     0.0541040    0.6826401  
   0.574971300     0.1692338    0.6608723  
   0.576971200     0.2802055    0.6197627  
   0.578971100     0.3831196    0.5600780  
   0.580971000     0.4752709    0.4838504  
   0.582970900     0.5530290    0.3924953  
   0.584970800     0.6143876    0.2890192  
   0.586970700     0.6568257    0.1772824  
   0.588970600     0.6798584    0.0593926  
   0.590970500     0.6823255   -0.0603701  
   0.592970400     0.6645263   -0.1788622  
   0.594970300     0.6266767   -0.2920436  
   0.596970200     0.5706631   -0.3966357  
   0.598970100     0.4978065   -0.4901105  
   0.600970000     0.4111570   -0.5693568  
   0.602969900     0.3126296   -0.6331154  
   0.604969800     0.2059369   -0.6790045  
   0.606969700     0.0935998   -0.7063829  
   0.608969600    -0.0211864   -0.7153389  
   0.610969500    -0.1349650   -0.7052312  
   0.612969400    -0.2446415   -0.6778470  
   0.614969300    -0.3476448   -0.6332950  
   0.616969200    -0.4412132   -0.5736708  
   0.618969100    -0.5232537   -0.5010419  
   0.620969000    -0.5929366   -0.4175489  
   0.622968900    -0.6487282   -0.3248733  
   0.624968800    -0.6897748   -0.2249777  
   0.626968700    -0.7154038   -0.1198864  
   0.628968600    -0.7247914   -0.0121699  
   0.630968500    -0.7179329    0.0956910  
   0.632968400    -0.6947125    0.2016284  
   0.634968300    -0.6554279    0.3030151  
   0.636968200    -0.6013465    0.3980605  
   0.638968100    -0.5331279    0.4842868  
   0.640968000    -0.4516202    0.5590869  
   0.642967900    -0.3594004    0.6211787  
   0.644967800    -0.2575091    0.6686946  
   0.646967700    -0.1488900    0.6998921  
   0.648967600    -0.0358615    0.7136671  
   0.650967500     0.0783659    0.7094845  
   0.652967400     0.1913443    0.6871129  
   0.654967300     0.2998967    0.6466540  
   0.656967200     0.4013520    0.5888368  
   0.658967100     0.4925177    0.5146892  
   0.660967000     0.5712114    0.4261236  
   0.662966900     0.6343619    0.3247007  
   0.664966800     0.6806366    0.2130290  
   0.666966700     0.7074381    0.0948943  
   0.668966600     0.7140198   -0.0265426  
   0.670966500     0.7000008   -0.1474287  
   0.672966400     0.6671414   -0.2639619  
   0.674966300     0.6145182   -0.3724745  
   0.676966200     0.5445905   -0.4699864  
   0.678966100     0.4609445   -0.5535329  
   0.680966000     0.3644920   -0.6217121  
   0.682965900     0.2596432   -0.6725677  
   0.684965800     0.1490914   -0.7054803  
   0.686965700     0.0358225   -0.7200402  
   0.688965600    -0.0774166   -0.7162278  
   0.690965500    -0.1871081   -0.6941090  
   0.692965400    -0.2911101   -0.6563659  
   0.694965300    -0.3868478   -0.6034303  
   0.696965200    -0.4726986   -0.5372541  
   0.698965100    -0.5468875   -0.4588581  
   0.700965000    -0.6081147   -0.3706069  
   0.702964900    -0.6549847   -0.2747112  
   0.704964800    -0.6867928   -0.1729960  
   0.706964700    -0.7027560   -0.0676439  
   0.708964600    -0.7025930    0.0391786  
   0.710964500    -0.6864319    0.1452136  
   0.712964400    -0.6537458    0.2473148  
   0.714964300    -0.6052001    0.3436860  
   0.716964200    -0.5424728    0.4314223  
   0.718964100    -0.4663911    0.5087445  
   0.720964000    -0.3790457    0.5731670  
   0.722963900    -0.2823257    0.6231580  
   0.724963800    -0.1781488    0.6573139  
   0.726963700    -0.0694675    0.6743273  
   0.728963600     0.0413600    0.6734154  
   0.730963500     0.1508127    0.6538516  
   0.732963400     0.2556962    0.6169692  
   0.734963300     0.3535578    0.5628741  
   0.736963200     0.4535740    0.4824078  
   0.738963100     0.5370659    0.3844667  
   0.740963000     0.5999985    0.2725783  
   0.742962900     0.6408640    0.1517434  
   0.744962800     0.6582325    0.0261336  
   0.746962700     0.6519158   -0.0990189  
   0.748962600     0.6230860   -0.2203517  
   0.750962500     0.6360891   -0.1224974  
   0.752962400     0.6045200   -0.2411589  
   0.754962300     0.5522273   -0.3511803  
   0.756962200     0.4813661   -0.4494662  
   0.758962100     0.3949877   -0.5328065  
   0.760962000     0.2952117   -0.5995049  
   0.762961900     0.1911634   -0.6457032  
   0.764961800     0.0901206   -0.6723531  
   0.766961700    -0.0133502   -0.6835324  
   0.768961600    -0.1180137   -0.6784646  
   0.770961500    -0.2208862   -0.6576417  
   0.772961400    -0.3190763   -0.6211441  
   0.774961300    -0.4110975   -0.5700492  
   0.776961200    -0.4942494   -0.5048918  
   0.778961100    -0.5666645   -0.4273509  
   0.780961000    -0.6261741   -0.3389567  
   0.782960900    -0.6713117   -0.2417769  
   0.784960800    -0.7008235   -0.1382446  
   0.786960700    -0.7134440   -0.0308277  
   0.788960600    -0.7089354    0.0775823  
   0.790960500    -0.6872322    0.1839079  
   0.792960400    -0.6490729    0.2855840  
   0.794960300    -0.5949935    0.3803624  
   0.796960200    -0.5271752    0.4653813  
   0.798960100    -0.4465061    0.5381929  
   0.800960000    -0.3552654    0.5978196  
   0.802959900    -0.2555212    0.6423532  
   0.804959800    -0.1498867    0.6709819  
   0.806959700    -0.0413580    0.6824993  
   0.808959600     0.0683020    0.6764519  
   0.810959500     0.1758442    0.6531557  
   0.812959400     0.2789573    0.6127344  
   0.814959300     0.3747616    0.5563365  
   0.816959200     0.4604436    0.4849507  
   0.818959100     0.5338058    0.3999963  
   0.820959000     0.5928599    0.3040440  
   0.822958900     0.6354274    0.1992929  
   0.824958800     0.6606657    0.0886006  
   0.826958700     0.6671076   -0.0253095  
   0.828958600     0.6546646   -0.1387385  
   0.830958500     0.6236617   -0.2485605  
   0.832958400     0.5751543   -0.3519340  
   0.834958300     0.5099627   -0.4454444  
   0.836958200     0.4304984   -0.5269669  
   0.838958100     0.3392288   -0.5940714  
   0.840958000     0.2381440   -0.6453637  
   0.842957900     0.1303369   -0.6789947  
   0.844957800     0.0192066   -0.6947115  
   0.846957700    -0.0925797   -0.6923433  
   0.848957600    -0.2018906   -0.6718205  
   0.850957500    -0.3061250   -0.6343558  
   0.852957400    -0.4023785   -0.5813289  
   0.854957300    -0.4886007   -0.5138826  
   0.856957200    -0.5627753   -0.4342102  
   0.858957100    -0.6232247   -0.3447840  
   0.860957000    -0.6687269   -0.2478401  
   0.862956900    -0.6987570   -0.1460582  
   0.864956800    -0.7127565   -0.0419840  
   0.866956700    -0.7110005    0.0624595  
   0.868956600    -0.6938064    0.1651180  
   0.870956500    -0.6616530    0.2637308  
   0.872956400    -0.6152033    0.3567637  
   0.874956300    -0.5553475    0.4418237  
   0.876956200    -0.4831734    0.5174680  
   0.878956100    -0.3996733    0.5820668  
   0.880956000    -0.3071253    0.6334578  
   0.882955900    -0.2070592    0.6708976  
   0.884955800    -0.1018883    0.6925903  
   0.886955700     0.0061702    0.6978250  
   0.888955600     0.1148640    0.6862022  
   0.890955500     0.2206061    0.6575955  
   0.892955400     0.3216697    0.6122355  
   0.894955300     0.4146681    0.5507322  
