! MS46122B
! 2250307/22442219
! 7/21/2025 12:10:02 PM
! C:\USERS\SPARKY\DOCUMENTS\VNA_DATA\JULY21_2025\295K\PORT6_MOS6.S1P
! CHANNEL.1
! TR.MEASUREMENT
! RAW.DATA
# GHZ S RI R 50.0
! FREQ.GHZ         S11RE         S11IM         
!; PortSelection: Port_1
   0.001000000     1.0454300   -0.0719112  
   0.002999900     0.9472535   -0.2222492  
   0.004999800     0.8240645   -0.0997386  
   0.006999700     0.5176453   -0.3817314  
   0.008999600     0.9291937   -0.0400049  
   0.010999500     0.9133899   -0.2439991  
   0.012999400     0.8740911   -0.3485982  
   0.014999300     0.8338242   -0.4291811  
   0.016999200     0.7922184   -0.4996805  
   0.018999100     0.7480761   -0.5648330  
   0.020999000     0.6985466   -0.6252519  
   0.022998900     0.6442398   -0.6809157  
   0.024998800     0.5761034   -0.6964720  
   0.026998700     0.5177434   -0.7772533  
   0.028998600     0.4439380   -0.8169875  
   0.030998500     0.3626998   -0.8495419  
   0.032998400     0.2784129   -0.8398150  
   0.034998300     0.1780479   -0.8877767  
   0.036998200     0.0746477   -0.8901466  
   0.038998100    -0.0342421   -0.8788026  
   0.040998000    -0.1475707   -0.8502669  
   0.042997900    -0.2636611   -0.8031620  
   0.044997800    -0.3551383   -0.7161860  
   0.046997700    -0.4889185   -0.6393698  
   0.048997600    -0.5875993   -0.5186632  
   0.050997500    -0.6671952   -0.3703253  
   0.052997400    -0.7174514   -0.1962300  
   0.054997300    -0.7272763   -0.0020677  
   0.056997200    -0.6859662    0.2030079  
   0.058997100    -0.5870479    0.3986906  
   0.060997000    -0.4327504    0.5651596  
   0.062996900    -0.2345084    0.6828275  
   0.064996800    -0.0119230    0.7388580  
   0.066996700     0.2115743    0.7297674  
   0.068996600     0.4155550    0.6631954  
   0.070996500     0.5857067    0.5533465  
   0.072996400     0.7149190    0.4140449  
   0.074996300     0.8024929    0.2609034  
   0.076996200     0.8520507    0.1042250  
   0.078996100     0.8685498   -0.0474319  
   0.080996000     0.8581796   -0.1901964  
   0.082995900     0.8254410   -0.3201668  
   0.084995800     0.7744753   -0.4357786  
   0.086995700     0.7109829   -0.5372469  
   0.088995600     0.6368878   -0.6245703  
   0.090995500     0.5548320   -0.6983355  
   0.092995400     0.4672400   -0.7589897  
   0.094995300     0.3738393   -0.8064241  
   0.096995200     0.2779367   -0.8408318  
   0.098995100     0.1796419   -0.8631149  
   0.100995000     0.0785679   -0.8736419  
   0.102994900    -0.0214277   -0.8717552  
   0.104994800    -0.1209357   -0.8579546  
   0.106994700    -0.2188486   -0.8312112  
   0.108994600    -0.3141033   -0.7932153  
   0.110994500    -0.4059481   -0.7430696  
   0.112994400    -0.4922507   -0.6804260  
   0.114994300    -0.5716953   -0.6051351  
   0.116994200    -0.6423711   -0.5171989  
   0.118994100    -0.7023887   -0.4174693  
   0.120994000    -0.7505016   -0.3073293  
   0.122993900    -0.7818688   -0.1857139  
   0.124993800    -0.7947521   -0.0562540  
   0.126993700    -0.7863120    0.0789299  
   0.128993600    -0.7532821    0.2155643  
   0.130993500    -0.6963764    0.3499264  
   0.132993400    -0.6130118    0.4765024  
   0.134993300    -0.5044203    0.5892960  
   0.136993200    -0.3722608    0.6813908  
   0.138993100    -0.2212422    0.7475647  
   0.140993000    -0.0570329    0.7822815  
   0.142992900     0.1125306    0.7827403  
   0.144992800     0.2796884    0.7494401  
   0.146992700     0.4353855    0.6814802  
   0.148992600     0.5722771    0.5839991  
   0.150992500     0.6834959    0.4622194  
   0.152992400     0.7675982    0.3247751  
   0.154992300     0.8219226    0.1780940  
   0.156992200     0.8469766    0.0277561  
   0.158992100     0.8443716   -0.1192274  
   0.160992000     0.8169629   -0.2588501  
   0.162991900     0.7676030   -0.3869373  
   0.164991800     0.7002589   -0.5016415  
   0.166991700     0.6182287   -0.6003914  
   0.168991600     0.5247523   -0.6828426  
   0.170991500     0.4222628   -0.7488645  
   0.172991400     0.3145673   -0.7976045  
   0.174991300     0.2032220   -0.8299995  
   0.176991200     0.0900917   -0.8459409  
   0.178991100    -0.0222010   -0.8458596  
   0.180991000    -0.1324562   -0.8313859  
   0.182990900    -0.2391985   -0.8016273  
   0.184990800    -0.3407508   -0.7576141  
   0.186990700    -0.4352110   -0.7004719  
   0.188990600    -0.5032133   -0.6444245  
   0.190990500    -0.5949075   -0.5504526  
   0.192990400    -0.6622680   -0.4552695  
   0.194990300    -0.7142519   -0.3531146  
   0.196990200    -0.7514693   -0.2432974  
   0.198990100    -0.7732061   -0.1269646  
   0.200990000    -0.7774806   -0.0059304  
   0.202989900    -0.7628998    0.1171550  
   0.204989800    -0.7287502    0.2394324  
   0.206989700    -0.6758558    0.3573834  
   0.208989600    -0.6017541    0.4673105  
   0.210989500    -0.5077850    0.5660880  
   0.212989400    -0.3960872    0.6491396  
   0.214989300    -0.2690362    0.7129108  
   0.216989200    -0.1307807    0.7538933  
   0.218989100     0.0143081    0.7694997  
   0.220989000     0.1617273    0.7584499  
   0.222988900     0.3058156    0.7199842  
   0.224988800     0.4408017    0.6554880  
   0.226988700     0.5615010    0.5675407  
   0.228988600     0.6628586    0.4600743  
   0.230988500     0.7421082    0.3371595  
   0.232988400     0.7965524    0.2030913  
   0.234988300     0.8270137    0.0641419  
   0.236988200     0.8325592   -0.0754759  
   0.238988100     0.8147018   -0.2111126  
   0.240988000     0.7756222   -0.3387662  
   0.242987900     0.7174999   -0.4549736  
   0.244987800     0.6437657   -0.5579926  
   0.246987700     0.5565762   -0.6470713  
   0.248987600     0.4588642   -0.7203437  
   0.250987500     0.3528253   -0.7768292  
   0.252987400     0.2425934   -0.8164644  
   0.254987300     0.1302381   -0.8395342  
   0.256987200     0.0175733   -0.8461146  
   0.258987100    -0.0939019   -0.8384977  
   0.260987000    -0.2020710   -0.8146508  
   0.262986900    -0.3060152   -0.7759921  
   0.264986800    -0.4032315   -0.7239887  
   0.266986700    -0.4922935   -0.6587716  
   0.268986600    -0.5716792   -0.5821999  
   0.270986500    -0.6393706   -0.4952286  
   0.272986400    -0.6950701   -0.3991131  
   0.274986300    -0.7372448   -0.2953363  
   0.276986200    -0.7643012   -0.1846936  
   0.278986100    -0.7753525   -0.0691083  
   0.280986000    -0.7688715    0.0491721  
   0.282985900    -0.7438626    0.1676708  
   0.284985800    -0.6996565    0.2830104  
   0.286985700    -0.6361233    0.3919881  
   0.288985600    -0.5545526    0.4911160  
   0.290985500    -0.4553798    0.5761290  
   0.292985400    -0.3407860    0.6438476  
   0.294985300    -0.2129809    0.6915812  
   0.296985200    -0.0758842    0.7153823  
   0.298985100     0.0661356    0.7132022  
   0.300985000     0.2064013    0.6834142  
   0.302984900     0.3389538    0.6262490  
   0.304984800     0.4573098    0.5437531  
   0.306984700     0.5562545    0.4405181  
   0.308984600     0.6312143    0.3208573  
   0.310984500     0.6796353    0.1916985  
   0.312984400     0.7006253    0.0587765  
   0.314984300     0.6953485   -0.0711944  
   0.316984200     0.6661577   -0.1922914  
   0.318984100     0.6165954   -0.3008254  
   0.320984000     0.5523304   -0.3927904  
   0.322983900     0.4782379   -0.4670311  
   0.324983800     0.4001679   -0.5236244  
   0.326983700     0.3227658   -0.5651100  
   0.328983600     0.2491336   -0.5961304  
   0.330983500     0.1792517   -0.6211925  
   0.332983400     0.1109625   -0.6437542  
   0.334983300     0.0392422   -0.6646955  
   0.336983200    -0.0392872   -0.6818440  
   0.338983100    -0.1268472   -0.6908548  
   0.340983000    -0.2213495   -0.6860736  
   0.342982900    -0.3195970   -0.6648635  
   0.344982800    -0.4167773   -0.6246949  
   0.346982700    -0.5092009   -0.5659462  
   0.348982600    -0.5899708   -0.4900441  
   0.350982500    -0.6584793   -0.4012252  
   0.352982400    -0.7119491   -0.3011945  
   0.354982300    -0.7498842   -0.1883465  
   0.356982200    -0.7697746   -0.0564480  
   0.358982100    -0.7651727    0.0764093  
   0.360982000    -0.7368709    0.2059692  
   0.362981900    -0.6863318    0.3285952  
   0.364981800    -0.6146176    0.4409173  
   0.366981700    -0.5238982    0.5393850  
   0.368981600    -0.4166675    0.6207903  
   0.370981500    -0.2960275    0.6821663  
   0.372981400    -0.1654710    0.7215278  
   0.374981300    -0.0278687    0.7370203  
   0.376981200    -0.1283866    0.7328130  
   0.378981100     0.0148530    0.7416044  
   0.380981000     0.1584544    0.7232796  
   0.382980900     0.2861449    0.6823953  
   0.384980800     0.4009066    0.6227439  
   0.386980700     0.5046380    0.5436240  
   0.388980600     0.5935479    0.4471887  
   0.390980500     0.6644111    0.3374957  
   0.392980400     0.7151986    0.2176215  
   0.394980300     0.7444381    0.0913420  
   0.396980200     0.7518186   -0.0375735  
   0.398980100     0.7371856   -0.1647671  
   0.400980000     0.7015514   -0.2866085  
   0.402979900     0.6462889   -0.3999631  
   0.404979800     0.5741343   -0.5012268  
   0.406979700     0.4874117   -0.5880029  
   0.408979600     0.3890051   -0.6584297  
   0.410979500     0.2810862   -0.7116627  
   0.412979400     0.1673325   -0.7466244  
   0.414979300     0.0505489   -0.7618902  
   0.416979200    -0.0656803   -0.7598251  
   0.418979100    -0.1785429   -0.7399452  
   0.420979000    -0.2862200   -0.7033602  
   0.422978900    -0.3864944   -0.6511878  
   0.424978800    -0.4772907   -0.5851900  
   0.426978700    -0.5564791   -0.5065149  
   0.428978600    -0.6221838   -0.4174772  
   0.430978500    -0.6742386   -0.3200276  
   0.432978400    -0.7108254   -0.2166309  
   0.434978300    -0.7329224   -0.1097784  
   0.436978200    -0.7380397   -0.0002317  
   0.438978100    -0.7267316    0.1093165  
   0.440978000    -0.6993312    0.2165121  
   0.442977900    -0.6561523    0.3190227  
   0.444977800    -0.5974502    0.4148441  
   0.446977700    -0.5245044    0.5006293  
   0.448977600    -0.4384857    0.5757807  
   0.450977500    -0.3410200    0.6370261  
   0.452977400    -0.2336403    0.6832792  
   0.454977300    -0.1188324    0.7119539  
   0.456977200     0.0007168    0.7222779  
   0.458977100     0.1216119    0.7128382  
   0.460977000     0.2401769    0.6836474  
   0.462976900     0.3529175    0.6348667  
   0.464976800     0.4563931    0.5677313  
   0.466976700     0.5479398    0.4839027  
   0.468976600     0.6241241    0.3856515  
   0.470976500     0.6827660    0.2755266  
   0.472976400     0.7218111    0.1577581  
   0.474976300     0.7407570    0.0351211  
   0.476976200     0.7388461   -0.0878850  
   0.478976100     0.7165576   -0.2079001  
   0.480976000     0.6756432   -0.3209898  
   0.482975900     0.6176196   -0.4246522  
   0.484975800     0.5446601   -0.5162016  
   0.486975700     0.4588080   -0.5940459  
   0.488975600     0.3633213   -0.6569555  
   0.490975500     0.2604797   -0.7033041  
   0.492975400     0.1529139   -0.7333968  
   0.494975300     0.0433206   -0.7468559  
   0.496975200    -0.0656687   -0.7435153  
   0.498975100    -0.1713599   -0.7246153  
   0.500975000    -0.2723666   -0.6905624  
   0.502974900    -0.3663116   -0.6431075  
   0.504974800    -0.4523046   -0.5824249  
   0.506974700    -0.5289404   -0.5109148  
   0.508974600    -0.5947620   -0.4281474  
   0.510974500    -0.6480673   -0.3367859  
   0.512974400    -0.6878561   -0.2384504  
   0.514974300    -0.7113801   -0.1346892  
   0.516974200    -0.7205386   -0.0287994  
   0.518974100    -0.7137715    0.0782681  
   0.520974000    -0.6904939    0.1838310  
   0.522973900    -0.6510241    0.2852693  
   0.524973800    -0.5953318    0.3797149  
   0.526973700    -0.5248805    0.4649554  
   0.528973600    -0.4413683    0.5378342  
   0.530973500    -0.3469520    0.5967809  
   0.532973400    -0.2445135    0.6391698  
   0.534973300    -0.1366355    0.6648805  
   0.536973200    -0.0262472    0.6731865  
   0.538973100     0.0835754    0.6640905  
   0.540973000     0.1897528    0.6381407  
   0.542972900     0.2905841    0.5963332  
   0.544972800     0.3838503    0.5393643  
   0.546972700     0.4675192    0.4682810  
   0.548972600     0.5389894    0.3850141  
   0.550972500     0.5968630    0.2912065  
   0.552972400     0.6397728    0.1887797  
   0.554972300     0.6659170    0.0805785  
   0.556972200     0.6739764   -0.0303807  
   0.558972100     0.6644244   -0.1418389  
   0.560972000     0.6371861   -0.2500205  
   0.562971900     0.5931195   -0.3520292  
   0.564971800     0.5334865   -0.4458240  
   0.566971700     0.4600751   -0.5282582  
   0.568971600     0.3748319   -0.5978696  
   0.570971500     0.2798909   -0.6529788  
   0.572971400     0.1779788   -0.6921959  
   0.574971300     0.0708374   -0.7150627  
   0.576971200    -0.0379934   -0.7208541  
   0.578971100    -0.1465317   -0.7099460  
   0.580971000    -0.2514690   -0.6824777  
   0.582970900    -0.3501740   -0.6396089  
   0.584970800    -0.4405171   -0.5823481  
   0.586970700    -0.5206444   -0.5129117  
   0.588970600    -0.5888934   -0.4325744  
   0.590970500    -0.6444975   -0.3434117  
   0.592970400    -0.6861932   -0.2471606  
   0.594970300    -0.7130947   -0.1461762  
   0.596970200    -0.7249902   -0.0424486  
   0.598970100    -0.7214283    0.0622010  
   0.600970000    -0.7025942    0.1654708  
   0.602969900    -0.6687292    0.2647639  
   0.604969800    -0.6202241    0.3587657  
   0.606969700    -0.5580596    0.4448768  
   0.608969600    -0.4828568    0.5215340  
   0.610969500    -0.3967487    0.5860059  
   0.612969400    -0.3010047    0.6374276  
   0.614969300    -0.1980181    0.6736318  
   0.616969200    -0.0899643    0.6935137  
   0.618969100     0.0197594    0.6968733  
   0.620969000     0.1293580    0.6829998  
   0.622968900     0.2365950    0.6516567  
   0.624968800     0.3380033    0.6032402  
   0.626968700     0.4316419    0.5387229  
   0.628968600     0.5142418    0.4594126  
   0.630968500     0.5827641    0.3670671  
   0.632968400     0.6355948    0.2643367  
   0.634968300     0.6711277    0.1533118  
   0.636968200     0.6874888    0.0386346  
   0.638968100     0.6846591   -0.0776170  
   0.640968000     0.6623439   -0.1918850  
   0.642967900     0.6216266   -0.2999178  
   0.644967800     0.5634866   -0.3993449  
   0.646967700     0.4904306   -0.4871173  
   0.648967600     0.4048857   -0.5609935  
   0.650967500     0.3093022   -0.6192096  
   0.652967400     0.2064768   -0.6604322  
   0.654967300     0.0998822   -0.6849498  
   0.656967200    -0.0080349   -0.6918091  
   0.658967100    -0.1148300   -0.6816953  
   0.660967000    -0.2176985   -0.6551388  
   0.662966900    -0.3148736   -0.6133146  
   0.664966800    -0.4038078   -0.5572173  
   0.666966700    -0.4827224   -0.4884918  
   0.668966600    -0.5497418   -0.4089336  
   0.670966500    -0.6033238   -0.3207135  
   0.672966400    -0.6434310   -0.2261068  
   0.674966300    -0.6680213   -0.1267795  
   0.676966200    -0.6771072   -0.0254897  
   0.678966100    -0.6711060    0.0756209  
   0.680966000    -0.6497083    0.1748193  
   0.682965900    -0.6138569    0.2697981  
   0.684965800    -0.5640706    0.3581995  
   0.686965700    -0.5008978    0.4385650  
   0.688965600    -0.4259153    0.5086242  
   0.690965500    -0.3402470    0.5661818  
   0.692965400    -0.2465378    0.6105499  
   0.694965300    -0.1465324    0.6402754  
   0.696965200    -0.0424294    0.6538277  
   0.698965100     0.0638389    0.6505564  
   0.700965000     0.1688969    0.6303090  
   0.702964900     0.2702274    0.5932143  
   0.704964800     0.3644200    0.5392605  
   0.706964700     0.4493548    0.4702647  
   0.708964600     0.5219361    0.3871474  
   0.710964500     0.5806357    0.2937283  
   0.712964400     0.6221598    0.1911917  
   0.714964300     0.6459946    0.0832334  
   0.716964200     0.6512226   -0.0264038  
   0.718964100     0.6378444   -0.1346233  
   0.720964000     0.6073382   -0.2376885  
   0.722963900     0.5610743   -0.3332964  
   0.724963800     0.5006146   -0.4191946  
   0.726963700     0.4279126   -0.4933096  
   0.728963600     0.3454910   -0.5549564  
   0.730963500     0.2550713   -0.6014802  
   0.732963400     0.1603119   -0.6339093  
   0.734963300     0.0623450   -0.6514103  
   0.736963200    -0.0504166   -0.6533337  
   0.738963100    -0.1610499   -0.6353985  
   0.740963000    -0.2661936   -0.5989546  
   0.742962900    -0.3629538   -0.5455373  
   0.744962800    -0.4488154   -0.4763902  
   0.746962700    -0.5218383   -0.3940555  
   0.748962600    -0.5793496   -0.2998502  
   0.750962500    -0.5420189   -0.3841929  
   0.752962400    -0.5981766   -0.2881251  
   0.754962300    -0.6367204   -0.1837290  
   0.756962200    -0.6568871   -0.0736973  
   0.758962100    -0.6574599    0.0384924  
   0.760962000    -0.6381584    0.1496287  
   0.762961900    -0.6019770    0.2511360  
   0.764961800    -0.5548911    0.3374261  
   0.766961700    -0.4946452    0.4157737  
   0.768961600    -0.4227977    0.4837065  
   0.770961500    -0.3410939    0.5395454  
   0.772961400    -0.2515414    0.5820643  
   0.774961300    -0.1566866    0.6093711  
   0.776961200    -0.0584405    0.6221396  
   0.778961100     0.0410814    0.6191184  
   0.780961000     0.1389488    0.6008669  
   0.782960900     0.2334868    0.5668424  
   0.784960800     0.3216983    0.5184181  
   0.786960700     0.4017567    0.4563648  
   0.788960600     0.4712760    0.3819846  
   0.790960500     0.5278502    0.2976326  
   0.792960400     0.5704789    0.2050588  
   0.794960300     0.5976468    0.1069290  
   0.796960200     0.6088223    0.0054353  
   0.798960100     0.6032872   -0.0963510  
   0.800960000     0.5817748   -0.1956674  
   0.802959900     0.5445252   -0.2904877  
   0.804959800     0.4924922   -0.3779993  
   0.806959700     0.4274051   -0.4556399  
   0.808959600     0.3508003   -0.5222734  
   0.810959500     0.2644566   -0.5755089  
   0.812959400     0.1710946   -0.6144240  
   0.814959300     0.0728077   -0.6378552  
   0.816959200    -0.0275575   -0.6453406  
   0.818959100    -0.1277340   -0.6370158  
   0.820959000    -0.2246559   -0.6130476  
   0.822958900    -0.3168520   -0.5743176  
   0.824958800    -0.4010940   -0.5217673  
   0.826958700    -0.4760406   -0.4570908  
   0.828958600    -0.5399183   -0.3819018  
   0.830958500    -0.5909191   -0.2980911  
   0.832958400    -0.6285470   -0.2078332  
   0.834958300    -0.6517245   -0.1134518  
   0.836958200    -0.6605568   -0.0169314  
   0.838958100    -0.6545570    0.0795383  
   0.840958000    -0.6342744    0.1741294  
   0.842957900    -0.5996057    0.2640414  
   0.844957800    -0.5518234    0.3484035  
   0.846957700    -0.4916365    0.4246828  
   0.848957600    -0.4206030    0.4911194  
   0.850957500    -0.3400067    0.5461454  
   0.852957400    -0.2515136    0.5881987  
   0.854957300    -0.1572189    0.6164832  
   0.856957200    -0.0594027    0.6298658  
   0.858957100     0.0398522    0.6279547  
   0.860957000     0.1375247    0.6104751  
   0.862956900     0.2310341    0.5776563  
   0.864956800     0.3183376    0.5305760  
   0.866956700     0.3973389    0.4701933  
   0.868956600     0.4656624    0.3974481  
   0.870956500     0.5222519    0.3144802  
   0.872956400     0.5654181    0.2231511  
   0.874956300     0.5929090    0.1252209  
   0.876956200     0.6044126    0.0234493  
   0.878956100     0.5987220   -0.0792389  
   0.880956000     0.5762552   -0.1798149  
   0.882955900     0.5372327   -0.2752515  
   0.884955800     0.4826647   -0.3629158  
   0.886955700     0.4145512   -0.4399351  
   0.888955600     0.3347167   -0.5044572  
   0.890955500     0.2456161   -0.5542573  
   0.892955400     0.1500546   -0.5886403  
   0.894955300     0.0507241   -0.6065694  
