! MS46122B
! 2250307/22442219
! 7/24/2025 12:45:39 PM
! C:\USERS\SPARKY\DOCUMENTS\VNA_DATA\JULY24_2025\295K\PORT3_MOS6_REPEAT1.S1P
! CHANNEL.1
! TR.MEASUREMENT
! RAW.DATA
# GHZ S RI R 50.0
! FREQ.GHZ         S11RE         S11IM         
!; PortSelection: Port_1
   0.001000000     1.0451680   -0.0729517  
   0.002999900     0.9470499   -0.2225215  
   0.004999800     0.8213150   -0.0985525  
   0.006999700     0.5208989   -0.3813036  
   0.008999600     0.9288961   -0.0400766  
   0.010999500     0.9133015   -0.2445090  
   0.012999400     0.8738922   -0.3491364  
   0.014999300     0.8335788   -0.4296608  
   0.016999200     0.7919507   -0.4999627  
   0.018999100     0.7475783   -0.5649308  
   0.020999000     0.6983384   -0.6253828  
   0.022998900     0.6440263   -0.6809338  
   0.024998800     0.5758346   -0.6962250  
   0.026998700     0.5176117   -0.7769440  
   0.028998600     0.4439405   -0.8165491  
   0.030998500     0.3628657   -0.8489938  
   0.032998400     0.2787229   -0.8390706  
   0.034998300     0.1783418   -0.8870532  
   0.036998200     0.0755426   -0.8894800  
   0.038998100    -0.0329543   -0.8782225  
   0.040998000    -0.1460403   -0.8498561  
   0.042997900    -0.2617681   -0.8029735  
   0.044997800    -0.3530359   -0.7163751  
   0.046997700    -0.4864905   -0.6402518  
   0.048997600    -0.5851535   -0.5202456  
   0.050997500    -0.6649410   -0.3726786  
   0.052997400    -0.7156615   -0.1994502  
   0.054997300    -0.7262380   -0.0059579  
   0.056997200    -0.6862637    0.1987457  
   0.058997100    -0.5887108    0.3945435  
   0.060997000    -0.4357209    0.5615770  
   0.062996900    -0.2385371    0.6804769  
   0.064996800    -0.0164228    0.7379299  
   0.066996700     0.2071724    0.7304456  
   0.068996600     0.4117232    0.6649863  
   0.070996500     0.5827538    0.5560206  
   0.072996400     0.7129002    0.4171848  
   0.074996300     0.8014524    0.2641948  
   0.076996200     0.8517748    0.1074777  
   0.078996100     0.8689424   -0.0443611  
   0.080996000     0.8590338   -0.1874218  
   0.082995900     0.8267206   -0.3177056  
   0.084995800     0.7760612   -0.4336102  
   0.086995700     0.7127843   -0.5353256  
   0.088995600     0.6388799   -0.6228935  
   0.090995500     0.5569872   -0.6968874  
   0.092995400     0.4694823   -0.7577695  
   0.094995300     0.3762511   -0.8053737  
   0.096995200     0.2804423   -0.8400881  
   0.098995100     0.1823027   -0.8625444  
   0.100995000     0.0816599   -0.8730845  
   0.102994900    -0.0182338   -0.8715062  
   0.104994800    -0.1176035   -0.8580446  
   0.106994700    -0.2154866   -0.8316569  
   0.108994600    -0.3105783   -0.7940928  
   0.110994500    -0.4022520   -0.7444311  
   0.112994400    -0.4886586   -0.6821876  
   0.114994300    -0.5682470   -0.6075003  
   0.116994200    -0.6389896   -0.5201572  
   0.118994100    -0.6993683   -0.4210739  
   0.120994000    -0.7480119   -0.3113625  
   0.122993900    -0.7799066   -0.1904482  
   0.124993800    -0.7935432   -0.0615324  
   0.126993700    -0.7860647    0.0732875  
   0.128993600    -0.7540837    0.2095853  
   0.130993500    -0.6984013    0.3439997  
   0.132993400    -0.6162517    0.4708544  
   0.134993300    -0.5090586    0.5842966  
   0.136993200    -0.3780750    0.6773654  
   0.138993100    -0.2280004    0.7448607  
   0.140993000    -0.0644729    0.7811401  
   0.142992900     0.1050423    0.7833686  
   0.144992800     0.2724417    0.7519268  
   0.146992700     0.4288938    0.6853536  
   0.148992600     0.5669008    0.5892578  
   0.150992500     0.6794457    0.4684662  
   0.152992400     0.7650015    0.3314633  
   0.154992300     0.8208726    0.1851579  
   0.156992200     0.8471878    0.0348346  
   0.158992100     0.8460296   -0.1124532  
   0.160992000     0.8196852   -0.2524866  
   0.162991900     0.7711640   -0.3814833  
   0.164991800     0.7047066   -0.4967131  
   0.166991700     0.6230915   -0.5964259  
   0.168991600     0.5300030   -0.6797283  
   0.170991500     0.4280083   -0.7463813  
   0.172991400     0.3203706   -0.7959737  
   0.174991300     0.2091341   -0.8291529  
   0.176991200     0.0960629   -0.8458265  
   0.178991100    -0.0162677   -0.8464689  
   0.180991000    -0.1266100   -0.8327493  
   0.182990900    -0.2334030   -0.8036537  
   0.184990800    -0.3350408   -0.7606730  
   0.186990700    -0.4301159   -0.7037520  
   0.188990600    -0.4982013   -0.6484782  
   0.190990500    -0.5904570   -0.5553746  
   0.192990400    -0.6583703   -0.4608546  
   0.194990300    -0.7110883   -0.3592839  
   0.196990200    -0.7491377   -0.2500418  
   0.198990100    -0.7718592   -0.1341960  
   0.200990000    -0.7772358   -0.0134687  
   0.202989900    -0.7638711    0.1094133  
   0.204989800    -0.7309975    0.2314899  
   0.206989700    -0.6793955    0.3500316  
   0.208989600    -0.6068058    0.4604950  
   0.210989500    -0.5141744    0.5599372  
   0.212989400    -0.4035885    0.6443219  
   0.214989300    -0.2774696    0.7095796  
   0.216989200    -0.1399358    0.7522687  
   0.218989100     0.0049591    0.7696335  
   0.220989000     0.1522987    0.7605280  
   0.222988900     0.2971146    0.7240111  
   0.224988800     0.4329001    0.6611679  
   0.226988700     0.5548644    0.5746670  
   0.228988600     0.6576798    0.4684466  
   0.230988500     0.7387579    0.3462067  
   0.232988400     0.7949048    0.2125821  
   0.234988300     0.8270575    0.0737711  
   0.236988200     0.8344291   -0.0662594  
   0.238988100     0.8179611   -0.2023212  
   0.240988000     0.7803065   -0.3308831  
   0.242987900     0.7233751   -0.4478806  
   0.244987800     0.6505242   -0.5522792  
   0.246987700     0.5641769   -0.6423127  
   0.248987600     0.4667988   -0.7167502  
   0.250987500     0.3612110   -0.7744473  
   0.252987400     0.2510894   -0.8152177  
   0.254987300     0.1387531   -0.8394094  
   0.256987200     0.0260480   -0.8470906  
   0.258987100    -0.0856412   -0.8406223  
   0.260987000    -0.1941568   -0.8177352  
   0.262986900    -0.2984010   -0.7801829  
   0.264986800    -0.3962198   -0.7291738  
   0.266986700    -0.4860121   -0.6648044  
   0.268986600    -0.5661499   -0.5890776  
   0.270986500    -0.6347370   -0.5028902  
   0.272986400    -0.6914145   -0.4075211  
   0.274986300    -0.7347631   -0.3042913  
   0.276986200    -0.7630954   -0.1941084  
   0.278986100    -0.7755664   -0.0787223  
   0.280986000    -0.7705838    0.0393221  
   0.282985900    -0.7471711    0.1579801  
   0.284985800    -0.7047802    0.2736811  
   0.286985700    -0.6427988    0.3834738  
   0.288985600    -0.5628649    0.4836625  
   0.290985500    -0.4651688    0.5701200  
   0.292985400    -0.3515486    0.6396960  
   0.294985300    -0.2249462    0.6893186  
   0.296985200    -0.0880900    0.7155606  
   0.298985100     0.0539759    0.7158656  
   0.300985000     0.1948228    0.6882861  
   0.302984900     0.3286031    0.6335527  
   0.304984800     0.4486075    0.5532667  
   0.306984700     0.5496550    0.4512142  
   0.308984600     0.6269292    0.3325388  
   0.310984500     0.6775977    0.2037360  
   0.312984400     0.7008852    0.0706266  
   0.314984300     0.6975289   -0.0598453  
   0.316984200     0.6701689   -0.1818905  
   0.318984100     0.6219427   -0.2913494  
   0.320984000     0.5588542   -0.3846789  
   0.322983900     0.4855626   -0.4600826  
   0.324983800     0.4081307   -0.5177959  
   0.326983700     0.3312678   -0.5603575  
   0.328983600     0.2580418   -0.5923786  
   0.330983500     0.1888338   -0.6184160  
   0.332983400     0.1208651   -0.6420634  
   0.334983300     0.0496276   -0.6641541  
   0.336983200    -0.0288704   -0.6827534  
   0.338983100    -0.1163791   -0.6932431  
   0.340983000    -0.2110309   -0.6901367  
   0.342982900    -0.3099172   -0.6703477  
   0.344982800    -0.4079013   -0.6317201  
   0.346982700    -0.5011845   -0.5744025  
   0.348982600    -0.5833843   -0.4994978  
   0.350982500    -0.6533760   -0.4119281  
   0.352982400    -0.7085733   -0.3125259  
   0.354982300    -0.7481862   -0.2003783  
   0.356982200    -0.7703618   -0.0684157  
   0.358982100    -0.7678997    0.0645626  
   0.360982000    -0.7417772    0.1944360  
   0.362981900    -0.6931925    0.3181384  
   0.364981800    -0.6233269    0.4317871  
   0.366981700    -0.5342125    0.5319507  
   0.368981600    -0.4285072    0.6152288  
   0.370981500    -0.3086765    0.6787345  
   0.372981400    -0.1785505    0.7205894  
   0.374981300    -0.0411166    0.7385654  
   0.376981200    -0.1422630    0.7328049  
   0.378981100     0.0011656    0.7441914  
   0.380981000     0.1454121    0.7285807  
   0.382980900     0.2740799    0.6901138  
   0.384980800     0.3903900    0.6325893  
   0.386980700     0.4959397    0.5553636  
   0.388980600     0.5869427    0.4605938  
   0.390980500     0.6604180    0.3517357  
   0.392980400     0.7138193    0.2324328  
   0.394980300     0.7456862    0.1062350  
   0.396980200     0.7556528   -0.0231462  
   0.398980100     0.7435722   -0.1512457  
   0.400980000     0.7100255   -0.2742985  
   0.402979900     0.6567056   -0.3893246  
   0.404979800     0.5860385   -0.4925909  
   0.406979700     0.5004008   -0.5812130  
   0.408979600     0.4028524   -0.6540952  
   0.410979500     0.2952932   -0.7096456  
   0.412979400     0.1814661   -0.7469277  
   0.414979300     0.0644749   -0.7641946  
   0.416979200    -0.0526436   -0.7642123  
   0.418979100    -0.1661445   -0.7461363  
   0.420979000    -0.2749435   -0.7112262  
   0.422978900    -0.3763763   -0.6606347  
   0.424978800    -0.4687783   -0.5959955  
   0.426978700    -0.5496153   -0.5183225  
   0.428978600    -0.6173062   -0.4299815  
   0.430978500    -0.6709549   -0.3333469  
   0.432978400    -0.7094384   -0.2303008  
   0.434978300    -0.7335017   -0.1236082  
   0.436978200    -0.7405886   -0.0138983  
   0.438978100    -0.7313269    0.0960655  
   0.440978000    -0.7059647    0.2039516  
   0.442977900    -0.6644732    0.3075729  
   0.444977800    -0.6074352    0.4044636  
   0.446977700    -0.5361060    0.4921480  
   0.448977600    -0.4515374    0.5688011  
   0.450977500    -0.3551536    0.6322466  
   0.452977400    -0.2486776    0.6807340  
   0.454977300    -0.1340489    0.7119874  
   0.456977200    -0.0145092    0.7248749  
   0.458977100     0.1068466    0.7179601  
   0.460977000     0.2263566    0.6914212  
   0.462976900     0.3405110    0.6450101  
   0.464976800     0.4460579    0.5798333  
   0.466976700     0.5398253    0.4976810  
   0.468976600     0.6185214    0.4006442  
   0.470976500     0.6798440    0.2914883  
   0.472976400     0.7217919    0.1737921  
   0.474976300     0.7436355    0.0510475  
   0.476976200     0.7442356   -0.0728105  
   0.478976100     0.7243767   -0.1940145  
   0.480976000     0.6856922   -0.3087332  
   0.482975900     0.6293941   -0.4141559  
   0.484975800     0.5580015   -0.5078456  
   0.486975700     0.4732004   -0.5880933  
   0.488975600     0.3782148   -0.6532862  
   0.490975500     0.2756298   -0.7019966  
   0.492975400     0.1679930   -0.7343436  
   0.494975300     0.0581389   -0.7499414  
   0.496975200    -0.0516715   -0.7486702  
   0.498975100    -0.1583131   -0.7316739  
   0.500975000    -0.2603268   -0.6994286  
   0.502974900    -0.3556755   -0.6535882  
   0.504974800    -0.4431130   -0.5944334  
   0.506974700    -0.5215697   -0.5238759  
   0.508974600    -0.5892825   -0.4420972  
   0.510974500    -0.6444302   -0.3515966  
   0.512974400    -0.6864803   -0.2537445  
   0.514974300    -0.7123250   -0.1504610  
   0.516974200    -0.7237179   -0.0441718  
   0.518974100    -0.7193102    0.0633051  
   0.520974000    -0.6983851    0.1697215  
   0.522973900    -0.6611729    0.2722924  
   0.524973800    -0.6075104    0.3685173  
   0.526973700    -0.5388662    0.4557908  
   0.528973600    -0.4567552    0.5310422  
   0.530973500    -0.3635002    0.5924030  
   0.532973400    -0.2613515    0.6378072  
   0.534973300    -0.1534873    0.6663312  
   0.536973200    -0.0427285    0.6773106  
   0.538973100     0.0679061    0.6710349  
   0.540973000     0.1754234    0.6474249  
   0.542972900     0.2779604    0.6077813  
   0.544972800     0.3731740    0.5527986  
   0.546972700     0.4592625    0.4832914  
   0.548972600     0.5332005    0.4012137  
   0.550972500     0.5937811    0.3082245  
   0.552972400     0.6394989    0.2061258  
   0.554972300     0.6683461    0.0981716  
   0.556972200     0.6793103   -0.0138803  
   0.558972100     0.6725171   -0.1260451  
   0.560972000     0.6475857   -0.2357856  
   0.562971900     0.6057832   -0.3397239  
   0.564971800     0.5480648   -0.4356684  
   0.566971700     0.4759972   -0.5204031  
   0.568971600     0.3918307   -0.5925757  
   0.570971500     0.2975205   -0.6503999  
   0.572971400     0.1958779   -0.6923001  
   0.574971300     0.0885490   -0.7177253  
   0.576971200    -0.0210616   -0.7263330  
   0.578971100    -0.1306345   -0.7179374  
   0.580971000    -0.2369097   -0.6927037  
   0.582970900    -0.3372241   -0.6517653  
   0.584970800    -0.4295190   -0.5964009  
   0.586970700    -0.5117347   -0.5283263  
   0.588970600    -0.5823838   -0.4492484  
   0.590970500    -0.6404245   -0.3607698  
   0.592970400    -0.6847220   -0.2649961  
   0.594970300    -0.7141047   -0.1641997  
   0.596970200    -0.7285956   -0.0600063  
   0.598970100    -0.7276152    0.0451934  
   0.600970000    -0.7112088    0.1495380  
   0.602969900    -0.6796160    0.2501989  
   0.604969800    -0.6333401    0.3458660  
   0.606969700    -0.5730380    0.4339806  
   0.608969600    -0.4992943    0.5127437  
   0.610969500    -0.4146796    0.5801392  
   0.612969400    -0.3197504    0.6343440  
   0.614969300    -0.2172918    0.6736206  
   0.616969200    -0.1094740    0.6965192  
   0.618969100     0.0010296    0.7030896  
   0.620969000     0.1116215    0.6922944  
   0.622968900     0.2202884    0.6638948  
   0.624968800     0.3238618    0.6183553  
   0.626968700     0.4200135    0.5561435  
   0.628968600     0.5054096    0.4787288  
   0.630968500     0.5773678    0.3877950  
   0.632968400     0.6337843    0.2858618  
   0.634968300     0.6730404    0.1751172  
   0.636968200     0.6931233    0.0600000  
   0.638968100     0.6938915   -0.0575545  
   0.640968000     0.6749381   -0.1734273  
   0.642967900     0.6371384   -0.2834813  
   0.644967800     0.5817010   -0.3859487  
   0.646967700     0.5107000   -0.4766602  
   0.648967600     0.4264503   -0.5541477  
   0.650967500     0.3315510   -0.6158945  
   0.652967400     0.2294203   -0.6607173  
   0.654967300     0.1220829   -0.6887266  
   0.656967200     0.0132830   -0.6989297  
   0.658967100    -0.0947192   -0.6919189  
   0.660967000    -0.1996116   -0.6683770  
   0.662966900    -0.2990662   -0.6289733  
   0.664966800    -0.3906810   -0.5749673  
   0.666966700    -0.4724049   -0.5078986  
   0.668966600    -0.5423492   -0.4297006  
   0.670966500    -0.5992164   -0.3421544  
   0.672966400    -0.6425709   -0.2479043  
   0.674966300    -0.6702204   -0.1486952  
   0.676966200    -0.6826242   -0.0467068  
   0.678966100    -0.6794552    0.0553828  
   0.680966000    -0.6611406    0.1561426  
   0.682965900    -0.6280667    0.2527696  
   0.684965800    -0.5806555    0.3436731  
   0.686965700    -0.5195844    0.4266647  
   0.688965600    -0.4464329    0.4996629  
   0.690965500    -0.3621135    0.5605226  
   0.692965400    -0.2690990    0.6082900  
   0.694965300    -0.1693948    0.6415697  
   0.696965200    -0.0649252    0.6588870  
   0.698965100     0.0421766    0.6593489  
   0.700965000     0.1486918    0.6426230  
   0.702964900     0.2522822    0.6088144  
   0.704964800     0.3492073    0.5578574  
   0.706964700     0.4373787    0.4913492  
   0.708964600     0.5134051    0.4104446  
   0.710964500     0.5765206    0.3181357  
   0.712964400     0.6222022    0.2159226  
   0.714964300     0.6502556    0.1077503  
   0.716964200     0.6594454   -0.0028555  
   0.718964100     0.6501729   -0.1126188  
   0.720964000     0.6230528   -0.2180188  
   0.722963900     0.5796552   -0.3163746  
   0.724963800     0.5214537   -0.4056670  
   0.726963700     0.4505837   -0.4835084  
   0.728963600     0.3694105   -0.5488601  
   0.730963500     0.2794810   -0.5990527  
   0.732963400     0.1847391   -0.6351730  
   0.734963300     0.0861100   -0.6563826  
   0.736963200    -0.0279167   -0.6622896  
   0.738963100    -0.1404957   -0.6480061  
   0.740963000    -0.2480355   -0.6150373  
   0.742962900    -0.3477933   -0.5642903  
   0.744962800    -0.4370149   -0.4974881  
   0.746962700    -0.5137886   -0.4168263  
   0.748962600    -0.5752924   -0.3239428  
   0.750962500    -0.5342860   -0.4073576  
   0.752962400    -0.5945614   -0.3123741  
   0.754962300    -0.6372610   -0.2082177  
   0.756962200    -0.6616226   -0.0979721  
   0.758962100    -0.6662230    0.0153283  
   0.760962000    -0.6509941    0.1284668  
   0.762961900    -0.6182762    0.2323425  
   0.764961800    -0.5739788    0.3212585  
   0.766961700    -0.5163414    0.4027564  
   0.768961600    -0.4460704    0.4742129  
   0.770961500    -0.3657331    0.5337611  
   0.772961400    -0.2767961    0.5802264  
   0.774961300    -0.1822131    0.6116183  
   0.776961200    -0.0832872    0.6283591  
   0.778961100     0.0174589    0.6292288  
   0.780961000     0.1171913    0.6147175  
   0.782960900     0.2141273    0.5842584  
   0.784960800     0.3053816    0.5385921  
   0.786960700     0.3889091    0.4790263  
   0.788960600     0.4622597    0.4065409  
   0.790960500     0.5229433    0.3234314  
   0.792960400     0.5698374    0.2315338  
   0.794960300     0.6014683    0.1332733  
   0.796960200     0.6169382    0.0310894  
   0.798960100     0.6154453   -0.0723799  
   0.800960000     0.5977186   -0.1739287  
   0.802959900     0.5638547   -0.2715214  
   0.804959800     0.5146750   -0.3623510  
   0.806959700     0.4520230   -0.4435393  
   0.808959600     0.3770562   -0.5143419  
   0.810959500     0.2917233   -0.5717979  
   0.812959400     0.1986015   -0.6151807  
   0.814959300     0.0997476   -0.6429318  
   0.816959200    -0.0016606   -0.6545510  
   0.818959100    -0.1036471   -0.6501402  
   0.820959000    -0.2029981   -0.6296974  
   0.822958900    -0.2978821   -0.5941113  
   0.824958800    -0.3853846   -0.5443342  
   0.826958700    -0.4640468   -0.4816117  
   0.828958600    -0.5316851   -0.4079643  
   0.830958500    -0.5868710   -0.3248560  
   0.832958400    -0.6285485   -0.2348618  
   0.834958300    -0.6558149   -0.1402221  
   0.836958200    -0.6685990   -0.0427756  
   0.838958100    -0.6664354    0.0551746  
   0.840958000    -0.6494707    0.1518872  
   0.842957900    -0.6179852    0.2441808  
   0.844957800    -0.5730699    0.3315021  
   0.846957700    -0.5155046    0.4109482  
   0.848957600    -0.4461943    0.4812358  
   0.850957500    -0.3668533    0.5403516  
   0.852957400    -0.2792738    0.5866418  
   0.854957300    -0.1850075    0.6192721  
   0.856957200    -0.0866925    0.6369472  
   0.858957100     0.0137359    0.6392540  
   0.860957000     0.1131291    0.6259975  
   0.862956900     0.2094850    0.5969863  
   0.864956800     0.2999556    0.5533372  
   0.866956700     0.3827018    0.4960579  
   0.868956600     0.4554210    0.4254144  
   0.870956500     0.5167383    0.3441203  
   0.872956400     0.5648143    0.2534595  
   0.874956300     0.5973904    0.1555881  
   0.876956200     0.6138344    0.0528577  
   0.878956100     0.6134362   -0.0516211  
   0.880956000     0.5952028   -0.1547243  
   0.882955900     0.5602950   -0.2538569  
   0.884955800     0.5088409   -0.3456854  
   0.886955700     0.4432747   -0.4273936  
   0.888955600     0.3650487   -0.4968838  
   0.890955500     0.2769212   -0.5519037  
   0.892955400     0.1812056   -0.5914469  
   0.894955300     0.0809404   -0.6142735  
