! MS46122B
! 2250307/22442219
! 7/23/2025 1:10:02 PM
! C:\USERS\SPARKY\DOCUMENTS\VNA_DATA\JULY23_2025\295K\PORT4_MOS2.S1P
! CHANNEL.1
! TR.MEASUREMENT
! RAW.DATA
# GHZ S RI R 50.0
! FREQ.GHZ         S11RE         S11IM         
!; PortSelection: Port_1
   0.001000000     1.0458470   -0.0712201  
   0.002999900     0.9641771   -0.1937579  
   0.004999800     0.9032232   -0.2985921  
   0.006999700     0.8354270   -0.3960314  
   0.008999600     0.7552992   -0.4905357  
   0.010999500     0.6606025   -0.5794815  
   0.012999400     0.5457738   -0.6597360  
   0.014999300     0.4055659   -0.7244745  
   0.016999200     0.2351375   -0.7602523  
   0.018999100     0.0329825   -0.7472851  
   0.020999000    -0.1879656   -0.6541823  
   0.022998900    -0.3857973   -0.4500098  
   0.024998800    -0.4661480   -0.1402203  
   0.026998700    -0.4039737    0.2105717  
   0.028998600    -0.1599538    0.4669164  
   0.030998500     0.1492499    0.5622961  
   0.032998400     0.3999841    0.5107785  
   0.034998300     0.6278246    0.4004544  
   0.036998200     0.7577090    0.2505389  
   0.038998100     0.8303008    0.0968985  
   0.040998000     0.8607115   -0.0483852  
   0.042997900     0.8607533   -0.1807477  
   0.044997800     0.8145328   -0.2739338  
   0.046997700     0.8003142   -0.4032196  
   0.048997600     0.7507440   -0.4950547  
   0.050997500     0.6921797   -0.5744191  
   0.052997400     0.6274863   -0.6422461  
   0.054997300     0.5557141   -0.7014874  
   0.056997200     0.4801661   -0.7508513  
   0.058997100     0.4012573   -0.7909175  
   0.060997000     0.3187379   -0.8223395  
   0.062996900     0.2337122   -0.8449560  
   0.064996800     0.1461120   -0.8579972  
   0.066996700     0.0563139   -0.8620819  
   0.068996600    -0.0345798   -0.8558432  
   0.070996500    -0.1263810   -0.8399156  
   0.072996400    -0.2182301   -0.8114404  
   0.074996300    -0.3086251   -0.7711290  
   0.076996200    -0.3963801   -0.7179094  
   0.078996100    -0.4796671   -0.6514985  
   0.080996000    -0.5562696   -0.5706388  
   0.082995900    -0.6237836   -0.4755697  
   0.084995800    -0.6780848   -0.3663596  
   0.086995700    -0.7174508   -0.2447993  
   0.088995600    -0.7368135   -0.1118358  
   0.090995500    -0.7328996    0.0292283  
   0.092995400    -0.7026656    0.1740239  
   0.094995300    -0.6419289    0.3162962  
   0.096995200    -0.5506428    0.4484677  
   0.098995100    -0.4297310    0.5622197  
   0.100995000    -0.2823237    0.6506122  
   0.102994900    -0.1181837    0.7041470  
   0.104994800     0.0547521    0.7197015  
   0.106994700     0.2257939    0.6958532  
   0.108994600     0.3854152    0.6363977  
   0.110994500     0.5252078    0.5456648  
   0.112994400     0.6391460    0.4309335  
   0.114994300     0.7239752    0.2998041  
   0.116994200     0.7790817    0.1600313  
   0.118994100     0.8054231    0.0186619  
   0.120994000     0.8069576   -0.1191640  
   0.122993900     0.7838365   -0.2493506  
   0.124993800     0.7411625   -0.3687462  
   0.126993700     0.6822844   -0.4756853  
   0.128993600     0.6097854   -0.5676345  
   0.130993500     0.5277542   -0.6459002  
   0.132993400     0.4378352   -0.7101129  
   0.134993300     0.3424648   -0.7597052  
   0.136993200     0.2435928   -0.7947626  
   0.138993100     0.1423213   -0.8160593  
   0.140993000     0.0410789   -0.8235443  
   0.142992900    -0.0600429   -0.8180960  
   0.144992800    -0.1590742   -0.8012617  
   0.146992700    -0.2551991   -0.7701889  
   0.148992600    -0.3467402   -0.7271603  
   0.150992500    -0.4311244   -0.6711808  
   0.152992400    -0.5097622   -0.6047954  
   0.154992300    -0.5799243   -0.5279468  
   0.156992200    -0.6400112   -0.4405834  
   0.158992100    -0.6885422   -0.3440520  
   0.160992000    -0.7238468   -0.2391890  
   0.162991900    -0.7444864   -0.1277772  
   0.164991800    -0.7485011   -0.0113821  
   0.166991700    -0.7344686    0.1070218  
   0.168991600    -0.7013992    0.2250635  
   0.170991500    -0.6483728    0.3399435  
   0.172991400    -0.5757418    0.4467158  
   0.174991300    -0.4834956    0.5423122  
   0.176991200    -0.3734412    0.6224476  
   0.178991100    -0.2482482    0.6832478  
   0.180991000    -0.1123966    0.7217365  
   0.182990900     0.0303248    0.7341635  
   0.184990800     0.1746661    0.7196113  
   0.186990700     0.3141933    0.6780857  
   0.188990600     0.4247739    0.6231145  
   0.190990500     0.5538521    0.5239724  
   0.192990400     0.6503775    0.4136395  
   0.194990300     0.7221405    0.2915780  
   0.196990200     0.7696574    0.1614553  
   0.198990100     0.7930773    0.0274907  
   0.200990000     0.7927385   -0.1056534  
   0.202989900     0.7700122   -0.2341183  
   0.204989800     0.7272690   -0.3538134  
   0.206989700     0.6681982   -0.4629098  
   0.208989600     0.5936796   -0.5576836  
   0.210989500     0.5068716   -0.6382949  
   0.212989400     0.4109206   -0.7037211  
   0.214989300     0.3082345   -0.7526223  
   0.216989200     0.2018873   -0.7854928  
   0.218989100     0.0936751   -0.8023637  
   0.220989000    -0.0145794   -0.8039038  
   0.222988900    -0.1215584   -0.7897921  
   0.224988800    -0.2247868   -0.7611933  
   0.226988700    -0.3219760   -0.7187474  
   0.228988600    -0.4123400   -0.6632935  
   0.230988500    -0.4942337   -0.5957803  
   0.232988400    -0.5650651   -0.5160673  
   0.234988300    -0.6257198   -0.4266811  
   0.236988200    -0.6732429   -0.3286536  
   0.238988100    -0.7066519   -0.2232550  
   0.240988000    -0.7241427   -0.1131028  
   0.242987900    -0.7248536    0.0002940  
   0.244987800    -0.7077340    0.1143836  
   0.246987700    -0.6723502    0.2270823  
   0.248987600    -0.6180682    0.3350705  
   0.250987500    -0.5451446    0.4346772  
   0.252987400    -0.4548429    0.5222358  
   0.254987300    -0.3495465    0.5941230  
   0.256987200    -0.2316864    0.6476536  
   0.258987100    -0.1038193    0.6812807  
   0.260987000     0.0299067    0.6902134  
   0.262986900     0.1648757    0.6743859  
   0.264986800     0.2955409    0.6338976  
   0.266986700     0.4165934    0.5695075  
   0.268986600     0.5235702    0.4840811  
   0.270986500     0.6122286    0.3812392  
   0.272986400     0.6801239    0.2649396  
   0.274986300     0.7253815    0.1396906  
   0.276986200     0.7471635    0.0102440  
   0.278986100     0.7460517   -0.1190009  
   0.280986000     0.7224327   -0.2441771  
   0.282985900     0.6792493   -0.3610612  
   0.284985800     0.6183723   -0.4670539  
   0.286985700     0.5432422   -0.5595350  
   0.288985600     0.4564316   -0.6367524  
   0.290985500     0.3613455   -0.6981077  
   0.292985400     0.2605344   -0.7435064  
   0.294985300     0.1561660   -0.7732192  
   0.296985200     0.0498609   -0.7872887  
   0.298985100    -0.0561396   -0.7861091  
   0.300985000    -0.1598893   -0.7700862  
   0.302984900    -0.2593892   -0.7403381  
   0.304984800    -0.3525912   -0.6975711  
   0.306984700    -0.4384812   -0.6432241  
   0.308984600    -0.5154184   -0.5782940  
   0.310984500    -0.5829564   -0.5039181  
   0.312984400    -0.6398477   -0.4213059  
   0.314984300    -0.6859640   -0.3309909  
   0.316984200    -0.7193284   -0.2345176  
   0.318984100    -0.7392476   -0.1321829  
   0.320984000    -0.7442235   -0.0253690  
   0.322983900    -0.7331564    0.0828159  
   0.324983800    -0.7043485    0.1894684  
   0.326983700    -0.6584157    0.2911351  
   0.328983600    -0.5955005    0.3838009  
   0.330983500    -0.5188591    0.4643071  
   0.332983400    -0.4318224    0.5301349  
   0.334983300    -0.3372165    0.5814456  
   0.336983200    -0.2372485    0.6186956  
   0.338983100    -0.1331655    0.6415510  
   0.340983000    -0.0262094    0.6497487  
   0.342982900     0.0820156    0.6422731  
   0.344982800     0.1903501    0.6180840  
   0.346982700     0.2956285    0.5762995  
   0.348982600     0.3935959    0.5163430  
   0.350982500     0.4822506    0.4403874  
   0.352982400     0.5578490    0.3494936  
   0.354982300     0.6187616    0.2418509  
   0.356982200     0.6616460    0.1127602  
   0.358982100     0.6783838   -0.0225574  
   0.360982000     0.6679330   -0.1580021  
   0.362981900     0.6313204   -0.2890341  
   0.364981800     0.5696869   -0.4102306  
   0.366981700     0.4860842   -0.5169003  
   0.368981600     0.3837913   -0.6046771  
   0.370981500     0.2671521   -0.6709384  
   0.372981400     0.1407174   -0.7135357  
   0.374981300     0.0091408   -0.7312378  
   0.376981200     0.1187346   -0.7204790  
   0.378981100    -0.0111979   -0.7330836  
   0.380981000    -0.1403650   -0.7216803  
   0.382980900    -0.2532798   -0.6914111  
   0.384980800    -0.3536345   -0.6462309  
   0.386980700    -0.4453367   -0.5860684  
   0.388980600    -0.5268428   -0.5129854  
   0.390980500    -0.5953047   -0.4292312  
   0.392980400    -0.6497235   -0.3373051  
   0.394980300    -0.6899641   -0.2385374  
   0.396980200    -0.7148975   -0.1352648  
   0.398980100    -0.7245385   -0.0289074  
   0.400980000    -0.7182385    0.0776934  
   0.402979900    -0.6958380    0.1828551  
   0.404979800    -0.6583514    0.2840677  
   0.406979700    -0.6054695    0.3791339  
   0.408979600    -0.5384302    0.4659394  
   0.410979500    -0.4579183    0.5426131  
   0.412979400    -0.3648644    0.6070828  
   0.414979300    -0.2614186    0.6556508  
   0.416979200    -0.1506305    0.6888137  
   0.418979100    -0.0348601    0.7039933  
   0.420979000     0.0830986    0.7004303  
   0.422978900     0.2003850    0.6771211  
   0.424978800     0.3131642    0.6343349  
   0.426978700     0.4182495    0.5727727  
   0.428978600     0.5119556    0.4939401  
   0.430978500     0.5910520    0.4000401  
   0.432978400     0.6532320    0.2942410  
   0.434978300     0.6974939    0.1797774  
   0.436978200     0.7204788    0.0593598  
   0.438978100     0.7229419   -0.0628215  
   0.440978000     0.7047527   -0.1831237  
   0.442977900     0.6670989   -0.2978912  
   0.444977800     0.6110309   -0.4037746  
   0.446977700     0.5386003   -0.4980800  
   0.448977600     0.4530039   -0.5784348  
   0.450977500     0.3560911   -0.6430995  
   0.452977400     0.2509455   -0.6906658  
   0.454977300     0.1400740   -0.7202709  
   0.456977200     0.0267171   -0.7320233  
   0.458977100    -0.0861777   -0.7256002  
   0.460977000    -0.1952717   -0.7017522  
   0.462976900    -0.2983378   -0.6617296  
   0.464976800    -0.3931459   -0.6064306  
   0.466976700    -0.4776819   -0.5379744  
   0.468976600    -0.5503179   -0.4577265  
   0.470976500    -0.6094881   -0.3672935  
   0.472976400    -0.6542923   -0.2695166  
   0.474976300    -0.6835673   -0.1660939  
   0.476976200    -0.6963834   -0.0596556  
   0.478976100    -0.6928833    0.0479838  
   0.480976000    -0.6726310    0.1533005  
   0.482975900    -0.6365664    0.2545373  
   0.484975800    -0.5847905    0.3496223  
   0.486975700    -0.5178299    0.4361127  
   0.488975600    -0.4375911    0.5115575  
   0.490975500    -0.3454087    0.5737256  
   0.492975400    -0.2430962    0.6201799  
   0.494975300    -0.1336723    0.6490901  
   0.496975200    -0.0200459    0.6594707  
   0.498975100     0.0939556    0.6502393  
   0.500975000     0.2049720    0.6211894  
   0.502974900     0.3089078    0.5731866  
   0.504974800     0.4028254    0.5083893  
   0.506974700     0.4835253    0.4283240  
   0.508974600     0.5485485    0.3355795  
   0.510974500     0.5956485    0.2343599  
   0.512974400     0.6247971    0.1288742  
   0.514974300     0.6340118    0.0227404  
   0.516974200     0.6273992   -0.0810242  
   0.518974100     0.6054451   -0.1795987  
   0.520974000     0.5698856   -0.2717203  
   0.522973900     0.5228566   -0.3560833  
   0.524973800     0.4655363   -0.4313779  
   0.526973700     0.3992199   -0.4982767  
   0.528973600     0.3248162   -0.5548075  
   0.530973500     0.2432674   -0.6018085  
   0.532973400     0.1555861   -0.6373258  
   0.534973300     0.0626092   -0.6602768  
   0.536973200    -0.0343124   -0.6700957  
   0.538973100    -0.1325379   -0.6648792  
   0.540973000    -0.2297820   -0.6449621  
   0.542972900    -0.3242729   -0.6097727  
   0.544972800    -0.4133228   -0.5596992  
   0.546972700    -0.4944209   -0.4952326  
   0.548972600    -0.5648370   -0.4176958  
   0.550972500    -0.6228185   -0.3296317  
   0.552972400    -0.6661415   -0.2322025  
   0.554972300    -0.6933795   -0.1284596  
   0.556972200    -0.7035575   -0.0213930  
   0.558972100    -0.6965596    0.0868487  
   0.560972000    -0.6722959    0.1925357  
   0.562971900    -0.6312423    0.2932382  
   0.564971800    -0.5745485    0.3861272  
   0.566971700    -0.5038736    0.4693225  
   0.568971600    -0.4204821    0.5403658  
   0.570971500    -0.3263605    0.5974779  
   0.572971400    -0.2233858    0.6391450  
   0.574971300    -0.1145300    0.6637313  
   0.576971200    -0.0017180    0.6703631  
   0.578971100     0.1114564    0.6582825  
   0.580971000     0.2219506    0.6274019  
   0.582970900     0.3257772    0.5784807  
   0.584970800     0.4208911    0.5128115  
   0.586970700     0.5034741    0.4316545  
   0.588970600     0.5715804    0.3374869  
   0.590970500     0.6226974    0.2331393  
   0.592970400     0.6555628    0.1213613  
   0.594970300     0.6689038    0.0055035  
   0.596970200     0.6622639   -0.1107554  
   0.598970100     0.6362049   -0.2241861  
   0.600970000     0.5912504   -0.3313487  
   0.602969900     0.5291565   -0.4288324  
   0.604969800     0.4516951   -0.5144997  
   0.606969700     0.3613482   -0.5853517  
   0.608969600     0.2612245   -0.6399451  
   0.610969500     0.1537112   -0.6770802  
   0.612969400     0.0427480   -0.6956093  
   0.614969300    -0.0684846   -0.6957039  
   0.616969200    -0.1771235   -0.6782743  
   0.618969100    -0.2802817   -0.6442624  
   0.620969000    -0.3755612   -0.5951014  
   0.622968900    -0.4618196   -0.5319310  
   0.624968800    -0.5368617   -0.4568353  
   0.626968700    -0.5993863   -0.3715018  
   0.628968600    -0.6480134   -0.2777630  
   0.630968500    -0.6816350   -0.1779893  
   0.632968400    -0.6999010   -0.0747555  
   0.634968300    -0.7022907    0.0303915  
   0.636968200    -0.6889203    0.1344219  
   0.638968100    -0.6600250    0.2355594  
   0.640968000    -0.6160243    0.3317601  
   0.642967900    -0.5578672    0.4201579  
   0.644967800    -0.4865468    0.4992662  
   0.646967700    -0.4038420    0.5669927  
   0.648967600    -0.3107255    0.6218218  
   0.650967500    -0.2101556    0.6615184  
   0.652967400    -0.1041014    0.6855018  
   0.654967300     0.0052981    0.6927823  
   0.656967200     0.1153863    0.6829189  
   0.658967100     0.2229037    0.6552566  
   0.660967000     0.3262398    0.6103755  
   0.662966900     0.4222686    0.5484194  
   0.664966800     0.5075523    0.4713463  
   0.666966700     0.5799096    0.3797798  
   0.668966600     0.6363596    0.2770154  
   0.670966500     0.6748886    0.1659577  
   0.672966400     0.6955376    0.0501006  
   0.674966300     0.6956012   -0.0677956  
   0.676966200     0.6754899   -0.1837069  
   0.678966100     0.6367349   -0.2938209  
   0.680966000     0.5804327   -0.3954252  
   0.682965900     0.5085932   -0.4858188  
   0.684965800     0.4236617   -0.5626099  
   0.686965700     0.3278240   -0.6239216  
   0.688965600     0.2243191   -0.6686641  
   0.690965500     0.1157840   -0.6945961  
   0.692965400     0.0060450   -0.7036826  
   0.694965300    -0.1025770   -0.6956449  
   0.696965200    -0.2073988   -0.6708050  
   0.698965100    -0.3065392   -0.6307226  
   0.700965000    -0.3973891   -0.5761706  
   0.702964900    -0.4780896   -0.5089352  
   0.704964800    -0.5472227   -0.4305209  
   0.706964700    -0.6037138   -0.3431889  
   0.708964600    -0.6459424   -0.2482706  
   0.710964500    -0.6740957   -0.1483403  
   0.712964400    -0.6859570   -0.0458103  
   0.714964300    -0.6823700    0.0577908  
   0.716964200    -0.6628944    0.1590781  
   0.718964100    -0.6284185    0.2565378  
   0.720964000    -0.5795119    0.3473282  
   0.722963900    -0.5172674    0.4301117  
   0.724963800    -0.4426337    0.5022845  
   0.726963700    -0.3572955    0.5624312  
   0.728963600    -0.2627320    0.6085207  
   0.730963500    -0.1615054    0.6391155  
   0.732963400    -0.0568219    0.6533195  
   0.734963300     0.0502540    0.6503778  
   0.736963200     0.1709514    0.6258034  
   0.738963100     0.2861491    0.5790636  
   0.740963000     0.3905706    0.5114731  
   0.742962900     0.4804564    0.4260188  
   0.744962800     0.5526400    0.3250076  
   0.746962700     0.6044334    0.2130030  
   0.748962600     0.6345423    0.0938558  
   0.750962500     0.5993450    0.1889164  
   0.752962400     0.6253886    0.0710265  
   0.754962300     0.6297359   -0.0492838  
   0.756962200     0.6121376   -0.1674264  
   0.758962100     0.5739285   -0.2796297  
   0.760962000     0.5162577   -0.3829325  
   0.762961900     0.4454187   -0.4698569  
   0.764961800     0.3687097   -0.5377334  
   0.766961700     0.2824504   -0.5929843  
   0.768961600     0.1888904   -0.6347548  
   0.770961500     0.0900230   -0.6613197  
   0.772961400    -0.0120529   -0.6725559  
   0.774961300    -0.1141504   -0.6681120  
   0.776961200    -0.2152424   -0.6478669  
   0.778961100    -0.3120343   -0.6122444  
   0.780961000    -0.4027597   -0.5615823  
   0.782960900    -0.4846023   -0.4972619  
   0.784960800    -0.5557111   -0.4202280  
   0.786960700    -0.6138763   -0.3329309  
   0.788960600    -0.6575683   -0.2373322  
   0.790960500    -0.6858483   -0.1357965  
   0.792960400    -0.6976487   -0.0313987  
   0.794960300    -0.6933372    0.0739255  
   0.796960200    -0.6723369    0.1769652  
   0.798960100    -0.6356466    0.2754480  
   0.800960000    -0.5842314    0.3668278  
   0.802959900    -0.5189620    0.4493882  
   0.804959800    -0.4417348    0.5203282  
   0.806959700    -0.3545579    0.5791561  
   0.808959600    -0.2590281    0.6232964  
   0.810959500    -0.1575260    0.6523260  
   0.812959400    -0.0521019    0.6651575  
   0.814959300     0.0542821    0.6612038  
   0.816959200     0.1592081    0.6407474  
   0.818959100     0.2601362    0.6036808  
   0.820959000     0.3544933    0.5507948  
   0.822958900     0.4396577    0.4830489  
   0.824958800     0.5129404    0.4019644  
   0.826958700     0.5727827    0.3096914  
   0.828958600     0.6169015    0.2082490  
   0.830958500     0.6437083    0.1007819  
   0.832958400     0.6527297   -0.0100934  
   0.834958300     0.6432331   -0.1208438  
   0.836958200     0.6154826   -0.2283869  
   0.838958100     0.5704969   -0.3303849  
   0.840958000     0.5092877   -0.4232144  
   0.842957900     0.4335490   -0.5049250  
   0.844957800     0.3454443   -0.5729015  
   0.846957700     0.2476073   -0.6253462  
   0.848957600     0.1425907   -0.6606188  
   0.850957500     0.0342832   -0.6782022  
   0.852957400    -0.0753092   -0.6781070  
   0.854957300    -0.1824970   -0.6602930  
   0.856957200    -0.2850058   -0.6256917  
   0.858957100    -0.3799000   -0.5758569  
   0.860957000    -0.4647740   -0.5122951  
   0.862956900    -0.5380551   -0.4369867  
   0.864956800    -0.5984337   -0.3526264  
   0.866956700    -0.6449519   -0.2605710  
   0.868956600    -0.6760706   -0.1634407  
   0.870956500    -0.6931466   -0.0631213  
   0.872956400    -0.6946729    0.0381370  
   0.874956300    -0.6811585    0.1383836  
   0.876956200    -0.6527035    0.2360172  
   0.878956100    -0.6103940    0.3280154  
   0.880956000    -0.5546283    0.4131011  
   0.882955900    -0.4864473    0.4890920  
   0.884955800    -0.4076592    0.5545869  
   0.886955700    -0.3195017    0.6076514  
   0.888955600    -0.2236483    0.6474369  
   0.890955500    -0.1225169    0.6721643  
   0.892955400    -0.0180106    0.6809695  
   0.894955300     0.0871573    0.6740101  
