! MS46122B
! 2250307/22442219
! 7/22/2025 3:18:12 PM
! C:\USERS\SPARKY\DOCUMENTS\VNA_DATA\JULY22_2025\295\PORT3_MOS2.S1P
! CHANNEL.1
! TR.MEASUREMENT
! RAW.DATA
# GHZ S RI R 50.0
! FREQ.GHZ         S11RE         S11IM         
!; PortSelection: Port_1
   0.001000000     1.0457320   -0.0717902  
   0.002999900     0.9640157   -0.1941579  
   0.004999800     0.9031867   -0.2988977  
   0.006999700     0.8352948   -0.3962046  
   0.008999600     0.7554633   -0.4905683  
   0.010999500     0.6609306   -0.5794160  
   0.012999400     0.5462615   -0.6596358  
   0.014999300     0.4063720   -0.7243986  
   0.016999200     0.2361803   -0.7602701  
   0.018999100     0.0343315   -0.7478915  
   0.020999000    -0.1866900   -0.6555176  
   0.022998900    -0.3851171   -0.4520702  
   0.024998800    -0.4665215   -0.1423371  
   0.026998700    -0.4055219    0.2090909  
   0.028998600    -0.1616902    0.4667290  
   0.030998500     0.1481130    0.5629932  
   0.032998400     0.3997175    0.5115440  
   0.034998300     0.6280136    0.4012348  
   0.036998200     0.7581595    0.2510478  
   0.038998100     0.8308662    0.0971756  
   0.040998000     0.8613448   -0.0482663  
   0.042997900     0.8613540   -0.1809269  
   0.044997800     0.8149850   -0.2742186  
   0.046997700     0.8008931   -0.4033664  
   0.048997600     0.7511817   -0.4953084  
   0.050997500     0.6926598   -0.5746784  
   0.052997400     0.6272047   -0.6432458  
   0.054997300     0.5572812   -0.7008222  
   0.056997200     0.4806525   -0.7511004  
   0.058997100     0.4016866   -0.7912183  
   0.060997000     0.3192357   -0.8226017  
   0.062996900     0.2342514   -0.8453162  
   0.064996800     0.1466341   -0.8583861  
   0.066996700     0.0568733   -0.8625356  
   0.068996600    -0.0340273   -0.8563716  
   0.070996500    -0.1258949   -0.8405606  
   0.072996400    -0.2177340   -0.8121427  
   0.074996300    -0.3081922   -0.7719558  
   0.076996200    -0.3960461   -0.7188722  
   0.078996100    -0.4793915   -0.6525414  
   0.080996000    -0.5562400   -0.5717837  
   0.082995900    -0.6238620   -0.4767540  
   0.084995800    -0.6783022   -0.3677252  
   0.086995700    -0.7179577   -0.2459819  
   0.088995600    -0.7375505   -0.1130229  
   0.090995500    -0.7339045    0.0281709  
   0.092995400    -0.7039158    0.1731610  
   0.094995300    -0.6433954    0.3156600  
   0.096995200    -0.5522551    0.4481615  
   0.098995100    -0.4312040    0.5622727  
   0.100995000    -0.2840469    0.6509668  
   0.102994900    -0.1196928    0.7049195  
   0.104994800     0.0533661    0.7209153  
   0.106994700     0.2247645    0.6972128  
   0.108994600     0.3848107    0.6378353  
   0.110994500     0.5249332    0.5474478  
   0.112994400     0.6391734    0.4324507  
   0.114994300     0.7242925    0.3012360  
   0.116994200     0.7796603    0.1612680  
   0.118994100     0.8061711    0.0197492  
   0.120994000     0.8078600   -0.1183182  
   0.122993900     0.7848185   -0.2486710  
   0.124993800     0.7422251   -0.3682573  
   0.126993700     0.6833454   -0.4754155  
   0.128993600     0.6107882   -0.5677547  
   0.130993500     0.5287097   -0.6459645  
   0.132993400     0.4387369   -0.7103788  
   0.134993300     0.3434579   -0.7599073  
   0.136993200     0.2443619   -0.7952390  
   0.138993100     0.1429257   -0.8166588  
   0.140993000     0.0414060   -0.8244037  
   0.142992900    -0.0597184   -0.8188264  
   0.144992800    -0.1586703   -0.8021020  
   0.146992700    -0.2549676   -0.7710034  
   0.148992600    -0.3465884   -0.7280837  
   0.150992500    -0.4311006   -0.6721045  
   0.152992400    -0.5098787   -0.6057154  
   0.154992300    -0.5801455   -0.5289416  
   0.156992200    -0.6403899   -0.4416399  
   0.158992100    -0.6890560   -0.3450024  
   0.160992000    -0.7244501   -0.2402174  
   0.162991900    -0.7452885   -0.1286644  
   0.164991800    -0.7494505   -0.0122410  
   0.166991700    -0.7356097    0.1062460  
   0.168991600    -0.7027025    0.2244195  
   0.170991500    -0.6497965    0.3394674  
   0.172991400    -0.5771899    0.4465582  
   0.174991300    -0.4854373    0.5421884  
   0.176991200    -0.3751030    0.6227066  
   0.178991100    -0.2498904    0.6837831  
   0.180991000    -0.1139737    0.7225298  
   0.182990900     0.0288712    0.7352496  
   0.184990800     0.1734441    0.7209237  
   0.186990700     0.3132992    0.6796433  
   0.188990600     0.4240300    0.6246659  
   0.190990500     0.5535396    0.5256436  
   0.192990400     0.6504008    0.4152283  
   0.194990300     0.7224103    0.2930637  
   0.196990200     0.7701966    0.1627340  
   0.198990100     0.7938907    0.0285384  
   0.200990000     0.7937104   -0.1049681  
   0.202989900     0.7710502   -0.2335212  
   0.204989800     0.7283017   -0.3532702  
   0.206989700     0.6692221   -0.4626904  
   0.208989600     0.5947420   -0.5574926  
   0.210989500     0.5078707   -0.6383474  
   0.212989400     0.4117686   -0.7039255  
   0.214989300     0.3090722   -0.7530341  
   0.216989200     0.2025840   -0.7860377  
   0.218989100     0.0942776   -0.8030056  
   0.220989000    -0.0140694   -0.8046682  
   0.222988900    -0.1209890   -0.7906125  
   0.224988800    -0.2245510   -0.7621121  
   0.226988700    -0.3218502   -0.7197159  
   0.228988600    -0.4122145   -0.6642601  
   0.230988500    -0.4942981   -0.5968878  
   0.232988400    -0.5652989   -0.5172109  
   0.234988300    -0.6260411   -0.4279131  
   0.236988200    -0.6737919   -0.3298468  
   0.238988100    -0.7074056   -0.2244142  
   0.240988000    -0.7251013   -0.1142492  
   0.242987900    -0.7260012   -0.0008195  
   0.244987800    -0.7090855    0.1133463  
   0.246987700    -0.6739210    0.2262216  
   0.248987600    -0.6198988    0.3343436  
   0.250987500    -0.5470343    0.4342779  
   0.252987400    -0.4568215    0.5221176  
   0.254987300    -0.3516176    0.5943187  
   0.256987200    -0.2336990    0.6481453  
   0.258987100    -0.1058686    0.6820729  
   0.260987000     0.0281541    0.6913708  
   0.262986900     0.1631720    0.6758376  
   0.264986800     0.2943112    0.6355609  
   0.266986700     0.4156908    0.5712335  
   0.268986600     0.5230390    0.4859380  
   0.270986500     0.6119846    0.3831496  
   0.272986400     0.6802691    0.2665897  
   0.274986300     0.7257711    0.1413101  
   0.276986200     0.7477955    0.0115283  
   0.278986100     0.7468752   -0.1178206  
   0.280986000     0.7235278   -0.2433080  
   0.282985900     0.6802785   -0.3603783  
   0.284985800     0.6194708   -0.4665998  
   0.286985700     0.5442614   -0.5594054  
   0.288985600     0.4575522   -0.6366877  
   0.290985500     0.3624083   -0.6982539  
   0.292985400     0.2615753   -0.7438653  
   0.294985300     0.1571420   -0.7737374  
   0.296985200     0.0507435   -0.7879285  
   0.298985100    -0.0553094   -0.7868752  
   0.300985000    -0.1593176   -0.7709873  
   0.302984900    -0.2587996   -0.7413044  
   0.304984800    -0.3522333   -0.6986988  
   0.306984700    -0.4382659   -0.6444591  
   0.308984600    -0.5153282   -0.5796292  
   0.310984500    -0.5829771   -0.5055025  
   0.312984400    -0.6400730   -0.4227547  
   0.314984300    -0.6862136   -0.3324917  
   0.316984200    -0.7199840   -0.2359759  
   0.318984100    -0.7400575   -0.1335855  
   0.320984000    -0.7452750   -0.0266380  
   0.322983900    -0.7343341    0.0814892  
   0.324983800    -0.7057763    0.1883892  
   0.326983700    -0.6600017    0.2903747  
   0.328983600    -0.5971129    0.3833013  
   0.330983500    -0.5204831    0.4639889  
   0.332983400    -0.4334418    0.5299433  
   0.334983300    -0.3388777    0.5813569  
   0.336983200    -0.2389360    0.6186931  
   0.338983100    -0.1347050    0.6417447  
   0.340983000    -0.0279192    0.6500514  
   0.342982900     0.0805085    0.6428025  
   0.344982800     0.1888873    0.6188160  
   0.346982700     0.2943167    0.5772468  
   0.348982600     0.3925266    0.5174268  
   0.350982500     0.4812854    0.4417086  
   0.352982400     0.5571474    0.3508983  
   0.354982300     0.6183513    0.2433527  
   0.356982200     0.6615663    0.1142455  
   0.358982100     0.6785541   -0.0211321  
   0.360982000     0.6684606   -0.1566859  
   0.362981900     0.6320899   -0.2878722  
   0.364981800     0.5707189   -0.4092905  
   0.366981700     0.4872776   -0.5162237  
   0.368981600     0.3850289   -0.6044118  
   0.370981500     0.2684933   -0.6708550  
   0.372981400     0.1420795   -0.7136976  
   0.374981300     0.0105651   -0.7317401  
   0.376981200     0.1200470   -0.7207997  
   0.378981100    -0.0099963   -0.7337204  
   0.380981000    -0.1393210   -0.7226399  
   0.382980900    -0.2521710   -0.6924196  
   0.384980800    -0.3529952   -0.6475051  
   0.386980700    -0.4447554   -0.5875164  
   0.388980600    -0.5264906   -0.5144886  
   0.390980500    -0.5951294   -0.4309415  
   0.392980400    -0.6498653   -0.3389494  
   0.394980300    -0.6903270   -0.2402418  
   0.396980200    -0.7155051   -0.1368458  
   0.398980100    -0.7253872   -0.0305022  
   0.400980000    -0.7192614    0.0762749  
   0.402979900    -0.6970577    0.1815653  
   0.404979800    -0.6597685    0.2829380  
   0.406979700    -0.6070496    0.3781705  
   0.408979600    -0.5400602    0.4652106  
   0.410979500    -0.4596657    0.5421484  
   0.412979400    -0.3664799    0.6068684  
   0.414979300    -0.2631389    0.6556779  
   0.416979200    -0.1522913    0.6890734  
   0.418979100    -0.0363764    0.7044787  
   0.420979000     0.0817018    0.7011208  
   0.422978900     0.1991883    0.6779907  
   0.424978800     0.3121017    0.6353550  
   0.426978700     0.4173957    0.5738837  
   0.428978600     0.5113168    0.4951665  
   0.430978500     0.5906230    0.4013531  
   0.432978400     0.6530215    0.2955365  
   0.434978300     0.6975182    0.1811185  
   0.436978200     0.7207733    0.0606616  
   0.438978100     0.7234378   -0.0615955  
   0.440978000     0.7053583   -0.1820954  
   0.442977900     0.6679516   -0.2968728  
   0.444977800     0.6120383   -0.4030246  
   0.446977700     0.5397326   -0.4975217  
   0.448977600     0.4541962   -0.5781149  
   0.450977500     0.3572870   -0.6430041  
   0.452977400     0.2521488   -0.6907800  
   0.454977300     0.1411836   -0.7206041  
   0.456977200     0.0276118   -0.7325921  
   0.458977100    -0.0854279   -0.7263058  
   0.460977000    -0.1944620   -0.7025825  
   0.462976900    -0.2977248   -0.6626445  
   0.464976800    -0.3925412   -0.6075351  
   0.466976700    -0.4773567   -0.5390729  
   0.468976600    -0.5501810   -0.4588024  
   0.470976500    -0.6095057   -0.3683714  
   0.472976400    -0.6544888   -0.2705255  
   0.474976300    -0.6838890   -0.1670843  
   0.476976200    -0.6969142   -0.0604760  
   0.478976100    -0.6934332    0.0471364  
   0.480976000    -0.6733709    0.1526567  
   0.482975900    -0.6373031    0.2540048  
   0.484975800    -0.5856381    0.3490653  
   0.486975700    -0.5187955    0.4357537  
   0.488975600    -0.4384727    0.5113639  
   0.490975500    -0.3463383    0.5736423  
   0.492975400    -0.2439406    0.6203351  
   0.494975300    -0.1344712    0.6493545  
   0.496975200    -0.0207408    0.6598965  
   0.498975100     0.0933033    0.6507849  
   0.500975000     0.2044990    0.6218355  
   0.502974900     0.3086010    0.5738959  
   0.504974800     0.4026701    0.5091374  
   0.506974700     0.4836263    0.4289726  
   0.508974600     0.5488453    0.3361961  
   0.510974500     0.5960724    0.2348071  
   0.512974400     0.6253346    0.1291892  
   0.514974300     0.6345835    0.0228926  
   0.516974200     0.6279347   -0.0810527  
   0.518974100     0.6058488   -0.1797449  
   0.520974000     0.5702395   -0.2720171  
   0.522973900     0.5230639   -0.3563671  
   0.524973800     0.4656497   -0.4316566  
   0.526973700     0.3992794   -0.4984559  
   0.528973600     0.3248272   -0.5549322  
   0.530973500     0.2432648   -0.6018914  
   0.532973400     0.1556333   -0.6372977  
   0.534973300     0.0627428   -0.6602786  
   0.536973200    -0.0340762   -0.6700596  
   0.538973100    -0.1321854   -0.6649290  
   0.540973000    -0.2293998   -0.6450949  
   0.542972900    -0.3238946   -0.6100401  
   0.544972800    -0.4128253   -0.5600788  
   0.546972700    -0.4940327   -0.4957184  
   0.548972600    -0.5645335   -0.4182516  
   0.550972500    -0.6226076   -0.3303467  
   0.552972400    -0.6661099   -0.2328711  
   0.554972300    -0.6934348   -0.1291068  
   0.556972200    -0.7037138   -0.0220294  
   0.558972100    -0.6968451    0.0862329  
   0.560972000    -0.6726561    0.1920009  
   0.562971900    -0.6317457    0.2927771  
   0.564971800    -0.5751539    0.3857296  
   0.566971700    -0.5044891    0.4690575  
   0.568971600    -0.4211318    0.5401697  
   0.570971500    -0.3270394    0.5974134  
   0.572971400    -0.2240768    0.6391765  
   0.574971300    -0.1151746    0.6638791  
   0.576971200    -0.0023323    0.6706118  
   0.578971100     0.1108362    0.6587019  
   0.580971000     0.2214409    0.6278234  
   0.582970900     0.3255448    0.5791127  
   0.584970800     0.4205423    0.5133756  
   0.586970700     0.5031195    0.4324033  
   0.588970600     0.5713997    0.3381385  
   0.590970500     0.6225741    0.2339520  
   0.592970400     0.6555649    0.1220125  
   0.594970300     0.6690079    0.0059412  
   0.596970200     0.6623520   -0.1102335  
   0.598970100     0.6364533   -0.2237136  
   0.600970000     0.5914460   -0.3309964  
   0.602969900     0.5293202   -0.4287037  
   0.604969800     0.4519624   -0.5142592  
   0.606969700     0.3614968   -0.5851924  
   0.608969600     0.2613750   -0.6398911  
   0.610969500     0.1539657   -0.6768357  
   0.612969400     0.0428942   -0.6954719  
   0.614969300    -0.0683813   -0.6955817  
   0.616969200    -0.1769758   -0.6781745  
   0.618969100    -0.2801258   -0.6441743  
   0.620969000    -0.3753300   -0.5950322  
   0.622968900    -0.4616440   -0.5318779  
   0.624968800    -0.5366699   -0.4568179  
   0.626968700    -0.5991974   -0.3714834  
   0.628968600    -0.6478677   -0.2778049  
   0.630968500    -0.6815270   -0.1780986  
   0.632968400    -0.6997909   -0.0748528  
   0.634968300    -0.7022032    0.0302800  
   0.636968200    -0.6889811    0.1342944  
   0.638968100    -0.6601564    0.2354591  
   0.640968000    -0.6161826    0.3316660  
   0.642967900    -0.5581095    0.4201043  
   0.644967800    -0.4868291    0.4992635  
   0.646967700    -0.4040091    0.5672976  
   0.648967600    -0.3111119    0.6219627  
   0.650967500    -0.2105808    0.6617196  
   0.652967400    -0.1045206    0.6857748  
   0.654967300     0.0047946    0.6931102  
   0.656967200     0.1149509    0.6833276  
   0.658967100     0.2226682    0.6557109  
   0.660967000     0.3260362    0.6108298  
   0.662966900     0.4220142    0.5489600  
   0.664966800     0.5075130    0.4717821  
   0.666966700     0.5797846    0.3802276  
   0.668966600     0.6362869    0.2775789  
   0.670966500     0.6748330    0.1666575  
   0.672966400     0.6957594    0.0504619  
   0.674966300     0.6958165   -0.0672122  
   0.676966200     0.6756307   -0.1831779  
   0.678966100     0.6369196   -0.2932193  
   0.680966000     0.5805994   -0.3949232  
   0.682965900     0.5088516   -0.4854126  
   0.684965800     0.4239701   -0.5621860  
   0.686965700     0.3281909   -0.6235175  
   0.688965600     0.2247692   -0.6682941  
   0.690965500     0.1162146   -0.6942400  
   0.692965400     0.0064897   -0.7034046  
   0.694965300    -0.1021350   -0.6954261  
   0.696965200    -0.2069901   -0.6706890  
   0.698965100    -0.3059715   -0.6306711  
   0.700965000    -0.3969885   -0.5761756  
   0.702964900    -0.4776764   -0.5090150  
   0.704964800    -0.5468768   -0.4305961  
   0.706964700    -0.6033722   -0.3434113  
   0.708964600    -0.6457058   -0.2485089  
   0.710964500    -0.6739283   -0.1486060  
   0.712964400    -0.6859066   -0.0461352  
   0.714964300    -0.6823715    0.0574520  
   0.716964200    -0.6629766    0.1587728  
   0.718964100    -0.6287063    0.2561484  
   0.720964000    -0.5798749    0.3469786  
   0.722963900    -0.5177779    0.4298084  
   0.724963800    -0.4432565    0.5020959  
   0.726963700    -0.3579181    0.5623559  
   0.728963600    -0.2634209    0.6085575  
   0.730963500    -0.1623019    0.6392584  
   0.732963400    -0.0574587    0.6535463  
   0.734963300     0.0497088    0.6507263  
   0.736963200     0.1705167    0.6263935  
   0.738963100     0.2857805    0.5794339  
   0.740963000     0.3902351    0.5118340  
   0.742962900     0.4802837    0.4262519  
   0.744962800     0.5524292    0.3251453  
   0.746962700     0.6041059    0.2132504  
   0.748962600     0.6341677    0.0939660  
   0.750962500     0.5989348    0.1888703  
   0.752962400     0.6248619    0.0709754  
   0.754962300     0.6290968   -0.0492640  
   0.756962200     0.6114281   -0.1673032  
   0.758962100     0.5731447   -0.2793764  
   0.760962000     0.5154825   -0.3825055  
   0.762961900     0.4446404   -0.4693144  
   0.764961800     0.3680085   -0.5370363  
   0.766961700     0.2818339   -0.5922338  
   0.768961600     0.1883410   -0.6338865  
   0.770961500     0.0896538   -0.6603718  
   0.772961400    -0.0122810   -0.6716270  
   0.774961300    -0.1143087   -0.6672013  
   0.776961200    -0.2152702   -0.6469781  
   0.778961100    -0.3119986   -0.6114595  
   0.780961000    -0.4026869   -0.5608440  
   0.782960900    -0.4843137   -0.4966643  
   0.784960800    -0.5554746   -0.4196021  
   0.786960700    -0.6136212   -0.3324180  
   0.788960600    -0.6572588   -0.2368941  
   0.790960500    -0.6856204   -0.1354527  
   0.792960400    -0.6975633   -0.0309822  
   0.794960300    -0.6931818    0.0742193  
   0.796960200    -0.6721754    0.1772240  
   0.798960100    -0.6355154    0.2756680  
   0.800960000    -0.5841620    0.3670315  
   0.802959900    -0.5188267    0.4496352  
   0.804959800    -0.4416569    0.5205522  
   0.806959700    -0.3544527    0.5794036  
   0.808959600    -0.2586884    0.6234695  
   0.810959500    -0.1573703    0.6524066  
   0.812959400    -0.0519383    0.6652475  
   0.814959300     0.0544204    0.6611326  
   0.816959200     0.1593122    0.6406397  
   0.818959100     0.2600792    0.6034997  
   0.820959000     0.3544250    0.5504941  
   0.822958900     0.4395200    0.4827482  
   0.824958800     0.5127124    0.4016311  
   0.826958700     0.5724274    0.3093439  
   0.828958600     0.6163995    0.2080022  
   0.830958500     0.6431101    0.1005374  
   0.832958400     0.6520280   -0.0101706  
   0.834958300     0.6424669   -0.1208111  
   0.836958200     0.6147922   -0.2281885  
   0.838958100     0.5697848   -0.3301001  
   0.840958000     0.5085828   -0.4228374  
   0.842957900     0.4328803   -0.5045661  
   0.844957800     0.3449008   -0.5723878  
   0.846957700     0.2472340   -0.6247560  
   0.848957600     0.1422446   -0.6600496  
   0.850957500     0.0339631   -0.6776544  
   0.852957400    -0.0755000   -0.6775715  
   0.854957300    -0.1826594   -0.6598070  
   0.856957200    -0.2850861   -0.6252317  
   0.858957100    -0.3799898   -0.5753705  
   0.860957000    -0.4648347   -0.5118111  
   0.862956900    -0.5380695   -0.4366592  
   0.864956800    -0.5984631   -0.3523330  
   0.866956700    -0.6448940   -0.2603300  
   0.868956600    -0.6760034   -0.1632927  
   0.870956500    -0.6930186   -0.0630606  
   0.872956400    -0.6946136    0.0381513  
   0.874956300    -0.6811236    0.1382735  
   0.876956200    -0.6526572    0.2358395  
   0.878956100    -0.6104303    0.3278888  
   0.880956000    -0.5547237    0.4130141  
   0.882955900    -0.4865935    0.4889848  
   0.884955800    -0.4077361    0.5544958  
   0.886955700    -0.3194053    0.6076209  
   0.888955600    -0.2236277    0.6472458  
   0.890955500    -0.1225550    0.6719196  
   0.892955400    -0.0181051    0.6807319  
   0.894955300     0.0870834    0.6736580  
