! MS46122B
! 2250307/22442219
! 7/21/2025 12:16:31 PM
! C:\USERS\SPARKY\DOCUMENTS\VNA_DATA\JULY21_2025\295K\PORT3_MOS3_REPEAT1.S1P
! CHANNEL.1
! TR.MEASUREMENT
! RAW.DATA
# GHZ S RI R 50.0
! FREQ.GHZ         S11RE         S11IM         
!; PortSelection: Port_1
   0.001000000     1.0452860   -0.0710863  
   0.002999900     0.9637323   -0.1936937  
   0.004999800     0.9030128   -0.2983780  
   0.006999700     0.8351426   -0.3956723  
   0.008999600     0.7552775   -0.4900514  
   0.010999500     0.6607199   -0.5789151  
   0.012999400     0.5459577   -0.6592163  
   0.014999300     0.4056467   -0.7239330  
   0.016999200     0.2350582   -0.7596022  
   0.018999100     0.0325151   -0.7466007  
   0.020999000    -0.1890928   -0.6526939  
   0.022998900    -0.3870304   -0.4466392  
   0.024998800    -0.4657814   -0.1343877  
   0.026998700    -0.3994249    0.2176304  
   0.028998600    -0.1510494    0.4716794  
   0.030998500     0.1599679    0.5625736  
   0.032998400     0.4096572    0.5070826  
   0.034998300     0.6353874    0.3939704  
   0.036998200     0.7627137    0.2427507  
   0.038998100     0.8331347    0.0887542  
   0.040998000     0.8617518   -0.0563705  
   0.042997900     0.8603180   -0.1883894  
   0.044997800     0.8131160   -0.2808134  
   0.046997700     0.7979679   -0.4094805  
   0.048997600     0.7475152   -0.5008163  
   0.050997500     0.6883681   -0.5794895  
   0.052997400     0.6223953   -0.6474603  
   0.054997300     0.5515879   -0.7048072  
   0.056997200     0.4750432   -0.7541881  
   0.058997100     0.3957139   -0.7937230  
   0.060997000     0.3128653   -0.8245509  
   0.062996900     0.2273996   -0.8464810  
   0.064996800     0.1395385   -0.8589361  
   0.066996700     0.0494289   -0.8622697  
   0.068996600    -0.0417500   -0.8552160  
   0.070996500    -0.1339108   -0.8383800  
   0.072996400    -0.2259553   -0.8088992  
   0.074996300    -0.3164380   -0.7674441  
   0.076996200    -0.4042979   -0.7129093  
   0.078996100    -0.4873502   -0.6449662  
   0.080996000    -0.5636585   -0.5624708  
   0.082995900    -0.6303200   -0.4656024  
   0.084995800    -0.6834043   -0.3545150  
   0.086995700    -0.7210982   -0.2310213  
   0.088995600    -0.7381085   -0.0963571  
   0.090995500    -0.7312670    0.0461311  
   0.092995400    -0.6974163    0.1917291  
   0.094995300    -0.6325334    0.3339376  
   0.096995200    -0.5367599    0.4649959  
   0.098995100    -0.4113156    0.5762232  
   0.100995000    -0.2601498    0.6609420  
   0.102994900    -0.0931087    0.7094510  
   0.104994800     0.0810968    0.7193443  
   0.106994700     0.2520836    0.6894718  
   0.108994600     0.4097909    0.6241299  
   0.110994500     0.5464713    0.5287095  
   0.112994400     0.6561468    0.4098696  
   0.114994300     0.7362869    0.2761309  
   0.116994200     0.7863301    0.1350709  
   0.118994100     0.8077572   -0.0066673  
   0.120994000     0.8047891   -0.1440165  
   0.122993900     0.7779307   -0.2729525  
   0.124993800     0.7317376   -0.3902241  
   0.126993700     0.6700791   -0.4948142  
   0.128993600     0.5950164   -0.5846444  
   0.130993500     0.5109980   -0.6602563  
   0.132993400     0.4193966   -0.7217807  
   0.134993300     0.3230306   -0.7685894  
   0.136993200     0.2233323   -0.8009393  
   0.138993100     0.1214558   -0.8195502  
   0.140993000     0.0198999   -0.8244364  
   0.142992900    -0.0813558   -0.8161587  
   0.144992800    -0.1801698   -0.7966361  
   0.146992700    -0.2754780   -0.7628134  
   0.148992600    -0.3663699   -0.7170347  
   0.150992500    -0.4497284   -0.6583919  
   0.152992400    -0.5271298   -0.5893226  
   0.154992300    -0.5952386   -0.5097409  
   0.156992200    -0.6530576   -0.4197013  
   0.158992100    -0.6990300   -0.3207915  
   0.160992000    -0.7312244   -0.2136108  
   0.162991900    -0.7481349   -0.1005585  
   0.164991800    -0.7480687    0.0172128  
   0.166991700    -0.7293403    0.1365510  
   0.168991600    -0.6912533    0.2544513  
   0.170991500    -0.6330914    0.3683354  
   0.172991400    -0.5544876    0.4735394  
   0.174991300    -0.4571528    0.5658175  
   0.176991200    -0.3419718    0.6415512  
   0.178991100    -0.2127852    0.6969539  
   0.180991000    -0.0737101    0.7288858  
   0.182990900     0.0706526    0.7340043  
   0.184990800     0.2152050    0.7115716  
   0.186990700     0.3531382    0.6621773  
   0.188990600     0.4611930    0.6009208  
   0.190990500     0.5849409    0.4942448  
   0.192990400     0.6754358    0.3784258  
   0.194990300     0.7402933    0.2524087  
   0.196990200     0.7802777    0.1199749  
   0.198990100     0.7963086   -0.0149929  
   0.200990000     0.7884324   -0.1476316  
   0.202989900     0.7590477   -0.2745917  
   0.204989800     0.7098703   -0.3911049  
   0.206989700     0.6452422   -0.4965605  
   0.208989600     0.5659739   -0.5870965  
   0.210989500     0.4756329   -0.6629758  
   0.212989400     0.3763088   -0.7229944  
   0.214989300     0.2714648   -0.7668568  
   0.216989200     0.1637451   -0.7940596  
   0.218989100     0.0548790   -0.8054198  
   0.220989000    -0.0536637   -0.8015434  
   0.222988900    -0.1593535   -0.7818983  
   0.224988800    -0.2614919   -0.7479597  
   0.226988700    -0.3571258   -0.7003397  
   0.228988600    -0.4448319   -0.6401271  
   0.230988500    -0.5234070   -0.5680339  
   0.232988400    -0.5905058   -0.4840093  
   0.234988300    -0.6467184   -0.3906474  
   0.236988200    -0.6893819   -0.2889948  
   0.238988100    -0.7168672   -0.1808031  
   0.240988000    -0.7279803   -0.0682747  
   0.242987900    -0.7216290    0.0464283  
   0.244987800    -0.6972551    0.1605485  
   0.246987700    -0.6541440    0.2724561  
   0.248987600    -0.5919791    0.3780726  
   0.250987500    -0.5113261    0.4738832  
   0.252987400    -0.4136425    0.5560671  
   0.254987300    -0.3019152    0.6211988  
   0.256987200    -0.1786691    0.6663121  
   0.258987100    -0.0472256    0.6902080  
   0.260987000     0.0884352    0.6886986  
   0.262986900     0.2230567    0.6618899  
   0.264986800     0.3510541    0.6104777  
   0.266986700     0.4674047    0.5358059  
   0.268986600     0.5676234    0.4413940  
   0.270986500     0.6475834    0.3314647  
   0.272986400     0.7057079    0.2097983  
   0.274986300     0.7405296    0.0812883  
   0.276986200     0.7517089   -0.0493674  
   0.278986100     0.7403271   -0.1780792  
   0.280986000     0.7069644   -0.3002864  
   0.282985900     0.6550732   -0.4131108  
   0.284985800     0.5866551   -0.5138782  
   0.286985700     0.5049172   -0.5999157  
   0.288985600     0.4130531   -0.6700583  
   0.290985500     0.3142679   -0.7242163  
   0.292985400     0.2107835   -0.7623706  
   0.294985300     0.1049226   -0.7845522  
   0.296985200    -0.0017156   -0.7911484  
   0.298985100    -0.1075227   -0.7825555  
   0.300985000    -0.2099360   -0.7595227  
   0.302984900    -0.3074359   -0.7230054  
   0.304984800    -0.3980629   -0.6740103  
   0.306984700    -0.4803803   -0.6134584  
   0.308984600    -0.5532200   -0.5431349  
   0.310984500    -0.6159357   -0.4635702  
   0.312984400    -0.6677448   -0.3761750  
   0.314984300    -0.7073537   -0.2814992  
   0.316984200    -0.7338591   -0.1812970  
   0.318984100    -0.7459854   -0.0759663  
   0.320984000    -0.7421663    0.0325059  
   0.322983900    -0.7213873    0.1416459  
   0.324983800    -0.6828150    0.2467518  
   0.326983700    -0.6264167    0.3448494  
   0.328983600    -0.5540904    0.4318852  
   0.330983500    -0.4693846    0.5047271  
   0.332983400    -0.3760867    0.5617455  
   0.334983300    -0.2771908    0.6033932  
   0.336983200    -0.1747141    0.6308846  
   0.338983100    -0.0692376    0.6440530  
   0.340983000     0.0378563    0.6427642  
   0.342982900     0.1450452    0.6255844  
   0.344982800     0.2508143    0.5915589  
   0.346982700     0.3521503    0.5399151  
   0.348982600     0.4446257    0.4706166  
   0.350982500     0.5259380    0.3863285  
   0.352982400     0.5925281    0.2878879  
   0.354982300     0.6424884    0.1741557  
   0.356982200     0.6722212    0.0409276  
   0.358982100     0.6748697   -0.0959373  
   0.360982000     0.6504741   -0.2302758  
   0.362981900     0.6000422   -0.3571273  
   0.364981800     0.5261508   -0.4713291  
   0.366981700     0.4312753   -0.5686163  
   0.368981600     0.3201534   -0.6453680  
   0.370981500     0.1969384   -0.6988853  
   0.372981400     0.0669809   -0.7279331  
   0.374981300    -0.0656406   -0.7318028  
   0.376981200     0.0454459   -0.7325706  
   0.378981100    -0.0851747   -0.7315862  
   0.380981000    -0.2128758   -0.7068751  
   0.382980900    -0.3222621   -0.6654862  
   0.384980800    -0.4178309   -0.6097196  
   0.386980700    -0.5035297   -0.5403255  
   0.388980600    -0.5770338   -0.4590849  
   0.390980500    -0.6369171   -0.3683148  
   0.392980400    -0.6824825   -0.2703699  
   0.394980300    -0.7122624   -0.1672105  
   0.396980200    -0.7266758   -0.0606940  
   0.398980100    -0.7248889    0.0469162  
   0.400980000    -0.7073111    0.1537518  
   0.402979900    -0.6733434    0.2576632  
   0.404979800    -0.6245052    0.3553439  
   0.406979700    -0.5606695    0.4456643  
   0.408979600    -0.4830043    0.5258653  
   0.410979500    -0.3923643    0.5939974  
   0.412979400    -0.2911246    0.6484363  
   0.414979300    -0.1806986    0.6851687  
   0.416979200    -0.0644510    0.7051573  
   0.418979100     0.0544167    0.7063417  
   0.420979000     0.1729143    0.6874911  
   0.422978900     0.2881916    0.6490165  
   0.424978800     0.3964821    0.5912468  
   0.426978700     0.4940458    0.5153618  
   0.428978600     0.5775607    0.4233713  
   0.430978500     0.6440388    0.3187518  
   0.432978400     0.6918777    0.2043271  
   0.434978300     0.7204992    0.0838214  
   0.436978200     0.7269371   -0.0396155  
   0.438978100     0.7124044   -0.1616332  
   0.440978000     0.6778290   -0.2788361  
   0.442977900     0.6243390   -0.3876316  
   0.444977800     0.5538584   -0.4851922  
   0.446977700     0.4692908   -0.5685804  
   0.448977600     0.3731612   -0.6365146  
   0.450977500     0.2684013   -0.6873885  
   0.452977400     0.1578060   -0.7199234  
   0.454977300     0.0437740   -0.7345355  
   0.456977200    -0.0703036   -0.7307621  
   0.458977100    -0.1812564   -0.7091643  
   0.460977000    -0.2866614   -0.6707938  
   0.462976900    -0.3832164   -0.6172304  
   0.464976800    -0.4701834   -0.5496662  
   0.466976700    -0.5452503   -0.4696627  
   0.468976600    -0.6065831   -0.3797617  
   0.470976500    -0.6536687   -0.2815621  
   0.472976400    -0.6850987   -0.1774156  
   0.474976300    -0.7000021   -0.0697132  
   0.476976200    -0.6977385    0.0390097  
   0.478976100    -0.6788105    0.1464006  
   0.480976000    -0.6436083    0.2493724  
   0.482975900    -0.5923215    0.3462697  
   0.484975800    -0.5259495    0.4342123  
   0.486975700    -0.4454747    0.5114224  
   0.488975600    -0.3531933    0.5750229  
   0.490975500    -0.2504788    0.6232288  
   0.492975400    -0.1400002    0.6537860  
   0.494975300    -0.0253340    0.6654975  
   0.496975200     0.0905723    0.6570992  
   0.498975100     0.2034814    0.6289413  
   0.500975000     0.3095585    0.5813458  
   0.502974900     0.4057023    0.5162403  
   0.504974800     0.4883294    0.4355579  
   0.506974700     0.5551098    0.3421925  
   0.508974600     0.6038710    0.2389419  
   0.510974500     0.6340289    0.1310370  
   0.512974400     0.6452579    0.0214289  
   0.514974300     0.6366879   -0.0851545  
   0.516974200     0.6132159   -0.1863894  
   0.518974100     0.5754634   -0.2808986  
   0.520974000     0.5256295   -0.3664406  
   0.522973900     0.4655477   -0.4422862  
   0.524973800     0.3966345   -0.5080019  
   0.526973700     0.3199812   -0.5637084  
   0.528973600     0.2372029   -0.6087401  
   0.530973500     0.1481951   -0.6425256  
   0.532973400     0.0547556   -0.6639404  
   0.534973300    -0.0417783   -0.6719318  
   0.536973200    -0.1403181   -0.6656988  
   0.538973100    -0.2378962   -0.6446416  
   0.540973000    -0.3319471   -0.6084732  
   0.542972900    -0.4208188   -0.5575834  
   0.544972800    -0.5016186   -0.4924468  
   0.546972700    -0.5717735   -0.4138237  
   0.548972600    -0.6295419   -0.3246336  
   0.550972500    -0.6722540   -0.2262888  
   0.552972400    -0.6988295   -0.1211772  
   0.554972300    -0.7080495   -0.0129722  
   0.556972200    -0.6997329    0.0964299  
   0.558972100    -0.6737892    0.2033610  
   0.560972000    -0.6307356    0.3049628  
   0.562971900    -0.5719875    0.3982741  
   0.564971800    -0.4986173    0.4815826  
   0.566971700    -0.4127320    0.5520953  
   0.568971600    -0.3162084    0.6081266  
   0.570971500    -0.2114490    0.6482711  
   0.572971400    -0.1008756    0.6708346  
   0.574971300     0.0130965    0.6751885  
   0.576971200     0.1272303    0.6605760  
   0.578971100     0.2385251    0.6269893  
   0.580971000     0.3425021    0.5749008  
   0.582970900     0.4373786    0.5059897  
   0.584970800     0.5191112    0.4216450  
   0.586970700     0.5856524    0.3244340  
   0.588970600     0.6345801    0.2176439  
   0.590970500     0.6648058    0.1036111  
   0.592970400     0.6751103   -0.0137805  
   0.594970300     0.6652160   -0.1308774  
   0.596970200     0.6357244   -0.2449846  
   0.598970100     0.5874081   -0.3515551  
   0.600970000     0.5218746   -0.4484751  
   0.602969900     0.4416907   -0.5324098  
   0.604969800     0.3484448   -0.6013372  
   0.606969700     0.2463220   -0.6536003  
   0.608969600     0.1368988   -0.6882630  
   0.610969500     0.0243085   -0.7039847  
   0.612969400    -0.0882300   -0.7010509  
   0.614969300    -0.1977522   -0.6806200  
   0.616969200    -0.3013356   -0.6431770  
   0.618969100    -0.3965458   -0.5906258  
   0.620969000    -0.4815360   -0.5246975  
   0.622968900    -0.5551656   -0.4466974  
   0.624968800    -0.6156198   -0.3589096  
   0.626968700    -0.6623538   -0.2632826  
   0.628968600    -0.6935617   -0.1615714  
   0.630968500    -0.7092422   -0.0565929  
   0.632968400    -0.7090721    0.0492290  
   0.634968300    -0.6926820    0.1544603  
   0.636968200    -0.6607000    0.2559624  
   0.638968100    -0.6135713    0.3518297  
   0.640968000    -0.5523240    0.4400250  
   0.642967900    -0.4779007    0.5181904  
   0.644967800    -0.3920900    0.5846664  
   0.646967700    -0.2960289    0.6376348  
   0.648967600    -0.1925604    0.6750106  
   0.650967500    -0.0840019    0.6961154  
   0.652967400     0.0271515    0.7001684  
   0.654967300     0.1386374    0.6866278  
   0.656967200     0.2470393    0.6549670  
   0.658967100     0.3499463    0.6062993  
   0.660967000     0.4447615    0.5405436  
   0.662966900     0.5282839    0.4600200  
   0.664966800     0.5983195    0.3651524  
   0.666966700     0.6518040    0.2593336  
   0.668966600     0.6872326    0.1457064  
   0.670966500     0.7031962    0.0270090  
   0.672966400     0.7000862   -0.0922849  
   0.674966300     0.6756306   -0.2089289  
   0.676966200     0.6326040   -0.3193469  
   0.678966100     0.5717390   -0.4200095  
   0.680966000     0.4957690   -0.5088153  
   0.682965900     0.4066389   -0.5833420  
   0.684965800     0.3081045   -0.6413517  
   0.686965700     0.2016935   -0.6826112  
   0.688965600     0.0909831   -0.7056305  
   0.690965500    -0.0203983   -0.7097145  
   0.692965400    -0.1297228   -0.6975521  
   0.694965300    -0.2347189   -0.6684276  
   0.696965200    -0.3329333   -0.6241361  
   0.698965100    -0.4225073   -0.5655391  
   0.700965000    -0.5014477   -0.4944919  
   0.702964900    -0.5681972   -0.4126238  
   0.704964800    -0.6217629   -0.3223742  
   0.706964700    -0.6607541   -0.2252792  
   0.708964600    -0.6845561   -0.1231072  
   0.710964500    -0.6933411   -0.0188849  
   0.712964400    -0.6856749    0.0856004  
   0.714964300    -0.6617940    0.1879056  
   0.716964200    -0.6227083    0.2854660  
   0.718964100    -0.5691286    0.3755129  
   0.720964000    -0.5023805    0.4568297  
   0.722963900    -0.4234942    0.5268974  
   0.724963800    -0.3342864    0.5839928  
   0.726963700    -0.2361483    0.6264892  
   0.728963600    -0.1321815    0.6532625  
   0.730963500    -0.0250154    0.6622989  
   0.732963400     0.0830838    0.6543140  
   0.734963300     0.1887379    0.6285090  
   0.736963200     0.3036883    0.5782558  
   0.738963100     0.4079702    0.5069869  
   0.740963000     0.4970011    0.4178365  
   0.742962900     0.5673085    0.3133937  
   0.744962800     0.6166686    0.1983738  
   0.746962700     0.6433884    0.0769797  
   0.748962600     0.6472849   -0.0466781  
   0.750962500     0.6335322    0.0524799  
   0.752962400     0.6338966   -0.0691937  
   0.754962300     0.6122755   -0.1879969  
   0.756962200     0.5699553   -0.3002845  
   0.758962100     0.5084655   -0.4023883  
   0.760962000     0.4301558   -0.4917607  
   0.762961900     0.3421541   -0.5621303  
   0.764961800     0.2522966   -0.6129020  
   0.766961700     0.1560634   -0.6495638  
   0.768961600     0.0550614   -0.6708411  
   0.770961500    -0.0481746   -0.6765768  
   0.772961400    -0.1506948   -0.6664838  
   0.774961300    -0.2510330   -0.6407496  
   0.776961200    -0.3465646   -0.5998574  
   0.778961100    -0.4347762   -0.5441732  
   0.780961000    -0.5136805   -0.4752257  
   0.782960900    -0.5807500   -0.3945101  
   0.784960800    -0.6348307   -0.3035570  
   0.786960700    -0.6738567   -0.2050978  
   0.788960600    -0.6970459   -0.1011424  
   0.790960500    -0.7035010    0.0051263  
   0.792960400    -0.6934568    0.1108329  
   0.794960300    -0.6665136    0.2140803  
   0.796960200    -0.6239365    0.3118038  
   0.798960100    -0.5668243    0.4016048  
   0.800960000    -0.4962230    0.4807730  
   0.802959900    -0.4138046    0.5485485  
   0.804959800    -0.3220387    0.6026671  
   0.806959700    -0.2225889    0.6418608  
   0.808959600    -0.1183618    0.6650791  
   0.810959500    -0.0113919    0.6717867  
   0.812959400     0.0960974    0.6610578  
   0.814959300     0.2008843    0.6338047  
   0.816959200     0.3005707    0.5899557  
   0.818959100     0.3923390    0.5306904  
   0.820959000     0.4738623    0.4569646  
   0.822958900     0.5426104    0.3704807  
   0.824958800     0.5970063    0.2735099  
   0.826958700     0.6349863    0.1684322  
   0.828958600     0.6549831    0.0581364  
   0.830958500     0.6567788   -0.0540349  
   0.832958400     0.6398945   -0.1652983  
   0.834958300     0.6052043   -0.2719837  
   0.836958200     0.5530201   -0.3715923  
   0.838958100     0.4854814   -0.4611152  
   0.840958000     0.4039210   -0.5383070  
   0.842957900     0.3110320   -0.6007061  
   0.844957800     0.2093208   -0.6471131  
   0.846957700     0.1016637   -0.6759073  
   0.848957600    -0.0083586   -0.6867680  
   0.850957500    -0.1184740   -0.6798351  
   0.852957400    -0.2252334   -0.6553088  
   0.854957300    -0.3260253   -0.6141907  
   0.856957200    -0.4186384   -0.5580125  
   0.858957100    -0.5003281   -0.4886129  
   0.860957000    -0.5696005   -0.4080401  
   0.862956900    -0.6254957   -0.3188871  
   0.864956800    -0.6664718   -0.2229601  
   0.866956700    -0.6923182   -0.1232073  
   0.868956600    -0.7024586   -0.0210211  
   0.870956500    -0.6976923    0.0810484  
   0.872956400    -0.6779297    0.1810759  
   0.874956300    -0.6432077    0.2770488  
   0.876956200    -0.5949405    0.3674049  
   0.878956100    -0.5335479    0.4498100  
   0.880956000    -0.4599956    0.5223523  
   0.882955900    -0.3760372    0.5834581  
   0.884955800    -0.2833869    0.6315498  
   0.886955700    -0.1841632    0.6654488  
   0.888955600    -0.0800877    0.6838763  
   0.890955500     0.0261257    0.6859488  
   0.892955400     0.1322275    0.6718395  
   0.894955300     0.2354535    0.6409028  
