! MS46122B
! 2250307/22442219
! 7/24/2025 12:47:16 PM
! C:\USERS\SPARKY\DOCUMENTS\VNA_DATA\JULY24_2025\295K\PORT5_MOS2_REPEAT1.S1P
! CHANNEL.1
! TR.MEASUREMENT
! RAW.DATA
# GHZ S RI R 50.0
! FREQ.GHZ         S11RE         S11IM         
!; PortSelection: Port_1
   0.001000000     1.0452630   -0.0722293  
   0.002999900     0.9635827   -0.1944561  
   0.004999800     0.9026591   -0.2989692  
   0.006999700     0.8348266   -0.3961806  
   0.008999600     0.7549543   -0.4903459  
   0.010999500     0.6605424   -0.5789525  
   0.012999400     0.5461190   -0.6588890  
   0.014999300     0.4064912   -0.7233832  
   0.016999200     0.2367983   -0.7591343  
   0.018999100     0.0355467   -0.7467260  
   0.020999000    -0.1846402   -0.6547500  
   0.022998900    -0.3824410   -0.4523227  
   0.024998800    -0.4640676   -0.1439705  
   0.026998700    -0.4041744    0.2063048  
   0.028998600    -0.1618517    0.4638931  
   0.030998500     0.1470030    0.5609112  
   0.032998400     0.3983767    0.5103082  
   0.034998300     0.6267217    0.4005896  
   0.036998200     0.7570552    0.2507078  
   0.038998100     0.8299395    0.0970809  
   0.040998000     0.8605117   -0.0482340  
   0.042997900     0.8606378   -0.1807431  
   0.044997800     0.8143362   -0.2739204  
   0.046997700     0.8002999   -0.4029948  
   0.048997600     0.7507620   -0.4948330  
   0.050997500     0.6922660   -0.5741081  
   0.052997400     0.6271523   -0.6424738  
   0.054997300     0.5565701   -0.7004845  
   0.056997200     0.4806277   -0.7503403  
   0.058997100     0.4017960   -0.7904120  
   0.060997000     0.3194632   -0.8217285  
   0.062996900     0.2345292   -0.8443543  
   0.064996800     0.1472347   -0.8574436  
   0.066996700     0.0575719   -0.8616478  
   0.068996600    -0.0331277   -0.8554485  
   0.070996500    -0.1246251   -0.8397556  
   0.072996400    -0.2164378   -0.8114408  
   0.074996300    -0.3066463   -0.7714209  
   0.076996200    -0.3942982   -0.7184827  
   0.078996100    -0.4775458   -0.6524475  
   0.080996000    -0.5542220   -0.5719597  
   0.082995900    -0.6217728   -0.4772888  
   0.084995800    -0.6762142   -0.3686640  
   0.086995700    -0.7159711   -0.2473233  
   0.088995600    -0.7357708   -0.1146802  
   0.090995500    -0.7323499    0.0260701  
   0.092995400    -0.7027792    0.1707348  
   0.094995300    -0.6427935    0.3129986  
   0.096995200    -0.5522094    0.4454325  
   0.098995100    -0.4319630    0.5596136  
   0.100995000    -0.2852254    0.6485930  
   0.102994900    -0.1214208    0.7029257  
   0.104994800     0.0513256    0.7194435  
   0.106994700     0.2226310    0.6963937  
   0.108994600     0.3825148    0.6376678  
   0.110994500     0.5228321    0.5476549  
   0.112994400     0.6373397    0.4331096  
   0.114994300     0.7227402    0.3022903  
   0.116994200     0.7783949    0.1625676  
   0.118994100     0.8052946    0.0211521  
   0.120994000     0.8073112   -0.1167859  
   0.122993900     0.7845741   -0.2471253  
   0.124993800     0.7422202   -0.3666964  
   0.126993700     0.6836415   -0.4738734  
   0.128993600     0.6112979   -0.5662549  
   0.130993500     0.5293559   -0.6448962  
   0.132993400     0.4397090   -0.7090156  
   0.134993300     0.3444471   -0.7588093  
   0.136993200     0.2456912   -0.7941136  
   0.138993100     0.1445064   -0.8156295  
   0.140993000     0.0431628   -0.8235164  
   0.142992900    -0.0576137   -0.8181320  
   0.144992800    -0.1566634   -0.8015763  
   0.146992700    -0.2527817   -0.7707592  
   0.148992600    -0.3442656   -0.7280971  
   0.150992500    -0.4287383   -0.6724315  
   0.152992400    -0.5075553   -0.6064122  
   0.154992300    -0.5776166   -0.5300152  
   0.156992200    -0.6379970   -0.4429536  
   0.158992100    -0.6868080   -0.3466832  
   0.160992000    -0.7223732   -0.2422646  
   0.162991900    -0.7434766   -0.1310765  
   0.164991800    -0.7480028   -0.0149118  
   0.166991700    -0.7345460    0.1032837  
   0.168991600    -0.7021216    0.2212837  
   0.170991500    -0.6497614    0.3362247  
   0.172991400    -0.5776684    0.4433359  
   0.174991300    -0.4862454    0.5391201  
   0.176991200    -0.3767150    0.6198534  
   0.178991100    -0.2520636    0.6813083  
   0.180991000    -0.1165683    0.7205531  
   0.182990900     0.0259695    0.7338648  
   0.184990800     0.1703598    0.7201930  
   0.186990700     0.3100404    0.6796195  
   0.188990600     0.4209867    0.6251226  
   0.190990500     0.5507762    0.5267749  
   0.192990400     0.6480374    0.4169569  
   0.194990300     0.7204733    0.2951724  
   0.196990200     0.7688219    0.1651511  
   0.198990100     0.7929426    0.0311551  
   0.200990000     0.7932854   -0.1022758  
   0.202989900     0.7711303   -0.2308330  
   0.204989800     0.7288740   -0.3507226  
   0.206989700     0.6702426   -0.4601410  
   0.208989600     0.5961351   -0.5552180  
   0.210989500     0.5095392   -0.6363423  
   0.212989400     0.4138058   -0.7020984  
   0.214989300     0.3112371   -0.7515114  
   0.216989200     0.2049331   -0.7848450  
   0.218989100     0.0968985   -0.8020791  
   0.220989000    -0.0112755   -0.8040490  
   0.222988900    -0.1181089   -0.7903382  
   0.224988800    -0.2215219   -0.7621883  
   0.226988700    -0.3188258   -0.7201725  
   0.228988600    -0.4093035   -0.6651999  
   0.230988500    -0.4913242   -0.5982554  
   0.232988400    -0.5624952   -0.5188715  
   0.234988300    -0.6234778   -0.4299422  
   0.236988200    -0.6714390   -0.3323041  
   0.238988100    -0.7053503   -0.2272707  
   0.240988000    -0.7234532   -0.1174014  
   0.242987900    -0.7247997   -0.0043282  
   0.244987800    -0.7084214    0.1097438  
   0.246987700    -0.6738468    0.2224922  
   0.248987600    -0.6204447    0.3305754  
   0.250987500    -0.5482239    0.4306344  
   0.252987400    -0.4586498    0.5186986  
   0.254987300    -0.3540510    0.5912580  
   0.256987200    -0.2366929    0.6456331  
   0.258987100    -0.1092101    0.6801705  
   0.260987000     0.0243780    0.6901373  
   0.262986900     0.1594497    0.6753647  
   0.264986800     0.2904445    0.6358749  
   0.266986700     0.4120591    0.5723540  
   0.268986600     0.5196528    0.4877752  
   0.270986500     0.6092179    0.3853986  
   0.272986400     0.6779397    0.2695438  
   0.274986300     0.7240687    0.1446375  
   0.276986200     0.7467746    0.0150404  
   0.278986100     0.7465293   -0.1143001  
   0.280986000     0.7236410   -0.2398238  
   0.282985900     0.6811087   -0.3571095  
   0.284985800     0.6207653   -0.4635493  
   0.286985700     0.5460134   -0.5566459  
   0.288985600     0.4597150   -0.6342285  
   0.290985500     0.3648514   -0.6961694  
   0.292985400     0.2642494   -0.7421001  
   0.294985300     0.1599851   -0.7723757  
   0.296985200     0.0537163   -0.7869502  
   0.298985100    -0.0522565   -0.7862855  
   0.300985000    -0.1561157   -0.7707863  
   0.302984900    -0.2556185   -0.7414778  
   0.304984800    -0.3490714   -0.6992983  
   0.306984700    -0.4351464   -0.6454157  
   0.308984600    -0.5123088   -0.5809897  
   0.310984500    -0.5801179   -0.5071157  
   0.312984400    -0.6374371   -0.4249679  
   0.314984300    -0.6839532   -0.3349484  
   0.316984200    -0.7178606   -0.2388387  
   0.318984100    -0.7383885   -0.1368131  
   0.320984000    -0.7440040   -0.0302087  
   0.322983900    -0.7337386    0.0778726  
   0.324983800    -0.7057846    0.1844203  
   0.326983700    -0.6607086    0.2864000  
   0.328983600    -0.5985278    0.3795453  
   0.330983500    -0.5224895    0.4605906  
   0.332983400    -0.4360756    0.5269645  
   0.334983300    -0.3418340    0.5789740  
   0.336983200    -0.2420529    0.6169704  
   0.338983100    -0.1381573    0.6405426  
   0.340983000    -0.0313201    0.6494792  
   0.342982900     0.0770249    0.6427999  
   0.344982800     0.1853219    0.6194451  
   0.346982700     0.2909253    0.5784457  
   0.348982600     0.3893732    0.5192310  
   0.350982500     0.4785378    0.4440092  
   0.352982400     0.5548049    0.3536994  
   0.354982300     0.6165349    0.2465717  
   0.356982200     0.6603959    0.1177879  
   0.358982100     0.6781521   -0.0173989  
   0.360982000     0.6687862   -0.1529211  
   0.362981900     0.6331306   -0.2842208  
   0.364981800     0.5724529   -0.4058578  
   0.366981700     0.4896117   -0.5132399  
   0.368981600     0.3879346   -0.6016683  
   0.370981500     0.2717351   -0.6688879  
   0.372981400     0.1456493   -0.7123618  
   0.374981300     0.0141980   -0.7310444  
   0.376981200     0.1235373   -0.7194831  
   0.378981100    -0.0063328   -0.7329832  
   0.380981000    -0.1353950   -0.7224639  
   0.382980900    -0.2486100   -0.6929283  
   0.384980800    -0.3492149   -0.6484658  
   0.386980700    -0.4416289   -0.5888664  
   0.388980600    -0.5232306   -0.5164114  
   0.390980500    -0.5921925   -0.4332021  
   0.392980400    -0.6471866   -0.3417218  
   0.394980300    -0.6880282   -0.2432600  
   0.396980200    -0.7136526   -0.1403648  
   0.398980100    -0.7240005   -0.0343325  
   0.400980000    -0.7184364    0.0723262  
   0.402979900    -0.6968738    0.1775500  
   0.404979800    -0.6600993    0.2789103  
   0.406979700    -0.6079770    0.3742096  
   0.408979600    -0.5416436    0.4614277  
   0.410979500    -0.4618621    0.5385751  
   0.412979400    -0.3691621    0.6037534  
   0.414979300    -0.2663428    0.6530065  
   0.416979200    -0.1559306    0.6869771  
   0.418979100    -0.0403987    0.7030337  
   0.420979000     0.0775460    0.7003891  
   0.422978900     0.1949004    0.6780273  
   0.424978800     0.3078347    0.6361649  
   0.426978700     0.4134961    0.5754216  
   0.428978600     0.5077583    0.4973705  
   0.430978500     0.5875503    0.4041393  
   0.432978400     0.6505243    0.2988757  
   0.434978300     0.6956052    0.1848721  
   0.436978200     0.7196950    0.0646851  
   0.438978100     0.7230254   -0.0574990  
   0.440978000     0.7057512   -0.1779791  
   0.442977900     0.6689109   -0.2929071  
   0.444977800     0.6136315   -0.3993841  
   0.446977700     0.5419317   -0.4942181  
   0.448977600     0.4568752   -0.5750979  
   0.450977500     0.3604353   -0.6405671  
   0.452977400     0.2556230   -0.6888751  
   0.454977300     0.1448987   -0.7192633  
   0.456977200     0.0315979   -0.7318252  
   0.458977100    -0.0814443   -0.7261273  
   0.460977000    -0.1905354   -0.7030129  
   0.462976900    -0.2937832   -0.6636626  
   0.464976800    -0.3888668   -0.6090627  
   0.466976700    -0.4738441   -0.5412052  
   0.468976600    -0.5469708   -0.4614262  
   0.470976500    -0.6066623   -0.3715077  
   0.472976400    -0.6520700   -0.2740405  
   0.474976300    -0.6820121   -0.1709295  
   0.476976200    -0.6955401   -0.0647219  
   0.478976100    -0.6927316    0.0427761  
   0.480976000    -0.6733136    0.1481723  
   0.482975900    -0.6379088    0.2495417  
   0.484975800    -0.5869192    0.3447616  
   0.486975700    -0.5208247    0.4316143  
   0.488975600    -0.4410871    0.5075500  
   0.490975500    -0.3495018    0.5703427  
   0.492975400    -0.2476763    0.6175405  
   0.494975300    -0.1385554    0.6472638  
   0.496975200    -0.0250786    0.6584947  
   0.498975100     0.0888795    0.6501629  
   0.500975000     0.2000973    0.6219933  
   0.502974900     0.3044001    0.5748148  
   0.504974800     0.3988483    0.5107225  
   0.506974700     0.4801627    0.4311917  
   0.508974600     0.5459462    0.3389218  
   0.510974500     0.5937498    0.2378712  
   0.512974400     0.6236458    0.1324542  
   0.514974300     0.6335068    0.0262757  
   0.516974200     0.6274385   -0.0776730  
   0.518974100     0.6058698   -0.1764156  
   0.520974000     0.5707686   -0.2688182  
   0.522973900     0.5240360   -0.3533921  
   0.524973800     0.4670041   -0.4289354  
   0.526973700     0.4009925   -0.4959562  
   0.528973600     0.3268325   -0.5526875  
   0.530973500     0.2455771   -0.5999507  
   0.532973400     0.1582263   -0.6357313  
   0.534973300     0.0655491   -0.6590636  
   0.536973200    -0.0310604   -0.6692619  
   0.538973100    -0.1289624   -0.6646129  
   0.540973000    -0.2261595   -0.6452041  
   0.542972900    -0.3205923   -0.6105670  
   0.544972800    -0.4096783   -0.5610961  
   0.546972700    -0.4910038   -0.4972494  
   0.548972600    -0.5617246   -0.4202296  
   0.550972500    -0.6201011   -0.3326852  
   0.552972400    -0.6638631   -0.2356377  
   0.554972300    -0.6916871   -0.1321802  
   0.556972200    -0.7024547   -0.0253463  
   0.558972100    -0.6960719    0.0827599  
   0.560972000    -0.6724370    0.1884243  
   0.562971900    -0.6320304    0.2891911  
   0.564971800    -0.5761546    0.3821614  
   0.566971700    -0.5058500    0.4657243  
   0.568971600    -0.4230027    0.5371339  
   0.570971500    -0.3292833    0.5946772  
   0.572971400    -0.2266962    0.6368740  
   0.574971300    -0.1180895    0.6620774  
   0.576971200    -0.0055801    0.6694294  
   0.578971100     0.1075712    0.6579584  
   0.580971000     0.2181875    0.6276788  
   0.582970900     0.3220566    0.5794702  
   0.584970800     0.4175457    0.5143254  
   0.586970700     0.5005153    0.4337288  
   0.588970600     0.5691138    0.3398812  
   0.590970500     0.6207625    0.2360057  
   0.592970400     0.6541671    0.1244244  
   0.594970300     0.6680851    0.0086496  
   0.596970200     0.6620542   -0.1074341  
   0.598970100     0.6365715   -0.2209661  
   0.600970000     0.5920836   -0.3282926  
   0.602969900     0.5303975   -0.4261793  
   0.604969800     0.4534507   -0.5119845  
   0.606969700     0.3634412   -0.5831032  
   0.608969600     0.2635974   -0.6382997  
   0.610969500     0.1563509   -0.6756450  
   0.612969400     0.0455006   -0.6946332  
   0.614969300    -0.0656206   -0.6951453  
   0.616969200    -0.1741681   -0.6781418  
   0.618969100    -0.2773331   -0.6445411  
   0.620969000    -0.3726469   -0.5958114  
   0.622968900    -0.4590442   -0.5329807  
   0.624968800    -0.5342577   -0.4582725  
   0.626968700    -0.5969814   -0.3732686  
   0.628968600    -0.6458921   -0.2798090  
   0.630968500    -0.6797981   -0.1803433  
   0.632968400    -0.6983916   -0.0772904  
   0.634968300    -0.7011036    0.0276144  
   0.636968200    -0.6881804    0.1315997  
   0.638968100    -0.6597252    0.2326607  
   0.640968000    -0.6161945    0.3288781  
   0.642967900    -0.5583437    0.4173716  
   0.644967800    -0.4873947    0.4965773  
   0.646967700    -0.4049645    0.5646597  
   0.648967600    -0.3123088    0.6196554  
   0.650967500    -0.2120272    0.6596730  
   0.652967400    -0.1061454    0.6839666  
   0.654967300     0.0030031    0.6916124  
   0.656967200     0.1130929    0.6821396  
   0.658967100     0.2208154    0.6547940  
   0.660967000     0.3241136    0.6102285  
   0.662966900     0.4199844    0.5488325  
   0.664966800     0.5057465    0.4717898  
   0.666966700     0.5781682    0.3805721  
   0.668966600     0.6348574    0.2780799  
   0.670966500     0.6736220    0.1672993  
   0.672966400     0.6945488    0.0514713  
   0.674966300     0.6949304   -0.0662845  
   0.676966200     0.6750361   -0.1822177  
   0.678966100     0.6365548   -0.2923225  
   0.680966000     0.5804382   -0.3939523  
   0.682965900     0.5088643   -0.4844875  
   0.684965800     0.4241062   -0.5613131  
   0.686965700     0.3284309   -0.6226826  
   0.688965600     0.2251304   -0.6675714  
   0.690965500     0.1166851   -0.6935796  
   0.692965400     0.0069413   -0.7028167  
   0.694965300    -0.1014740   -0.6949272  
   0.696965200    -0.2062227   -0.6702355  
   0.698965100    -0.3052310   -0.6303002  
   0.700965000    -0.3961047   -0.5758682  
   0.702964900    -0.4767679   -0.5087989  
   0.704964800    -0.5459216   -0.4305040  
   0.706964700    -0.6023764   -0.3433639  
   0.708964600    -0.6446444   -0.2485887  
   0.710964500    -0.6728058   -0.1487691  
   0.712964400    -0.6847730   -0.0463980  
   0.714964300    -0.6812331    0.0570251  
   0.716964200    -0.6618885    0.1581892  
   0.718964100    -0.6275727    0.2555307  
   0.720964000    -0.5788021    0.3461987  
   0.722963900    -0.5167447    0.4289151  
   0.724963800    -0.4423136    0.5010296  
   0.726963700    -0.3571374    0.5612016  
   0.728963600    -0.2626443    0.6073273  
   0.730963500    -0.1615791    0.6379504  
   0.732963400    -0.0569547    0.6522073  
   0.734963300     0.0500251    0.6493299  
   0.736963200     0.1705626    0.6246359  
   0.738963100     0.2857983    0.5780597  
   0.740963000     0.3901438    0.5104850  
   0.742962900     0.4799770    0.4249930  
   0.744962800     0.5520044    0.3239668  
   0.746962700     0.6036115    0.2120229  
   0.748962600     0.6335025    0.0929714  
   0.750962500     0.5985088    0.1877909  
   0.752962400     0.6242797    0.0699919  
   0.754962300     0.6284369   -0.0501540  
   0.756962200     0.6106524   -0.1680630  
   0.758962100     0.5723240   -0.2800007  
   0.760962000     0.5145676   -0.3829882  
   0.762961900     0.4436966   -0.4696462  
   0.764961800     0.3670171   -0.5372246  
   0.766961700     0.2808791   -0.5922393  
   0.768961600     0.1873875   -0.6337466  
   0.770961500     0.0887284   -0.6600746  
   0.772961400    -0.0131469   -0.6711717  
   0.774961300    -0.1150479   -0.6665873  
   0.776961200    -0.2159136   -0.6461906  
   0.778961100    -0.3124346   -0.6104766  
   0.780961000    -0.4030147   -0.5597848  
   0.782960900    -0.4844764   -0.4955019  
   0.784960800    -0.5553794   -0.4184355  
   0.786960700    -0.6133062   -0.3311633  
   0.788960600    -0.6567261   -0.2355882  
   0.790960500    -0.6848329   -0.1341762  
   0.792960400    -0.6964084   -0.0299218  
   0.794960300    -0.6918881    0.0752520  
   0.796960200    -0.6706783    0.1781042  
   0.798960100    -0.6338080    0.2764015  
   0.800960000    -0.5823177    0.3675014  
   0.802959900    -0.5168333    0.4498501  
   0.804959800    -0.4396197    0.5205017  
   0.806959700    -0.3523810    0.5789960  
   0.808959600    -0.2566117    0.6228253  
   0.810959500    -0.1553521    0.6514914  
   0.812959400    -0.0500058    0.6640149  
   0.814959300     0.0561748    0.6597266  
   0.816959200     0.1609183    0.6389880  
   0.818959100     0.2616065    0.6015991  
   0.820959000     0.3556263    0.5484687  
   0.822958900     0.4404438    0.4806051  
   0.824958800     0.5133722    0.3993449  
   0.826958700     0.5727931    0.3069963  
   0.828958600     0.6164724    0.2055831  
   0.830958500     0.6428821    0.0981341  
   0.832958400     0.6515127   -0.0125410  
   0.834958300     0.6415973   -0.1231183  
   0.836958200     0.6135816   -0.2304028  
   0.838958100     0.5682145   -0.3320927  
   0.840958000     0.5067281   -0.4246390  
   0.842957900     0.4307741   -0.5059323  
   0.844957800     0.3425211   -0.5735189  
   0.846957700     0.2445965   -0.6255026  
   0.848957600     0.1396427   -0.6602952  
   0.850957500     0.0313003   -0.6774462  
   0.852957400    -0.0780657   -0.6769021  
   0.854957300    -0.1851238   -0.6587813  
   0.856957200    -0.2872687   -0.6237265  
   0.858957100    -0.3819630   -0.5734485  
   0.860957000    -0.4664344   -0.5095518  
   0.862956900    -0.5392455   -0.4341886  
   0.864956800    -0.5992007   -0.3495912  
   0.866956700    -0.6452250   -0.2574356  
   0.868956600    -0.6758845   -0.1602823  
   0.870956500    -0.6923977   -0.0600710  
   0.872956400    -0.6935229    0.0410373  
   0.874956300    -0.6795681    0.1410892  
   0.876956200    -0.6506100    0.2384406  
   0.878956100    -0.6079935    0.3302265  
   0.880956000    -0.5518995    0.4150003  
   0.882955900    -0.4832608    0.4905561  
   0.884955800    -0.4042893    0.5555207  
   0.886955700    -0.3158160    0.6081545  
   0.888955600    -0.2199447    0.6472744  
   0.890955500    -0.1188103    0.6713973  
   0.892955400    -0.0144357    0.6796705  
   0.894955300     0.0906253    0.6720594  
