! MS46122B
! 2250307/22442219
! 7/24/2025 12:39:51 PM
! C:\USERS\SPARKY\DOCUMENTS\VNA_DATA\JULY24_2025\295K\PORT5_MOS2.S1P
! CHANNEL.1
! TR.MEASUREMENT
! RAW.DATA
# GHZ S RI R 50.0
! FREQ.GHZ         S11RE         S11IM         
!; PortSelection: Port_1
   0.001000000     1.0451500   -0.0722245  
   0.002999900     0.9635015   -0.1944235  
   0.004999800     0.9026564   -0.2990252  
   0.006999700     0.8348327   -0.3960987  
   0.008999600     0.7548839   -0.4902377  
   0.010999500     0.6604340   -0.5788786  
   0.012999400     0.5460221   -0.6588027  
   0.014999300     0.4064009   -0.7232529  
   0.016999200     0.2367333   -0.7588794  
   0.018999100     0.0355308   -0.7465024  
   0.020999000    -0.1845282   -0.6544020  
   0.022998900    -0.3821193   -0.4519971  
   0.024998800    -0.4635224   -0.1438521  
   0.026998700    -0.4035515    0.2060457  
   0.028998600    -0.1614461    0.4632965  
   0.030998500     0.1470586    0.5601969  
   0.032998400     0.3981262    0.5097076  
   0.034998300     0.6263061    0.4001307  
   0.036998200     0.7565814    0.2504849  
   0.038998100     0.8294125    0.0969331  
   0.040998000     0.8600585   -0.0482638  
   0.042997900     0.8601894   -0.1803727  
   0.044997800     0.8139744   -0.2738170  
   0.046997700     0.8000941   -0.4028030  
   0.048997600     0.7504355   -0.4946385  
   0.050997500     0.6919912   -0.5739161  
   0.052997400     0.6268325   -0.6422536  
   0.054997300     0.5563993   -0.7002189  
   0.056997200     0.4803798   -0.7500628  
   0.058997100     0.4016046   -0.7901145  
   0.060997000     0.3193163   -0.8214518  
   0.062996900     0.2344602   -0.8441099  
   0.064996800     0.1471235   -0.8571685  
   0.066996700     0.0574847   -0.8613532  
   0.068996600    -0.0331710   -0.8551387  
   0.070996500    -0.1248204   -0.8394468  
   0.072996400    -0.2164002   -0.8111187  
   0.074996300    -0.3066279   -0.7711264  
   0.076996200    -0.3942147   -0.7181661  
   0.078996100    -0.4774014   -0.6520982  
   0.080996000    -0.5539753   -0.5716764  
   0.082995900    -0.6215665   -0.4770102  
   0.084995800    -0.6759772   -0.3682991  
   0.086995700    -0.7156206   -0.2471282  
   0.088995600    -0.7353700   -0.1145822  
   0.090995500    -0.7318993    0.0261290  
   0.092995400    -0.7023512    0.1706876  
   0.094995300    -0.6423299    0.3128588  
   0.096995200    -0.5518352    0.4451874  
   0.098995100    -0.4313028    0.5592291  
   0.100995000    -0.2849918    0.6481355  
   0.102994900    -0.1212308    0.7024407  
   0.104994800     0.0513884    0.7189013  
   0.106994700     0.2225099    0.6958338  
   0.108994600     0.3824344    0.6370285  
   0.110994500     0.5224975    0.5471105  
   0.112994400     0.6369308    0.4327998  
   0.114994300     0.7223328    0.3020022  
   0.116994200     0.7779724    0.1624268  
   0.118994100     0.8047884    0.0211599  
   0.120994000     0.8068401   -0.1167337  
   0.122993900     0.7841597   -0.2470213  
   0.124993800     0.7418281   -0.3665252  
   0.126993700     0.6832825   -0.4736932  
   0.128993600     0.6110202   -0.5658721  
   0.130993500     0.5291924   -0.6443780  
   0.132993400     0.4395189   -0.7087057  
   0.134993300     0.3442875   -0.7585059  
   0.136993200     0.2455702   -0.7937891  
   0.138993100     0.1443964   -0.8153195  
   0.140993000     0.0431778   -0.8231362  
   0.142992900    -0.0577983   -0.8178223  
   0.144992800    -0.1565918   -0.8013120  
   0.146992700    -0.2526524   -0.7704762  
   0.148992600    -0.3440418   -0.7278109  
   0.150992500    -0.4285875   -0.6721400  
   0.152992400    -0.5072686   -0.6061229  
   0.154992300    -0.5773677   -0.5297856  
   0.156992200    -0.6377433   -0.4426840  
   0.158992100    -0.6864923   -0.3464988  
   0.160992000    -0.7220662   -0.2421475  
   0.162991900    -0.7431577   -0.1309827  
   0.164991800    -0.7476317   -0.0148874  
   0.166991700    -0.7341877    0.1032538  
   0.168991600    -0.7017728    0.2211772  
   0.170991500    -0.6494195    0.3360516  
   0.172991400    -0.5773808    0.4431068  
   0.174991300    -0.4860061    0.5388709  
   0.176991200    -0.3764553    0.6195052  
   0.178991100    -0.2519087    0.6809395  
   0.180991000    -0.1164969    0.7201381  
   0.182990900     0.0259754    0.7334436  
   0.184990800     0.1702607    0.7197936  
   0.186990700     0.3100738    0.6790246  
   0.188990600     0.4207380    0.6248054  
   0.190990500     0.5504615    0.5264587  
   0.192990400     0.6476709    0.4167059  
   0.194990300     0.7200824    0.2950442  
   0.196990200     0.7683324    0.1651689  
   0.198990100     0.7925389    0.0311791  
   0.200990000     0.7928253   -0.1019552  
   0.202989900     0.7707188   -0.2306373  
   0.204989800     0.7285125   -0.3504745  
   0.206989700     0.6698990   -0.4599578  
   0.208989600     0.5958711   -0.5549024  
   0.210989500     0.5092341   -0.6360704  
   0.212989400     0.4135943   -0.7017838  
   0.214989300     0.3111157   -0.7511862  
   0.216989200     0.2049812   -0.7844454  
   0.218989100     0.0969834   -0.8017110  
   0.220989000    -0.0112873   -0.8037111  
   0.222988900    -0.1180290   -0.7900048  
   0.224988800    -0.2214859   -0.7619215  
   0.226988700    -0.3186841   -0.7198966  
   0.228988600    -0.4090903   -0.6649016  
   0.230988500    -0.4911111   -0.5979551  
   0.232988400    -0.5622473   -0.5186615  
   0.234988300    -0.6231850   -0.4297454  
   0.236988200    -0.6711208   -0.3321606  
   0.238988100    -0.7049832   -0.2272538  
   0.240988000    -0.7231129   -0.1173587  
   0.242987900    -0.7244574   -0.0043236  
   0.244987800    -0.7080672    0.1096804  
   0.246987700    -0.6735003    0.2223628  
   0.248987600    -0.6200429    0.3304603  
   0.250987500    -0.5479242    0.4303878  
   0.252987400    -0.4584090    0.5184106  
   0.254987300    -0.3538750    0.5909495  
   0.256987200    -0.2365800    0.6452780  
   0.258987100    -0.1092240    0.6797261  
   0.260987000     0.0242303    0.6897369  
   0.262986900     0.1592301    0.6750174  
   0.264986800     0.2902656    0.6355434  
   0.266986700     0.4116366    0.5721499  
   0.268986600     0.5193157    0.4875380  
   0.270986500     0.6088029    0.3852988  
   0.272986400     0.6776421    0.2693286  
   0.274986300     0.7237052    0.1445237  
   0.276986200     0.7464224    0.0149651  
   0.278986100     0.7461340   -0.1141874  
   0.280986000     0.7232668   -0.2396278  
   0.282985900     0.6807944   -0.3569090  
   0.284985800     0.6204967   -0.4633161  
   0.286985700     0.5457868   -0.5563403  
   0.288985600     0.4597057   -0.6339259  
   0.290985500     0.3647240   -0.6958662  
   0.292985400     0.2641751   -0.7417750  
   0.294985300     0.1599741   -0.7720426  
   0.296985200     0.0537586   -0.7866465  
   0.298985100    -0.0521360   -0.7859637  
   0.300985000    -0.1560892   -0.7704768  
   0.302984900    -0.2553648   -0.7411736  
   0.304984800    -0.3488855   -0.6990338  
   0.306984700    -0.4349186   -0.6452003  
   0.308984600    -0.5120926   -0.5807887  
   0.310984500    -0.5798721   -0.5069143  
   0.312984400    -0.6371320   -0.4247746  
   0.314984300    -0.6835029   -0.3349538  
   0.316984200    -0.7175698   -0.2388842  
   0.318984100    -0.7380604   -0.1368362  
   0.320984000    -0.7437405   -0.0302248  
   0.322983900    -0.7334748    0.0777586  
   0.324983800    -0.7055070    0.1843935  
   0.326983700    -0.6604653    0.2862392  
   0.328983600    -0.5982988    0.3793537  
   0.330983500    -0.5223480    0.4603500  
   0.332983400    -0.4359502    0.5266511  
   0.334983300    -0.3418202    0.5786861  
   0.336983200    -0.2420691    0.6166704  
   0.338983100    -0.1383825    0.6401995  
   0.340983000    -0.0314638    0.6492120  
   0.342982900     0.0767264    0.6425508  
   0.344982800     0.1851435    0.6191971  
   0.346982700     0.2906850    0.5782627  
   0.348982600     0.3890434    0.5190936  
   0.350982500     0.4781939    0.4439306  
   0.352982400     0.5544678    0.3536676  
   0.354982300     0.6162346    0.2466034  
   0.356982200     0.6601104    0.1178636  
   0.358982100     0.6778798   -0.0172541  
   0.360982000     0.6685224   -0.1527444  
   0.362981900     0.6329048   -0.2839785  
   0.364981800     0.5722843   -0.4055716  
   0.366981700     0.4895026   -0.5128958  
   0.368981600     0.3878566   -0.6014060  
   0.370981500     0.2717576   -0.6685249  
   0.372981400     0.1457263   -0.7120073  
   0.374981300     0.0144243   -0.7307200  
   0.376981200     0.1236324   -0.7191686  
   0.378981100    -0.0061771   -0.7327118  
   0.380981000    -0.1352026   -0.7222012  
   0.382980900    -0.2483283   -0.6926859  
   0.384980800    -0.3493656   -0.6482669  
   0.386980700    -0.4410352   -0.5888050  
   0.388980600    -0.5229205   -0.5163396  
   0.390980500    -0.5918055   -0.4332442  
   0.392980400    -0.6469230   -0.3416069  
   0.394980300    -0.6877559   -0.2432459  
   0.396980200    -0.7134273   -0.1403967  
   0.398980100    -0.7237564   -0.0344711  
   0.400980000    -0.7182179    0.0721817  
   0.402979900    -0.6966588    0.1773366  
   0.404979800    -0.6599417    0.2786781  
   0.406979700    -0.6078488    0.3739756  
   0.408979600    -0.5416721    0.4609816  
   0.410979500    -0.4617910    0.5383312  
   0.412979400    -0.3691901    0.6034524  
   0.414979300    -0.2664224    0.6527175  
   0.416979200    -0.1560351    0.6867065  
   0.418979100    -0.0405395    0.7027848  
   0.420979000     0.0773442    0.7001552  
   0.422978900     0.1946963    0.6778412  
   0.424978800     0.3075737    0.6360205  
   0.426978700     0.4131970    0.5753505  
   0.428978600     0.5074223    0.4973392  
   0.430978500     0.5871673    0.4041949  
   0.432978400     0.6501952    0.2990015  
   0.434978300     0.6953914    0.1849248  
   0.436978200     0.7193819    0.0648777  
   0.438978100     0.7227790   -0.0572374  
   0.440978000     0.7054949   -0.1777171  
   0.442977900     0.6687878   -0.2926519  
   0.444977800     0.6135820   -0.3990286  
   0.446977700     0.5419254   -0.4938530  
   0.448977600     0.4569482   -0.5748403  
   0.450977500     0.3605424   -0.6402428  
   0.452977400     0.2557514   -0.6885626  
   0.454977300     0.1450960   -0.7189562  
   0.456977200     0.0318955   -0.7315394  
   0.458977100    -0.0811457   -0.7259322  
   0.460977000    -0.1901712   -0.7028605  
   0.462976900    -0.2934440   -0.6635529  
   0.464976800    -0.3885137   -0.6090462  
   0.466976700    -0.4735073   -0.5411683  
   0.468976600    -0.5466309   -0.4615040  
   0.470976500    -0.6063420   -0.3716728  
   0.472976400    -0.6517927   -0.2742346  
   0.474976300    -0.6816928   -0.1713322  
   0.476976200    -0.6954188   -0.0648558  
   0.478976100    -0.6924333    0.0422496  
   0.480976000    -0.6731651    0.1478274  
   0.482975900    -0.6378655    0.2491271  
   0.484975800    -0.5869034    0.3444513  
   0.486975700    -0.5207598    0.4312686  
   0.488975600    -0.4411893    0.5071942  
   0.490975500    -0.3497017    0.5699436  
   0.492975400    -0.2478600    0.6172754  
   0.494975300    -0.1388553    0.6470081  
   0.496975200    -0.0254072    0.6583135  
   0.498975100     0.0885008    0.6500287  
   0.500975000     0.1997298    0.6219374  
   0.502974900     0.3039887    0.5748433  
   0.504974800     0.3984104    0.5108078  
   0.506974700     0.4797554    0.4313743  
   0.508974600     0.5455831    0.3391241  
   0.510974500     0.5934182    0.2381742  
   0.512974400     0.6233811    0.1327948  
   0.514974300     0.6333118    0.0266443  
   0.516974200     0.6273196   -0.0772709  
   0.518974100     0.6059096   -0.1760679  
   0.520974000     0.5707656   -0.2684044  
   0.522973900     0.5240940   -0.3529945  
   0.524973800     0.4671040   -0.4285621  
   0.526973700     0.4011830   -0.4956156  
   0.528973600     0.3269983   -0.5524457  
   0.530973500     0.2458658   -0.5996584  
   0.532973400     0.1585503   -0.6354458  
   0.534973300     0.0659207   -0.6588153  
   0.536973200    -0.0306853   -0.6690989  
   0.538973100    -0.1285714   -0.6642778  
   0.540973000    -0.2257064   -0.6451341  
   0.542972900    -0.3202550   -0.6106256  
   0.544972800    -0.4093064   -0.5611681  
   0.546972700    -0.4906204   -0.4974284  
   0.548972600    -0.5614909   -0.4204221  
   0.550972500    -0.6197950   -0.3328982  
   0.552972400    -0.6636626   -0.2359534  
   0.554972300    -0.6914866   -0.1325586  
   0.556972200    -0.7022722   -0.0257678  
   0.558972100    -0.6959828    0.0823059  
   0.560972000    -0.6724177    0.1879844  
   0.562971900    -0.6320778    0.2887724  
   0.564971800    -0.5762768    0.3817370  
   0.566971700    -0.5060383    0.4653398  
   0.568971600    -0.4233080    0.5367317  
   0.570971500    -0.3296396    0.5943853  
   0.572971400    -0.2271638    0.6365036  
   0.574971300    -0.1186235    0.6618421  
   0.576971200    -0.0059306    0.6691978  
   0.578971100     0.1071386    0.6578695  
   0.580971000     0.2176908    0.6277238  
   0.582970900     0.3216990    0.5795308  
   0.584970800     0.4170844    0.5145566  
   0.586970700     0.5000793    0.4340482  
   0.588970600     0.5686109    0.3402649  
   0.590970500     0.6204359    0.2364686  
   0.592970400     0.6539326    0.1249224  
   0.594970300     0.6679108    0.0093761  
   0.596970200     0.6619821   -0.1068950  
   0.598970100     0.6366237   -0.2203821  
   0.600970000     0.5922985   -0.3275566  
   0.602969900     0.5307025   -0.4256130  
   0.604969800     0.4538339   -0.5115258  
   0.606969700     0.3638072   -0.5827251  
   0.608969600     0.2639455   -0.6381333  
   0.610969500     0.1568300   -0.6754487  
   0.612969400     0.0460481   -0.6944531  
   0.614969300    -0.0650731   -0.6950817  
   0.616969200    -0.1736233   -0.6781571  
   0.618969100    -0.2768137   -0.6446561  
   0.620969000    -0.3721355   -0.5960032  
   0.622968900    -0.4585194   -0.5332353  
   0.624968800    -0.5338539   -0.4585892  
   0.626968700    -0.5966071   -0.3736143  
   0.628968600    -0.6456019   -0.2802684  
   0.630968500    -0.6795769   -0.1808211  
   0.632968400    -0.6982731   -0.0777929  
   0.634968300    -0.7010236    0.0271692  
   0.636968200    -0.6881729    0.1311113  
   0.638968100    -0.6598190    0.2321673  
   0.640968000    -0.6162727    0.3283963  
   0.642967900    -0.5586901    0.4168288  
   0.644967800    -0.4877432    0.4962498  
   0.646967700    -0.4053003    0.5644460  
   0.648967600    -0.3127499    0.6193644  
   0.650967500    -0.2126599    0.6593812  
   0.652967400    -0.1066798    0.6838296  
   0.654967300     0.0025717    0.6915486  
   0.656967200     0.1124959    0.6822025  
   0.658967100     0.2200679    0.6549796  
   0.660967000     0.3234160    0.6105515  
   0.662966900     0.4194693    0.5491517  
   0.664966800     0.5052848    0.4722018  
   0.666966700     0.5777808    0.3811025  
   0.668966600     0.6345676    0.2786717  
   0.670966500     0.6734220    0.1678571  
   0.672966400     0.6945720    0.0519522  
   0.674966300     0.6949444   -0.0656261  
   0.676966200     0.6751154   -0.1815536  
   0.678966100     0.6367252   -0.2917433  
   0.680966000     0.5807217   -0.3933607  
   0.682965900     0.5091949   -0.4838339  
   0.684965800     0.4245903   -0.5608642  
   0.686965700     0.3289606   -0.6223096  
   0.688965600     0.2256853   -0.6673101  
   0.690965500     0.1173052   -0.6933925  
   0.692965400     0.0076147   -0.7027571  
   0.694965300    -0.1008500   -0.6949725  
   0.696965200    -0.2056597   -0.6703455  
   0.698965100    -0.3046229   -0.6305394  
   0.700965000    -0.3955904   -0.5761728  
   0.702964900    -0.4762989   -0.5091891  
   0.704964800    -0.5454940   -0.4309902  
   0.706964700    -0.6020631   -0.3438666  
   0.708964600    -0.6444036   -0.2491634  
   0.710964500    -0.6726204   -0.1494232  
   0.712964400    -0.6847458   -0.0470306  
   0.714964300    -0.6812927    0.0564407  
   0.716964200    -0.6620091    0.1575885  
   0.718964100    -0.6278005    0.2549844  
   0.720964000    -0.5791166    0.3456842  
   0.722963900    -0.5171726    0.4284210  
   0.724963800    -0.4427859    0.5006644  
   0.726963700    -0.3575380    0.5609474  
   0.728963600    -0.2632669    0.6070868  
   0.730963500    -0.1622024    0.6378356  
   0.732963400    -0.0575931    0.6521596  
   0.734963300     0.0493397    0.6494167  
   0.736963200     0.1700532    0.6250867  
   0.738963100     0.2850467    0.5783153  
   0.740963000     0.3896456    0.5109017  
   0.742962900     0.4794750    0.4254992  
   0.744962800     0.5516103    0.3245792  
   0.746962700     0.6033910    0.2126580  
   0.748962600     0.6333965    0.0936425  
   0.750962500     0.5982942    0.1884817  
   0.752962400     0.6242127    0.0706831  
   0.754962300     0.6284908   -0.0494443  
   0.756962200     0.6108271   -0.1673779  
   0.758962100     0.5726187   -0.2793569  
   0.760962000     0.5149751   -0.3824058  
   0.762961900     0.4442213   -0.4691298  
   0.764961800     0.3676189   -0.5367888  
   0.766961700     0.2814897   -0.5919009  
   0.768961600     0.1880673   -0.6335641  
   0.770961500     0.0894362   -0.6599928  
   0.772961400    -0.0123538   -0.6712455  
   0.774961300    -0.1143287   -0.6666868  
   0.776961200    -0.2151793   -0.6464968  
   0.778961100    -0.3118160   -0.6107994  
   0.780961000    -0.4024569   -0.5602083  
   0.782960900    -0.4840023   -0.4959624  
   0.784960800    -0.5549305   -0.4191090  
   0.786960700    -0.6129823   -0.3318227  
   0.788960600    -0.6565546   -0.2363194  
   0.790960500    -0.6847326   -0.1349222  
   0.792960400    -0.6964722   -0.0306078  
   0.794960300    -0.6920449    0.0745389  
   0.796960200    -0.6709304    0.1774209  
   0.798960100    -0.6342270    0.2756559  
   0.800960000    -0.5827363    0.3669038  
   0.802959900    -0.5174658    0.4493010  
   0.804959800    -0.4402038    0.5200481  
   0.806959700    -0.3530200    0.5787746  
   0.808959600    -0.2573142    0.6226087  
   0.810959500    -0.1561320    0.6513962  
   0.812959400    -0.0507313    0.6640127  
   0.814959300     0.0554445    0.6598333  
   0.816959200     0.1601691    0.6392307  
   0.818959100     0.2608956    0.6020082  
   0.820959000     0.3549769    0.5489814  
   0.822958900     0.4398876    0.4811725  
   0.824958800     0.5129179    0.4000235  
   0.826958700     0.5724639    0.3077372  
   0.828958600     0.6162475    0.2064068  
   0.830958500     0.6428183    0.0989421  
   0.832958400     0.6515214   -0.0117760  
   0.834958300     0.6417708   -0.1223270  
   0.836958200     0.6138350   -0.2296498  
   0.838958100     0.5686475   -0.3314188  
   0.840958000     0.5073171   -0.4239935  
   0.842957900     0.4314276   -0.5054308  
   0.844957800     0.3432764   -0.5730814  
   0.846957700     0.2455145   -0.6251636  
   0.848957600     0.1404314   -0.6601533  
   0.850957500     0.0321362   -0.6774395  
   0.852957400    -0.0773336   -0.6770073  
   0.854957300    -0.1843636   -0.6589502  
   0.856957200    -0.2866362   -0.6240374  
   0.858957100    -0.3812597   -0.5739922  
   0.860957000    -0.4658515   -0.5102017  
   0.862956900    -0.5388180   -0.4347641  
   0.864956800    -0.5988846   -0.3502610  
   0.866956700    -0.6449253   -0.2582443  
   0.868956600    -0.6757697   -0.1609902  
   0.870956500    -0.6923805   -0.0607423  
   0.872956400    -0.6936292    0.0403130  
   0.874956300    -0.6797611    0.1403128  
   0.876956200    -0.6509472    0.2378127  
   0.878956100    -0.6083949    0.3296103  
   0.880956000    -0.5523846    0.4144188  
   0.882955900    -0.4838860    0.4900480  
   0.884955800    -0.4048330    0.5551747  
   0.886955700    -0.3165733    0.6079234  
   0.888955600    -0.2207012    0.6470600  
   0.890955500    -0.1196244    0.6713097  
   0.892955400    -0.0151966    0.6796986  
   0.894955300     0.0898808    0.6722042  
