! MS46122B
! 2250307/22442219
! 7/23/2025 1:11:07 PM
! C:\USERS\SPARKY\DOCUMENTS\VNA_DATA\JULY23_2025\295K\PORT5_MOS3.S1P
! CHANNEL.1
! TR.MEASUREMENT
! RAW.DATA
# GHZ S RI R 50.0
! FREQ.GHZ         S11RE         S11IM         
!; PortSelection: Port_1
   0.001000000     1.0458080   -0.0712830  
   0.002999900     0.9641808   -0.1937779  
   0.004999800     0.9031494   -0.2986605  
   0.006999700     0.8353750   -0.3960642  
   0.008999600     0.7551352   -0.4906240  
   0.010999500     0.6602933   -0.5795548  
   0.012999400     0.5452777   -0.6597071  
   0.014999300     0.4047647   -0.7242923  
   0.016999200     0.2338202   -0.7597100  
   0.018999100     0.0311846   -0.7459351  
   0.020999000    -0.1900503   -0.6512091  
   0.022998900    -0.3869040   -0.4446887  
   0.024998800    -0.4643612   -0.1330543  
   0.026998700    -0.3972722    0.2174604  
   0.028998600    -0.1496814    0.4699967  
   0.030998500     0.1599275    0.5604899  
   0.032998400     0.4085202    0.5055652  
   0.034998300     0.6338401    0.3930522  
   0.036998200     0.7611646    0.2424977  
   0.038998100     0.8317026    0.0889617  
   0.040998000     0.8605779   -0.0558892  
   0.042997900     0.8593771   -0.1878358  
   0.044997800     0.8124251   -0.2801079  
   0.046997700     0.7973956   -0.4088877  
   0.048997600     0.7470446   -0.5001198  
   0.050997500     0.6880245   -0.5788424  
   0.052997400     0.6228929   -0.6460106  
   0.054997300     0.5506899   -0.7048217  
   0.056997200     0.4747983   -0.7536221  
   0.058997100     0.3954535   -0.7931713  
   0.060997000     0.3126734   -0.8239478  
   0.062996900     0.2272218   -0.8458307  
   0.064996800     0.1394273   -0.8582585  
   0.066996700     0.0493359   -0.8615811  
   0.068996600    -0.0418005   -0.8544456  
   0.070996500    -0.1339123   -0.8376138  
   0.072996400    -0.2258134   -0.8080430  
   0.074996300    -0.3161158   -0.7665985  
   0.076996200    -0.4038105   -0.7120430  
   0.078996100    -0.4866732   -0.6441524  
   0.080996000    -0.5628348   -0.5617281  
   0.082995900    -0.6292716   -0.4649802  
   0.084995800    -0.6821964   -0.3541549  
   0.086995700    -0.7196706   -0.2309006  
   0.088995600    -0.7366656   -0.0965836  
   0.090995500    -0.7298375    0.0455346  
   0.092995400    -0.6961161    0.1906591  
   0.094995300    -0.6314386    0.3324687  
   0.096995200    -0.5360984    0.4631847  
   0.098995100    -0.4109942    0.5742173  
   0.100995000    -0.2606766    0.6587684  
   0.102994900    -0.0942945    0.7074480  
   0.104994800     0.0793960    0.7176615  
   0.106994700     0.2499469    0.6883298  
   0.108994600     0.4074226    0.6235957  
   0.110994500     0.5440612    0.5287158  
   0.112994400     0.6538191    0.4105121  
   0.114994300     0.7342061    0.2773339  
   0.116994200     0.7845706    0.1366599  
   0.118994100     0.8064073   -0.0047622  
   0.120994000     0.8038999   -0.1419202  
   0.122993900     0.7773989   -0.2708377  
   0.124993800     0.7315525   -0.3882325  
   0.126993700     0.6701102   -0.4929233  
   0.128993600     0.5954717   -0.5826610  
   0.130993500     0.5116904   -0.6585510  
   0.132993400     0.4203525   -0.7200422  
   0.134993300     0.3242079   -0.7670092  
   0.136993200     0.2246739   -0.7995309  
   0.138993100     0.1229424   -0.8182992  
   0.140993000     0.0216430   -0.8232979  
   0.142992900    -0.0795593   -0.8153138  
   0.144992800    -0.1783166   -0.7959847  
   0.146992700    -0.2735283   -0.7623588  
   0.148992600    -0.3643251   -0.7168470  
   0.150992500    -0.4476135   -0.6584567  
   0.152992400    -0.5249806   -0.5896217  
   0.154992300    -0.5930762   -0.5103530  
   0.156992200    -0.6509637   -0.4205273  
   0.158992100    -0.6970206   -0.3219863  
   0.160992000    -0.7293376   -0.2153637  
   0.162991900    -0.7464528   -0.1023953  
   0.164991800    -0.7466449    0.0150617  
   0.166991700    -0.7282788    0.1341661  
   0.168991600    -0.6905997    0.2517847  
   0.170991500    -0.6327151    0.3656719  
   0.172991400    -0.5548320    0.4706497  
   0.174991300    -0.4581174    0.5630062  
   0.176991200    -0.3434815    0.6388835  
   0.178991100    -0.2148754    0.6945798  
   0.180991000    -0.0762797    0.7269582  
   0.182990900     0.0676110    0.7325916  
   0.184990800     0.2118191    0.7109151  
   0.186990700     0.3496272    0.6623529  
   0.188990600     0.4577083    0.6017837  
   0.190990500     0.5818315    0.4957630  
   0.192990400     0.6725560    0.3806672  
   0.194990300     0.7379286    0.2551878  
   0.196990200     0.7784947    0.1231418  
   0.198990100     0.7952149   -0.0115274  
   0.200990000     0.7880995   -0.1440012  
   0.202989900     0.7592135   -0.2709112  
   0.204989800     0.7106884   -0.3877730  
   0.206989700     0.6467143   -0.4930539  
   0.208989600     0.5677298   -0.5841695  
   0.210989500     0.4780669   -0.6600710  
   0.212989400     0.3790269   -0.7205889  
   0.214989300     0.2743856   -0.7649233  
   0.216989200     0.1670107   -0.7924989  
   0.218989100     0.0582335   -0.8043258  
   0.220989000    -0.0502001   -0.8008440  
   0.222988900    -0.1560160   -0.7815814  
   0.224988800    -0.2580058   -0.7482091  
   0.226988700    -0.3535455   -0.7010940  
   0.228988600    -0.4413920   -0.6412613  
   0.230988500    -0.5203111   -0.5694507  
   0.232988400    -0.5876713   -0.4858260  
   0.234988300    -0.6440333   -0.3928778  
   0.236988200    -0.6870357   -0.2915876  
   0.238988100    -0.7147354   -0.1837561  
   0.240988000    -0.7263221   -0.0715148  
   0.242987900    -0.7204627    0.0429069  
   0.244987800    -0.6966411    0.1569597  
   0.246987700    -0.6540723    0.2686769  
   0.248987600    -0.5926313    0.3742740  
   0.250987500    -0.5125874    0.4701420  
   0.252987400    -0.4156145    0.5526845  
   0.254987300    -0.3045400    0.6182068  
   0.256987200    -0.1818434    0.6638086  
   0.258987100    -0.0509709    0.6883432  
   0.260987000     0.0843216    0.6876241  
   0.262986900     0.2187088    0.6616980  
   0.264986800     0.3468095    0.6111290  
   0.266986700     0.4633232    0.5374218  
   0.268986600     0.5638775    0.4438006  
   0.270986500     0.6443641    0.3346155  
   0.272986400     0.7032725    0.2132907  
   0.274986300     0.7387825    0.0853000  
   0.276986200     0.7507973   -0.0450071  
   0.278986100     0.7400852   -0.1732804  
   0.280986000     0.7076825   -0.2958820  
   0.282985900     0.6564555   -0.4088651  
   0.284985800     0.5887467   -0.5098853  
   0.286985700     0.5074937   -0.5963961  
   0.288985600     0.4161490   -0.6670196  
   0.290985500     0.3177583   -0.7216973  
   0.292985400     0.2145264   -0.7602710  
   0.294985300     0.1089375   -0.7829659  
   0.296985200     0.0023171   -0.7901555  
   0.298985100    -0.1032854   -0.7822061  
   0.300985000    -0.2057710   -0.7596020  
   0.302984900    -0.3032929   -0.7237155  
   0.304984800    -0.3940035   -0.6750765  
   0.306984700    -0.4767003   -0.6149728  
   0.308984600    -0.5497968   -0.5450817  
   0.310984500    -0.6127055   -0.4661671  
   0.312984400    -0.6647398   -0.3787823  
   0.314984300    -0.7047532   -0.2847250  
   0.316984200    -0.7318370   -0.1847775  
   0.318984100    -0.7443327   -0.0798606  
   0.320984000    -0.7413520    0.0286587  
   0.322983900    -0.7211761    0.1373529  
   0.324983800    -0.6832833    0.2426921  
   0.326983700    -0.6277857    0.3407876  
   0.328983600    -0.5562253    0.4280807  
   0.330983500    -0.4722724    0.5014320  
   0.332983400    -0.3797161    0.5591078  
   0.334983300    -0.2810088    0.6016657  
   0.336983200    -0.1787648    0.6299247  
   0.338983100    -0.0734220    0.6439319  
   0.340983000     0.0338862    0.6433043  
   0.342982900     0.1412735    0.6267637  
   0.344982800     0.2470625    0.5933885  
   0.346982700     0.3487827    0.5423028  
   0.348982600     0.4416838    0.4736317  
   0.350982500     0.5234960    0.3895327  
   0.352982400     0.5904999    0.2918467  
   0.354982300     0.6412084    0.1784978  
   0.356982200     0.6717172    0.0455221  
   0.358982100     0.6752527   -0.0912625  
   0.360982000     0.6517696   -0.2256555  
   0.362981900     0.6022411   -0.3527115  
   0.364981800     0.5291197   -0.4673757  
   0.366981700     0.4349146   -0.5652081  
   0.368981600     0.3244448   -0.6427063  
   0.370981500     0.2015898   -0.6969770  
   0.372981400     0.0718618   -0.7268271  
   0.374981300    -0.0605816   -0.7315817  
   0.376981200     0.0502728   -0.7315367  
   0.378981100    -0.0802259   -0.7313769  
   0.380981000    -0.2079418   -0.7074583  
   0.382980900    -0.3176303   -0.6668221  
   0.384980800    -0.4135517   -0.6115580  
   0.386980700    -0.4993449   -0.5428855  
   0.388980600    -0.5733362   -0.4621183  
   0.390980500    -0.6338260   -0.3718093  
   0.392980400    -0.6798211   -0.2741724  
   0.394980300    -0.7102267   -0.1713143  
   0.396980200    -0.7250955   -0.0651329  
   0.398980100    -0.7241110    0.0424105  
   0.400980000    -0.7072787    0.1489612  
   0.402979900    -0.6740596    0.2528555  
   0.404979800    -0.6259696    0.3506990  
   0.406979700    -0.5629253    0.4411826  
   0.408979600    -0.4861276    0.5216237  
   0.410979500    -0.3960745    0.5903914  
   0.412979400    -0.2956001    0.6454295  
   0.414979300    -0.1854062    0.6829483  
   0.416979200    -0.0697997    0.7037847  
   0.418979100     0.0486430    0.7059395  
   0.420979000     0.1671928    0.6881056  
   0.422978900     0.2825409    0.6507270  
   0.424978800     0.3910767    0.5940161  
   0.426978700     0.4891432    0.5190735  
   0.428978600     0.5734426    0.4279800  
   0.430978500     0.6407434    0.3241263  
   0.432978400     0.6896257    0.2102545  
   0.434978300     0.7193154    0.0900084  
   0.436978200     0.7268306   -0.0332979  
   0.438978100     0.7133780   -0.1552736  
   0.440978000     0.6798248   -0.2728343  
   0.442977900     0.6273102   -0.3820465  
   0.444977800     0.5577880   -0.4802228  
   0.446977700     0.4738500   -0.5642112  
   0.448977600     0.3783559   -0.6330525  
   0.450977500     0.2740400   -0.6847938  
   0.452977400     0.1637511   -0.7182221  
   0.454977300     0.0496822   -0.7338078  
   0.456977200    -0.0642986   -0.7309304  
   0.458977100    -0.1753951   -0.7102279  
   0.460977000    -0.2811036   -0.6726817  
   0.462976900    -0.3780557   -0.6198874  
   0.464976800    -0.4655163   -0.5530022  
   0.466976700    -0.5409014   -0.4737641  
   0.468976600    -0.6030326   -0.3844076  
   0.470976500    -0.6508682   -0.2865811  
   0.472976400    -0.6830434   -0.1830337  
   0.474976300    -0.6988606   -0.0754188  
   0.476976200    -0.6974753    0.0330445  
   0.478976100    -0.6794584    0.1403374  
   0.480976000    -0.6452268    0.2435953  
   0.482975900    -0.5948474    0.3407273  
   0.484975800    -0.5294520    0.4291005  
   0.486975700    -0.4497906    0.5066812  
   0.488975600    -0.3582553    0.5712045  
   0.490975500    -0.2561789    0.6203429  
   0.492975400    -0.1462740    0.6517528  
   0.494975300    -0.0318269    0.6645741  
   0.496975200     0.0838946    0.6573395  
   0.498975100     0.1969184    0.6303402  
   0.500975000     0.3032475    0.5839053  
   0.502974900     0.3998472    0.5198546  
   0.504974800     0.4832275    0.4401495  
   0.506974700     0.5508694    0.3476353  
   0.508974600     0.6005625    0.2451103  
   0.510974500     0.6318252    0.1375478  
   0.512974400     0.6440979    0.0283426  
   0.514974300     0.6368063   -0.0783784  
   0.516974200     0.6144440   -0.1797184  
   0.518974100     0.5777762   -0.2743244  
   0.520974000     0.5289644   -0.3604138  
   0.522973900     0.4698314   -0.4369448  
   0.524973800     0.4016324   -0.5034594  
   0.526973700     0.3255703   -0.5600331  
   0.528973600     0.2431613   -0.6061135  
   0.530973500     0.1546497   -0.6406980  
   0.532973400     0.0612844   -0.6632121  
   0.534973300    -0.0353732   -0.6720812  
   0.536973200    -0.1340837   -0.6668079  
   0.538973100    -0.2319327   -0.6465439  
   0.540973000    -0.3264318   -0.6111764  
   0.542972900    -0.4157412   -0.5611354  
   0.544972800    -0.4970574   -0.4966199  
   0.546972700    -0.5679160   -0.4187105  
   0.548972600    -0.6264571   -0.3298281  
   0.550972500    -0.6700050   -0.2318861  
   0.552972400    -0.6974590   -0.1270664  
   0.554972300    -0.7075827   -0.0189829  
   0.556972200    -0.7002075    0.0903905  
   0.558972100    -0.6752092    0.1974877  
   0.560972000    -0.6330673    0.2993679  
   0.562971900    -0.5751334    0.3931421  
   0.564971800    -0.5025494    0.4770426  
   0.566971700    -0.4173553    0.5482407  
   0.568971600    -0.3214453    0.6051018  
   0.570971500    -0.2170296    0.6461760  
   0.572971400    -0.1067727    0.6696752  
   0.574971300     0.0070917    0.6750231  
   0.576971200     0.1212425    0.6614990  
   0.578971100     0.2327005    0.6288485  
   0.580971000     0.3373221    0.5778327  
   0.582970900     0.4327503    0.5097350  
   0.584970800     0.5151888    0.4262211  
   0.586970700     0.5825139    0.3298236  
   0.588970600     0.6324758    0.2233058  
   0.590970500     0.6637605    0.1095771  
   0.592970400     0.6751051   -0.0079558  
   0.594970300     0.6663172   -0.1249222  
   0.596970200     0.6378024   -0.2393065  
   0.598970100     0.5903813   -0.3464551  
   0.600970000     0.5256494   -0.4440351  
   0.602969900     0.4460510   -0.5287552  
   0.604969800     0.3533368   -0.5986428  
   0.606969700     0.2515988   -0.6517029  
   0.608969600     0.1425653   -0.6868948  
   0.610969500     0.0299228   -0.7037058  
   0.612969400    -0.0826801   -0.7017103  
   0.614969300    -0.1925611   -0.6820225  
   0.616969200    -0.2963724   -0.6455007  
   0.618969100    -0.3921372   -0.5934752  
   0.620969000    -0.4776511   -0.5281128  
   0.622968900    -0.5518758   -0.4505604  
   0.624968800    -0.6129968   -0.3630877  
   0.626968700    -0.6603791   -0.2677361  
   0.628968600    -0.6922176   -0.1662467  
   0.630968500    -0.7085745   -0.0614057  
   0.632968400    -0.7091786    0.0445648  
   0.634968300    -0.6935078    0.1498588  
   0.636968200    -0.6620194    0.2515791  
   0.638968100    -0.6155348    0.3477739  
   0.640968000    -0.5547170    0.4363869  
   0.642967900    -0.4808658    0.5149640  
   0.644967800    -0.3953174    0.5821036  
   0.646967700    -0.2997433    0.6355290  
   0.648967600    -0.1965227    0.6735553  
   0.650967500    -0.0882030    0.6953769  
   0.652967400     0.0228503    0.7000938  
   0.654967300     0.1344271    0.6872621  
   0.656967200     0.2428703    0.6563843  
   0.658967100     0.3463345    0.6082948  
   0.660967000     0.4413883    0.5433289  
   0.662966900     0.5256897    0.4630602  
   0.664966800     0.5961262    0.3689530  
   0.666966700     0.6504253    0.2633838  
   0.668966600     0.6867145    0.1499341  
   0.670966500     0.7033498    0.0313927  
   0.672966400     0.7010364   -0.0879791  
   0.674966300     0.6773376   -0.2048566  
   0.676966200     0.6349254   -0.3154784  
   0.678966100     0.5748112   -0.4168153  
   0.680966000     0.4992779   -0.5061246  
   0.682965900     0.4105591   -0.5813166  
   0.684965800     0.3123097   -0.6400033  
   0.686965700     0.2059930   -0.6819764  
   0.688965600     0.0954038   -0.7057861  
   0.690965500    -0.0161606   -0.7103613  
   0.692965400    -0.1257539   -0.6987760  
   0.694965300    -0.2309309   -0.6703947  
   0.696965200    -0.3296851   -0.6263373  
   0.698965100    -0.4196373   -0.5682034  
   0.700965000    -0.4990048   -0.4974529  
   0.702964900    -0.5662103   -0.4158669  
   0.704964800    -0.6203020   -0.3257869  
   0.706964700    -0.6597816   -0.2287464  
   0.708964600    -0.6841387   -0.1265933  
   0.710964500    -0.6933225   -0.0223292  
   0.712964400    -0.6860287    0.0823684  
   0.714964300    -0.6626572    0.1847475  
   0.716964200    -0.6240720    0.2824084  
   0.718964100    -0.5707286    0.3730117  
   0.720964000    -0.5043251    0.4545420  
   0.722963900    -0.4257088    0.5249669  
   0.724963800    -0.3366804    0.5824626  
   0.726963700    -0.2386693    0.6254308  
   0.728963600    -0.1348207    0.6526515  
   0.730963500    -0.0276216    0.6621838  
   0.732963400     0.0804244    0.6546199  
   0.734963300     0.1862685    0.6293244  
   0.736963200     0.3013932    0.5796635  
   0.738963100     0.4059731    0.5089120  
   0.740963000     0.4953852    0.4201887  
   0.742962900     0.5663431    0.3160727  
   0.744962800     0.6161580    0.2011679  
   0.746962700     0.6437306    0.0799957  
   0.748962600     0.6482641   -0.0437843  
   0.750962500     0.6342652    0.0555613  
   0.752962400     0.6351988   -0.0663547  
   0.754962300     0.6141911   -0.1854696  
   0.756962200     0.5723929   -0.2981267  
   0.758962100     0.5113124   -0.4007418  
   0.760962000     0.4332835   -0.4906625  
   0.762961900     0.3454872   -0.5616000  
   0.764961800     0.2556715   -0.6129496  
   0.766961700     0.1594076   -0.6500955  
   0.768961600     0.0582361   -0.6718642  
   0.770961500    -0.0452348   -0.6780349  
   0.772961400    -0.1480435   -0.6683775  
   0.774961300    -0.2486921   -0.6429080  
   0.776961200    -0.3445821   -0.6022031  
   0.778961100    -0.4331923   -0.5467680  
   0.780961000    -0.5123927   -0.4780149  
   0.782960900    -0.5799557   -0.3972514  
   0.784960800    -0.6343224   -0.3064764  
   0.786960700    -0.6737399   -0.2077884  
   0.788960600    -0.6973568   -0.1037719  
   0.790960500    -0.7040396    0.0025307  
   0.792960400    -0.6943054    0.1085367  
   0.794960300    -0.6676487    0.2120324  
   0.796960200    -0.6253214    0.3097973  
   0.798960100    -0.5683013    0.3999302  
   0.800960000    -0.4978962    0.4794049  
   0.802959900    -0.4155957    0.5475469  
   0.804959800    -0.3239619    0.6019590  
   0.806959700    -0.2245716    0.6413617  
   0.808959600    -0.1203460    0.6649970  
   0.810959500    -0.0131818    0.6720851  
   0.812959400     0.0943095    0.6617510  
   0.814959300     0.1993455    0.6347755  
   0.816959200     0.2992909    0.5911524  
   0.818959100     0.3913640    0.5321447  
   0.820959000     0.4732496    0.4585783  
   0.822958900     0.5423799    0.3721749  
   0.824958800     0.5971487    0.2752869  
   0.826958700     0.6355462    0.1701380  
   0.828958600     0.6558858    0.0597063  
   0.830958500     0.6580021   -0.0527783  
   0.832958400     0.6414690   -0.1641626  
   0.834958300     0.6068833   -0.2712803  
   0.836958200     0.5548290   -0.3712037  
   0.838958100     0.4873080   -0.4610215  
   0.840958000     0.4057357   -0.5386173  
   0.842957900     0.3126796   -0.6013188  
   0.844957800     0.2108681   -0.6479761  
   0.846957700     0.1030347   -0.6769552  
   0.848957600    -0.0071450   -0.6879770  
   0.850957500    -0.1175620   -0.6811535  
   0.852957400    -0.2244507   -0.6567813  
   0.854957300    -0.3255776   -0.6156136  
   0.856957200    -0.4183864   -0.5594303  
   0.858957100    -0.5002841   -0.4899465  
   0.860957000    -0.5697046   -0.4093272  
   0.862956900    -0.6258223   -0.3198904  
   0.864956800    -0.6668900   -0.2238705  
   0.866956700    -0.6928325   -0.1239559  
   0.868956600    -0.7029725   -0.0215027  
   0.870956500    -0.6982383    0.0807052  
   0.872956400    -0.6784533    0.1809433  
   0.874956300    -0.6436750    0.2770034  
   0.876956200    -0.5953602    0.3674559  
   0.878956100    -0.5338616    0.4500231  
   0.880956000    -0.4602732    0.5225973  
   0.882955900    -0.3761694    0.5837346  
   0.884955800    -0.2835445    0.6319004  
   0.886955700    -0.1842398    0.6658390  
   0.888955600    -0.0800462    0.6843649  
   0.890955500     0.0263348    0.6864619  
   0.892955400     0.1326272    0.6723125  
   0.894955300     0.2359215    0.6414881  
