! MS46122B
! 2250307/22442219
! 7/22/2025 3:23:37 PM
! C:\USERS\SPARKY\DOCUMENTS\VNA_DATA\JULY22_2025\295\PORT1_MOS6_REPEAT1.S1P
! CHANNEL.1
! TR.MEASUREMENT
! RAW.DATA
# GHZ S RI R 50.0
! FREQ.GHZ         S11RE         S11IM         
!; PortSelection: Port_1
   0.001000000     1.0459460   -0.0720443  
   0.002999900     0.9477420   -0.2219114  
   0.004999800     0.8221986   -0.0985033  
   0.006999700     0.5197285   -0.3812401  
   0.008999600     0.9296343   -0.0397143  
   0.010999500     0.9138688   -0.2441610  
   0.012999400     0.8745196   -0.3488502  
   0.014999300     0.8342687   -0.4294799  
   0.016999200     0.7925915   -0.5000579  
   0.018999100     0.7482165   -0.5651039  
   0.020999000     0.6989588   -0.6257482  
   0.022998900     0.6444749   -0.6813851  
   0.024998800     0.5763034   -0.6969994  
   0.026998700     0.5178568   -0.7778258  
   0.028998600     0.4439362   -0.8174986  
   0.030998500     0.3625620   -0.8500620  
   0.032998400     0.2783231   -0.8402595  
   0.034998300     0.1775318   -0.8881626  
   0.036998200     0.0743958   -0.8905897  
   0.038998100    -0.0344841   -0.8792167  
   0.040998000    -0.1479836   -0.8506169  
   0.042997900    -0.2641159   -0.8033524  
   0.044997800    -0.3556475   -0.7163488  
   0.046997700    -0.4894064   -0.6394153  
   0.048997600    -0.5880304   -0.5186105  
   0.050997500    -0.6676617   -0.3701802  
   0.052997400    -0.7178299   -0.1960641  
   0.054997300    -0.7275292   -0.0016996  
   0.056997200    -0.6862439    0.2033645  
   0.058997100    -0.5872447    0.3991231  
   0.060997000    -0.4328648    0.5655922  
   0.062996900    -0.2346100    0.6832833  
   0.064996800    -0.0118936    0.7393793  
   0.066996700     0.2117218    0.7303001  
   0.068996600     0.4158191    0.6636950  
   0.070996500     0.5860658    0.5537750  
   0.072996400     0.7153226    0.4143920  
   0.074996300     0.8030394    0.2611365  
   0.076996200     0.8526099    0.1043865  
   0.078996100     0.8691168   -0.0474002  
   0.080996000     0.8587090   -0.1902801  
   0.082995900     0.8259777   -0.3203367  
   0.084995800     0.7749520   -0.4359788  
   0.086995700     0.7113928   -0.5375490  
   0.088995600     0.6372796   -0.6248497  
   0.090995500     0.5551289   -0.6986926  
   0.092995400     0.4674881   -0.7593781  
   0.094995300     0.3740434   -0.8068115  
   0.096995200     0.2780485   -0.8412197  
   0.098995100     0.1796415   -0.8635243  
   0.100995000     0.0787988   -0.8738757  
   0.102994900    -0.0212643   -0.8720266  
   0.104994800    -0.1208162   -0.8581961  
   0.106994700    -0.2188609   -0.8314490  
   0.108994600    -0.3140267   -0.7934873  
   0.110994500    -0.4057950   -0.7433533  
   0.112994400    -0.4921975   -0.6806331  
   0.114994300    -0.5717354   -0.6053581  
   0.116994200    -0.6422606   -0.5174313  
   0.118994100    -0.7024114   -0.4177018  
   0.120994000    -0.7505696   -0.3075789  
   0.122993900    -0.7820010   -0.1858852  
   0.124993800    -0.7949417   -0.0564794  
   0.126993700    -0.7865543    0.0787271  
   0.128993600    -0.7535622    0.2153462  
   0.130993500    -0.6967163    0.3497895  
   0.132993400    -0.6133770    0.4763972  
   0.134993300    -0.5049296    0.5892995  
   0.136993200    -0.3728210    0.6815163  
   0.138993100    -0.2217909    0.7478198  
   0.140993000    -0.0575758    0.7827027  
   0.142992900     0.1120100    0.7833419  
   0.144992800     0.2793516    0.7501348  
   0.146992700     0.4352275    0.6822123  
   0.148992600     0.5722780    0.5848976  
   0.150992500     0.6836634    0.4630970  
   0.152992400     0.7679701    0.3255942  
   0.154992300     0.8224279    0.1788799  
   0.156992200     0.8476255    0.0284219  
   0.158992100     0.8450943   -0.1187327  
   0.160992000     0.8178070   -0.2584714  
   0.162991900     0.7684416   -0.3867249  
   0.164991800     0.7011025   -0.5015898  
   0.166991700     0.6190116   -0.6004727  
   0.168991600     0.5254518   -0.6830480  
   0.170991500     0.4230746   -0.7490267  
   0.172991400     0.3150693   -0.7979909  
   0.174991300     0.2038599   -0.8303022  
   0.176991200     0.0905004   -0.8463663  
   0.178991100    -0.0220989   -0.8463473  
   0.180991000    -0.1322377   -0.8318686  
   0.182990900    -0.2389899   -0.8021010  
   0.184990800    -0.3406117   -0.7581506  
   0.186990700    -0.4352884   -0.7008383  
   0.188990600    -0.5033126   -0.6446728  
   0.190990500    -0.5949517   -0.5508300  
   0.192990400    -0.6622882   -0.4556383  
   0.194990300    -0.7144002   -0.3534293  
   0.196990200    -0.7516582   -0.2435813  
   0.198990100    -0.7734011   -0.1271131  
   0.200990000    -0.7777162   -0.0061914  
   0.202989900    -0.7631710    0.1170052  
   0.204989800    -0.7289973    0.2392382  
   0.206989700    -0.6760038    0.3574572  
   0.208989600    -0.6021692    0.4673213  
   0.210989500    -0.5080739    0.5663014  
   0.212989400    -0.3963383    0.6493959  
   0.214989300    -0.2694338    0.7130746  
   0.216989200    -0.1309853    0.7543727  
   0.218989100     0.0143778    0.7700127  
   0.220989000     0.1616659    0.7590477  
   0.222988900     0.3058759    0.7206164  
   0.224988800     0.4410415    0.6560712  
   0.226988700     0.5616132    0.5683554  
   0.228988600     0.6633098    0.4607123  
   0.230988500     0.7426703    0.3377667  
   0.232988400     0.7971365    0.2036162  
   0.234988300     0.8277563    0.0646404  
   0.236988200     0.8334007   -0.0751165  
   0.238988100     0.8154790   -0.2107012  
   0.240988000     0.7765234   -0.3386399  
   0.242987900     0.7184658   -0.4548240  
   0.244987800     0.6446545   -0.5581388  
   0.246987700     0.5574815   -0.6473320  
   0.248987600     0.4596806   -0.7206722  
   0.250987500     0.3535651   -0.7772135  
   0.252987400     0.2432423   -0.8169648  
   0.254987300     0.1308269   -0.8400446  
   0.256987200     0.0180910   -0.8467417  
   0.258987100    -0.0934950   -0.8391464  
   0.260987000    -0.2018726   -0.8151518  
   0.262986900    -0.3058242   -0.7766427  
   0.264986800    -0.4029454   -0.7249011  
   0.266986700    -0.4923239   -0.6593842  
   0.268986600    -0.5717678   -0.5828105  
   0.270986500    -0.6395094   -0.4957841  
   0.272986400    -0.6952894   -0.3996057  
   0.274986300    -0.7375475   -0.2957512  
   0.276986200    -0.7647052   -0.1850709  
   0.278986100    -0.7757443   -0.0692475  
   0.280986000    -0.7693238    0.0490042  
   0.282985900    -0.7443278    0.1675865  
   0.284985800    -0.7002150    0.2830299  
   0.286985700    -0.6366932    0.3919594  
   0.288985600    -0.5550088    0.4913513  
   0.290985500    -0.4556685    0.5765914  
   0.292985400    -0.3409375    0.6444329  
   0.294985300    -0.2133853    0.6920921  
   0.296985200    -0.0760741    0.7160500  
   0.298985100     0.0660850    0.7138765  
   0.300985000     0.2065291    0.6841088  
   0.302984900     0.3393091    0.6269849  
   0.304984800     0.4576969    0.5445048  
   0.306984700     0.5568058    0.4411384  
   0.308984600     0.6318300    0.3214434  
   0.310984500     0.6802078    0.1922452  
   0.312984400     0.7013446    0.0591490  
   0.314984300     0.6961074   -0.0707110  
   0.316984200     0.6669245   -0.1920855  
   0.318984100     0.6173423   -0.3006766  
   0.320984000     0.5531130   -0.3926983  
   0.322983900     0.4790500   -0.4669957  
   0.324983800     0.4010206   -0.5236104  
   0.326983700     0.3236247   -0.5651814  
   0.328983600     0.2500710   -0.5963499  
   0.330983500     0.1802037   -0.6215564  
   0.332983400     0.1119050   -0.6442661  
   0.334983300     0.0400913   -0.6653863  
   0.336983200    -0.0386346   -0.6826921  
   0.338983100    -0.1263893   -0.6917797  
   0.340983000    -0.2210209   -0.6871888  
   0.342982900    -0.3195356   -0.6657963  
   0.344982800    -0.4167987   -0.6256204  
   0.346982700    -0.5092639   -0.5667231  
   0.348982600    -0.5902650   -0.4905759  
   0.350982500    -0.6588533   -0.4018455  
   0.352982400    -0.7124281   -0.3016949  
   0.354982300    -0.7504718   -0.1887431  
   0.356982200    -0.7704459   -0.0566025  
   0.358982100    -0.7657712    0.0762350  
   0.360982000    -0.7374928    0.2057465  
   0.362981900    -0.6869604    0.3285923  
   0.364981800    -0.6150398    0.4413565  
   0.366981700    -0.5244861    0.5398470  
   0.368981600    -0.4171472    0.6212941  
   0.370981500    -0.2964213    0.6827376  
   0.372981400    -0.1655791    0.7222437  
   0.374981300    -0.0280093    0.7378267  
   0.376981200    -0.1287484    0.7336355  
   0.378981100     0.0146865    0.7424570  
   0.380981000     0.1584897    0.7242122  
   0.382980900     0.2863017    0.6833206  
   0.384980800     0.4012436    0.6236591  
   0.386980700     0.5051522    0.5445664  
   0.388980600     0.5942841    0.4480844  
   0.390980500     0.6653252    0.3382753  
   0.392980400     0.7162365    0.2182274  
   0.394980300     0.7456247    0.0917445  
   0.396980200     0.7530251   -0.0373434  
   0.398980100     0.7385054   -0.1647474  
   0.400980000     0.7027960   -0.2868165  
   0.402979900     0.6475425   -0.4003120  
   0.404979800     0.5751755   -0.5018607  
   0.406979700     0.4882683   -0.5886899  
   0.408979600     0.3897917   -0.6593140  
   0.410979500     0.2817199   -0.7126932  
   0.412979400     0.1677695   -0.7476794  
   0.414979300     0.0508333   -0.7629567  
   0.416979200    -0.0656598   -0.7608808  
   0.418979100    -0.1786775   -0.7410069  
   0.420979000    -0.2864590   -0.7043507  
   0.422978900    -0.3869177   -0.6521795  
   0.424978800    -0.4777824   -0.5859788  
   0.426978700    -0.5570657   -0.5071737  
   0.428978600    -0.6230730   -0.4178812  
   0.430978500    -0.6748693   -0.3205718  
   0.432978400    -0.7115809   -0.2170045  
   0.434978300    -0.7336996   -0.1099574  
   0.436978200    -0.7388402   -0.0000891  
   0.438978100    -0.7275307    0.1094739  
   0.440978000    -0.7001485    0.2168169  
   0.442977900    -0.6568667    0.3194246  
   0.444977800    -0.5980381    0.4152184  
   0.446977700    -0.5251074    0.5013723  
   0.448977600    -0.4390492    0.5763054  
   0.450977500    -0.3415763    0.6377339  
   0.452977400    -0.2340471    0.6840761  
   0.454977300    -0.1191750    0.7128729  
   0.456977200     0.0004187    0.7232713  
   0.458977100     0.1214782    0.7138835  
   0.460977000     0.2403115    0.6847785  
   0.462976900     0.3532738    0.6360328  
   0.464976800     0.4569540    0.5688795  
   0.466976700     0.5486890    0.4849506  
   0.468976600     0.6250370    0.3866451  
   0.470976500     0.6838793    0.2763298  
   0.472976400     0.7231245    0.1583421  
   0.474976300     0.7421474    0.0354793  
   0.476976200     0.7402905   -0.0877272  
   0.478976100     0.7179342   -0.2079466  
   0.480976000     0.6770706   -0.3213862  
   0.482975900     0.6189665   -0.4252369  
   0.484975800     0.5458723   -0.5169987  
   0.486975700     0.4599614   -0.5949504  
   0.488975600     0.3641309   -0.6580910  
   0.490975500     0.2611107   -0.7045159  
   0.492975400     0.1532777   -0.7346964  
   0.494975300     0.0435381   -0.7480088  
   0.496975200    -0.0656961   -0.7447436  
   0.498975100    -0.1716285   -0.7258108  
   0.500975000    -0.2727113   -0.6917217  
   0.502974900    -0.3669640   -0.6440908  
   0.504974800    -0.4529747   -0.5833470  
   0.506974700    -0.5297419   -0.5116512  
   0.508974600    -0.5956690   -0.4287363  
   0.510974500    -0.6490651   -0.3372399  
   0.512974400    -0.6889182   -0.2387223  
   0.514974300    -0.7124403   -0.1348439  
   0.516974200    -0.7216108   -0.0287431  
   0.518974100    -0.7148516    0.0784782  
   0.520974000    -0.6915253    0.1841892  
   0.522973900    -0.6520133    0.2857184  
   0.524973800    -0.5961972    0.3805369  
   0.526973700    -0.5256938    0.4658326  
   0.528973600    -0.4420095    0.5388116  
   0.530973500    -0.3474770    0.5978898  
   0.532973400    -0.2448680    0.6403899  
   0.534973300    -0.1368245    0.6661903  
   0.536973200    -0.0262412    0.6745250  
   0.538973100     0.0837985    0.6654681  
   0.540973000     0.1902653    0.6395411  
   0.542972900     0.2912509    0.5976477  
   0.544972800     0.3848008    0.5405394  
   0.546972700     0.4685920    0.4694452  
   0.548972600     0.5402074    0.3860306  
   0.550972500     0.5983226    0.2920653  
   0.552972400     0.6413660    0.1894412  
   0.554972300     0.6675416    0.0809790  
   0.556972200     0.6757177   -0.0301697  
   0.558972100     0.6661832   -0.1419767  
   0.560972000     0.6388563   -0.2505735  
   0.562971900     0.5948158   -0.3526757  
   0.564971800     0.5349821   -0.4467802  
   0.566971700     0.4615000   -0.5292929  
   0.568971600     0.3760241   -0.5991303  
   0.570971500     0.2809510   -0.6543733  
   0.572971400     0.1788241   -0.6937234  
   0.574971300     0.0714849   -0.7165183  
   0.576971200    -0.0376436   -0.7225119  
   0.578971100    -0.1463844   -0.7116214  
   0.580971000    -0.2515855   -0.6840851  
   0.582970900    -0.3505173   -0.6411715  
   0.584970800    -0.4411325   -0.5838236  
   0.586970700    -0.5214393   -0.5142527  
   0.588970600    -0.5898243   -0.4337878  
   0.590970500    -0.6456055   -0.3444668  
   0.592970400    -0.6874270   -0.2480270  
   0.594970300    -0.7144334   -0.1468185  
   0.596970200    -0.7264200   -0.0429057  
   0.598970100    -0.7228966    0.0619508  
   0.600970000    -0.7040542    0.1654879  
   0.602969900    -0.6702265    0.2649772  
   0.604969800    -0.6217168    0.3591904  
   0.606969700    -0.5594684    0.4455666  
   0.608969600    -0.4841793    0.5224370  
   0.610969500    -0.3979646    0.5871522  
   0.612969400    -0.3021120    0.6385385  
   0.614969300    -0.1988134    0.6751456  
   0.616969200    -0.0907287    0.6953077  
   0.618969100     0.0194314    0.6986760  
   0.620969000     0.1292688    0.6848733  
   0.622968900     0.2367742    0.6535844  
   0.624968800     0.3384738    0.6051632  
   0.626968700     0.4323815    0.5406383  
   0.628968600     0.5151250    0.4613675  
   0.630968500     0.5842716    0.3687561  
   0.632968400     0.6373008    0.2659009  
   0.634968300     0.6730179    0.1548312  
   0.636968200     0.6897298    0.0395139  
   0.638968100     0.6870314   -0.0768787  
   0.640968000     0.6647898   -0.1916410  
   0.642967900     0.6240327   -0.2999245  
   0.644967800     0.5659843   -0.3999299  
   0.646967700     0.4927363   -0.4880106  
   0.648967600     0.4068908   -0.5622377  
   0.650967500     0.3110856   -0.6207136  
   0.652967400     0.2080768   -0.6621883  
   0.654967300     0.1011620   -0.6869009  
   0.656967200    -0.0070954   -0.6939898  
   0.658967100    -0.1141691   -0.6838633  
   0.660967000    -0.2174063   -0.6573145  
   0.662966900    -0.3149416   -0.6155033  
   0.664966800    -0.4042274   -0.5593196  
   0.666966700    -0.4834372   -0.4904595  
   0.668966600    -0.5507059   -0.4107570  
   0.670966500    -0.6045889   -0.3223037  
   0.672966400    -0.6448874   -0.2272320  
   0.674966300    -0.6696608   -0.1279102  
   0.676966200    -0.6789459   -0.0263120  
   0.678966100    -0.6729902    0.0749546  
   0.680966000    -0.6516669    0.1746463  
   0.682965900    -0.6158584    0.2699341  
   0.684965800    -0.5660492    0.3586787  
   0.686965700    -0.5027903    0.4393482  
   0.688965600    -0.4275387    0.5098580  
   0.690965500    -0.3418672    0.5676299  
   0.692965400    -0.2478925    0.6122158  
   0.694965300    -0.1477022    0.6422604  
   0.696965200    -0.0432252    0.6559332  
   0.698965100     0.0633341    0.6528835  
   0.700965000     0.1687385    0.6327024  
   0.702964900     0.2704686    0.5956983  
   0.704964800     0.3650704    0.5417839  
   0.706964700     0.4503787    0.4727375  
   0.708964600     0.5233129    0.3896058  
   0.710964500     0.5824714    0.2960092  
   0.712964400     0.6244788    0.1930493  
   0.714964300     0.6485245    0.0847683  
   0.716964200     0.6539620   -0.0254391  
   0.718964100     0.6407942   -0.1339149  
   0.720964000     0.6103423   -0.2371393  
   0.722963900     0.5641794   -0.3334875  
   0.724963800     0.5036423   -0.4198607  
   0.726963700     0.4308388   -0.4944279  
   0.728963600     0.3482611   -0.5565456  
   0.730963500     0.2575832   -0.6033692  
   0.732963400     0.1624497   -0.6361428  
   0.734963300     0.0641836   -0.6539409  
   0.736963200    -0.0489935   -0.6561202  
   0.738963100    -0.1600771   -0.6383678  
   0.740963000    -0.2657863   -0.6020713  
   0.742962900    -0.3630042   -0.5486180  
   0.744962800    -0.4493867   -0.4794856  
   0.746962700    -0.5228925   -0.3968920  
   0.748962600    -0.5809042   -0.3024551  
   0.750962500    -0.5432080   -0.3870060  
   0.752962400    -0.5997658   -0.2907911  
   0.754962300    -0.6387358   -0.1859876  
   0.756962200    -0.6592398   -0.0755885  
   0.758962100    -0.6600782    0.0370377  
   0.760962000    -0.6409697    0.1487217  
   0.762961900    -0.6049264    0.2506934  
   0.764961800    -0.5578927    0.3375076  
   0.766961700    -0.4976566    0.4163032  
   0.768961600    -0.4255776    0.4847849  
   0.770961500    -0.3437217    0.5409216  
   0.772961400    -0.2539047    0.5838643  
   0.774961300    -0.1588458    0.6116048  
   0.776961200    -0.0602041    0.6246800  
   0.778961100     0.0397651    0.6219252  
   0.780961000     0.1381758    0.6038389  
   0.782960900     0.2329829    0.5701463  
   0.784960800     0.3218487    0.5216104  
   0.786960700     0.4024313    0.4595164  
   0.788960600     0.4724729    0.3850561  
   0.790960500     0.5295993    0.3004966  
   0.792960400     0.5727356    0.2076417  
   0.794960300     0.6003704    0.1091328  
   0.796960200     0.6119162    0.0071620  
   0.798960100     0.6066496   -0.0950692  
   0.800960000     0.5853196   -0.1949202  
   0.802959900     0.5482184   -0.2903485  
   0.804959800     0.4961693   -0.3784706  
   0.806959700     0.4310934   -0.4567148  
   0.808959600     0.3543352   -0.5239170  
   0.810959500     0.2676802   -0.5776302  
   0.812959400     0.1739813   -0.6170775  
   0.814959300     0.0752552   -0.6409205  
   0.816959200    -0.0256142   -0.6487395  
   0.818959100    -0.1261740   -0.6407250  
   0.820959000    -0.2237981   -0.6169585  
   0.822958900    -0.3165069   -0.5783113  
   0.824958800    -0.4013741   -0.5257273  
   0.826958700    -0.4768986   -0.4610214  
   0.828958600    -0.5413601   -0.3856181  
   0.830958500    -0.5928595   -0.3015539  
   0.832958400    -0.6309557   -0.2111839  
   0.834958300    -0.6546399   -0.1163080  
   0.836958200    -0.6639371   -0.0193778  
   0.838958100    -0.6581780    0.0776550  
   0.840958000    -0.6381044    0.1728534  
   0.842957900    -0.6035709    0.2632596  
   0.844957800    -0.5559165    0.3481705  
   0.846957700    -0.4958042    0.4250546  
   0.848957600    -0.4248718    0.4920330  
   0.850957500    -0.3438455    0.5477468  
   0.852957400    -0.2551599    0.5903893  
   0.854957300    -0.1605814    0.6193080  
   0.856957200    -0.0623851    0.6331297  
   0.858957100     0.0374831    0.6317325  
   0.860957000     0.1357376    0.6146497  
   0.862956900     0.2299758    0.5820988  
   0.864956800     0.3179468    0.5351731  
   0.866956700     0.3977938    0.4749116  
   0.868956600     0.4669091    0.4020732  
   0.870956500     0.5242602    0.3189536  
   0.872956400     0.5682359    0.2273056  
   0.874956300     0.5963598    0.1288950  
   0.876956200     0.6084770    0.0265416  
   0.878956100     0.6034802   -0.0767638  
   0.880956000     0.5812942   -0.1781171  
   0.882955900     0.5426104   -0.2744053  
   0.884955800     0.4880292   -0.3629511  
   0.886955700     0.4199537   -0.4407709  
   0.888955600     0.3397496   -0.5062715  
   0.890955500     0.2503797   -0.5568430  
   0.892955400     0.1543458   -0.5919769  
   0.894955300     0.0545035   -0.6105667  
