! MS46122B
! 2250307/22442219
! 7/24/2025 12:36:37 PM
! C:\USERS\SPARKY\DOCUMENTS\VNA_DATA\JULY24_2025\295K\PORT2_MOS5.S1P
! CHANNEL.1
! TR.MEASUREMENT
! RAW.DATA
# GHZ S RI R 50.0
! FREQ.GHZ         S11RE         S11IM         
!; PortSelection: Port_1
   0.001000000     1.0454470   -0.0722050  
   0.002999900     0.9634836   -0.1945490  
   0.004999800     0.9025810   -0.2991551  
   0.006999700     0.8346134   -0.3963553  
   0.008999600     0.7543373   -0.4907134  
   0.010999500     0.6592651   -0.5794711  
   0.012999400     0.5437207   -0.6594773  
   0.014999300     0.4022629   -0.7236356  
   0.016999200     0.2300067   -0.7576934  
   0.018999100     0.0253803   -0.7416958  
   0.020999000    -0.1971519   -0.6417189  
   0.022998900    -0.3918030   -0.4267229  
   0.024998800    -0.4598458   -0.1072389  
   0.026998700    -0.3747478    0.2439767  
   0.028998600    -0.1127297    0.4839203  
   0.030998500     0.2004520    0.5566387  
   0.032998400     0.4420760    0.4882827  
   0.034998300     0.6587814    0.3662512  
   0.036998200     0.7765329    0.2125823  
   0.038998100     0.8391736    0.0583670  
   0.040998000     0.8618555   -0.0851781  
   0.042997900     0.8555865   -0.2149036  
   0.044997800     0.8052532   -0.3044334  
   0.046997700     0.7866295   -0.4317946  
   0.048997600     0.7336643   -0.5203224  
   0.050997500     0.6723855   -0.5967578  
   0.052997400     0.6046552   -0.6623970  
   0.054997300     0.5322900   -0.7176598  
   0.056997200     0.4542220   -0.7646629  
   0.058997100     0.3734447   -0.8020177  
   0.060997000     0.2894504   -0.8303754  
   0.062996900     0.2025624   -0.8495453  
   0.064996800     0.1136518   -0.8594350  
   0.066996700     0.0226170   -0.8595577  
   0.068996600    -0.0693299   -0.8491615  
   0.070996500    -0.1623677   -0.8285801  
   0.072996400    -0.2544753   -0.7948406  
   0.074996300    -0.3446560   -0.7487878  
   0.076996200    -0.4318861   -0.6891351  
   0.078996100    -0.5131213   -0.6154217  
   0.080996000    -0.5869104   -0.5269595  
   0.082995900    -0.6493664   -0.4236889  
   0.084995800    -0.6967039   -0.3065107  
   0.086995700    -0.7266963   -0.1767854  
   0.088995600    -0.7343365   -0.0372543  
   0.090995500    -0.7155425    0.1082355  
   0.092995400    -0.6679605    0.2547894  
   0.094995300    -0.5879406    0.3940803  
   0.096995200    -0.4767492    0.5178431  
   0.098995100    -0.3374545    0.6176403  
   0.100995000    -0.1750120    0.6857736  
   0.102994900    -0.0014097    0.7152133  
   0.104994800     0.1741224    0.7043672  
   0.106994700     0.3403404    0.6539145  
   0.108994600     0.4884697    0.5702460  
   0.110994500     0.6114964    0.4596872  
   0.112994400     0.7050089    0.3301391  
   0.114994300     0.7676247    0.1902909  
   0.116994200     0.8005470    0.0470920  
   0.118994100     0.8057647   -0.0935501  
   0.120994000     0.7882747   -0.2269191  
   0.122993900     0.7482632   -0.3500455  
   0.124993800     0.6915889   -0.4597651  
   0.126993700     0.6206856   -0.5557688  
   0.128993600     0.5382507   -0.6364966  
   0.130993500     0.4485137   -0.7027360  
   0.132993400     0.3529081   -0.7543175  
   0.134993300     0.2532321   -0.7914775  
   0.136993200     0.1515297   -0.8142132  
   0.138993100     0.0488017   -0.8231241  
   0.140993000    -0.0531456   -0.8184835  
   0.142992900    -0.1528935   -0.8005370  
   0.144992800    -0.2500307   -0.7714496  
   0.146992700    -0.3426329   -0.7282462  
   0.148992600    -0.4295549   -0.6730859  
   0.150992500    -0.5079167   -0.6052066  
   0.152992400    -0.5789142   -0.5273829  
   0.154992300    -0.6396151   -0.4391763  
   0.156992200    -0.6885282   -0.3407727  
   0.158992100    -0.7238252   -0.2347157  
   0.160992000    -0.7438549   -0.1213356  
   0.162991900    -0.7466961   -0.0032930  
   0.164991800    -0.7309101    0.1172959  
   0.166991700    -0.6954064    0.2368398  
   0.168991600    -0.6394233    0.3524789  
   0.170991500    -0.5626333    0.4601477  
   0.172991400    -0.4660681    0.5551504  
   0.174991300    -0.3515650    0.6334451  
   0.176991200    -0.2217853    0.6913032  
   0.178991100    -0.0814690    0.7246803  
   0.180991000     0.0645754    0.7320634  
   0.182990900     0.2105370    0.7105507  
   0.184990800     0.3505352    0.6612552  
   0.186990700     0.4782415    0.5862795  
   0.188990600     0.5734448    0.5053771  
   0.190990500     0.6750938    0.3766244  
   0.192990400     0.7414801    0.2460461  
   0.194990300     0.7810877    0.1111153  
   0.196990200     0.7954302   -0.0253906  
   0.198990100     0.7859352   -0.1592507  
   0.200990000     0.7540054   -0.2863046  
   0.202989900     0.7023845   -0.4036025  
   0.204989800     0.6336526   -0.5079302  
   0.206989700     0.5526174   -0.5986443  
   0.208989600     0.4602328   -0.6724356  
   0.210989500     0.3589786   -0.7303331  
   0.212989400     0.2520001   -0.7718663  
   0.214989300     0.1423263   -0.7963662  
   0.216989200     0.0318600   -0.8045454  
   0.218989100    -0.0769613   -0.7971448  
   0.220989000    -0.1831302   -0.7740590  
   0.222988900    -0.2846448   -0.7362129  
   0.224988800    -0.3798925   -0.6844665  
   0.226988700    -0.4664716   -0.6200545  
   0.228988600    -0.5431402   -0.5437636  
   0.230988500    -0.6083306   -0.4567287  
   0.232988400    -0.6600046   -0.3591117  
   0.234988300    -0.6984633   -0.2539429  
   0.236988200    -0.7211016   -0.1425469  
   0.238988100    -0.7263680   -0.0272765  
   0.240988000    -0.7134087    0.0894802  
   0.242987900    -0.6817150    0.2043582  
   0.244987800    -0.6309385    0.3152535  
   0.246987700    -0.5607033    0.4185802  
   0.248987600    -0.4718923    0.5106337  
   0.250987500    -0.3661320    0.5873191  
   0.252987400    -0.2467924    0.6453630  
   0.254987300    -0.1172676    0.6812752  
   0.256987200     0.0184943    0.6930833  
   0.258987100     0.1557974    0.6808100  
   0.260987000     0.2892101    0.6418315  
   0.262986900     0.4140744    0.5777012  
   0.264986800     0.5244431    0.4915836  
   0.266986700     0.6163581    0.3864477  
   0.268986600     0.6864755    0.2672407  
   0.270986500     0.7325203    0.1395004  
   0.272986400     0.7545211    0.0072716  
   0.274986300     0.7529695   -0.1241247  
   0.276986200     0.7285315   -0.2511434  
   0.278986100     0.6836216   -0.3695876  
   0.280986000     0.6207299   -0.4769481  
   0.282985900     0.5430529   -0.5704952  
   0.284985800     0.4532194   -0.6487857  
   0.286985700     0.3541206   -0.7104381  
   0.288985600     0.2502069   -0.7549348  
   0.290985500     0.1429701   -0.7831784  
   0.292985400     0.0351027   -0.7952589  
   0.294985300    -0.0719101   -0.7916179  
   0.296985200    -0.1768113   -0.7730976  
   0.298985100    -0.2773214   -0.7402304  
   0.300985000    -0.3723134   -0.6939107  
   0.302984900    -0.4591020   -0.6353956  
   0.304984800    -0.5366946   -0.5653873  
   0.306984700    -0.6039863   -0.4853206  
   0.308984600    -0.6592367   -0.3972630  
   0.310984500    -0.7023861   -0.3019436  
   0.312984400    -0.7317305   -0.2004482  
   0.314984300    -0.7463766   -0.0941672  
   0.316984200    -0.7447156    0.0150466  
   0.318984100    -0.7262650    0.1255237  
   0.320984000    -0.6888871    0.2339483  
   0.322983900    -0.6328700    0.3363958  
   0.324983800    -0.5589274    0.4273825  
   0.326983700    -0.4703006    0.5033445  
   0.328983600    -0.3708512    0.5613205  
   0.330983500    -0.2663410    0.6001700  
   0.332983400    -0.1615694    0.6218804  
   0.334983300    -0.0571359    0.6290277  
   0.336983200     0.0461173    0.6231987  
   0.338983100     0.1487021    0.6038886  
   0.340983000     0.2490326    0.5703456  
   0.342982900     0.3459042    0.5209222  
   0.344982800     0.4362369    0.4554866  
   0.346982700     0.5169334    0.3737401  
   0.348982600     0.5826375    0.2769839  
   0.350982500     0.6321853    0.1688687  
   0.352982400     0.6620816    0.0524659  
   0.354982300     0.6702951   -0.0730923  
   0.356982200     0.6515992   -0.2099645  
   0.358982100     0.6055395   -0.3401972  
   0.360982000     0.5349211   -0.4580961  
   0.362981900     0.4421570   -0.5594214  
   0.364981800     0.3317281   -0.6401871  
   0.366981700     0.2083120   -0.6974955  
   0.368981600     0.0768911   -0.7296631  
   0.370981500    -0.0571947   -0.7360542  
   0.372981400    -0.1891133   -0.7170273  
   0.374981300    -0.3143419   -0.6737303  
   0.376981200    -0.2069134   -0.7140810  
   0.378981100    -0.3301355   -0.6680145  
   0.380981000    -0.4419763   -0.6001830  
   0.382980900    -0.5309407   -0.5224178  
   0.384980800    -0.6021351   -0.4363825  
   0.386980700    -0.6594477   -0.3401994  
   0.388980600    -0.7014285   -0.2364901  
   0.390980500    -0.7265724   -0.1282768  
   0.392980400    -0.7351717   -0.0175498  
   0.394980300    -0.7267322    0.0929460  
   0.396980200    -0.7017270    0.2015134  
   0.398980100    -0.6601808    0.3057099  
   0.400980000    -0.6025831    0.4031133  
   0.402979900    -0.5301263    0.4914548  
   0.404979800    -0.4438823    0.5679945  
   0.406979700    -0.3454134    0.6306270  
   0.408979600    -0.2376636    0.6777183  
   0.410979500    -0.1212556    0.7070860  
   0.412979400     0.0001212    0.7172685  
   0.414979300     0.1229764    0.7062201  
   0.416979200     0.2436041    0.6753511  
   0.418979100     0.3578613    0.6241968  
   0.420979000     0.4629465    0.5536401  
   0.422978900     0.5548401    0.4653881  
   0.424978800     0.6304313    0.3617322  
   0.426978700     0.6870851    0.2461662  
   0.428978600     0.7225274    0.1224885  
   0.430978500     0.7355764   -0.0047589  
   0.432978400     0.7264901   -0.1316122  
   0.434978300     0.6970059   -0.2546207  
   0.436978200     0.6461449   -0.3691706  
   0.438978100     0.5770446   -0.4724571  
   0.440978000     0.4921290   -0.5619330  
   0.442977900     0.3947183   -0.6348701  
   0.444977800     0.2876454   -0.6903892  
   0.446977700     0.1745360   -0.7267215  
   0.448977600     0.0580840   -0.7438185  
   0.450977500    -0.0580159   -0.7422299  
   0.452977400    -0.1718060   -0.7221792  
   0.454977300    -0.2804058   -0.6846579  
   0.456977200    -0.3814557   -0.6305019  
   0.458977100    -0.4720869   -0.5614623  
   0.460977000    -0.5503321   -0.4796731  
   0.462976900    -0.6143726   -0.3875304  
   0.464976800    -0.6632408   -0.2862106  
   0.466976700    -0.6957867   -0.1792987  
   0.468976600    -0.7111678   -0.0682614  
   0.470976500    -0.7091501    0.0444156  
   0.472976400    -0.6890411    0.1553960  
   0.474976300    -0.6515535    0.2625566  
   0.476976200    -0.5972978    0.3629148  
   0.478976100    -0.5270085    0.4537958  
   0.480976000    -0.4424804    0.5320394  
   0.482975900    -0.3459302    0.5964755  
   0.484975800    -0.2390789    0.6442873  
   0.486975700    -0.1244455    0.6738275  
   0.488975600    -0.0054209    0.6837584  
   0.490975500     0.1142382    0.6729671  
   0.492975400     0.2312563    0.6412296  
   0.494975300     0.3412184    0.5897326  
   0.496975200     0.4406286    0.5187896  
   0.498975100     0.5255518    0.4321014  
   0.500975000     0.5933168    0.3320875  
   0.502974900     0.6418768    0.2230335  
   0.504974800     0.6701208    0.1078025  
   0.506974700     0.6778882   -0.0087986  
   0.508974600     0.6654567   -0.1239433  
   0.510974500     0.6345031   -0.2328513  
   0.512974400     0.5869836   -0.3332319  
   0.514974300     0.5248339   -0.4210116  
   0.516974200     0.4530776   -0.4974992  
   0.518974100     0.3724832   -0.5608887  
   0.520974000     0.2856678   -0.6109185  
   0.522973900     0.1938064   -0.6482954  
   0.524973800     0.0988284   -0.6722721  
   0.526973700     0.0012257   -0.6839090  
   0.528973600    -0.0973519   -0.6817889  
   0.530973500    -0.1959338   -0.6660178  
   0.532973400    -0.2927234   -0.6356304  
   0.534973300    -0.3851270   -0.5906833  
   0.536973200    -0.4715691   -0.5313436  
   0.538973100    -0.5483053   -0.4583437  
   0.540973000    -0.6135123   -0.3730615  
   0.542972900    -0.6646150   -0.2772714  
   0.544972800    -0.7001396   -0.1733006  
   0.546972700    -0.7185259   -0.0634967  
   0.548972600    -0.7188216    0.0485349  
   0.550972500    -0.7003514    0.1602740  
   0.552972400    -0.6637505    0.2682129  
   0.554972300    -0.6095296    0.3692629  
   0.556972200    -0.5391864    0.4607681  
   0.558972100    -0.4542995    0.5393836  
   0.560972000    -0.3573905    0.6034870  
   0.562971900    -0.2508926    0.6509821  
   0.564971800    -0.1376848    0.6806325  
   0.566971700    -0.0207298    0.6909453  
   0.568971600     0.0966720    0.6821215  
   0.570971500     0.2116990    0.6537583  
   0.572971400     0.3212146    0.6062880  
   0.574971300     0.4219459    0.5402807  
   0.576971200     0.5108233    0.4578665  
   0.578971100     0.5846304    0.3605437  
   0.580971000     0.6409739    0.2519138  
   0.582970900     0.6774234    0.1352368  
   0.584970800     0.6936083    0.0141759  
   0.586970700     0.6887009   -0.1074622  
   0.588970600     0.6633028   -0.2266316  
   0.590970500     0.6178321   -0.3386534  
   0.592970400     0.5544013   -0.4411918  
   0.594970300     0.4750193   -0.5309207  
   0.596970200     0.3824017   -0.6054577  
   0.598970100     0.2789203   -0.6636018  
   0.600970000     0.1682911   -0.7029341  
   0.602969900     0.0536426   -0.7238342  
   0.604969800    -0.0623167   -0.7257357  
   0.606969700    -0.1765513   -0.7090718  
   0.608969600    -0.2855228   -0.6745382  
   0.610969500    -0.3871037   -0.6233622  
   0.612969400    -0.4785748   -0.5572953  
   0.614969300    -0.5576015   -0.4786074  
   0.616969200    -0.6233480   -0.3893707  
   0.618969100    -0.6739438   -0.2921145  
   0.620969000    -0.7093181   -0.1889583  
   0.622968900    -0.7284912   -0.0817673  
   0.624968800    -0.7316818    0.0271440  
   0.626968700    -0.7185053    0.1356961  
   0.628968600    -0.6889699    0.2413148  
   0.630968500    -0.6436989    0.3413198  
   0.632968400    -0.5836884    0.4342948  
   0.634968300    -0.5095505    0.5175402  
   0.636968200    -0.4229939    0.5890996  
   0.638968100    -0.3259760    0.6465364  
   0.640968000    -0.2197747    0.6888412  
   0.642967900    -0.1075912    0.7141740  
   0.644967800     0.0083434    0.7214394  
   0.646967700     0.1245182    0.7104176  
   0.648967600     0.2385318    0.6804191  
   0.650967500     0.3468992    0.6319810  
   0.652967400     0.4460703    0.5666396  
   0.654967300     0.5343118    0.4850455  
   0.656967200     0.6078056    0.3899868  
   0.658967100     0.6649023    0.2832159  
   0.660967000     0.7035369    0.1679810  
   0.662966900     0.7225979    0.0468988  
   0.664966800     0.7207143   -0.0763440  
   0.666966700     0.6985201   -0.1978494  
   0.668966600     0.6557393   -0.3130543  
   0.670966500     0.5945617   -0.4195797  
   0.672966400     0.5174829   -0.5144075  
   0.674966300     0.4261600   -0.5931755  
   0.676966200     0.3235410   -0.6549745  
   0.678966100     0.2135852   -0.6986102  
   0.680966000     0.0991983   -0.7232708  
   0.682965900    -0.0162349   -0.7293021  
   0.684965800    -0.1300727   -0.7166819  
   0.686965700    -0.2393837   -0.6864953  
   0.688965600    -0.3415838   -0.6400911  
   0.690965500    -0.4336320   -0.5783734  
   0.692965400    -0.5151024   -0.5045617  
   0.694965300    -0.5835150   -0.4197929  
   0.696965200    -0.6380385   -0.3264367  
   0.698965100    -0.6777719   -0.2260153  
   0.700965000    -0.7015201   -0.1209715  
   0.702964900    -0.7092150   -0.0138210  
   0.704964800    -0.7005365    0.0936591  
   0.706964700    -0.6753950    0.1988535  
   0.708964600    -0.6342217    0.2991621  
   0.710964500    -0.5779257    0.3928604  
   0.712964400    -0.5070820    0.4769135  
   0.714964300    -0.4232700    0.5490648  
   0.716964200    -0.3288567    0.6070616  
   0.718964100    -0.2259563    0.6496499  
   0.720964000    -0.1172947    0.6750966  
   0.722963900    -0.0051687    0.6825702  
   0.724963800     0.1068057    0.6716060  
   0.726963700     0.2161500    0.6423901  
   0.728963600     0.3193291    0.5953087  
   0.730963500     0.4132003    0.5305079  
   0.732963400     0.4946804    0.4520597  
   0.734963300     0.5628200    0.3608497  
   0.736963200     0.6211011    0.2447175  
   0.738963100     0.6565907    0.1198797  
   0.740963000     0.6677513   -0.0086209  
   0.742962900     0.6549456   -0.1354929  
   0.744962800     0.6188010   -0.2569345  
   0.746962700     0.5615811   -0.3683059  
   0.748962600     0.4858253   -0.4666387  
   0.750962500     0.5390808   -0.3871949  
   0.752962400     0.4617696   -0.4824537  
   0.754962300     0.3693128   -0.5617296  
   0.756962200     0.2647050   -0.6230164  
   0.758962100     0.1517221   -0.6647833  
   0.760962000     0.0331857   -0.6856608  
   0.762961900    -0.0814845   -0.6861569  
   0.764961800    -0.1853900   -0.6700858  
   0.766961700    -0.2858497   -0.6384605  
   0.768961600    -0.3804394   -0.5915408  
   0.770961500    -0.4673257   -0.5306841  
   0.772961400    -0.5435938   -0.4569297  
   0.774961300    -0.6076407   -0.3719207  
   0.776961200    -0.6578081   -0.2776633  
   0.778961100    -0.6926528   -0.1764856  
   0.780961000    -0.7114675   -0.0705918  
   0.782960900    -0.7129840    0.0375860  
   0.784960800    -0.6974888    0.1454154  
   0.786960700    -0.6648127    0.2494270  
   0.788960600    -0.6159166    0.3474816  
   0.790960500    -0.5518791    0.4366949  
   0.792960400    -0.4745721    0.5145130  
   0.794960300    -0.3858152    0.5794611  
   0.796960200    -0.2877855    0.6292366  
   0.798960100    -0.1828258    0.6630648  
   0.800960000    -0.0741352    0.6801328  
   0.802959900     0.0364567    0.6796197  
   0.804959800     0.1456977    0.6613291  
   0.806959700     0.2508940    0.6258379  
   0.808959600     0.3494246    0.5738475  
   0.810959500     0.4386970    0.5064642  
   0.812959400     0.5162373    0.4252571  
   0.814959300     0.5796477    0.3321179  
   0.816959200     0.6275751    0.2295004  
   0.818959100     0.6582024    0.1198488  
   0.820959000     0.6701470    0.0064952  
   0.822958900     0.6635219   -0.1078003  
   0.824958800     0.6380165   -0.2195468  
   0.826958700     0.5944200   -0.3256569  
   0.828958600     0.5335790   -0.4232493  
   0.830958500     0.4577341   -0.5091767  
   0.832958400     0.3688627   -0.5812868  
   0.834958300     0.2696254   -0.6376181  
   0.836958200     0.1631028   -0.6765778  
   0.838958100     0.0518623   -0.6974874  
   0.840958000    -0.0604008   -0.7001272  
   0.842957900    -0.1713652   -0.6847969  
   0.844957800    -0.2777929   -0.6520565  
   0.846957700    -0.3769875   -0.6027440  
   0.848957600    -0.4667781   -0.5389265  
   0.850957500    -0.5448747   -0.4619784  
   0.852957400    -0.6095654   -0.3744090  
   0.854957300    -0.6598881   -0.2783858  
   0.856957200    -0.6943263   -0.1760270  
   0.858957100    -0.7126862   -0.0705486  
   0.860957000    -0.7143687    0.0356457  
   0.862956900    -0.7003564    0.1404081  
   0.864956800    -0.6709949    0.2410410  
   0.866956700    -0.6272675    0.3358749  
   0.868956600    -0.5697354    0.4224527  
   0.870956500    -0.5002010    0.5002329  
   0.872956400    -0.4194028    0.5668321  
   0.874956300    -0.3290839    0.6210484  
   0.876956200    -0.2307585    0.6613482  
   0.878956100    -0.1266142    0.6866252  
   0.880956000    -0.0188569    0.6956153  
   0.882955900     0.0897207    0.6875721  
   0.884955800     0.1967730    0.6628418  
   0.886955700     0.2993896    0.6210171  
   0.888955600     0.3948382    0.5629427  
   0.890955500     0.4804047    0.4894067  
   0.892955400     0.5532638    0.4025888  
   0.894955300     0.6114944    0.3041992  
