! MS46122B
! 2250307/22442219
! 7/23/2025 1:12:00 PM
! C:\USERS\SPARKY\DOCUMENTS\VNA_DATA\JULY23_2025\295K\PORT6_MOS4.S1P
! CHANNEL.1
! TR.MEASUREMENT
! RAW.DATA
# GHZ S RI R 50.0
! FREQ.GHZ         S11RE         S11IM         
!; PortSelection: Port_1
   0.001000000     1.0458240   -0.0712183  
   0.002999900     0.9642119   -0.1937382  
   0.004999800     0.9032044   -0.2986007  
   0.006999700     0.8353371   -0.3960451  
   0.008999600     0.7550192   -0.4906163  
   0.010999500     0.6600333   -0.5796025  
   0.012999400     0.5446849   -0.6597978  
   0.014999300     0.4036054   -0.7242957  
   0.016999200     0.2320389   -0.7591528  
   0.018999100     0.0282268   -0.7443492  
   0.020999000    -0.1938581   -0.6470851  
   0.022998900    -0.3897045   -0.4368709  
   0.024998800    -0.4630831   -0.1217782  
   0.026998700    -0.3881760    0.2291589  
   0.028998600    -0.1344542    0.4763425  
   0.030998500     0.1765560    0.5592545  
   0.032998400     0.4223302    0.4988799  
   0.034998300     0.6441754    0.3822359  
   0.036998200     0.7674716    0.2305790  
   0.038998100     0.8348079    0.0768480  
   0.040998000     0.8611338   -0.0675625  
   0.042997900     0.8579296   -0.1986018  
   0.044997800     0.8096703   -0.2897075  
   0.046997700     0.7931860   -0.4179461  
   0.048997600     0.7417801   -0.5082405  
   0.050997500     0.6818814   -0.5860585  
   0.052997400     0.6161373   -0.6521479  
   0.054997300     0.5431021   -0.7103124  
   0.056997200     0.4665767   -0.7581714  
   0.058997100     0.3866583   -0.7968605  
   0.060997000     0.3033603   -0.8267433  
   0.062996900     0.2173324   -0.8475996  
   0.064996800     0.1288540   -0.8590095  
   0.066996700     0.0384482   -0.8610172  
   0.068996600    -0.0530629   -0.8525650  
   0.070996500    -0.1455423   -0.8342105  
   0.072996400    -0.2376067   -0.8029796  
   0.074996300    -0.3279562   -0.7596489  
   0.076996200    -0.4155037   -0.7030140  
   0.078996100    -0.4977548   -0.6327808  
   0.080996000    -0.5730546   -0.5478262  
   0.082995900    -0.6379015   -0.4484431  
   0.084995800    -0.6886773   -0.3349338  
   0.086995700    -0.7232360   -0.2090455  
   0.088995600    -0.7365162   -0.0723841  
   0.090995500    -0.7248172    0.0710723  
   0.092995400    -0.6854196    0.2168371  
   0.094995300    -0.6146327    0.3577349  
   0.096995200    -0.5129835    0.4859945  
   0.098995100    -0.3819137    0.5925313  
   0.100995000    -0.2263976    0.6709111  
   0.102994900    -0.0568449    0.7118917  
   0.104994800     0.1179533    0.7135326  
   0.106994700     0.2867724    0.6754279  
   0.108994600     0.4408901    0.6031076  
   0.110994500     0.5721756    0.5015615  
   0.112994400     0.6755005    0.3786333  
   0.114994300     0.7487851    0.2423759  
   0.116994200     0.7920609    0.1004976  
   0.118994100     0.8070854   -0.0408431  
   0.120994000     0.7984220   -0.1766691  
   0.122993900     0.7663368   -0.3031969  
   0.124993800     0.7160475   -0.4178127  
   0.126993700     0.6508014   -0.5187913  
   0.128993600     0.5728023   -0.6051134  
   0.130993500     0.4865706   -0.6770493  
   0.132993400     0.3934018   -0.7346149  
   0.134993300     0.2958812   -0.7776057  
   0.136993200     0.1953177   -0.8061863  
   0.138993100     0.0934138   -0.8208069  
   0.140993000    -0.0086133   -0.8222088  
   0.142992900    -0.1091947   -0.8102365  
   0.144992800    -0.2076515   -0.7869616  
   0.146992700    -0.3018169   -0.7494722  
   0.148992600    -0.3909026   -0.7001486  
   0.150992500    -0.4726014   -0.6377785  
   0.152992400    -0.5474115   -0.5654185  
   0.154992300    -0.6126593   -0.4825311  
   0.156992200    -0.6670078   -0.3892475  
   0.158992100    -0.7090459   -0.2875615  
   0.160992000    -0.7365726   -0.1779308  
   0.162991900    -0.7482360   -0.0628450  
   0.164991800    -0.7421002    0.0559650  
   0.166991700    -0.7169902    0.1755412  
   0.168991600    -0.6720262    0.2927808  
   0.170991500    -0.6065445    0.4044933  
   0.172991400    -0.5211747    0.5059319  
   0.174991300    -0.4169007    0.5931497  
   0.176991200    -0.2960839    0.6622773  
   0.178991100    -0.1625025    0.7092763  
   0.180991000    -0.0203786    0.7320715  
   0.182990900     0.1250470    0.7269394  
   0.184990800     0.2682072    0.6941746  
   0.186990700     0.4026612    0.6348230  
   0.188990600     0.5060953    0.5658535  
   0.190990500     0.6216443    0.4502503  
   0.192990400     0.7031159    0.3285982  
   0.194990300     0.7583176    0.1987117  
   0.196990200     0.7888709    0.0641123  
   0.198990100     0.7945688   -0.0706722  
   0.200990000     0.7775711   -0.2018433  
   0.202989900     0.7392536   -0.3249957  
   0.204989800     0.6827758   -0.4375085  
   0.206989700     0.6115261   -0.5371404  
   0.208989600     0.5268486   -0.6215495  
   0.210989500     0.4319828   -0.6908574  
   0.212989400     0.3295588   -0.7435974  
   0.214989300     0.2226447   -0.7801089  
   0.216989200     0.1135330   -0.8001682  
   0.218989100     0.0045191   -0.8044682  
   0.220989000    -0.1033177   -0.7931687  
   0.222988900    -0.2079852   -0.7664284  
   0.224988800    -0.3074265   -0.7257451  
   0.226988700    -0.4000656   -0.6715791  
   0.228988600    -0.4837112   -0.6051622  
   0.230988500    -0.5576069   -0.5270905  
   0.232988400    -0.6191444   -0.4374509  
   0.234988300    -0.6685568   -0.3397145  
   0.236988200    -0.7040332   -0.2338582  
   0.238988100    -0.7233916   -0.1226534  
   0.240988000    -0.7254444   -0.0082005  
   0.242987900    -0.7096429    0.1072530  
   0.244987800    -0.6752260    0.2208472  
   0.246987700    -0.6217831    0.3300146  
   0.248987600    -0.5493269    0.4311298  
   0.250987500    -0.4585389    0.5205985  
   0.252987400    -0.3523341    0.5940073  
   0.254987300    -0.2331440    0.6488096  
   0.256987200    -0.1042004    0.6817988  
   0.258987100     0.0307959    0.6922994  
   0.260987000     0.1667500    0.6763990  
   0.262986900     0.2985021    0.6354254  
   0.264986800     0.4208144    0.5701103  
   0.266986700     0.5289647    0.4831735  
   0.268986600     0.6183292    0.3783308  
   0.270986500     0.6861051    0.2602297  
   0.272986400     0.7306637    0.1335589  
   0.274986300     0.7514224    0.0026467  
   0.276986200     0.7490674   -0.1273626  
   0.278986100     0.7242084   -0.2532594  
   0.280986000     0.6791822   -0.3704753  
   0.282985900     0.6166025   -0.4766240  
   0.284985800     0.5394571   -0.5691376  
   0.286985700     0.4504229   -0.6462919  
   0.288985600     0.3531972   -0.7070213  
   0.290985500     0.2506486   -0.7512645  
   0.292985400     0.1448685   -0.7794762  
   0.294985300     0.0378300   -0.7918597  
   0.296985200    -0.0685468   -0.7889123  
   0.298985100    -0.1730158   -0.7709494  
   0.300985000    -0.2732350   -0.7390329  
   0.302984900    -0.3668749   -0.6938313  
   0.304984800    -0.4530143   -0.6367745  
   0.306984700    -0.5301197   -0.5685657  
   0.308984600    -0.5970016   -0.4908978  
   0.310984500    -0.6526210   -0.4053243  
   0.312984400    -0.6966715   -0.3120110  
   0.314984300    -0.7273464   -0.2125963  
   0.316984200    -0.7437840   -0.1083552  
   0.318984100    -0.7448236    0.0001403  
   0.320984000    -0.7290265    0.1093078  
   0.322983900    -0.6949946    0.2172578  
   0.324983800    -0.6431031    0.3189341  
   0.326983700    -0.5737265    0.4102297  
   0.328983600    -0.4904009    0.4876541  
   0.330983500    -0.3966433    0.5488039  
   0.332983400    -0.2974829    0.5930058  
   0.334983300    -0.1949846    0.6221784  
   0.336983200    -0.0907276    0.6370078  
   0.338983100     0.0148931    0.6379120  
   0.340983000     0.1207987    0.6240206  
   0.342982900     0.2254437    0.5942835  
   0.344982800     0.3266571    0.5476140  
   0.346982700     0.4215269    0.4840091  
   0.348982600     0.5048290    0.4030725  
   0.350982500     0.5752679    0.3087495  
   0.352982400     0.6288119    0.2021465  
   0.354982300     0.6635624    0.0821692  
   0.356982200     0.6752349   -0.0546520  
   0.358982100     0.6593501   -0.1910610  
   0.360982000     0.6165563   -0.3212470  
   0.362981900     0.5494187   -0.4401605  
   0.364981800     0.4601260   -0.5434082  
   0.366981700     0.3526733   -0.6268784  
   0.368981600     0.2320977   -0.6874543  
   0.370981500     0.1026863   -0.7237425  
   0.372981400    -0.0301764   -0.7345021  
   0.374981300    -0.1618951   -0.7201666  
   0.376981200    -0.0502420   -0.7359163  
   0.378981100    -0.1799771   -0.7173973  
   0.380981000    -0.3033658   -0.6761916  
   0.382980900    -0.4064012   -0.6202179  
   0.384980800    -0.4942280   -0.5520638  
   0.386980700    -0.5699043   -0.4716642  
   0.388980600    -0.6326320   -0.3805624  
   0.390980500    -0.6804044   -0.2821575  
   0.392980400    -0.7122991   -0.1780580  
   0.394980300    -0.7282622   -0.0705500  
   0.396980200    -0.7281162    0.0380565  
   0.398980100    -0.7117172    0.1461927  
   0.400980000    -0.6789454    0.2511270  
   0.402979900    -0.6304976    0.3506526  
   0.404979800    -0.5670468    0.4423105  
   0.406979700    -0.4893349    0.5239742  
   0.408979600    -0.3991350    0.5931408  
   0.410979500    -0.2977591    0.6487604  
   0.412979400    -0.1869532    0.6880353  
   0.414979300    -0.0696255    0.7077613  
   0.416979200     0.0503218    0.7097322  
   0.418979100     0.1703078    0.6914976  
   0.420979000     0.2866645    0.6532980  
   0.422978900     0.3962089    0.5955299  
   0.424978800     0.4950218    0.5192685  
   0.426978700     0.5797526    0.4265709  
   0.428978600     0.6473937    0.3204460  
   0.430978500     0.6959329    0.2043307  
   0.432978400     0.7234772    0.0819950  
   0.434978300     0.7306997   -0.0430010  
   0.436978200     0.7154750   -0.1662022  
   0.438978100     0.6796693   -0.2847807  
   0.440978000     0.6247847   -0.3945130  
   0.442977900     0.5526818   -0.4925289  
   0.444977800     0.4661584   -0.5762125  
   0.446977700     0.3682521   -0.6439511  
   0.448977600     0.2616976   -0.6941826  
   0.450977500     0.1498673   -0.7256104  
   0.452977400     0.0349251   -0.7389213  
   0.454977300    -0.0797985   -0.7335300  
   0.456977200    -0.1914424   -0.7103308  
   0.458977100    -0.2976153   -0.6700068  
   0.460977000    -0.3949042   -0.6141237  
   0.462976900    -0.4816627   -0.5444410  
   0.464976800    -0.5562502   -0.4622863  
   0.466976700    -0.6167076   -0.3702056  
   0.468976600    -0.6624957   -0.2701368  
   0.470976500    -0.6921346   -0.1642465  
   0.472976400    -0.7050880   -0.0547548  
   0.474976300    -0.7006738    0.0553661  
   0.476976200    -0.6789590    0.1639525  
   0.478976100    -0.6407520    0.2679799  
   0.480976000    -0.5862750    0.3650559  
   0.482975900    -0.5167154    0.4526119  
   0.484975800    -0.4333069    0.5284403  
   0.486975700    -0.3378327    0.5904345  
   0.488975600    -0.2323364    0.6363592  
   0.490975500    -0.1197384    0.6643528  
   0.492975400    -0.0029294    0.6727328  
   0.494975300     0.1142210    0.6610929  
   0.496975200     0.2283823    0.6288565  
   0.498975100     0.3348069    0.5773258  
   0.500975000     0.4305959    0.5079381  
   0.502974900     0.5121037    0.4234014  
   0.504974800     0.5769244    0.3262475  
   0.506974700     0.6233835    0.2200032  
   0.508974600     0.6504630    0.1085391  
   0.510974500     0.6576618   -0.0038248  
   0.512974400     0.6461433   -0.1137309  
   0.514974300     0.6166462   -0.2164262  
   0.516974200     0.5733168   -0.3117123  
   0.518974100     0.5179384   -0.3966658  
   0.520974000     0.4522290   -0.4715647  
   0.522973900     0.3782918   -0.5350241  
   0.524973800     0.2972688   -0.5867372  
   0.526973700     0.2105538   -0.6279768  
   0.528973600     0.1192475   -0.6565239  
   0.530973500     0.0237348   -0.6731308  
   0.532973400    -0.0741449   -0.6760864  
   0.534973300    -0.1726981   -0.6641514  
   0.536973200    -0.2702969   -0.6383936  
   0.538973100    -0.3636881   -0.5970287  
   0.540973000    -0.4505984   -0.5412167  
   0.542972900    -0.5289434   -0.4713336  
   0.544972800    -0.5961105   -0.3890064  
   0.546972700    -0.6496147   -0.2957883  
   0.548972600    -0.6879119   -0.1940247  
   0.550972500    -0.7093239   -0.0865397  
   0.552972400    -0.7130931    0.0237258  
   0.554972300    -0.6987947    0.1341502  
   0.556972200    -0.6666002    0.2412003  
   0.558972100    -0.6171429    0.3421354  
   0.560972000    -0.5519260    0.4340646  
   0.562971900    -0.4724257    0.5141093  
   0.564971800    -0.3806852    0.5807030  
   0.566971700    -0.2790416    0.6316658  
   0.568971600    -0.1700095    0.6658109  
   0.570971500    -0.0564935    0.6815997  
   0.572971400     0.0590186    0.6786940  
   0.574971300     0.1735850    0.6565265  
   0.576971200     0.2839341    0.6150621  
   0.578971100     0.3863341    0.5552779  
   0.580971000     0.4778339    0.4787305  
   0.582970900     0.5550786    0.3874339  
   0.584970800     0.6157553    0.2841377  
   0.586970700     0.6576837    0.1724247  
   0.588970600     0.6801407    0.0550176  
   0.590970500     0.6821807   -0.0648186  
   0.592970400     0.6638937   -0.1829676  
   0.594970300     0.6256043   -0.2957758  
   0.596970200     0.5691602   -0.4001358  
   0.598970100     0.4961901   -0.4929319  
   0.600970000     0.4090336   -0.5717978  
   0.602969900     0.3104534   -0.6348587  
   0.604969800     0.2036519   -0.6800951  
   0.606969700     0.0913265   -0.7068187  
   0.608969600    -0.0232587   -0.7151187  
   0.610969500    -0.1367561   -0.7044118  
   0.612969400    -0.2460532   -0.6763062  
   0.614969300    -0.3484242   -0.6314701  
   0.616969200    -0.4413545   -0.5715033  
   0.618969100    -0.5227392   -0.4986820  
   0.620969000    -0.5917096   -0.4150649  
   0.622968900    -0.6468092   -0.3225282  
   0.624968800    -0.6871939   -0.2228587  
   0.626968700    -0.7122057   -0.1181161  
   0.628968600    -0.7211214   -0.0108060  
   0.630968500    -0.7138079    0.0964512  
   0.632968400    -0.6902958    0.2017460  
   0.634968300    -0.6509269    0.3025304  
   0.636968200    -0.5968841    0.3967685  
   0.638968100    -0.5288371    0.4822710  
   0.640968000    -0.4476146    0.5566274  
   0.642967900    -0.3558127    0.6182442  
   0.644967800    -0.2543790    0.6654384  
   0.646967700    -0.1462600    0.6963427  
   0.648967600    -0.0339588    0.7100320  
   0.650967500     0.0795594    0.7059376  
   0.652967400     0.1921260    0.6836634  
   0.654967300     0.3006194    0.6434239  
   0.656967200     0.4012832    0.5860380  
   0.658967100     0.4922839    0.5122200  
   0.660967000     0.5708486    0.4240538  
   0.662966900     0.6341288    0.3226590  
   0.664966800     0.6803172    0.2116073  
   0.666966700     0.7072390    0.0936281  
   0.668966600     0.7139363   -0.0276107  
   0.670966500     0.7000300   -0.1483693  
   0.672966400     0.6672832   -0.2648026  
   0.674966300     0.6147412   -0.3732215  
   0.676966200     0.5448526   -0.4705088  
   0.678966100     0.4612955   -0.5540974  
   0.680966000     0.3648955   -0.6221687  
   0.682965900     0.2602700   -0.6728463  
   0.684965800     0.1499044   -0.7056546  
   0.686965700     0.0364809   -0.7200842  
   0.688965600    -0.0766247   -0.7162657  
   0.690965500    -0.1860094   -0.6939509  
   0.692965400    -0.2897204   -0.6561860  
   0.694965300    -0.3851283   -0.6032156  
   0.696965200    -0.4706768   -0.5370945  
   0.698965100    -0.5444883   -0.4589223  
   0.700965000    -0.6054711   -0.3707996  
   0.702964900    -0.6520272   -0.2752501  
   0.704964800    -0.6836352   -0.1738762  
   0.706964700    -0.6993881   -0.0691756  
   0.708964600    -0.6992766    0.0372216  
   0.710964500    -0.6832854    0.1426601  
   0.712964400    -0.6507810    0.2444019  
   0.714964300    -0.6025611    0.3402824  
   0.716964200    -0.5402849    0.4276976  
   0.718964100    -0.4648417    0.5046179  
   0.720964000    -0.3781553    0.5688975  
   0.722963900    -0.2822210    0.6188084  
   0.724963800    -0.1786962    0.6531749  
   0.726963700    -0.0707716    0.6704639  
   0.728963600     0.0395319    0.6700630  
   0.730963500     0.1483842    0.6511659  
   0.732963400     0.2530138    0.6150482  
   0.734963300     0.3506043    0.5617993  
   0.736963200     0.4506811    0.4823817  
   0.738963100     0.5344610    0.3849699  
   0.740963000     0.5979253    0.2740631  
   0.742962900     0.6394536    0.1538306  
   0.744962800     0.6576026    0.0286262  
   0.746962700     0.6521229   -0.0963514  
   0.748962600     0.6241728   -0.2177043  
   0.750962500     0.6371322   -0.1195490  
   0.752962400     0.6062834   -0.2383951  
   0.754962300     0.5546993   -0.3487825  
   0.756962200     0.4844861   -0.4474489  
   0.758962100     0.3985872   -0.5313335  
   0.760962000     0.2991888   -0.5986089  
   0.762961900     0.1953644   -0.6454000  
   0.764961800     0.0944613   -0.6725744  
   0.766961700    -0.0089728   -0.6841958  
   0.768961600    -0.1136310   -0.6795926  
   0.770961500    -0.2164515   -0.6592085  
   0.772961400    -0.3147793   -0.6231021  
   0.774961300    -0.4068211   -0.5724066  
   0.776961200    -0.4901266   -0.5076550  
   0.778961100    -0.5626281   -0.4305531  
   0.780961000    -0.6223033   -0.3426058  
   0.782960900    -0.6676729   -0.2459103  
   0.784960800    -0.6974704   -0.1426856  
   0.786960700    -0.7104821   -0.0358712  
   0.788960600    -0.7063847    0.0721168  
   0.790960500    -0.6854177    0.1779712  
   0.792960400    -0.6479506    0.2793939  
   0.794960300    -0.5947056    0.3739949  
   0.796960200    -0.5277402    0.4588138  
   0.798960100    -0.4479927    0.5319455  
   0.800960000    -0.3576802    0.5917560  
   0.802959900    -0.2589070    0.6367399  
   0.804959800    -0.1542327    0.6660082  
   0.806959700    -0.0463736    0.6784344  
   0.808959600     0.0626882    0.6734710  
   0.810959500     0.1698521    0.6513838  
   0.812959400     0.2728586    0.6122484  
   0.814959300     0.3687785    0.5571083  
   0.816959200     0.4546821    0.4870324  
   0.818959100     0.5288695    0.4032308  
   0.820959000     0.5887979    0.3083308  
   0.822958900     0.6324778    0.2044188  
   0.824958800     0.6589666    0.0943562  
   0.826958700     0.6667594   -0.0192611  
   0.828958600     0.6557100   -0.1324907  
   0.830958500     0.6259609   -0.2427095  
   0.832958400     0.5787575   -0.3464768  
   0.834958300     0.5147043   -0.4406656  
   0.836958200     0.4361300   -0.5230017  
   0.838958100     0.3456568   -0.5910158  
   0.840958000     0.2451532   -0.6433510  
   0.842957900     0.1377348   -0.6781434  
   0.844957800     0.0266042   -0.6948649  
   0.846957700    -0.0851841   -0.6934842  
   0.848957600    -0.1945319   -0.6739744  
   0.850957500    -0.2991129   -0.6373171  
   0.852957400    -0.3955345   -0.5851035  
   0.854957300    -0.4822004   -0.5185854  
   0.856957200    -0.5568908   -0.4396707  
   0.858957100    -0.6178881   -0.3508925  
   0.860957000    -0.6639957   -0.2545846  
   0.862956900    -0.6946949   -0.1534900  
   0.864956800    -0.7096294   -0.0497441  
   0.866956700    -0.7087014    0.0540131  
   0.868956600    -0.6924081    0.1563512  
   0.870956500    -0.6611999    0.2545863  
   0.872956400    -0.6161581    0.3477172  
   0.874956300    -0.5574134    0.4329019  
   0.876956200    -0.4864326    0.5089623  
   0.878956100    -0.4040141    0.5740105  
   0.880956000    -0.3127791    0.6261524  
   0.882955900    -0.2138172    0.6645440  
   0.884955800    -0.1096927    0.6873063  
   0.886955700    -0.0022798    0.6940935  
   0.888955600     0.1056993    0.6838589  
   0.890955500     0.2115585    0.6570288  
   0.892955400     0.3127168    0.6135086  
   0.894955300     0.4060374    0.5537708  
