! MS46122B
! 2250307/22442219
! 7/22/2025 3:27:23 PM
! C:\USERS\SPARKY\DOCUMENTS\VNA_DATA\JULY22_2025\295\PORT6_MOS5_REPEAT1.S1P
! CHANNEL.1
! TR.MEASUREMENT
! RAW.DATA
# GHZ S RI R 50.0
! FREQ.GHZ         S11RE         S11IM         
!; PortSelection: Port_1
   0.001000000     1.0460790   -0.0711820  
   0.002999900     0.9643912   -0.1937402  
   0.004999800     0.9034108   -0.2985939  
   0.006999700     0.8354703   -0.3960321  
   0.008999600     0.7550069   -0.4906823  
   0.010999500     0.6597236   -0.5796865  
   0.012999400     0.5438850   -0.6598960  
   0.014999300     0.4020116   -0.7240802  
   0.016999200     0.2290908   -0.7582293  
   0.018999100     0.0240338   -0.7415300  
   0.020999000    -0.1987161   -0.6405571  
   0.022998900    -0.3926559   -0.4243028  
   0.024998800    -0.4589344   -0.1043811  
   0.026998700    -0.3719170    0.2457367  
   0.028998600    -0.1095699    0.4836877  
   0.030998500     0.2024094    0.5547573  
   0.032998400     0.4426716    0.4862352  
   0.034998300     0.6583819    0.3644298  
   0.036998200     0.7755832    0.2113026  
   0.038998100     0.8380563    0.0576180  
   0.040998000     0.8608532   -0.0856492  
   0.042997900     0.8546339   -0.2150422  
   0.044997800     0.8045609   -0.3043744  
   0.046997700     0.7859489   -0.4317220  
   0.048997600     0.7330121   -0.5201930  
   0.050997500     0.6718261   -0.5966206  
   0.052997400     0.6043898   -0.6619432  
   0.054997300     0.5312482   -0.7180418  
   0.056997200     0.4536380   -0.7647082  
   0.058997100     0.3728331   -0.8020404  
   0.060997000     0.2887197   -0.8304897  
   0.062996900     0.2018015   -0.8496207  
   0.064996800     0.1126892   -0.8594902  
   0.066996700     0.0216344   -0.8595231  
   0.068996600    -0.0704440   -0.8490232  
   0.070996500    -0.1636362   -0.8283089  
   0.072996400    -0.2557366   -0.7944081  
   0.074996300    -0.3459998   -0.7481129  
   0.076996200    -0.4332493   -0.6882536  
   0.078996100    -0.5144408   -0.6142871  
   0.080996000    -0.5881152   -0.5254853  
   0.082995900    -0.6504249   -0.4219066  
   0.084995800    -0.6974673   -0.3044049  
   0.086995700    -0.7270694   -0.1744059  
   0.088995600    -0.7341585   -0.0347033  
   0.090995500    -0.7147263    0.1110222  
   0.092995400    -0.6666800    0.2571278  
   0.094995300    -0.5858577    0.3961947  
   0.096995200    -0.4743015    0.5194075  
   0.098995100    -0.3342772    0.6184618  
   0.100995000    -0.1716405    0.6859280  
   0.102994900     0.0019325    0.7143935  
   0.104994800     0.1771691    0.7026083  
   0.106994700     0.3428980    0.6515447  
   0.108994600     0.4902583    0.5674106  
   0.110994500     0.6124980    0.4564986  
   0.112994400     0.7052609    0.3268673  
   0.114994300     0.7672422    0.1871030  
   0.116994200     0.7995987    0.0441354  
   0.118994100     0.8043337   -0.0961596  
   0.120994000     0.7864474   -0.2292452  
   0.122993900     0.7462188   -0.3519382  
   0.124993800     0.6894199   -0.4612983  
   0.126993700     0.6183192   -0.5570343  
   0.128993600     0.5358817   -0.6374330  
   0.130993500     0.4460097   -0.7034920  
   0.132993400     0.3504534   -0.7546917  
   0.134993300     0.2508625   -0.7915063  
   0.136993200     0.1489316   -0.8140362  
   0.138993100     0.0463496   -0.8226961  
   0.140993000    -0.0554666   -0.8178484  
   0.142992900    -0.1553892   -0.7996812  
   0.144992800    -0.2526423   -0.7703079  
   0.146992700    -0.3451211   -0.7267775  
   0.148992600    -0.4316101   -0.6714594  
   0.150992500    -0.5100411   -0.6031567  
   0.152992400    -0.5808780   -0.5250315  
   0.154992300    -0.6413647   -0.4364169  
   0.156992200    -0.6899419   -0.3377837  
   0.158992100    -0.7248328   -0.2313812  
   0.160992000    -0.7443722   -0.1177745  
   0.162991900    -0.7466679    0.0004405  
   0.164991800    -0.7302673    0.1211090  
   0.166991700    -0.6940573    0.2406177  
   0.168991600    -0.6373533    0.3560980  
   0.170991500    -0.5598248    0.4633983  
   0.172991400    -0.4625962    0.5579728  
   0.174991300    -0.3474735    0.6354889  
   0.176991200    -0.2173513    0.6925026  
   0.178991100    -0.0767536    0.7249232  
   0.180991000     0.0692118    0.7313952  
   0.182990900     0.2149532    0.7088774  
   0.184990800     0.3545023    0.6587237  
   0.186990700     0.4815416    0.5829856  
   0.188990600     0.5760420    0.5016164  
   0.190990500     0.6767819    0.3724436  
   0.192990400     0.7422263    0.2417879  
   0.194990300     0.7808757    0.1068733  
   0.196990200     0.7946010   -0.0295274  
   0.198990100     0.7842593   -0.1628055  
   0.200990000     0.7519858   -0.2896700  
   0.202989900     0.6998786   -0.4065510  
   0.204989800     0.6309367   -0.5104712  
   0.206989700     0.5495641   -0.6006233  
   0.208989600     0.4568043   -0.6740698  
   0.210989500     0.3555811   -0.7313992  
   0.212989400     0.2484939   -0.7725127  
   0.214989300     0.1388102   -0.7965006  
   0.216989200     0.0282963   -0.8043095  
   0.218989100    -0.0805569   -0.7965239  
   0.220989000    -0.1864813   -0.7730175  
   0.222988900    -0.2877719   -0.7347431  
   0.224988800    -0.3829248   -0.6825147  
   0.226988700    -0.4694307   -0.6177220  
   0.228988600    -0.5456907   -0.5410882  
   0.230988500    -0.6106628   -0.4534129  
   0.232988400    -0.6619039   -0.3554753  
   0.234988300    -0.6999394   -0.2499504  
   0.236988200    -0.7219798   -0.1383181  
   0.238988100    -0.7265995   -0.0228014  
   0.240988000    -0.7128832    0.0940756  
   0.242987900    -0.6804357    0.2090151  
   0.244987800    -0.6288425    0.3197265  
   0.246987700    -0.5577512    0.4227160  
   0.248987600    -0.4681124    0.5142162  
   0.250987500    -0.3617684    0.5902209  
   0.252987400    -0.2417827    0.6474314  
   0.254987300    -0.1119282    0.6823731  
   0.256987200     0.0240262    0.6931867  
   0.258987100     0.1612760    0.6798130  
   0.260987000     0.2943298    0.6397318  
   0.262986900     0.4184375    0.5748424  
   0.264986800     0.5281991    0.4878490  
   0.266986700     0.6192620    0.3821300  
   0.268986600     0.6883763    0.2627363  
   0.270986500     0.7335692    0.1346861  
   0.272986400     0.7547221    0.0024812  
   0.274986300     0.7523254   -0.1287207  
   0.276986200     0.7271469   -0.2555405  
   0.278986100     0.6816264   -0.3735002  
   0.280986000     0.6182483   -0.4804239  
   0.282985900     0.5400881   -0.5734720  
   0.284985800     0.4500650   -0.6512302  
   0.286985700     0.3507156   -0.7123452  
   0.288985600     0.2465662   -0.7563585  
   0.290985500     0.1392169   -0.7841351  
   0.292985400     0.0313089   -0.7957105  
   0.294985300    -0.0757355   -0.7915939  
   0.296985200    -0.1805919   -0.7726255  
   0.298985100    -0.2810160   -0.7392488  
   0.300985000    -0.3758304   -0.6925424  
   0.302984900    -0.4625178   -0.6334963  
   0.304984800    -0.5398951   -0.5630603  
   0.306984700    -0.6069031   -0.4825147  
   0.308984600    -0.6618129   -0.3939848  
   0.310984500    -0.7045192   -0.2983250  
   0.312984400    -0.7333924   -0.1963545  
   0.314984300    -0.7472736   -0.0898797  
   0.316984200    -0.7451155    0.0196661  
   0.318984100    -0.7259296    0.1302197  
   0.320984000    -0.6878891    0.2386636  
   0.322983900    -0.6308711    0.3407418  
   0.324983800    -0.5562251    0.4311939  
   0.326983700    -0.4667469    0.5067578  
   0.328983600    -0.3668804    0.5639495  
   0.330983500    -0.2620241    0.6019823  
   0.332983400    -0.1570763    0.6229007  
   0.334983300    -0.0526039    0.6292975  
   0.336983200     0.0505757    0.6228332  
   0.338983100     0.1528367    0.6028033  
   0.340983000     0.2529037    0.5686691  
   0.342982900     0.3495053    0.5186549  
   0.344982800     0.4393260    0.4527420  
   0.346982700     0.5194718    0.3705207  
   0.348982600     0.5846152    0.2734019  
   0.350982500     0.6335040    0.1650419  
   0.352982400     0.6627190    0.0484804  
   0.354982300     0.6701853   -0.0771251  
   0.356982200     0.6507084   -0.2138879  
   0.358982100     0.6039036   -0.3438322  
   0.360982000     0.5326167   -0.4613829  
   0.362981900     0.4392676   -0.5621169  
   0.364981800     0.3284113   -0.6423837  
   0.366981700     0.2044409   -0.6990009  
   0.368981600     0.0730513   -0.7305341  
   0.370981500    -0.0611552   -0.7362643  
   0.372981400    -0.1930610   -0.7165553  
   0.374981300    -0.3180056   -0.6726267  
   0.376981200    -0.2108482   -0.7137500  
   0.378981100    -0.3336248   -0.6670513  
   0.380981000    -0.4454588   -0.5985606  
   0.382980900    -0.5341850   -0.5202684  
   0.384980800    -0.6051133   -0.4336616  
   0.386980700    -0.6619946   -0.3372048  
   0.388980600    -0.7036906   -0.2330102  
   0.390980500    -0.7282746   -0.1245568  
   0.392980400    -0.7363093   -0.0138364  
   0.394980300    -0.7273200    0.0970931  
   0.396980200    -0.7017342    0.2055696  
   0.398980100    -0.6595666    0.3098656  
   0.400980000    -0.6014144    0.4070574  
   0.402979900    -0.5283104    0.4951605  
   0.404979800    -0.4415834    0.5714124  
   0.406979700    -0.3426444    0.6336550  
   0.408979600    -0.2343165    0.6802949  
   0.410979500    -0.1177269    0.7091606  
   0.412979400     0.0038421    0.7185491  
   0.414979300     0.1267298    0.7068537  
   0.416979200     0.2473588    0.6753129  
   0.418979100     0.3614043    0.6235328  
   0.420979000     0.4662259    0.5523869  
   0.422978900     0.5577470    0.4636616  
   0.424978800     0.6328862    0.3595372  
   0.426978700     0.6890041    0.2436473  
   0.428978600     0.7238863    0.1197611  
   0.430978500     0.7364566   -0.0077035  
   0.432978400     0.7267621   -0.1344882  
   0.434978300     0.6967438   -0.2574616  
   0.436978200     0.6454187   -0.3718437  
   0.438978100     0.5758953   -0.4748940  
   0.440978000     0.4905895   -0.5639652  
   0.442977900     0.3926995   -0.6370391  
   0.444977800     0.2855992   -0.6919181  
   0.446977700     0.1722511   -0.7279328  
   0.448977600     0.0556426   -0.7446588  
   0.450977500    -0.0604282   -0.7427115  
   0.452977400    -0.1740730   -0.7223395  
   0.454977300    -0.2828403   -0.6844982  
   0.456977200    -0.3838493   -0.6300250  
   0.458977100    -0.4743788   -0.5606424  
   0.460977000    -0.5525266   -0.4786149  
   0.462976900    -0.6164909   -0.3862045  
   0.464976800    -0.6651325   -0.2845956  
   0.466976700    -0.6974946   -0.1774591  
   0.468976600    -0.7127502   -0.0662467  
   0.470976500    -0.7103667    0.0465937  
   0.472976400    -0.6899455    0.1577297  
   0.474976300    -0.6521497    0.2649237  
   0.476976200    -0.5975558    0.3654235  
   0.478976100    -0.5270089    0.4561685  
   0.480976000    -0.4420104    0.5344501  
   0.482975900    -0.3452928    0.5986793  
   0.484975800    -0.2382383    0.6462920  
   0.486975700    -0.1233569    0.6756400  
   0.488975600    -0.0041664    0.6852741  
   0.490975500     0.1155734    0.6743000  
   0.492975400     0.2326556    0.6423005  
   0.494975300     0.3425803    0.5905916  
   0.496975200     0.4419011    0.5194089  
   0.498975100     0.5267526    0.4325828  
   0.500975000     0.5944160    0.3324589  
   0.502974900     0.6429431    0.2232643  
   0.504974800     0.6710523    0.1080781  
   0.506974700     0.6787882   -0.0085290  
   0.508974600     0.6663362   -0.1237314  
   0.510974500     0.6353884   -0.2325230  
   0.512974400     0.5879373   -0.3329445  
   0.514974300     0.5258918   -0.4205977  
   0.516974200     0.4541719   -0.4973516  
   0.518974100     0.3736816   -0.5608646  
   0.520974000     0.2869246   -0.6111106  
   0.522973900     0.1951040   -0.6486689  
   0.524973800     0.0999940   -0.6730958  
   0.526973700     0.0024634   -0.6848070  
   0.528973600    -0.0962087   -0.6828606  
   0.530973500    -0.1950212   -0.6673963  
   0.532973400    -0.2919526   -0.6371357  
   0.534973300    -0.3847006   -0.5924497  
   0.536973200    -0.4712557   -0.5333498  
   0.538973100    -0.5485540   -0.4602671  
   0.540973000    -0.6140862   -0.3750319  
   0.542972900    -0.6655554   -0.2791793  
   0.544972800    -0.7013873   -0.1751566  
   0.546972700    -0.7201092   -0.0651931  
   0.548972600    -0.7207330    0.0470218  
   0.550972500    -0.7025715    0.1590734  
   0.552972400    -0.6662145    0.2671842  
   0.554972300    -0.6122459    0.3685679  
   0.556972200    -0.5422103    0.4602683  
   0.558972100    -0.4573554    0.5394421  
   0.560972000    -0.3605066    0.6039877  
   0.562971900    -0.2540446    0.6518930  
   0.564971800    -0.1407222    0.6820552  
   0.566971700    -0.0237247    0.6927751  
   0.568971600     0.0938578    0.6843249  
   0.570971500     0.2091349    0.6564368  
   0.572971400     0.3189099    0.6094317  
   0.574971300     0.4199825    0.5438429  
   0.576971200     0.5093378    0.4617279  
   0.578971100     0.5835652    0.3648237  
   0.580971000     0.6406509    0.2562846  
   0.582970900     0.6777236    0.1396713  
   0.584970800     0.6945767    0.0187238  
   0.586970700     0.6903343   -0.1032758  
   0.588970600     0.6657084   -0.2224153  
   0.590970500     0.6208420   -0.3349377  
   0.592970400     0.5580692   -0.4378983  
   0.594970300     0.4789468   -0.5285785  
   0.596970200     0.3868721   -0.6036421  
   0.598970100     0.2836439   -0.6625679  
   0.600970000     0.1731277   -0.7026408  
   0.602969900     0.0584315   -0.7245657  
   0.604969800    -0.0576352   -0.7272037  
   0.606969700    -0.1720418   -0.7114236  
   0.608969600    -0.2815833   -0.6774402  
   0.610969500    -0.3836472   -0.6270675  
   0.612969400    -0.4757710   -0.5615436  
   0.614969300    -0.5555605   -0.4833808  
   0.616969200    -0.6220766   -0.3943375  
   0.618969100    -0.6735170   -0.2972885  
   0.620969000    -0.7097131   -0.1941283  
   0.622968900    -0.7297215   -0.0869756  
   0.624968800    -0.7337106    0.0220188  
   0.626968700    -0.7214407    0.1307348  
   0.628968600    -0.6926067    0.2366660  
   0.630968500    -0.6483799    0.3372558  
   0.632968400    -0.5887884    0.4309260  
   0.634968300    -0.5153137    0.5147803  
   0.636968200    -0.4291481    0.5872973  
   0.638968100    -0.3324948    0.6456019  
   0.640968000    -0.2265568    0.6888523  
   0.642967900    -0.1145068    0.7152225  
   0.644967800     0.0014928    0.7235009  
   0.646967700     0.1180455    0.7134730  
   0.648967600     0.2323202    0.6845900  
   0.650967500     0.3409365    0.6371849  
   0.652967400     0.4410542    0.5727409  
   0.654967300     0.5301594    0.4919996  
   0.656967200     0.6046956    0.3976636  
   0.658967100     0.6630185    0.2914093  
   0.660967000     0.7030695    0.1762489  
   0.662966900     0.7233674    0.0555378  
   0.664966800     0.7233322   -0.0679875  
   0.666966700     0.7020972   -0.1898504  
   0.668966600     0.6606478   -0.3055912  
   0.670966500     0.6006682   -0.4130001  
   0.672966400     0.5246904   -0.5089548  
   0.674966300     0.4340388   -0.5889865  
   0.676966200     0.3320747   -0.6521150  
   0.678966100     0.2223005   -0.6971558  
   0.680966000     0.1080461   -0.7233407  
   0.682965900    -0.0075340   -0.7307783  
   0.684965800    -0.1218341   -0.7195482  
   0.686965700    -0.2314579   -0.6907347  
   0.688965600    -0.3345869   -0.6456441  
   0.690965500    -0.4277546   -0.5847776  
   0.692965400    -0.5103117   -0.5118037  
   0.694965300    -0.5799647   -0.4277027  
   0.696965200    -0.6357039   -0.3348684  
   0.698965100    -0.6767228   -0.2347662  
   0.700965000    -0.7018885   -0.1298160  
   0.702964900    -0.7110109   -0.0225322  
   0.704964800    -0.7037562    0.0853074  
   0.706964700    -0.6799102    0.1906681  
   0.708964600    -0.6399552    0.2917168  
   0.710964500    -0.5850388    0.3862576  
   0.712964400    -0.5150975    0.4713396  
   0.714964300    -0.4323091    0.5446715  
   0.716964200    -0.3385313    0.6041364  
   0.718964100    -0.2361577    0.6481931  
   0.720964000    -0.1276967    0.6753300  
   0.722963900    -0.0157893    0.6843187  
   0.724963800     0.0967176    0.6750785  
   0.726963700     0.2063609    0.6475525  
   0.728963600     0.3105568    0.6018923  
   0.730963500     0.4053131    0.5385090  
   0.732963400     0.4883709    0.4612682  
   0.734963300     0.5580222    0.3710599  
   0.736963200     0.6180772    0.2557284  
   0.738963100     0.6558055    0.1312039  
   0.740963000     0.6690691    0.0027118  
   0.742962900     0.6583202   -0.1246079  
   0.744962800     0.6241547   -0.2468155  
   0.746962700     0.5686712   -0.3593992  
   0.748962600     0.4944663   -0.4590769  
   0.750962500     0.5464482   -0.3784274  
   0.752962400     0.4705544   -0.4751937  
   0.754962300     0.3793041   -0.5561974  
   0.756962200     0.2755475   -0.6193442  
   0.758962100     0.1630542   -0.6631711  
   0.760962000     0.0445047   -0.6860510  
   0.762961900    -0.0702813   -0.6884926  
   0.764961800    -0.1746840   -0.6742056  
   0.766961700    -0.2758304   -0.6442636  
   0.768961600    -0.3715377   -0.5988506  
   0.770961500    -0.4595911   -0.5393487  
   0.772961400    -0.5371391   -0.4666266  
   0.774961300    -0.6027436   -0.3827182  
   0.776961200    -0.6547641   -0.2891741  
   0.778961100    -0.6914203   -0.1883631  
   0.780961000    -0.7121410   -0.0825694  
   0.782960900    -0.7155995    0.0256609  
   0.784960800    -0.7019795    0.1339345  
   0.786960700    -0.6711671    0.2386132  
   0.788960600    -0.6240686    0.3376242  
   0.790960500    -0.5615147    0.4282400  
   0.792960400    -0.4855914    0.5077467  
   0.794960300    -0.3978422    0.5742611  
   0.796960200    -0.3005166    0.6260380  
   0.798960100    -0.1962543    0.6619136  
   0.800960000    -0.0875829    0.6809824  
   0.802959900     0.0232726    0.6825240  
   0.804959800     0.1329297    0.6662916  
   0.806959700     0.2390198    0.6328267  
   0.808959600     0.3384639    0.5826611  
   0.810959500     0.4291990    0.5169885  
   0.812959400     0.5085415    0.4372660  
   0.814959300     0.5739690    0.3451962  
   0.816959200     0.6240109    0.2434399  
   0.818959100     0.6567703    0.1344463  
   0.820959000     0.6712040    0.0210290  
   0.822958900     0.6669592   -0.0935822  
   0.824958800     0.6436929   -0.2060288  
   0.826958700     0.6023381   -0.3131724  
   0.828958600     0.5434277   -0.4122221  
   0.830958500     0.4691746   -0.4999577  
   0.832958400     0.3815565   -0.5741723  
   0.834958300     0.2833556   -0.6324334  
   0.836958200     0.1774951   -0.6738344  
   0.838958100     0.0665763   -0.6971309  
   0.840958000    -0.0458834   -0.7021424  
   0.842957900    -0.1574551   -0.6890886  
   0.844957800    -0.2647772   -0.6584433  
   0.846957700    -0.3652349   -0.6111924  
   0.848957600    -0.4564515   -0.5491658  
   0.850957500    -0.5363250   -0.4738684  
   0.852957400    -0.6030073   -0.3874576  
   0.854957300    -0.6553181   -0.2923318  
   0.856957200    -0.6920009   -0.1904846  
   0.858957100    -0.7125648   -0.0850250  
   0.860957000    -0.7167009    0.0215080  
   0.862956900    -0.7047331    0.1264855  
   0.864956800    -0.6775506    0.2281424  
   0.866956700    -0.6357457    0.3240925  
   0.868956600    -0.5798618    0.4120583  
   0.870956500    -0.5118064    0.4913798  
   0.872956400    -0.4323967    0.5598773  
   0.874956300    -0.3432168    0.6160071  
   0.876956200    -0.2454451    0.6584656  
   0.878956100    -0.1418836    0.6860735  
   0.880956000    -0.0343326    0.6974452  
   0.882955900     0.0745753    0.6918332  
   0.884955800     0.1822479    0.6695388  
   0.886955700     0.2858025    0.6300330  
   0.888955600     0.3828187    0.5740871  
   0.890955500     0.4700590    0.5024127  
   0.892955400     0.5450205    0.4172802  
   0.894955300     0.6058016    0.3202020  
