! MS46122B
! 2250307/22442219
! 7/24/2025 12:38:52 PM
! C:\USERS\SPARKY\DOCUMENTS\VNA_DATA\JULY24_2025\295K\PORT4_MOS1.S1P
! CHANNEL.1
! TR.MEASUREMENT
! RAW.DATA
# GHZ S RI R 50.0
! FREQ.GHZ         S11RE         S11IM         
!; PortSelection: Port_1
   0.001000000     1.0455050   -0.0721651  
   0.002999900     0.9635448   -0.1944110  
   0.004999800     0.9026312   -0.2989320  
   0.006999700     0.8347816   -0.3960788  
   0.008999600     0.7549729   -0.4901984  
   0.010999500     0.6606097   -0.5787534  
   0.012999400     0.5463406   -0.6586027  
   0.014999300     0.4069979   -0.7230028  
   0.016999200     0.2377805   -0.7587163  
   0.018999100     0.0373683   -0.7466764  
   0.020999000    -0.1819178   -0.6556495  
   0.022998900    -0.3792410   -0.4553417  
   0.024998800    -0.4621861   -0.1497142  
   0.026998700    -0.4060916    0.1986200  
   0.028998600    -0.1680976    0.4575649  
   0.030998500     0.1384323    0.5582927  
   0.032998400     0.3899618    0.5112326  
   0.034998300     0.6196350    0.4042337  
   0.036998200     0.7517904    0.2558432  
   0.038998100     0.8263827    0.1028458  
   0.040998000     0.8584645   -0.0422766  
   0.042997900     0.8598446   -0.1745909  
   0.044997800     0.8143692   -0.2684811  
   0.046997700     0.8013584   -0.3976936  
   0.048997600     0.7524799   -0.4898615  
   0.050997500     0.6946489   -0.5695964  
   0.052997400     0.6299089   -0.6383017  
   0.054997300     0.5598547   -0.6966817  
   0.056997200     0.4843694   -0.7469970  
   0.058997100     0.4059972   -0.7874382  
   0.060997000     0.3240388   -0.8192884  
   0.062996900     0.2395889   -0.8424453  
   0.064996800     0.1525666   -0.8560547  
   0.066996700     0.0632835   -0.8607972  
   0.068996600    -0.0270588   -0.8553157  
   0.070996500    -0.1181903   -0.8403819  
   0.072996400    -0.2097944   -0.8129759  
   0.074996300    -0.2998793   -0.7739131  
   0.076996200    -0.3874069   -0.7220820  
   0.078996100    -0.4707513   -0.6572208  
   0.080996000    -0.5476293   -0.5781865  
   0.082995900    -0.6157903   -0.4849832  
   0.084995800    -0.6710796   -0.3779980  
   0.086995700    -0.7119511   -0.2581958  
   0.088995600    -0.7336384   -0.1270172  
   0.090995500    -0.7325038    0.0124926  
   0.092995400    -0.7057791    0.1562995  
   0.094995300    -0.6489756    0.2983800  
   0.096995200    -0.5620365    0.4313540  
   0.098995100    -0.4452773    0.5472143  
   0.100995000    -0.3017260    0.6389016  
   0.102994900    -0.1404136    0.6969205  
   0.104994800     0.0308891    0.7177510  
   0.106994700     0.2017951    0.6992897  
   0.108994600     0.3627047    0.6452373  
   0.110994500     0.5050225    0.5590584  
   0.112994400     0.6225923    0.4480377  
   0.114994300     0.7115325    0.3195528  
   0.116994200     0.7707720    0.1816066  
   0.118994100     0.8013545    0.0407699  
   0.120994000     0.8070652   -0.0974010  
   0.122993900     0.7874996   -0.2285761  
   0.124993800     0.7479830   -0.3494508  
   0.126993700     0.6919857   -0.4580048  
   0.128993600     0.6215813   -0.5523365  
   0.130993500     0.5413610   -0.6328095  
   0.132993400     0.4530804   -0.6989410  
   0.134993300     0.3589963   -0.7506002  
   0.136993200     0.2609450   -0.7881926  
   0.138993100     0.1606564   -0.8116175  
   0.140993000     0.0595520   -0.8216720  
   0.142992900    -0.0413471   -0.8185740  
   0.144992800    -0.1403785   -0.8041433  
   0.146992700    -0.2365923   -0.7756669  
   0.148992600    -0.3286276   -0.7348717  
   0.150992500    -0.4139237   -0.6814066  
   0.152992400    -0.4936556   -0.6175082  
   0.154992300    -0.5649850   -0.5431787  
   0.156992200    -0.6270282   -0.4583051  
   0.158992100    -0.6777907   -0.3639485  
   0.160992000    -0.7156672   -0.2613458  
   0.162991900    -0.7394458   -0.1516987  
   0.164991800    -0.7469696   -0.0367967  
   0.166991700    -0.7369264    0.0804149  
   0.168991600    -0.7084783    0.1981678  
   0.170991500    -0.6601360    0.3135437  
   0.172991400    -0.5922859    0.4217958  
   0.174991300    -0.5050720    0.5195593  
   0.176991200    -0.3994229    0.6032869  
   0.178991100    -0.2785634    0.6687213  
   0.180991000    -0.1456328    0.7126904  
   0.182990900    -0.0049664    0.7315142  
   0.184990800     0.1387073    0.7234725  
   0.186990700     0.2790156    0.6891056  
   0.188990600     0.3916464    0.6395277  
   0.190990500     0.5249753    0.5472063  
   0.192990400     0.6262517    0.4420664  
   0.194990300     0.7038851    0.3237064  
   0.196990200     0.7576800    0.1961976  
   0.198990100     0.7874881    0.0636816  
   0.200990000     0.7932009   -0.0694266  
   0.202989900     0.7767430   -0.1992324  
   0.204989800     0.7395744   -0.3213082  
   0.206989700     0.6854367   -0.4327245  
   0.208989600     0.6151578   -0.5309393  
   0.210989500     0.5318633   -0.6155424  
   0.212989400     0.4387889   -0.6852164  
   0.214989300     0.3381758   -0.7386134  
   0.216989200     0.2334671   -0.7759163  
   0.218989100     0.1261832   -0.7974320  
   0.220989000     0.0182314   -0.8036027  
   0.222988900    -0.0885284   -0.7942679  
   0.224988800    -0.1926377   -0.7700799  
   0.226988700    -0.2912811   -0.7320608  
   0.228988600    -0.3833032   -0.6809344  
   0.230988500    -0.4674153   -0.6177591  
   0.232988400    -0.5415118   -0.5419109  
   0.234988300    -0.6055148   -0.4562413  
   0.236988200    -0.6572286   -0.3615017  
   0.238988100    -0.6953141   -0.2589828  
   0.240988000    -0.7180679   -0.1510991  
   0.242987900    -0.7243809   -0.0395780  
   0.244987800    -0.7136490    0.0739071  
   0.246987700    -0.6847944    0.1865444  
   0.248987600    -0.6374916    0.2960215  
   0.250987500    -0.5715345    0.3985816  
   0.252987400    -0.4879254    0.4901108  
   0.254987300    -0.3887843    0.5672849  
   0.256987200    -0.2759774    0.6276648  
   0.258987100    -0.1523153    0.6692403  
   0.260987000    -0.0209203    0.6868781  
   0.262986900     0.1135218    0.6803358  
   0.264986800     0.2453061    0.6493714  
   0.266986700     0.3702301    0.5941085  
   0.268986600     0.4824385    0.5169711  
   0.270986500     0.5777456    0.4211340  
   0.272986400     0.6536624    0.3100254  
   0.274986300     0.7073870    0.1886218  
   0.276986200     0.7381982    0.0609797  
   0.278986100     0.7459573   -0.0684093  
   0.280986000     0.7312607   -0.1951602  
   0.282985900     0.6957124   -0.3150831  
   0.284985800     0.6418903   -0.4248830  
   0.286985700     0.5723892   -0.5224954  
   0.288985600     0.4905124   -0.6053066  
   0.290985500     0.3990920   -0.6726592  
   0.292985400     0.3012005   -0.7241319  
   0.294985300     0.1984615   -0.7601753  
   0.296985200     0.0933210   -0.7805768  
   0.298985100    -0.0125835   -0.7854838  
   0.300985000    -0.1171514   -0.7754811  
   0.302984900    -0.2174943   -0.7515090  
   0.304984800    -0.3129629   -0.7144361  
   0.306984700    -0.4013653   -0.6654187  
   0.308984600    -0.4813189   -0.6055545  
   0.310984500    -0.5523839   -0.5358979  
   0.312984400    -0.6136054   -0.4576859  
   0.314984300    -0.6642613   -0.3715369  
   0.316984200    -0.7032932   -0.2786025  
   0.318984100    -0.7294288   -0.1791278  
   0.320984000    -0.7413866   -0.0747487  
   0.322983900    -0.7382095    0.0323334  
   0.324983800    -0.7180028    0.1392813  
   0.326983700    -0.6807352    0.2424705  
   0.328983600    -0.6261381    0.3392438  
   0.330983500    -0.5569831    0.4251031  
   0.332983400    -0.4761072    0.4977540  
   0.334983300    -0.3862973    0.5566151  
   0.336983200    -0.2893117    0.6015083  
   0.338983100    -0.1875507    0.6324089  
   0.340983000    -0.0816709    0.6486827  
   0.342982900     0.0265543    0.6498067  
   0.344982800     0.1357092    0.6342407  
   0.346982700     0.2434056    0.6011218  
   0.348982600     0.3455891    0.5495502  
   0.350982500     0.4394735    0.4817158  
   0.352982400     0.5217966    0.3978779  
   0.354982300     0.5913152    0.2965390  
   0.356982200     0.6449779    0.1724825  
   0.358982100     0.6733321    0.0400876  
   0.360982000     0.6752284   -0.0955066  
   0.362981900     0.6505598   -0.2285973  
   0.364981800     0.6003048   -0.3543682  
   0.366981700     0.5270707   -0.4675474  
   0.368981600     0.4331680   -0.5640734  
   0.370981500     0.3233623   -0.6404580  
   0.372981400     0.2014885   -0.6940198  
   0.374981300     0.0726192   -0.7235334  
   0.376981200     0.1794587   -0.7036365  
   0.378981100     0.0511520   -0.7275234  
   0.380981000    -0.0779344   -0.7274076  
   0.382980900    -0.1925040   -0.7069821  
   0.384980800    -0.2966019   -0.6711939  
   0.386980700    -0.3926949   -0.6193244  
   0.388980600    -0.4797384   -0.5539920  
   0.390980500    -0.5544263   -0.4772677  
   0.392980400    -0.6165254   -0.3906842  
   0.394980300    -0.6647899   -0.2967075  
   0.396980200    -0.6983993   -0.1967149  
   0.398980100    -0.7169536   -0.0929757  
   0.400980000    -0.7201620    0.0125177  
   0.402979900    -0.7078138    0.1180796  
   0.404979800    -0.6796765    0.2208650  
   0.406979700    -0.6367494    0.3189202  
   0.408979600    -0.5790664    0.4103158  
   0.410979500    -0.5071741    0.4930491  
   0.412979400    -0.4220665    0.5649219  
   0.414979300    -0.3254851    0.6226804  
   0.416979200    -0.2201893    0.6660344  
   0.418979100    -0.1083888    0.6924835  
   0.420979000     0.0072503    0.7009631  
   0.422978900     0.1245284    0.6902024  
   0.424978800     0.2395545    0.6602740  
   0.426978700     0.3491532    0.6111354  
   0.428978600     0.4497788    0.5440003  
   0.430978500     0.5375304    0.4607539  
   0.432978400     0.6103622    0.3637816  
   0.434978300     0.6670011    0.2560841  
   0.436978200     0.7034398    0.1402528  
   0.438978100     0.7198033    0.0199843  
   0.440978000     0.7156633   -0.1007108  
   0.442977900     0.6916922   -0.2185385  
   0.444977800     0.6483736   -0.3298259  
   0.446977700     0.5876977   -0.4312440  
   0.448977600     0.5119820   -0.5207692  
   0.450977500     0.4235955   -0.5958396  
   0.452977400     0.3250005   -0.6552689  
   0.454977300     0.2182435   -0.6974773  
   0.456977200     0.1071979   -0.7220702  
   0.458977100    -0.0052190   -0.7284635  
   0.460977000    -0.1161367   -0.7171799  
   0.462976900    -0.2227626   -0.6891086  
   0.464976800    -0.3225906   -0.6452041  
   0.466976700    -0.4137835   -0.5868950  
   0.468976600    -0.4944309   -0.5159503  
   0.470976500    -0.5631816   -0.4337163  
   0.472976400    -0.6181268   -0.3422438  
   0.474976300    -0.6587893   -0.2439584  
   0.476976200    -0.6837637   -0.1407533  
   0.478976100    -0.6925819   -0.0352422  
   0.480976000    -0.6853259    0.0703284  
   0.482975900    -0.6616645    0.1735986  
   0.484975800    -0.6227005    0.2725118  
   0.486975700    -0.5680930    0.3650472  
   0.488975600    -0.4990020    0.4485286  
   0.490975500    -0.4168580    0.5207012  
   0.492975400    -0.3233295    0.5790265  
   0.494975300    -0.2204643    0.6215976  
   0.496975200    -0.1109907    0.6464260  
   0.498975100     0.0013619    0.6527056  
   0.500975000     0.1136377    0.6396212  
   0.502974900     0.2219324    0.6071247  
   0.504974800     0.3229037    0.5562166  
   0.506974700     0.4131760    0.4890276  
   0.508974600     0.4900086    0.4070164  
   0.510974500     0.5504672    0.3140035  
   0.512974400     0.5935967    0.2137740  
   0.514974300     0.6175128    0.1103706  
   0.516974200     0.6250813    0.0069576  
   0.518974100     0.6166730   -0.0935909  
   0.520974000     0.5934027   -0.1892034  
   0.522973900     0.5581965   -0.2787471  
   0.524973800     0.5113813   -0.3603425  
   0.526973700     0.4545016   -0.4347351  
   0.528973600     0.3886771   -0.4998686  
   0.530973500     0.3145387   -0.5562341  
   0.532973400     0.2333678   -0.6023421  
   0.534973300     0.1456156   -0.6366915  
   0.536973200     0.0521542   -0.6589113  
   0.538973100    -0.0440059   -0.6669282  
   0.540973000    -0.1416311   -0.6601456  
   0.542972900    -0.2385494   -0.6390814  
   0.544972800    -0.3317213   -0.6023017  
   0.546972700    -0.4197311   -0.5505932  
   0.548972600    -0.4992143   -0.4850467  
   0.550972500    -0.5679892   -0.4069956  
   0.552972400    -0.6236427   -0.3182120  
   0.554972300    -0.6647812   -0.2210277  
   0.556972200    -0.6899714   -0.1179136  
   0.558972100    -0.6980913   -0.0116486  
   0.560972000    -0.6897982    0.0946228  
   0.562971900    -0.6644590    0.1984254  
   0.564971800    -0.6228281    0.2971304  
   0.566971700    -0.5658134    0.3880887  
   0.568971600    -0.4954909    0.4693038  
   0.570971500    -0.4126150    0.5386912  
   0.572971400    -0.3190008    0.5943602  
   0.574971300    -0.2167061    0.6348150  
   0.576971200    -0.1083964    0.6582395  
   0.578971100     0.0031021    0.6638562  
   0.580971000     0.1146859    0.6512466  
   0.582970900     0.2233578    0.6201015  
   0.584970800     0.3259030    0.5713729  
   0.586970700     0.4187787    0.5060911  
   0.588970600     0.5000641    0.4257725  
   0.590970500     0.5670417    0.3323758  
   0.592970400     0.6170679    0.2293241  
   0.594970300     0.6492354    0.1187546  
   0.596970200     0.6621525    0.0041445  
   0.598970100     0.6550341   -0.1108878  
   0.600970000     0.6292881   -0.2229350  
   0.602969900     0.5846319   -0.3286693  
   0.604969800     0.5229104   -0.4252283  
   0.606969700     0.4460444   -0.5094615  
   0.608969600     0.3564525   -0.5798078  
   0.610969500     0.2572815   -0.6337167  
   0.612969400     0.1510427   -0.6697316  
   0.614969300     0.0417761   -0.6878255  
   0.616969200    -0.0677348   -0.6878079  
   0.618969100    -0.1744374   -0.6706159  
   0.620969000    -0.2755971   -0.6373370  
   0.622968900    -0.3701147   -0.5886777  
   0.624968800    -0.4553813   -0.5265470  
   0.626968700    -0.5297951   -0.4522382  
   0.628968600    -0.5916865   -0.3678952  
   0.630968500    -0.6396676   -0.2753476  
   0.632968400    -0.6731297   -0.1770828  
   0.634968300    -0.6912331   -0.0747830  
   0.636968200    -0.6936645    0.0286846  
   0.638968100    -0.6807290    0.1313402  
   0.640968000    -0.6521707    0.2314374  
   0.642967900    -0.6090720    0.3261676  
   0.644967800    -0.5518554    0.4135248  
   0.646967700    -0.4816430    0.4917508  
   0.648967600    -0.4002049    0.5586856  
   0.650967500    -0.3091634    0.6127859  
   0.652967400    -0.2104375    0.6522817  
   0.654967300    -0.1060722    0.6763672  
   0.656967200     0.0017327    0.6840425  
   0.658967100     0.1103314    0.6747904  
   0.660967000     0.2168769    0.6480106  
   0.662966900     0.3195222    0.6039376  
   0.664966800     0.4146604    0.5431270  
   0.666966700     0.4996641    0.4668517  
   0.668966600     0.5713388    0.3768217  
   0.670966500     0.6274654    0.2757140  
   0.672966400     0.6671721    0.1669560  
   0.674966300     0.6870036    0.0523485  
   0.676966200     0.6877040   -0.0635264  
   0.678966100     0.6683106   -0.1775342  
   0.680966000     0.6309321   -0.2863803  
   0.682965900     0.5761118   -0.3870056  
   0.684965800     0.5063230   -0.4763684  
   0.686965700     0.4225706   -0.5529332  
   0.688965600     0.3289820   -0.6142506  
   0.690965500     0.2268649   -0.6580706  
   0.692965400     0.1205757   -0.6857334  
   0.694965300     0.0124682   -0.6957121  
   0.696965200    -0.0944637   -0.6888554  
   0.698965100    -0.1983444   -0.6655212  
   0.700965000    -0.2966088   -0.6269404  
   0.702964900    -0.3867698   -0.5741321  
   0.704964800    -0.4671903   -0.5086434  
   0.706964700    -0.5363668   -0.4320440  
   0.708964600    -0.5930777   -0.3460834  
   0.710964500    -0.6364901   -0.2533102  
   0.712964400    -0.6646087   -0.1548961  
   0.714964300    -0.6775913   -0.0538209  
   0.716964200    -0.6753073    0.0478121  
   0.718964100    -0.6575572    0.1476894  
   0.720964000    -0.6250398    0.2438612  
   0.722963900    -0.5785789    0.3337851  
   0.724963800    -0.5187043    0.4161726  
   0.726963700    -0.4462429    0.4885276  
   0.728963600    -0.3632745    0.5491423  
   0.730963500    -0.2709221    0.5959796  
   0.732963400    -0.1720592    0.6279956  
   0.734963300    -0.0686406    0.6437415  
   0.736963200     0.0526553    0.6415607  
   0.738963100     0.1721660    0.6167215  
   0.740963000     0.2851698    0.5698943  
   0.742962900     0.3880128    0.5028131  
   0.744962800     0.4759586    0.4180517  
   0.746962700     0.5468732    0.3184792  
   0.748962600     0.5976678    0.2077797  
   0.750962500     0.5455272    0.2955614  
   0.752962400     0.5922599    0.1851529  
   0.754962300     0.6178265    0.0690397  
   0.756962200     0.6220645   -0.0494320  
   0.758962100     0.6047691   -0.1656009  
   0.760962000     0.5670786   -0.2766418  
   0.762961900     0.5133545   -0.3738866  
   0.764961800     0.4506287   -0.4535182  
   0.766961700     0.3765015   -0.5225107  
   0.768961600     0.2926696   -0.5792438  
   0.770961500     0.2012960   -0.6227518  
   0.772961400     0.1043256   -0.6514157  
   0.774961300     0.0039323   -0.6649894  
   0.776961200    -0.0974960   -0.6630857  
   0.778961100    -0.1979506   -0.6455916  
   0.780961000    -0.2947324   -0.6122742  
   0.782960900    -0.3856820   -0.5642795  
   0.784960800    -0.4682408   -0.5022427  
   0.786960700    -0.5403463   -0.4277327  
   0.788960600    -0.5998589   -0.3426383  
   0.790960500    -0.6450388   -0.2491137  
   0.792960400    -0.6752452   -0.1498486  
   0.794960300    -0.6895280   -0.0470339  
   0.796960200    -0.6877294    0.0567795  
   0.798960100    -0.6695664    0.1586468  
   0.800960000    -0.6359428    0.2564240  
   0.802959900    -0.5875992    0.3478689  
   0.804959800    -0.5255920    0.4306094  
   0.806959700    -0.4517052    0.5029786  
   0.808959600    -0.3673132    0.5631157  
   0.810959500    -0.2743470    0.6090804  
   0.812959400    -0.1751254    0.6407381  
   0.814959300    -0.0717124    0.6564041  
   0.816959200     0.0331545    0.6556150  
   0.818959100     0.1371820    0.6385715  
   0.820959000     0.2376254    0.6050956  
   0.822958900     0.3323234    0.5556860  
   0.824958800     0.4185518    0.4916319  
   0.826958700     0.4933775    0.4139384  
   0.828958600     0.5552185    0.3248001  
   0.830958500     0.6018379    0.2262685  
   0.832958400     0.6317100    0.1212068  
   0.834958300     0.6441368    0.0124163  
   0.836958200     0.6383282   -0.0970118  
   0.838958100     0.6145937   -0.2039816  
   0.840958000     0.5735219   -0.3061706  
   0.842957900     0.5161167   -0.3998681  
   0.844957800     0.4440135   -0.4830949  
   0.846957700     0.3593023   -0.5529904  
   0.848957600     0.2643462   -0.6080999  
   0.850957500     0.1617793   -0.6463253  
   0.852957400     0.0553075   -0.6671905  
   0.854957300    -0.0529344   -0.6705515  
   0.856957200    -0.1591654   -0.6563635  
   0.858957100    -0.2613280   -0.6255752  
   0.860957000    -0.3563965   -0.5795701  
   0.862956900    -0.4420120   -0.5197306  
   0.864956800    -0.5165637   -0.4483294  
   0.866956700    -0.5786586   -0.3672523  
   0.868956600    -0.6271373   -0.2780851  
   0.870956500    -0.6618333   -0.1835022  
   0.872956400    -0.6817871   -0.0848248  
   0.874956300    -0.6869094    0.0150621  
   0.876956200    -0.6770280    0.1149018  
   0.878956100    -0.6519640    0.2120656  
   0.880956000    -0.6132054    0.3043940  
   0.882955900    -0.5610206    0.3902002  
   0.884955800    -0.4963386    0.4672952  
   0.886955700    -0.4206637    0.5345408  
   0.888955600    -0.3356349    0.5896412  
   0.890955500    -0.2426604    0.6318741  
   0.892955400    -0.1440823    0.6597005  
   0.894955300    -0.0416376    0.6719715  
