! MS46122B
! 2250307/22442219
! 7/23/2025 1:17:33 PM
! C:\USERS\SPARKY\DOCUMENTS\VNA_DATA\JULY23_2025\295K\PORT2_MOS6_REPEAT1.S1P
! CHANNEL.1
! TR.MEASUREMENT
! RAW.DATA
# GHZ S RI R 50.0
! FREQ.GHZ         S11RE         S11IM         
!; PortSelection: Port_1
   0.001000000     1.0458870   -0.0721142  
   0.002999900     0.9475961   -0.2221393  
   0.004999800     0.8236580   -0.1001783  
   0.006999700     0.5161245   -0.3808797  
   0.008999600     0.9297007   -0.0400547  
   0.010999500     0.9138600   -0.2441465  
   0.012999400     0.8746741   -0.3488737  
   0.014999300     0.8341565   -0.4295754  
   0.016999200     0.7926016   -0.5000162  
   0.018999100     0.7480791   -0.5653506  
   0.020999000     0.6989238   -0.6259655  
   0.022998900     0.6442502   -0.6816205  
   0.024998800     0.5761229   -0.6970303  
   0.026998700     0.5175134   -0.7779853  
   0.028998600     0.4435759   -0.8176855  
   0.030998500     0.3621468   -0.8502620  
   0.032998400     0.2778626   -0.8403630  
   0.034998300     0.1768706   -0.8881552  
   0.036998200     0.0736908   -0.8908013  
   0.038998100    -0.0352142   -0.8790864  
   0.040998000    -0.1487473   -0.8503969  
   0.042997900    -0.2648628   -0.8030387  
   0.044997800    -0.3562568   -0.7159184  
   0.046997700    -0.4901108   -0.6387667  
   0.048997600    -0.5886969   -0.5177601  
   0.050997500    -0.6680943   -0.3691872  
   0.052997400    -0.7176604   -0.1962376  
   0.054997300    -0.7274585    0.0001997  
   0.056997200    -0.6858199    0.2046451  
   0.058997100    -0.5865171    0.4002515  
   0.060997000    -0.4318163    0.5665380  
   0.062996900    -0.2332808    0.6838537  
   0.064996800    -0.0105813    0.7396462  
   0.066996700     0.2130565    0.7303550  
   0.068996600     0.4169464    0.6632805  
   0.070996500     0.5871271    0.5531625  
   0.072996400     0.7162427    0.4135936  
   0.074996300     0.8037154    0.2601807  
   0.076996200     0.8531066    0.1033604  
   0.078996100     0.8694378   -0.0484444  
   0.080996000     0.8588242   -0.1912944  
   0.082995900     0.8259454   -0.3213791  
   0.084995800     0.7747599   -0.4369529  
   0.086995700     0.7110956   -0.5384575  
   0.088995600     0.6368884   -0.6257024  
   0.090995500     0.5546120   -0.6994302  
   0.092995400     0.4668674   -0.7600790  
   0.094995300     0.3733389   -0.8073702  
   0.096995200     0.2772944   -0.8417038  
   0.098995100     0.1788981   -0.8638822  
   0.100995000     0.0779603   -0.8741421  
   0.102994900    -0.0221140   -0.8721449  
   0.104994800    -0.1216718   -0.8582528  
   0.106994700    -0.2197567   -0.8313554  
   0.108994600    -0.3148988   -0.7932215  
   0.110994500    -0.4065125   -0.7429619  
   0.112994400    -0.4929918   -0.6801121  
   0.114994300    -0.5724353   -0.6047015  
   0.116994200    -0.6430432   -0.5166289  
   0.118994100    -0.7029726   -0.4167974  
   0.120994000    -0.7509763   -0.3065625  
   0.122993900    -0.7822348   -0.1846918  
   0.124993800    -0.7949814   -0.0551406  
   0.126993700    -0.7863358    0.0802740  
   0.128993600    -0.7530794    0.2168496  
   0.130993500    -0.6959186    0.3513179  
   0.132993400    -0.6123233    0.4778996  
   0.134993300    -0.5034737    0.5906418  
   0.136993200    -0.3709994    0.6826109  
   0.138993100    -0.2196579    0.7486063  
   0.140993000    -0.0552198    0.7830700  
   0.142992900     0.1145253    0.7832521  
   0.144992800     0.2818422    0.7495419  
   0.146992700     0.4376446    0.6810184  
   0.148992600     0.5744341    0.5831693  
   0.150992500     0.6854803    0.4612515  
   0.152992400     0.7693797    0.3234327  
   0.154992300     0.8234730    0.1764818  
   0.156992200     0.8481703    0.0260744  
   0.158992100     0.8453062   -0.1210088  
   0.160992000     0.8176123   -0.2607657  
   0.162991900     0.7679164   -0.3889037  
   0.164991800     0.7003121   -0.5034832  
   0.166991700     0.6178749   -0.6023419  
   0.168991600     0.5242829   -0.6844820  
   0.170991500     0.4217484   -0.7502514  
   0.172991400     0.3135884   -0.7990276  
   0.174991300     0.2022355   -0.8311073  
   0.176991200     0.0889892   -0.8468790  
   0.178991100    -0.0236222   -0.8465990  
   0.180991000    -0.1338231   -0.8318982  
   0.182990900    -0.2405136   -0.8018717  
   0.184990800    -0.3419292   -0.7579082  
   0.186990700    -0.4367273   -0.6999874  
   0.188990600    -0.5045378   -0.6439663  
   0.190990500    -0.5961724   -0.5497956  
   0.192990400    -0.6633106   -0.4544445  
   0.194990300    -0.7151837   -0.3519811  
   0.196990200    -0.7522478   -0.2419008  
   0.198990100    -0.7737484   -0.1252874  
   0.200990000    -0.7777936   -0.0041286  
   0.202989900    -0.7629309    0.1190468  
   0.204989800    -0.7284486    0.2414377  
   0.206989700    -0.6751752    0.3596118  
   0.208989600    -0.6007162    0.4694270  
   0.210989500    -0.5063050    0.5680032  
   0.212989400    -0.3943932    0.6508839  
   0.214989300    -0.2668069    0.7144622  
   0.216989200    -0.1282761    0.7552667  
   0.218989100     0.0172592    0.7703914  
   0.220989000     0.1646363    0.7589585  
   0.222988900     0.3089463    0.7201481  
   0.224988800     0.4437534    0.6551248  
   0.226988700     0.5643325    0.5667537  
   0.228988600     0.6655089    0.4589120  
   0.230988500     0.7445928    0.3356029  
   0.232988400     0.7986544    0.2012824  
   0.234988300     0.8288135    0.0621748  
   0.236988200     0.8340546   -0.0776277  
   0.238988100     0.8158804   -0.2133472  
   0.240988000     0.7764632   -0.3409819  
   0.242987900     0.7181146   -0.4570460  
   0.244987800     0.6440154   -0.5603443  
   0.246987700     0.5565098   -0.6491703  
   0.248987600     0.4585913   -0.7223042  
   0.250987500     0.3523248   -0.7786192  
   0.252987400     0.2417250   -0.8181871  
   0.254987300     0.1292683   -0.8409872  
   0.256987200     0.0163757   -0.8473770  
   0.258987100    -0.0951894   -0.8396071  
   0.260987000    -0.2036271   -0.8152829  
   0.262986900    -0.3075894   -0.7765120  
   0.264986800    -0.4048458   -0.7242342  
   0.266986700    -0.4939243   -0.6586945  
   0.268986600    -0.5732887   -0.5817523  
   0.270986500    -0.6409312   -0.4944439  
   0.272986400    -0.6965187   -0.3979485  
   0.274986300    -0.7385817   -0.2938330  
   0.276986200    -0.7654374   -0.1829155  
   0.278986100    -0.7762669   -0.0670859  
   0.280986000    -0.7693285    0.0514584  
   0.282985900    -0.7439246    0.1701233  
   0.284985800    -0.6993569    0.2856211  
   0.286985700    -0.6353369    0.3945694  
   0.288985600    -0.5532572    0.4936760  
   0.290985500    -0.4535954    0.5785651  
   0.292985400    -0.3382876    0.6462275  
   0.294985300    -0.2103337    0.6934976  
   0.296985200    -0.0727531    0.7169024  
   0.298985100     0.0694325    0.7141587  
   0.300985000     0.2097978    0.6838245  
   0.302984900     0.3422989    0.6261148  
   0.304984800     0.4605317    0.5431727  
   0.306984700     0.5592614    0.4392435  
   0.308984600     0.6338258    0.3191639  
   0.310984500     0.6815165    0.1897564  
   0.312984400     0.7021782    0.0566102  
   0.314984300     0.6964414   -0.0733076  
   0.316984200     0.6667919   -0.1942933  
   0.318984100     0.6167992   -0.3024040  
   0.320984000     0.5524207   -0.3941393  
   0.322983900     0.4783143   -0.4680308  
   0.324983800     0.4003859   -0.5243686  
   0.326983700     0.3232762   -0.5657915  
   0.328983600     0.2498921   -0.5969781  
   0.330983500     0.1802365   -0.6223870  
   0.332983400     0.1116958   -0.6454633  
   0.334983300     0.0395105   -0.6668118  
   0.336983200    -0.0396825   -0.6841244  
   0.338983100    -0.1279263   -0.6930147  
   0.340983000    -0.2230134   -0.6878703  
   0.342982900    -0.3216252   -0.6661794  
   0.344982800    -0.4192065   -0.6253722  
   0.346982700    -0.5114278   -0.5660694  
   0.348982600    -0.5922636   -0.4894862  
   0.350982500    -0.6605931   -0.4004382  
   0.352982400    -0.7139454   -0.2998844  
   0.354982300    -0.7515195   -0.1866785  
   0.356982200    -0.7709788   -0.0546310  
   0.358982100    -0.7660986    0.0787438  
   0.360982000    -0.7373465    0.2083024  
   0.362981900    -0.6863437    0.3311818  
   0.364981800    -0.6140590    0.4437950  
   0.366981700    -0.5231327    0.5420014  
   0.368981600    -0.4153676    0.6232649  
   0.370981500    -0.2943422    0.6844116  
   0.372981400    -0.1633165    0.7235866  
   0.374981300    -0.0254590    0.7387504  
   0.376981200    -0.1263858    0.7349968  
   0.378981100     0.0172722    0.7434432  
   0.380981000     0.1611384    0.7247562  
   0.382980900     0.2890338    0.6835032  
   0.384980800     0.4039866    0.6234607  
   0.386980700     0.5079039    0.5438448  
   0.388980600     0.5967765    0.4471025  
   0.390980500     0.6676283    0.3368217  
   0.392980400     0.7183107    0.2164310  
   0.394980300     0.7474032    0.0895615  
   0.396980200     0.7544266   -0.0396957  
   0.398980100     0.7394909   -0.1672534  
   0.400980000     0.7033212   -0.2894571  
   0.402979900     0.6475865   -0.4029797  
   0.404979800     0.5747339   -0.5044560  
   0.406979700     0.4874145   -0.5911651  
   0.408979600     0.3885560   -0.6615359  
   0.410979500     0.2802798   -0.7146035  
   0.412979400     0.1658535   -0.7493938  
   0.414979300     0.0487565   -0.7642276  
   0.416979200    -0.0680258   -0.7617652  
   0.418979100    -0.1809867   -0.7415037  
   0.420979000    -0.2888975   -0.7044343  
   0.422978900    -0.3891070   -0.6517715  
   0.424978800    -0.4798738   -0.5853790  
   0.426978700    -0.5591409   -0.5062277  
   0.428978600    -0.6250205   -0.4166132  
   0.430978500    -0.6767462   -0.3188936  
   0.432978400    -0.7130907   -0.2151083  
   0.434978300    -0.7349421   -0.1078387  
   0.436978200    -0.7397686    0.0021697  
   0.438978100    -0.7281255    0.1119075  
   0.440978000    -0.7003648    0.2193153  
   0.442977900    -0.6567671    0.3219574  
   0.444977800    -0.5976874    0.4178277  
   0.446977700    -0.5242811    0.5036975  
   0.448977600    -0.4379430    0.5786133  
   0.450977500    -0.3401428    0.6398639  
   0.452977400    -0.2323063    0.6859921  
   0.454977300    -0.1172177    0.7145228  
   0.456977200     0.0026573    0.7246615  
   0.458977100     0.1238944    0.7149740  
   0.460977000     0.2427874    0.6854402  
   0.462976900     0.3557368    0.6362811  
   0.464976800     0.4594811    0.5687293  
   0.466976700     0.5511595    0.4843986  
   0.468976600     0.6274273    0.3856529  
   0.470976500     0.6860570    0.2750117  
   0.472976400     0.7250047    0.1566928  
   0.474976300     0.7438161    0.0336235  
   0.476976200     0.7415427   -0.0899182  
   0.478976100     0.7187486   -0.2103560  
   0.480976000     0.6774814   -0.3238650  
   0.482975900     0.6189343   -0.4277686  
   0.484975800     0.5453370   -0.5195312  
   0.486975700     0.4588825   -0.5974681  
   0.488975600     0.3628891   -0.6602895  
   0.490975500     0.2595506   -0.7065150  
   0.492975400     0.1515171   -0.7363747  
   0.494975300     0.0414861   -0.7494791  
   0.496975200    -0.0679106   -0.7457871  
   0.498975100    -0.1739101   -0.7265083  
   0.500975000    -0.2751183   -0.6920972  
   0.502974900    -0.3693750   -0.6441632  
   0.504974800    -0.4553801   -0.5831179  
   0.506974700    -0.5319913   -0.5111468  
   0.508974600    -0.5977989   -0.4279783  
   0.510974500    -0.6510753   -0.3361821  
   0.512974400    -0.6907590   -0.2375050  
   0.514974300    -0.7140676   -0.1334516  
   0.516974200    -0.7230925   -0.0270581  
   0.518974100    -0.7160763    0.0803575  
   0.520974000    -0.6924981    0.1862357  
   0.522973900    -0.6526893    0.2880333  
   0.524973800    -0.5965440    0.3827459  
   0.526973700    -0.5257121    0.4680977  
   0.528973600    -0.4417433    0.5410246  
   0.530973500    -0.3468374    0.6000183  
   0.532973400    -0.2439796    0.6423879  
   0.534973300    -0.1355997    0.6681174  
   0.536973200    -0.0247975    0.6761781  
   0.538973100     0.0854567    0.6669388  
   0.540973000     0.1921593    0.6407065  
   0.542972900     0.2933364    0.5984954  
   0.544972800     0.3869228    0.5410948  
   0.546972700     0.4709194    0.4695970  
   0.548972600     0.5425661    0.3857682  
   0.550972500     0.6005573    0.2914356  
   0.552972400     0.6434774    0.1884590  
   0.554972300     0.6695375    0.0797012  
   0.556972200     0.6774581   -0.0320032  
   0.558972100     0.6677046   -0.1436743  
   0.560972000     0.6400699   -0.2526105  
   0.562971900     0.5957055   -0.3548781  
   0.564971800     0.5355515   -0.4490086  
   0.566971700     0.4616012   -0.5317556  
   0.568971600     0.3758208   -0.6015962  
   0.570971500     0.2803481   -0.6567277  
   0.572971400     0.1781277   -0.6958861  
   0.574971300     0.0702944   -0.7187207  
   0.576971200    -0.0390561   -0.7244152  
   0.578971100    -0.1480321   -0.7133740  
   0.580971000    -0.2534903   -0.6854373  
   0.582970900    -0.3524585   -0.6423841  
   0.584970800    -0.4432366   -0.5847388  
   0.586970700    -0.5235732   -0.5148815  
   0.588970600    -0.5920313   -0.4341648  
   0.590970500    -0.6477170   -0.3445606  
   0.592970400    -0.6895705   -0.2478622  
   0.594970300    -0.7164551   -0.1465174  
   0.596970200    -0.7283338   -0.0422265  
   0.598970100    -0.7247214    0.0628493  
   0.600970000    -0.7057421    0.1665421  
   0.602969900    -0.6716896    0.2662723  
   0.604969800    -0.6229841    0.3606488  
   0.606969700    -0.5605383    0.4471398  
   0.608969600    -0.4850043    0.5241352  
   0.610969500    -0.3985421    0.5889339  
   0.612969400    -0.3023528    0.6406386  
   0.614969300    -0.1989480    0.6770200  
   0.616969200    -0.0904032    0.6972549  
   0.618969100     0.0200425    0.7004933  
   0.620969000     0.1302455    0.6866212  
   0.622968900     0.2379510    0.6551818  
   0.624968800     0.3400194    0.6064807  
   0.626968700     0.4341927    0.5417091  
   0.628968600     0.5172052    0.4619977  
   0.630968500     0.5862563    0.3692434  
   0.632968400     0.6395494    0.2660069  
   0.634968300     0.6753130    0.1543237  
   0.636968200     0.6918254    0.0391709  
   0.638968100     0.6891533   -0.0780014  
   0.640968000     0.6665741   -0.1926819  
   0.642967900     0.6258982   -0.3014543  
   0.644967800     0.5676212   -0.4016700  
   0.646967700     0.4942150   -0.4900787  
   0.648967600     0.4081451   -0.5644893  
   0.650967500     0.3119456   -0.6231928  
   0.652967400     0.2086426   -0.6647666  
   0.654967300     0.1013805   -0.6895669  
   0.656967200    -0.0072248   -0.6966310  
   0.658967100    -0.1146012   -0.6864917  
   0.660967000    -0.2181302   -0.6598783  
   0.662966900    -0.3159098   -0.6178883  
   0.664966800    -0.4054685   -0.5616039  
   0.666966700    -0.4849177   -0.4925757  
   0.668966600    -0.5523570   -0.4126593  
   0.670966500    -0.6064489   -0.3239844  
   0.672966400    -0.6469291   -0.2287014  
   0.674966300    -0.6718158   -0.1290946  
   0.676966200    -0.6811445   -0.0272952  
   0.678966100    -0.6752177    0.0743803  
   0.680966000    -0.6540442    0.1743299  
   0.682965900    -0.6182402    0.2698242  
   0.684965800    -0.5683880    0.3590072  
   0.686965700    -0.5050209    0.4399814  
   0.688965600    -0.4297870    0.5106440  
   0.690965500    -0.3439235    0.5688720  
   0.692965400    -0.2496605    0.6137505  
   0.694965300    -0.1490246    0.6440234  
   0.696965200    -0.0444427    0.6579645  
   0.698965100     0.0624289    0.6550967  
   0.700965000     0.1682425    0.6351316  
   0.702964900     0.2703631    0.5981871  
   0.704964800     0.3652700    0.5444038  
   0.706964700     0.4511014    0.4752620  
   0.708964600     0.5244557    0.3919980  
   0.710964500     0.5841456    0.2983837  
   0.712964400     0.6265209    0.1951589  
   0.714964300     0.6508933    0.0864978  
   0.716964200     0.6567566   -0.0239516  
   0.718964100     0.6436605   -0.1328185  
   0.720964000     0.6136641   -0.2368876  
   0.722963900     0.5672839   -0.3335669  
   0.724963800     0.5066843   -0.4202536  
   0.726963700     0.4339413   -0.4956218  
   0.728963600     0.3512685   -0.5580747  
   0.730963500     0.2603733   -0.6053318  
   0.732963400     0.1650027   -0.6384681  
   0.734963300     0.0663695   -0.6566105  
   0.736963200    -0.0472243   -0.6591238  
   0.738963100    -0.1588028   -0.6416094  
   0.740963000    -0.2649369   -0.6055175  
   0.742962900    -0.3627636   -0.5521264  
   0.744962800    -0.4497675   -0.4830963  
   0.746962700    -0.5237381   -0.4003370  
   0.748962600    -0.5822209   -0.3056687  
   0.750962500    -0.5439250   -0.3904774  
   0.752962400    -0.6011207   -0.2940121  
   0.754962300    -0.6405237   -0.1888925  
   0.756962200    -0.6614652   -0.0781689  
   0.758962100    -0.6626737    0.0349373  
   0.760962000    -0.6438406    0.1470867  
   0.762961900    -0.6080096    0.2495509  
   0.764961800    -0.5610464    0.3369674  
   0.766961700    -0.5008816    0.4160933  
   0.768961600    -0.4287358    0.4851425  
   0.770961500    -0.3468217    0.5418300  
   0.772961400    -0.2568161    0.5852460  
   0.774961300    -0.1614323    0.6135890  
   0.776961200    -0.0625166    0.6270383  
   0.778961100     0.0378798    0.6246921  
   0.780961000     0.1367191    0.6069390  
   0.782960900     0.2321415    0.5735997  
   0.784960800     0.3214930    0.5252059  
   0.786960700     0.4026886    0.4632362  
   0.788960600     0.4734155    0.3888189  
   0.790960500     0.5312021    0.3041602  
   0.792960400     0.5749457    0.2110631  
   0.794960300     0.6032040    0.1122745  
   0.796960200     0.6152775    0.0098548  
   0.798960100     0.6105151   -0.0928815  
   0.800960000     0.5895699   -0.1933490  
   0.802959900     0.5527551   -0.2894304  
   0.804959800     0.5009070   -0.3782327  
   0.806959700     0.4358096   -0.4572347  
   0.808959600     0.3589931   -0.5251579  
   0.810959500     0.2721178   -0.5795848  
   0.812959400     0.1780735   -0.6196437  
   0.814959300     0.0789513   -0.6440523  
   0.816959200    -0.0223133   -0.6523842  
   0.818959100    -0.1235693   -0.6447363  
   0.820959000    -0.2217280   -0.6212587  
   0.822958900    -0.3150382   -0.5828626  
   0.824958800    -0.4005586   -0.5304379  
   0.826958700    -0.4766934   -0.4658072  
   0.828958600    -0.5418237   -0.3903620  
   0.830958500    -0.5940911   -0.3060421  
   0.832958400    -0.6327246   -0.2152523  
   0.834958300    -0.6569924   -0.1201999  
   0.836958200    -0.6667433   -0.0229361  
   0.838958100    -0.6615853    0.0745618  
   0.840958000    -0.6417617    0.1700418  
   0.842957900    -0.6076471    0.2612192  
   0.844957800    -0.5602761    0.3467506  
   0.846957700    -0.5002948    0.4243299  
   0.848957600    -0.4293556    0.4920539  
   0.850957500    -0.3486002    0.5484115  
   0.852957400    -0.2598097    0.5917708  
   0.854957300    -0.1650969    0.6214702  
   0.856957200    -0.0665889    0.6360635  
   0.858957100     0.0337177    0.6353200  
   0.860957000     0.1324801    0.6189326  
   0.862956900     0.2275826    0.5868693  
   0.864956800     0.3164082    0.5403856  
   0.866956700     0.3970962    0.4804147  
   0.868956600     0.4671423    0.4077514  
   0.870956500     0.5254408    0.3246228  
   0.872956400     0.5703432    0.2327299  
   0.874956300     0.5994344    0.1340417  
   0.876956200     0.6123431    0.0312748  
   0.878956100     0.6083031   -0.0727445  
   0.880956000     0.5866212   -0.1747250  
   0.882955900     0.5485058   -0.2720049  
   0.884955800     0.4942553   -0.3614762  
   0.886955700     0.4262470   -0.4404242  
   0.888955600     0.3461716   -0.5067921  
   0.890955500     0.2565989   -0.5583958  
   0.892955400     0.1603949   -0.5943981  
   0.894955300     0.0600064   -0.6139658  
