! MS46122B
! 2250307/22442219
! 7/21/2025 12:15:31 PM
! C:\USERS\SPARKY\DOCUMENTS\VNA_DATA\JULY21_2025\295K\PORT2_MOS2_REPEAT1.S1P
! CHANNEL.1
! TR.MEASUREMENT
! RAW.DATA
# GHZ S RI R 50.0
! FREQ.GHZ         S11RE         S11IM         
!; PortSelection: Port_1
   0.001000000     1.0454570   -0.0710230  
   0.002999900     0.9636397   -0.1936791  
   0.004999800     0.9028350   -0.2982340  
   0.006999700     0.8352925   -0.3955744  
   0.008999600     0.7553481   -0.4899631  
   0.010999500     0.6609377   -0.5787286  
   0.012999400     0.5464234   -0.6589278  
   0.014999300     0.4065872   -0.7236775  
   0.016999200     0.2365401   -0.7597451  
   0.018999100     0.0349525   -0.7473954  
   0.020999000    -0.1858512   -0.6552274  
   0.022998900    -0.3841285   -0.4521862  
   0.024998800    -0.4657067   -0.1430174  
   0.026998700    -0.4051175    0.2080024  
   0.028998600    -0.1619798    0.4655060  
   0.030998500     0.1472840    0.5621074  
   0.032998400     0.3986633    0.5110952  
   0.034998300     0.6268893    0.4012186  
   0.036998200     0.7571025    0.2513430  
   0.038998100     0.8299581    0.0977177  
   0.040998000     0.8605931   -0.0475171  
   0.042997900     0.8607231   -0.1800459  
   0.044997800     0.8145971   -0.2732755  
   0.046997700     0.8006882   -0.4023427  
   0.048997600     0.7510988   -0.4943088  
   0.050997500     0.6926454   -0.5737044  
   0.052997400     0.6274796   -0.6421863  
   0.054997300     0.5570405   -0.7002730  
   0.056997200     0.4810543   -0.7502607  
   0.058997100     0.4022385   -0.7904138  
   0.060997000     0.3198412   -0.8218933  
   0.062996900     0.2349244   -0.8446813  
   0.064996800     0.1474112   -0.8579056  
   0.066996700     0.0577386   -0.8621777  
   0.068996600    -0.0330718   -0.8560733  
   0.070996500    -0.1247192   -0.8404046  
   0.072996400    -0.2166879   -0.8121276  
   0.074996300    -0.3070554   -0.7721398  
   0.076996200    -0.3948757   -0.7191976  
   0.078996100    -0.4782713   -0.6530320  
   0.080996000    -0.5551953   -0.5724748  
   0.082995900    -0.6228431   -0.4776767  
   0.084995800    -0.6774163   -0.3688134  
   0.086995700    -0.7171480   -0.2473845  
   0.088995600    -0.7369487   -0.1145614  
   0.090995500    -0.7335848    0.0264339  
   0.092995400    -0.7039503    0.1712601  
   0.094995300    -0.6437228    0.3137068  
   0.096995200    -0.5530009    0.4462573  
   0.098995100    -0.4322909    0.5604392  
   0.100995000    -0.2853698    0.6495696  
   0.102994900    -0.1213838    0.7037586  
   0.104994800     0.0514627    0.7200714  
   0.106994700     0.2226971    0.6967837  
   0.108994600     0.3827268    0.6378385  
   0.110994500     0.5228813    0.5478142  
   0.112994400     0.6373116    0.4332525  
   0.114994300     0.7226531    0.3023218  
   0.116994200     0.7783368    0.1625964  
   0.118994100     0.8051328    0.0212368  
   0.120994000     0.8071011   -0.1165700  
   0.122993900     0.7844399   -0.2469663  
   0.124993800     0.7421260   -0.3664694  
   0.126993700     0.6835787   -0.4736314  
   0.128993600     0.6112764   -0.5660629  
   0.130993500     0.5293730   -0.6448148  
   0.132993400     0.4397238   -0.7090233  
   0.134993300     0.3446364   -0.7588066  
   0.136993200     0.2457026   -0.7942843  
   0.138993100     0.1446811   -0.8156459  
   0.140993000     0.0430334   -0.8238871  
   0.142992900    -0.0580253   -0.8185472  
   0.144992800    -0.1569874   -0.8020246  
   0.146992700    -0.2531867   -0.7712768  
   0.148992600    -0.3448649   -0.7285797  
   0.150992500    -0.4294842   -0.6729051  
   0.152992400    -0.5082893   -0.6068075  
   0.154992300    -0.5786974   -0.5302096  
   0.156992200    -0.6390234   -0.4430813  
   0.158992100    -0.6879310   -0.3467326  
   0.160992000    -0.7237028   -0.2422124  
   0.162991900    -0.7446908   -0.1307637  
   0.164991800    -0.7491623   -0.0144440  
   0.166991700    -0.7356122    0.1039135  
   0.168991600    -0.7030455    0.2220527  
   0.170991500    -0.6505274    0.3370949  
   0.172991400    -0.5783095    0.4443069  
   0.174991300    -0.4866642    0.5399860  
   0.176991200    -0.3769704    0.6208010  
   0.178991100    -0.2520770    0.6821674  
   0.180991000    -0.1164502    0.7212836  
   0.182990900     0.0261053    0.7344388  
   0.184990800     0.1705633    0.7205170  
   0.186990700     0.3104561    0.6797195  
   0.188990600     0.4211872    0.6251771  
   0.190990500     0.5508689    0.5267642  
   0.192990400     0.6479971    0.4168434  
   0.194990300     0.7203696    0.2950720  
   0.196990200     0.7686703    0.1649929  
   0.198990100     0.7925246    0.0313356  
   0.200990000     0.7928104   -0.1021467  
   0.202989900     0.7706706   -0.2304598  
   0.204989800     0.7285867   -0.3508763  
   0.206989700     0.6700315   -0.4598386  
   0.208989600     0.5958940   -0.5549622  
   0.210989500     0.5094535   -0.6360577  
   0.212989400     0.4136826   -0.7019568  
   0.214989300     0.3111867   -0.7514153  
   0.216989200     0.2049995   -0.7847350  
   0.218989100     0.0968289   -0.8021458  
   0.220989000    -0.0114432   -0.8042033  
   0.222988900    -0.1185257   -0.7906845  
   0.224988800    -0.2217306   -0.7624133  
   0.226988700    -0.3193063   -0.7205251  
   0.228988600    -0.4097477   -0.6655978  
   0.230988500    -0.4918830   -0.5984920  
   0.232988400    -0.5631660   -0.5191558  
   0.234988300    -0.6242420   -0.4301156  
   0.236988200    -0.6722763   -0.3324012  
   0.238988100    -0.7062318   -0.2272618  
   0.240988000    -0.7243804   -0.1172655  
   0.242987900    -0.7257166   -0.0040357  
   0.244987800    -0.7092797    0.1100813  
   0.246987700    -0.6746408    0.2229386  
   0.248987600    -0.6210662    0.3312527  
   0.250987500    -0.5488566    0.4311965  
   0.252987400    -0.4591651    0.5193142  
   0.254987300    -0.3544535    0.5918815  
   0.256987200    -0.2369372    0.6462077  
   0.258987100    -0.1093974    0.6806769  
   0.260987000     0.0241408    0.6905767  
   0.262986900     0.1591884    0.6757012  
   0.264986800     0.2902448    0.6361655  
   0.266986700     0.4118648    0.5725703  
   0.268986600     0.5194341    0.4879233  
   0.270986500     0.6089404    0.3855807  
   0.272986400     0.6776073    0.2697600  
   0.274986300     0.7236929    0.1446767  
   0.276986200     0.7464520    0.0152126  
   0.278986100     0.7461860   -0.1140840  
   0.280986000     0.7233330   -0.2392343  
   0.282985900     0.6808710   -0.3567658  
   0.284985800     0.6206243   -0.4632395  
   0.286985700     0.5459190   -0.5563650  
   0.288985600     0.4596845   -0.6340054  
   0.290985500     0.3648561   -0.6959575  
   0.292985400     0.2643784   -0.7419261  
   0.294985300     0.1600201   -0.7723563  
   0.296985200     0.0537517   -0.7870149  
   0.298985100    -0.0522478   -0.7864547  
   0.300985000    -0.1562440   -0.7709832  
   0.302984900    -0.2558200   -0.7418467  
   0.304984800    -0.3492989   -0.6996018  
   0.306984700    -0.4354784   -0.6457607  
   0.308984600    -0.5127648   -0.5812991  
   0.310984500    -0.5805915   -0.5076399  
   0.312984400    -0.6380559   -0.4251102  
   0.314984300    -0.6845635   -0.3351518  
   0.316984200    -0.7186294   -0.2390186  
   0.318984100    -0.7392313   -0.1367604  
   0.320984000    -0.7447492   -0.0301310  
   0.322983900    -0.7344969    0.0780360  
   0.324983800    -0.7064716    0.1848699  
   0.326983700    -0.6613349    0.2868327  
   0.328983600    -0.5991247    0.3799091  
   0.330983500    -0.5228511    0.4608441  
   0.332983400    -0.4363546    0.5274065  
   0.334983300    -0.3420716    0.5793201  
   0.336983200    -0.2424204    0.6171909  
   0.338983100    -0.1383660    0.6407203  
   0.340983000    -0.0315684    0.6496025  
   0.342982900     0.0765913    0.6428542  
   0.344982800     0.1849823    0.6195425  
   0.346982700     0.2905027    0.5785122  
   0.348982600     0.3889363    0.5193047  
   0.350982500     0.4779386    0.4442005  
   0.352982400     0.5542575    0.3538957  
   0.354982300     0.6160050    0.2468342  
   0.356982200     0.6598849    0.1181048  
   0.358982100     0.6776237   -0.0170411  
   0.360982000     0.6683299   -0.1524397  
   0.362981900     0.6327333   -0.2836896  
   0.364981800     0.5721427   -0.4053065  
   0.366981700     0.4894471   -0.5126652  
   0.368981600     0.3878596   -0.6011940  
   0.370981500     0.2717592   -0.6683488  
   0.372981400     0.1457182   -0.7118405  
   0.374981300     0.0144006   -0.7307034  
   0.376981200     0.1235671   -0.7191177  
   0.378981100    -0.0061201   -0.7327678  
   0.380981000    -0.1353811   -0.7224785  
   0.382980900    -0.2484915   -0.6928994  
   0.384980800    -0.3496402   -0.6485799  
   0.386980700    -0.4415089   -0.5891178  
   0.388980600    -0.5234464   -0.5166053  
   0.390980500    -0.5925393   -0.4333025  
   0.392980400    -0.6475677   -0.3419021  
   0.394980300    -0.6886589   -0.2431804  
   0.396980200    -0.7142674   -0.1403379  
   0.398980100    -0.7246351   -0.0340828  
   0.400980000    -0.7191243    0.0725945  
   0.402979900    -0.6974796    0.1779416  
   0.404979800    -0.6606908    0.2793814  
   0.406979700    -0.6084885    0.3747904  
   0.408979600    -0.5421418    0.4619632  
   0.410979500    -0.4621837    0.5392492  
   0.412979400    -0.3693945    0.6044313  
   0.414979300    -0.2664737    0.6536853  
   0.416979200    -0.1559226    0.6876004  
   0.418979100    -0.0402359    0.7035875  
   0.420979000     0.0777358    0.7008479  
   0.422978900     0.1951153    0.6783617  
   0.424978800     0.3080154    0.6363865  
   0.426978700     0.4136392    0.5755110  
   0.428978600     0.5078241    0.4974317  
   0.430978500     0.5875258    0.4041364  
   0.432978400     0.6504174    0.2988347  
   0.434978300     0.6954449    0.1847494  
   0.436978200     0.7193698    0.0646566  
   0.438978100     0.7226694   -0.0574577  
   0.440978000     0.7053704   -0.1778583  
   0.442977900     0.6684973   -0.2927390  
   0.444977800     0.6132613   -0.3990956  
   0.446977700     0.5415849   -0.4940798  
   0.448977600     0.4565847   -0.5748097  
   0.450977500     0.3603222   -0.6400754  
   0.452977400     0.2554057   -0.6885228  
   0.454977300     0.1447376   -0.7189155  
   0.456977200     0.0315334   -0.7315120  
   0.458977100    -0.0816081   -0.7258675  
   0.460977000    -0.1907010   -0.7027762  
   0.462976900    -0.2939874   -0.6635013  
   0.464976800    -0.3891076   -0.6089164  
   0.466976700    -0.4741857   -0.5410087  
   0.468976600    -0.5474368   -0.4611546  
   0.470976500    -0.6071085   -0.3712487  
   0.472976400    -0.6526167   -0.2736493  
   0.474976300    -0.6825858   -0.1704290  
   0.476976200    -0.6961739   -0.0640208  
   0.478976100    -0.6932844    0.0435405  
   0.480976000    -0.6737368    0.1490592  
   0.482975900    -0.6382741    0.2504622  
   0.484975800    -0.5871277    0.3458354  
   0.486975700    -0.5207099    0.4327765  
   0.488975600    -0.4408994    0.5087284  
   0.490975500    -0.3490951    0.5714476  
   0.492975400    -0.2471511    0.6184940  
   0.494975300    -0.1378255    0.6481127  
   0.496975200    -0.0242047    0.6591592  
   0.498975100     0.0898297    0.6505858  
   0.500975000     0.2010416    0.6221813  
   0.502974900     0.3052993    0.5747792  
   0.504974800     0.3996244    0.5105207  
   0.506974700     0.4808220    0.4308371  
   0.508974600     0.5464932    0.3383033  
   0.510974500     0.5940905    0.2372951  
   0.512974400     0.6237510    0.1319040  
   0.514974300     0.6334726    0.0257023  
   0.516974200     0.6272365   -0.0782916  
   0.518974100     0.6054830   -0.1769654  
   0.520974000     0.5703694   -0.2691814  
   0.522973900     0.5235053   -0.3537982  
   0.524973800     0.4663960   -0.4292299  
   0.526973700     0.4003021   -0.4962164  
   0.528973600     0.3261390   -0.5528961  
   0.530973500     0.2448654   -0.6000047  
   0.532973400     0.1573961   -0.6358173  
   0.534973300     0.0646600   -0.6591592  
   0.536973200    -0.0318711   -0.6691833  
   0.538973100    -0.1298021   -0.6644772  
   0.540973000    -0.2269949   -0.6449817  
   0.542972900    -0.3216480   -0.6103861  
   0.544972800    -0.4105197   -0.5607879  
   0.546972700    -0.4919853   -0.4967768  
   0.548972600    -0.5627766   -0.4196340  
   0.550972500    -0.6210647   -0.3319910  
   0.552972400    -0.6648837   -0.2348149  
   0.554972300    -0.6925592   -0.1312353  
   0.556972200    -0.7032449   -0.0242797  
   0.558972100    -0.6967139    0.0839215  
   0.560972000    -0.6729141    0.1897177  
   0.562971900    -0.6323659    0.2905371  
   0.564971800    -0.5762761    0.3835846  
   0.566971700    -0.5057555    0.4671383  
   0.568971600    -0.4227107    0.5384585  
   0.570971500    -0.3288212    0.5959590  
   0.572971400    -0.2260387    0.6380206  
   0.574971300    -0.1173136    0.6629934  
   0.576971200    -0.0045982    0.6700299  
   0.578971100     0.1085766    0.6584100  
   0.580971000     0.2191550    0.6279206  
   0.582970900     0.3233696    0.5795853  
   0.584970800     0.4182274    0.5142117  
   0.586970700     0.5012154    0.4333208  
   0.588970600     0.5696552    0.3392722  
   0.590970500     0.6210508    0.2352866  
   0.592970400     0.6542358    0.1237125  
   0.594970300     0.6679555    0.0077460  
   0.596970200     0.6616242   -0.1081856  
   0.598970100     0.6360132   -0.2217853  
   0.600970000     0.5914196   -0.3288637  
   0.602969900     0.5296354   -0.4266226  
   0.604969800     0.4524482   -0.5124778  
   0.606969700     0.3623567   -0.5834414  
   0.608969600     0.2623089   -0.6387014  
   0.610969500     0.1552153   -0.6756245  
   0.612969400     0.0441507   -0.6946549  
   0.614969300    -0.0670194   -0.6949139  
   0.616969200    -0.1755241   -0.6777998  
   0.618969100    -0.2787126   -0.6440781  
   0.620969000    -0.3741828   -0.5951449  
   0.622968900    -0.4603937   -0.5322682  
   0.624968800    -0.5355912   -0.4574264  
   0.626968700    -0.5982695   -0.3722585  
   0.628968600    -0.6471329   -0.2786487  
   0.630968500    -0.6809238   -0.1790067  
   0.632968400    -0.6993363   -0.0758198  
   0.634968300    -0.7019230    0.0292734  
   0.636968200    -0.6888398    0.1332778  
   0.638968100    -0.6601504    0.2344658  
   0.640968000    -0.6162999    0.3307393  
   0.642967900    -0.5583211    0.4191994  
   0.644967800    -0.4871255    0.4983385  
   0.646967700    -0.4043378    0.5665175  
   0.648967600    -0.3116216    0.6211513  
   0.650967500    -0.2110953    0.6609949  
   0.652967400    -0.1049763    0.6850638  
   0.654967300     0.0044303    0.6924487  
   0.656967200     0.1144414    0.6827228  
   0.658967100     0.2222566    0.6550301  
   0.660967000     0.3254822    0.6101777  
   0.662966900     0.4214291    0.5483024  
   0.664966800     0.5069055    0.4710385  
   0.666966700     0.5791178    0.3795859  
   0.668966600     0.6354371    0.2768815  
   0.670966500     0.6739253    0.1660076  
   0.672966400     0.6948517    0.0496907  
   0.674966300     0.6947628   -0.0679100  
   0.676966200     0.6744203   -0.1837768  
   0.678966100     0.6355878   -0.2937170  
   0.680966000     0.5791711   -0.3952884  
   0.682965900     0.5072681   -0.4856137  
   0.684965800     0.4223652   -0.5622870  
   0.686965700     0.3265131   -0.6233906  
   0.688965600     0.2229957   -0.6680101  
   0.690965500     0.1144312   -0.6937864  
   0.692965400     0.0047483   -0.7027044  
   0.694965300    -0.1037060   -0.6945074  
   0.696965200    -0.2084489   -0.6695330  
   0.698965100    -0.3072330   -0.6294062  
   0.700965000    -0.3981528   -0.5746803  
   0.702964900    -0.4787177   -0.5073716  
   0.704964800    -0.5477147   -0.4288244  
   0.706964700    -0.6039860   -0.3415124  
   0.708964600    -0.6460489   -0.2465523  
   0.710964500    -0.6739296   -0.1465737  
   0.712964400    -0.6856204   -0.0440674  
   0.714964300    -0.6818274    0.0594442  
   0.716964200    -0.6621230    0.1607288  
   0.718964100    -0.6275223    0.2580532  
   0.720964000    -0.5783535    0.3487549  
   0.722963900    -0.5160247    0.4313130  
   0.724963800    -0.4410875    0.5034212  
   0.726963700    -0.3556672    0.5632280  
   0.728963600    -0.2607892    0.6091532  
   0.730963500    -0.1597367    0.6394493  
   0.732963400    -0.0547014    0.6532683  
   0.734963300     0.0524079    0.6499425  
   0.736963200     0.1732345    0.6249868  
   0.738963100     0.2879307    0.5775405  
   0.740963000     0.3923389    0.5094298  
   0.742962900     0.4818861    0.4234739  
   0.744962800     0.5535196    0.3220110  
   0.746962700     0.6046497    0.2097474  
   0.748962600     0.6340311    0.0904397  
   0.750962500     0.5993302    0.1852981  
   0.752962400     0.6246125    0.0673011  
   0.754962300     0.6281524   -0.0529143  
   0.756962200     0.6098203   -0.1707881  
   0.758962100     0.5708871   -0.2827139  
   0.760962000     0.5126118   -0.3853539  
   0.762961900     0.4412907   -0.4716523  
   0.764961800     0.3642189   -0.5389196  
   0.766961700     0.2777755   -0.5934884  
   0.768961600     0.1840068   -0.6345719  
   0.770961500     0.0851885   -0.6603956  
   0.772961400    -0.0168591   -0.6709880  
   0.774961300    -0.1187191   -0.6658539  
   0.776961200    -0.2195824   -0.6449590  
   0.778961100    -0.3160219   -0.6087732  
   0.780961000    -0.4063440   -0.5575264  
   0.782960900    -0.4875831   -0.4927442  
   0.784960800    -0.5580370   -0.4153240  
   0.786960700    -0.6155393   -0.3276774  
   0.788960600    -0.6584184   -0.2318384  
   0.790960500    -0.6860597   -0.1302097  
   0.792960400    -0.6971781   -0.0256354  
   0.794960300    -0.6919873    0.0794842  
   0.796960200    -0.6702046    0.1823989  
   0.798960100    -0.6327058    0.2805931  
   0.800960000    -0.5806667    0.3715401  
   0.802959900    -0.5145842    0.4535693  
   0.804959800    -0.4367516    0.5238691  
   0.806959700    -0.3489643    0.5820509  
   0.808959600    -0.2527637    0.6252702  
   0.810959500    -0.1511498    0.6532760  
   0.812959400    -0.0454167    0.6650620  
   0.814959300     0.0608163    0.6600035  
   0.816959200     0.1655881    0.6384619  
   0.818959100     0.2661490    0.6002865  
   0.820959000     0.3600452    0.5462721  
   0.822958900     0.4443848    0.4776510  
   0.824958800     0.5167785    0.3957011  
   0.826958700     0.5755138    0.3027062  
   0.828958600     0.6184365    0.2007813  
   0.830958500     0.6439281    0.0929789  
   0.832958400     0.6515381   -0.0179594  
   0.834958300     0.6406817   -0.1284928  
   0.836958200     0.6117474   -0.2356696  
   0.838958100     0.5654237   -0.3369572  
   0.840958000     0.5031373   -0.4290796  
   0.842957900     0.4263282   -0.5098354  
   0.844957800     0.3374448   -0.5765149  
   0.846957700     0.2391522   -0.6276033  
   0.848957600     0.1338289   -0.6615483  
   0.850957500     0.0255106   -0.6777647  
   0.852957400    -0.0839867   -0.6763421  
   0.854957300    -0.1910230   -0.6572512  
   0.856957200    -0.2929214   -0.6213057  
   0.858957100    -0.3872180   -0.5702310  
   0.860957000    -0.4712558   -0.5055872  
   0.862956900    -0.5434353   -0.4295887  
   0.864956800    -0.6027516   -0.3444108  
   0.866956700    -0.6480260   -0.2517798  
   0.868956600    -0.6778917   -0.1544242  
   0.870956500    -0.6935379   -0.0537885  
   0.872956400    -0.6937396    0.0474260  
   0.874956300    -0.6788996    0.1474688  
   0.876956200    -0.6490531    0.2445805  
   0.878956100    -0.6056107    0.3362526  
   0.880956000    -0.5486134    0.4206474  
   0.882955900    -0.4794061    0.4956886  
   0.884955800    -0.3992907    0.5601597  
   0.886955700    -0.3101628    0.6120991  
   0.888955600    -0.2136692    0.6502233  
   0.890955500    -0.1119883    0.6733908  
   0.892955400    -0.0073830    0.6805398  
   0.894955300     0.0977822    0.6718070  
