! MS46122B
! 2250307/22442219
! 7/21/2025 12:17:13 PM
! C:\USERS\SPARKY\DOCUMENTS\VNA_DATA\JULY21_2025\295K\PORT4_MOS4_REPEAT1.S1P
! CHANNEL.1
! TR.MEASUREMENT
! RAW.DATA
# GHZ S RI R 50.0
! FREQ.GHZ         S11RE         S11IM         
!; PortSelection: Port_1
   0.001000000     1.0453580   -0.0711258  
   0.002999900     0.9637142   -0.1936872  
   0.004999800     0.9029228   -0.2983572  
   0.006999700     0.8351144   -0.3956411  
   0.008999600     0.7550712   -0.4900893  
   0.010999500     0.6603546   -0.5790236  
   0.012999400     0.5453358   -0.6593722  
   0.014999300     0.4045390   -0.7240035  
   0.016999200     0.2331444   -0.7593352  
   0.018999100     0.0295323   -0.7453336  
   0.020999000    -0.1928882   -0.6492066  
   0.022998900    -0.3902604   -0.4394601  
   0.024998800    -0.4652659   -0.1237447  
   0.026998700    -0.3915856    0.2291105  
   0.028998600    -0.1371462    0.4783398  
   0.030998500     0.1755173    0.5621690  
   0.032998400     0.4227178    0.5013844  
   0.034998300     0.6453491    0.3841969  
   0.036998200     0.7689621    0.2318735  
   0.038998100     0.8363027    0.0776380  
   0.040998000     0.8625540   -0.0670318  
   0.042997900     0.8592610   -0.1983879  
   0.044997800     0.8107952   -0.2897460  
   0.046997700     0.7942428   -0.4180599  
   0.048997600     0.7427662   -0.5083800  
   0.050997500     0.6827964   -0.5862434  
   0.052997400     0.6161250   -0.6533951  
   0.054997300     0.5446188   -0.7100220  
   0.056997200     0.4674949   -0.7585279  
   0.058997100     0.3875726   -0.7972911  
   0.060997000     0.3042510   -0.8272446  
   0.062996900     0.2181255   -0.8481839  
   0.064996800     0.1297970   -0.8597276  
   0.066996700     0.0393306   -0.8618956  
   0.068996600    -0.0522603   -0.8536004  
   0.070996500    -0.1449555   -0.8354034  
   0.072996400    -0.2370046   -0.8043077  
   0.074996300    -0.3275232   -0.7611233  
   0.076996200    -0.4152552   -0.7046726  
   0.078996100    -0.4977995   -0.6345389  
   0.080996000    -0.5734281   -0.5496480  
   0.082995900    -0.6385992   -0.4502839  
   0.084995800    -0.6896878   -0.3367349  
   0.086995700    -0.7246488   -0.2107939  
   0.088995600    -0.7383008   -0.0738425  
   0.090995500    -0.7269800    0.0699227  
   0.092995400    -0.6879594    0.2160905  
   0.094995300    -0.6172981    0.3576039  
   0.096995200    -0.5154051    0.4864437  
   0.098995100    -0.3843859    0.5935689  
   0.100995000    -0.2285243    0.6725481  
   0.102994900    -0.0584304    0.7140223  
   0.104994800     0.1168983    0.7158864  
   0.106994700     0.2863633    0.6779188  
   0.108994600     0.4409809    0.6054771  
   0.110994500     0.5727450    0.5038003  
   0.112994400     0.6764513    0.3805259  
   0.114994300     0.7500775    0.2438686  
   0.116994200     0.7935626    0.1016626  
   0.118994100     0.8086480   -0.0400053  
   0.120994000     0.8000460   -0.1759709  
   0.122993900     0.7679071   -0.3029428  
   0.124993800     0.7175778   -0.4178594  
   0.126993700     0.6521652   -0.5191726  
   0.128993600     0.5741125   -0.6055456  
   0.130993500     0.4878128   -0.6777061  
   0.132993400     0.3945119   -0.7354556  
   0.134993300     0.2970150   -0.7784957  
   0.136993200     0.1961902   -0.8072976  
   0.138993100     0.0938478   -0.8222526  
   0.140993000    -0.0080109   -0.8234944  
   0.142992900    -0.1089623   -0.8116755  
   0.144992800    -0.2072630   -0.7884743  
   0.146992700    -0.3016224   -0.7510696  
   0.148992600    -0.3912853   -0.7016060  
   0.150992500    -0.4730979   -0.6392701  
   0.152992400    -0.5481290   -0.5669018  
   0.154992300    -0.6136747   -0.4839363  
   0.156992200    -0.6681208   -0.3906702  
   0.158992100    -0.7103670   -0.2888388  
   0.160992000    -0.7382416   -0.1791551  
   0.162991900    -0.7499472   -0.0638288  
   0.164991800    -0.7440659    0.0552822  
   0.166991700    -0.7190969    0.1750651  
   0.168991600    -0.6741983    0.2926581  
   0.170991500    -0.6087815    0.4047067  
   0.172991400    -0.5233881    0.5065181  
   0.174991300    -0.4190217    0.5940433  
   0.176991200    -0.2981762    0.6637031  
   0.178991100    -0.1641490    0.7108448  
   0.180991000    -0.0217305    0.7339066  
   0.182990900     0.1240387    0.7289231  
   0.184990800     0.2676699    0.6962328  
   0.186990700     0.4025241    0.6368527  
   0.188990600     0.5062619    0.5677993  
   0.190990500     0.6221726    0.4520192  
   0.192990400     0.7038616    0.3299941  
   0.194990300     0.7594669    0.1999681  
   0.196990200     0.7899146    0.0653447  
   0.198990100     0.7959694   -0.0700513  
   0.200990000     0.7789059   -0.2015080  
   0.202989900     0.7405971   -0.3251065  
   0.204989800     0.6837820   -0.4374345  
   0.206989700     0.6125773   -0.5375845  
   0.208989600     0.5278589   -0.6221014  
   0.210989500     0.4328249   -0.6916546  
   0.212989400     0.3303751   -0.7444583  
   0.214989300     0.2231528   -0.7811507  
   0.216989200     0.1137623   -0.8013117  
   0.218989100     0.0047669   -0.8057027  
   0.220989000    -0.1031611   -0.7944936  
   0.222988900    -0.2079693   -0.7678316  
   0.224988800    -0.3076337   -0.7271075  
   0.226988700    -0.4002975   -0.6728949  
   0.228988600    -0.4842634   -0.6065863  
   0.230988500    -0.5582753   -0.5286430  
   0.232988400    -0.6200566   -0.4388962  
   0.234988300    -0.6698271   -0.3409393  
   0.236988200    -0.7054195   -0.2350554  
   0.238988100    -0.7249770   -0.1238488  
   0.240988000    -0.7272704   -0.0091159  
   0.242987900    -0.7116181    0.1065217  
   0.244987800    -0.6774213    0.2203586  
   0.246987700    -0.6240466    0.3297787  
   0.248987600    -0.5517761    0.4312080  
   0.250987500    -0.4608350    0.5210332  
   0.252987400    -0.3545128    0.5948605  
   0.254987300    -0.2352055    0.6499491  
   0.256987200    -0.1060983    0.6832042  
   0.258987100     0.0291568    0.6939165  
   0.260987000     0.1654163    0.6782176  
   0.262986900     0.2975416    0.6373609  
   0.264986800     0.4203025    0.5720769  
   0.266986700     0.5288097    0.4850575  
   0.268986600     0.6185356    0.3800490  
   0.270986500     0.6865241    0.2619415  
   0.272986400     0.7313561    0.1347515  
   0.274986300     0.7523230    0.0036246  
   0.276986200     0.7500483   -0.1266076  
   0.278986100     0.7251167   -0.2523964  
   0.280986000     0.6801896   -0.3701719  
   0.282985900     0.6175981   -0.4766006  
   0.284985800     0.5402331   -0.5692703  
   0.286985700     0.4514347   -0.6466817  
   0.288985600     0.3540459   -0.7075074  
   0.290985500     0.2512853   -0.7519223  
   0.292985400     0.1454221   -0.7802559  
   0.294985300     0.0383109   -0.7927270  
   0.296985200    -0.0682531   -0.7899126  
   0.298985100    -0.1728055   -0.7719598  
   0.300985000    -0.2731205   -0.7401366  
   0.302984900    -0.3670180   -0.6949871  
   0.304984800    -0.4532812   -0.6379597  
   0.306984700    -0.5305175   -0.5698065  
   0.308984600    -0.5975141   -0.4921622  
   0.310984500    -0.6532633   -0.4064073  
   0.312984400    -0.6974848   -0.3132280  
   0.314984300    -0.7283962   -0.2138060  
   0.316984200    -0.7449930   -0.1094036  
   0.318984100    -0.7461035   -0.0008324  
   0.320984000    -0.7305301    0.1087115  
   0.322983900    -0.6966180    0.2167843  
   0.324983800    -0.6447063    0.3188098  
   0.326983700    -0.5754941    0.4100727  
   0.328983600    -0.4918039    0.4879553  
   0.330983500    -0.3979069    0.5492330  
   0.332983400    -0.2985159    0.5934510  
   0.334983300    -0.1959977    0.6224970  
   0.336983200    -0.0917203    0.6372901  
   0.338983100     0.0138416    0.6381459  
   0.340983000     0.1196746    0.6243488  
   0.342982900     0.2244741    0.5947126  
   0.344982800     0.3255515    0.5482307  
   0.346982700     0.4204829    0.4847762  
   0.348982600     0.5039763    0.4041487  
   0.350982500     0.5746574    0.3097326  
   0.352982400     0.6283600    0.2031691  
   0.354982300     0.6633558    0.0831717  
   0.356982200     0.6751978   -0.0536568  
   0.358982100     0.6594488   -0.1900023  
   0.360982000     0.6169432   -0.3203735  
   0.362981900     0.5498624   -0.4396147  
   0.364981800     0.4607484   -0.5429571  
   0.366981700     0.3533827   -0.6266041  
   0.368981600     0.2328084   -0.6874170  
   0.370981500     0.1033695   -0.7238933  
   0.372981400    -0.0293566   -0.7349705  
   0.374981300    -0.1614710   -0.7207310  
   0.376981200    -0.0496564   -0.7363980  
   0.378981100    -0.1795007   -0.7180561  
   0.380981000    -0.3031013   -0.6770684  
   0.382980900    -0.4060094   -0.6210666  
   0.384980800    -0.4941977   -0.5529636  
   0.386980700    -0.5701225   -0.4726677  
   0.388980600    -0.6329327   -0.3815379  
   0.390980500    -0.6807631   -0.2833785  
   0.392980400    -0.7129358   -0.1789542  
   0.394980300    -0.7290443   -0.0715464  
   0.396980200    -0.7290444    0.0373847  
   0.398980100    -0.7127255    0.1454835  
   0.400980000    -0.6799347    0.2506184  
   0.402979900    -0.6316037    0.3503539  
   0.404979800    -0.5681714    0.4421226  
   0.406979700    -0.4904228    0.5239464  
   0.408979600    -0.4002783    0.5931657  
   0.410979500    -0.2986181    0.6490340  
   0.412979400    -0.1879114    0.6882178  
   0.414979300    -0.0702498    0.7082229  
   0.416979200     0.0498237    0.7102033  
   0.418979100     0.1699619    0.6918840  
   0.420979000     0.2864304    0.6536575  
   0.422978900     0.3960521    0.5958538  
   0.424978800     0.4949578    0.5194915  
   0.426978700     0.5796694    0.4267919  
   0.428978600     0.6473352    0.3205492  
   0.430978500     0.6958209    0.2043542  
   0.432978400     0.7233778    0.0820566  
   0.434978300     0.7305535   -0.0429078  
   0.436978200     0.7153395   -0.1660785  
   0.438978100     0.6796196   -0.2846406  
   0.440978000     0.6246350   -0.3943541  
   0.442977900     0.5525188   -0.4924350  
   0.444977800     0.4661034   -0.5762759  
   0.446977700     0.3681404   -0.6439455  
   0.448977600     0.2617088   -0.6941386  
   0.450977500     0.1496854   -0.7256022  
   0.452977400     0.0349921   -0.7388661  
   0.454977300    -0.0798257   -0.7335278  
   0.456977200    -0.1914414   -0.7104166  
   0.458977100    -0.2978115   -0.6700328  
   0.460977000    -0.3949703   -0.6142422  
   0.462976900    -0.4817688   -0.5445654  
   0.464976800    -0.5563470   -0.4624990  
   0.466976700    -0.6169615   -0.3703205  
   0.468976600    -0.6627555   -0.2702555  
   0.470976500    -0.6924198   -0.1641002  
   0.472976400    -0.7053565   -0.0546804  
   0.474976300    -0.7010497    0.0556711  
   0.476976200    -0.6791818    0.1641496  
   0.478976100    -0.6409158    0.2682438  
   0.480976000    -0.5863739    0.3653631  
   0.482975900    -0.5167270    0.4529392  
   0.484975800    -0.4331273    0.5287970  
   0.486975700    -0.3375511    0.5907653  
   0.488975600    -0.2321140    0.6365963  
   0.490975500    -0.1193830    0.6644034  
   0.492975400    -0.0023617    0.6728305  
   0.494975300     0.1147423    0.6610258  
   0.496975200     0.2288412    0.6286504  
   0.498975100     0.3353630    0.5769286  
   0.500975000     0.4310872    0.5075154  
   0.502974900     0.5125394    0.4227262  
   0.504974800     0.5773392    0.3255268  
   0.506974700     0.6236705    0.2191317  
   0.508974600     0.6506980    0.1075675  
   0.510974500     0.6576909   -0.0049800  
   0.512974400     0.6459337   -0.1149371  
   0.514974300     0.6161041   -0.2176244  
   0.516974200     0.5725831   -0.3127417  
   0.518974100     0.5170207   -0.3979527  
   0.520974000     0.4510497   -0.4723957  
   0.522973900     0.3769557   -0.5356265  
   0.524973800     0.2958017   -0.5871090  
   0.526973700     0.2091036   -0.6280171  
   0.528973600     0.1178179   -0.6562882  
   0.530973500     0.0223218   -0.6725377  
   0.532973400    -0.0752345   -0.6753337  
   0.534973300    -0.1735311   -0.6634053  
   0.536973200    -0.2709771   -0.6374757  
   0.538973100    -0.3641102   -0.5960763  
   0.540973000    -0.4509662   -0.5402813  
   0.542972900    -0.5290677   -0.4704949  
   0.544972800    -0.5961779   -0.3880869  
   0.546972700    -0.6495000   -0.2951350  
   0.548972600    -0.6877599   -0.1933869  
   0.550972500    -0.7091175   -0.0859419  
   0.552972400    -0.7128958    0.0242382  
   0.554972300    -0.6984552    0.1345584  
   0.556972200    -0.6662153    0.2415607  
   0.558972100    -0.6167167    0.3424439  
   0.560972000    -0.5514575    0.4343562  
   0.562971900    -0.4719315    0.5142135  
   0.564971800    -0.3802028    0.5806616  
   0.566971700    -0.2786015    0.6315559  
   0.568971600    -0.1695227    0.6655505  
   0.570971500    -0.0562495    0.6812724  
   0.572971400     0.0592882    0.6783223  
   0.574971300     0.1737821    0.6560024  
   0.576971200     0.2840208    0.6144902  
   0.578971100     0.3863049    0.5547289  
   0.580971000     0.4775793    0.4781333  
   0.582970900     0.5546058    0.3869577  
   0.584970800     0.6151604    0.2837088  
   0.586970700     0.6570787    0.1718842  
   0.588970600     0.6793963    0.0544163  
   0.590970500     0.6812831   -0.0651276  
   0.592970400     0.6629069   -0.1830961  
   0.594970300     0.6246937   -0.2956907  
   0.596970200     0.5681415   -0.3999243  
   0.598970100     0.4951690   -0.4925638  
   0.600970000     0.4081182   -0.5712504  
   0.602969900     0.3096034   -0.6341923  
   0.604969800     0.2028937   -0.6793154  
   0.606969700     0.0906311   -0.7058817  
   0.608969600    -0.0237798   -0.7141969  
   0.610969500    -0.1371184   -0.7034168  
   0.612969400    -0.2461799   -0.6754748  
   0.614969300    -0.3484012   -0.6303854  
   0.616969200    -0.4413140   -0.5705457  
   0.618969100    -0.5225230   -0.4978152  
   0.620969000    -0.5912725   -0.4145582  
   0.622968900    -0.6463808   -0.3218762  
   0.624968800    -0.6866723   -0.2223149  
   0.626968700    -0.7117289   -0.1176547  
   0.628968600    -0.7205510   -0.0105212  
   0.630968500    -0.7132790    0.0966272  
   0.632968400    -0.6897546    0.2018695  
   0.634968300    -0.6503527    0.3024797  
   0.636968200    -0.5963983    0.3967151  
   0.638968100    -0.5284023    0.4820683  
   0.640968000    -0.4472463    0.5562832  
   0.642967900    -0.3555994    0.6178197  
   0.644967800    -0.2542761    0.6648695  
   0.646967700    -0.1462934    0.6957722  
   0.648967600    -0.0340565    0.7093492  
   0.650967500     0.0794328    0.7052302  
   0.652967400     0.1919118    0.6829547  
   0.654967300     0.2999601    0.6428942  
   0.656967200     0.4007537    0.5853921  
   0.658967100     0.4915428    0.5116148  
   0.660967000     0.5698479    0.4237055  
   0.662966900     0.6330793    0.3223374  
   0.664966800     0.6791315    0.2114214  
   0.666966700     0.7060208    0.0934917  
   0.668966600     0.7126344   -0.0275799  
   0.670966500     0.6988918   -0.1483060  
   0.672966400     0.6659074   -0.2642106  
   0.674966300     0.6133618   -0.3726176  
   0.676966200     0.5435151   -0.4698987  
   0.678966100     0.4598915   -0.5532455  
   0.680966000     0.3638585   -0.6210203  
   0.682965900     0.2592748   -0.6715944  
   0.684965800     0.1492314   -0.7043162  
   0.686965700     0.0360054   -0.7186080  
   0.688965600    -0.0768041   -0.7147565  
   0.690965500    -0.1859669   -0.6925455  
   0.692965400    -0.2895500   -0.6548080  
   0.694965300    -0.3847750   -0.6019294  
   0.696965200    -0.4701540   -0.5359745  
   0.698965100    -0.5439133   -0.4578262  
   0.700965000    -0.6047109   -0.3700440  
   0.702964900    -0.6513692   -0.2747307  
   0.704964800    -0.6829776   -0.1734780  
   0.706964700    -0.6985784   -0.0689815  
   0.708964600    -0.6985193    0.0372508  
   0.710964500    -0.6825982    0.1425477  
   0.712964400    -0.6501822    0.2441270  
   0.714964300    -0.6020675    0.3398738  
   0.716964200    -0.5399743    0.4270692  
   0.718964100    -0.4646825    0.5039705  
   0.720964000    -0.3781852    0.5681832  
   0.722963900    -0.2822399    0.6181679  
   0.724963800    -0.1791297    0.6523967  
   0.726963700    -0.0711015    0.6697494  
   0.728963600     0.0387165    0.6693628  
   0.730963500     0.1476976    0.6505048  
   0.732963400     0.2519472    0.6143644  
   0.734963300     0.3496242    0.5612778  
   0.736963200     0.4496797    0.4818315  
   0.738963100     0.5332945    0.3847481  
   0.740963000     0.5966415    0.2738797  
   0.742962900     0.6380238    0.1536654  
   0.744962800     0.6559719    0.0287785  
   0.746962700     0.6505062   -0.0960831  
   0.748962600     0.6224949   -0.2172181  
   0.750962500     0.6353012   -0.1193290  
   0.752962400     0.6044018   -0.2378815  
   0.754962300     0.5528616   -0.3479184  
   0.756962200     0.4827407   -0.4462819  
   0.758962100     0.3970636   -0.5298340  
   0.760962000     0.2978596   -0.5968906  
   0.762961900     0.1943329   -0.6434795  
   0.764961800     0.0937011   -0.6705093  
   0.766961700    -0.0093764   -0.6821136  
   0.768961600    -0.1137034   -0.6774715  
   0.770961500    -0.2162769   -0.6572378  
   0.772961400    -0.3142075   -0.6212559  
   0.774961300    -0.4060948   -0.5707679  
   0.776961200    -0.4891677   -0.5062217  
   0.778961100    -0.5615781   -0.4293509  
   0.780961000    -0.6211485   -0.3416689  
   0.782960900    -0.6664134   -0.2452777  
   0.784960800    -0.6962057   -0.1423601  
   0.786960700    -0.7093300   -0.0356422  
   0.788960600    -0.7052475    0.0721844  
   0.790960500    -0.6844680    0.1777841  
   0.792960400    -0.6470839    0.2789642  
   0.794960300    -0.5940166    0.3735242  
   0.796960200    -0.5272028    0.4582457  
   0.798960100    -0.4475955    0.5313362  
   0.800960000    -0.3575380    0.5909665  
   0.802959900    -0.2588671    0.6359566  
   0.804959800    -0.1543405    0.6652194  
   0.806959700    -0.0467230    0.6776356  
   0.808959600     0.0621096    0.6727056  
   0.810959500     0.1691244    0.6506076  
   0.812959400     0.2719250    0.6114579  
   0.814959300     0.3675807    0.5563487  
   0.816959200     0.4536453    0.4865224  
   0.818959100     0.5274848    0.4028902  
   0.820959000     0.5872285    0.3081739  
   0.822958900     0.6308549    0.2044577  
   0.824958800     0.6572546    0.0946797  
   0.826958700     0.6650305   -0.0186489  
   0.828958600     0.6540391   -0.1316513  
   0.830958500     0.6244090   -0.2414021  
   0.832958400     0.5773180   -0.3450177  
   0.834958300     0.5135038   -0.4389267  
   0.836958200     0.4352711   -0.5213159  
   0.838958100     0.3449523   -0.5890802  
   0.840958000     0.2448548   -0.6412616  
   0.842957900     0.1377588   -0.6759802  
   0.844957800     0.0271168   -0.6928370  
   0.846957700    -0.0844413   -0.6916352  
   0.848957600    -0.1936069   -0.6722960  
   0.850957500    -0.2978097   -0.6359629  
   0.852957400    -0.3941146   -0.5839360  
   0.854957300    -0.4806883   -0.5177263  
   0.856957200    -0.5553029   -0.4391800  
   0.858957100    -0.6163131   -0.3507355  
   0.860957000    -0.6623977   -0.2549387  
   0.862956900    -0.6932718   -0.1539644  
   0.864956800    -0.7085316   -0.0504741  
   0.866956700    -0.7076416    0.0530193  
   0.868956600    -0.6916799    0.1550782  
   0.870956500    -0.6608220    0.2533091  
   0.872956400    -0.6158082    0.3461314  
   0.874956300    -0.5574356    0.4313904  
   0.876956200    -0.4867972    0.5074112  
   0.878956100    -0.4046821    0.5725156  
   0.880956000    -0.3135672    0.6247157  
   0.882955900    -0.2148149    0.6632297  
   0.884955800    -0.1108830    0.6862729  
   0.886955700    -0.0038163    0.6930965  
   0.888955600     0.1039717    0.6829269  
   0.890955500     0.2097462    0.6563700  
   0.892955400     0.3107835    0.6130400  
   0.894955300     0.4040015    0.5535226  
