! MS46122B
! 2250307/22442219
! 7/24/2025 12:40:40 PM
! C:\USERS\SPARKY\DOCUMENTS\VNA_DATA\JULY24_2025\295K\PORT6_MOS3.S1P
! CHANNEL.1
! TR.MEASUREMENT
! RAW.DATA
# GHZ S RI R 50.0
! FREQ.GHZ         S11RE         S11IM         
!; PortSelection: Port_1
   0.001000000     1.0455400   -0.0720798  
   0.002999900     0.9635702   -0.1944368  
   0.004999800     0.9025697   -0.2989216  
   0.006999700     0.8346807   -0.3961431  
   0.008999600     0.7547383   -0.4903279  
   0.010999500     0.6600365   -0.5788347  
   0.012999400     0.5453375   -0.6586646  
   0.014999300     0.4053042   -0.7228357  
   0.016999200     0.2349489   -0.7579127  
   0.018999100     0.0333656   -0.7440704  
   0.020999000    -0.1866554   -0.6497913  
   0.022998900    -0.3824204   -0.4443878  
   0.024998800    -0.4595557   -0.1343746  
   0.026998700    -0.3929616    0.2141161  
   0.028998600    -0.1468460    0.4655560  
   0.030998500     0.1612658    0.5558011  
   0.032998400     0.4088123    0.5012441  
   0.034998300     0.6332398    0.3891009  
   0.036998200     0.7599865    0.2391000  
   0.038998100     0.8301330    0.0860373  
   0.040998000     0.8587426   -0.0583311  
   0.042997900     0.8573297   -0.1897335  
   0.044997800     0.8102662   -0.2816563  
   0.046997700     0.7952580   -0.4099944  
   0.048997600     0.7449375   -0.5008415  
   0.050997500     0.6858708   -0.5792924  
   0.052997400     0.6201963   -0.6468238  
   0.054997300     0.5493819   -0.7040200  
   0.056997200     0.4729755   -0.7530739  
   0.058997100     0.3937909   -0.7923427  
   0.060997000     0.3111494   -0.8228469  
   0.062996900     0.2258555   -0.8445609  
   0.064996800     0.1381500   -0.8568344  
   0.066996700     0.0484121   -0.8599136  
   0.068996600    -0.0424989   -0.8526438  
   0.070996500    -0.1342967   -0.8355992  
   0.072996400    -0.2259182   -0.8059134  
   0.074996300    -0.3159866   -0.7643519  
   0.076996200    -0.4033478   -0.7097352  
   0.078996100    -0.4858950   -0.6417719  
   0.080996000    -0.5616243   -0.5593648  
   0.082995900    -0.6276875   -0.4626195  
   0.084995800    -0.6802361   -0.3518346  
   0.086995700    -0.7173164   -0.2287759  
   0.088995600    -0.7338074   -0.0946676  
   0.090995500    -0.7264971    0.0471301  
   0.092995400    -0.6923189    0.1918948  
   0.094995300    -0.6272870    0.3331211  
   0.096995200    -0.5315363    0.4631974  
   0.098995100    -0.4065542    0.5734314  
   0.100995000    -0.2560309    0.6570325  
   0.102994900    -0.0898666    0.7048149  
   0.104994800     0.0834281    0.7141171  
   0.106994700     0.2531888    0.6840806  
   0.108994600     0.4099048    0.6188422  
   0.110994500     0.5456167    0.5236189  
   0.112994400     0.6544250    0.4052700  
   0.114994300     0.7338403    0.2721525  
   0.116994200     0.7833210    0.1317407  
   0.118994100     0.8043541   -0.0093705  
   0.120994000     0.8012610   -0.1460174  
   0.122993900     0.7741547   -0.2742849  
   0.124993800     0.7280256   -0.3909706  
   0.126993700     0.6662754   -0.4951147  
   0.128993600     0.5914804   -0.5841621  
   0.130993500     0.5076036   -0.6594753  
   0.132993400     0.4163112   -0.7202855  
   0.134993300     0.3202612   -0.7666669  
   0.136993200     0.2208675   -0.7986415  
   0.138993100     0.1195703   -0.8167092  
   0.140993000     0.0181939   -0.8214193  
   0.142992900    -0.0825454   -0.8129391  
   0.144992800    -0.1809570   -0.7931930  
   0.146992700    -0.2758190   -0.7592032  
   0.148992600    -0.3660990   -0.7133645  
   0.150992500    -0.4488331   -0.6547177  
   0.152992400    -0.5257181   -0.5857146  
   0.154992300    -0.5934230   -0.5061650  
   0.156992200    -0.6505817   -0.4163320  
   0.158992100    -0.6960671   -0.3177955  
   0.160992000    -0.7277169   -0.2109667  
   0.162991900    -0.7441739   -0.0983921  
   0.164991800    -0.7437797    0.0188422  
   0.166991700    -0.7247404    0.1375678  
   0.168991600    -0.6865559    0.2545581  
   0.170991500    -0.6279963    0.3680725  
   0.172991400    -0.5496046    0.4723459  
   0.174991300    -0.4523722    0.5638734  
   0.176991200    -0.3375403    0.6388754  
   0.178991100    -0.2088408    0.6936023  
   0.180991000    -0.0702250    0.7248991  
   0.182990900     0.0734588    0.7295415  
   0.184990800     0.2172388    0.7067765  
   0.186990700     0.3542230    0.6570932  
   0.188990600     0.4615916    0.5959078  
   0.190990500     0.5844955    0.4893238  
   0.192990400     0.6741028    0.3738316  
   0.194990300     0.7382716    0.2481438  
   0.196990200     0.7778152    0.1160806  
   0.198990100     0.7930465   -0.0179706  
   0.200990000     0.7851085   -0.1504252  
   0.202989900     0.7552425   -0.2765567  
   0.204989800     0.7058892   -0.3923381  
   0.206989700     0.6411857   -0.4971307  
   0.208989600     0.5618058   -0.5872226  
   0.210989500     0.4717671   -0.6622229  
   0.212989400     0.3724798   -0.7217518  
   0.214989300     0.2679023   -0.7650180  
   0.216989200     0.1607277   -0.7916682  
   0.218989100     0.0520864   -0.8025532  
   0.220989000    -0.0559386   -0.7982602  
   0.222988900    -0.1614898   -0.7783337  
   0.224988800    -0.2626314   -0.7440342  
   0.226988700    -0.3576417   -0.6964194  
   0.228988600    -0.4447919   -0.6359136  
   0.230988500    -0.5227554   -0.5637189  
   0.232988400    -0.5893289   -0.4797269  
   0.234988300    -0.6447902   -0.3864954  
   0.236988200    -0.6868390   -0.2851447  
   0.238988100    -0.7136356   -0.1772513  
   0.240988000    -0.7241552   -0.0651996  
   0.242987900    -0.7173097    0.0490175  
   0.244987800    -0.6925058    0.1625362  
   0.246987700    -0.6490423    0.2736847  
   0.248987600    -0.5865910    0.3786405  
   0.250987500    -0.5058998    0.4736750  
   0.252987400    -0.4082584    0.5549228  
   0.254987300    -0.2967346    0.6192263  
   0.256987200    -0.1737929    0.6635250  
   0.258987100    -0.0426792    0.6866894  
   0.260987000     0.0921756    0.6844991  
   0.262986900     0.2261574    0.6571825  
   0.264986800     0.3533262    0.6053041  
   0.266986700     0.4688739    0.5304084  
   0.268986600     0.5680020    0.4360262  
   0.270986500     0.6472043    0.3259131  
   0.272986400     0.7045104    0.2044517  
   0.274986300     0.7384551    0.0763876  
   0.276986200     0.7489253   -0.0537116  
   0.278986100     0.7369512   -0.1817770  
   0.280986000     0.7032093   -0.3033493  
   0.282985900     0.6508999   -0.4153680  
   0.284985800     0.5822389   -0.5153370  
   0.286985700     0.5004829   -0.6006502  
   0.288985600     0.4086103   -0.6701335  
   0.290985500     0.3099937   -0.7235194  
   0.292985400     0.2067448   -0.7609697  
   0.294985300     0.1012268   -0.7825423  
   0.296985200    -0.0050833   -0.7885856  
   0.298985100    -0.1105883   -0.7795028  
   0.300985000    -0.2124155   -0.7561078  
   0.302984900    -0.3093018   -0.7192402  
   0.304984800    -0.3992127   -0.6699728  
   0.306984700    -0.4810525   -0.6092581  
   0.308984600    -0.5532990   -0.5388321  
   0.310984500    -0.6153794   -0.4592698  
   0.312984400    -0.6665056   -0.3717477  
   0.314984300    -0.7054677   -0.2775109  
   0.316984200    -0.7313965   -0.1773589  
   0.318984100    -0.7427384   -0.0723139  
   0.320984000    -0.7384173    0.0357969  
   0.322983900    -0.7172074    0.1443471  
   0.324983800    -0.6781635    0.2489094  
   0.326983700    -0.6213607    0.3463792  
   0.328983600    -0.5489357    0.4324373  
   0.330983500    -0.4642029    0.5044813  
   0.332983400    -0.3712798    0.5607345  
   0.334983300    -0.2724199    0.6018552  
   0.336983200    -0.1702364    0.6287391  
   0.338983100    -0.0652109    0.6414187  
   0.340983000     0.0415423    0.6396320  
   0.342982900     0.1485552    0.6219497  
   0.344982800     0.2536536    0.5874906  
   0.346982700     0.3545014    0.5354117  
   0.348982600     0.4463082    0.4658110  
   0.350982500     0.5269018    0.3812349  
   0.352982400     0.5926976    0.2826737  
   0.354982300     0.6418568    0.1689807  
   0.356982200     0.6705924    0.0359292  
   0.358982100     0.6723725   -0.1005931  
   0.360982000     0.6471466   -0.2343385  
   0.362981900     0.5960649   -0.3603778  
   0.364981800     0.5215641   -0.4738923  
   0.366981700     0.4263214   -0.5701436  
   0.368981600     0.3150167   -0.6459178  
   0.370981500     0.1918601   -0.6984110  
   0.372981400     0.0621059   -0.7264397  
   0.374981300    -0.0700222   -0.7294303  
   0.376981200     0.0407407   -0.7308547  
   0.378981100    -0.0894591   -0.7289879  
   0.380981000    -0.2165104   -0.7034389  
   0.382980900    -0.3253352   -0.6615260  
   0.384980800    -0.4201568   -0.6052461  
   0.386980700    -0.5049414   -0.5355593  
   0.388980600    -0.5778050   -0.4540895  
   0.390980500    -0.6368785   -0.3632342  
   0.392980400    -0.6814882   -0.2653342  
   0.394980300    -0.7106160   -0.1622744  
   0.396980200    -0.7242563   -0.0562195  
   0.398980100    -0.7217679    0.0512622  
   0.400980000    -0.7035811    0.1573739  
   0.402979900    -0.6690733    0.2607054  
   0.404979800    -0.6197088    0.3579623  
   0.406979700    -0.5556009    0.4473974  
   0.408979600    -0.4776461    0.5268248  
   0.410979500    -0.3870091    0.5940859  
   0.412979400    -0.2855797    0.6478843  
   0.414979300    -0.1752440    0.6837475  
   0.416979200    -0.0592095    0.7029245  
   0.418979100     0.0593503    0.7033235  
   0.420979000     0.1773966    0.6837540  
   0.422978900     0.2920987    0.6446729  
   0.424978800     0.3997292    0.5863085  
   0.426978700     0.4965213    0.5099506  
   0.428978600     0.5792449    0.4176135  
   0.430978500     0.6448816    0.3127779  
   0.432978400     0.6917070    0.1983598  
   0.434978300     0.7194591    0.0778785  
   0.436978200     0.7249631   -0.0452900  
   0.438978100     0.7095746   -0.1668345  
   0.440978000     0.6741973   -0.2835030  
   0.442977900     0.6200345   -0.3916259  
   0.444977800     0.5489613   -0.4884529  
   0.446977700     0.4641377   -0.5707871  
   0.448977600     0.3675938   -0.6381544  
   0.450977500     0.2627237   -0.6879669  
   0.452977400     0.1521925   -0.7195367  
   0.454977300     0.0383006   -0.7332395  
   0.456977200    -0.0753732   -0.7286243  
   0.458977100    -0.1857227   -0.7061836  
   0.460977000    -0.2906810   -0.6670890  
   0.462976900    -0.3865779   -0.6128587  
   0.464976800    -0.4728302   -0.5447552  
   0.466976700    -0.5469839   -0.4645121  
   0.468976600    -0.6074534   -0.3742611  
   0.470976500    -0.6535817   -0.2762149  
   0.472976400    -0.6840981   -0.1720798  
   0.474976300    -0.6981359   -0.0645701  
   0.476976200    -0.6950693    0.0437543  
   0.478976100    -0.6753376    0.1507052  
   0.480976000    -0.6395319    0.2531665  
   0.482975900    -0.5876576    0.3493011  
   0.484975800    -0.5207720    0.4364831  
   0.486975700    -0.4400270    0.5127957  
   0.488975600    -0.3474823    0.5756516  
   0.490975500    -0.2446613    0.6230779  
   0.492975400    -0.1342778    0.6524759  
   0.494975300    -0.0197809    0.6634600  
   0.496975200     0.0957686    0.6542623  
   0.498975100     0.2081948    0.6252915  
   0.500975000     0.3136738    0.5769885  
   0.502974900     0.4091350    0.5113268  
   0.504974800     0.4909903    0.4301963  
   0.506974700     0.5568818    0.3364802  
   0.508974600     0.6048480    0.2330896  
   0.510974500     0.6339656    0.1251195  
   0.512974400     0.6442947    0.0157290  
   0.514974300     0.6349929   -0.0905708  
   0.516974200     0.6107517   -0.1915621  
   0.518974100     0.5723155   -0.2854216  
   0.520974000     0.5219520   -0.3701125  
   0.522973900     0.4613348   -0.4457566  
   0.524973800     0.3920451   -0.5108547  
   0.526973700     0.3150479   -0.5658315  
   0.528973600     0.2320082   -0.6101410  
   0.530973500     0.1429231   -0.6431134  
   0.532973400     0.0492999   -0.6637328  
   0.534973300    -0.0473486   -0.6709996  
   0.536973200    -0.1455021   -0.6637722  
   0.538973100    -0.2428201   -0.6418976  
   0.540973000    -0.3363314   -0.6048908  
   0.542972900    -0.4245944   -0.5532748  
   0.544972800    -0.5045372   -0.4875618  
   0.546972700    -0.5739679   -0.4083768  
   0.548972600    -0.6307997   -0.3187953  
   0.550972500    -0.6725243   -0.2201984  
   0.552972400    -0.6980634   -0.1150926  
   0.554972300    -0.7062612   -0.0070074  
   0.556972200    -0.6969629    0.1021080  
   0.558972100    -0.6700661    0.2085871  
   0.560972000    -0.6261966    0.3096024  
   0.562971900    -0.5665954    0.4023405  
   0.564971800    -0.4926647    0.4847014  
   0.566971700    -0.4062625    0.5543119  
   0.568971600    -0.3094497    0.6093407  
   0.570971500    -0.2043543    0.6484625  
   0.572971400    -0.0938022    0.6699505  
   0.574971300     0.0200467    0.6732371  
   0.576971200     0.1339454    0.6575705  
   0.578971100     0.2446859    0.6228115  
   0.580971000     0.3481733    0.5698974  
   0.582970900     0.4423031    0.5001127  
   0.584970800     0.5231073    0.4150457  
   0.586970700     0.5885897    0.3173262  
   0.588970600     0.6363895    0.2101319  
   0.590970500     0.6654355    0.0958693  
   0.592970400     0.6745232   -0.0214579  
   0.594970300     0.6633900   -0.1385825  
   0.596970200     0.6327878   -0.2520230  
   0.598970100     0.5834227   -0.3582029  
   0.600970000     0.5169886   -0.4541084  
   0.602969900     0.4357610   -0.5372658  
   0.604969800     0.3419318   -0.6051958  
   0.606969700     0.2392167   -0.6561891  
   0.608969600     0.1296385   -0.6894729  
   0.610969500     0.0170691   -0.7040398  
   0.612969400    -0.0952077   -0.6998888  
   0.614969300    -0.2043967   -0.6783964  
   0.616969200    -0.3073750   -0.6397846  
   0.618969100    -0.4018872   -0.5863236  
   0.620969000    -0.4859970   -0.5196116  
   0.622968900    -0.5587351   -0.4409086  
   0.624968800    -0.6181925   -0.3526184  
   0.626968700    -0.6638342   -0.2566075  
   0.628968600    -0.6939857   -0.1548113  
   0.630968500    -0.7086092   -0.0498218  
   0.632968400    -0.7074670    0.0558925  
   0.634968300    -0.6900063    0.1608034  
   0.636968200    -0.6570190    0.2618882  
   0.638968100    -0.6089767    0.3572423  
   0.640968000    -0.5468901    0.4447305  
   0.642967900    -0.4717253    0.5222221  
   0.644967800    -0.3851792    0.5877753  
   0.646967700    -0.2887090    0.6396771  
   0.648967600    -0.1850561    0.6759627  
   0.650967500    -0.0763435    0.6959970  
   0.652967400     0.0349736    0.6989109  
   0.654967300     0.1462986    0.6841819  
   0.656967200     0.2542770    0.6514270  
   0.658967100     0.3569776    0.6015390  
   0.660967000     0.4509029    0.5349125  
   0.662966900     0.5337344    0.4532489  
   0.664966800     0.6026323    0.3576220  
   0.666966700     0.6551872    0.2510360  
   0.668966600     0.6892538    0.1369326  
   0.670966500     0.7036398    0.0183026  
   0.672966400     0.6991647   -0.1011250  
   0.674966300     0.6733010   -0.2172938  
   0.676966200     0.6288514   -0.3270969  
   0.678966100     0.5669749   -0.4272653  
   0.680966000     0.4899713   -0.5149554  
   0.682965900     0.3999698   -0.5884227  
   0.684965800     0.3005840   -0.6453478  
   0.686965700     0.1938299   -0.6852267  
   0.688965600     0.0829225   -0.7068388  
   0.690965500    -0.0284651   -0.7096108  
   0.692965400    -0.1375407   -0.6961493  
   0.694965300    -0.2420756   -0.6657751  
   0.696965200    -0.3398063   -0.6202402  
   0.698965100    -0.4285746   -0.5606697  
   0.700965000    -0.5066393   -0.4887060  
   0.702964900    -0.5723500   -0.4060813  
   0.704964800    -0.6248267   -0.3152312  
   0.706964700    -0.6626646   -0.2175795  
   0.708964600    -0.6853052   -0.1151063  
   0.710964500    -0.6927462   -0.0107460  
   0.712964400    -0.6836890    0.0936786  
   0.714964300    -0.6586272    0.1955947  
   0.716964200    -0.6182978    0.2926460  
   0.718964100    -0.5635869    0.3820360  
   0.720964000    -0.4957895    0.4625382  
   0.722963900    -0.4159558    0.5315132  
   0.724963800    -0.3258504    0.5875995  
   0.726963700    -0.2273512    0.6287348  
   0.728963600    -0.1227738    0.6541939  
   0.730963500    -0.0157496    0.6618647  
   0.732963400     0.0923602    0.6523627  
   0.734963300     0.1977796    0.6250702  
   0.736963200     0.3119131    0.5733759  
   0.738963100     0.4152116    0.5007042  
   0.740963000     0.5031696    0.4103490  
   0.742962900     0.5719958    0.3048047  
   0.744962800     0.6198445    0.1892414  
   0.746962700     0.6448011    0.0674578  
   0.748962600     0.6470478   -0.0561820  
   0.750962500     0.6349581    0.0428827  
   0.752962400     0.6335832   -0.0786502  
   0.754962300     0.6102928   -0.1971717  
   0.756962200     0.5664524   -0.3088861  
   0.758962100     0.5035614   -0.4102080  
   0.760962000     0.4238974   -0.4985608  
   0.762961900     0.3349035   -0.5678231  
   0.764961800     0.2444196   -0.6173047  
   0.766961700     0.1475340   -0.6526964  
   0.768961600     0.0462295   -0.6725925  
   0.770961500    -0.0571816   -0.6769034  
   0.772961400    -0.1596182   -0.6653935  
   0.774961300    -0.2596924   -0.6382109  
   0.776961200    -0.3547009   -0.5959408  
   0.778961100    -0.4421942   -0.5389707  
   0.780961000    -0.5201814   -0.4688278  
   0.782960900    -0.5862546   -0.3870661  
   0.784960800    -0.6389077   -0.2952769  
   0.786960700    -0.6764814   -0.1960633  
   0.788960600    -0.6982315   -0.0917527  
   0.790960500    -0.7030673    0.0145809  
   0.792960400    -0.6915541    0.1202993  
   0.794960300    -0.6630658    0.2231639  
   0.796960200    -0.6189862    0.3202990  
   0.798960100    -0.5605177    0.4091836  
   0.800960000    -0.4887305    0.4873421  
   0.802959900    -0.4052996    0.5539101  
   0.804959800    -0.3125820    0.6066490  
   0.806959700    -0.2127177    0.6442900  
   0.808959600    -0.1080760    0.6661175  
   0.810959500    -0.0009591    0.6712564  
   0.812959400     0.1064210    0.6589158  
   0.814959300     0.2109194    0.6300958  
   0.816959200     0.3100080    0.5847175  
   0.818959100     0.4009048    0.5240489  
   0.820959000     0.4814165    0.4489955  
   0.822958900     0.5489043    0.3613670  
   0.824958800     0.6018913    0.2634713  
   0.826958700     0.6382955    0.1577248  
   0.828958600     0.6566029    0.0469047  
   0.830958500     0.6566002   -0.0654688  
   0.832958400     0.6379647   -0.1765717  
   0.834958300     0.6015086   -0.2829891  
   0.836958200     0.5476060   -0.3817303  
   0.838958100     0.4784024   -0.4702213  
   0.840958000     0.3955823   -0.5460790  
   0.842957900     0.3013149   -0.6073013  
   0.844957800     0.1988464   -0.6519068  
   0.846957700     0.0906200   -0.6789181  
   0.848957600    -0.0197257   -0.6878800  
   0.850957500    -0.1297426   -0.6791260  
   0.852957400    -0.2362138   -0.6527712  
   0.854957300    -0.3364618   -0.6098014  
   0.856957200    -0.4281362   -0.5520486  
   0.858957100    -0.5087515   -0.4810952  
   0.860957000    -0.5766622   -0.3993485  
   0.862956900    -0.6310514   -0.3091267  
   0.864956800    -0.6703613   -0.2125724  
   0.866956700    -0.6946142   -0.1123718  
   0.868956600    -0.7029548   -0.0099337  
   0.870956500    -0.6964959    0.0921026  
   0.872956400    -0.6750056    0.1918865  
   0.874956300    -0.6386763    0.2872830  
   0.876956200    -0.5888375    0.3768972  
   0.878956100    -0.5259509    0.4583803  
   0.880956000    -0.4510708    0.5297025  
   0.882955900    -0.3660892    0.5894549  
   0.884955800    -0.2724703    0.6359514  
   0.886955700    -0.1725596    0.6681442  
   0.888955600    -0.0680835    0.6848564  
   0.890955500     0.0383004    0.6850640  
   0.892955400     0.1442783    0.6691481  
   0.894955300     0.2472382    0.6364096  
