! MS46122B
! 2250307/22442219
! 7/26/2025 10:34:28 AM
! C:\USERS\SPARKY\DOCUMENTS\VNA_DATA\JULY26_2025\295K\PORT6_MOS2_REPEAT1.S1P
! CHANNEL.1
! TR.MEASUREMENT
! RAW.DATA
# GHZ S RI R 50.0
! FREQ.GHZ         S11RE         S11IM         
!; PortSelection: Port_1
   0.001000000     1.0458080   -0.0716861  
   0.002999900     0.9641950   -0.1940314  
   0.004999800     0.9033296   -0.2986864  
   0.006999700     0.8357009   -0.3959086  
   0.008999600     0.7558152   -0.4902646  
   0.010999500     0.6614876   -0.5791133  
   0.012999400     0.5470732   -0.6594512  
   0.014999300     0.4074199   -0.7243694  
   0.016999200     0.2375626   -0.7606049  
   0.018999100     0.0356164   -0.7485901  
   0.020999000    -0.1854617   -0.6565808  
   0.022998900    -0.3840793   -0.4534706  
   0.024998800    -0.4657761   -0.1439205  
   0.026998700    -0.4048957    0.2073346  
   0.028998600    -0.1612157    0.4646543  
   0.030998500     0.1482087    0.5606043  
   0.032998400     0.3991569    0.5092416  
   0.034998300     0.6270414    0.3989645  
   0.036998200     0.7568172    0.2491046  
   0.038998100     0.8293684    0.0956538  
   0.040998000     0.8597974   -0.0494170  
   0.042997900     0.8598652   -0.1816979  
   0.044997800     0.8137824   -0.2747935  
   0.046997700     0.7997822   -0.4038021  
   0.048997600     0.7502587   -0.4957328  
   0.050997500     0.6919091   -0.5750059  
   0.052997400     0.6278888   -0.6423001  
   0.054997300     0.5556805   -0.7022736  
   0.056997200     0.4803546   -0.7517391  
   0.058997100     0.4015083   -0.7920108  
   0.060997000     0.3191670   -0.8235647  
   0.062996900     0.2342036   -0.8464279  
   0.064996800     0.1465655   -0.8596937  
   0.066996700     0.0567295   -0.8640650  
   0.068996600    -0.0342704   -0.8580655  
   0.070996500    -0.1261826   -0.8424895  
   0.072996400    -0.2183819   -0.8142817  
   0.074996300    -0.3090309   -0.7741770  
   0.076996200    -0.3971686   -0.7211235  
   0.078996100    -0.4808986   -0.6547529  
   0.080996000    -0.5580322   -0.5739529  
   0.082995900    -0.6260014   -0.4786927  
   0.084995800    -0.6807718   -0.3693229  
   0.086995700    -0.7206061   -0.2472998  
   0.088995600    -0.7402816   -0.1138516  
   0.090995500    -0.7365789    0.0278976  
   0.092995400    -0.7063466    0.1733870  
   0.094995300    -0.6454154    0.3162700  
   0.096995200    -0.5537256    0.4490788  
   0.098995100    -0.4319567    0.5632020  
   0.100995000    -0.2840968    0.6518018  
   0.102994900    -0.1192895    0.7052352  
   0.104994800     0.0541691    0.7205638  
   0.106994700     0.2256938    0.6962637  
   0.108994600     0.3854459    0.6361539  
   0.110994500     0.5251255    0.5450745  
   0.112994400     0.6389106    0.4299481  
   0.114994300     0.7234806    0.2986363  
   0.116994200     0.7782776    0.1587902  
   0.118994100     0.8044359    0.0174005  
   0.120994000     0.8057680   -0.1203910  
   0.122993900     0.7826035   -0.2503402  
   0.124993800     0.7399001   -0.3697065  
   0.126993700     0.6811053   -0.4765343  
   0.128993600     0.6087087   -0.5686395  
   0.130993500     0.5267122   -0.6469907  
   0.132993400     0.4369313   -0.7110661  
   0.134993300     0.3418003   -0.7606916  
   0.136993200     0.2428490   -0.7960046  
   0.138993100     0.1415155   -0.8174878  
   0.140993000     0.0400355   -0.8253624  
   0.142992900    -0.0612470   -0.8200465  
   0.144992800    -0.1602379   -0.8032606  
   0.146992700    -0.2564721   -0.7723765  
   0.148992600    -0.3484726   -0.7294503  
   0.150992500    -0.4333734   -0.6735161  
   0.152992400    -0.5122828   -0.6070704  
   0.154992300    -0.5827643   -0.5300522  
   0.156992200    -0.6431969   -0.4424593  
   0.158992100    -0.6921034   -0.3455891  
   0.160992000    -0.7277091   -0.2404566  
   0.162991900    -0.7484723   -0.1284146  
   0.164991800    -0.7525769   -0.0114635  
   0.166991700    -0.7384747    0.1075276  
   0.168991600    -0.7052174    0.2261362  
   0.170991500    -0.6518096    0.3415189  
   0.172991400    -0.5785640    0.4488844  
   0.174991300    -0.4858063    0.5446969  
   0.176991200    -0.3748580    0.6248883  
   0.178991100    -0.2491304    0.6856554  
   0.180991000    -0.1126668    0.7238570  
   0.182990900     0.0306246    0.7358919  
   0.184990800     0.1753258    0.7207819  
   0.186990700     0.3151350    0.6785553  
   0.188990600     0.4255584    0.6229916  
   0.190990500     0.5545267    0.5233632  
   0.192990400     0.6508030    0.4126205  
   0.194990300     0.7222759    0.2902629  
   0.196990200     0.7694061    0.1599434  
   0.198990100     0.7925056    0.0259014  
   0.200990000     0.7918085   -0.1070708  
   0.202989900     0.7689332   -0.2355212  
   0.204989800     0.7260308   -0.3549681  
   0.206989700     0.6669430   -0.4639014  
   0.208989600     0.5923920   -0.5586538  
   0.210989500     0.5056704   -0.6391671  
   0.212989400     0.4096657   -0.7046453  
   0.214989300     0.3070788   -0.7536852  
   0.216989200     0.2005914   -0.7867011  
   0.218989100     0.0924104   -0.8036869  
   0.220989000    -0.0161150   -0.8053869  
   0.222988900    -0.1232192   -0.7913808  
   0.224988800    -0.2266890   -0.7628704  
   0.226988700    -0.3242325   -0.7204463  
   0.228988600    -0.4149420   -0.6650575  
   0.230988500    -0.4971939   -0.5973115  
   0.232988400    -0.5683891   -0.5173436  
   0.234988300    -0.6293705   -0.4276658  
   0.236988200    -0.6771426   -0.3292540  
   0.238988100    -0.7107543   -0.2233480  
   0.240988000    -0.7283327   -0.1126520  
   0.242987900    -0.7289997    0.0013433  
   0.244987800    -0.7116696    0.1160538  
   0.246987700    -0.6759678    0.2293052  
   0.248987600    -0.6212823    0.3376741  
   0.250987500    -0.5476649    0.4377168  
   0.252987400    -0.4566625    0.5254901  
   0.254987300    -0.3506502    0.5974285  
   0.256987200    -0.2319304    0.6508078  
   0.258987100    -0.1035973    0.6840215  
   0.260987000     0.0306479    0.6925101  
   0.262986900     0.1661103    0.6760747  
   0.264986800     0.2970226    0.6349078  
   0.266986700     0.4178863    0.5699084  
   0.268986600     0.5248781    0.4838037  
   0.270986500     0.6131786    0.3805158  
   0.272986400     0.6808231    0.2636468  
   0.274986300     0.7256302    0.1382882  
   0.276986200     0.7470136    0.0086026  
   0.278986100     0.7455698   -0.1205537  
   0.280986000     0.7216327   -0.2454588  
   0.282985900     0.6782559   -0.3624964  
   0.284985800     0.6172568   -0.4683852  
   0.286985700     0.5419435   -0.5609326  
   0.288985600     0.4551377   -0.6380402  
   0.290985500     0.3599766   -0.6994451  
   0.292985400     0.2590995   -0.7449005  
   0.294985300     0.1546154   -0.7746969  
   0.296985200     0.0481594   -0.7888346  
   0.298985100    -0.0579707   -0.7877091  
   0.300985000    -0.1621559   -0.7717529  
   0.302984900    -0.2618629   -0.7420538  
   0.304984800    -0.3553980   -0.6992484  
   0.306984700    -0.4416584   -0.6447636  
   0.308984600    -0.5189797   -0.5796233  
   0.310984500    -0.5868401   -0.5051854  
   0.312984400    -0.6440778   -0.4219689  
   0.314984300    -0.6902577   -0.3312401  
   0.316984200    -0.7239330   -0.2343288  
   0.318984100    -0.7438871   -0.1313307  
   0.320984000    -0.7488229   -0.0238471  
   0.322983900    -0.7374983    0.0848861  
   0.324983800    -0.7084135    0.1921190  
   0.326983700    -0.6618741    0.2942994  
   0.328983600    -0.5982209    0.3873973  
   0.330983500    -0.5209255    0.4679678  
   0.332983400    -0.4331904    0.5337598  
   0.334983300    -0.3379284    0.5848527  
   0.336983200    -0.2374264    0.6217520  
   0.338983100    -0.1329522    0.6442094  
   0.340983000    -0.0257230    0.6519986  
   0.342982900     0.0828392    0.6440841  
   0.344982800     0.1911617    0.6194696  
   0.346982700     0.2965179    0.5772632  
   0.348982600     0.3944654    0.5168522  
   0.350982500     0.4830420    0.4404348  
   0.352982400     0.5584464    0.3491845  
   0.354982300     0.6191091    0.2412025  
   0.356982200     0.6616876    0.1118234  
   0.358982100     0.6779345   -0.0237557  
   0.360982000     0.6672405   -0.1592781  
   0.362981900     0.6302925   -0.2902727  
   0.364981800     0.5683618   -0.4114108  
   0.366981700     0.4845007   -0.5179809  
   0.368981600     0.3818695   -0.6057199  
   0.370981500     0.2651097   -0.6717931  
   0.372981400     0.1385394   -0.7142245  
   0.374981300     0.0068839   -0.7318406  
   0.376981200     0.1165229   -0.7217721  
   0.378981100    -0.0137216   -0.7342999  
   0.380981000    -0.1432234   -0.7228068  
   0.382980900    -0.2561848   -0.6923540  
   0.384980800    -0.3570998   -0.6471471  
   0.386980700    -0.4490369   -0.5867705  
   0.388980600    -0.5308363   -0.5133707  
   0.390980500    -0.5995145   -0.4293742  
   0.392980400    -0.6542922   -0.3368155  
   0.394980300    -0.6946046   -0.2376435  
   0.396980200    -0.7196494   -0.1337509  
   0.398980100    -0.7291938   -0.0270710  
   0.400980000    -0.7227097    0.0802778  
   0.402979900    -0.7001393    0.1860003  
   0.404979800    -0.6621417    0.2877599  
   0.406979700    -0.6087163    0.3832589  
   0.408979600    -0.5410747    0.4703374  
   0.410979500    -0.4598582    0.5472801  
   0.412979400    -0.3659742    0.6119062  
   0.414979300    -0.2618749    0.6602248  
   0.416979200    -0.1503872    0.6931129  
   0.418979100    -0.0339600    0.7078797  
   0.420979000     0.0845625    0.7037617  
   0.422978900     0.2022662    0.6797993  
   0.424978800     0.3152952    0.6362631  
   0.426978700     0.4204164    0.5739444  
   0.428978600     0.5140714    0.4943984  
   0.430978500     0.5929356    0.3998384  
   0.432978400     0.6547641    0.2933837  
   0.434978300     0.6986248    0.1784170  
   0.436978200     0.7211047    0.0576967  
   0.438978100     0.7230018   -0.0647162  
   0.440978000     0.7042373   -0.1851700  
   0.442977900     0.6661826   -0.2998812  
   0.444977800     0.6096755   -0.4057767  
   0.446977700     0.5368307   -0.4999536  
   0.448977600     0.4508313   -0.5801756  
   0.450977500     0.3538286   -0.6446131  
   0.452977400     0.2483220   -0.6921252  
   0.454977300     0.1372310   -0.7215784  
   0.456977200     0.0237032   -0.7332279  
   0.458977100    -0.0895176   -0.7266159  
   0.460977000    -0.1987943   -0.7026082  
   0.462976900    -0.3020986   -0.6623556  
   0.464976800    -0.3970496   -0.6068558  
   0.466976700    -0.4819667   -0.5379743  
   0.468976600    -0.5548191   -0.4573348  
   0.470976500    -0.6140982   -0.3664984  
   0.472976400    -0.6590906   -0.2681716  
   0.474976300    -0.6883212   -0.1641534  
   0.476976200    -0.7011676   -0.0569806  
   0.478976100    -0.6972678    0.0511181  
   0.480976000    -0.6767291    0.1571268  
   0.482975900    -0.6401141    0.2588169  
   0.484975800    -0.5876813    0.3543613  
   0.486975700    -0.5201088    0.4411090  
   0.488975600    -0.4389869    0.5167113  
   0.490975500    -0.3460056    0.5788271  
   0.492975400    -0.2428991    0.6250778  
   0.494975300    -0.1326060    0.6536450  
   0.496975200    -0.0182421    0.6635564  
   0.498975100     0.0964246    0.6535218  
   0.500975000     0.2077583    0.6236918  
   0.502974900     0.3119025    0.5747660  
   0.504974800     0.4058880    0.5091135  
   0.506974700     0.4864641    0.4281356  
   0.508974600     0.5511483    0.3346347  
   0.510974500     0.5977852    0.2326438  
   0.512974400     0.6263539    0.1265436  
   0.514974300     0.6349027    0.0199024  
   0.516974200     0.6275262   -0.0841025  
   0.518974100     0.6046647   -0.1827366  
   0.520974000     0.5685544   -0.2748579  
   0.522973900     0.5207986   -0.3591867  
   0.524973800     0.4628974   -0.4342318  
   0.526973700     0.3960690   -0.5007786  
   0.528973600     0.3212122   -0.5570140  
   0.530973500     0.2394225   -0.6035666  
   0.532973400     0.1514573   -0.6386983  
   0.534973300     0.0584508   -0.6612448  
   0.536973200    -0.0385915   -0.6707608  
   0.538973100    -0.1369988   -0.6652815  
   0.540973000    -0.2344131   -0.6450869  
   0.542972900    -0.3290234   -0.6095872  
   0.544972800    -0.4181024   -0.5592000  
   0.546972700    -0.4994682   -0.4943569  
   0.548972600    -0.5703166   -0.4163459  
   0.550972500    -0.6280644   -0.3277302  
   0.552972400    -0.6713669   -0.2297985  
   0.554972300    -0.6984648   -0.1254245  
   0.556972200    -0.7084030   -0.0177632  
   0.558972100    -0.7010225    0.0910824  
   0.560972000    -0.6762388    0.1973478  
   0.562971900    -0.6345745    0.2985185  
   0.564971800    -0.5773898    0.3917344  
   0.566971700    -0.5056161    0.4751724  
   0.568971600    -0.4213751    0.5462298  
   0.570971500    -0.3263564    0.6032003  
   0.572971400    -0.2225504    0.6446089  
   0.574971300    -0.1128582    0.6686386  
   0.576971200     0.0006282    0.6746189  
   0.578971100     0.1143377    0.6617689  
   0.580971000     0.2252073    0.6299868  
   0.582970900     0.3292660    0.5801222  
   0.584970800     0.4243282    0.5135062  
   0.586970700     0.5066202    0.4315723  
   0.588970600     0.5744773    0.3362892  
   0.590970500     0.6249636    0.2315582  
   0.592970400     0.6572644    0.1189419  
   0.594970300     0.6698950    0.0025499  
   0.596970200     0.6624525   -0.1138445  
   0.598970100     0.6357050   -0.2274155  
   0.600970000     0.5900179   -0.3345101  
   0.602969900     0.5272973   -0.4319012  
   0.604969800     0.4492912   -0.5172876  
   0.606969700     0.3584850   -0.5878674  
   0.608969600     0.2579054   -0.6420826  
   0.610969500     0.1500136   -0.6789324  
   0.612969400     0.0387375   -0.6971158  
   0.614969300    -0.0728261   -0.6967968  
   0.616969200    -0.1816699   -0.6790006  
   0.618969100    -0.2850931   -0.6445783  
   0.620969000    -0.3806257   -0.5950460  
   0.622968900    -0.4670045   -0.5312955  
   0.624968800    -0.5420946   -0.4557336  
   0.626968700    -0.6047378   -0.3698771  
   0.628968600    -0.6533016   -0.2755907  
   0.630968500    -0.6867803   -0.1753263  
   0.632968400    -0.7048982   -0.0714024  
   0.634968300    -0.7071502    0.0343966  
   0.636968200    -0.6933680    0.1390124  
   0.638968100    -0.6638215    0.2406996  
   0.640968000    -0.6191474    0.3373655  
   0.642967900    -0.5602520    0.4261385  
   0.644967800    -0.4880701    0.5054901  
   0.646967700    -0.4042880    0.5735627  
   0.648967600    -0.3103845    0.6280611  
   0.650967500    -0.2088422    0.6674974  
   0.652967400    -0.1019283    0.6909703  
   0.654967300     0.0083363    0.6976182  
   0.656967200     0.1188646    0.6869850  
   0.658967100     0.2272813    0.6582534  
   0.660967000     0.3306437    0.6124344  
   0.662966900     0.4267138    0.5494599  
   0.664966800     0.5118520    0.4713743  
   0.666966700     0.5838875    0.3788682  
   0.668966600     0.6397943    0.2752381  
   0.670966500     0.6777027    0.1634298  
   0.672966400     0.6977469    0.0467493  
   0.674966300     0.6967521   -0.0713305  
   0.676966200     0.6758477   -0.1873652  
   0.678966100     0.6362725   -0.2974461  
   0.680966000     0.5791561   -0.3990758  
   0.682965900     0.5065818   -0.4892151  
   0.684965800     0.4210407   -0.5658103  
   0.686965700     0.3247116   -0.6266726  
   0.688965600     0.2207165   -0.6709844  
   0.690965500     0.1117787   -0.6965243  
   0.692965400     0.0017262   -0.7051305  
   0.694965300    -0.1071363   -0.6966274  
   0.696965200    -0.2123129   -0.6713690  
   0.698965100    -0.3115046   -0.6307962  
   0.700965000    -0.4025007   -0.5757314  
   0.702964900    -0.4832720   -0.5079814  
   0.704964800    -0.5525199   -0.4289192  
   0.706964700    -0.6089126   -0.3410856  
   0.708964600    -0.6510660   -0.2455529  
   0.710964500    -0.6790475   -0.1450553  
   0.712964400    -0.6906199   -0.0418639  
   0.714964300    -0.6866035    0.0623634  
   0.716964200    -0.6666259    0.1642665  
   0.718964100    -0.6314710    0.2623245  
   0.720964000    -0.5817826    0.3534639  
   0.722963900    -0.5186433    0.4366472  
   0.724963800    -0.4431535    0.5088915  
   0.726963700    -0.3566200    0.5690500  
   0.728963600    -0.2611982    0.6148417  
   0.730963500    -0.1590182    0.6450414  
   0.732963400    -0.0534449    0.6585448  
   0.734963300     0.0543926    0.6548172  
   0.736963200     0.1757689    0.6290707  
   0.738963100     0.2912430    0.5810608  
   0.740963000     0.3959989    0.5122206  
   0.742962900     0.4856326    0.4254433  
   0.744962800     0.5572870    0.3232472  
   0.746962700     0.6082090    0.2103334  
   0.748962600     0.6374812    0.0902744  
   0.750962500     0.6024229    0.1856430  
   0.752962400     0.6275271    0.0670367  
   0.754962300     0.6307701   -0.0536478  
   0.756962200     0.6120745   -0.1719337  
   0.758962100     0.5728030   -0.2840543  
   0.760962000     0.5141969   -0.3870893  
   0.762961900     0.4424890   -0.4735790  
   0.764961800     0.3650575   -0.5410480  
   0.766961700     0.2783646   -0.5956883  
   0.768961600     0.1842600   -0.6369044  
   0.770961500     0.0851034   -0.6628832  
   0.772961400    -0.0172501   -0.6735545  
   0.774961300    -0.1195421   -0.6685063  
   0.776961200    -0.2207683   -0.6476684  
   0.778961100    -0.3176718   -0.6114177  
   0.780961000    -0.4085275   -0.5601608  
   0.782960900    -0.4902623   -0.4952008  
   0.784960800    -0.5612483   -0.4176269  
   0.786960700    -0.6192567   -0.3296730  
   0.788960600    -0.6626917   -0.2334495  
   0.790960500    -0.6906924   -0.1312154  
   0.792960400    -0.7021637   -0.0260710  
   0.794960300    -0.6972460    0.0797917  
   0.796960200    -0.6756079    0.1834647  
   0.798960100    -0.6381203    0.2823035  
   0.800960000    -0.5858004    0.3740890  
   0.802959900    -0.5195355    0.4567777  
   0.804959800    -0.4411810    0.5278429  
   0.806959700    -0.3529412    0.5864179  
   0.808959600    -0.2560597    0.6302492  
   0.810959500    -0.1537750    0.6586277  
   0.812959400    -0.0474390    0.6707441  
   0.814959300     0.0597383    0.6657880  
   0.816959200     0.1652206    0.6442085  
   0.818959100     0.2664885    0.6058953  
   0.820959000     0.3609442    0.5516533  
   0.822958900     0.4458741    0.4826943  
   0.824958800     0.5188262    0.4003486  
   0.826958700     0.5780065    0.3069164  
   0.828958600     0.6212633    0.2045226  
   0.830958500     0.6470658    0.0962604  
   0.832958400     0.6549361   -0.0151629  
   0.834958300     0.6443088   -0.1260805  
   0.836958200     0.6155048   -0.2339276  
   0.838958100     0.5692080   -0.3357354  
   0.840958000     0.5069469   -0.4283238  
   0.842957900     0.4301702   -0.5096239  
   0.844957800     0.3412246   -0.5769182  
   0.846957700     0.2427310   -0.6286148  
   0.848957600     0.1372456   -0.6631061  
   0.850957500     0.0285387   -0.6798976  
   0.852957400    -0.0813831   -0.6790235  
   0.854957300    -0.1888385   -0.6605106  
   0.856957200    -0.2913429   -0.6250511  
   0.858957100    -0.3863484   -0.5743752  
   0.860957000    -0.4712472   -0.5099442  
   0.862956900    -0.5442950   -0.4340566  
   0.864956800    -0.6044993   -0.3488191  
   0.866956700    -0.6507233   -0.2558926  
   0.868956600    -0.6814395   -0.1579352  
   0.870956500    -0.6978552   -0.0569394  
   0.872956400    -0.6988267    0.0448545  
   0.874956300    -0.6845947    0.1455759  
   0.876956200    -0.6552859    0.2434527  
   0.878956100    -0.6120980    0.3361129  
   0.880956000    -0.5553496    0.4215080  
   0.882955900    -0.4859217    0.4975772  
   0.884955800    -0.4059902    0.5630057  
   0.886955700    -0.3164903    0.6158773  
   0.888955600    -0.2196789    0.6549543  
   0.890955500    -0.1173522    0.6788765  
   0.892955400    -0.0120246    0.6867152  
   0.894955300     0.0939452    0.6785515  
