! MS46122B
! 2250307/22442219
! 7/26/2025 10:23:28 AM
! C:\USERS\SPARKY\DOCUMENTS\VNA_DATA\JULY26_2025\295K\PORT2_MOS4.S1P
! CHANNEL.1
! TR.MEASUREMENT
! RAW.DATA
# GHZ S RI R 50.0
! FREQ.GHZ         S11RE         S11IM         
!; PortSelection: Port_1
   0.001000000     1.0459630   -0.0716390  
   0.002999900     0.9641075   -0.1941584  
   0.004999800     0.9032624   -0.2988617  
   0.006999700     0.8354386   -0.3961625  
   0.008999600     0.7555731   -0.4906761  
   0.010999500     0.6609267   -0.5797238  
   0.012999400     0.5459978   -0.6601901  
   0.014999300     0.4053442   -0.7251981  
   0.016999200     0.2340056   -0.7610270  
   0.018999100     0.0300829   -0.7474515  
   0.020999000    -0.1928823   -0.6518375  
   0.022998900    -0.3911370   -0.4423522  
   0.024998800    -0.4671436   -0.1261649  
   0.026998700    -0.3942156    0.2276840  
   0.028998600    -0.1395948    0.4780354  
   0.030998500     0.1737228    0.5624229  
   0.032998400     0.4215086    0.5017591  
   0.034998300     0.6445110    0.3845456  
   0.036998200     0.7683564    0.2321340  
   0.038998100     0.8359256    0.0777989  
   0.040998000     0.8622987   -0.0669155  
   0.042997900     0.8591645   -0.1983730  
   0.044997800     0.8108595   -0.2898982  
   0.046997700     0.7945400   -0.4183865  
   0.048997600     0.7431701   -0.5086761  
   0.050997500     0.6832998   -0.5867168  
   0.052997400     0.6172952   -0.6534091  
   0.054997300     0.5448260   -0.7113291  
   0.056997200     0.4682282   -0.7596010  
   0.058997100     0.3883436   -0.7985773  
   0.060997000     0.3049960   -0.8288680  
   0.062996900     0.2188658   -0.8500365  
   0.064996800     0.1303880   -0.8618490  
   0.066996700     0.0397844   -0.8642994  
   0.068996600    -0.0519726   -0.8562768  
   0.070996500    -0.1448792   -0.8383256  
   0.072996400    -0.2372397   -0.8075147  
   0.074996300    -0.3281312   -0.7645255  
   0.076996200    -0.4163316   -0.7082174  
   0.078996100    -0.4993208   -0.6381824  
   0.080996000    -0.5753993   -0.5533422  
   0.082995900    -0.6411197   -0.4538297  
   0.084995800    -0.6927693   -0.3401082  
   0.086995700    -0.7282648   -0.2138279  
   0.088995600    -0.7423910   -0.0764461  
   0.090995500    -0.7314193    0.0678815  
   0.092995400    -0.6925705    0.2147820  
   0.094995300    -0.6220803    0.3569216  
   0.096995200    -0.5200365    0.4864664  
   0.098995100    -0.3888505    0.5942107  
   0.100995000    -0.2327988    0.6736364  
   0.102994900    -0.0623592    0.7155131  
   0.104994800     0.1134467    0.7177424  
   0.106994700     0.2834814    0.6800722  
   0.108994600     0.4384612    0.6077459  
   0.110994500     0.5706689    0.5062258  
   0.112994400     0.6748102    0.3829353  
   0.114994300     0.7488027    0.2463465  
   0.116994200     0.7927107    0.1041084  
   0.118994100     0.8082367   -0.0376565  
   0.120994000     0.8001157   -0.1739617  
   0.122993900     0.7684042   -0.3010156  
   0.124993800     0.7184274   -0.4160587  
   0.126993700     0.6533791   -0.5177430  
   0.128993600     0.5756420   -0.6046085  
   0.130993500     0.4896089   -0.6770843  
   0.132993400     0.3963497   -0.7353891  
   0.134993300     0.2988058   -0.7790406  
   0.136993200     0.1980992   -0.8082617  
   0.138993100     0.0956887   -0.8237272  
   0.140993000    -0.0063681   -0.8255967  
   0.142992900    -0.1075918   -0.8142432  
   0.144992800    -0.2061633   -0.7914099  
   0.146992700    -0.3009321   -0.7543992  
   0.148992600    -0.3910178   -0.7053096  
   0.150992500    -0.4733076   -0.6434149  
   0.152992400    -0.5488902   -0.5711039  
   0.154992300    -0.6151236   -0.4881166  
   0.156992200    -0.6702651   -0.3948178  
   0.158992100    -0.7131730   -0.2928993  
   0.160992000    -0.7414609   -0.1828697  
   0.162991900    -0.7539538   -0.0672346  
   0.164991800    -0.7485418    0.0522328  
   0.166991700    -0.7239881    0.1725978  
   0.168991600    -0.6794049    0.2908174  
   0.170991500    -0.6141678    0.4035209  
   0.172991400    -0.5288697    0.5060111  
   0.174991300    -0.4246167    0.5942317  
   0.176991200    -0.3033369    0.6643203  
   0.178991100    -0.1692882    0.7122383  
   0.180991000    -0.0265757    0.7357991  
   0.182990900     0.1194566    0.7312924  
   0.184990800     0.2635313    0.6990604  
   0.186990700     0.3988211    0.6400787  
   0.188990600     0.5029708    0.5712736  
   0.190990500     0.6194226    0.4558730  
   0.192990400     0.7018163    0.3341722  
   0.194990300     0.7578288    0.2043076  
   0.196990200     0.7892191    0.0693776  
   0.198990100     0.7956170   -0.0655338  
   0.200990000     0.7794449   -0.1973838  
   0.202989900     0.7418403   -0.3212517  
   0.204989800     0.6858676   -0.4342542  
   0.206989700     0.6150674   -0.5347075  
   0.208989600     0.5308443   -0.6198109  
   0.210989500     0.4362786   -0.6899669  
   0.212989400     0.3338620   -0.7436984  
   0.214989300     0.2267977   -0.7811472  
   0.216989200     0.1176469   -0.8021044  
   0.218989100     0.0083235   -0.8072884  
   0.220989000    -0.0999545   -0.7968529  
   0.222988900    -0.2051502   -0.7708734  
   0.224988800    -0.3054109   -0.7308173  
   0.226988700    -0.3988543   -0.6772273  
   0.228988600    -0.4834318   -0.6113312  
   0.230988500    -0.5583020   -0.5335031  
   0.232988400    -0.6208478   -0.4439560  
   0.234988300    -0.6714345   -0.3460810  
   0.236988200    -0.7079064   -0.2400822  
   0.238988100    -0.7282298   -0.1286373  
   0.240988000    -0.7312717   -0.0134898  
   0.242987900    -0.7162939    0.1026804  
   0.244987800    -0.6827159    0.2171762  
   0.246987700    -0.6298026    0.3272552  
   0.248987600    -0.5576677    0.4295801  
   0.250987500    -0.4671236    0.5200898  
   0.252987400    -0.3609053    0.5946385  
   0.254987300    -0.2416772    0.6505239  
   0.256987200    -0.1122695    0.6846447  
   0.258987100     0.0232413    0.6961045  
   0.260987000     0.1597887    0.6810950  
   0.262986900     0.2923460    0.6409380  
   0.264986800     0.4157002    0.5761846  
   0.266986700     0.5247961    0.4896791  
   0.268986600     0.6151715    0.3851490  
   0.270986500     0.6840195    0.2672500  
   0.272986400     0.7296250    0.1403931  
   0.274986300     0.7514271    0.0094973  
   0.276986200     0.7500980   -0.1207603  
   0.278986100     0.7262353   -0.2473155  
   0.280986000     0.6821033   -0.3650368  
   0.282985900     0.6202292   -0.4721122  
   0.284985800     0.5437483   -0.5655559  
   0.286985700     0.4553887   -0.6436332  
   0.288985600     0.3582469   -0.7053989  
   0.290985500     0.2558425   -0.7506902  
   0.292985400     0.1500017   -0.7799923  
   0.294985300     0.0429625   -0.7934738  
   0.296985200    -0.0639147   -0.7914419  
   0.298985100    -0.1689424   -0.7744385  
   0.300985000    -0.2698224   -0.7433718  
   0.302984900    -0.3642734   -0.6989218  
   0.304984800    -0.4512737   -0.6424872  
   0.306984700    -0.5293371   -0.5747332  
   0.308984600    -0.5972430   -0.4974199  
   0.310984500    -0.6538177   -0.4121623  
   0.312984400    -0.6989284   -0.3186451  
   0.314984300    -0.7308034   -0.2191350  
   0.316984200    -0.7482760   -0.1145700  
   0.318984100    -0.7504251   -0.0055779  
   0.320984000    -0.7355188    0.1042168  
   0.322983900    -0.7024046    0.2130774  
   0.324983800    -0.6510887    0.3159027  
   0.326983700    -0.5822448    0.4082712  
   0.328983600    -0.4989741    0.4870587  
   0.330983500    -0.4052379    0.5492459  
   0.332983400    -0.3058285    0.5943682  
   0.334983300    -0.2028785    0.6244052  
   0.336983200    -0.0983851    0.6399246  
   0.338983100     0.0077102    0.6415068  
   0.340983000     0.1138976    0.6283076  
   0.342982900     0.2191961    0.5992073  
   0.344982800     0.3209817    0.5533013  
   0.346982700     0.4163263    0.4902677  
   0.348982600     0.5006315    0.4098034  
   0.350982500     0.5720267    0.3158518  
   0.352982400     0.6265504    0.2094923  
   0.354982300     0.6624170    0.0896572  
   0.356982200     0.6753991   -0.0472177  
   0.358982100     0.6607533   -0.1838106  
   0.360982000     0.6193017   -0.3145225  
   0.362981900     0.5533135   -0.4342978  
   0.364981800     0.4649665   -0.5386001  
   0.366981700     0.3582761   -0.6233625  
   0.368981600     0.2381737   -0.6853166  
   0.370981500     0.1090044   -0.7231208  
   0.372981400    -0.0238671   -0.7355100  
   0.374981300    -0.1560756   -0.7224272  
   0.376981200    -0.0444331   -0.7377954  
   0.378981100    -0.1746975   -0.7205539  
   0.380981000    -0.2989828   -0.6806947  
   0.382980900    -0.4029253   -0.6256034  
   0.384980800    -0.4919019   -0.5582575  
   0.386980700    -0.5688320   -0.4783658  
   0.388980600    -0.6328329   -0.3875794  
   0.390980500    -0.6818796   -0.2893427  
   0.392980400    -0.7150604   -0.1850757  
   0.394980300    -0.7323157   -0.0772106  
   0.396980200    -0.7332838    0.0319235  
   0.398980100    -0.7178999    0.1407167  
   0.400980000    -0.6860428    0.2465259  
   0.402979900    -0.6382533    0.3470112  
   0.404979800    -0.5753707    0.4396712  
   0.406979700    -0.4979721    0.5224335  
   0.408979600    -0.4081326    0.5926915  
   0.410979500    -0.3065713    0.6494794  
   0.412979400    -0.1957194    0.6898054  
   0.414979300    -0.0781774    0.7106025  
   0.416979200     0.0423050    0.7135323  
   0.418979100     0.1628679    0.6961681  
   0.420979000     0.2798228    0.6588361  
   0.422978900     0.3901483    0.6017312  
   0.424978800     0.4898112    0.5260954  
   0.426978700     0.5754861    0.4338928  
   0.428978600     0.6441660    0.3280797  
   0.430978500     0.6937106    0.2121613  
   0.432978400     0.7223936    0.0899354  
   0.434978300     0.7307205   -0.0351534  
   0.436978200     0.7166385   -0.1586123  
   0.438978100     0.6819234   -0.2776653  
   0.440978000     0.6280289   -0.3880606  
   0.442977900     0.5568427   -0.4869328  
   0.444977800     0.4711062   -0.5716429  
   0.446977700     0.3736688   -0.6405799  
   0.448977600     0.2676611   -0.6919443  
   0.450977500     0.1557709   -0.7246996  
   0.452977400     0.0410223   -0.7392429  
   0.454977300    -0.0742245   -0.7351551  
   0.456977200    -0.1863861   -0.7131454  
   0.458977100    -0.2932521   -0.6739590  
   0.460977000    -0.3915625   -0.6188924  
   0.462976900    -0.4793573   -0.5499488  
   0.464976800    -0.5550765   -0.4683131  
   0.466976700    -0.6168909   -0.3766014  
   0.468976600    -0.6638464   -0.2765154  
   0.470976500    -0.6947275   -0.1702358  
   0.472976400    -0.7087860   -0.0605179  
   0.474976300    -0.7055159    0.0500820  
   0.476976200    -0.6846008    0.1594332  
   0.478976100    -0.6471511    0.2643515  
   0.480976000    -0.5933910    0.3623133  
   0.482975900    -0.5240136    0.4509315  
   0.484975800    -0.4408362    0.5278007  
   0.486975700    -0.3454554    0.5908425  
   0.488975600    -0.2398776    0.6377286  
   0.490975500    -0.1269326    0.6666384  
   0.492975400    -0.0096985    0.6759016  
   0.494975300     0.1079644    0.6649820  
   0.496975200     0.2227066    0.6333735  
   0.498975100     0.3299027    0.5825051  
   0.500975000     0.4265323    0.5133392  
   0.502974900     0.5088500    0.4290382  
   0.504974800     0.5744830    0.3319493  
   0.506974700     0.6217069    0.2256880  
   0.508974600     0.6495211    0.1140443  
   0.510974500     0.6574280    0.0013879  
   0.512974400     0.6464961   -0.1088583  
   0.514974300     0.6175091   -0.2119617  
   0.516974200     0.5746365   -0.3078031  
   0.518974100     0.5194645   -0.3933259  
   0.520974000     0.4541028   -0.4685410  
   0.522973900     0.3803214   -0.5324633  
   0.524973800     0.2994764   -0.5846465  
   0.526973700     0.2129701   -0.6263378  
   0.528973600     0.1217832   -0.6554081  
   0.530973500     0.0263412   -0.6726208  
   0.532973400    -0.0714656   -0.6762112  
   0.534973300    -0.1701530   -0.6650383  
   0.536973200    -0.2680229   -0.6399457  
   0.538973100    -0.3617715   -0.5992694  
   0.540973000    -0.4492945   -0.5441189  
   0.542972900    -0.5283914   -0.4748212  
   0.544972800    -0.5963631   -0.3928348  
   0.546972700    -0.6507819   -0.2997655  
   0.548972600    -0.6900457   -0.1979352  
   0.550972500    -0.7123767   -0.0902079  
   0.552972400    -0.7170448    0.0204679  
   0.554972300    -0.7033663    0.1314612  
   0.556972200    -0.6717292    0.2391948  
   0.558972100    -0.6226615    0.3408984  
   0.560972000    -0.5577725    0.4335413  
   0.562971900    -0.4782213    0.5145198  
   0.564971800    -0.3864043    0.5818903  
   0.566971700    -0.2845495    0.6335634  
   0.568971600    -0.1752390    0.6684217  
   0.570971500    -0.0613473    0.6846242  
   0.572971400     0.0547626    0.6821489  
   0.574971300     0.1697845    0.6602646  
   0.576971200     0.2806777    0.6190324  
   0.578971100     0.3835625    0.5593600  
   0.580971000     0.4754455    0.4830142  
   0.582970900     0.5532218    0.3915748  
   0.584970800     0.6142869    0.2883235  
   0.586970700     0.6566808    0.1764188  
   0.588970600     0.6795328    0.0586753  
   0.590970500     0.6818610   -0.0611830  
   0.592970400     0.6640063   -0.1795022  
   0.594970300     0.6259829   -0.2924928  
   0.596970200     0.5699608   -0.3969446  
   0.598970100     0.4971588   -0.4902992  
   0.600970000     0.4102590   -0.5695518  
   0.602969900     0.3119664   -0.6328527  
   0.604969800     0.2051792   -0.6788078  
   0.606969700     0.0927588   -0.7060031  
   0.608969600    -0.0218833   -0.7148856  
   0.610969500    -0.1356298   -0.7046459  
   0.612969400    -0.2452512   -0.6770301  
   0.614969300    -0.3480835   -0.6325163  
   0.616969200    -0.4414745   -0.5728325  
   0.618969100    -0.5234423   -0.5001582  
   0.620969000    -0.5929893   -0.4166417  
   0.622968900    -0.6486613   -0.3239765  
   0.624968800    -0.6895705   -0.2241042  
   0.626968700    -0.7150595   -0.1190873  
   0.628968600    -0.7243534   -0.0113520  
   0.630968500    -0.7172779    0.0964447  
   0.632968400    -0.6940526    0.2022746  
   0.634968300    -0.6547399    0.3036019  
   0.636968200    -0.6005927    0.3985031  
   0.638968100    -0.5323362    0.4845091  
   0.640968000    -0.4507743    0.5593092  
   0.642967900    -0.3585839    0.6213600  
   0.644967800    -0.2566538    0.6686990  
   0.646967700    -0.1479543    0.6997605  
   0.648967600    -0.0351319    0.7134390  
   0.650967500     0.0790682    0.7091119  
   0.652967400     0.1918739    0.6866990  
   0.654967300     0.3006655    0.6461629  
   0.656967200     0.4016739    0.5882991  
   0.658967100     0.4928283    0.5139993  
   0.660967000     0.5714163    0.4254239  
   0.662966900     0.6344115    0.3238855  
   0.664966800     0.6805328    0.2123146  
   0.666966700     0.7072152    0.0941008  
   0.668966600     0.7137192   -0.0273114  
   0.670966500     0.6995160   -0.1481267  
   0.672966400     0.6665417   -0.2645221  
   0.674966300     0.6138087   -0.3729099  
   0.676966200     0.5438299   -0.4702715  
   0.678966100     0.4600919   -0.5536904  
   0.680966000     0.3636151   -0.6217469  
   0.682965900     0.2588317   -0.6724095  
   0.684965800     0.1485426   -0.7051921  
   0.686965700     0.0349703   -0.7195870  
   0.688965600    -0.0782116   -0.7157947  
   0.690965500    -0.1877654   -0.6934933  
   0.692965400    -0.2916239   -0.6556793  
   0.694965300    -0.3872070   -0.6026593  
   0.696965200    -0.4729776   -0.5364237  
   0.698965100    -0.5470151   -0.4580258  
   0.700965000    -0.6081619   -0.3697476  
   0.702964900    -0.6549082   -0.2738619  
   0.704964800    -0.6866305   -0.1721307  
   0.706964700    -0.7023762   -0.0669677  
   0.708964600    -0.7021920    0.0398487  
   0.710964500    -0.6860299    0.1457910  
   0.712964400    -0.6532245    0.2479845  
   0.714964300    -0.6045310    0.3442697  
   0.716964200    -0.5417431    0.4319516  
   0.718964100    -0.4655996    0.5091357  
   0.720964000    -0.3783185    0.5734244  
   0.722963900    -0.2815688    0.6232718  
   0.724963800    -0.1773596    0.6573362  
   0.726963700    -0.0687117    0.6742185  
   0.728963600     0.0419669    0.6731871  
   0.730963500     0.1514143    0.6534882  
   0.732963400     0.2562461    0.6165159  
   0.734963300     0.3539965    0.5623214  
   0.736963200     0.4538884    0.4818710  
   0.738963100     0.5372627    0.3837792  
   0.740963000     0.6000406    0.2719235  
   0.742962900     0.6407567    0.1510078  
   0.744962800     0.6579553    0.0254481  
   0.746962700     0.6514916   -0.0996329  
   0.748962600     0.6224719   -0.2208941  
   0.750962500     0.6356718   -0.1230447  
   0.752962400     0.6039132   -0.2416802  
   0.754962300     0.5515225   -0.3516471  
   0.756962200     0.4806386   -0.4497546  
   0.758962100     0.3941587   -0.5330256  
   0.760962000     0.2944090   -0.5995133  
   0.762961900     0.1903628   -0.6455767  
   0.764961800     0.0893125   -0.6720926  
   0.766961700    -0.0141058   -0.6831706  
   0.768961600    -0.1187300   -0.6779928  
   0.770961500    -0.2215478   -0.6571021  
   0.772961400    -0.3196516   -0.6204895  
   0.774961300    -0.4115851   -0.5692725  
   0.776961200    -0.4946229   -0.5041113  
   0.778961100    -0.5669486   -0.4265397  
   0.780961000    -0.6263880   -0.3380848  
   0.782960900    -0.6713964   -0.2409116  
   0.784960800    -0.7007697   -0.1373410  
   0.786960700    -0.7132486   -0.0299661  
   0.788960600    -0.7086256    0.0784106  
   0.790960500    -0.6868061    0.1846959  
   0.792960400    -0.6485034    0.2862191  
   0.794960300    -0.5943921    0.3809856  
   0.796960200    -0.5264524    0.4658022  
   0.798960100    -0.4457196    0.5386626  
   0.800960000    -0.3544158    0.5980794  
   0.802959900    -0.2546626    0.6425250  
   0.804959800    -0.1491113    0.6708964  
   0.806959700    -0.0404597    0.6822584  
   0.808959600     0.0690739    0.6761820  
   0.810959500     0.1765343    0.6527179  
   0.812959400     0.2795704    0.6121804  
   0.814959300     0.3752328    0.5556387  
   0.816959200     0.4607077    0.4842260  
   0.818959100     0.5340491    0.3991845  
   0.820959000     0.5929548    0.3032060  
   0.822958900     0.6353608    0.1984431  
   0.824958800     0.6604592    0.0877540  
   0.826958700     0.6667566   -0.0261414  
   0.828958600     0.6542155   -0.1395572  
   0.830958500     0.6229973   -0.2492823  
   0.832958400     0.5744333   -0.3524967  
   0.834958300     0.5091535   -0.4459004  
   0.836958200     0.4296598   -0.5275012  
   0.838958100     0.3383554   -0.5941864  
   0.840958000     0.2372090   -0.6454131  
   0.842957900     0.1294274   -0.6789021  
   0.844957800     0.0182376   -0.6944842  
   0.846957700    -0.0934655   -0.6919847  
   0.848957600    -0.2027802   -0.6713251  
   0.850957500    -0.3068790   -0.6337522  
   0.852957400    -0.4030250   -0.5806546  
   0.854957300    -0.4891735   -0.5131573  
   0.856957200    -0.5632007   -0.4333912  
   0.858957100    -0.6234978   -0.3439134  
   0.860957000    -0.6688850   -0.2469959  
   0.862956900    -0.6987681   -0.1451868  
   0.864956800    -0.7126724   -0.0410574  
   0.866956700    -0.7108164    0.0632025  
   0.868956600    -0.6934669    0.1657261  
   0.870956500    -0.6612031    0.2643497  
   0.872956400    -0.6146188    0.3573565  
   0.874956300    -0.5547921    0.4422807  
   0.876956200    -0.4824945    0.5178500  
   0.878956100    -0.3990609    0.5822459  
   0.880956000    -0.3063472    0.6335412  
   0.882955900    -0.2062851    0.6708919  
   0.884955800    -0.1011414    0.6924000  
   0.886955700     0.0068867    0.6975320  
   0.888955600     0.1154793    0.6858699  
   0.890955500     0.2213152    0.6569508  
   0.892955400     0.3222785    0.6115755  
   0.894955300     0.4151742    0.5498313  
