! MS46122B
! 2250307/22442219
! 7/26/2025 10:26:01 AM
! C:\USERS\SPARKY\DOCUMENTS\VNA_DATA\JULY26_2025\295K\PORT5_MOS1.S1P
! CHANNEL.1
! TR.MEASUREMENT
! RAW.DATA
# GHZ S RI R 50.0
! FREQ.GHZ         S11RE         S11IM         
!; PortSelection: Port_1
   0.001000000     1.0458030   -0.0717826  
   0.002999900     0.9641110   -0.1941134  
   0.004999800     0.9033351   -0.2987525  
   0.006999700     0.8356290   -0.3960055  
   0.008999600     0.7559061   -0.4904215  
   0.010999500     0.6616847   -0.5792598  
   0.012999400     0.5474676   -0.6596108  
   0.014999300     0.4080973   -0.7246709  
   0.016999200     0.2385852   -0.7613804  
   0.018999100     0.0373715   -0.7500518  
   0.020999000    -0.1832609   -0.6597230  
   0.022998900    -0.3827313   -0.4592167  
   0.024998800    -0.4673946   -0.1518735  
   0.026998700    -0.4119793    0.1992344  
   0.028998600    -0.1725911    0.4604812  
   0.030998500     0.1359614    0.5619028  
   0.032998400     0.3889799    0.5145313  
   0.034998300     0.6196166    0.4070347  
   0.036998200     0.7522919    0.2580951  
   0.038998100     0.8272297    0.1046809  
   0.040998000     0.8594932   -0.0408700  
   0.042997900     0.8610923   -0.1734634  
   0.044997800     0.8158289   -0.2677312  
   0.046997700     0.8030686   -0.3973592  
   0.048997600     0.7542291   -0.4897741  
   0.050997500     0.6964620   -0.5697988  
   0.052997400     0.6324955   -0.6382424  
   0.054997300     0.5613599   -0.6983133  
   0.056997200     0.4863753   -0.7484514  
   0.058997100     0.4078978   -0.7893247  
   0.060997000     0.3258844   -0.8215951  
   0.062996900     0.2413550   -0.8452317  
   0.064996800     0.1540543   -0.8592200  
   0.066996700     0.0645046   -0.8644762  
   0.068996600    -0.0262692   -0.8594234  
   0.070996500    -0.1178067   -0.8449247  
   0.072996400    -0.2099429   -0.8179627  
   0.074996300    -0.3006517   -0.7790872  
   0.076996200    -0.3888978   -0.7275332  
   0.078996100    -0.4729970   -0.6627709  
   0.080996000    -0.5507378   -0.5837344  
   0.082995900    -0.6197622   -0.4903371  
   0.084995800    -0.6759344   -0.3829906  
   0.086995700    -0.7177791   -0.2626338  
   0.088995600    -0.7402031   -0.1307128  
   0.090995500    -0.7397590    0.0097281  
   0.092995400    -0.7133540    0.1546874  
   0.094995300    -0.6568234    0.2978625  
   0.096995200    -0.5697762    0.4321872  
   0.098995100    -0.4525964    0.5490602  
   0.100995000    -0.3083505    0.6419931  
   0.102994900    -0.1461638    0.7008394  
   0.104994800     0.0261232    0.7222650  
   0.106994700     0.1980133    0.7041054  
   0.108994600     0.3600055    0.6502426  
   0.110994500     0.5032320    0.5638886  
   0.112994400     0.6215779    0.4526618  
   0.114994300     0.7112626    0.3239064  
   0.116994200     0.7711557    0.1856073  
   0.118994100     0.8023116    0.0444001  
   0.120994000     0.8085483   -0.0941831  
   0.122993900     0.7894869   -0.2258584  
   0.124993800     0.7503456   -0.3474225  
   0.126993700     0.6947422   -0.4564262  
   0.128993600     0.6245655   -0.5513427  
   0.130993500     0.5445334   -0.6325791  
   0.132993400     0.4563349   -0.6994356  
   0.134993300     0.3623246   -0.7517629  
   0.136993200     0.2640888   -0.7901468  
   0.138993100     0.1633943   -0.8144404  
   0.140993000     0.0619131   -0.8252327  
   0.142992900    -0.0395059   -0.8227317  
   0.144992800    -0.1388302   -0.8087808  
   0.146992700    -0.2356515   -0.7808509  
   0.148992600    -0.3284131   -0.7405555  
   0.150992500    -0.4144648   -0.6873419  
   0.152992400    -0.4952368   -0.6235595  
   0.154992300    -0.5675161   -0.5492699  
   0.156992200    -0.6304916   -0.4642573  
   0.158992100    -0.6822015   -0.3696142  
   0.160992000    -0.7209635   -0.2665491  
   0.162991900    -0.7455574   -0.1563334  
   0.164991800    -0.7539347   -0.0408809  
   0.166991700    -0.7445895    0.0773205  
   0.168991600    -0.7163671    0.1962120  
   0.170991500    -0.6683007    0.3126096  
   0.172991400    -0.6005046    0.4219926  
   0.174991300    -0.5131618    0.5207973  
   0.176991200    -0.4073718    0.6055948  
   0.178991100    -0.2857893    0.6719435  
   0.180991000    -0.1522063    0.7167211  
   0.182990900    -0.0108056    0.7361690  
   0.184990800     0.1336544    0.7287083  
   0.186990700     0.2749428    0.6946170  
   0.188990600     0.3881472    0.6452919  
   0.190990500     0.5224577    0.5532104  
   0.192990400     0.6246330    0.4480940  
   0.194990300     0.7030767    0.3297896  
   0.196990200     0.7577525    0.2021423  
   0.198990100     0.7883556    0.0693581  
   0.200990000     0.7951134   -0.0644203  
   0.202989900     0.7792673   -0.1943739  
   0.204989800     0.7428390   -0.3170494  
   0.206989700     0.6893824   -0.4292004  
   0.208989600     0.6195402   -0.5284181  
   0.210989500     0.5368963   -0.6136709  
   0.212989400     0.4437739   -0.6846442  
   0.214989300     0.3436127   -0.7388700  
   0.216989200     0.2385099   -0.7774363  
   0.218989100     0.1309277   -0.7999935  
   0.220989000     0.0227136   -0.8071680  
   0.222988900    -0.0848179   -0.7988751  
   0.224988800    -0.1895281   -0.7754125  
   0.226988700    -0.2891300   -0.7382090  
   0.228988600    -0.3819967   -0.6876679  
   0.230988500    -0.4673171   -0.6248778  
   0.232988400    -0.5425674   -0.5491921  
   0.234988300    -0.6078746   -0.4635355  
   0.236988200    -0.6607401   -0.3686842  
   0.238988100    -0.6999950   -0.2657731  
   0.240988000    -0.7238802   -0.1573361  
   0.242987900    -0.7312226   -0.0450069  
   0.244987800    -0.7212999    0.0693788  
   0.246987700    -0.6931933    0.1830781  
   0.248987600    -0.6464058    0.2936805  
   0.250987500    -0.5807495    0.3974989  
   0.252987400    -0.4973302    0.4902409  
   0.254987300    -0.3982420    0.5686699  
   0.256987200    -0.2847284    0.6302867  
   0.258987100    -0.1607128    0.6730369  
   0.260987000    -0.0286324    0.6915775  
   0.262986900     0.1063992    0.6860921  
   0.264986800     0.2393041    0.6557931  
   0.266986700     0.3651802    0.6011617  
   0.268986600     0.4784325    0.5245149  
   0.270986500     0.5749168    0.4289513  
   0.272986400     0.6519305    0.3180574  
   0.274986300     0.7068597    0.1966388  
   0.276986200     0.7388648    0.0688252  
   0.278986100     0.7477737   -0.0609810  
   0.280986000     0.7341385   -0.1880983  
   0.282985900     0.6997114   -0.3090756  
   0.284985800     0.6467314   -0.4197755  
   0.286985700     0.5779234   -0.5184166  
   0.288985600     0.4966396   -0.6023751  
   0.290985500     0.4054217   -0.6710015  
   0.292985400     0.3076431   -0.7237122  
   0.294985300     0.2048949   -0.7610024  
   0.296985200     0.0994403   -0.7826886  
   0.298985100    -0.0069345   -0.7887640  
   0.300985000    -0.1121772   -0.7798516  
   0.302984900    -0.2133207   -0.7568161  
   0.304984800    -0.3097566   -0.7205834  
   0.306984700    -0.3991880   -0.6722286  
   0.308984600    -0.4803832   -0.6128257  
   0.310984500    -0.5526766   -0.5434802  
   0.312984400    -0.6150860   -0.4653598  
   0.314984300    -0.6670247   -0.3791631  
   0.316984200    -0.7072383   -0.2859879  
   0.318984100    -0.7345671   -0.1861417  
   0.320984000    -0.7477496   -0.0812632  
   0.322983900    -0.7455100    0.0265208  
   0.324983800    -0.7263635    0.1345386  
   0.326983700    -0.6898627    0.2390664  
   0.328983600    -0.6360564    0.3370092  
   0.330983500    -0.5670793    0.4242089  
   0.332983400    -0.4862341    0.4982947  
   0.334983300    -0.3959581    0.5586441  
   0.336983200    -0.2988172    0.6045007  
   0.338983100    -0.1963765    0.6365497  
   0.340983000    -0.0900436    0.6537070  
   0.342982900     0.0191697    0.6556974  
   0.344982800     0.1289638    0.6408579  
   0.346982700     0.2374438    0.6084640  
   0.348982600     0.3405325    0.5575678  
   0.350982500     0.4354226    0.4902400  
   0.352982400     0.5188239    0.4066275  
   0.354982300     0.5896370    0.3055360  
   0.356982200     0.6447127    0.1815473  
   0.358982100     0.6745575    0.0489627  
   0.360982000     0.6778879   -0.0870059  
   0.362981900     0.6546156   -0.2208561  
   0.364981800     0.6056073   -0.3476600  
   0.366981700     0.5334834   -0.4620399  
   0.368981600     0.4404951   -0.5600759  
   0.370981500     0.3312121   -0.6381040  
   0.372981400     0.2095467   -0.6933436  
   0.374981300     0.0804383   -0.7246071  
   0.376981200     0.1872078   -0.7038211  
   0.378981100     0.0588749   -0.7295374  
   0.380981000    -0.0710883   -0.7311682  
   0.382980900    -0.1864543   -0.7121446  
   0.384980800    -0.2915081   -0.6775653  
   0.386980700    -0.3889648   -0.6266984  
   0.388980600    -0.4774745   -0.5621589  
   0.390980500    -0.5537497   -0.4858469  
   0.392980400    -0.6174092   -0.3995424  
   0.394980300    -0.6672415   -0.3056032  
   0.396980200    -0.7024045   -0.2053642  
   0.398980100    -0.7224433   -0.1009653  
   0.400980000    -0.7269784    0.0052859  
   0.402979900    -0.7158301    0.1118261  
   0.404979800    -0.6887357    0.2157359  
   0.406979700    -0.6466134    0.3149921  
   0.408979600    -0.5895593    0.4077577  
   0.410979500    -0.5180330    0.4919830  
   0.412979400    -0.4332669    0.5651690  
   0.414979300    -0.3367004    0.6243345  
   0.416979200    -0.2312163    0.6691698  
   0.418979100    -0.1189883    0.6970107  
   0.420979000    -0.0027544    0.7068056  
   0.422978900     0.1152545    0.6972629  
   0.424978800     0.2311958    0.6684980  
   0.426978700     0.3419058    0.6202751  
   0.428978600     0.4436965    0.5540977  
   0.430978500     0.5329783    0.4712934  
   0.432978400     0.6071950    0.3747643  
   0.434978300     0.6653702    0.2672944  
   0.436978200     0.7033741    0.1514130  
   0.438978100     0.7211751    0.0310892  
   0.440978000     0.7187029   -0.0903030  
   0.442977900     0.6961738   -0.2088900  
   0.444977800     0.6542608   -0.3211521  
   0.446977700     0.5947260   -0.4238555  
   0.448977600     0.5200112   -0.5145920  
   0.450977500     0.4323286   -0.5915473  
   0.452977400     0.3343312   -0.6524949  
   0.454977300     0.2278934   -0.6966651  
   0.456977200     0.1165753   -0.7230017  
   0.458977100     0.0037826   -0.7311271  
   0.460977000    -0.1080258   -0.7215492  
   0.462976900    -0.2155915   -0.6951136  
   0.464976800    -0.3167509   -0.6523957  
   0.466976700    -0.4094068   -0.5951720  
   0.468976600    -0.4916846   -0.5251068  
   0.470976500    -0.5622142   -0.4434586  
   0.472976400    -0.6189636   -0.3521305  
   0.474976300    -0.6615267   -0.2538720  
   0.476976200    -0.6882394   -0.1503781  
   0.478976100    -0.6988588   -0.0440366  
   0.480976000    -0.6929162    0.0624212  
   0.482975900    -0.6706042    0.1668108  
   0.484975800    -0.6327741    0.2670123  
   0.486975700    -0.5791370    0.3610793  
   0.488975600    -0.5106563    0.4461006  
   0.490975500    -0.4289113    0.5198954  
   0.492975400    -0.3355731    0.5799102  
   0.494975300    -0.2326107    0.6242797  
   0.496975200    -0.1227935    0.6506636  
   0.498975100    -0.0095568    0.6585504  
   0.500975000     0.1035495    0.6467767  
   0.502974900     0.2129067    0.6155276  
   0.504974800     0.3149610    0.5656240  
   0.506974700     0.4067775    0.4992829  
   0.508974600     0.4851793    0.4177049  
   0.510974500     0.5471529    0.3252234  
   0.512974400     0.5918158    0.2249812  
   0.514974300     0.6172442    0.1214204  
   0.516974200     0.6263692    0.0177190  
   0.518974100     0.6191342   -0.0835383  
   0.520974000     0.5971373   -0.1799603  
   0.522973900     0.5628971   -0.2702254  
   0.524973800     0.5171549   -0.3529601  
   0.526973700     0.4611757   -0.4283153  
   0.528973600     0.3961427   -0.4946420  
   0.530973500     0.3225417   -0.5522941  
   0.532973400     0.2418447   -0.5997989  
   0.534973300     0.1543142   -0.6356822  
   0.536973200     0.0608701   -0.6594909  
   0.538973100    -0.0357729   -0.6693914  
   0.540973000    -0.1337117   -0.6639495  
   0.542972900    -0.2314516   -0.6444133  
   0.544972800    -0.3257473   -0.6091205  
   0.546972700    -0.4151507   -0.5585973  
   0.548972600    -0.4961182   -0.4942387  
   0.550972500    -0.5666991   -0.4166407  
   0.552972400    -0.6241707   -0.3284442  
   0.554972300    -0.6672713   -0.2313039  
   0.556972200    -0.6943660   -0.1279080  
   0.558972100    -0.7044042   -0.0210357  
   0.560972000    -0.6977713    0.0861430  
   0.562971900    -0.6738901    0.1911187  
   0.564971800    -0.6335417    0.2912512  
   0.566971700    -0.5776655    0.3837952  
   0.568971600    -0.5079378    0.4667157  
   0.570971500    -0.4254807    0.5378466  
   0.572971400    -0.3321075    0.5953330  
   0.574971300    -0.2296698    0.6375793  
   0.576971200    -0.1212335    0.6627717  
   0.578971100    -0.0090123    0.6701877  
   0.580971000     0.1036007    0.6589544  
   0.582970900     0.2134969    0.6291566  
   0.584970800     0.3169727    0.5816383  
   0.586970700     0.4116815    0.5174646  
   0.588970600     0.4944967    0.4377543  
   0.590970500     0.5630921    0.3450263  
   0.592970400     0.6149082    0.2422766  
   0.594970300     0.6489608    0.1315081  
   0.596970200     0.6636174    0.0168468  
   0.598970100     0.6584030   -0.0987261  
   0.600970000     0.6342745   -0.2117633  
   0.602969900     0.5911201   -0.3186559  
   0.604969800     0.5307801   -0.4165482  
   0.606969700     0.4551866   -0.5024536  
   0.608969600     0.3664290   -0.5744911  
   0.610969500     0.2677411   -0.6303998  
   0.612969400     0.1618845   -0.6685711  
   0.614969300     0.0522752   -0.6886324  
   0.616969200    -0.0578740   -0.6904987  
   0.618969100    -0.1654601   -0.6750888  
   0.620969000    -0.2679325   -0.6434907  
   0.622968900    -0.3637577   -0.5962523  
   0.624968800    -0.4505935   -0.5351585  
   0.626968700    -0.5267885   -0.4616940  
   0.628968600    -0.5906572   -0.3779148  
   0.630968500    -0.6404309   -0.2856748  
   0.632968400    -0.6757763   -0.1871004  
   0.634968300    -0.6957061   -0.0844530  
   0.636968200    -0.6998999    0.0197780  
   0.638968100    -0.6883665    0.1235115  
   0.640968000    -0.6611967    0.2247672  
   0.642967900    -0.6192477    0.3209046  
   0.644967800    -0.5628856    0.4097271  
   0.646967700    -0.4933412    0.4895022  
   0.648967600    -0.4122478    0.5582367  
   0.650967500    -0.3212017    0.6139599  
   0.652967400    -0.2223870    0.6549996  
   0.654967300    -0.1175221    0.6807505  
   0.656967200    -0.0090438    0.6898103  
   0.658967100     0.1003158    0.6819768  
   0.660967000     0.2078630    0.6563399  
   0.662966900     0.3115878    0.6133414  
   0.664966800     0.4081183    0.5533679  
   0.666966700     0.4944030    0.4780324  
   0.668966600     0.5675347    0.3885201  
   0.670966500     0.6252055    0.2878059  
   0.672966400     0.6666533    0.1789481  
   0.674966300     0.6881490    0.0642678  
   0.676966200     0.6904314   -0.0519007  
   0.678966100     0.6726780   -0.1666144  
   0.680966000     0.6367347   -0.2765893  
   0.682965900     0.5834102   -0.3782290  
   0.684965800     0.5144733   -0.4692763  
   0.686965700     0.4316442   -0.5471949  
   0.688965600     0.3387319   -0.6103026  
   0.690965500     0.2368742   -0.6559899  
   0.692965400     0.1305847   -0.6854093  
   0.694965300     0.0221634   -0.6972203  
   0.696965200    -0.0853274   -0.6921114  
   0.698965100    -0.1899994   -0.6705188  
   0.700965000    -0.2895180   -0.6332192  
   0.702964900    -0.3810373   -0.5816503  
   0.704964800    -0.4629719   -0.5171603  
   0.706964700    -0.5337889   -0.4411519  
   0.708964600    -0.5922811   -0.3557058  
   0.710964500    -0.6374910   -0.2631051  
   0.712964400    -0.6674581   -0.1645682  
   0.714964300    -0.6821102   -0.0629885  
   0.716964200    -0.6814859    0.0393346  
   0.718964100    -0.6652186    0.1402305  
   0.720964000    -0.6340020    0.2376444  
   0.722963900    -0.5885040    0.3290173  
   0.724963800    -0.5294169    0.4129156  
   0.726963700    -0.4575657    0.4868556  
   0.728963600    -0.3747243    0.5492406  
   0.730963500    -0.2825440    0.5976883  
   0.732963400    -0.1832620    0.6313571  
   0.734963300    -0.0793013    0.6486928  
   0.736963200     0.0428675    0.6481332  
   0.738963100     0.1634885    0.6246631  
   0.740963000     0.2783997    0.5792945  
   0.742962900     0.3824351    0.5129033  
   0.744962800     0.4721606    0.4288984  
   0.746962700     0.5447215    0.3295405  
   0.748962600     0.5971408    0.2189108  
   0.750962500     0.5431049    0.3061854  
   0.752962400     0.5915132    0.1957744  
   0.754962300     0.6187059    0.0794950  
   0.756962200     0.6245233   -0.0394541  
   0.758962100     0.6086978   -0.1563489  
   0.760962000     0.5724621   -0.2683123  
   0.762961900     0.5197250   -0.3665958  
   0.764961800     0.4578839   -0.4473518  
   0.766961700     0.3845145   -0.5175268  
   0.768961600     0.3011493   -0.5757599  
   0.770961500     0.2100683   -0.6206909  
   0.772961400     0.1131763   -0.6508806  
   0.774961300     0.0126166   -0.6660580  
   0.776961200    -0.0891457   -0.6656151  
   0.778961100    -0.1903561   -0.6496588  
   0.780961000    -0.2880461   -0.6177405  
   0.782960900    -0.3801224   -0.5709066  
   0.784960800    -0.4640315   -0.5099382  
   0.786960700    -0.5376752   -0.4362332  
   0.788960600    -0.5988988   -0.3516144  
   0.790960500    -0.6459248   -0.2584202  
   0.792960400    -0.6779323   -0.1588964  
   0.794960300    -0.6938375   -0.0556633  
   0.796960200    -0.6936774    0.0488594  
   0.798960100    -0.6769504    0.1518087  
   0.800960000    -0.6445377    0.2506656  
   0.802959900    -0.5972100    0.3436291  
   0.804959800    -0.5358865    0.4280728  
   0.806959700    -0.4624650    0.5020100  
   0.808959600    -0.3781808    0.5637575  
   0.810959500    -0.2850757    0.6113908  
   0.812959400    -0.1854101    0.6445949  
   0.814959300    -0.0815093    0.6616713  
   0.816959200     0.0241802    0.6622010  
   0.818959100     0.1292167    0.6462614  
   0.820959000     0.2307712    0.6136879  
   0.822958900     0.3268265    0.5651594  
   0.824958800     0.4141998    0.5015683  
   0.826958700     0.4903637    0.4242528  
   0.828958600     0.5536227    0.3353199  
   0.830958500     0.6014668    0.2368760  
   0.832958400     0.6328251    0.1314521  
   0.834958300     0.6465386    0.0223295  
   0.836958200     0.6419877   -0.0876193  
   0.838958100     0.6194459   -0.1952911  
   0.840958000     0.5795352   -0.2982815  
   0.842957900     0.5229878   -0.3932230  
   0.844957800     0.4515511   -0.4776654  
   0.846957700     0.3675450   -0.5488009  
   0.848957600     0.2729606   -0.6053579  
   0.850957500     0.1707059   -0.6450769  
   0.852957400     0.0641230   -0.6675122  
   0.854957300    -0.0445648   -0.6723703  
   0.856957200    -0.1514503   -0.6597146  
   0.858957100    -0.2546221   -0.6302037  
   0.860957000    -0.3506114   -0.5853773  
   0.862956900    -0.4377448   -0.5265050  
   0.864956800    -0.5137393   -0.4558203  
   0.866956700    -0.5775124   -0.3750499  
   0.868956600    -0.6274853   -0.2859917  
   0.870956500    -0.6637390   -0.1912023  
   0.872956400    -0.6850913   -0.0922797  
   0.874956300    -0.6916862    0.0081519  
   0.876956200    -0.6831551    0.1089283  
   0.878956100    -0.6592123    0.2069320  
   0.880956000    -0.6214584    0.3006310  
   0.882955900    -0.5699003    0.3878354  
   0.884955800    -0.5056068    0.4663885  
   0.886955700    -0.4301844    0.5350605  
   0.888955600    -0.3451394    0.5915834  
   0.890955500    -0.2519166    0.6352745  
   0.892955400    -0.1529355    0.6642767  
   0.894955300    -0.0499184    0.6777266  
