! MS46122B
! 2250307/22442219
! 7/24/2025 12:37:45 PM
! C:\USERS\SPARKY\DOCUMENTS\VNA_DATA\JULY24_2025\295K\PORT3_MOS6.S1P
! CHANNEL.1
! TR.MEASUREMENT
! RAW.DATA
# GHZ S RI R 50.0
! FREQ.GHZ         S11RE         S11IM         
!; PortSelection: Port_1
   0.001000000     1.0451300   -0.0731204  
   0.002999900     0.9469482   -0.2226495  
   0.004999800     0.8215958   -0.0990691  
   0.006999700     0.5202712   -0.3813933  
   0.008999600     0.9289480   -0.0401639  
   0.010999500     0.9132809   -0.2445498  
   0.012999400     0.8738917   -0.3491507  
   0.014999300     0.8336018   -0.4296907  
   0.016999200     0.7920338   -0.4999570  
   0.018999100     0.7475643   -0.5650924  
   0.020999000     0.6983534   -0.6254694  
   0.022998900     0.6440061   -0.6810286  
   0.024998800     0.5758098   -0.6963489  
   0.026998700     0.5175712   -0.7770948  
   0.028998600     0.4438454   -0.8166854  
   0.030998500     0.3627761   -0.8491553  
   0.032998400     0.2786342   -0.8392099  
   0.034998300     0.1785408   -0.8872517  
   0.036998200     0.0753887   -0.8896165  
   0.038998100    -0.0331501   -0.8782765  
   0.040998000    -0.1462068   -0.8499390  
   0.042997900    -0.2619875   -0.8030333  
   0.044997800    -0.3532577   -0.7164172  
   0.046997700    -0.4867314   -0.6402739  
   0.048997600    -0.5853698   -0.5202140  
   0.050997500    -0.6651372   -0.3726439  
   0.052997400    -0.7158553   -0.1993555  
   0.054997300    -0.7264236   -0.0058942  
   0.056997200    -0.6864306    0.1988246  
   0.058997100    -0.5888541    0.3946303  
   0.060997000    -0.4358853    0.5616807  
   0.062996900    -0.2387092    0.6805772  
   0.064996800    -0.0166458    0.7381185  
   0.066996700     0.2069836    0.7304548  
   0.068996600     0.4115552    0.6651980  
   0.070996500     0.5826077    0.5562532  
   0.072996400     0.7127882    0.4174244  
   0.074996300     0.8013344    0.2644481  
   0.076996200     0.8517398    0.1077091  
   0.078996100     0.8689623   -0.0441581  
   0.080996000     0.8590839   -0.1871731  
   0.082995900     0.8268422   -0.3175350  
   0.084995800     0.7761262   -0.4334179  
   0.086995700     0.7128726   -0.5351759  
   0.088995600     0.6390529   -0.6227508  
   0.090995500     0.5570813   -0.6968548  
   0.092995400     0.4696191   -0.7577361  
   0.094995300     0.3763857   -0.8053427  
   0.096995200     0.2805399   -0.8400627  
   0.098995100     0.1823879   -0.8625758  
   0.100995000     0.0817440   -0.8731287  
   0.102994900    -0.0181144   -0.8714138  
   0.104994800    -0.1174910   -0.8581283  
   0.106994700    -0.2155127   -0.8317116  
   0.108994600    -0.3105738   -0.7941467  
   0.110994500    -0.4023557   -0.7444373  
   0.112994400    -0.4886594   -0.6822659  
   0.114994300    -0.5682037   -0.6075504  
   0.116994200    -0.6391069   -0.5202209  
   0.118994100    -0.6993991   -0.4211374  
   0.120994000    -0.7479622   -0.3116147  
   0.122993900    -0.7799419   -0.1905305  
   0.124993800    -0.7936111   -0.0616073  
   0.126993700    -0.7861047    0.0731370  
   0.128993600    -0.7541664    0.2095034  
   0.130993500    -0.6984863    0.3439163  
   0.132993400    -0.6165237    0.4707687  
   0.134993300    -0.5092168    0.5842104  
   0.136993200    -0.3782497    0.6773259  
   0.138993100    -0.2282797    0.7447926  
   0.140993000    -0.0646302    0.7812120  
   0.142992900     0.1047543    0.7834108  
   0.144992800     0.2722345    0.7519299  
   0.146992700     0.4286082    0.6854829  
   0.148992600     0.5666584    0.5893601  
   0.150992500     0.6792302    0.4686775  
   0.152992400     0.7647882    0.3319141  
   0.154992300     0.8206617    0.1853293  
   0.156992200     0.8471821    0.0350887  
   0.158992100     0.8458150   -0.1121987  
   0.160992000     0.8196872   -0.2522093  
   0.162991900     0.7712278   -0.3812135  
   0.164991800     0.7048233   -0.4964432  
   0.166991700     0.6232134   -0.5961949  
   0.168991600     0.5301242   -0.6795328  
   0.170991500     0.4281829   -0.7462233  
   0.172991400     0.3205542   -0.7958348  
   0.174991300     0.2095390   -0.8289556  
   0.176991200     0.0962848   -0.8457527  
   0.178991100    -0.0162593   -0.8464687  
   0.180991000    -0.1264701   -0.8327203  
   0.182990900    -0.2332348   -0.8036751  
   0.184990800    -0.3350262   -0.7606317  
   0.186990700    -0.4299612   -0.7037279  
   0.188990600    -0.4980415   -0.6485564  
   0.190990500    -0.5903424   -0.5554542  
   0.192990400    -0.6582342   -0.4610393  
   0.194990300    -0.7109839   -0.3594126  
   0.196990200    -0.7490743   -0.2502149  
   0.198990100    -0.7718343   -0.1343575  
   0.200990000    -0.7772090   -0.0138699  
   0.202989900    -0.7639254    0.1091809  
   0.204989800    -0.7310333    0.2312869  
   0.206989700    -0.6795948    0.3497879  
   0.208989600    -0.6069884    0.4602450  
   0.210989500    -0.5142810    0.5597948  
   0.212989400    -0.4039659    0.6440408  
   0.214989300    -0.2777374    0.7093351  
   0.216989200    -0.1405356    0.7519149  
   0.218989100     0.0045749    0.7695634  
   0.220989000     0.1519313    0.7604920  
   0.222988900     0.2966530    0.7241049  
   0.224988800     0.4324918    0.6612619  
   0.226988700     0.5544839    0.5748861  
   0.228988600     0.6573322    0.4687086  
   0.230988500     0.7384384    0.3465287  
   0.232988400     0.7946911    0.2129671  
   0.234988300     0.8269098    0.0741655  
   0.236988200     0.8343141   -0.0658772  
   0.238988100     0.8179129   -0.2018806  
   0.240988000     0.7803297   -0.3304583  
   0.242987900     0.7234516   -0.4474643  
   0.244987800     0.6506466   -0.5518776  
   0.246987700     0.5643899   -0.6419545  
   0.248987600     0.4670164   -0.7164662  
   0.250987500     0.3614042   -0.7741642  
   0.252987400     0.2513798   -0.8149949  
   0.254987300     0.1391160   -0.8392241  
   0.256987200     0.0263306   -0.8469936  
   0.258987100    -0.0852303   -0.8406584  
   0.260987000    -0.1937872   -0.8177543  
   0.262986900    -0.2982638   -0.7801616  
   0.264986800    -0.3960553   -0.7291285  
   0.266986700    -0.4857487   -0.6648757  
   0.268986600    -0.5658782   -0.5891963  
   0.270986500    -0.6344817   -0.5030618  
   0.272986400    -0.6911980   -0.4076655  
   0.274986300    -0.7344852   -0.3044830  
   0.276986200    -0.7629911   -0.1945683  
   0.278986100    -0.7754276   -0.0790099  
   0.280986000    -0.7704904    0.0389061  
   0.282985900    -0.7471406    0.1576655  
   0.284985800    -0.7047963    0.2733659  
   0.286985700    -0.6428686    0.3831207  
   0.288985600    -0.5630159    0.4831072  
   0.290985500    -0.4653021    0.5697882  
   0.292985400    -0.3517755    0.6393992  
   0.294985300    -0.2252337    0.6890100  
   0.296985200    -0.0884665    0.7153302  
   0.298985100     0.0535751    0.7156966  
   0.300985000     0.1943970    0.6881509  
   0.302984900     0.3282193    0.6334827  
   0.304984800     0.4480792    0.5532884  
   0.306984700     0.5491456    0.4513698  
   0.308984600     0.6264414    0.3326468  
   0.310984500     0.6770346    0.2041042  
   0.312984400     0.7003958    0.0709984  
   0.314984300     0.6971714   -0.0594214  
   0.316984200     0.6698721   -0.1813963  
   0.318984100     0.6217095   -0.2908353  
   0.320984000     0.5587132   -0.3841098  
   0.322983900     0.4855317   -0.4594713  
   0.324983800     0.4082231   -0.5171785  
   0.326983700     0.3316046   -0.5597189  
   0.328983600     0.2583826   -0.5918525  
   0.330983500     0.1892292   -0.6179764  
   0.332983400     0.1212363   -0.6417717  
   0.334983300     0.0500506   -0.6639513  
   0.336983200    -0.0284151   -0.6826407  
   0.338983100    -0.1159692   -0.6931635  
   0.340983000    -0.2106733   -0.6900638  
   0.342982900    -0.3095348   -0.6703436  
   0.344982800    -0.4074818   -0.6317584  
   0.346982700    -0.5007393   -0.5743980  
   0.348982600    -0.5830145   -0.4995882  
   0.350982500    -0.6529911   -0.4120624  
   0.352982400    -0.7082310   -0.3127000  
   0.354982300    -0.7479267   -0.2004349  
   0.356982200    -0.7699817   -0.0688599  
   0.358982100    -0.7676669    0.0640405  
   0.360982000    -0.7416390    0.1942728  
   0.362981900    -0.6930717    0.3177720  
   0.364981800    -0.6233138    0.4313608  
   0.366981700    -0.5341402    0.5315524  
   0.368981600    -0.4284087    0.6149392  
   0.370981500    -0.3087898    0.6784043  
   0.372981400    -0.1787868    0.7202276  
   0.374981300    -0.0414510    0.7382658  
   0.376981200    -0.1425641    0.7324445  
   0.378981100     0.0006126    0.7438778  
   0.380981000     0.1449732    0.7283455  
   0.382980900     0.2736068    0.6899897  
   0.384980800     0.3898768    0.6325270  
   0.386980700     0.4954793    0.5553461  
   0.388980600     0.5864590    0.4606938  
   0.390980500     0.6599129    0.3519647  
   0.392980400     0.7133306    0.2327224  
   0.394980300     0.7452810    0.1066113  
   0.396980200     0.7553104   -0.0226892  
   0.398980100     0.7432691   -0.1507162  
   0.400980000     0.7098629   -0.2737354  
   0.402979900     0.6566203   -0.3887940  
   0.404979800     0.5860847   -0.4919632  
   0.406979700     0.5005631   -0.5807306  
   0.408979600     0.4030284   -0.6535351  
   0.410979500     0.2955278   -0.7091053  
   0.412979400     0.1818200   -0.7464036  
   0.414979300     0.0648695   -0.7637795  
   0.416979200    -0.0520408   -0.7637857  
   0.418979100    -0.1656862   -0.7458779  
   0.420979000    -0.2744693   -0.7110521  
   0.422978900    -0.3758622   -0.6604974  
   0.424978800    -0.4679072   -0.5959677  
   0.426978700    -0.5489042   -0.5183821  
   0.428978600    -0.6167908   -0.4300741  
   0.430978500    -0.6704572   -0.3335231  
   0.432978400    -0.7089780   -0.2305647  
   0.434978300    -0.7330775   -0.1239638  
   0.436978200    -0.7402411   -0.0142707  
   0.438978100    -0.7309999    0.0956220  
   0.440978000    -0.7056338    0.2034334  
   0.442977900    -0.6642984    0.3070779  
   0.444977800    -0.6072993    0.4040069  
   0.446977700    -0.5360593    0.4916133  
   0.448977600    -0.4515479    0.5682662  
   0.450977500    -0.3552555    0.6317007  
   0.452977400    -0.2488544    0.6802517  
   0.454977300    -0.1343357    0.7114829  
   0.456977200    -0.0148701    0.7244241  
   0.458977100     0.1064173    0.7175624  
   0.460977000     0.2258813    0.6911084  
   0.462976900     0.3399796    0.6447290  
   0.464976800     0.4454482    0.5796652  
   0.466976700     0.5392074    0.4976403  
   0.468976600     0.6178669    0.4007245  
   0.470976500     0.6792466    0.2915710  
   0.472976400     0.7212044    0.1740515  
   0.474976300     0.7430869    0.0513557  
   0.476976200     0.7437662   -0.0723929  
   0.478976100     0.7239634   -0.1935155  
   0.480976000     0.6853366   -0.3081760  
   0.482975900     0.6291078   -0.4134976  
   0.484975800     0.5578438   -0.5071109  
   0.486975700     0.4731540   -0.5873896  
   0.488975600     0.3782649   -0.6526546  
   0.490975500     0.2757485   -0.7013475  
   0.492975400     0.1682389   -0.7337592  
   0.494975300     0.0584209   -0.7495330  
   0.496975200    -0.0513116   -0.7481753  
   0.498975100    -0.1578930   -0.7312529  
   0.500975000    -0.2599169   -0.6990442  
   0.502974900    -0.3553156   -0.6531568  
   0.504974800    -0.4426152   -0.5941130  
   0.506974700    -0.5209782   -0.5237349  
   0.508974600    -0.5886664   -0.4420333  
   0.510974500    -0.6438279   -0.3516129  
   0.512974400    -0.6858773   -0.2538798  
   0.514974300    -0.7117406   -0.1507051  
   0.516974200    -0.7232013   -0.0444538  
   0.518974100    -0.7188618    0.0629671  
   0.520974000    -0.6979445    0.1693021  
   0.522973900    -0.6608238    0.2718124  
   0.524973800    -0.6072360    0.3680790  
   0.526973700    -0.5386828    0.4552214  
   0.528973600    -0.4566444    0.5304617  
   0.530973500    -0.3634595    0.5918760  
   0.532973400    -0.2614866    0.6372031  
   0.534973300    -0.1537007    0.6658040  
   0.536973200    -0.0430524    0.6768216  
   0.538973100     0.0675337    0.6706063  
   0.540973000     0.1749198    0.6470193  
   0.542972900     0.2774289    0.6075006  
   0.544972800     0.3726168    0.5525644  
   0.546972700     0.4586504    0.4831766  
   0.548972600     0.5325424    0.4011947  
   0.550972500     0.5931818    0.3082945  
   0.552972400     0.6389014    0.2062950  
   0.554972300     0.6677547    0.0984292  
   0.556972200     0.6788169   -0.0135072  
   0.558972100     0.6720298   -0.1256841  
   0.560972000     0.6471727   -0.2352660  
   0.562971900     0.6054932   -0.3390487  
   0.564971800     0.5478884   -0.4350857  
   0.566971700     0.4759759   -0.5196325  
   0.568971600     0.3919436   -0.5917763  
   0.570971500     0.2976230   -0.6496723  
   0.572971400     0.1959960   -0.6916795  
   0.574971300     0.0887855   -0.7170839  
   0.576971200    -0.0206881   -0.7257516  
   0.578971100    -0.1301785   -0.7173775  
   0.580971000    -0.2364189   -0.6922253  
   0.582970900    -0.3366572   -0.6514221  
   0.584970800    -0.4288990   -0.5960931  
   0.586970700    -0.5110016   -0.5281677  
   0.588970600    -0.5816896   -0.4491502  
   0.590970500    -0.6397322   -0.3607807  
   0.592970400    -0.6840041   -0.2650122  
   0.594970300    -0.7134517   -0.1643750  
   0.596970200    -0.7279897   -0.0602745  
   0.598970100    -0.7270321    0.0448517  
   0.600970000    -0.7106367    0.1491155  
   0.602969900    -0.6791434    0.2497033  
   0.604969800    -0.6329256    0.3453170  
   0.606969700    -0.5727122    0.4333597  
   0.608969600    -0.4992101    0.5122614  
   0.610969500    -0.4145814    0.5793944  
   0.612969400    -0.3197737    0.6335721  
   0.614969300    -0.2173468    0.6729100  
   0.616969200    -0.1095956    0.6957675  
   0.618969100     0.0006822    0.7024131  
   0.620969000     0.1111626    0.6916578  
   0.622968900     0.2196978    0.6633936  
   0.624968800     0.3232358    0.6178697  
   0.626968700     0.4193096    0.5557279  
   0.628968600     0.5046895    0.4783630  
   0.630968500     0.5765370    0.3876832  
   0.632968400     0.6330596    0.2858597  
   0.634968300     0.6721807    0.1752855  
   0.636968200     0.6923141    0.0603231  
   0.638968100     0.6931173   -0.0570971  
   0.640968000     0.6741443   -0.1727367  
   0.642967900     0.6365653   -0.2830655  
   0.644967800     0.5812422   -0.3851381  
   0.646967700     0.5103623   -0.4758420  
   0.648967600     0.4262677   -0.5532651  
   0.650967500     0.3315938   -0.6150023  
   0.652967400     0.2294281   -0.6598063  
   0.654967300     0.1223268   -0.6878400  
   0.656967200     0.0135892   -0.6981528  
   0.658967100    -0.0942800   -0.6911551  
   0.660967000    -0.1990937   -0.6676389  
   0.662966900    -0.2984359   -0.6284020  
   0.664966800    -0.3899580   -0.5744787  
   0.666966700    -0.4716338   -0.5075155  
   0.668966600    -0.5415494   -0.4294667  
   0.670966500    -0.5983581   -0.3420308  
   0.672966400    -0.6417527   -0.2478907  
   0.674966300    -0.6694040   -0.1488434  
   0.676966200    -0.6817152   -0.0469699  
   0.678966100    -0.6787069    0.0549654  
   0.680966000    -0.6604791    0.1556957  
   0.682965900    -0.6274623    0.2522217  
   0.684965800    -0.5801148    0.3430143  
   0.686965700    -0.5191487    0.4259235  
   0.688965600    -0.4460876    0.4989328  
   0.690965500    -0.3619356    0.5596571  
   0.692965400    -0.2690428    0.6074215  
   0.694965300    -0.1694133    0.6407127  
   0.696965200    -0.0651705    0.6580248  
   0.698965100     0.0416439    0.6585934  
   0.700965000     0.1481933    0.6419051  
   0.702964900     0.2516106    0.6081288  
   0.704964800     0.3484203    0.5573005  
   0.706964700     0.4365256    0.4908973  
   0.708964600     0.5124930    0.4101339  
   0.710964500     0.5754145    0.3181457  
   0.712964400     0.6211063    0.2159343  
   0.714964300     0.6492416    0.1079980  
   0.716964200     0.6584701   -0.0024698  
   0.718964100     0.6492662   -0.1121613  
   0.720964000     0.6222844   -0.2173486  
   0.722963900     0.5790644   -0.3157635  
   0.724963800     0.5210645   -0.4046454  
   0.726963700     0.4502175   -0.4825720  
   0.728963600     0.3691866   -0.5478449  
   0.730963500     0.2794344   -0.5980176  
   0.732963400     0.1848172   -0.6341644  
   0.734963300     0.0863821   -0.6554091  
   0.736963200    -0.0275039   -0.6613598  
   0.738963100    -0.1399233   -0.6471614  
   0.740963000    -0.2473661   -0.6143199  
   0.742962900    -0.3469977   -0.5636551  
   0.744962800    -0.4361778   -0.4970425  
   0.746962700    -0.5128263   -0.4165652  
   0.748962600    -0.5743078   -0.3237960  
   0.750962500    -0.5333344   -0.4070775  
   0.752962400    -0.5936158   -0.3122693  
   0.754962300    -0.6362991   -0.2082607  
   0.756962200    -0.6606690   -0.0981473  
   0.758962100    -0.6652671    0.0149858  
   0.760962000    -0.6502072    0.1279145  
   0.762961900    -0.6175615    0.2316923  
   0.764961800    -0.5733089    0.3205315  
   0.766961700    -0.5158408    0.4018911  
   0.768961600    -0.4456960    0.4732713  
   0.770961500    -0.3655005    0.5327849  
   0.772961400    -0.2768329    0.5791801  
   0.774961300    -0.1822583    0.6106126  
   0.776961200    -0.0835063    0.6273970  
   0.778961100     0.0170852    0.6283610  
   0.780961000     0.1167489    0.6137975  
   0.782960900     0.2133678    0.5835519  
   0.784960800     0.3046563    0.5379573  
   0.786960700     0.3880521    0.4784932  
   0.788960600     0.4612992    0.4061624  
   0.790960500     0.5219312    0.3232149  
   0.792960400     0.5689679    0.2313439  
   0.794960300     0.6004366    0.1333672  
   0.796960200     0.6159257    0.0313478  
   0.798960100     0.6145033   -0.0719398  
   0.800960000     0.5968119   -0.1733554  
   0.802959900     0.5630611   -0.2708173  
   0.804959800     0.5140203   -0.3615008  
   0.806959700     0.4515122   -0.4426034  
   0.808959600     0.3766827   -0.5133207  
   0.810959500     0.2915445   -0.5707356  
   0.812959400     0.1985640   -0.6140965  
   0.814959300     0.0999151   -0.6418341  
   0.816959200    -0.0014750   -0.6535050  
   0.818959100    -0.1032150   -0.6491604  
   0.820959000    -0.2023859   -0.6288108  
   0.822958900    -0.2971667   -0.5933117  
   0.824958800    -0.3845585   -0.5436355  
   0.826958700    -0.4630779   -0.4811032  
   0.828958600    -0.5306526   -0.4075738  
   0.830958500    -0.5858525   -0.3245465  
   0.832958400    -0.6275017   -0.2347860  
   0.834958300    -0.6547516   -0.1402896  
   0.836958200    -0.6675547   -0.0430525  
   0.838958100    -0.6655158    0.0547573  
   0.840958000    -0.6485504    0.1513018  
   0.842957900    -0.6171480    0.2435813  
   0.844957800    -0.5723386    0.3307275  
   0.846957700    -0.5148839    0.4100625  
   0.848957600    -0.4457307    0.4803252  
   0.850957500    -0.3665440    0.5392975  
   0.852957400    -0.2791699    0.5855932  
   0.854957300    -0.1850562    0.6181453  
   0.856957200    -0.0869033    0.6358640  
   0.858957100     0.0133388    0.6381419  
   0.860957000     0.1125439    0.6249699  
   0.862956900     0.2087675    0.5960605  
   0.864956800     0.2991182    0.5525681  
   0.866956700     0.3818051    0.4952620  
   0.868956600     0.4543314    0.4249282  
   0.870956500     0.5155981    0.3438082  
   0.872956400     0.5635856    0.2533373  
   0.874956300     0.5961446    0.1555965  
   0.876956200     0.6126111    0.0531402  
   0.878956100     0.6122072   -0.0511610  
   0.880956000     0.5941508   -0.1541732  
   0.882955900     0.5592900   -0.2530976  
   0.884955800     0.5080840   -0.3447123  
   0.886955700     0.4426301   -0.4263149  
   0.888955600     0.3646428   -0.4956390  
   0.890955500     0.2766725   -0.5506551  
   0.892955400     0.1812211   -0.5901404  
   0.894955300     0.0811565   -0.6130028  
