! MS46122B
! 2250307/22442219
! 7/21/2025 12:19:04 PM
! C:\USERS\SPARKY\DOCUMENTS\VNA_DATA\JULY21_2025\295K\PORT6_MOS6_REPEAT1.S1P
! CHANNEL.1
! TR.MEASUREMENT
! RAW.DATA
# GHZ S RI R 50.0
! FREQ.GHZ         S11RE         S11IM         
!; PortSelection: Port_1
   0.001000000     1.0451020   -0.0720371  
   0.002999900     0.9471624   -0.2221488  
   0.004999800     0.8241349   -0.1005639  
   0.006999700     0.5172058   -0.3812585  
   0.008999600     0.9291053   -0.0400580  
   0.010999500     0.9133595   -0.2440268  
   0.012999400     0.8740514   -0.3485777  
   0.014999300     0.8337806   -0.4291425  
   0.016999200     0.7922199   -0.4996206  
   0.018999100     0.7479910   -0.5647078  
   0.020999000     0.6985733   -0.6251273  
   0.022998900     0.6442771   -0.6808229  
   0.024998800     0.5761716   -0.6963209  
   0.026998700     0.5177741   -0.7771208  
   0.028998600     0.4440182   -0.8168174  
   0.030998500     0.3628447   -0.8493511  
   0.032998400     0.2785309   -0.8396318  
   0.034998300     0.1782199   -0.8876383  
   0.036998200     0.0748870   -0.8900078  
   0.038998100    -0.0338623   -0.8786786  
   0.040998000    -0.1472893   -0.8502056  
   0.042997900    -0.2633310   -0.8031464  
   0.044997800    -0.3547913   -0.7161644  
   0.046997700    -0.4885418   -0.6394602  
   0.048997600    -0.5872316   -0.5188318  
   0.050997500    -0.6668721   -0.3705592  
   0.052997400    -0.7171288   -0.1965309  
   0.054997300    -0.7269404   -0.0024993  
   0.056997200    -0.6858095    0.2026156  
   0.058997100    -0.5870176    0.3982965  
   0.060997000    -0.4328121    0.5648172  
   0.062996900    -0.2345961    0.6825268  
   0.064996800    -0.0120726    0.7386552  
   0.066996700     0.2114293    0.7296935  
   0.068996600     0.4153470    0.6631067  
   0.070996500     0.5855777    0.5532764  
   0.072996400     0.7147638    0.4139906  
   0.074996300     0.8023862    0.2608774  
   0.076996200     0.8519971    0.1042347  
   0.078996100     0.8684617   -0.0474735  
   0.080996000     0.8581002   -0.1901831  
   0.082995900     0.8254046   -0.3201834  
   0.084995800     0.7744330   -0.4356945  
   0.086995700     0.7109079   -0.5371778  
   0.088995600     0.6369163   -0.6244994  
   0.090995500     0.5548630   -0.6981964  
   0.092995400     0.4672410   -0.7589369  
   0.094995300     0.3738887   -0.8062567  
   0.096995200     0.2778372   -0.8407888  
   0.098995100     0.1797163   -0.8630207  
   0.100995000     0.0786940   -0.8735582  
   0.102994900    -0.0212558   -0.8715985  
   0.104994800    -0.1206978   -0.8579212  
   0.106994700    -0.2187337   -0.8311686  
   0.108994600    -0.3138697   -0.7931976  
   0.110994500    -0.4054510   -0.7431147  
   0.112994400    -0.4919738   -0.6804148  
   0.114994300    -0.5714491   -0.6051962  
   0.116994200    -0.6421810   -0.5172932  
   0.118994100    -0.7021223   -0.4176013  
   0.120994000    -0.7502441   -0.3075222  
   0.122993900    -0.7816193   -0.1858790  
   0.124993800    -0.7945414   -0.0564953  
   0.126993700    -0.7861258    0.0786829  
   0.128993600    -0.7531481    0.2152505  
   0.130993500    -0.6962774    0.3496426  
   0.132993400    -0.6129753    0.4761673  
   0.134993300    -0.5044011    0.5889848  
   0.136993200    -0.3722915    0.6810809  
   0.138993100    -0.2213018    0.7472472  
   0.140993000    -0.0571631    0.7819821  
   0.142992900     0.1123533    0.7824795  
   0.144992800     0.2795534    0.7491912  
   0.146992700     0.4351893    0.6813192  
   0.148992600     0.5720682    0.5838819  
   0.150992500     0.6832611    0.4621504  
   0.152992400     0.7673614    0.3246643  
   0.154992300     0.8217478    0.1780094  
   0.156992200     0.8467495    0.0277973  
   0.158992100     0.8441944   -0.1191540  
   0.160992000     0.8167804   -0.2587545  
   0.162991900     0.7674497   -0.3868178  
   0.164991800     0.7001344   -0.5014915  
   0.166991700     0.6181303   -0.6001992  
   0.168991600     0.5246364   -0.6826846  
   0.170991500     0.4223957   -0.7485260  
   0.172991400     0.3145024   -0.7974201  
   0.174991300     0.2034070   -0.8296850  
   0.176991200     0.0901807   -0.8457046  
   0.178991100    -0.0222854   -0.8456845  
   0.180991000    -0.1323612   -0.8311970  
   0.182990900    -0.2389991   -0.8014539  
   0.184990800    -0.3404140   -0.7577233  
   0.186990700    -0.4350761   -0.7002810  
   0.188990600    -0.5029752   -0.6442686  
   0.190990500    -0.5946003   -0.5504121  
   0.192990400    -0.6618550   -0.4553611  
   0.194990300    -0.7138983   -0.3531740  
   0.196990200    -0.7511153   -0.2434179  
   0.198990100    -0.7728090   -0.1270936  
   0.200990000    -0.7771256   -0.0061322  
   0.202989900    -0.7625092    0.1168759  
   0.204989800    -0.7284428    0.2389027  
   0.206989700    -0.6756379    0.3570160  
   0.208989600    -0.6014304    0.4668930  
   0.210989500    -0.5076304    0.5655388  
   0.212989400    -0.3961754    0.6485804  
   0.214989300    -0.2689996    0.7124289  
   0.216989200    -0.1308281    0.7534081  
   0.218989100     0.0143469    0.7690311  
   0.220989000     0.1614535    0.7580252  
   0.222988900     0.3056689    0.7196888  
   0.224988800     0.4405380    0.6551139  
   0.226988700     0.5610402    0.5673558  
   0.228988600     0.6623902    0.4599615  
   0.230988500     0.7416772    0.3370188  
   0.232988400     0.7960256    0.2030231  
   0.234988300     0.8265775    0.0641941  
   0.236988200     0.8321620   -0.0753752  
   0.238988100     0.8142104   -0.2107848  
   0.240988000     0.7752444   -0.3385524  
   0.242987900     0.7172741   -0.4545674  
   0.244987800     0.6435214   -0.5577542  
   0.246987700     0.5563250   -0.6467004  
   0.248987600     0.4587298   -0.7199634  
   0.250987500     0.3527278   -0.7764171  
   0.252987400     0.2425792   -0.8160461  
   0.254987300     0.1303301   -0.8390825  
   0.256987200     0.0177000   -0.8457150  
   0.258987100    -0.0936939   -0.8381780  
   0.260987000    -0.2017702   -0.8143376  
   0.262986900    -0.3057048   -0.7756893  
   0.264986800    -0.4028797   -0.7236860  
   0.266986700    -0.4918717   -0.6585528  
   0.268986600    -0.5712041   -0.5820198  
   0.270986500    -0.6388913   -0.4951014  
   0.272986400    -0.6945479   -0.3990403  
   0.274986300    -0.7366416   -0.2953430  
   0.276986200    -0.7637997   -0.1848430  
   0.278986100    -0.7747778   -0.0692516  
   0.280986000    -0.7683505    0.0489013  
   0.282985900    -0.7433502    0.1672959  
   0.284985800    -0.6991798    0.2825970  
   0.286985700    -0.6357227    0.3914925  
   0.288985600    -0.5542279    0.4904278  
   0.290985500    -0.4551518    0.5754812  
   0.292985400    -0.3404456    0.6432466  
   0.294985300    -0.2131156    0.6907968  
   0.296985200    -0.0759316    0.7147024  
   0.298985100     0.0659108    0.7124920  
   0.300985000     0.2060461    0.6827833  
   0.302984900     0.3384568    0.6257268  
   0.304984800     0.4567771    0.5432860  
   0.306984700     0.5556061    0.4402344  
   0.308984600     0.6306125    0.3206583  
   0.310984500     0.6789556    0.1916498  
   0.312984400     0.6999736    0.0588389  
   0.314984300     0.6948041   -0.0710060  
   0.316984200     0.6657129   -0.1921450  
   0.318984100     0.6161641   -0.3004827  
   0.320984000     0.5519424   -0.3925644  
   0.322983900     0.4779240   -0.4668506  
   0.324983800     0.3998397   -0.5234247  
   0.326983700     0.3223789   -0.5648691  
   0.328983600     0.2487230   -0.5958447  
   0.330983500     0.1788812   -0.6207934  
   0.332983400     0.1106136   -0.6432194  
   0.334983300     0.0389850   -0.6640416  
   0.336983200    -0.0394016   -0.6811349  
   0.338983100    -0.1267702   -0.6901237  
   0.340983000    -0.2210739   -0.6854403  
   0.342982900    -0.3192545   -0.6641717  
   0.344982800    -0.4163736   -0.6240606  
   0.346982700    -0.5084744   -0.5654154  
   0.348982600    -0.5892887   -0.4894567  
   0.350982500    -0.6576939   -0.4010195  
   0.352982400    -0.7111945   -0.3010510  
   0.354982300    -0.7490227   -0.1883744  
   0.356982200    -0.7689611   -0.0566213  
   0.358982100    -0.7644109    0.0760990  
   0.360982000    -0.7361524    0.2053530  
   0.362981900    -0.6856532    0.3279712  
   0.364981800    -0.6140649    0.4402280  
   0.366981700    -0.5234841    0.5386995  
   0.368981600    -0.4163570    0.6199809  
   0.370981500    -0.2959081    0.6812305  
   0.372981400    -0.1654859    0.7206272  
   0.374981300    -0.0280032    0.7361013  
   0.376981200    -0.1284132    0.7318438  
   0.378981100     0.0146212    0.7406512  
   0.380981000     0.1580655    0.7223859  
   0.382980900     0.2855846    0.6815373  
   0.384980800     0.4002345    0.6219720  
   0.386980700     0.5038897    0.5429674  
   0.388980600     0.5926549    0.4466391  
   0.390980500     0.6634455    0.3371653  
   0.392980400     0.7141843    0.2174439  
   0.394980300     0.7434162    0.0912806  
   0.396980200     0.7507915   -0.0374086  
   0.398980100     0.7362396   -0.1644211  
   0.400980000     0.7007142   -0.2861094  
   0.402979900     0.6455047   -0.3992804  
   0.404979800     0.5734938   -0.5004340  
   0.406979700     0.4867041   -0.5870876  
   0.408979600     0.3886280   -0.6575105  
   0.410979500     0.2809920   -0.7106454  
   0.412979400     0.1671608   -0.7456964  
   0.414979300     0.0506155   -0.7609028  
   0.416979200    -0.0657167   -0.7588635  
   0.418979100    -0.1781517   -0.7390326  
   0.420979000    -0.2857559   -0.7024742  
   0.422978900    -0.3858528   -0.6503658  
   0.424978800    -0.4762959   -0.5845676  
   0.426978700    -0.5556390   -0.5059905  
   0.428978600    -0.6214551   -0.4169887  
   0.430978500    -0.6732736   -0.3197886  
   0.432978400    -0.7096240   -0.2167801  
   0.434978300    -0.7318873   -0.1098571  
   0.436978200    -0.7370371   -0.0002934  
   0.438978100    -0.7257727    0.1090690  
   0.440978000    -0.6984140    0.2159274  
   0.442977900    -0.6552779    0.3183546  
   0.444977800    -0.5966654    0.4140893  
   0.446977700    -0.5237761    0.4998461  
   0.448977600    -0.4379573    0.5747051  
   0.450977500    -0.3406595    0.6359454  
   0.452977400    -0.2334743    0.6820890  
   0.454977300    -0.1188262    0.7107869  
   0.456977200     0.0005437    0.7210839  
   0.458977100     0.1212584    0.7116849  
   0.460977000     0.2396403    0.6825884  
   0.462976900     0.3521525    0.6339046  
   0.464976800     0.4555292    0.5668905  
   0.466976700     0.5469434    0.4831866  
   0.468976600     0.6230026    0.3851081  
   0.470976500     0.6815997    0.2751888  
   0.472976400     0.7206056    0.1576130  
   0.474976300     0.7395883    0.0352316  
   0.476976200     0.7376614   -0.0876023  
   0.478976100     0.7154273   -0.2074375  
   0.480976000     0.6746552   -0.3203768  
   0.482975900     0.6166671   -0.4237539  
   0.484975800     0.5438519   -0.5152994  
   0.486975700     0.4581909   -0.5930772  
   0.488975600     0.3629118   -0.6558909  
   0.490975500     0.2602501   -0.7021904  
   0.492975400     0.1528931   -0.7323141  
   0.494975300     0.0434859   -0.7456202  
   0.496975200    -0.0653846   -0.7424226  
   0.498975100    -0.1709590   -0.7235987  
   0.500975000    -0.2716733   -0.6896685  
   0.502974900    -0.3655694   -0.6422655  
   0.504974800    -0.4515031   -0.5816866  
   0.506974700    -0.5279929   -0.5102754  
   0.508974600    -0.5937195   -0.4276336  
   0.510974500    -0.6469269   -0.3364296  
   0.512974400    -0.6866792   -0.2382631  
   0.514974300    -0.7101368   -0.1348827  
   0.516974200    -0.7193093   -0.0290204  
   0.518974100    -0.7125875    0.0778689  
   0.520974000    -0.6893327    0.1832333  
   0.522973900    -0.6499324    0.2845296  
   0.524973800    -0.5943535    0.3788539  
   0.526973700    -0.5241101    0.4638304  
   0.528973600    -0.4407370    0.5365929  
   0.530973500    -0.3465095    0.5954383  
   0.532973400    -0.2443265    0.6377672  
   0.534973300    -0.1366166    0.6635405  
   0.536973200    -0.0264868    0.6717559  
   0.538973100     0.0831032    0.6627135  
   0.540973000     0.1890588    0.6368540  
   0.542972900     0.2896952    0.5951635  
   0.544972800     0.3827445    0.5383837  
   0.546972700     0.4663175    0.4674093  
   0.548972600     0.5377106    0.3843226  
   0.550972500     0.5954587    0.2907094  
   0.552972400     0.6383185    0.1885869  
   0.554972300     0.6644015    0.0807643  
   0.556972200     0.6725415   -0.0302800  
   0.558972100     0.6630297   -0.1413472  
   0.560972000     0.6358489   -0.2494659  
   0.562971900     0.5919527   -0.3512083  
   0.564971800     0.5325444   -0.4446948  
   0.566971700     0.4592497   -0.5270709  
   0.568971600     0.3743119   -0.5964833  
   0.570971500     0.2794609   -0.6516199  
   0.572971400     0.1778185   -0.6908010  
   0.574971300     0.0709290   -0.7135401  
   0.576971200    -0.0377962   -0.7194727  
   0.578971100    -0.1460343   -0.7086310  
   0.580971000    -0.2507705   -0.6812276  
   0.582970900    -0.3492415   -0.6384245  
   0.584970800    -0.4395411   -0.5813817  
   0.586970700    -0.5194769   -0.5121239  
   0.588970600    -0.5875971   -0.4319489  
   0.590970500    -0.6431362   -0.3429819  
   0.592970400    -0.6847950   -0.2469605  
   0.594970300    -0.7116525   -0.1461437  
   0.596970200    -0.7235156   -0.0426164  
   0.598970100    -0.7200293    0.0617513  
   0.600970000    -0.7012342    0.1648565  
   0.602969900    -0.6674339    0.2639464  
   0.604969800    -0.6191170    0.3577270  
   0.606969700    -0.5570932    0.4436594  
   0.608969600    -0.4819021    0.5200500  
   0.610969500    -0.3961355    0.5845109  
   0.612969400    -0.3006824    0.6359898  
   0.614969300    -0.1979500    0.6719947  
   0.616969200    -0.0900759    0.6918543  
   0.618969100     0.0193559    0.6952660  
   0.620969000     0.1287633    0.6814119  
   0.622968900     0.2356044    0.6502641  
   0.624968800     0.3369824    0.6018479  
   0.626968700     0.4303315    0.5375873  
   0.628968600     0.5125971    0.4585944  
   0.630968500     0.5811330    0.3663868  
   0.632968400     0.6338431    0.2639582  
   0.634968300     0.6693693    0.1532518  
   0.636968200     0.6857263    0.0387734  
   0.638968100     0.6829181   -0.0772045  
   0.640968000     0.6607711   -0.1911463  
   0.642967900     0.6200882   -0.2987870  
   0.644967800     0.5622451   -0.3980723  
   0.646967700     0.4893759   -0.4856494  
   0.648967600     0.4041036   -0.5593537  
   0.650967500     0.3088183   -0.6175190  
   0.652967400     0.2062484   -0.6586751  
   0.654967300     0.0999270   -0.6831913  
   0.656967200    -0.0077224   -0.6900826  
   0.658967100    -0.1141507   -0.6800217  
   0.660967000    -0.2168444   -0.6535954  
   0.662966900    -0.3137979   -0.6119372  
   0.664966800    -0.4025637   -0.5560439  
   0.666966700    -0.4812733   -0.4874845  
   0.668966600    -0.5481669   -0.4081569  
   0.670966500    -0.6016496   -0.3202077  
   0.672966400    -0.6417115   -0.2257712  
   0.674966300    -0.6662529   -0.1268045  
   0.676966200    -0.6752743   -0.0258736  
   0.678966100    -0.6693640    0.0749018  
   0.680966000    -0.6481105    0.1739542  
   0.682965900    -0.6123480    0.2687612  
   0.684965800    -0.5627345    0.3569506  
   0.686965700    -0.4997472    0.4371098  
   0.688965600    -0.4248780    0.5071054  
   0.690965500    -0.3396041    0.5644040  
   0.692965400    -0.2461446    0.6086888  
   0.694965300    -0.1463189    0.6383398  
   0.696965200    -0.0426240    0.6518887  
   0.698965100     0.0633296    0.6486640  
   0.700965000     0.1681336    0.6284903  
   0.702964900     0.2691692    0.5914443  
   0.704964800     0.3631110    0.5378410  
   0.706964700     0.4477853    0.4690612  
   0.708964600     0.5201614    0.3861609  
   0.710964500     0.5786561    0.2931590  
   0.712964400     0.6202076    0.1908303  
   0.714964300     0.6440025    0.0832154  
   0.716964200     0.6492425   -0.0261269  
   0.718964100     0.6359764   -0.1340137  
   0.720964000     0.6057528   -0.2366393  
   0.722963900     0.5595226   -0.3321508  
   0.724963800     0.4992484   -0.4178437  
   0.726963700     0.4268079   -0.4918787  
   0.728963600     0.3446811   -0.5532513  
   0.730963500     0.2545167   -0.5996888  
   0.732963400     0.1600287   -0.6321479  
   0.734963300     0.0623052   -0.6495931  
   0.736963200    -0.0501064   -0.6515235  
   0.738963100    -0.1604128   -0.6336955  
   0.740963000    -0.2653287   -0.5973426  
   0.742962900    -0.3617572   -0.5440999  
   0.744962800    -0.4473746   -0.4751965  
   0.746962700    -0.5202297   -0.3931594  
   0.748962600    -0.5776030   -0.2992091  
   0.750962500    -0.5403913   -0.3832403  
   0.752962400    -0.5963180   -0.2874977  
   0.754962300    -0.6347985   -0.1834734  
   0.756962200    -0.6548881   -0.0737771  
   0.758962100    -0.6555361    0.0380363  
   0.760962000    -0.6363043    0.1488767  
   0.762961900    -0.6003067    0.2500336  
   0.764961800    -0.5533345    0.3360226  
   0.766961700    -0.4933884    0.4141907  
   0.768961600    -0.4216768    0.4819937  
   0.770961500    -0.3403670    0.5375703  
   0.772961400    -0.2511187    0.5799488  
   0.774961300    -0.1566143    0.6072780  
   0.776961200    -0.0587046    0.6200424  
   0.778961100     0.0404857    0.6170778  
   0.780961000     0.1380407    0.5989406  
   0.782960900     0.2321880    0.5651305  
   0.784960800     0.3202307    0.5168530  
   0.786960700     0.4000346    0.4549966  
   0.788960600     0.4693625    0.3809361  
   0.790960500     0.5258084    0.2969033  
   0.792960400     0.5683796    0.2046255  
   0.794960300     0.5954570    0.1068613  
   0.796960200     0.6066423    0.0056859  
   0.798960100     0.6011826   -0.0957275  
   0.800960000     0.5797521   -0.1946991  
   0.802959900     0.5427272   -0.2892204  
   0.804959800     0.4908803   -0.3764877  
   0.806959700     0.4261059   -0.4539100  
   0.808959600     0.3497962   -0.5203314  
   0.810959500     0.2637637   -0.5733942  
   0.812959400     0.1707494   -0.6122751  
   0.814959300     0.0728228   -0.6356421  
   0.816959200    -0.0272261   -0.6431727  
   0.818959100    -0.1270683   -0.6349319  
   0.820959000    -0.2236958   -0.6110932  
   0.822958900    -0.3155645   -0.5725523  
   0.824958800    -0.3996084   -0.5201496  
   0.826958700    -0.4742314   -0.4558305  
   0.828958600    -0.5379828   -0.3809523  
   0.830958500    -0.5888754   -0.2973606  
   0.832958400    -0.6263962   -0.2075808  
   0.834958300    -0.6495789   -0.1134056  
   0.836958200    -0.6584136   -0.0172748  
   0.838958100    -0.6524553    0.0789484  
   0.840958000    -0.6322992    0.1729206  
   0.842957900    -0.5978276    0.2627161  
   0.844957800    -0.5502271    0.3468824  
   0.846957700    -0.4903381    0.4229310  
   0.848957600    -0.4195657    0.4891615  
   0.850957500    -0.3392613    0.5440620  
   0.852957400    -0.2511126    0.5860276  
   0.854957300    -0.1571501    0.6142201  
   0.856957200    -0.0597405    0.6275893  
   0.858957100     0.0390998    0.6255453  
   0.860957000     0.1365797    0.6083843  
   0.862956900     0.2297410    0.5756994  
   0.864956800     0.3166742    0.5287877  
   0.866956700     0.3954721    0.4687345  
   0.868956600     0.4635828    0.3962725  
   0.870956500     0.5199705    0.3136608  
   0.872956400     0.5630539    0.2226835  
   0.874956300     0.5904803    0.1251251  
   0.876956200     0.6020306    0.0237185  
   0.878956100     0.5962827   -0.0785552  
   0.880956000     0.5740533   -0.1787093  
   0.882955900     0.5352573   -0.2737501  
   0.884955800     0.4809236   -0.3612024  
   0.886955700     0.4131811   -0.4379101  
   0.888955600     0.3336913   -0.5022429  
   0.890955500     0.2448997   -0.5519679  
   0.892955400     0.1498425   -0.5862478  
   0.894955300     0.0508826   -0.6041642  
