! MS46122B
! 2250307/22442219
! 7/23/2025 1:19:38 PM
! C:\USERS\SPARKY\DOCUMENTS\VNA_DATA\JULY23_2025\295K\PORT4_MOS2_REPEAT1.S1P
! CHANNEL.1
! TR.MEASUREMENT
! RAW.DATA
# GHZ S RI R 50.0
! FREQ.GHZ         S11RE         S11IM         
!; PortSelection: Port_1
   0.001000000     1.0462080   -0.0710952  
   0.002999900     0.9643216   -0.1937935  
   0.004999800     0.9033214   -0.2986352  
   0.006999700     0.8355736   -0.3960720  
   0.008999600     0.7554243   -0.4905723  
   0.010999500     0.6606914   -0.5795009  
   0.012999400     0.5458989   -0.6597038  
   0.014999300     0.4057243   -0.7243682  
   0.016999200     0.2354077   -0.7601164  
   0.018999100     0.0332403   -0.7471216  
   0.020999000    -0.1876103   -0.6539897  
   0.022998900    -0.3851572   -0.4499397  
   0.024998800    -0.4653506   -0.1404684  
   0.026998700    -0.4031512    0.2099449  
   0.028998600    -0.1595054    0.4659680  
   0.030998500     0.1492803    0.5613067  
   0.032998400     0.3997406    0.5099996  
   0.034998300     0.6274280    0.3998631  
   0.036998200     0.7572723    0.2501511  
   0.038998100     0.8298427    0.0966745  
   0.040998000     0.8600544   -0.0486515  
   0.042997900     0.8604800   -0.1807376  
   0.044997800     0.8142836   -0.2738783  
   0.046997700     0.8000921   -0.4032094  
   0.048997600     0.7506093   -0.4950384  
   0.050997500     0.6921306   -0.5743696  
   0.052997400     0.6282445   -0.6413704  
   0.054997300     0.5555707   -0.7015368  
   0.056997200     0.4801742   -0.7508572  
   0.058997100     0.4011729   -0.7909417  
   0.060997000     0.3187696   -0.8223171  
   0.062996900     0.2337020   -0.8449203  
   0.064996800     0.1461896   -0.8579572  
   0.066996700     0.0564059   -0.8620812  
   0.068996600    -0.0344505   -0.8558023  
   0.070996500    -0.1261933   -0.8399199  
   0.072996400    -0.2180751   -0.8114615  
   0.074996300    -0.3084263   -0.7711958  
   0.076996200    -0.3961793   -0.7179813  
   0.078996100    -0.4794082   -0.6515697  
   0.080996000    -0.5560612   -0.5707669  
   0.082995900    -0.6235055   -0.4757545  
   0.084995800    -0.6777447   -0.3666217  
   0.086995700    -0.7171382   -0.2450266  
   0.088995600    -0.7364990   -0.1120871  
   0.090995500    -0.7325184    0.0289116  
   0.092995400    -0.7023882    0.1735920  
   0.094995300    -0.6416644    0.3158011  
   0.096995200    -0.5502466    0.4479435  
   0.098995100    -0.4294332    0.5616239  
   0.100995000    -0.2821937    0.6500238  
   0.102994900    -0.1181025    0.7035265  
   0.104994800     0.0546489    0.7191680  
   0.106994700     0.2258120    0.6953546  
   0.108994600     0.3852449    0.6357750  
   0.110994500     0.5249211    0.5452678  
   0.112994400     0.6388308    0.4304665  
   0.114994300     0.7235785    0.2994626  
   0.116994200     0.7786517    0.1597337  
   0.118994100     0.8050046    0.0184466  
   0.120994000     0.8065693   -0.1193028  
   0.122993900     0.7835694   -0.2494598  
   0.124993800     0.7408702   -0.3686784  
   0.126993700     0.6820460   -0.4755760  
   0.128993600     0.6095513   -0.5677378  
   0.130993500     0.5275365   -0.6459832  
   0.132993400     0.4377635   -0.7099880  
   0.134993300     0.3424103   -0.7595758  
   0.136993200     0.2435869   -0.7946311  
   0.138993100     0.1423293   -0.8159472  
   0.140993000     0.0410948   -0.8234812  
   0.142992900    -0.0599936   -0.8180048  
   0.144992800    -0.1588111   -0.8012164  
   0.146992700    -0.2549956   -0.7701586  
   0.148992600    -0.3465165   -0.7271712  
   0.150992500    -0.4310390   -0.6712584  
   0.152992400    -0.5095976   -0.6049141  
   0.154992300    -0.5795371   -0.5281661  
   0.156992200    -0.6397582   -0.4407870  
   0.158992100    -0.6882792   -0.3441981  
   0.160992000    -0.7235376   -0.2394617  
   0.162991900    -0.7442418   -0.1279926  
   0.164991800    -0.7482612   -0.0116161  
   0.166991700    -0.7342463    0.1067908  
   0.168991600    -0.7011578    0.2248017  
   0.170991500    -0.6481865    0.3395822  
   0.172991400    -0.5753859    0.4465012  
   0.174991300    -0.4832562    0.5420284  
   0.176991200    -0.3732337    0.6220957  
   0.178991100    -0.2480318    0.6828393  
   0.180991000    -0.1122282    0.7212695  
   0.182990900     0.0304481    0.7337096  
   0.184990800     0.1747078    0.7191280  
   0.186990700     0.3140045    0.6777396  
   0.188990600     0.4245890    0.6225107  
   0.190990500     0.5537005    0.5235023  
   0.192990400     0.6501577    0.4132509  
   0.194990300     0.7217912    0.2913660  
   0.196990200     0.7693453    0.1612366  
   0.198990100     0.7927970    0.0272548  
   0.200990000     0.7925033   -0.1059643  
   0.202989900     0.7697120   -0.2340473  
   0.204989800     0.7270690   -0.3536740  
   0.206989700     0.6680694   -0.4627061  
   0.208989600     0.5936660   -0.5573656  
   0.210989500     0.5069107   -0.6380647  
   0.212989400     0.4110560   -0.7034196  
   0.214989300     0.3083515   -0.7524024  
   0.216989200     0.2019487   -0.7853556  
   0.218989100     0.0938083   -0.8022346  
   0.220989000    -0.0142916   -0.8037954  
   0.222988900    -0.1210692   -0.7896742  
   0.224988800    -0.2244081   -0.7611628  
   0.226988700    -0.3216391   -0.7187420  
   0.228988600    -0.4120748   -0.6633298  
   0.230988500    -0.4939400   -0.5958323  
   0.232988400    -0.5647804   -0.5161309  
   0.234988300    -0.6254138   -0.4267605  
   0.236988200    -0.6729245   -0.3287898  
   0.238988100    -0.7063340   -0.2233880  
   0.240988000    -0.7238699   -0.1132111  
   0.242987900    -0.7245305    0.0000632  
   0.244987800    -0.7074099    0.1142541  
   0.246987700    -0.6720201    0.2269330  
   0.248987600    -0.6177433    0.3348595  
   0.250987500    -0.5448259    0.4344139  
   0.252987400    -0.4545417    0.5219443  
   0.254987300    -0.3492471    0.5938020  
   0.256987200    -0.2312708    0.6472491  
   0.258987100    -0.1035983    0.6808499  
   0.260987000     0.0298779    0.6897634  
   0.262986900     0.1648919    0.6739225  
   0.264986800     0.2954582    0.6334400  
   0.266986700     0.4164692    0.5691005  
   0.268986600     0.5233433    0.4837644  
   0.270986500     0.6119308    0.3810307  
   0.272986400     0.6798655    0.2647342  
   0.274986300     0.7250552    0.1396811  
   0.276986200     0.7468929    0.0101782  
   0.278986100     0.7458007   -0.1189178  
   0.280986000     0.7221923   -0.2439333  
   0.282985900     0.6791210   -0.3608429  
   0.284985800     0.6183451   -0.4667859  
   0.286985700     0.5431733   -0.5593723  
   0.288985600     0.4565537   -0.6365041  
   0.290985500     0.3614798   -0.6979091  
   0.292985400     0.2607130   -0.7433436  
   0.294985300     0.1563675   -0.7730702  
   0.296985200     0.0500812   -0.7871705  
   0.298985100    -0.0558578   -0.7860196  
   0.300985000    -0.1596261   -0.7700418  
   0.302984900    -0.2590888   -0.7402919  
   0.304984800    -0.3523380   -0.6975693  
   0.306984700    -0.4382278   -0.6432477  
   0.308984600    -0.5152258   -0.5782920  
   0.310984500    -0.5827293   -0.5040274  
   0.312984400    -0.6397074   -0.4214501  
   0.314984300    -0.6857455   -0.3310055  
   0.316984200    -0.7191461   -0.2346147  
   0.318984100    -0.7391947   -0.1321515  
   0.320984000    -0.7439595   -0.0254744  
   0.322983900    -0.7328846    0.0826178  
   0.324983800    -0.7041380    0.1893026  
   0.326983700    -0.6582008    0.2909355  
   0.328983600    -0.5953718    0.3835759  
   0.330983500    -0.5186897    0.4640775  
   0.332983400    -0.4317317    0.5298009  
   0.334983300    -0.3372190    0.5811102  
   0.336983200    -0.2372317    0.6184615  
   0.338983100    -0.1331634    0.6413177  
   0.340983000    -0.0262719    0.6495327  
   0.342982900     0.0819868    0.6420805  
   0.344982800     0.1902686    0.6179423  
   0.346982700     0.2954116    0.5761921  
   0.348982600     0.3933478    0.5162866  
   0.350982500     0.4819838    0.4403792  
   0.352982400     0.5575521    0.3495560  
   0.354982300     0.6184888    0.2419746  
   0.356982200     0.6613974    0.1129513  
   0.358982100     0.6781494   -0.0223130  
   0.360982000     0.6677715   -0.1577315  
   0.362981900     0.6311921   -0.2887352  
   0.364981800     0.5696471   -0.4099024  
   0.366981700     0.4861102   -0.5165961  
   0.368981600     0.3838509   -0.6043040  
   0.370981500     0.2672586   -0.6706309  
   0.372981400     0.1408737   -0.7132566  
   0.374981300     0.0094055   -0.7309990  
   0.376981200     0.1189238   -0.7201903  
   0.378981100    -0.0110162   -0.7328463  
   0.380981000    -0.1402237   -0.7213844  
   0.382980900    -0.2530509   -0.6912412  
   0.384980800    -0.3537383   -0.6460823  
   0.386980700    -0.4452600   -0.5859679  
   0.388980600    -0.5265974   -0.5128553  
   0.390980500    -0.5951473   -0.4290575  
   0.392980400    -0.6495955   -0.3371092  
   0.394980300    -0.6898210   -0.2382443  
   0.396980200    -0.7146654   -0.1352491  
   0.398980100    -0.7242925   -0.0290349  
   0.400980000    -0.7180142    0.0776998  
   0.402979900    -0.6956054    0.1828303  
   0.404979800    -0.6581664    0.2840181  
   0.406979700    -0.6053098    0.3790484  
   0.408979600    -0.5382681    0.4658039  
   0.410979500    -0.4578356    0.5424891  
   0.412979400    -0.3647068    0.6069379  
   0.414979300    -0.2614438    0.6554642  
   0.416979200    -0.1507248    0.6886277  
   0.418979100    -0.0349824    0.7038640  
   0.420979000     0.0828878    0.7002867  
   0.422978900     0.2001268    0.6770334  
   0.424978800     0.3128273    0.6343016  
   0.426978700     0.4179177    0.5728017  
   0.428978600     0.5116066    0.4940480  
   0.430978500     0.5907224    0.4002047  
   0.432978400     0.6529310    0.2944999  
   0.434978300     0.6972304    0.1799875  
   0.436978200     0.7202758    0.0596508  
   0.438978100     0.7227476   -0.0625316  
   0.440978000     0.7046121   -0.1828135  
   0.442977900     0.6669595   -0.2976210  
   0.444977800     0.6108828   -0.4034879  
   0.446977700     0.5386008   -0.4976872  
   0.448977600     0.4528987   -0.5780303  
   0.450977500     0.3560962   -0.6428147  
   0.452977400     0.2509893   -0.6903939  
   0.454977300     0.1401824   -0.7200095  
   0.456977200     0.0267032   -0.7318332  
   0.458977100    -0.0860046   -0.7254250  
   0.460977000    -0.1950628   -0.7016183  
   0.462976900    -0.2981192   -0.6615910  
   0.464976800    -0.3929369   -0.6063314  
   0.466976700    -0.4774151   -0.5379673  
   0.468976600    -0.5500736   -0.4577855  
   0.470976500    -0.6092546   -0.3673707  
   0.472976400    -0.6541091   -0.2696702  
   0.474976300    -0.6833958   -0.1662921  
   0.476976200    -0.6963682   -0.0598030  
   0.478976100    -0.6927983    0.0477139  
   0.480976000    -0.6726454    0.1531395  
   0.482975900    -0.6365542    0.2543854  
   0.484975800    -0.5848579    0.3493344  
   0.486975700    -0.5179262    0.4358806  
   0.488975600    -0.4377019    0.5113131  
   0.490975500    -0.3456320    0.5733426  
   0.492975400    -0.2433451    0.6199418  
   0.494975300    -0.1339613    0.6489035  
   0.496975200    -0.0203820    0.6593189  
   0.498975100     0.0936093    0.6500987  
   0.500975000     0.2046149    0.6210958  
   0.502974900     0.3085034    0.5731566  
   0.504974800     0.4024073    0.5084311  
   0.506974700     0.4830900    0.4283803  
   0.508974600     0.5481429    0.3357340  
   0.510974500     0.5952646    0.2345421  
   0.512974400     0.6244537    0.1291249  
   0.514974300     0.6337289    0.0229941  
   0.516974200     0.6271494   -0.0806701  
   0.518974100     0.6051154   -0.1792056  
   0.520974000     0.5697654   -0.2713434  
   0.522973900     0.5227931   -0.3556854  
   0.524973800     0.4655240   -0.4310836  
   0.526973700     0.3992609   -0.4979909  
   0.528973600     0.3248548   -0.5545310  
   0.530973500     0.2433915   -0.6016146  
   0.532973400     0.1556446   -0.6372032  
   0.534973300     0.0627891   -0.6601443  
   0.536973200    -0.0340902   -0.6700004  
   0.538973100    -0.1323171   -0.6645418  
   0.540973000    -0.2296519   -0.6449536  
   0.542972900    -0.3241152   -0.6098124  
   0.544972800    -0.4130456   -0.5598478  
   0.546972700    -0.4942886   -0.4953754  
   0.548972600    -0.5647203   -0.4178787  
   0.550972500    -0.6227560   -0.3298086  
   0.552972400    -0.6661303   -0.2324644  
   0.554972300    -0.6933577   -0.1287556  
   0.556972200    -0.7035940   -0.0217397  
   0.558972100    -0.6966602    0.0865079  
   0.560972000    -0.6724202    0.1922013  
   0.562971900    -0.6314460    0.2928829  
   0.564971800    -0.5749825    0.3857263  
   0.566971700    -0.5041455    0.4690189  
   0.568971600    -0.4208296    0.5400667  
   0.570971500    -0.3267467    0.5971922  
   0.572971400    -0.2237819    0.6388958  
   0.574971300    -0.1149763    0.6635457  
   0.576971200    -0.0022610    0.6702565  
   0.578971100     0.1108928    0.6582174  
   0.580971000     0.2214150    0.6273592  
   0.582970900     0.3251934    0.5785694  
   0.584970800     0.4203795    0.5129215  
   0.586970700     0.5029529    0.4318492  
   0.588970600     0.5711011    0.3377323  
   0.590970500     0.6221991    0.2336132  
   0.592970400     0.6552402    0.1216976  
   0.594970300     0.6686035    0.0059067  
   0.596970200     0.6620732   -0.1103775  
   0.598970100     0.6360779   -0.2239971  
   0.600970000     0.5911949   -0.3310017  
   0.602969900     0.5292448   -0.4284705  
   0.604969800     0.4518695   -0.5141865  
   0.606969700     0.3615694   -0.5851080  
   0.608969600     0.2615841   -0.6397347  
   0.610969500     0.1541153   -0.6768909  
   0.612969400     0.0431863   -0.6956031  
   0.614969300    -0.0681119   -0.6957609  
   0.616969200    -0.1767320   -0.6784474  
   0.618969100    -0.2799641   -0.6445163  
   0.620969000    -0.3752260   -0.5954493  
   0.622968900    -0.4615777   -0.5322697  
   0.624968800    -0.5366620   -0.4572539  
   0.626968700    -0.5992760   -0.3719466  
   0.628968600    -0.6479200   -0.2782449  
   0.630968500    -0.6816136   -0.1784955  
   0.632968400    -0.6998846   -0.0752647  
   0.634968300    -0.7023675    0.0298916  
   0.636968200    -0.6890851    0.1338990  
   0.638968100    -0.6602313    0.2350544  
   0.640968000    -0.6163234    0.3312677  
   0.642967900    -0.5581726    0.4196850  
   0.644967800    -0.4868599    0.4987832  
   0.646967700    -0.4041341    0.5666675  
   0.648967600    -0.3110993    0.6214995  
   0.650967500    -0.2107145    0.6611835  
   0.652967400    -0.1044997    0.6852617  
   0.654967300     0.0048838    0.6926007  
   0.656967200     0.1149291    0.6827950  
   0.658967100     0.2225262    0.6551657  
   0.660967000     0.3258969    0.6103309  
   0.662966900     0.4218313    0.5485471  
   0.664966800     0.5072505    0.4714252  
   0.666966700     0.5795240    0.3800096  
   0.668966600     0.6360708    0.2773598  
   0.670966500     0.6747309    0.1663686  
   0.672966400     0.6955984    0.0503574  
   0.674966300     0.6955450   -0.0673300  
   0.676966200     0.6756149   -0.1832501  
   0.678966100     0.6369392   -0.2934154  
   0.680966000     0.5807213   -0.3950615  
   0.682965900     0.5090300   -0.4856147  
   0.684965800     0.4241586   -0.5624139  
   0.686965700     0.3283662   -0.6237902  
   0.688965600     0.2248549   -0.6686080  
   0.690965500     0.1163551   -0.6946336  
   0.692965400     0.0065834   -0.7038730  
   0.694965300    -0.1020485   -0.6959132  
   0.696965200    -0.2069471   -0.6711385  
   0.698965100    -0.3060905   -0.6311522  
   0.700965000    -0.3969918   -0.5766400  
   0.702964900    -0.4777428   -0.5094655  
   0.704964800    -0.5469888   -0.4310538  
   0.706964700    -0.6034752   -0.3438023  
   0.708964600    -0.6457936   -0.2489201  
   0.710964500    -0.6740103   -0.1490420  
   0.712964400    -0.6859657   -0.0465280  
   0.714964300    -0.6824300    0.0570917  
   0.716964200    -0.6630160    0.1584161  
   0.718964100    -0.6285912    0.2560188  
   0.720964000    -0.5797279    0.3467441  
   0.722963900    -0.5175875    0.4295988  
   0.724963800    -0.4429890    0.5018477  
   0.726963700    -0.3576040    0.5620599  
   0.728963600    -0.2631201    0.6082029  
   0.730963500    -0.1618998    0.6388786  
   0.732963400    -0.0572659    0.6531218  
   0.734963300     0.0497728    0.6503115  
   0.736963200     0.1704650    0.6256559  
   0.738963100     0.2856786    0.5791813  
   0.740963000     0.3901717    0.5117021  
   0.742962900     0.4801624    0.4263012  
   0.744962800     0.5524052    0.3253586  
   0.746962700     0.6043159    0.2134118  
   0.748962600     0.6345348    0.0942750  
   0.750962500     0.5993246    0.1894047  
   0.752962400     0.6254928    0.0714665  
   0.754962300     0.6299381   -0.0488328  
   0.756962200     0.6124587   -0.1670337  
   0.758962100     0.5743367   -0.2792988  
   0.760962000     0.5167313   -0.3826677  
   0.762961900     0.4459458   -0.4696975  
   0.764961800     0.3692794   -0.5376825  
   0.766961700     0.2830308   -0.5929991  
   0.768961600     0.1894511   -0.6348398  
   0.770961500     0.0906132   -0.6614757  
   0.772961400    -0.0114205   -0.6728339  
   0.774961300    -0.1136115   -0.6684070  
   0.776961200    -0.2147255   -0.6482754  
   0.778961100    -0.3115363   -0.6126434  
   0.780961000    -0.4022973   -0.5620767  
   0.782960900    -0.4840867   -0.4978392  
   0.784960800    -0.5553676   -0.4208191  
   0.786960700    -0.6135982   -0.3335807  
   0.788960600    -0.6573839   -0.2380361  
   0.790960500    -0.6857201   -0.1364812  
   0.792960400    -0.6976969   -0.0320637  
   0.794960300    -0.6934221    0.0732387  
   0.796960200    -0.6724770    0.1762778  
   0.798960100    -0.6358901    0.2748414  
   0.800960000    -0.5845678    0.3662767  
   0.802959900    -0.5194373    0.4488548  
   0.804959800    -0.4422035    0.5199462  
   0.806959700    -0.3550384    0.5789384  
   0.808959600    -0.2594011    0.6230797  
   0.810959500    -0.1580757    0.6522270  
   0.812959400    -0.0527148    0.6652132  
   0.814959300     0.0537196    0.6613414  
   0.816959200     0.1586960    0.6410421  
   0.818959100     0.2595165    0.6040697  
   0.820959000     0.3541100    0.5512289  
   0.822958900     0.4393958    0.4835895  
   0.824958800     0.5127820    0.4025381  
   0.826958700     0.5727382    0.3102936  
   0.828958600     0.6169148    0.2089282  
   0.830958500     0.6438903    0.1014292  
   0.832958400     0.6530114   -0.0094497  
   0.834958300     0.6436093   -0.1202782  
   0.836958200     0.6160405   -0.2278790  
   0.838958100     0.5710940   -0.3299579  
   0.840958000     0.5099044   -0.4228387  
   0.842957900     0.4342135   -0.5047855  
   0.844957800     0.3461758   -0.5726907  
   0.846957700     0.2483392   -0.6253117  
   0.848957600     0.1433872   -0.6606389  
   0.850957500     0.0350885   -0.6783371  
   0.852957400    -0.0744635   -0.6783252  
   0.854957300    -0.1817095   -0.6606959  
   0.856957200    -0.2842773   -0.6261515  
   0.858957100    -0.3792248   -0.5764273  
   0.860957000    -0.4642973   -0.5126992  
   0.862956900    -0.5376292   -0.4376580  
   0.864956800    -0.5981197   -0.3532286  
   0.866956700    -0.6447453   -0.2611521  
   0.868956600    -0.6759712   -0.1639508  
   0.870956500    -0.6930711   -0.0635680  
   0.872956400    -0.6947527    0.0376167  
   0.874956300    -0.6812995    0.1378804  
   0.876956200    -0.6528307    0.2354597  
   0.878956100    -0.6106709    0.3276233  
   0.880956000    -0.5549972    0.4127788  
   0.882955900    -0.4870018    0.4888155  
   0.884955800    -0.4082633    0.5544242  
   0.886955700    -0.3200209    0.6076149  
   0.888955600    -0.2242151    0.6475041  
   0.890955500    -0.1231086    0.6722983  
   0.892955400    -0.0185141    0.6812434  
   0.894955300     0.0867583    0.6743215  
