! MS46122B
! 2250307/22442219
! 7/28/2025 8:09:14 AM
! C:\USERS\SPARKY\DOCUMENTS\VNA_DATA\JULY28_2025\295K\PORT5_MOS6_REPEAT1.S1P
! CHANNEL.1
! TR.MEASUREMENT
! RAW.DATA
# GHZ S RI R 50.0
! FREQ.GHZ         S11RE         S11IM         
!; PortSelection: Port_1
   0.001000000     1.0464860   -0.0728556  
   0.002999900     0.9482436   -0.2224690  
   0.004999800     0.8228569   -0.0991714  
   0.006999700     0.5216957   -0.3819244  
   0.008999600     0.9302026   -0.0398496  
   0.010999500     0.9145347   -0.2445636  
   0.012999400     0.8751419   -0.3492379  
   0.014999300     0.8349438   -0.4299144  
   0.016999200     0.7933649   -0.5003981  
   0.018999100     0.7489938   -0.5654851  
   0.020999000     0.6998956   -0.6261396  
   0.022998900     0.6454369   -0.6817543  
   0.024998800     0.5772814   -0.6973085  
   0.026998700     0.5190324   -0.7783629  
   0.028998600     0.4452352   -0.8181620  
   0.030998500     0.3640435   -0.8508822  
   0.032998400     0.2797484   -0.8411928  
   0.034998300     0.1791935   -0.8895074  
   0.036998200     0.0759066   -0.8922154  
   0.038998100    -0.0329695   -0.8810622  
   0.040998000    -0.1464720   -0.8527572  
   0.042997900    -0.2628285   -0.8059091  
   0.044997800    -0.3545578   -0.7191135  
   0.046997700    -0.4887879   -0.6426964  
   0.048997600    -0.5880325   -0.5221275  
   0.050997500    -0.6682663   -0.3738636  
   0.052997400    -0.7190177   -0.2004066  
   0.054997300    -0.7297382   -0.0046199  
   0.056997200    -0.6892769    0.2005297  
   0.058997100    -0.5909273    0.3971476  
   0.060997000    -0.4367673    0.5647038  
   0.062996900    -0.2382746    0.6834369  
   0.064996800    -0.0152086    0.7404011  
   0.066996700     0.2090457    0.7319645  
   0.068996600     0.4138791    0.6658096  
   0.070996500     0.5848791    0.5560564  
   0.072996400     0.7147912    0.4166937  
   0.074996300     0.8030812    0.2632843  
   0.076996200     0.8530419    0.1062604  
   0.078996100     0.8699893   -0.0457119  
   0.080996000     0.8598725   -0.1888006  
   0.082995900     0.8274292   -0.3191834  
   0.084995800     0.7765944   -0.4351329  
   0.086995700     0.7132385   -0.5369479  
   0.088995600     0.6392502   -0.6245811  
   0.090995500     0.5572169   -0.6986861  
   0.092995400     0.4696573   -0.7597670  
   0.094995300     0.3762642   -0.8074869  
   0.096995200     0.2803314   -0.8422152  
   0.098995100     0.1819407   -0.8649004  
   0.100995000     0.0810207   -0.8756537  
   0.102994900    -0.0190496   -0.8741255  
   0.104994800    -0.1188558   -0.8607391  
   0.106994700    -0.2171943   -0.8343145  
   0.108994600    -0.3126276   -0.7966761  
   0.110994500    -0.4048312   -0.7468212  
   0.112994400    -0.4915401   -0.6844408  
   0.114994300    -0.5715528   -0.6093702  
   0.116994200    -0.6426953   -0.5216168  
   0.118994100    -0.7033846   -0.4219714  
   0.120994000    -0.7521446   -0.3117655  
   0.122993900    -0.7842520   -0.1899685  
   0.124993800    -0.7977801   -0.0601706  
   0.126993700    -0.7900781    0.0754155  
   0.128993600    -0.7575847    0.2125178  
   0.130993500    -0.7011609    0.3476497  
   0.132993400    -0.6182580    0.4750194  
   0.134993300    -0.5099880    0.5887389  
   0.136993200    -0.3776979    0.6817831  
   0.138993100    -0.2264717    0.7489239  
   0.140993000    -0.0619014    0.7846264  
   0.142992900     0.1082383    0.7858912  
   0.144992800     0.2761070    0.7533917  
   0.146992700     0.4326171    0.6857716  
   0.148992600     0.5705847    0.5886242  
   0.150992500     0.6827154    0.4669313  
   0.152992400     0.7677390    0.3294460  
   0.154992300     0.8229676    0.1823817  
   0.156992200     0.8487639    0.0319089  
   0.158992100     0.8469191   -0.1154928  
   0.160992000     0.8200387   -0.2556775  
   0.162991900     0.7711772   -0.3844014  
   0.164991800     0.7043796   -0.4995344  
   0.166991700     0.6223606   -0.5993395  
   0.168991600     0.5291453   -0.6824000  
   0.170991500     0.4267702   -0.7491162  
   0.172991400     0.3190473   -0.7985088  
   0.174991300     0.2075740   -0.8316394  
   0.176991200     0.0944232   -0.8482679  
   0.178991100    -0.0185771   -0.8489009  
   0.180991000    -0.1290864   -0.8350260  
   0.182990900    -0.2361804   -0.8057685  
   0.184990800    -0.3382903   -0.7624956  
   0.186990700    -0.4335897   -0.7052559  
   0.188990600    -0.5019536   -0.6498287  
   0.190990500    -0.5946060   -0.5561845  
   0.192990400    -0.6627088   -0.4610159  
   0.194990300    -0.7155572   -0.3588720  
   0.196990200    -0.7535966   -0.2489095  
   0.198990100    -0.7762423   -0.1323712  
   0.200990000    -0.7813054   -0.0108430  
   0.202989900    -0.7675312    0.1127209  
   0.204989800    -0.7340342    0.2355597  
   0.206989700    -0.6816284    0.3546073  
   0.208989600    -0.6078910    0.4653851  
   0.210989500    -0.5143227    0.5650185  
   0.212989400    -0.4027212    0.6493630  
   0.214989300    -0.2756802    0.7139513  
   0.216989200    -0.1370505    0.7562180  
   0.218989100     0.0085575    0.7727709  
   0.220989000     0.1565374    0.7626687  
   0.222988900     0.3014494    0.7250799  
   0.224988800     0.4375895    0.6609883  
   0.226988700     0.5590281    0.5737535  
   0.228988600     0.6615503    0.4665059  
   0.230988500     0.7420378    0.3435563  
   0.232988400     0.7975615    0.2093712  
   0.234988300     0.8289763    0.0701789  
   0.236988200     0.8355646   -0.0699475  
   0.238988100     0.8185756   -0.2062841  
   0.240988000     0.7802673   -0.3345893  
   0.242987900     0.7227597   -0.4516280  
   0.244987800     0.6494585   -0.5556247  
   0.246987700     0.5626346   -0.6458026  
   0.248987600     0.4650689   -0.7198834  
   0.250987500     0.3591164   -0.7774009  
   0.252987400     0.2486179   -0.8179896  
   0.254987300     0.1360197   -0.8419425  
   0.256987200     0.0229244   -0.8494646  
   0.258987100    -0.0889319   -0.8428187  
   0.260987000    -0.1978857   -0.8195115  
   0.262986900    -0.3025741   -0.7815238  
   0.264986800    -0.4006497   -0.7300606  
   0.266986700    -0.4905537   -0.6652448  
   0.268986600    -0.5708998   -0.5889292  
   0.270986500    -0.6395751   -0.5020948  
   0.272986400    -0.6961833   -0.4061503  
   0.274986300    -0.7395400   -0.3020058  
   0.276986200    -0.7676432   -0.1913472  
   0.278986100    -0.7796822   -0.0749994  
   0.280986000    -0.7740483    0.0436897  
   0.282985900    -0.7499176    0.1630270  
   0.284985800    -0.7065538    0.2792561  
   0.286985700    -0.6435741    0.3894291  
   0.288985600    -0.5624446    0.4896693  
   0.290985500    -0.4634908    0.5759667  
   0.292985400    -0.3488016    0.6450951  
   0.294985300    -0.2211032    0.6940494  
   0.296985200    -0.0834857    0.7192905  
   0.298985100     0.0590762    0.7185657  
   0.300985000     0.2004075    0.6898573  
   0.302984900     0.3341219    0.6337619  
   0.304984800     0.4538862    0.5521812  
   0.306984700     0.5546018    0.4491690  
   0.308984600     0.6312076    0.3297826  
   0.310984500     0.6811075    0.2003748  
   0.312984400     0.7037862    0.0666707  
   0.314984300     0.6999285   -0.0642427  
   0.316984200     0.6717465   -0.1865541  
   0.318984100     0.6228491   -0.2963102  
   0.320984000     0.5589815   -0.3898615  
   0.322983900     0.4848043   -0.4654588  
   0.324983800     0.4063967   -0.5231766  
   0.326983700     0.3283938   -0.5655198  
   0.328983600     0.2542009   -0.5970016  
   0.330983500     0.1840823   -0.6222612  
   0.332983400     0.1157987   -0.6449851  
   0.334983300     0.0442450   -0.6660904  
   0.336983200    -0.0341867   -0.6839694  
   0.338983100    -0.1215087   -0.6939426  
   0.340983000    -0.2161756   -0.6904466  
   0.342982900    -0.3150831   -0.6702969  
   0.344982800    -0.4130506   -0.6312826  
   0.346982700    -0.5066444   -0.5733774  
   0.348982600    -0.5888040   -0.4978179  
   0.350982500    -0.6588317   -0.4094064  
   0.352982400    -0.7137311   -0.3093423  
   0.354982300    -0.7530193   -0.1961941  
   0.356982200    -0.7743354   -0.0637620  
   0.358982100    -0.7711639    0.0702461  
   0.360982000    -0.7440460    0.2007920  
   0.362981900    -0.6942824    0.3247921  
   0.364981800    -0.6232010    0.4385622  
   0.366981700    -0.5327728    0.5387340  
   0.368981600    -0.4256512    0.6216227  
   0.370981500    -0.3049230    0.6844034  
   0.372981400    -0.1736667    0.7253420  
   0.374981300    -0.0355337    0.7422158  
   0.376981200    -0.1371903    0.7370166  
   0.378981100     0.0068314    0.7471803  
   0.380981000     0.1515915    0.7302178  
   0.382980900     0.2802987    0.6903387  
   0.384980800     0.3964660    0.6316450  
   0.386980700     0.5015712    0.5532104  
   0.388980600     0.5919510    0.4573480  
   0.390980500     0.6645931    0.3475836  
   0.392980400     0.7170057    0.2276056  
   0.394980300     0.7478151    0.1008211  
   0.396980200     0.7566997   -0.0287854  
   0.398980100     0.7435412   -0.1569409  
   0.400980000     0.7089990   -0.2798467  
   0.402979900     0.6547420   -0.3946240  
   0.404979800     0.5832608   -0.4974357  
   0.406979700     0.4968557   -0.5856468  
   0.408979600     0.3987180   -0.6578976  
   0.410979500     0.2906839   -0.7128726  
   0.412979400     0.1765785   -0.7493087  
   0.414979300     0.0591981   -0.7661022  
   0.416979200    -0.0578535   -0.7654702  
   0.418979100    -0.1718386   -0.7467447  
   0.420979000    -0.2807361   -0.7110946  
   0.422978900    -0.3821615   -0.6598110  
   0.424978800    -0.4745257   -0.5944396  
   0.426978700    -0.5552562   -0.5160834  
   0.428978600    -0.6227652   -0.4269847  
   0.430978500    -0.6760705   -0.3296202  
   0.432978400    -0.7141804   -0.2257537  
   0.434978300    -0.7376608   -0.1184910  
   0.436978200    -0.7440990   -0.0077604  
   0.438978100    -0.7339708    0.1026943  
   0.440978000    -0.7077007    0.2108804  
   0.442977900    -0.6652450    0.3145892  
   0.444977800    -0.6072140    0.4118322  
   0.446977700    -0.5347472    0.4992019  
   0.448977600    -0.4489028    0.5755999  
   0.450977500    -0.3513960    0.6385352  
   0.452977400    -0.2438563    0.6863015  
   0.454977300    -0.1284755    0.7165384  
   0.456977200    -0.0083646    0.7283165  
   0.458977100     0.1135238    0.7201996  
   0.460977000     0.2333815    0.6922498  
   0.462976900     0.3474351    0.6444603  
   0.464976800     0.4525513    0.5781059  
   0.466976700     0.5457693    0.4947504  
   0.468976600     0.6237270    0.3966509  
   0.470976500     0.6841302    0.2864697  
   0.472976400     0.7249571    0.1683166  
   0.474976300     0.7456411    0.0451154  
   0.476976200     0.7451313   -0.0789187  
   0.478976100     0.7240970   -0.1999812  
   0.480976000     0.6843765   -0.3147248  
   0.482975900     0.6271825   -0.4199146  
   0.484975800     0.5548666   -0.5130862  
   0.486975700     0.4693375   -0.5926070  
   0.488975600     0.3736997   -0.6573232  
   0.490975500     0.2706894   -0.7053974  
   0.492975400     0.1626784   -0.7370520  
   0.494975300     0.0524325   -0.7519199  
   0.496975200    -0.0575623   -0.7500151  
   0.498975100    -0.1643830   -0.7323142  
   0.500975000    -0.2664123   -0.6993727  
   0.502974900    -0.3620430   -0.6526241  
   0.504974800    -0.4493149   -0.5927135  
   0.506974700    -0.5275218   -0.5215585  
   0.508974600    -0.5949040   -0.4390725  
   0.510974500    -0.6499068   -0.3478169  
   0.512974400    -0.6912916   -0.2492523  
   0.514974300    -0.7165468   -0.1452311  
   0.516974200    -0.7272512   -0.0383832  
   0.518974100    -0.7219940    0.0696314  
   0.520974000    -0.7001008    0.1764058  
   0.522973900    -0.6618196    0.2792311  
   0.524973800    -0.6070399    0.3755242  
   0.526973700    -0.5372789    0.4625279  
   0.528973600    -0.4539779    0.5374153  
   0.530973500    -0.3595176    0.5982971  
   0.532973400    -0.2566815    0.6426476  
   0.534973300    -0.1481565    0.6701770  
   0.536973200    -0.0367357    0.6800649  
   0.538973100     0.0742747    0.6725922  
   0.540973000     0.1819272    0.6477443  
   0.542972900     0.2843358    0.6068082  
   0.544972800     0.3792022    0.5506142  
   0.546972700     0.4647959    0.4800579  
   0.548972600     0.5379292    0.3969906  
   0.550972500     0.5976557    0.3031497  
   0.552972400     0.6423787    0.2004080  
   0.554972300     0.6701735    0.0918400  
   0.556972200     0.6800405   -0.0203428  
   0.558972100     0.6720128   -0.1327814  
   0.560972000     0.6461276   -0.2422353  
   0.562971900     0.6031479   -0.3459464  
   0.564971800     0.5444788   -0.4412335  
   0.566971700     0.4716538   -0.5255420  
   0.568971600     0.3868276   -0.5969664  
   0.570971500     0.2919506   -0.6540881  
   0.572971400     0.1897689   -0.6952795  
   0.574971300     0.0821123   -0.7198622  
   0.576971200    -0.0275891   -0.7276565  
   0.578971100    -0.1372136   -0.7184005  
   0.580971000    -0.2436117   -0.6922771  
   0.582970900    -0.3437902   -0.6508552  
   0.584970800    -0.4359362   -0.5945120  
   0.586970700    -0.5179282   -0.5257330  
   0.588970600    -0.5881917   -0.4459176  
   0.590970500    -0.6458781   -0.3567594  
   0.592970400    -0.6896099   -0.2602968  
   0.594970300    -0.7184038   -0.1589659  
   0.596970200    -0.7322339   -0.0542359  
   0.598970100    -0.7304657    0.0513992  
   0.600970000    -0.7131709    0.1561310  
   0.602969900    -0.6807285    0.2569941  
   0.604969800    -0.6333830    0.3527555  
   0.606969700    -0.5721071    0.4407854  
   0.608969600    -0.4974652    0.5195612  
   0.610969500    -0.4116625    0.5862442  
   0.612969400    -0.3158771    0.6397529  
   0.614969300    -0.2123054    0.6783371  
   0.616969200    -0.1035895    0.7005246  
   0.618969100     0.0074967    0.7056736  
   0.620969000     0.1185075    0.6936252  
   0.622968900     0.2273595    0.6638818  
   0.624968800     0.3307986    0.6169449  
   0.626968700     0.4266287    0.5532839  
   0.628968600     0.5115275    0.4745095  
   0.630968500     0.5825316    0.3825645  
   0.632968400     0.6379137    0.2795966  
   0.634968300     0.6758337    0.1681889  
   0.636968200     0.6946279    0.0521961  
   0.638968100     0.6939722   -0.0651447  
   0.640968000     0.6735522   -0.1812295  
   0.642967900     0.6343740   -0.2911835  
   0.644967800     0.5777036   -0.3931161  
   0.646967700     0.5054256   -0.4830910  
   0.648967600     0.4202981   -0.5595849  
   0.650967500     0.3245785   -0.6203662  
   0.652967400     0.2216633   -0.6640441  
   0.654967300     0.1141595   -0.6909776  
   0.656967200     0.0050441   -0.7001441  
   0.658967100    -0.1029136   -0.6919012  
   0.660967000    -0.2076993   -0.6671847  
   0.662966900    -0.3067695   -0.6269152  
   0.664966800    -0.3979518   -0.5720641  
   0.666966700    -0.4791288   -0.5040795  
   0.668966600    -0.5485560   -0.4251475  
   0.670966500    -0.6046770   -0.3369273  
   0.672966400    -0.6472875   -0.2420703  
   0.674966300    -0.6741844   -0.1423741  
   0.676966200    -0.6856256   -0.0399509  
   0.678966100    -0.6817047    0.0624012  
   0.680966000    -0.6623684    0.1634290  
   0.682965900    -0.6282487    0.2601098  
   0.684965800    -0.5798452    0.3508550  
   0.686965700    -0.5177511    0.4336177  
   0.688965600    -0.4435503    0.5063185  
   0.690965500    -0.3582861    0.5665395  
   0.692965400    -0.2642913    0.6135332  
   0.694965300    -0.1638692    0.6460538  
   0.696965200    -0.0587196    0.6621926  
   0.698965100     0.0488882    0.6614730  
   0.700965000     0.1557278    0.6435239  
   0.702964900     0.2593077    0.6083938  
   0.704964800     0.3558966    0.5561760  
   0.706964700     0.4437996    0.4882782  
   0.708964600     0.5192627    0.4062073  
   0.710964500     0.5813515    0.3127726  
   0.712964400     0.6259696    0.2097401  
   0.714964300     0.6526989    0.1008393  
   0.716964200     0.6607662   -0.0103547  
   0.718964100     0.6498857   -0.1203804  
   0.720964000     0.6213295   -0.2253671  
   0.722963900     0.5766771   -0.3239058  
   0.724963800     0.5172399   -0.4125854  
   0.726963700     0.4452185   -0.4896578  
   0.728963600     0.3632181   -0.5537585  
   0.730963500     0.2724572   -0.6032206  
   0.732963400     0.1771643   -0.6382522  
   0.734963300     0.0781768   -0.6583525  
   0.736963200    -0.0360727   -0.6629214  
   0.738963100    -0.1486000   -0.6473126  
   0.740963000    -0.2559231   -0.6130590  
   0.742962900    -0.3552863   -0.5610713  
   0.744962800    -0.4439361   -0.4932194  
   0.746962700    -0.5198089   -0.4116799  
   0.748962600    -0.5804802   -0.3178489  
   0.750962500    -0.5403537   -0.4023119  
   0.752962400    -0.5998665   -0.3064371  
   0.754962300    -0.6415731   -0.2015929  
   0.756962200    -0.6648542   -0.0906720  
   0.758962100    -0.6684049    0.0229933  
   0.760962000    -0.6518923    0.1360807  
   0.762961900    -0.6179301    0.2400384  
   0.764961800    -0.5726103    0.3289128  
   0.766961700    -0.5138964    0.4100053  
   0.768961600    -0.4425421    0.4809915  
   0.770961500    -0.3613063    0.5398129  
   0.772961400    -0.2715852    0.5854958  
   0.774961300    -0.1761703    0.6159397  
   0.776961200    -0.0767277    0.6315765  
   0.778961100     0.0244965    0.6314186  
   0.780961000     0.1244127    0.6154961  
   0.782960900     0.2209715    0.5839648  
   0.784960800     0.3121815    0.5369602  
   0.786960700     0.3951660    0.4762327  
   0.788960600     0.4678846    0.4026214  
   0.790960500     0.5277324    0.3185450  
   0.792960400     0.5736501    0.2258087  
   0.794960300     0.6041229    0.1269072  
   0.796960200     0.6183164    0.0241767  
   0.798960100     0.6155793   -0.0794617  
   0.800960000     0.5965423   -0.1809190  
   0.802959900     0.5614137   -0.2783078  
   0.804959800     0.5110809   -0.3686717  
   0.806959700     0.4473075   -0.4493943  
   0.808959600     0.3713989   -0.5192523  
   0.810959500     0.2852735   -0.5757731  
   0.812959400     0.1916353   -0.6181026  
   0.814959300     0.0923292   -0.6447142  
   0.816959200    -0.0093341   -0.6552474  
   0.818959100    -0.1112769   -0.6497595  
   0.820959000    -0.2103837   -0.6282676  
   0.822958900    -0.3050474   -0.5916815  
   0.824958800    -0.3923660   -0.5408952  
   0.826958700    -0.4704221   -0.4772117  
   0.828958600    -0.5374780   -0.4028078  
   0.830958500    -0.5919002   -0.3191292  
   0.832958400    -0.6327513   -0.2287268  
   0.834958300    -0.6591889   -0.1334920  
   0.836958200    -0.6711336   -0.0358546  
   0.838958100    -0.6680772    0.0625534  
   0.840958000    -0.6501660    0.1593831  
   0.842957900    -0.6176996    0.2517895  
   0.844957800    -0.5717918    0.3388544  
   0.846957700    -0.5130631    0.4182606  
   0.848957600    -0.4430840    0.4878857  
   0.850957500    -0.3627429    0.5464332  
   0.852957400    -0.2743350    0.5920441  
   0.854957300    -0.1793156    0.6237470  
   0.856957200    -0.0803348    0.6404617  
   0.858957100     0.0206751    0.6417970  
   0.860957000     0.1205015    0.6272506  
   0.862956900     0.2169823    0.5968488  
   0.864956800     0.3073987    0.5518522  
   0.866956700     0.3898508    0.4930397  
   0.868956600     0.4618536    0.4212274  
   0.870956500     0.5223458    0.3387794  
   0.872956400     0.5692413    0.2471290  
   0.874956300     0.6005407    0.1484257  
   0.876956200     0.6155492    0.0453580  
   0.878956100     0.6135936   -0.0595295  
   0.880956000     0.5938696   -0.1626264  
   0.882955900     0.5575035   -0.2613372  
   0.884955800     0.5047861   -0.3524922  
   0.886955700     0.4379657   -0.4333334  
   0.888955600     0.3589087   -0.5017674  
   0.890955500     0.2698520   -0.5556078  
   0.892955400     0.1736240   -0.5939507  
   0.894955300     0.0730776   -0.6155581  
