! MS46122B
! 2250307/22442219
! 7/23/2025 1:09:10 PM
! C:\USERS\SPARKY\DOCUMENTS\VNA_DATA\JULY23_2025\295K\PORT3_MOS1.S1P
! CHANNEL.1
! TR.MEASUREMENT
! RAW.DATA
# GHZ S RI R 50.0
! FREQ.GHZ         S11RE         S11IM         
!; PortSelection: Port_1
   0.001000000     1.0459380   -0.0711288  
   0.002999900     0.9641490   -0.1937663  
   0.004999800     0.9031881   -0.2986109  
   0.006999700     0.8353285   -0.3960141  
   0.008999600     0.7553567   -0.4904741  
   0.010999500     0.6607897   -0.5793420  
   0.012999400     0.5462019   -0.6595299  
   0.014999300     0.4064137   -0.7242891  
   0.016999200     0.2366426   -0.7602358  
   0.018999100     0.0351412   -0.7480696  
   0.020999000    -0.1851191   -0.6564921  
   0.022998900    -0.3832930   -0.4549528  
   0.024998800    -0.4661363   -0.1477403  
   0.026998700    -0.4091133    0.2021751  
   0.028998600    -0.1695264    0.4616483  
   0.030998500     0.1381942    0.5619997  
   0.032998400     0.3902107    0.5144135  
   0.034998300     0.6204695    0.4068955  
   0.036998200     0.7528808    0.2580855  
   0.038998100     0.8276889    0.1047579  
   0.040998000     0.8598278   -0.0407459  
   0.042997900     0.8613514   -0.1733756  
   0.044997800     0.8159488   -0.2675082  
   0.046997700     0.8029017   -0.3970683  
   0.048997600     0.7539868   -0.4895082  
   0.050997500     0.6960213   -0.5694799  
   0.052997400     0.6316998   -0.6379352  
   0.054997300     0.5606179   -0.6975862  
   0.056997200     0.4854414   -0.7476062  
   0.058997100     0.4069196   -0.7882147  
   0.060997000     0.3247840   -0.8202515  
   0.062996900     0.2401677   -0.8435304  
   0.064996800     0.1529142   -0.8572183  
   0.066996700     0.0634843   -0.8621401  
   0.068996600    -0.0271092   -0.8567194  
   0.070996500    -0.1185292   -0.8418232  
   0.072996400    -0.2103426   -0.8144370  
   0.074996300    -0.3006851   -0.7753069  
   0.076996200    -0.3884615   -0.7234680  
   0.078996100    -0.4720421   -0.6585099  
   0.080996000    -0.5492796   -0.5792628  
   0.082995900    -0.6176089   -0.4859127  
   0.084995800    -0.6731266   -0.3786910  
   0.086995700    -0.7142559   -0.2586691  
   0.088995600    -0.7360210   -0.1272571  
   0.090995500    -0.7349881    0.0126443  
   0.092995400    -0.7082636    0.1567932  
   0.094995300    -0.6515314    0.2992453  
   0.096995200    -0.5644347    0.4326766  
   0.098995100    -0.4475300    0.5487306  
   0.100995000    -0.3036645    0.6410048  
   0.102994900    -0.1420082    0.6993238  
   0.104994800     0.0296377    0.7204221  
   0.106994700     0.2011536    0.7021189  
   0.108994600     0.3623764    0.6480995  
   0.110994500     0.5051636    0.5617787  
   0.112994400     0.6231285    0.4506801  
   0.114994300     0.7124826    0.3219832  
   0.116994200     0.7721173    0.1837428  
   0.118994100     0.8029501    0.0426740  
   0.120994000     0.8088383   -0.0958569  
   0.122993900     0.7894375   -0.2273410  
   0.124993800     0.7500708   -0.3484909  
   0.126993700     0.6940722   -0.4574685  
   0.128993600     0.6236007   -0.5521026  
   0.130993500     0.5433713   -0.6328192  
   0.132993400     0.4549500   -0.6993891  
   0.134993300     0.3607356   -0.7513390  
   0.136993200     0.2624957   -0.7891651  
   0.138993100     0.1619295   -0.8129033  
   0.140993000     0.0607450   -0.8230899  
   0.142992900    -0.0405666   -0.8201513  
   0.144992800    -0.1397582   -0.8058930  
   0.146992700    -0.2361403   -0.7775455  
   0.148992600    -0.3285341   -0.7367625  
   0.150992500    -0.4143298   -0.6833593  
   0.152992400    -0.4942079   -0.6193975  
   0.154992300    -0.5659875   -0.5450308  
   0.156992200    -0.6281906   -0.4600328  
   0.158992100    -0.6792772   -0.3654953  
   0.160992000    -0.7173694   -0.2626898  
   0.162991900    -0.7413929   -0.1528348  
   0.164991800    -0.7491554   -0.0376481  
   0.166991700    -0.7393664    0.0798115  
   0.168991600    -0.7109033    0.1980135  
   0.170991500    -0.6626610    0.3136950  
   0.172991400    -0.5948268    0.4223075  
   0.174991300    -0.5075460    0.5204593  
   0.176991200    -0.4018061    0.6045524  
   0.178991100    -0.2807686    0.6703410  
   0.180991000    -0.1476125    0.7146451  
   0.182990900    -0.0066833    0.7337608  
   0.184990800     0.1372710    0.7260107  
   0.186990700     0.2781363    0.6917217  
   0.188990600     0.3909613    0.6423568  
   0.190990500     0.5247631    0.5501404  
   0.192990400     0.6265320    0.4449421  
   0.194990300     0.7045426    0.3265934  
   0.196990200     0.7589144    0.1989539  
   0.198990100     0.7889825    0.0662256  
   0.200990000     0.7952175   -0.0674666  
   0.202989900     0.7789359   -0.1973736  
   0.204989800     0.7419800   -0.3197175  
   0.206989700     0.6880562   -0.4315591  
   0.208989600     0.6178721   -0.5302008  
   0.210989500     0.5347164   -0.6151112  
   0.212989400     0.4414455   -0.6854011  
   0.214989300     0.3409622   -0.7390758  
   0.216989200     0.2360463   -0.7768482  
   0.218989100     0.1284095   -0.7987861  
   0.220989000     0.0203188   -0.8052781  
   0.222988900    -0.0869848   -0.7963680  
   0.224988800    -0.1911522   -0.7722243  
   0.226988700    -0.2903740   -0.7345290  
   0.228988600    -0.3825665   -0.6834741  
   0.230988500    -0.4671814   -0.6203626  
   0.232988400    -0.5416761   -0.5444978  
   0.234988300    -0.6061402   -0.4587567  
   0.236988200    -0.6582331   -0.3639548  
   0.238988100    -0.6966889   -0.2612523  
   0.240988000    -0.7198021   -0.1531742  
   0.242987900    -0.7264462   -0.0413952  
   0.244987800    -0.7159641    0.0724614  
   0.246987700    -0.6874047    0.1854577  
   0.248987600    -0.6402538    0.2954096  
   0.250987500    -0.5744426    0.3983062  
   0.252987400    -0.4909499    0.4902525  
   0.254987300    -0.3916935    0.5679693  
   0.256987200    -0.2788292    0.6287869  
   0.258987100    -0.1551867    0.6707997  
   0.260987000    -0.0233778    0.6888661  
   0.262986900     0.1112336    0.6828279  
   0.264986800     0.2434934    0.6521454  
   0.266986700     0.3688930    0.5971753  
   0.268986600     0.4813887    0.5203964  
   0.270986500     0.5774813    0.4244632  
   0.272986400     0.6538281    0.3135257  
   0.274986300     0.7081151    0.1920667  
   0.276986200     0.7394560    0.0642907  
   0.278986100     0.7477270   -0.0654190  
   0.280986000     0.7334589   -0.1923068  
   0.282985900     0.6983205   -0.3127934  
   0.284985800     0.6447598   -0.4231821  
   0.286985700     0.5755612   -0.5211024  
   0.288985600     0.4938178   -0.6045288  
   0.290985500     0.4022974   -0.6724049  
   0.292985400     0.3043600   -0.7243567  
   0.294985300     0.2015243   -0.7608281  
   0.296985200     0.0961461   -0.7816935  
   0.298985100    -0.0100036   -0.7869898  
   0.300985000    -0.1148813   -0.7773200  
   0.302984900    -0.2155242   -0.7536253  
   0.304984800    -0.3113987   -0.7168115  
   0.306984700    -0.4001878   -0.6679510  
   0.308984600    -0.4805729   -0.6082159  
   0.310984500    -0.5520667   -0.5386854  
   0.312984400    -0.6136550   -0.4603913  
   0.314984300    -0.6647857   -0.3741983  
   0.316984200    -0.7041951   -0.2811843  
   0.318984100    -0.7307852   -0.1815544  
   0.320984000    -0.7430430   -0.0770934  
   0.322983900    -0.7403161    0.0302701  
   0.324983800    -0.7203824    0.1373158  
   0.326983700    -0.6834044    0.2413439  
   0.328983600    -0.6291207    0.3384038  
   0.330983500    -0.5601523    0.4246786  
   0.332983400    -0.4793476    0.4978992  
   0.334983300    -0.3893427    0.5574169  
   0.336983200    -0.2924638    0.6027141  
   0.338983100    -0.1903459    0.6341208  
   0.340983000    -0.0842352    0.6508473  
   0.342982900     0.0243710    0.6522621  
   0.344982800     0.1339832    0.6370316  
   0.346982700     0.2419368    0.6042017  
   0.348982600     0.3445370    0.5528965  
   0.350982500     0.4388307    0.4852539  
   0.352982400     0.5215962    0.4014487  
   0.354982300     0.5917265    0.3001352  
   0.356982200     0.6459883    0.1759913  
   0.358982100     0.6749719    0.0434129  
   0.360982000     0.6774303   -0.0924768  
   0.362981900     0.6532855   -0.2259912  
   0.364981800     0.6034487   -0.3522879  
   0.366981700     0.5305364   -0.4660600  
   0.368981600     0.4368365   -0.5632399  
   0.370981500     0.3271781   -0.6403292  
   0.372981400     0.2052118   -0.6945369  
   0.374981300     0.0759501   -0.7246541  
   0.376981200     0.1830371   -0.7042817  
   0.378981100     0.0545512   -0.7288420  
   0.380981000    -0.0748836   -0.7293012  
   0.382980900    -0.1898893   -0.7093546  
   0.384980800    -0.2943101   -0.6738746  
   0.386980700    -0.3909287   -0.6223324  
   0.388980600    -0.4784346   -0.5571960  
   0.390980500    -0.5538419   -0.4804688  
   0.392980400    -0.6164484   -0.3940247  
   0.394980300    -0.6652117   -0.3001749  
   0.396980200    -0.6993278   -0.2000896  
   0.398980100    -0.7184014   -0.0959514  
   0.400980000    -0.7220635    0.0097386  
   0.402979900    -0.7101288    0.1156374  
   0.404979800    -0.6824076    0.2187926  
   0.406979700    -0.6397922    0.3172600  
   0.408979600    -0.5824202    0.4090618  
   0.410979500    -0.5107039    0.4923082  
   0.412979400    -0.4257838    0.5647443  
   0.414979300    -0.3292735    0.6230440  
   0.416979200    -0.2239648    0.6669917  
   0.418979100    -0.1120860    0.6940380  
   0.420979000     0.0037185    0.7030823  
   0.422978900     0.1212525    0.6929038  
   0.424978800     0.2366913    0.6635181  
   0.426978700     0.3467259    0.6148498  
   0.428978600     0.4478061    0.5482674  
   0.430978500     0.5363651    0.4651285  
   0.432978400     0.6098020    0.3684070  
   0.434978300     0.6671100    0.2608220  
   0.436978200     0.7043431    0.1448701  
   0.438978100     0.7213779    0.0245807  
   0.440978000     0.7179674   -0.0965705  
   0.442977900     0.6945450   -0.2148217  
   0.444977800     0.6518362   -0.3266094  
   0.446977700     0.5915898   -0.4286461  
   0.448977600     0.5162254   -0.5186127  
   0.450977500     0.4279931   -0.5947363  
   0.452977400     0.3295412   -0.6547370  
   0.454977300     0.2227998   -0.6976863  
   0.456977200     0.1115845   -0.7229984  
   0.458977100    -0.0010390   -0.7300181  
   0.460977000    -0.1124217   -0.7193587  
   0.462976900    -0.2193824   -0.6918871  
   0.464976800    -0.3198344   -0.6483780  
   0.466976700    -0.4115996   -0.5904591  
   0.468976600    -0.4928840   -0.5198060  
   0.470976500    -0.5623923   -0.4377783  
   0.472976400    -0.6179054   -0.3463473  
   0.474976300    -0.6593428   -0.2480965  
   0.476976200    -0.6850578   -0.1448640  
   0.478976100    -0.6945864   -0.0387983  
   0.480976000    -0.6877264    0.0669229  
   0.482975900    -0.6646749    0.1706580  
   0.484975800    -0.6261186    0.2699390  
   0.486975700    -0.5719113    0.3631162  
   0.488975600    -0.5031828    0.4471506  
   0.490975500    -0.4212849    0.5198815  
   0.492975400    -0.3279639    0.5789520  
   0.494975300    -0.2251134    0.6223204  
   0.496975200    -0.1156455    0.6478433  
   0.498975100    -0.0030294    0.6548146  
   0.500975000     0.1095738    0.6423850  
   0.502974900     0.2182872    0.6105250  
   0.504974800     0.3196083    0.5601717  
   0.506974700     0.4105869    0.4934795  
   0.508974600     0.4880961    0.4117585  
   0.510974500     0.5492664    0.3191911  
   0.512974400     0.5931963    0.2191027  
   0.514974300     0.6178806    0.1157876  
   0.516974200     0.6263242    0.0122917  
   0.518974100     0.6186144   -0.0885136  
   0.520974000     0.5961406   -0.1844623  
   0.522973900     0.5615564   -0.2744575  
   0.524973800     0.5154456   -0.3567000  
   0.526973700     0.4590853   -0.4317468  
   0.528973600     0.3937251   -0.4977013  
   0.530973500     0.3197257   -0.5548165  
   0.532973400     0.2386553   -0.6018216  
   0.534973300     0.1508632   -0.6370021  
   0.536973200     0.0572704   -0.6599689  
   0.538973100    -0.0394182   -0.6689909  
   0.540973000    -0.1372349   -0.6627231  
   0.542972900    -0.2346425   -0.6422465  
   0.544972800    -0.3284111   -0.6060026  
   0.546972700    -0.4170329   -0.5547317  
   0.548972600    -0.4971927   -0.4896912  
   0.550972500    -0.5667499   -0.4118220  
   0.552972400    -0.6231893   -0.3232107  
   0.554972300    -0.6651490   -0.2260475  
   0.556972200    -0.6911411   -0.1228423  
   0.558972100    -0.7000420   -0.0163359  
   0.560972000    -0.6925145    0.0902668  
   0.562971900    -0.6678391    0.1945428  
   0.564971800    -0.6268455    0.2937687  
   0.566971700    -0.5703993    0.3854671  
   0.568971600    -0.5004719    0.4672788  
   0.570971500    -0.4178876    0.5374314  
   0.572971400    -0.3244875    0.5939077  
   0.574971300    -0.2222863    0.6352298  
   0.576971200    -0.1140127    0.6595405  
   0.578971100    -0.0023683    0.6661367  
   0.580971000     0.1096686    0.6542239  
   0.582970900     0.2189628    0.6238611  
   0.584970800     0.3216415    0.5758094  
   0.586970700     0.4156153    0.5111188  
   0.588970600     0.4976419    0.4312520  
   0.590970500     0.5654568    0.3382462  
   0.592970400     0.6163951    0.2355118  
   0.594970300     0.6495894    0.1249509  
   0.596970200     0.6634604    0.0102154  
   0.598970100     0.6573650   -0.1049934  
   0.600970000     0.6324872   -0.2175095  
   0.602969900     0.5886751   -0.3237930  
   0.604969800     0.5275716   -0.4212601  
   0.606969700     0.4513353   -0.5063522  
   0.608969600     0.3620339   -0.5776919  
   0.610969500     0.2631929   -0.6325425  
   0.612969400     0.1571700   -0.6697355  
   0.614969300     0.0476682   -0.6887079  
   0.616969200    -0.0621929   -0.6895696  
   0.618969100    -0.1693985   -0.6731731  
   0.620969000    -0.2711732   -0.6407227  
   0.622968900    -0.3664000   -0.5926432  
   0.624968800    -0.4523535   -0.5310650  
   0.626968700    -0.5275364   -0.4571204  
   0.628968600    -0.5903782   -0.3730537  
   0.630968500    -0.6391172   -0.2806347  
   0.632968400    -0.6734538   -0.1823127  
   0.634968300    -0.6924329   -0.0798955  
   0.636968200    -0.6956418    0.0238061  
   0.638968100    -0.6834101    0.1268517  
   0.640968000    -0.6555319    0.2273807  
   0.642967900    -0.6128743    0.3226267  
   0.644967800    -0.5563229    0.4106312  
   0.646967700    -0.4866192    0.4893761  
   0.648967600    -0.4055288    0.5570239  
   0.650967500    -0.3146981    0.6120454  
   0.652967400    -0.2160382    0.6523370  
   0.654967300    -0.1113895    0.6772556  
   0.656967200    -0.0036267    0.6857291  
   0.658967100     0.1049988    0.6773141  
   0.660967000     0.2121041    0.6512799  
   0.662966900     0.3152028    0.6079623  
   0.664966800     0.4110220    0.5477735  
   0.666966700     0.4966911    0.4721733  
   0.668966600     0.5691398    0.3826029  
   0.670966500     0.6262266    0.2817904  
   0.672966400     0.6669267    0.1730828  
   0.674966300     0.6877702    0.0586313  
   0.676966200     0.6893708   -0.0572359  
   0.678966100     0.6710369   -0.1716413  
   0.680966000     0.6345509   -0.2811870  
   0.682965900     0.5806324   -0.3823841  
   0.684965800     0.5113838   -0.4726170  
   0.686965700     0.4281116   -0.5500540  
   0.688965600     0.3347307   -0.6123776  
   0.690965500     0.2328582   -0.6572928  
   0.692965400     0.1266225   -0.6858532  
   0.694965300     0.0183395   -0.6968526  
   0.696965200    -0.0888664   -0.6908849  
   0.698965100    -0.1931047   -0.6685339  
   0.700965000    -0.2920674   -0.6305709  
   0.702964900    -0.3829125   -0.5784103  
   0.704964800    -0.4640518   -0.5134444  
   0.706964700    -0.5340279   -0.4372141  
   0.708964600    -0.5916090   -0.3515869  
   0.710964500    -0.6358588   -0.2590168  
   0.712964400    -0.6649063   -0.1605998  
   0.714964300    -0.6787052   -0.0594107  
   0.716964200    -0.6773273    0.0424805  
   0.718964100    -0.6603759    0.1426245  
   0.720964000    -0.6286685    0.2393028  
   0.722963900    -0.5828408    0.3298100  
   0.724963800    -0.5234541    0.4130284  
   0.726963700    -0.4516408    0.4859639  
   0.728963600    -0.3688021    0.5475759  
   0.730963500    -0.2770292    0.5951759  
   0.732963400    -0.1781270    0.6281362  
   0.734963300    -0.0746914    0.6448728  
   0.736963200     0.0468605    0.6437203  
   0.738963100     0.1667060    0.6198801  
   0.740963000     0.2805924    0.5740268  
   0.742962900     0.3842359    0.5078214  
   0.744962800     0.4729901    0.4237549  
   0.746962700     0.5449292    0.3246734  
   0.748962600     0.5968021    0.2142854  
   0.750962500     0.5438099    0.3018426  
   0.752962400     0.5917234    0.1916468  
   0.754962300     0.6184842    0.0755232  
   0.756962200     0.6238785   -0.0431651  
   0.758962100     0.6077338   -0.1598394  
   0.760962000     0.5711552   -0.2715029  
   0.762961900     0.5181436   -0.3694816  
   0.764961800     0.4560330   -0.4499213  
   0.766961700     0.3823968   -0.5198308  
   0.768961600     0.2988410   -0.5776001  
   0.770961500     0.2076549   -0.6220328  
   0.772961400     0.1107124   -0.6516810  
   0.774961300     0.0101752   -0.6662766  
   0.776961200    -0.0914995   -0.6652677  
   0.778961100    -0.1923312   -0.6486534  
   0.780961000    -0.2897183   -0.6162148  
   0.782960900    -0.3813034   -0.5688962  
   0.784960800    -0.4645995   -0.5074908  
   0.786960700    -0.5375655   -0.4335408  
   0.788960600    -0.5979943   -0.3488383  
   0.790960500    -0.6442119   -0.2555434  
   0.792960400    -0.6754616   -0.1562600  
   0.794960300    -0.6906453   -0.0534306  
   0.796960200    -0.6898127    0.0505828  
   0.798960100    -0.6725909    0.1528018  
   0.800960000    -0.6398107    0.2511478  
   0.802959900    -0.5922621    0.3432355  
   0.804959800    -0.5309033    0.4268352  
   0.806959700    -0.4576067    0.4999574  
   0.808959600    -0.3736084    0.5610585  
   0.810959500    -0.2809527    0.6079597  
   0.812959400    -0.1818088    0.6406541  
   0.814959300    -0.0784344    0.6573634  
   0.816959200     0.0265856    0.6576351  
   0.818959100     0.1310630    0.6415811  
   0.820959000     0.2319622    0.6090106  
   0.822958900     0.3274981    0.5605829  
   0.824958800     0.4143295    0.4971797  
   0.826958700     0.4900594    0.4201159  
   0.828958600     0.5529484    0.3314869  
   0.830958500     0.6005018    0.2333814  
   0.832958400     0.6316564    0.1282875  
   0.834958300     0.6452264    0.0194990  
   0.836958200     0.6405804   -0.0902065  
   0.838958100     0.6179324   -0.1976022  
   0.840958000     0.5778846   -0.3003434  
   0.842957900     0.5213751   -0.3950013  
   0.844957800     0.4499104   -0.4792094  
   0.846957700     0.3658230   -0.5499158  
   0.848957600     0.2712365   -0.6061573  
   0.850957500     0.1690123   -0.6454661  
   0.852957400     0.0624023   -0.6675491  
   0.854957300    -0.0459445   -0.6720333  
   0.856957200    -0.1526288   -0.6589355  
   0.858957100    -0.2553579   -0.6290658  
   0.860957000    -0.3508978   -0.5839857  
   0.862956900    -0.4374864   -0.5249197  
   0.864956800    -0.5129814   -0.4540421  
   0.866956700    -0.5760944   -0.3733574  
   0.868956600    -0.6254521   -0.2846439  
   0.870956500    -0.6611852   -0.1899770  
   0.872956400    -0.6820716   -0.0913529  
   0.874956300    -0.6881427    0.0086458  
   0.876956200    -0.6791785    0.1087185  
   0.878956100    -0.6550725    0.2062903  
   0.880956000    -0.6172557    0.2991942  
   0.882955900    -0.5658386    0.3855742  
   0.884955800    -0.5017553    0.4636107  
   0.886955700    -0.4265735    0.5316839  
   0.888955600    -0.3420385    0.5877175  
   0.890955500    -0.2492925    0.6309687  
   0.892955400    -0.1508959    0.6597556  
   0.894955300    -0.0484400    0.6730436  
