! MS46122B
! 2250307/22442219
! 7/28/2025 8:02:15 AM
! C:\USERS\SPARKY\DOCUMENTS\VNA_DATA\JULY28_2025\295K\PORT5_MOS6.S1P
! CHANNEL.1
! TR.MEASUREMENT
! RAW.DATA
# GHZ S RI R 50.0
! FREQ.GHZ         S11RE         S11IM         
!; PortSelection: Port_1
   0.001000000     1.0465230   -0.0728861  
   0.002999900     0.9481626   -0.2225717  
   0.004999800     0.8215720   -0.0980290  
   0.006999700     0.5227313   -0.3822258  
   0.008999600     0.9299319   -0.0400617  
   0.010999500     0.9144040   -0.2446593  
   0.012999400     0.8750349   -0.3494036  
   0.014999300     0.8347809   -0.4300311  
   0.016999200     0.7932354   -0.5005717  
   0.018999100     0.7489122   -0.5656765  
   0.020999000     0.6996226   -0.6262991  
   0.022998900     0.6452228   -0.6819921  
   0.024998800     0.5770457   -0.6974960  
   0.026998700     0.5187638   -0.7785048  
   0.028998600     0.4449226   -0.8182814  
   0.030998500     0.3636670   -0.8510527  
   0.032998400     0.2793398   -0.8412562  
   0.034998300     0.1786908   -0.8895134  
   0.036998200     0.0754638   -0.8922409  
   0.038998100    -0.0334806   -0.8809609  
   0.040998000    -0.1470572   -0.8526796  
   0.042997900    -0.2633609   -0.8057730  
   0.044997800    -0.3550982   -0.7188602  
   0.046997700    -0.4893529   -0.6423443  
   0.048997600    -0.5885127   -0.5217065  
   0.050997500    -0.6686856   -0.3733261  
   0.052997400    -0.7194773   -0.1992807  
   0.054997300    -0.7298713   -0.0042159  
   0.056997200    -0.6892569    0.2011914  
   0.058997100    -0.5907025    0.3977670  
   0.060997000    -0.4363892    0.5651291  
   0.062996900    -0.2379338    0.6837068  
   0.064996800    -0.0148372    0.7405241  
   0.066996700     0.2093690    0.7319290  
   0.068996600     0.4141097    0.6657032  
   0.070996500     0.5849900    0.5559223  
   0.072996400     0.7148129    0.4164991  
   0.074996300     0.8030940    0.2631583  
   0.076996200     0.8529953    0.1061587  
   0.078996100     0.8699037   -0.0457848  
   0.080996000     0.8597648   -0.1889373  
   0.082995900     0.8272800   -0.3191563  
   0.084995800     0.7764505   -0.4351501  
   0.086995700     0.7130039   -0.5369744  
   0.088995600     0.6390950   -0.6245907  
   0.090995500     0.5570083   -0.6987050  
   0.092995400     0.4694321   -0.7596962  
   0.094995300     0.3760560   -0.8074505  
   0.096995200     0.2800363   -0.8422451  
   0.098995100     0.1816264   -0.8648536  
   0.100995000     0.0808513   -0.8754665  
   0.102994900    -0.0193845   -0.8738491  
   0.104994800    -0.1191321   -0.8605338  
   0.106994700    -0.2174822   -0.8340834  
   0.108994600    -0.3129287   -0.7964056  
   0.110994500    -0.4049990   -0.7465334  
   0.112994400    -0.4918550   -0.6840624  
   0.114994300    -0.5718046   -0.6089578  
   0.116994200    -0.6431072   -0.5211248  
   0.118994100    -0.7035392   -0.4214405  
   0.120994000    -0.7522411   -0.3112643  
   0.122993900    -0.7842457   -0.1893890  
   0.124993800    -0.7977329   -0.0595917  
   0.126993700    -0.7898902    0.0759543  
   0.128993600    -0.7573151    0.2130234  
   0.130993500    -0.7008948    0.3479111  
   0.132993400    -0.6178376    0.4753512  
   0.134993300    -0.5095569    0.5889825  
   0.136993200    -0.3772562    0.6819067  
   0.138993100    -0.2260865    0.7489656  
   0.140993000    -0.0616034    0.7845485  
   0.142992900     0.1085077    0.7857218  
   0.144992800     0.2762588    0.7531673  
   0.146992700     0.4328209    0.6855429  
   0.148992600     0.5705998    0.5881945  
   0.150992500     0.6826381    0.4667342  
   0.152992400     0.7676142    0.3292667  
   0.154992300     0.8227914    0.1822344  
   0.156992200     0.8485307    0.0317762  
   0.158992100     0.8467035   -0.1155732  
   0.160992000     0.8197899   -0.2556978  
   0.162991900     0.7708826   -0.3844413  
   0.164991800     0.7039434   -0.4997302  
   0.166991700     0.6221676   -0.5991077  
   0.168991600     0.5288411   -0.6823092  
   0.170991500     0.4266029   -0.7488737  
   0.172991400     0.3186471   -0.7984730  
   0.174991300     0.2073593   -0.8314030  
   0.176991200     0.0941236   -0.8480294  
   0.178991100    -0.0189013   -0.8486189  
   0.180991000    -0.1294007   -0.8346745  
   0.182990900    -0.2364552   -0.8054117  
   0.184990800    -0.3385822   -0.7621117  
   0.186990700    -0.4337586   -0.7050318  
   0.188990600    -0.5022117   -0.6491985  
   0.190990500    -0.5946953   -0.5557133  
   0.192990400    -0.6627064   -0.4605657  
   0.194990300    -0.7155333   -0.3583662  
   0.196990200    -0.7535279   -0.2484368  
   0.198990100    -0.7760876   -0.1318922  
   0.200990000    -0.7810737   -0.0104275  
   0.202989900    -0.7672662    0.1130940  
   0.204989800    -0.7337170    0.2358128  
   0.206989700    -0.6812128    0.3548151  
   0.208989600    -0.6075482    0.4655659  
   0.210989500    -0.5139147    0.5651276  
   0.212989400    -0.4023536    0.6492910  
   0.214989300    -0.2752864    0.7139088  
   0.216989200    -0.1369488    0.7559378  
   0.218989100     0.0087730    0.7725766  
   0.220989000     0.1567229    0.7623810  
   0.222988900     0.3015818    0.7247937  
   0.224988800     0.4376332    0.6606694  
   0.226988700     0.5591266    0.5732915  
   0.228988600     0.6615464    0.4660008  
   0.230988500     0.7418517    0.3432263  
   0.232988400     0.7972874    0.2090948  
   0.234988300     0.8286544    0.0699564  
   0.236988200     0.8352013   -0.0701269  
   0.238988100     0.8181230   -0.2062647  
   0.240988000     0.7797875   -0.3347199  
   0.242987900     0.7222639   -0.4516476  
   0.244987800     0.6489606   -0.5555956  
   0.246987700     0.5620977   -0.6455391  
   0.248987600     0.4645300   -0.7197465  
   0.250987500     0.3585661   -0.7771800  
   0.252987400     0.2482208   -0.8177062  
   0.254987300     0.1355620   -0.8416660  
   0.256987200     0.0225532   -0.8490601  
   0.258987100    -0.0892587   -0.8423519  
   0.260987000    -0.1981130   -0.8191036  
   0.262986900    -0.3028016   -0.7810354  
   0.264986800    -0.4008235   -0.7295104  
   0.266986700    -0.4906709   -0.6647046  
   0.268986600    -0.5709571   -0.5883978  
   0.270986500    -0.6395682   -0.5015510  
   0.272986400    -0.6961444   -0.4055426  
   0.274986300    -0.7393565   -0.3015360  
   0.276986200    -0.7673623   -0.1906649  
   0.278986100    -0.7794369   -0.0747234  
   0.280986000    -0.7737325    0.0441441  
   0.282985900    -0.7495509    0.1633030  
   0.284985800    -0.7061061    0.2794891  
   0.286985700    -0.6431202    0.3894674  
   0.288985600    -0.5620720    0.4894591  
   0.290985500    -0.4630795    0.5759204  
   0.292985400    -0.3486077    0.6448238  
   0.294985300    -0.2206535    0.6938180  
   0.296985200    -0.0833031    0.7189631  
   0.298985100     0.0593024    0.7181569  
   0.300985000     0.2004842    0.6893378  
   0.302984900     0.3342968    0.6332164  
   0.304984800     0.4537736    0.5516367  
   0.306984700     0.5543849    0.4486619  
   0.308984600     0.6308573    0.3292351  
   0.310984500     0.6805969    0.1999667  
   0.312984400     0.7031568    0.0663456  
   0.314984300     0.6992188   -0.0642807  
   0.316984200     0.6710123   -0.1866184  
   0.318984100     0.6220877   -0.2961776  
   0.320984000     0.5582856   -0.3896115  
   0.322983900     0.4842302   -0.4650359  
   0.324983800     0.4059303   -0.5226653  
   0.326983700     0.3281298   -0.5649406  
   0.328983600     0.2541291   -0.5964529  
   0.330983500     0.1840857   -0.6217995  
   0.332983400     0.1157187   -0.6446375  
   0.334983300     0.0441897   -0.6659761  
   0.336983200    -0.0340409   -0.6838977  
   0.338983100    -0.1216039   -0.6937306  
   0.340983000    -0.2162938   -0.6902125  
   0.342982900    -0.3152018   -0.6699688  
   0.344982800    -0.4131193   -0.6308933  
   0.346982700    -0.5065957   -0.5729257  
   0.348982600    -0.5887192   -0.4975843  
   0.350982500    -0.6586639   -0.4089359  
   0.352982400    -0.7134726   -0.3088938  
   0.354982300    -0.7528733   -0.1957409  
   0.356982200    -0.7739115   -0.0634827  
   0.358982100    -0.7707258    0.0704478  
   0.360982000    -0.7435213    0.2008860  
   0.362981900    -0.6937945    0.3248929  
   0.364981800    -0.6227081    0.4385026  
   0.366981700    -0.5324754    0.5384430  
   0.368981600    -0.4253434    0.6213143  
   0.370981500    -0.3045028    0.6840812  
   0.372981400    -0.1732195    0.7249716  
   0.374981300    -0.0351973    0.7417938  
   0.376981200    -0.1367618    0.7366197  
   0.378981100     0.0072948    0.7466860  
   0.380981000     0.1518534    0.7296247  
   0.382980900     0.2805344    0.6897427  
   0.384980800     0.3965045    0.6309614  
   0.386980700     0.5014951    0.5525192  
   0.388980600     0.5918176    0.4566410  
   0.390980500     0.6642429    0.3469681  
   0.392980400     0.7165681    0.2269563  
   0.394980300     0.7473297    0.1003106  
   0.396980200     0.7560785   -0.0291704  
   0.398980100     0.7428764   -0.1571783  
   0.400980000     0.7082968   -0.2801000  
   0.402979900     0.6540298   -0.3946267  
   0.404979800     0.5826074   -0.4973254  
   0.406979700     0.4962375   -0.5854151  
   0.408979600     0.3981574   -0.6575766  
   0.410979500     0.2901866   -0.7124124  
   0.412979400     0.1761453   -0.7488306  
   0.414979300     0.0588690   -0.7655475  
   0.416979200    -0.0580965   -0.7648978  
   0.418979100    -0.1719828   -0.7461357  
   0.420979000    -0.2808257   -0.7105260  
   0.422978900    -0.3823921   -0.6594138  
   0.424978800    -0.4744388   -0.5938311  
   0.426978700    -0.5550671   -0.5154772  
   0.428978600    -0.6224921   -0.4264156  
   0.430978500    -0.6757863   -0.3290043  
   0.432978400    -0.7137121   -0.2254367  
   0.434978300    -0.7372227   -0.1179243  
   0.436978200    -0.7435804   -0.0075207  
   0.438978100    -0.7334163    0.1028960  
   0.440978000    -0.7070512    0.2109499  
   0.442977900    -0.6646232    0.3146133  
   0.444977800    -0.6063895    0.4116229  
   0.446977700    -0.5341243    0.4989641  
   0.448977600    -0.4482134    0.5753956  
   0.450977500    -0.3508509    0.6381648  
   0.452977400    -0.2433656    0.6859384  
   0.454977300    -0.1280280    0.7159953  
   0.456977200    -0.0079653    0.7277260  
   0.458977100     0.1138132    0.7195203  
   0.460977000     0.2335624    0.6915028  
   0.462976900     0.3475037    0.6437697  
   0.464976800     0.4524725    0.5773366  
   0.466976700     0.5455456    0.4939967  
   0.468976600     0.6233683    0.3960496  
   0.470976500     0.6836078    0.2859866  
   0.472976400     0.7243744    0.1677734  
   0.474976300     0.7449940    0.0447154  
   0.476976200     0.7444265   -0.0792246  
   0.478976100     0.7233612   -0.2002636  
   0.480976000     0.6836277   -0.3147557  
   0.482975900     0.6264343   -0.4197523  
   0.484975800     0.5541534   -0.5128183  
   0.486975700     0.4687249   -0.5922346  
   0.488975600     0.3732115   -0.6568654  
   0.490975500     0.2702533   -0.7048485  
   0.492975400     0.1623203   -0.7363918  
   0.494975300     0.0521809   -0.7511903  
   0.496975200    -0.0577011   -0.7493356  
   0.498975100    -0.1644137   -0.7315741  
   0.500975000    -0.2664927   -0.6985714  
   0.502974900    -0.3618555   -0.6519351  
   0.504974800    -0.4490299   -0.5920315  
   0.506974700    -0.5271889   -0.5209174  
   0.508974600    -0.5944625   -0.4385040  
   0.510974500    -0.6493292   -0.3472994  
   0.512974400    -0.6906879   -0.2487925  
   0.514974300    -0.7159397   -0.1447227  
   0.516974200    -0.7265458   -0.0380829  
   0.518974100    -0.7212383    0.0698367  
   0.520974000    -0.6993262    0.1765248  
   0.522973900    -0.6610617    0.2792277  
   0.524973800    -0.6062409    0.3754502  
   0.526973700    -0.5365267    0.4623533  
   0.528973600    -0.4533016    0.5370982  
   0.530973500    -0.3588656    0.5978947  
   0.532973400    -0.2560926    0.6421828  
   0.534973300    -0.1476328    0.6696212  
   0.536973200    -0.0363355    0.6794623  
   0.538973100     0.0745527    0.6719528  
   0.540973000     0.1822269    0.6470485  
   0.542972900     0.2844088    0.6061696  
   0.544972800     0.3791673    0.5499611  
   0.546972700     0.4646182    0.4795067  
   0.548972600     0.5377155    0.3964049  
   0.550972500     0.5973231    0.3026185  
   0.552972400     0.6419668    0.1999528  
   0.554972300     0.6696857    0.0914233  
   0.556972200     0.6794540   -0.0204295  
   0.558972100     0.6714236   -0.1329552  
   0.560972000     0.6454440   -0.2422507  
   0.562971900     0.6025283   -0.3458740  
   0.564971800     0.5438268   -0.4410661  
   0.566971700     0.4710644   -0.5252545  
   0.568971600     0.3862198   -0.5966515  
   0.570971500     0.2914476   -0.6535685  
   0.572971400     0.1893939   -0.6946728  
   0.574971300     0.0819944   -0.7191391  
   0.576971200    -0.0277701   -0.7268622  
   0.578971100    -0.1373043   -0.7176458  
   0.580971000    -0.2435221   -0.6915882  
   0.582970900    -0.3436640   -0.6499545  
   0.584970800    -0.4356794   -0.5937269  
   0.586970700    -0.5176184   -0.5250092  
   0.588970600    -0.5877147   -0.4452595  
   0.590970500    -0.6452743   -0.3561467  
   0.592970400    -0.6890143   -0.2598412  
   0.594970300    -0.7177270   -0.1585386  
   0.596970200    -0.7314911   -0.0538865  
   0.598970100    -0.7296424    0.0517104  
   0.600970000    -0.7123648    0.1562668  
   0.602969900    -0.6798675    0.2569974  
   0.604969800    -0.6325396    0.3526409  
   0.606969700    -0.5712972    0.4405736  
   0.608969600    -0.4966854    0.5192279  
   0.610969500    -0.4109137    0.5858338  
   0.612969400    -0.3151826    0.6393576  
   0.614969300    -0.2117796    0.6777359  
   0.616969200    -0.1030272    0.6996651  
   0.618969100     0.0077987    0.7049675  
   0.620969000     0.1186955    0.6928716  
   0.622968900     0.2275059    0.6630527  
   0.624968800     0.3307021    0.6161011  
   0.626968700     0.4263809    0.5525799  
   0.628968600     0.5110266    0.4739698  
   0.630968500     0.5820139    0.3819536  
   0.632968400     0.6373194    0.2790954  
   0.634968300     0.6751559    0.1677713  
   0.636968200     0.6938201    0.0521560  
   0.638968100     0.6931345   -0.0652348  
   0.640968000     0.6726856   -0.1811475  
   0.642967900     0.6335552   -0.2910050  
   0.644967800     0.5768946   -0.3927092  
   0.646967700     0.5047165   -0.4825720  
   0.648967600     0.4196593   -0.5589095  
   0.650967500     0.3242739   -0.6195948  
   0.652967400     0.2213036   -0.6632065  
   0.654967300     0.1138675   -0.6900755  
   0.656967200     0.0049644   -0.6991508  
   0.658967100    -0.1029226   -0.6909940  
   0.660967000    -0.2075468   -0.6662484  
   0.662966900    -0.3065146   -0.6259649  
   0.664966800    -0.3975593   -0.5711449  
   0.666966700    -0.4786577   -0.5032566  
   0.668966600    -0.5480105   -0.4243704  
   0.670966500    -0.6040499   -0.3362712  
   0.672966400    -0.6465663   -0.2414433  
   0.674966300    -0.6733264   -0.1418625  
   0.676966200    -0.6847660   -0.0396344  
   0.678966100    -0.6809344    0.0626315  
   0.680966000    -0.6614776    0.1634932  
   0.682965900    -0.6273448    0.2601976  
   0.684965800    -0.5789858    0.3507215  
   0.686965700    -0.5169414    0.4333450  
   0.688965600    -0.4427234    0.5059109  
   0.690965500    -0.3575928    0.5660451  
   0.692965400    -0.2637240    0.6129603  
   0.694965300    -0.1633529    0.6453702  
   0.696965200    -0.0583253    0.6614482  
   0.698965100     0.0491567    0.6606641  
   0.700965000     0.1557622    0.6426762  
   0.702964900     0.2592387    0.6075264  
   0.704964800     0.3558345    0.5552490  
   0.706964700     0.4433526    0.4875028  
   0.708964600     0.5186736    0.4054119  
   0.710964500     0.5806791    0.3121507  
   0.712964400     0.6251451    0.2091968  
   0.714964300     0.6517982    0.1004156  
   0.716964200     0.6596978   -0.0105374  
   0.718964100     0.6488518   -0.1204208  
   0.720964000     0.6202829   -0.2252035  
   0.722963900     0.5757088   -0.3235520  
   0.724963800     0.5163301   -0.4120277  
   0.726963700     0.4444103   -0.4889092  
   0.728963600     0.3624153   -0.5532114  
   0.730963500     0.2718955   -0.6023124  
   0.732963400     0.1767337   -0.6372858  
   0.734963300     0.0779104   -0.6572903  
   0.736963200    -0.0361432   -0.6618475  
   0.738963100    -0.1485302   -0.6462648  
   0.740963000    -0.2556287   -0.6121444  
   0.742962900    -0.3548790   -0.5601468  
   0.744962800    -0.4434202   -0.4923460  
   0.746962700    -0.5191858   -0.4108726  
   0.748962600    -0.5797783   -0.3170569  
   0.750962500    -0.5399475   -0.4014699  
   0.752962400    -0.5991781   -0.3057683  
   0.754962300    -0.6407937   -0.2010468  
   0.756962200    -0.6640382   -0.0902382  
   0.758962100    -0.6675377    0.0232604  
   0.760962000    -0.6509536    0.1362543  
   0.762961900    -0.6170737    0.2400087  
   0.764961800    -0.5717202    0.3287159  
   0.766961700    -0.5130377    0.4096647  
   0.768961600    -0.4418114    0.4805669  
   0.770961500    -0.3606372    0.5392822  
   0.772961400    -0.2709616    0.5848602  
   0.774961300    -0.1756997    0.6151965  
   0.776961200    -0.0763682    0.6307617  
   0.778961100     0.0245805    0.6304992  
   0.780961000     0.1243882    0.6146619  
   0.782960900     0.2208482    0.5831057  
   0.784960800     0.3119296    0.5360965  
   0.786960700     0.3947800    0.4753701  
   0.788960600     0.4673648    0.4018738  
   0.790960500     0.5270554    0.3178848  
   0.792960400     0.5728507    0.2252266  
   0.794960300     0.6032273    0.1264735  
   0.796960200     0.6173988    0.0239817  
   0.798960100     0.6145331   -0.0795517  
   0.800960000     0.5955288   -0.1809101  
   0.802959900     0.5604258   -0.2780922  
   0.804959800     0.5101006   -0.3683070  
   0.806959700     0.4463864   -0.4488297  
   0.808959600     0.3705780   -0.5185844  
   0.810959500     0.2844959   -0.5750382  
   0.812959400     0.1909903   -0.6171893  
   0.814959300     0.0919260   -0.6437607  
   0.816959200    -0.0096685   -0.6542181  
   0.818959100    -0.1112803   -0.6487203  
   0.820959000    -0.2104602   -0.6272048  
   0.822958900    -0.3049168   -0.5906476  
   0.824958800    -0.3919984   -0.5398807  
   0.826958700    -0.4699427   -0.4764040  
   0.828958600    -0.5369148   -0.4020025  
   0.830958500    -0.5911366   -0.3185390  
   0.832958400    -0.6320041   -0.2280005  
   0.834958300    -0.6583827   -0.1329353  
   0.836958200    -0.6702159   -0.0353546  
   0.838958100    -0.6671618    0.0626642  
   0.840958000    -0.6492199    0.1592853  
   0.842957900    -0.6167487    0.2515793  
   0.844957800    -0.5708496    0.3386041  
   0.846957700    -0.5123008    0.4176441  
   0.848957600    -0.4421514    0.4873933  
   0.850957500    -0.3619613    0.5457808  
   0.852957400    -0.2736704    0.5912845  
   0.854957300    -0.1787461    0.6229015  
   0.856957200    -0.0799258    0.6394894  
   0.858957100     0.0209211    0.6407209  
   0.860957000     0.1206187    0.6261895  
   0.862956900     0.2168768    0.5958013  
   0.864956800     0.3070724    0.5507793  
   0.866956700     0.3893737    0.4920006  
   0.868956600     0.4611879    0.4203246  
   0.870956500     0.5213946    0.3380024  
   0.872956400     0.5682928    0.2465144  
   0.874956300     0.5994139    0.1479518  
   0.876956200     0.6143766    0.0449681  
   0.878956100     0.6124464   -0.0596067  
   0.880956000     0.5927089   -0.1625571  
   0.882955900     0.5563046   -0.2610836  
   0.884955800     0.5037015   -0.3520294  
   0.886955700     0.4369798   -0.4327262  
   0.888955600     0.3579648   -0.5010346  
   0.890955500     0.2690443   -0.5547520  
   0.892955400     0.1730337   -0.5929941  
   0.894955300     0.0726554   -0.6145004  
