! MS46122B
! 2250307/22442219
! 7/24/2025 12:44:00 PM
! C:\USERS\SPARKY\DOCUMENTS\VNA_DATA\JULY24_2025\295K\PORT1_MOS4_REPEAT1.S1P
! CHANNEL.1
! TR.MEASUREMENT
! RAW.DATA
# GHZ S RI R 50.0
! FREQ.GHZ         S11RE         S11IM         
!; PortSelection: Port_1
   0.001000000     1.0452910   -0.0722193  
   0.002999900     0.9635371   -0.1944886  
   0.004999800     0.9025833   -0.2990884  
   0.006999700     0.8345230   -0.3961941  
   0.008999600     0.7545351   -0.4903783  
   0.010999500     0.6597079   -0.5789365  
   0.012999400     0.5446929   -0.6588154  
   0.014999300     0.4041197   -0.7228551  
   0.016999200     0.2332639   -0.7574466  
   0.018999100     0.0307518   -0.7428548  
   0.020999000    -0.1900582   -0.6464540  
   0.022998900    -0.3850970   -0.4375978  
   0.024998800    -0.4587422   -0.1244874  
   0.026998700    -0.3853914    0.2245833  
   0.028998600    -0.1337240    0.4714364  
   0.030998500     0.1757444    0.5551122  
   0.032998400     0.4209527    0.4956577  
   0.034998300     0.6424235    0.3798406  
   0.036998200     0.7656626    0.2287601  
   0.038998100     0.8329796    0.0753058  
   0.040998000     0.8593665   -0.0684676  
   0.042997900     0.8562111   -0.1991713  
   0.044997800     0.8079563   -0.2901244  
   0.046997700     0.7916272   -0.4180369  
   0.048997600     0.7403848   -0.5079486  
   0.050997500     0.6805573   -0.5855350  
   0.052997400     0.6140531   -0.6523780  
   0.054997300     0.5428097   -0.7087705  
   0.056997200     0.4658420   -0.7570496  
   0.058997100     0.3861334   -0.7956029  
   0.060997000     0.3030515   -0.8253453  
   0.062996900     0.2171829   -0.8460207  
   0.064996800     0.1291619   -0.8573946  
   0.066996700     0.0389434   -0.8593902  
   0.068996600    -0.0522470   -0.8509687  
   0.070996500    -0.1444081   -0.8326598  
   0.072996400    -0.2361431   -0.8015068  
   0.074996300    -0.3262264   -0.7583217  
   0.076996200    -0.4134479   -0.7019168  
   0.078996100    -0.4954305   -0.6319159  
   0.080996000    -0.5705110   -0.5473104  
   0.082995900    -0.6351529   -0.4483345  
   0.084995800    -0.6857648   -0.3352753  
   0.086995700    -0.7202631   -0.2098168  
   0.088995600    -0.7336361   -0.0737563  
   0.090995500    -0.7221453    0.0691054  
   0.092995400    -0.6831000    0.2143186  
   0.094995300    -0.6127384    0.3548775  
   0.096995200    -0.5115983    0.4827389  
   0.098995100    -0.3811510    0.5890839  
   0.100995000    -0.2264236    0.6673700  
   0.102994900    -0.0575955    0.7085467  
   0.104994800     0.1165611    0.7104687  
   0.106994700     0.2848248    0.6728580  
   0.108994600     0.4386290    0.6009942  
   0.110994500     0.5696924    0.5001777  
   0.112994400     0.6728947    0.3777147  
   0.114994300     0.7462072    0.2419587  
   0.116994200     0.7896211    0.1005708  
   0.118994100     0.8047745   -0.0403415  
   0.120994000     0.7963460   -0.1757786  
   0.122993900     0.7644632   -0.3021092  
   0.124993800     0.7145028   -0.4163540  
   0.126993700     0.6493959   -0.5173458  
   0.128993600     0.5716644   -0.6032402  
   0.130993500     0.4857452   -0.6751041  
   0.132993400     0.3929598   -0.7326674  
   0.134993300     0.2959443   -0.7753512  
   0.136993200     0.1954979   -0.8041432  
   0.138993100     0.0936593   -0.8189657  
   0.140993000    -0.0077655   -0.8201799  
   0.142992900    -0.1081356   -0.8083301  
   0.144992800    -0.2061911   -0.7851502  
   0.146992700    -0.3000072   -0.7478148  
   0.148992600    -0.3889794   -0.6986362  
   0.150992500    -0.4702034   -0.6366435  
   0.152992400    -0.5448900   -0.5645553  
   0.154992300    -0.6099954   -0.4819928  
   0.156992200    -0.6641051   -0.3892189  
   0.158992100    -0.7060755   -0.2879565  
   0.160992000    -0.7335493   -0.1789261  
   0.162991900    -0.7452863   -0.0642463  
   0.164991800    -0.7393656    0.0540411  
   0.166991700    -0.7145379    0.1731103  
   0.168991600    -0.6699480    0.2899262  
   0.170991500    -0.6049467    0.4012183  
   0.172991400    -0.5201555    0.5023836  
   0.174991300    -0.4165357    0.5893714  
   0.176991200    -0.2963727    0.6583740  
   0.178991100    -0.1634322    0.7055710  
   0.180991000    -0.0220268    0.7286654  
   0.182990900     0.1227768    0.7238919  
   0.184990800     0.2655211    0.6916054  
   0.186990700     0.3996341    0.6327937  
   0.188990600     0.5028142    0.5644200  
   0.190990500     0.6181255    0.4495775  
   0.192990400     0.6996857    0.3281805  
   0.194990300     0.7550448    0.1991193  
   0.196990200     0.7856711    0.0650557  
   0.198990100     0.7917034   -0.0690870  
   0.200990000     0.7750590   -0.2000326  
   0.202989900     0.7371399   -0.3228437  
   0.204989800     0.6808367   -0.4351512  
   0.206989700     0.6100959   -0.5347192  
   0.208989600     0.5257237   -0.6188388  
   0.210989500     0.4315313   -0.6880008  
   0.212989400     0.3293989   -0.7408229  
   0.214989300     0.2229690   -0.7772623  
   0.216989200     0.1142685   -0.7973808  
   0.218989100     0.0056057   -0.8018202  
   0.220989000    -0.1016952   -0.7907090  
   0.222988900    -0.2058731   -0.7641234  
   0.224988800    -0.3050546   -0.7237529  
   0.226988700    -0.3972364   -0.6699286  
   0.228988600    -0.4806086   -0.6040419  
   0.230988500    -0.5542689   -0.5264384  
   0.232988400    -0.6156616   -0.4373277  
   0.234988300    -0.6651018   -0.3400744  
   0.236988200    -0.7005045   -0.2348640  
   0.238988100    -0.7199667   -0.1243220  
   0.240988000    -0.7222541   -0.0105200  
   0.242987900    -0.7067964    0.1043526  
   0.244987800    -0.6728826    0.2173326  
   0.246987700    -0.6200605    0.3260513  
   0.248987600    -0.5482835    0.4268413  
   0.250987500    -0.4582325    0.5161275  
   0.252987400    -0.3528001    0.5894349  
   0.254987300    -0.2344719    0.6443731  
   0.256987200    -0.1063269    0.6776298  
   0.258987100     0.0277225    0.6885358  
   0.260987000     0.1633377    0.6732205  
   0.262986900     0.2944965    0.6329335  
   0.264986800     0.4165733    0.5683778  
   0.266986700     0.5245280    0.4822296  
   0.268986600     0.6138030    0.3782990  
   0.270986500     0.6817495    0.2609234  
   0.272986400     0.7266139    0.1347391  
   0.274986300     0.7477160    0.0045282  
   0.276986200     0.7457970   -0.1250126  
   0.278986100     0.7213221   -0.2503954  
   0.280986000     0.6769538   -0.3672552  
   0.282985900     0.6148872   -0.4733004  
   0.284985800     0.5383661   -0.5657167  
   0.286985700     0.4498723   -0.6427092  
   0.288985600     0.3532208   -0.7034093  
   0.290985500     0.2512739   -0.7476972  
   0.292985400     0.1459537   -0.7761345  
   0.294985300     0.0394790   -0.7886658  
   0.296985200    -0.0664353   -0.7859542  
   0.298985100    -0.1705476   -0.7683594  
   0.300985000    -0.2703222   -0.7367810  
   0.302984900    -0.3636940   -0.6920829  
   0.304984800    -0.4495431   -0.6355001  
   0.306984700    -0.5263935   -0.5678335  
   0.308984600    -0.5930930   -0.4907660  
   0.310984500    -0.6486226   -0.4058433  
   0.312984400    -0.6925054   -0.3130130  
   0.314984300    -0.7235350   -0.2142210  
   0.316984200    -0.7401295   -0.1107725  
   0.318984100    -0.7415545   -0.0028795  
   0.320984000    -0.7261964    0.1057805  
   0.322983900    -0.6927865    0.2130547  
   0.324983800    -0.6415272    0.3144749  
   0.326983700    -0.5730717    0.4053380  
   0.328983600    -0.4904319    0.4828990  
   0.330983500    -0.3976311    0.5440105  
   0.332983400    -0.2991883    0.5883703  
   0.334983300    -0.1973106    0.6179010  
   0.336983200    -0.0938177    0.6330801  
   0.338983100     0.0113734    0.6344475  
   0.340983000     0.1166856    0.6211209  
   0.342982900     0.2211869    0.5919886  
   0.344982800     0.3219339    0.5460653  
   0.346982700     0.4166167    0.4832067  
   0.348982600     0.4999093    0.4031331  
   0.350982500     0.5703539    0.3097550  
   0.352982400     0.6241863    0.2037107  
   0.354982300     0.6593013    0.0845112  
   0.356982200     0.6715164   -0.0515445  
   0.358982100     0.6562200   -0.1871229  
   0.360982000     0.6144786   -0.3167956  
   0.362981900     0.5481002   -0.4355399  
   0.364981800     0.4597385   -0.5386133  
   0.366981700     0.3532196   -0.6221544  
   0.368981600     0.2335871   -0.6829556  
   0.370981500     0.1049618   -0.7195709  
   0.372981400    -0.0268427   -0.7310507  
   0.374981300    -0.1582031   -0.7171650  
   0.376981200    -0.0471255   -0.7324932  
   0.378981100    -0.1762461   -0.7145811  
   0.380981000    -0.2991653   -0.6741925  
   0.382980900    -0.4017993   -0.6188787  
   0.384980800    -0.4894326   -0.5513691  
   0.386980700    -0.5650764   -0.4718373  
   0.388980600    -0.6277892   -0.3814895  
   0.390980500    -0.6755952   -0.2840270  
   0.392980400    -0.7077950   -0.1805508  
   0.394980300    -0.7241764   -0.0738293  
   0.396980200    -0.7245056    0.0342379  
   0.398980100    -0.7086577    0.1416814  
   0.400980000    -0.6764354    0.2461521  
   0.402979900    -0.6288118    0.3453235  
   0.404979800    -0.5661769    0.4367511  
   0.406979700    -0.4892949    0.5182045  
   0.408979600    -0.3999757    0.5873958  
   0.410979500    -0.2993700    0.6432062  
   0.412979400    -0.1894683    0.6827483  
   0.414979300    -0.0730778    0.7029539  
   0.416979200     0.0462869    0.7054478  
   0.418979100     0.1656591    0.6878475  
   0.420979000     0.2815399    0.6504748  
   0.422978900     0.3906729    0.5936084  
   0.424978800     0.4892870    0.5182700  
   0.426978700     0.5739631    0.4265890  
   0.428978600     0.6417965    0.3213978  
   0.430978500     0.6905828    0.2062169  
   0.432978400     0.7185890    0.0847974  
   0.434978300     0.7264146   -0.0393921  
   0.436978200     0.7118475   -0.1619788  
   0.438978100     0.6770225   -0.2799594  
   0.440978000     0.6229116   -0.3893596  
   0.442977900     0.5517702   -0.4872310  
   0.444977800     0.4662947   -0.5708147  
   0.446977700     0.3691357   -0.6386811  
   0.448977600     0.2635968   -0.6892515  
   0.450977500     0.1522729   -0.7211204  
   0.452977400     0.0384069   -0.7348208  
   0.454977300    -0.0759369   -0.7300765  
   0.456977200    -0.1870524   -0.7075595  
   0.458977100    -0.2929809   -0.6679126  
   0.460977000    -0.3898242   -0.6128301  
   0.462976900    -0.4763544   -0.5439896  
   0.464976800    -0.5508363   -0.4627234  
   0.466976700    -0.6114097   -0.3713004  
   0.468976600    -0.6572878   -0.2721190  
   0.470976500    -0.6873011   -0.1670320  
   0.472976400    -0.7006822   -0.0582807  
   0.474976300    -0.6967303    0.0511715  
   0.476976200    -0.6757279    0.1591603  
   0.478976100    -0.6382772    0.2626900  
   0.480976000    -0.5846334    0.3593466  
   0.482975900    -0.5158938    0.4466338  
   0.484975800    -0.4334576    0.5223944  
   0.486975700    -0.3389208    0.5844907  
   0.488975600    -0.2343489    0.6306204  
   0.490975500    -0.1226573    0.6590198  
   0.492975400    -0.0066578    0.6679852  
   0.494975300     0.1098787    0.6569914  
   0.496975200     0.2234564    0.6256524  
   0.498975100     0.3294788    0.5748944  
   0.500975000     0.4251108    0.5065959  
   0.502974900     0.5066553    0.4230187  
   0.504974800     0.5716799    0.3267492  
   0.506974700     0.6182967    0.2212657  
   0.508974600     0.6458880    0.1104784  
   0.510974500     0.6536920   -0.0012986  
   0.512974400     0.6427106   -0.1107354  
   0.514974300     0.6137822   -0.2130829  
   0.516974200     0.5710259   -0.3080842  
   0.518974100     0.5162224   -0.3932266  
   0.520974000     0.4510504   -0.4675806  
   0.522973900     0.3776428   -0.5309359  
   0.524973800     0.2970296   -0.5828270  
   0.526973700     0.2110952   -0.6237742  
   0.528973600     0.1204412   -0.6523232  
   0.530973500     0.0255084   -0.6690269  
   0.532973400    -0.0716035   -0.6722703  
   0.534973300    -0.1694079   -0.6606598  
   0.536973200    -0.2665057   -0.6354029  
   0.538973100    -0.3593124   -0.5946991  
   0.540973000    -0.4457235   -0.5396423  
   0.542972900    -0.5238785   -0.4706202  
   0.544972800    -0.5907543   -0.3891959  
   0.546972700    -0.6442965   -0.2967586  
   0.548972600    -0.6827637   -0.1958213  
   0.550972500    -0.7044874   -0.0891660  
   0.552972400    -0.7085994    0.0202746  
   0.554972300    -0.6949120    0.1300553  
   0.556972200    -0.6634036    0.2365218  
   0.558972100    -0.6146962    0.3369859  
   0.560972000    -0.5503738    0.4284421  
   0.562971900    -0.4717121    0.5083993  
   0.564971800    -0.3809327    0.5749421  
   0.566971700    -0.2801721    0.6260232  
   0.568971600    -0.1719706    0.6603800  
   0.570971500    -0.0594052    0.6766405  
   0.572971400     0.0554239    0.6742924  
   0.574971300     0.1692551    0.6528274  
   0.576971200     0.2792650    0.6121185  
   0.578971100     0.3813620    0.5531752  
   0.580971000     0.4725778    0.4775122  
   0.582970900     0.5496443    0.3872553  
   0.584970800     0.6104321    0.2849547  
   0.586970700     0.6527149    0.1739363  
   0.588970600     0.6755867    0.0571642  
   0.590970500     0.6780921   -0.0618629  
   0.592970400     0.6603690   -0.1793567  
   0.594970300     0.6228964   -0.2915635  
   0.596970200     0.5672193   -0.3954766  
   0.598970100     0.4948004   -0.4881935  
   0.600970000     0.4085841   -0.5669615  
   0.602969900     0.3107764   -0.6300286  
   0.604969800     0.2047566   -0.6754314  
   0.606969700     0.0929986   -0.7023252  
   0.608969600    -0.0207137   -0.7109959  
   0.610969500    -0.1337065   -0.7007706  
   0.612969400    -0.2424032   -0.6732349  
   0.614969300    -0.3443550   -0.6288723  
   0.616969200    -0.4369107   -0.5696032  
   0.618969100    -0.5180140   -0.4974780  
   0.620969000    -0.5867108   -0.4145362  
   0.622968900    -0.6418445   -0.3227810  
   0.624968800    -0.6821903   -0.2237865  
   0.626968700    -0.7074969   -0.1198643  
   0.628968600    -0.7166119   -0.0132641  
   0.630968500    -0.7097693    0.0933207  
   0.632968400    -0.6868657    0.1981923  
   0.634968300    -0.6480133    0.2985156  
   0.636968200    -0.5945916    0.3924331  
   0.638968100    -0.5272428    0.4775883  
   0.640968000    -0.4467449    0.5518062  
   0.642967900    -0.3557099    0.6132203  
   0.644967800    -0.2550086    0.6606118  
   0.646967700    -0.1476274    0.6917054  
   0.648967600    -0.0359684    0.7057143  
   0.650967500     0.0770649    0.7019489  
   0.652967400     0.1889997    0.6802317  
   0.654967300     0.2966793    0.6405678  
   0.656967200     0.3973354    0.5837929  
   0.658967100     0.4879115    0.5107462  
   0.660967000     0.5665628    0.4231047  
   0.662966900     0.6296495    0.3225748  
   0.664966800     0.6760397    0.2119632  
   0.666966700     0.7031307    0.0946940  
   0.668966600     0.7101819   -0.0260686  
   0.670966500     0.6965001   -0.1459956  
   0.672966400     0.6641430   -0.2619792  
   0.674966300     0.6121017   -0.3700111  
   0.676966200     0.5428191   -0.4670199  
   0.678966100     0.4597460   -0.5503031  
   0.680966000     0.3641035   -0.6182108  
   0.682965900     0.2599834   -0.6688965  
   0.684965800     0.1503472   -0.7017124  
   0.686965700     0.0374959   -0.7161674  
   0.688965600    -0.0748951   -0.7126011  
   0.690965500    -0.1838059   -0.6906558  
   0.692965400    -0.2870877   -0.6532526  
   0.694965300    -0.3820625   -0.6007094  
   0.696965200    -0.4672839   -0.5350460  
   0.698965100    -0.5408588   -0.4573592  
   0.700965000    -0.6016230   -0.3698765  
   0.702964900    -0.6481041   -0.2749030  
   0.704964800    -0.6797146   -0.1740353  
   0.706964700    -0.6956336   -0.0697292  
   0.708964600    -0.6955707    0.0359084  
   0.710964500    -0.6797224    0.1410504  
   0.712964400    -0.6475841    0.2421573  
   0.714964300    -0.5996984    0.3376280  
   0.716964200    -0.5379126    0.4245270  
   0.718964100    -0.4629065    0.5011826  
   0.720964000    -0.3768143    0.5651925  
   0.722963900    -0.2814231    0.6150361  
   0.724963800    -0.1786779    0.6492292  
   0.726963700    -0.0712057    0.6665825  
   0.728963600     0.0384238    0.6663077  
   0.730963500     0.1467388    0.6476301  
   0.732963400     0.2508124    0.6118167  
   0.734963300     0.3481036    0.5589262  
   0.736963200     0.4477327    0.4800092  
   0.738963100     0.5312332    0.3833758  
   0.740963000     0.5944702    0.2728214  
   0.742962900     0.6359130    0.1531817  
   0.744962800     0.6539695    0.0286470  
   0.746962700     0.6486313   -0.0958510  
   0.748962600     0.6206362   -0.2167192  
   0.750962500     0.6335599   -0.1190838  
   0.752962400     0.6028622   -0.2373586  
   0.754962300     0.5514905   -0.3471598  
   0.756962200     0.4815624   -0.4453013  
   0.758962100     0.3960789   -0.5287421  
   0.760962000     0.2971778   -0.5955591  
   0.762961900     0.1938720   -0.6420160  
   0.764961800     0.0934802   -0.6690004  
   0.766961700    -0.0093526   -0.6805194  
   0.768961600    -0.1134656   -0.6759001  
   0.770961500    -0.2157023   -0.6556196  
   0.772961400    -0.3135337   -0.6196573  
   0.774961300    -0.4050977   -0.5691189  
   0.776961200    -0.4878798   -0.5047838  
   0.778961100    -0.5600179   -0.4280478  
   0.780961000    -0.6193659   -0.3404957  
   0.782960900    -0.6644762   -0.2442834  
   0.784960800    -0.6940155   -0.1415040  
   0.786960700    -0.7069188   -0.0351506  
   0.788960600    -0.7027721    0.0723387  
   0.790960500    -0.6818649    0.1777623  
   0.792960400    -0.6444510    0.2784985  
   0.794960300    -0.5914331    0.3726925  
   0.796960200    -0.5247441    0.4569563  
   0.798960100    -0.4452049    0.5297024  
   0.800960000    -0.3553030    0.5892158  
   0.802959900    -0.2568909    0.6339155  
   0.804959800    -0.1526112    0.6628659  
   0.806959700    -0.0452723    0.6749973  
   0.808959600     0.0632750    0.6699219  
   0.810959500     0.1698456    0.6477641  
   0.812959400     0.2722751    0.6085885  
   0.814959300     0.3675231    0.5534704  
   0.816959200     0.4530958    0.4837094  
   0.818959100     0.5267737    0.4001933  
   0.820959000     0.5862871    0.3056213  
   0.822958900     0.6295629    0.2021230  
   0.824958800     0.6557032    0.0924744  
   0.826958700     0.6630805   -0.0204892  
   0.828958600     0.6519232   -0.1331729  
   0.830958500     0.6222346   -0.2427295  
   0.832958400     0.5749892   -0.3459558  
   0.834958300     0.5111276   -0.4395958  
   0.836958200     0.4327753   -0.5215448  
   0.838958100     0.3425450   -0.5890577  
   0.840958000     0.2423950   -0.6409822  
   0.842957900     0.1353395   -0.6753442  
   0.844957800     0.0247758   -0.6918249  
   0.846957700    -0.0866289   -0.6902400  
   0.848957600    -0.1954478   -0.6705827  
   0.850957500    -0.2995020   -0.6338583  
   0.852957400    -0.3954900   -0.5816166  
   0.854957300    -0.4816642   -0.5151206  
   0.856957200    -0.5558677   -0.4363182  
   0.858957100    -0.6164362   -0.3477424  
   0.860957000    -0.6620598   -0.2517217  
   0.862956900    -0.6923906   -0.1509533  
   0.864956800    -0.7068888   -0.0476858  
   0.866956700    -0.7057245    0.0557058  
   0.868956600    -0.6892431    0.1576364  
   0.870956500    -0.6581383    0.2554809  
   0.872956400    -0.6124654    0.3479590  
   0.874956300    -0.5538138    0.4326556  
   0.876956200    -0.4828758    0.5082129  
   0.878956100    -0.4006582    0.5727383  
   0.880956000    -0.3094010    0.6243843  
   0.882955900    -0.2106822    0.6622021  
   0.884955800    -0.1068376    0.6845399  
   0.886955700     0.0002258    0.6908785  
   0.888955600     0.1077983    0.6802325  
   0.890955500     0.2129324    0.6531596  
   0.892955400     0.3136178    0.6093003  
   0.894955300     0.4064030    0.5493374  
