! MS46122B
! 2250307/22442219
! 7/22/2025 3:19:34 PM
! C:\USERS\SPARKY\DOCUMENTS\VNA_DATA\JULY22_2025\295\PORT5_MOS4.S1P
! CHANNEL.1
! TR.MEASUREMENT
! RAW.DATA
# GHZ S RI R 50.0
! FREQ.GHZ         S11RE         S11IM         
!; PortSelection: Port_1
   0.001000000     1.0456060   -0.0716258  
   0.002999900     0.9640665   -0.1941570  
   0.004999800     0.9032789   -0.2989165  
   0.006999700     0.8353424   -0.3962166  
   0.008999600     0.7552655   -0.4907199  
   0.010999500     0.6604929   -0.5796874  
   0.012999400     0.5453579   -0.6599782  
   0.014999300     0.4045084   -0.7246643  
   0.016999200     0.2330110   -0.7600551  
   0.018999100     0.0293964   -0.7459589  
   0.020999000    -0.1930623   -0.6498292  
   0.022998900    -0.3904759   -0.4402386  
   0.024998800    -0.4658860   -0.1245300  
   0.026998700    -0.3926736    0.2284914  
   0.028998600    -0.1385081    0.4782986  
   0.030998500     0.1743285    0.5627303  
   0.032998400     0.4220087    0.5022392  
   0.034998300     0.6449862    0.3853978  
   0.036998200     0.7690016    0.2328407  
   0.038998100     0.8366116    0.0782897  
   0.040998000     0.8630563   -0.0663998  
   0.042997900     0.8598375   -0.1979482  
   0.044997800     0.8113644   -0.2895015  
   0.046997700     0.7949085   -0.4177609  
   0.048997600     0.7434460   -0.5082557  
   0.050997500     0.6835095   -0.5862770  
   0.052997400     0.6166931   -0.6535894  
   0.054997300     0.5456710   -0.7098173  
   0.056997200     0.4680643   -0.7587180  
   0.058997100     0.3881482   -0.7975268  
   0.060997000     0.3047945   -0.8275119  
   0.062996900     0.2187168   -0.8485349  
   0.064996800     0.1303713   -0.8600566  
   0.066996700     0.0398358   -0.8622903  
   0.068996600    -0.0517498   -0.8540530  
   0.070996500    -0.1444418   -0.8358773  
   0.072996400    -0.2365031   -0.8048694  
   0.074996300    -0.3270523   -0.7617644  
   0.076996200    -0.4148464   -0.7054138  
   0.078996100    -0.4974164   -0.6353858  
   0.080996000    -0.5729935   -0.5506483  
   0.082995900    -0.6383224   -0.4513903  
   0.084995800    -0.6895795   -0.3380047  
   0.086995700    -0.7247215   -0.2121759  
   0.088995600    -0.7386624   -0.0753170  
   0.090995500    -0.7276363    0.0683392  
   0.092995400    -0.6890030    0.2145265  
   0.094995300    -0.6187741    0.3561882  
   0.096995200    -0.5174868    0.4852320  
   0.098995100    -0.3868577    0.5927973  
   0.100995000    -0.2313326    0.6721085  
   0.102994900    -0.0613626    0.7142758  
   0.104994800     0.1139655    0.7168816  
   0.106994700     0.2837292    0.6795647  
   0.108994600     0.4387130    0.6077160  
   0.110994500     0.5710332    0.5064991  
   0.112994400     0.6753230    0.3834813  
   0.114994300     0.7495486    0.2469748  
   0.116994200     0.7936341    0.1047011  
   0.118994100     0.8092364   -0.0370869  
   0.120994000     0.8011451   -0.1735075  
   0.122993900     0.7694168   -0.3006443  
   0.124993800     0.7193718   -0.4157567  
   0.126993700     0.6541127   -0.5175456  
   0.128993600     0.5762445   -0.6042851  
   0.130993500     0.4899735   -0.6767188  
   0.132993400     0.3967522   -0.7347561  
   0.134993300     0.2991317   -0.7781979  
   0.136993200     0.1984067   -0.8071728  
   0.138993100     0.0960538   -0.8224062  
   0.140993000    -0.0058543   -0.8240027  
   0.142992900    -0.1069764   -0.8124231  
   0.144992800    -0.2053879   -0.7893805  
   0.146992700    -0.2999505   -0.7521420  
   0.148992600    -0.3895294   -0.7029890  
   0.150992500    -0.4714479   -0.6409624  
   0.152992400    -0.5466906   -0.5687307  
   0.154992300    -0.6123233   -0.4860959  
   0.156992200    -0.6671781   -0.3929622  
   0.158992100    -0.7097515   -0.2913076  
   0.160992000    -0.7377917   -0.1817250  
   0.162991900    -0.7501075   -0.0665942  
   0.164991800    -0.7446218    0.0523764  
   0.166991700    -0.7201577    0.1721918  
   0.168991600    -0.6758404    0.2898409  
   0.170991500    -0.6109708    0.4021024  
   0.172991400    -0.5261329    0.5042402  
   0.174991300    -0.4222913    0.5922047  
   0.176991200    -0.3019399    0.6623827  
   0.178991100    -0.1681493    0.7103122  
   0.180991000    -0.0259557    0.7341828  
   0.182990900     0.1197902    0.7300414  
   0.184990800     0.2636217    0.6982436  
   0.186990700     0.3988732    0.6396293  
   0.188990600     0.5030867    0.5712233  
   0.190990500     0.6197696    0.4560722  
   0.192990400     0.7024006    0.3345177  
   0.194990300     0.7588573    0.2044787  
   0.196990200     0.7900676    0.0698691  
   0.198990100     0.7968926   -0.0655942  
   0.200990000     0.7804787   -0.1971817  
   0.202989900     0.7428169   -0.3210380  
   0.204989800     0.6866559   -0.4341981  
   0.206989700     0.6158961   -0.5347001  
   0.208989600     0.5313268   -0.6199069  
   0.210989500     0.4367296   -0.6898993  
   0.212989400     0.3341176   -0.7434894  
   0.214989300     0.2270993   -0.7806693  
   0.216989200     0.1177355   -0.8013406  
   0.218989100     0.0085814   -0.8062653  
   0.220989000    -0.0994574   -0.7955356  
   0.222988900    -0.2043172   -0.7692999  
   0.224988800    -0.3043653   -0.7290949  
   0.226988700    -0.3973193   -0.6753467  
   0.228988600    -0.4815304   -0.6095117  
   0.230988500    -0.5560220   -0.5318183  
   0.232988400    -0.6182421   -0.4424049  
   0.234988300    -0.6684936   -0.3448113  
   0.236988200    -0.7046244   -0.2391647  
   0.238988100    -0.7248254   -0.1279518  
   0.240988000    -0.7277303   -0.0134637  
   0.242987900    -0.7127876    0.1021674  
   0.244987800    -0.6793061    0.2161289  
   0.246987700    -0.6267390    0.3258202  
   0.248987600    -0.5551504    0.4276749  
   0.250987500    -0.4648888    0.5180861  
   0.252987400    -0.3592566    0.5926266  
   0.254987300    -0.2403689    0.6484824  
   0.256987200    -0.1114744    0.6826941  
   0.258987100     0.0236738    0.6944970  
   0.260987000     0.1600646    0.6798424  
   0.262986900     0.2924421    0.6400571  
   0.264986800     0.4158797    0.5756298  
   0.266986700     0.5251096    0.4894179  
   0.268986600     0.6156387    0.3850905  
   0.270986500     0.6846770    0.2673785  
   0.272986400     0.7305295    0.1405111  
   0.274986300     0.7525036    0.0092942  
   0.276986200     0.7511921   -0.1211700  
   0.278986100     0.7271940   -0.2474667  
   0.280986000     0.6830170   -0.3654816  
   0.282985900     0.6210125   -0.4726581  
   0.284985800     0.5443569   -0.5659690  
   0.286985700     0.4557317   -0.6440433  
   0.288985600     0.3585693   -0.7055748  
   0.290985500     0.2561778   -0.7505991  
   0.292985400     0.1502295   -0.7797122  
   0.294985300     0.0432507   -0.7928789  
   0.296985200    -0.0636026   -0.7906885  
   0.298985100    -0.1683525   -0.7733420  
   0.300985000    -0.2688490   -0.7420909  
   0.302984900    -0.3630734   -0.6974757  
   0.304984800    -0.4497612   -0.6409429  
   0.306984700    -0.5273716   -0.5732418  
   0.308984600    -0.5948763   -0.4959826  
   0.310984500    -0.6510790   -0.4109831  
   0.312984400    -0.6958448   -0.3176842  
   0.314984300    -0.7274716   -0.2185910  
   0.316984200    -0.7447556   -0.1143489  
   0.318984100    -0.7466679   -0.0058864  
   0.320984000    -0.7319813    0.1038684  
   0.322983900    -0.6988401    0.2119500  
   0.324983800    -0.6478646    0.3142419  
   0.326983700    -0.5793352    0.4062996  
   0.328983600    -0.4964217    0.4848148  
   0.330983500    -0.4029376    0.5470099  
   0.332983400    -0.3039285    0.5920398  
   0.334983300    -0.2013965    0.6220754  
   0.336983200    -0.0971790    0.6376813  
   0.338983100     0.0086585    0.6393908  
   0.340983000     0.1146815    0.6263668  
   0.342982900     0.2198234    0.5974861  
   0.344982800     0.3213344    0.5517661  
   0.346982700     0.4167226    0.4890499  
   0.348982600     0.5010326    0.4089163  
   0.350982500     0.5724576    0.3151454  
   0.352982400     0.6271371    0.2088026  
   0.354982300     0.6631166    0.0890254  
   0.356982200     0.6761347   -0.0478377  
   0.358982100     0.6614844   -0.1844017  
   0.360982000     0.6201603   -0.3151497  
   0.362981900     0.5539447   -0.4351175  
   0.364981800     0.4656199   -0.5393226  
   0.366981700     0.3588168   -0.6239823  
   0.368981600     0.2386502   -0.6858150  
   0.370981500     0.1093842   -0.7234323  
   0.372981400    -0.0235677   -0.7355417  
   0.374981300    -0.1555915   -0.7223638  
   0.376981200    -0.0438353   -0.7371596  
   0.378981100    -0.1739250   -0.7198286  
   0.380981000    -0.2979605   -0.6797747  
   0.382980900    -0.4015314   -0.6245766  
   0.384980800    -0.4899040   -0.5570645  
   0.386980700    -0.5666796   -0.4773380  
   0.388980600    -0.6302577   -0.3866415  
   0.390980500    -0.6789526   -0.2886646  
   0.392980400    -0.7118831   -0.1845862  
   0.394980300    -0.7287881   -0.0774459  
   0.396980200    -0.7296720    0.0314055  
   0.398980100    -0.7142680    0.1396273  
   0.400980000    -0.6822838    0.2450345  
   0.402979900    -0.6347951    0.3450842  
   0.404979800    -0.5721825    0.4374166  
   0.406979700    -0.4952145    0.5197645  
   0.408979600    -0.4057179    0.5898100  
   0.410979500    -0.3045622    0.6465637  
   0.412979400    -0.1943161    0.6867175  
   0.414979300    -0.0767647    0.7077784  
   0.416979200     0.0431497    0.7108792  
   0.418979100     0.1633809    0.6937655  
   0.420979000     0.2802268    0.6566677  
   0.422978900     0.3903895    0.5999358  
   0.424978800     0.4899745    0.5246574  
   0.426978700     0.5757211    0.4326574  
   0.428978600     0.6445106    0.3270468  
   0.430978500     0.6941859    0.2113226  
   0.432978400     0.7229989    0.0892150  
   0.434978300     0.7314281   -0.0357990  
   0.436978200     0.7173462   -0.1592802  
   0.438978100     0.6828585   -0.2782152  
   0.440978000     0.6288823   -0.3886892  
   0.442977900     0.5576735   -0.4875276  
   0.444977800     0.4718588   -0.5722491  
   0.446977700     0.3743684   -0.6410367  
   0.448977600     0.2684046   -0.6922984  
   0.450977500     0.1563678   -0.7248443  
   0.452977400     0.0417996   -0.7391461  
   0.454977300    -0.0732444   -0.7348869  
   0.456977200    -0.1853770   -0.7126450  
   0.458977100    -0.2921881   -0.6731611  
   0.460977000    -0.3899609   -0.6181027  
   0.462976900    -0.4773939   -0.5491366  
   0.464976800    -0.5527552   -0.4675033  
   0.466976700    -0.6141073   -0.3758971  
   0.468976600    -0.6607153   -0.2761549  
   0.470976500    -0.6913775   -0.1702143  
   0.472976400    -0.7052264   -0.0609361  
   0.474976300    -0.7018779    0.0494575  
   0.476976200    -0.6809391    0.1580945  
   0.478976100    -0.6436133    0.2624866  
   0.480976000    -0.5900263    0.3600780  
   0.482975900    -0.5212392    0.4481746  
   0.484975800    -0.4384101    0.5247495  
   0.486975700    -0.3434725    0.5876077  
   0.488975600    -0.2383848    0.6344534  
   0.490975500    -0.1260592    0.6634001  
   0.492975400    -0.0092941    0.6729280  
   0.494975300     0.1080459    0.6623436  
   0.496975200     0.2225385    0.6311867  
   0.498975100     0.3293910    0.5806656  
   0.500975000     0.4260052    0.5120914  
   0.502974900     0.5083462    0.4281407  
   0.504974800     0.5741791    0.3315812  
   0.506974700     0.6214417    0.2256022  
   0.508974600     0.6498380    0.1141547  
   0.510974500     0.6578818    0.0016534  
   0.512974400     0.6472585   -0.1085729  
   0.514974300     0.6184547   -0.2116138  
   0.516974200     0.5757338   -0.3073943  
   0.518974100     0.5208419   -0.3930395  
   0.520974000     0.4556832   -0.4682382  
   0.522973900     0.3819115   -0.5322468  
   0.524973800     0.3011056   -0.5845836  
   0.526973700     0.2147370   -0.6261547  
   0.528973600     0.1235289   -0.6553937  
   0.530973500     0.0283162   -0.6724022  
   0.532973400    -0.0693208   -0.6760219  
   0.534973300    -0.1677889   -0.6648472  
   0.536973200    -0.2655137   -0.6397610  
   0.538973100    -0.3590176   -0.5991681  
   0.540973000    -0.4462553   -0.5441751  
   0.542972900    -0.5250819   -0.4750115  
   0.544972800    -0.5927949   -0.3934179  
   0.546972700    -0.6470522   -0.3006103  
   0.548972600    -0.6861734   -0.1992193  
   0.550972500    -0.7084783   -0.0918802  
   0.552972400    -0.7130168    0.0182095  
   0.554972300    -0.6996791    0.1287342  
   0.556972200    -0.6683761    0.2360136  
   0.558972100    -0.6197435    0.3372902  
   0.560972000    -0.5552939    0.4297605  
   0.562971900    -0.4764453    0.5103351  
   0.564971800    -0.3853029    0.5775782  
   0.566971700    -0.2841668    0.6293759  
   0.568971600    -0.1754234    0.6644321  
   0.570971500    -0.0621752    0.6810489  
   0.572971400     0.0533736    0.6790969  
   0.574971300     0.1681074    0.6577783  
   0.576971200     0.2788348    0.6172985  
   0.578971100     0.3815097    0.5582815  
   0.580971000     0.4735589    0.4826936  
   0.582970900     0.5515377    0.3918674  
   0.584970800     0.6128945    0.2892813  
   0.586970700     0.6558276    0.1777934  
   0.588970600     0.6792038    0.0605499  
   0.590970500     0.6821398   -0.0593014  
   0.592970400     0.6647574   -0.1774429  
   0.594970300     0.6274179   -0.2904688  
   0.596970200     0.5717283   -0.3952478  
   0.598970100     0.4992369   -0.4887057  
   0.600970000     0.4127992   -0.5681495  
   0.602969900     0.3146133   -0.6319274  
   0.604969800     0.2081349   -0.6779014  
   0.606969700     0.0959668   -0.7054096  
   0.608969600    -0.0186022   -0.7144530  
   0.610969500    -0.1321487   -0.7044520  
   0.612969400    -0.2415593   -0.6772053  
   0.614969300    -0.3441951   -0.6329271  
   0.616969200    -0.4374904   -0.5734542  
   0.618969100    -0.5192367   -0.5011854  
   0.620969000    -0.5885347   -0.4182349  
   0.622968900    -0.6443175   -0.3259146  
   0.624968800    -0.6852422   -0.2265497  
   0.626968700    -0.7109014   -0.1220318  
   0.628968600    -0.7204133   -0.0148481  
   0.630968500    -0.7137358    0.0922666  
   0.632968400    -0.6909419    0.1977547  
   0.634968300    -0.6521969    0.2986264  
   0.636968200    -0.5987580    0.3933532  
   0.638968100    -0.5312684    0.4789484  
   0.640968000    -0.4505799    0.5537038  
   0.642967900    -0.3592646    0.6158013  
   0.644967800    -0.2582254    0.6635134  
   0.646967700    -0.1503493    0.6950921  
   0.648967600    -0.0383298    0.7093895  
   0.650967500     0.0751759    0.7059902  
   0.652967400     0.1876291    0.6845322  
   0.654967300     0.2960274    0.6450597  
   0.656967200     0.3971628    0.5882992  
   0.658967100     0.4886018    0.5150240  
   0.660967000     0.5675390    0.4276149  
   0.662966900     0.6314486    0.3266521  
   0.664966800     0.6783428    0.2158067  
   0.666966700     0.7059602    0.0981560  
   0.668966600     0.7133983   -0.0229593  
   0.670966500     0.7004425   -0.1438736  
   0.672966400     0.6681300   -0.2602258  
   0.674966300     0.6162362   -0.3689449  
   0.676966200     0.5470098   -0.4666707  
   0.678966100     0.4639556   -0.5505862  
   0.680966000     0.3680263   -0.6191954  
   0.682965900     0.2637494   -0.6703845  
   0.684965800     0.1534178   -0.7038535  
   0.686965700     0.0403813   -0.7188533  
   0.688965600    -0.0724761   -0.7155383  
   0.690965500    -0.1820438   -0.6939895  
   0.692965400    -0.2859509   -0.6567723  
   0.694965300    -0.3815619   -0.6043528  
   0.696965200    -0.4673891   -0.5387673  
   0.698965100    -0.5416493   -0.4609199  
   0.700965000    -0.6029401   -0.3733416  
   0.702964900    -0.6499856   -0.2781031  
   0.704964800    -0.6820977   -0.1769484  
   0.706964700    -0.6984298   -0.0723050  
   0.708964600    -0.6987984    0.0338106  
   0.710964500    -0.6833403    0.1393914  
   0.712964400    -0.6514224    0.2411243  
   0.714964300    -0.6038235    0.3371155  
   0.716964200    -0.5420503    0.4246360  
   0.718964100    -0.4670851    0.5019369  
   0.720964000    -0.3808912    0.5665423  
   0.722963900    -0.2852298    0.6169990  
   0.724963800    -0.1821585    0.6517900  
   0.726963700    -0.0743045    0.6696488  
   0.728963600     0.0357489    0.6698174  
   0.730963500     0.1447475    0.6514622  
   0.732963400     0.2493182    0.6158500  
   0.734963300     0.3472828    0.5630822  
   0.736963200     0.4476530    0.4840869  
   0.738963100     0.5318425    0.3873863  
   0.740963000     0.5956989    0.2766249  
   0.742962900     0.6377134    0.1566433  
   0.744962800     0.6562169    0.0317764  
   0.746962700     0.6513400   -0.0932682  
   0.748962600     0.6237645   -0.2146090  
   0.750962500     0.6361797   -0.1165697  
   0.752962400     0.6058069   -0.2353309  
   0.754962300     0.5546739   -0.3457376  
   0.756962200     0.4848952   -0.4444562  
   0.758962100     0.3994870   -0.5284596  
   0.760962000     0.3005386   -0.5959443  
   0.762961900     0.1971133   -0.6429946  
   0.764961800     0.0965108   -0.6704479  
   0.766961700    -0.0065961   -0.6824342  
   0.768961600    -0.1110169   -0.6782774  
   0.770961500    -0.2135755   -0.6583607  
   0.772961400    -0.3119636   -0.6227721  
   0.774961300    -0.4040239   -0.5726290  
   0.776961200    -0.4874325   -0.5083209  
   0.778961100    -0.5601386   -0.4317211  
   0.780961000    -0.6201406   -0.3441955  
   0.782960900    -0.6658354   -0.2478773  
   0.784960800    -0.6959906   -0.1449922  
   0.786960700    -0.7095050   -0.0382680  
   0.788960600    -0.7057942    0.0696567  
   0.790960500    -0.6854129    0.1755112  
   0.792960400    -0.6484111    0.2768974  
   0.794960300    -0.5956469    0.3715764  
   0.796960200    -0.5291417    0.4564883  
   0.798960100    -0.4496988    0.5299771  
   0.800960000    -0.3597324    0.5900857  
   0.802959900    -0.2611792    0.6355253  
   0.804959800    -0.1567278    0.6650336  
   0.806959700    -0.0490103    0.6778397  
   0.808959600     0.0598961    0.6732717  
   0.810959500     0.1670346    0.6515188  
   0.812959400     0.2700688    0.6126640  
   0.814959300     0.3659104    0.5578326  
   0.816959200     0.4520877    0.4882336  
   0.818959100     0.5264581    0.4047781  
   0.820959000     0.5865576    0.3102131  
   0.822958900     0.6305347    0.2065855  
   0.824958800     0.6573412    0.0967905  
   0.826958700     0.6653382   -0.0164570  
   0.828958600     0.6547843   -0.1296339  
   0.830958500     0.6255397   -0.2396978  
   0.832958400     0.5786690   -0.3435280  
   0.834958300     0.5151272   -0.4376657  
   0.836958200     0.4370336   -0.5202599  
   0.838958100     0.3468426   -0.5885308  
   0.840958000     0.2467318   -0.6410471  
   0.842957900     0.1397031   -0.6761315  
   0.844957800     0.0289428   -0.6932802  
   0.846957700    -0.0826813   -0.6923282  
   0.848957600    -0.1919011   -0.6733572  
   0.850957500    -0.2964032   -0.6372353  
   0.852957400    -0.3929706   -0.5854110  
   0.854957300    -0.4798097   -0.5193657  
   0.856957200    -0.5547189   -0.4407962  
   0.858957100    -0.6159697   -0.3524003  
   0.860957000    -0.6624119   -0.2564020  
   0.862956900    -0.6934254   -0.1556056  
   0.864956800    -0.7087460   -0.0520813  
   0.866956700    -0.7081680    0.0515010  
   0.868956600    -0.6923707    0.1537277  
   0.870956500    -0.6618853    0.2520166  
   0.872956400    -0.6168774    0.3450542  
   0.874956300    -0.5585986    0.4304216  
   0.876956200    -0.4880292    0.5066186  
   0.878956100    -0.4060364    0.5719350  
   0.880956000    -0.3149574    0.6243587  
   0.882955900    -0.2162595    0.6630596  
   0.884955800    -0.1123656    0.6861647  
   0.886955700    -0.0050692    0.6933589  
   0.888955600     0.1027347    0.6834330  
   0.890955500     0.2085688    0.6571660  
   0.892955400     0.3097458    0.6139826  
   0.894955300     0.4032609    0.5546252  
