! MS46122B
! 2250307/22442219
! 7/28/2025 8:01:26 AM
! C:\USERS\SPARKY\DOCUMENTS\VNA_DATA\JULY28_2025\295K\PORT4_MOS5.S1P
! CHANNEL.1
! TR.MEASUREMENT
! RAW.DATA
# GHZ S RI R 50.0
! FREQ.GHZ         S11RE         S11IM         
!; PortSelection: Port_1
   0.001000000     1.0464520   -0.0721024  
   0.002999900     0.9646604   -0.1944491  
   0.004999800     0.9037951   -0.2992163  
   0.006999700     0.8359805   -0.3965378  
   0.008999600     0.7556827   -0.4911250  
   0.010999500     0.6606680   -0.5802357  
   0.012999400     0.5451099   -0.6606585  
   0.014999300     0.4034662   -0.7253144  
   0.016999200     0.2306236   -0.7602732  
   0.018999100     0.0252729   -0.7446192  
   0.020999000    -0.1986901   -0.6447907  
   0.022998900    -0.3950684   -0.4289266  
   0.024998800    -0.4640729   -0.1072833  
   0.026998700    -0.3782775    0.2466241  
   0.028998600    -0.1139980    0.4879108  
   0.030998500     0.2012673    0.5602084  
   0.032998400     0.4439867    0.4907383  
   0.034998300     0.6611905    0.3676472  
   0.036998200     0.7788985    0.2131103  
   0.038998100     0.8414174    0.0583365  
   0.040998000     0.8640220   -0.0856851  
   0.042997900     0.8575235   -0.2156100  
   0.044997800     0.8071175   -0.3053377  
   0.046997700     0.7882280   -0.4328961  
   0.048997600     0.7351770   -0.5217252  
   0.050997500     0.6738557   -0.5983387  
   0.052997400     0.6060273   -0.6641066  
   0.054997300     0.5331873   -0.7199148  
   0.056997200     0.4551663   -0.7669082  
   0.058997100     0.3741505   -0.8044515  
   0.060997000     0.2899481   -0.8330827  
   0.062996900     0.2028385   -0.8523884  
   0.064996800     0.1133741   -0.8624979  
   0.066996700     0.0222077   -0.8626813  
   0.068996600    -0.0701953   -0.8523534  
   0.070996500    -0.1637336   -0.8317687  
   0.072996400    -0.2562305   -0.7980184  
   0.074996300    -0.3469675   -0.7518042  
   0.076996200    -0.4347513   -0.6919336  
   0.078996100    -0.5165078   -0.6178952  
   0.080996000    -0.5907757   -0.5288805  
   0.082995900    -0.6536776   -0.4250178  
   0.084995800    -0.7012873   -0.3070595  
   0.086995700    -0.7314656   -0.1764295  
   0.088995600    -0.7390060   -0.0359415  
   0.090995500    -0.7199299    0.1105301  
   0.092995400    -0.6718639    0.2579501  
   0.094995300    -0.5907925    0.3980716  
   0.096995200    -0.4787222    0.5223757  
   0.098995100    -0.3379936    0.6223813  
   0.100995000    -0.1742930    0.6903107  
   0.102994900     0.0003872    0.7191913  
   0.104994800     0.1767900    0.7075375  
   0.106994700     0.3437414    0.6561292  
   0.108994600     0.4919188    0.5714839  
   0.110994500     0.6149133    0.4600228  
   0.112994400     0.7081937    0.3295391  
   0.114994300     0.7704334    0.1890281  
   0.116994200     0.8029994    0.0453780  
   0.118994100     0.8077583   -0.0955656  
   0.120994000     0.7898406   -0.2292976  
   0.122993900     0.7494772   -0.3524951  
   0.124993800     0.6925254   -0.4623255  
   0.126993700     0.6212582   -0.5584585  
   0.128993600     0.5385596   -0.6392176  
   0.130993500     0.4484503   -0.7056897  
   0.132993400     0.3525915   -0.7572294  
   0.134993300     0.2527530   -0.7943616  
   0.136993200     0.1504608   -0.8171637  
   0.138993100     0.0477123   -0.8259079  
   0.140993000    -0.0548708   -0.8214781  
   0.142992900    -0.1551114   -0.8035175  
   0.144992800    -0.2526643   -0.7742348  
   0.146992700    -0.3457604   -0.7307507  
   0.148992600    -0.4328602   -0.6754513  
   0.150992500    -0.5117819   -0.6070773  
   0.152992400    -0.5832641   -0.5287905  
   0.154992300    -0.6442620   -0.4399477  
   0.156992200    -0.6933414   -0.3409703  
   0.158992100    -0.7287212   -0.2341400  
   0.160992000    -0.7487568   -0.1200123  
   0.162991900    -0.7514091   -0.0011396  
   0.164991800    -0.7352272    0.1202484  
   0.166991700    -0.6991655    0.2405513  
   0.168991600    -0.6423950    0.3568401  
   0.170991500    -0.5647197    0.4650222  
   0.172991400    -0.4671071    0.5603750  
   0.174991300    -0.3514527    0.6386191  
   0.176991200    -0.2206393    0.6962467  
   0.178991100    -0.0793299    0.7291321  
   0.180991000     0.0675889    0.7357937  
   0.182990900     0.2140798    0.7133521  
   0.184990800     0.3546190    0.6631124  
   0.186990700     0.4825298    0.5871472  
   0.188990600     0.5775440    0.5053201  
   0.190990500     0.6789250    0.3756003  
   0.192990400     0.7448981    0.2442449  
   0.194990300     0.7838925    0.1088631  
   0.196990200     0.7978523   -0.0283233  
   0.198990100     0.7875189   -0.1620048  
   0.200990000     0.7552698   -0.2896647  
   0.202989900     0.7030650   -0.4067781  
   0.204989800     0.6341102   -0.5115121  
   0.206989700     0.5524552   -0.6020265  
   0.208989600     0.4595836   -0.6758980  
   0.210989500     0.3579679   -0.7337072  
   0.212989400     0.2506592   -0.7750961  
   0.214989300     0.1404176   -0.7996382  
   0.216989200     0.0295692   -0.8076686  
   0.218989100    -0.0796897   -0.8001807  
   0.220989000    -0.1861420   -0.7768466  
   0.222988900    -0.2880661   -0.7387016  
   0.224988800    -0.3837393   -0.6865841  
   0.226988700    -0.4708895   -0.6217706  
   0.228988600    -0.5475845   -0.5450230  
   0.230988500    -0.6131896   -0.4571771  
   0.232988400    -0.6650078   -0.3590286  
   0.234988300    -0.7035455   -0.2531563  
   0.236988200    -0.7260856   -0.1410392  
   0.238988100    -0.7311744   -0.0249098  
   0.240988000    -0.7178107    0.0926079  
   0.242987900    -0.6855670    0.2082491  
   0.244987800    -0.6341279    0.3197118  
   0.246987700    -0.5630362    0.4235001  
   0.248987600    -0.4732576    0.5158275  
   0.250987500    -0.3665363    0.5926031  
   0.252987400    -0.2460247    0.6504260  
   0.254987300    -0.1156946    0.6859872  
   0.256987200     0.0208913    0.6972218  
   0.258987100     0.1589185    0.6843078  
   0.260987000     0.2927555    0.6445376  
   0.262986900     0.4177860    0.5794949  
   0.264986800     0.5282682    0.4924284  
   0.266986700     0.6200307    0.3865609  
   0.268986600     0.6898582    0.2667508  
   0.270986500     0.7356917    0.1381637  
   0.272986400     0.7572880    0.0056189  
   0.274986300     0.7552484   -0.1263447  
   0.276986200     0.7304294   -0.2535992  
   0.278986100     0.6851754   -0.3723392  
   0.280986000     0.6218172   -0.4797368  
   0.282985900     0.5437754   -0.5734084  
   0.284985800     0.4535550   -0.6518205  
   0.286985700     0.3540677   -0.7135900  
   0.288985600     0.2496542   -0.7581470  
   0.290985500     0.1419764   -0.7864372  
   0.292985400     0.0337049   -0.7984730  
   0.294985300    -0.0738175   -0.7948217  
   0.296985200    -0.1791055   -0.7761286  
   0.298985100    -0.2802042   -0.7431052  
   0.300985000    -0.3756118   -0.6964869  
   0.302984900    -0.4628267   -0.6376141  
   0.304984800    -0.5408177   -0.5672146  
   0.306984700    -0.6084743   -0.4867011  
   0.308984600    -0.6640388   -0.3979912  
   0.310984500    -0.7073185   -0.3018881  
   0.312984400    -0.7367421   -0.1996555  
   0.314984300    -0.7512907   -0.0926284  
   0.316984200    -0.7494349    0.0172977  
   0.318984100    -0.7306070    0.1284944  
   0.320984000    -0.6928863    0.2376138  
   0.322983900    -0.6359776    0.3405991  
   0.324983800    -0.5612702    0.4318335  
   0.326983700    -0.4714851    0.5082606  
   0.328983600    -0.3712547    0.5659876  
   0.330983500    -0.2658658    0.6044301  
   0.332983400    -0.1602538    0.6255887  
   0.334983300    -0.0554045    0.6320333  
   0.336983200     0.0479626    0.6256194  
   0.338983100     0.1504444    0.6058321  
   0.340983000     0.2507970    0.5718899  
   0.342982900     0.3476020    0.5222337  
   0.344982800     0.4379883    0.4566005  
   0.346982700     0.5185267    0.3746908  
   0.348982600     0.5843285    0.2777369  
   0.350982500     0.6338397    0.1695091  
   0.352982400     0.6638342    0.0527559  
   0.354982300     0.6720732   -0.0730795  
   0.356982200     0.6533868   -0.2102948  
   0.358982100     0.6072521   -0.3408972  
   0.360982000     0.5364900   -0.4591573  
   0.362981900     0.4435584   -0.5608844  
   0.364981800     0.3328757   -0.6420000  
   0.366981700     0.2090740   -0.6996338  
   0.368981600     0.0772944   -0.7320707  
   0.370981500    -0.0571846   -0.7388064  
   0.372981400    -0.1897868   -0.7198129  
   0.374981300    -0.3156550   -0.6765316  
   0.376981200    -0.2078446   -0.7173952  
   0.378981100    -0.3313505   -0.6712924  
   0.380981000    -0.4441164   -0.6032109  
   0.382980900    -0.5337040   -0.5252685  
   0.384980800    -0.6053727   -0.4390066  
   0.386980700    -0.6632487   -0.3422781  
   0.388980600    -0.7058015   -0.2379262  
   0.390980500    -0.7311803   -0.1290595  
   0.392980400    -0.7399586   -0.0179498  
   0.394980300    -0.7315585    0.0934927  
   0.396980200    -0.7066126    0.2025411  
   0.398980100    -0.6647822    0.3078133  
   0.400980000    -0.6069831    0.4056715  
   0.402979900    -0.5341019    0.4945915  
   0.404979800    -0.4474062    0.5716274  
   0.406979700    -0.3483427    0.6348187  
   0.408979600    -0.2398925    0.6821008  
   0.410979500    -0.1230375    0.7117962  
   0.412979400    -0.0010836    0.7217873  
   0.414979300     0.1222787    0.7107208  
   0.416979200     0.2433884    0.6797571  
   0.418979100     0.3582523    0.6284448  
   0.420979000     0.4637924    0.5576957  
   0.422978900     0.5560753    0.4691967  
   0.424978800     0.6320426    0.3652957  
   0.426978700     0.6890493    0.2494475  
   0.428978600     0.7248016    0.1254557  
   0.430978500     0.7382146   -0.0021965  
   0.432978400     0.7293921   -0.1294418  
   0.434978300     0.7000976   -0.2528667  
   0.436978200     0.6495616   -0.3678885  
   0.438978100     0.5806532   -0.4717040  
   0.440978000     0.4958360   -0.5616032  
   0.442977900     0.3983547   -0.6355759  
   0.444977800     0.2914377   -0.6914835  
   0.446977700     0.1778969   -0.7285969  
   0.448977600     0.0614102   -0.7463491  
   0.450977500    -0.0552133   -0.7453733  
   0.452977400    -0.1693630   -0.7259843  
   0.454977300    -0.2788054   -0.6889710  
   0.456977200    -0.3805378   -0.6350998  
   0.458977100    -0.4720130   -0.5663310  
   0.460977000    -0.5511326   -0.4847226  
   0.462976900    -0.6161564   -0.3924380  
   0.464976800    -0.6658207   -0.2909319  
   0.466976700    -0.6992958   -0.1836028  
   0.468976600    -0.7155378   -0.0720569  
   0.470976500    -0.7140398    0.0412436  
   0.472976400    -0.6944841    0.1529983  
   0.474976300    -0.6574408    0.2609832  
   0.476976200    -0.6034294    0.3621871  
   0.478976100    -0.5331975    0.4539917  
   0.480976000    -0.4486663    0.5331584  
   0.482975900    -0.3518977    0.5985127  
   0.484975800    -0.2447626    0.6471034  
   0.486975700    -0.1297535    0.6774931  
   0.488975600    -0.0101431    0.6880798  
   0.490975500     0.1101969    0.6778929  
   0.492975400     0.2278387    0.6466286  
   0.494975300     0.3385808    0.5954746  
   0.496975200     0.4388117    0.5248460  
   0.498975100     0.5245235    0.4383757  
   0.500975000     0.5932204    0.3382904  
   0.502974900     0.6426456    0.2292126  
   0.504974800     0.6717623    0.1137470  
   0.506974700     0.6803462   -0.0032243  
   0.508974600     0.6686413   -0.1188217  
   0.510974500     0.6383945   -0.2283205  
   0.512974400     0.5914468   -0.3294022  
   0.514974300     0.5299217   -0.4177974  
   0.516974200     0.4583824   -0.4951639  
   0.518974100     0.3781849   -0.5591725  
   0.520974000     0.2915491   -0.6100981  
   0.522973900     0.1996616   -0.6483959  
   0.524973800     0.1047407   -0.6732833  
   0.526973700     0.0071306   -0.6858050  
   0.528973600    -0.0915727   -0.6846382  
   0.530973500    -0.1905141   -0.6699462  
   0.532973400    -0.2876717   -0.6405553  
   0.534973300    -0.3809538   -0.5966756  
   0.536973200    -0.4681421   -0.5383864  
   0.538973100    -0.5461745   -0.4659326  
   0.540973000    -0.6127197   -0.3813423  
   0.542972900    -0.6652854   -0.2858668  
   0.544972800    -0.7023223   -0.1819726  
   0.546972700    -0.7222083   -0.0719380  
   0.548972600    -0.7240184    0.0405784  
   0.550972500    -0.7069375    0.1530692  
   0.552972400    -0.6715555    0.2620420  
   0.554972300    -0.6183683    0.3642999  
   0.556972200    -0.5490451    0.4568963  
   0.558972100    -0.4645452    0.5372658  
   0.560972000    -0.3679533    0.6029702  
   0.562971900    -0.2615388    0.6520092  
   0.564971800    -0.1481018    0.6832730  
   0.566971700    -0.0309193    0.6950893  
   0.568971600     0.0872172    0.6877342  
   0.570971500     0.2031423    0.6606152  
   0.572971400     0.3136599    0.6144693  
   0.574971300     0.4154797    0.5494885  
   0.576971200     0.5058855    0.4679698  
   0.578971100     0.5811742    0.3713199  
   0.580971000     0.6392062    0.2631889  
   0.582970900     0.6774064    0.1466051  
   0.584970800     0.6953543    0.0254277  
   0.586970700     0.6921636   -0.0966881  
   0.588970600     0.6684994   -0.2164699  
   0.590970500     0.6246076   -0.3295263  
   0.592970400     0.5627259   -0.4331058  
   0.594970300     0.4844099   -0.5244290  
   0.596970200     0.3926611   -0.6008784  
   0.598970100     0.2900060   -0.6607592  
   0.600970000     0.1798663   -0.7019747  
   0.602969900     0.0651363   -0.7249032  
   0.604969800    -0.0512337   -0.7288894  
   0.606969700    -0.1658727   -0.7141967  
   0.608969600    -0.2760126   -0.6812519  
   0.610969500    -0.3788056   -0.6318653  
   0.612969400    -0.4718113   -0.5671750  
   0.614969300    -0.5526004   -0.4896582  
   0.616969200    -0.6201940   -0.4011605  
   0.618969100    -0.6727913   -0.3043625  
   0.620969000    -0.7101340   -0.2012708  
   0.622968900    -0.7313020   -0.0940813  
   0.624968800    -0.7364627    0.0151853  
   0.626968700    -0.7252519    0.1243106  
   0.628968600    -0.6973872    0.2310978  
   0.630968500    -0.6539467    0.3323320  
   0.632968400    -0.5951045    0.4267240  
   0.634968300    -0.5221884    0.5117495  
   0.636968200    -0.4365026    0.5850842  
   0.638968100    -0.3401696    0.6444551  
   0.640968000    -0.2345468    0.6887360  
   0.642967900    -0.1221869    0.7164428  
   0.644967800    -0.0061262    0.7257777  
   0.646967700     0.1110836    0.7167679  
   0.648967600     0.2257974    0.6889159  
   0.650967500     0.3353037    0.6422985  
   0.652967400     0.4363005    0.5785164  
   0.654967300     0.5262640    0.4985315  
   0.656967200     0.6019445    0.4044226  
   0.658967100     0.6612677    0.2985365  
   0.660967000     0.7024074    0.1834951  
   0.662966900     0.7238380    0.0625875  
   0.664966800     0.7248841   -0.0611300  
   0.666966700     0.7046463   -0.1834031  
   0.668966600     0.6641334   -0.2999724  
   0.670966500     0.6050460   -0.4078920  
   0.672966400     0.5297532   -0.5047080  
   0.674966300     0.4397365   -0.5856881  
   0.676966200     0.3381371   -0.6498334  
   0.678966100     0.2288566   -0.6959652  
   0.680966000     0.1145448   -0.7233050  
   0.682965900    -0.0011120   -0.7318625  
   0.684965800    -0.1154524   -0.7218211  
   0.686965700    -0.2257721   -0.6939874  
   0.688965600    -0.3295470   -0.6497546  
   0.690965500    -0.4234349   -0.5898276  
   0.692965400    -0.5068236   -0.5176654  
   0.694965300    -0.5774496   -0.4341648  
   0.696965200    -0.6342551   -0.3418599  
   0.698965100    -0.6764545   -0.2420548  
   0.700965000    -0.7028415   -0.1371786  
   0.702964900    -0.7131554   -0.0298895  
   0.704964800    -0.7071790    0.0781853  
   0.706964700    -0.6844782    0.1841213  
   0.708964600    -0.6455675    0.2858692  
   0.710964500    -0.5916217    0.3811947  
   0.712964400    -0.5225403    0.4673727  
   0.714964300    -0.4403734    0.5418813  
   0.716964200    -0.3470234    0.6026655  
   0.718964100    -0.2449352    0.6479051  
   0.720964000    -0.1363358    0.6764261  
   0.722963900    -0.0243096    0.6866877  
   0.724963800     0.0886049    0.6786520  
   0.726963700     0.1988956    0.6523311  
   0.728963600     0.3038637    0.6075626  
   0.730963500     0.3996707    0.5452430  
   0.732963400     0.4838049    0.4686855  
   0.734963300     0.5545301    0.3789759  
   0.736963200     0.6161543    0.2639689  
   0.738963100     0.6552692    0.1395650  
   0.740963000     0.6699687    0.0107740  
   0.742962900     0.6603302   -0.1169384  
   0.744962800     0.6275102   -0.2398667  
   0.746962700     0.5730783   -0.3531776  
   0.748962600     0.4997324   -0.4538705  
   0.750962500     0.5507278   -0.3725286  
   0.752962400     0.4756169   -0.4701323  
   0.754962300     0.3850869   -0.5521427  
   0.756962200     0.2818796   -0.6163858  
   0.758962100     0.1696902   -0.6614368  
   0.760962000     0.0514757   -0.6855363  
   0.762961900    -0.0633327   -0.6892936  
   0.764961800    -0.1678872   -0.6761349  
   0.766961700    -0.2693813   -0.6474131  
   0.768961600    -0.3655872   -0.6031115  
   0.770961500    -0.4542964   -0.5448377  
   0.772961400    -0.5329183   -0.4729653  
   0.774961300    -0.5996796   -0.3899025  
   0.776961200    -0.6529749   -0.2969312  
   0.778961100    -0.6910678   -0.1963689  
   0.780961000    -0.7132145   -0.0906611  
   0.782960900    -0.7182071    0.0176587  
   0.784960800    -0.7059599    0.1263115  
   0.786960700    -0.6764336    0.2316618  
   0.788960600    -0.6305076    0.3315786  
   0.790960500    -0.5690388    0.4231578  
   0.792960400    -0.4939627    0.5039433  
   0.794960300    -0.4067927    0.5718659  
   0.796960200    -0.3098024    0.6249733  
   0.798960100    -0.2058007    0.6622130  
   0.800960000    -0.0969838    0.6828409  
   0.802959900     0.0142249    0.6857304  
   0.804959800     0.1244132    0.6707942  
   0.806959700     0.2312459    0.6385253  
   0.808959600     0.3316113    0.5894819  
   0.810959500     0.4233764    0.5247353  
   0.812959400     0.5038033    0.4458435  
   0.814959300     0.5705739    0.3542333  
   0.816959200     0.6219692    0.2528628  
   0.818959100     0.6560202    0.1440904  
   0.820959000     0.6719844    0.0306784  
   0.822958900     0.6691094   -0.0841863  
   0.824958800     0.6472594   -0.1971153  
   0.826958700     0.6071352   -0.3049829  
   0.828958600     0.5493972   -0.4048384  
   0.830958500     0.4761519   -0.4935890  
   0.832958400     0.3895191   -0.5690677  
   0.834958300     0.2920137   -0.6286955  
   0.836958200     0.1864744   -0.6716516  
   0.838958100     0.0758029   -0.6964358  
   0.840958000    -0.0366481   -0.7030291  
   0.842957900    -0.1486061   -0.6915584  
   0.844957800    -0.2563590   -0.6622995  
   0.846957700    -0.3577599   -0.6164671  
   0.848957600    -0.4499173   -0.5557235  
   0.850957500    -0.5310993   -0.4813497  
   0.852957400    -0.5991867   -0.3957185  
   0.854957300    -0.6528708   -0.3012951  
   0.856957200    -0.6911578   -0.1997464  
   0.858957100    -0.7132750   -0.0943581  
   0.860957000    -0.7192128    0.0124334  
   0.862956900    -0.7085410    0.1177035  
   0.864956800    -0.6828694    0.2198940  
   0.866956700    -0.6424307    0.3167312  
   0.868956600    -0.5875925    0.4058982  
   0.870956500    -0.5205436    0.4863952  
   0.872956400    -0.4418521    0.5562085  
   0.874956300    -0.3532165    0.6137844  
   0.876956200    -0.2558515    0.6576580  
   0.878956100    -0.1521536    0.6869078  
   0.880956000    -0.0446292    0.6997613  
   0.882955900     0.0646787    0.6956892  
   0.884955800     0.1731110    0.6746407  
   0.886955700     0.2773112    0.6365209  
   0.888955600     0.3753304    0.5816905  
   0.890955500     0.4637042    0.5110565  
   0.892955400     0.5401731    0.4267911  
   0.894955300     0.6021447    0.3304186  
