! MS46122B
! 2250307/22442219
! 7/22/2025 3:16:51 PM
! C:\USERS\SPARKY\DOCUMENTS\VNA_DATA\JULY22_2025\295\PORT2_MOS1.S1P
! CHANNEL.1
! TR.MEASUREMENT
! RAW.DATA
# GHZ S RI R 50.0
! FREQ.GHZ         S11RE         S11IM         
!; PortSelection: Port_1
   0.001000000     1.0454480   -0.0718276  
   0.002999900     0.9637813   -0.1943271  
   0.004999800     0.9031372   -0.2990575  
   0.006999700     0.8352422   -0.3963246  
   0.008999600     0.7553663   -0.4906379  
   0.010999500     0.6609355   -0.5793781  
   0.012999400     0.5464906   -0.6595211  
   0.014999300     0.4068668   -0.7242038  
   0.016999200     0.2372690   -0.7601658  
   0.018999100     0.0361852   -0.7483042  
   0.020999000    -0.1839426   -0.6571472  
   0.022998900    -0.3821812   -0.4562255  
   0.024998800    -0.4655371   -0.1493621  
   0.026998700    -0.4092455    0.2004288  
   0.028998600    -0.1702290    0.4603795  
   0.030998500     0.1374137    0.5612369  
   0.032998400     0.3898978    0.5138308  
   0.034998300     0.6200140    0.4066479  
   0.036998200     0.7525209    0.2578540  
   0.038998100     0.8273360    0.1045352  
   0.040998000     0.8595812   -0.0409291  
   0.042997900     0.8610142   -0.1735810  
   0.044997800     0.8155933   -0.2677357  
   0.046997700     0.8027207   -0.3970645  
   0.048997600     0.7538052   -0.4895153  
   0.050997500     0.6958709   -0.5694197  
   0.052997400     0.6310441   -0.6385748  
   0.054997300     0.5615928   -0.6964443  
   0.056997200     0.4855016   -0.7474445  
   0.058997100     0.4069540   -0.7880940  
   0.060997000     0.3249316   -0.8200550  
   0.062996900     0.2404155   -0.8433945  
   0.064996800     0.1532314   -0.8571008  
   0.066996700     0.0638234   -0.8620270  
   0.068996600    -0.0267497   -0.8566352  
   0.070996500    -0.1180635   -0.8417774  
   0.072996400    -0.2098146   -0.8144870  
   0.074996300    -0.3001323   -0.7754593  
   0.076996200    -0.3878918   -0.7237118  
   0.078996100    -0.4714648   -0.6588913  
   0.080996000    -0.5485770   -0.5797995  
   0.082995900    -0.6170402   -0.4865593  
   0.084995800    -0.6726071   -0.3794652  
   0.086995700    -0.7138401   -0.2595536  
   0.088995600    -0.7357407   -0.1282434  
   0.090995500    -0.7348510    0.0115210  
   0.092995400    -0.7083926    0.1555923  
   0.094995300    -0.6518213    0.2979953  
   0.096995200    -0.5650505    0.4314491  
   0.098995100    -0.4485618    0.5476519  
   0.100995000    -0.3047810    0.6399718  
   0.102994900    -0.1434574    0.6984890  
   0.104994800     0.0280877    0.7199036  
   0.106994700     0.1993906    0.7018562  
   0.108994600     0.3607193    0.6481860  
   0.110994500     0.5035947    0.5624147  
   0.112994400     0.6217382    0.4514313  
   0.114994300     0.7112480    0.3229834  
   0.116994200     0.7711209    0.1848590  
   0.118994100     0.8022095    0.0439244  
   0.120994000     0.8083593   -0.0945436  
   0.122993900     0.7891932   -0.2260342  
   0.124993800     0.7500173   -0.3472539  
   0.126993700     0.6942542   -0.4562334  
   0.128993600     0.6239565   -0.5510137  
   0.130993500     0.5438555   -0.6319697  
   0.132993400     0.4556654   -0.6982144  
   0.134993300     0.3614835   -0.7505066  
   0.136993200     0.2632885   -0.7885447  
   0.138993100     0.1626879   -0.8125101  
   0.140993000     0.0614567   -0.8227977  
   0.142992900    -0.0397777   -0.8200612  
   0.144992800    -0.1388211   -0.8057975  
   0.146992700    -0.2351999   -0.7775438  
   0.148992600    -0.3274430   -0.7369201  
   0.150992500    -0.4133205   -0.6836382  
   0.152992400    -0.4932967   -0.6198573  
   0.154992300    -0.5650597   -0.5456182  
   0.156992200    -0.6273133   -0.4606978  
   0.158992100    -0.6785241   -0.3664739  
   0.160992000    -0.7167801   -0.2638289  
   0.162991900    -0.7409390   -0.1541539  
   0.164991800    -0.7488866   -0.0391018  
   0.166991700    -0.7392928    0.0782733  
   0.168991600    -0.7111554    0.1962476  
   0.170991500    -0.6631990    0.3119890  
   0.172991400    -0.5956957    0.4206068  
   0.174991300    -0.5087523    0.5188094  
   0.176991200    -0.4036525    0.6030383  
   0.178991100    -0.2826472    0.6690907  
   0.180991000    -0.1497851    0.7136789  
   0.182990900    -0.0090739    0.7331440  
   0.184990800     0.1348399    0.7258361  
   0.186990700     0.2755991    0.6919747  
   0.188990600     0.3884403    0.6429762  
   0.190990500     0.5224867    0.5511507  
   0.192990400     0.6244543    0.4464298  
   0.194990300     0.7028401    0.3283706  
   0.196990200     0.7574137    0.2008545  
   0.198990100     0.7881425    0.0683208  
   0.200990000     0.7944016   -0.0649908  
   0.202989900     0.7786552   -0.1952359  
   0.204989800     0.7420136   -0.3176244  
   0.206989700     0.6884420   -0.4295077  
   0.208989600     0.6184024   -0.5284956  
   0.210989500     0.5355918   -0.6134376  
   0.212989400     0.4425042   -0.6839544  
   0.214989300     0.3422419   -0.7378490  
   0.216989200     0.2371973   -0.7759319  
   0.218989100     0.1297815   -0.7980356  
   0.220989000     0.0218144   -0.8047087  
   0.222988900    -0.0851521   -0.7959064  
   0.224988800    -0.1895807   -0.7721142  
   0.226988700    -0.2886462   -0.7346743  
   0.228988600    -0.3809517   -0.6839889  
   0.230988500    -0.4656538   -0.6211373  
   0.232988400    -0.5402411   -0.5455557  
   0.234988300    -0.6049087   -0.4600593  
   0.236988200    -0.6571131   -0.3655413  
   0.238988100    -0.6958151   -0.2630989  
   0.240988000    -0.7192193   -0.1552245  
   0.242987900    -0.7262257   -0.0436019  
   0.244987800    -0.7160937    0.0700242  
   0.246987700    -0.6879245    0.1829547  
   0.248987600    -0.6412398    0.2928595  
   0.250987500    -0.5758389    0.3958949  
   0.252987400    -0.4927663    0.4880921  
   0.254987300    -0.3940600    0.5659689  
   0.256987200    -0.2815182    0.6271458  
   0.258987100    -0.1581112    0.6696775  
   0.260987000    -0.0267052    0.6881580  
   0.262986900     0.1078950    0.6827278  
   0.264986800     0.2402430    0.6526048  
   0.266986700     0.3655211    0.5982758  
   0.268986600     0.4785188    0.5218831  
   0.270986500     0.5747439    0.4265871  
   0.272986400     0.6516708    0.3158478  
   0.274986300     0.7063076    0.1949123  
   0.276986200     0.7382511    0.0671605  
   0.278986100     0.7469994   -0.0624726  
   0.280986000     0.7332099   -0.1893669  
   0.282985900     0.6985595   -0.3100050  
   0.284985800     0.6454467   -0.4204368  
   0.286985700     0.5764830   -0.5187747  
   0.288985600     0.4952619   -0.6023403  
   0.290985500     0.4040756   -0.6704406  
   0.292985400     0.3062057   -0.7227850  
   0.294985300     0.2036049   -0.7596194  
   0.296985200     0.0983248   -0.7808759  
   0.298985100    -0.0077451   -0.7865154  
   0.300985000    -0.1125894   -0.7772254  
   0.302984900    -0.2132896   -0.7538770  
   0.304984800    -0.3092145   -0.7174073  
   0.306984700    -0.3980918   -0.6688957  
   0.308984600    -0.4785746   -0.6095083  
   0.310984500    -0.5502208   -0.5402702  
   0.312984400    -0.6120226   -0.4623406  
   0.314984300    -0.6634031   -0.3764774  
   0.316984200    -0.7030941   -0.2836467  
   0.318984100    -0.7299793   -0.1842944  
   0.320984000    -0.7426184   -0.0800445  
   0.322983900    -0.7402842    0.0271591  
   0.324983800    -0.7210032    0.1344302  
   0.326983700    -0.6845056    0.2382542  
   0.328983600    -0.6308357    0.3353492  
   0.330983500    -0.5622650    0.4219469  
   0.332983400    -0.4817414    0.4955082  
   0.334983300    -0.3920887    0.5553612  
   0.336983200    -0.2955145    0.6009636  
   0.338983100    -0.1935626    0.6327827  
   0.340983000    -0.0877510    0.6498525  
   0.342982900     0.0209221    0.6518131  
   0.344982800     0.1301768    0.6370878  
   0.346982700     0.2382552    0.6048116  
   0.348982600     0.3409390    0.5540325  
   0.350982500     0.4355811    0.4869323  
   0.352982400     0.5186474    0.4036604  
   0.354982300     0.5891187    0.3028585  
   0.356982200     0.6439188    0.1791274  
   0.358982100     0.6736007    0.0468726  
   0.360982000     0.6766931   -0.0887803  
   0.362981900     0.6532879   -0.2223215  
   0.364981800     0.6041613   -0.3487344  
   0.366981700     0.5319528   -0.4627300  
   0.368981600     0.4388507   -0.5603109  
   0.370981500     0.3296593   -0.6378636  
   0.372981400     0.2081888   -0.6926957  
   0.374981300     0.0793319   -0.7234885  
   0.376981200     0.1858940   -0.7026399  
   0.378981100     0.0576164   -0.7278381  
   0.380981000    -0.0716872   -0.7289619  
   0.382980900    -0.1866039   -0.7095255  
   0.384980800    -0.2911021   -0.6746637  
   0.386980700    -0.3880002   -0.6236252  
   0.388980600    -0.4756235   -0.5589550  
   0.390980500    -0.5513265   -0.4827261  
   0.392980400    -0.6142837   -0.3966687  
   0.394980300    -0.6635225   -0.3030961  
   0.396980200    -0.6980906   -0.2032823  
   0.398980100    -0.7175862   -0.0995297  
   0.400980000    -0.7218072    0.0062461  
   0.402979900    -0.7103785    0.1120959  
   0.404979800    -0.6831697    0.2152826  
   0.406979700    -0.6410489    0.3138238  
   0.408979600    -0.5842335    0.4057376  
   0.410979500    -0.5128308    0.4894760  
   0.412979400    -0.4284995    0.5620345  
   0.414979300    -0.3322079    0.6208335  
   0.416979200    -0.2272927    0.6652011  
   0.418979100    -0.1156409    0.6927437  
   0.420979000     0.0000089    0.7023648  
   0.422978900     0.1174699    0.6927313  
   0.424978800     0.2328690    0.6639400  
   0.426978700     0.3430142    0.6158366  
   0.428978600     0.4443291    0.5498176  
   0.430978500     0.5330484    0.4672734  
   0.432978400     0.6070225    0.3710141  
   0.434978300     0.6648066    0.2638110  
   0.436978200     0.7025540    0.1482547  
   0.438978100     0.7202399    0.0281545  
   0.440978000     0.7174132   -0.0928142  
   0.442977900     0.6946962   -0.2110249  
   0.444977800     0.6525635   -0.3229248  
   0.446977700     0.5929120   -0.4252045  
   0.448977600     0.5179947   -0.5155838  
   0.450977500     0.4302815   -0.5920179  
   0.452977400     0.3321843   -0.6524940  
   0.454977300     0.2258337   -0.6960054  
   0.456977200     0.1147452   -0.7218089  
   0.458977100     0.0021392   -0.7293600  
   0.460977000    -0.1091169   -0.7192702  
   0.462976900    -0.2160221   -0.6922044  
   0.464976800    -0.3166115   -0.6494169  
   0.466976700    -0.4087451   -0.5917987  
   0.468976600    -0.4902950   -0.5215502  
   0.470976500    -0.5600200   -0.4399482  
   0.472976400    -0.6160256   -0.3487709  
   0.474976300    -0.6578128   -0.2507604  
   0.476976200    -0.6838553   -0.1477201  
   0.478976100    -0.6937667   -0.0418892  
   0.480976000    -0.6874652    0.0638478  
   0.482975900    -0.6647974    0.1673987  
   0.484975800    -0.6267495    0.2670367  
   0.486975700    -0.5731294    0.3601365  
   0.488975600    -0.5046980    0.4444270  
   0.490975500    -0.4231914    0.5174814  
   0.492975400    -0.3302256    0.5768559  
   0.494975300    -0.2277047    0.6205882  
   0.496975200    -0.1183397    0.6465498  
   0.498975100    -0.0059178    0.6540874  
   0.500975000     0.1065466    0.6421186  
   0.502974900     0.2153212    0.6107998  
   0.504974800     0.3167699    0.5609188  
   0.506974700     0.4080798    0.4945698  
   0.508974600     0.4858492    0.4133935  
   0.510974500     0.5474077    0.3209696  
   0.512974400     0.5916694    0.2210845  
   0.514974300     0.6167886    0.1178192  
   0.516974200     0.6256133    0.0145016  
   0.518974100     0.6181735   -0.0863933  
   0.520974000     0.5959674   -0.1823559  
   0.522973900     0.5616149   -0.2724289  
   0.524973800     0.5157244   -0.3547281  
   0.526973700     0.4595506   -0.4298077  
   0.528973600     0.3943793   -0.4960384  
   0.530973500     0.3207324   -0.5529881  
   0.532973400     0.2398894   -0.5999764  
   0.534973300     0.1524372   -0.6354460  
   0.536973200     0.0591100   -0.6586379  
   0.538973100    -0.0373071   -0.6679837  
   0.540973000    -0.1348506   -0.6620530  
   0.542972900    -0.2321538   -0.6419641  
   0.544972800    -0.3258341   -0.6061662  
   0.546972700    -0.4146498   -0.5554023  
   0.548972600    -0.4948519   -0.4907555  
   0.550972500    -0.5645310   -0.4129070  
   0.552972400    -0.6212847   -0.3248661  
   0.554972300    -0.6635583   -0.2279914  
   0.556972200    -0.6898965   -0.1250106  
   0.558972100    -0.6992106   -0.0187327  
   0.560972000    -0.6920366    0.0878510  
   0.562971900    -0.6677199    0.1920784  
   0.564971800    -0.6271153    0.2913577  
   0.566971700    -0.5710084    0.3829641  
   0.568971600    -0.5014958    0.4650969  
   0.570971500    -0.4192368    0.5354701  
   0.572971400    -0.3261384    0.5921983  
   0.574971300    -0.2241788    0.6337966  
   0.576971200    -0.1162275    0.6584491  
   0.578971100    -0.0045045    0.6653276  
   0.580971000     0.1073449    0.6538092  
   0.582970900     0.2165609    0.6238086  
   0.584970800     0.3195860    0.5762308  
   0.586970700     0.4134940    0.5117686  
   0.588970600     0.4956282    0.4322834  
   0.590970500     0.5636105    0.3397403  
   0.592970400     0.6149506    0.2369748  
   0.594970300     0.6483312    0.1267262  
   0.596970200     0.6625142    0.0120354  
   0.598970100     0.6566907   -0.1031082  
   0.600970000     0.6321332   -0.2156409  
   0.602969900     0.5885211   -0.3220282  
   0.604969800     0.5277872   -0.4193955  
   0.606969700     0.4517566   -0.5048248  
   0.608969600     0.3627639   -0.5759236  
   0.610969500     0.2639059   -0.6310481  
   0.612969400     0.1580535   -0.6681322  
   0.614969300     0.0486731   -0.6875203  
   0.616969200    -0.0611902   -0.6885318  
   0.618969100    -0.1681438   -0.6723346  
   0.620969000    -0.2698301   -0.6399971  
   0.622968900    -0.3650474   -0.5921021  
   0.624968800    -0.4508928   -0.5307375  
   0.626968700    -0.5262010   -0.4570425  
   0.628968600    -0.5889699   -0.3731011  
   0.630968500    -0.6378191   -0.2810052  
   0.632968400    -0.6723374   -0.1827509  
   0.634968300    -0.6914122   -0.0804719  
   0.636968200    -0.6947867    0.0231710  
   0.638968100    -0.6826727    0.1261328  
   0.640968000    -0.6549591    0.2266068  
   0.642967900    -0.6125529    0.3217840  
   0.644967800    -0.5560473    0.4097687  
   0.646967700    -0.4864541    0.4885952  
   0.648967600    -0.4054290    0.5563967  
   0.650967500    -0.3147176    0.6112728  
   0.652967400    -0.2162150    0.6516488  
   0.654967300    -0.1118916    0.6766167  
   0.656967200    -0.0041138    0.6851551  
   0.658967100     0.1046361    0.6768378  
   0.660967000     0.2113890    0.6508752  
   0.662966900     0.3145593    0.6076103  
   0.664966800     0.4103332    0.5474773  
   0.666966700     0.4959905    0.4719796  
   0.668966600     0.5684021    0.3824192  
   0.670966500     0.6254000    0.2817574  
   0.672966400     0.6661135    0.1731701  
   0.674966300     0.6869655    0.0586671  
   0.676966200     0.6885460   -0.0570889  
   0.678966100     0.6702022   -0.1713647  
   0.680966000     0.6337010   -0.2808285  
   0.682965900     0.5797545   -0.3817998  
   0.684965800     0.5104825   -0.4721654  
   0.686965700     0.4274640   -0.5493965  
   0.688965600     0.3340752   -0.6116080  
   0.690965500     0.2323114   -0.6563735  
   0.692965400     0.1260511   -0.6849145  
   0.694965300     0.0178554   -0.6958707  
   0.696965200    -0.0892311   -0.6897978  
   0.698965100    -0.1934374   -0.6673132  
   0.700965000    -0.2922293   -0.6293727  
   0.702964900    -0.3829385   -0.5772059  
   0.704964800    -0.4639553   -0.5122287  
   0.706964700    -0.5338291   -0.4359147  
   0.708964600    -0.5912780   -0.3503526  
   0.710964500    -0.6354468   -0.2578258  
   0.712964400    -0.6643439   -0.1594641  
   0.714964300    -0.6780480   -0.0583142  
   0.716964200    -0.6765544    0.0434047  
   0.718964100    -0.6595122    0.1436490  
   0.720964000    -0.6276452    0.2401117  
   0.722963900    -0.5817640    0.3305312  
   0.724963800    -0.5224093    0.4134746  
   0.726963700    -0.4504183    0.4863565  
   0.728963600    -0.3676838    0.5477524  
   0.730963500    -0.2754875    0.5953469  
   0.732963400    -0.1766653    0.6280242  
   0.734963300    -0.0731299    0.6444713  
   0.736963200     0.0483429    0.6430756  
   0.738963100     0.1682305    0.6188833  
   0.740963000     0.2819434    0.5729380  
   0.742962900     0.3850984    0.5061629  
   0.744962800     0.4737453    0.4218378  
   0.746962700     0.5453231    0.3224767  
   0.748962600     0.5967090    0.2120204  
   0.750962500     0.5439521    0.2994905  
   0.752962400     0.5914582    0.1891021  
   0.754962300     0.6176536    0.0729978  
   0.756962200     0.6225582   -0.0456238  
   0.758962100     0.6058456   -0.1620567  
   0.760962000     0.5686714   -0.2733770  
   0.762961900     0.5154012   -0.3710151  
   0.764961800     0.4529845   -0.4510467  
   0.766961700     0.3791324   -0.5204653  
   0.768961600     0.2954250   -0.5777434  
   0.770961500     0.2041495   -0.6217058  
   0.772961400     0.1072013   -0.6508396  
   0.774961300     0.0067542   -0.6649064  
   0.776961200    -0.0948013   -0.6634291  
   0.778961100    -0.1954804   -0.6464089  
   0.780961000    -0.2924877   -0.6134582  
   0.782960900    -0.3837804   -0.5657613  
   0.784960800    -0.4666617   -0.5040159  
   0.786960700    -0.5392172   -0.4296484  
   0.788960600    -0.5991551   -0.3447007  
   0.790960500    -0.6447908   -0.2512635  
   0.792960400    -0.6754977   -0.1519359  
   0.794960300    -0.6901063   -0.0490469  
   0.796960200    -0.6887053    0.0548599  
   0.798960100    -0.6708823    0.1568828  
   0.800960000    -0.6374598    0.2549374  
   0.802959900    -0.5893500    0.3468674  
   0.804959800    -0.5274345    0.4301046  
   0.806959700    -0.4535994    0.5026782  
   0.808959600    -0.3691897    0.5629659  
   0.810959500    -0.2761326    0.6094140  
   0.812959400    -0.1766976    0.6413028  
   0.814959300    -0.0732266    0.6572068  
   0.816959200     0.0318288    0.6566569  
   0.818959100     0.1360914    0.6397294  
   0.820959000     0.2367386    0.6063460  
   0.822958900     0.3318665    0.5570463  
   0.824958800     0.4181129    0.4928966  
   0.826958700     0.4931333    0.4151513  
   0.828958600     0.5551938    0.3259323  
   0.830958500     0.6018544    0.2273698  
   0.832958400     0.6319472    0.1220626  
   0.834958300     0.6444131    0.0131275  
   0.836958200     0.6387447   -0.0963511  
   0.838958100     0.6149992   -0.2034601  
   0.840958000     0.5738981   -0.3058718  
   0.842957900     0.5164512   -0.3996947  
   0.844957800     0.4442180   -0.4831557  
   0.846957700     0.3595098   -0.5530267  
   0.848957600     0.2644183   -0.6082022  
   0.850957500     0.1618848   -0.6464790  
   0.852957400     0.0551393   -0.6674013  
   0.854957300    -0.0532036   -0.6707534  
   0.856957200    -0.1596119   -0.6565763  
   0.858957100    -0.2619630   -0.6256922  
   0.860957000    -0.3571269   -0.5796703  
   0.862956900    -0.4428025   -0.5197583  
   0.864956800    -0.5175216   -0.4481876  
   0.866956700    -0.5796887   -0.3668084  
   0.868956600    -0.6281420   -0.2776337  
   0.870956500    -0.6628440   -0.1826038  
   0.872956400    -0.6826482   -0.0838473  
   0.874956300    -0.6876345    0.0161488  
   0.876956200    -0.6776252    0.1160329  
   0.878956100    -0.6523915    0.2133615  
   0.880956000    -0.6135221    0.3059297  
   0.882955900    -0.5610252    0.3918329  
   0.884955800    -0.4959691    0.4690351  
   0.886955700    -0.4200382    0.5362104  
   0.888955600    -0.3346304    0.5912770  
   0.890955500    -0.2413705    0.6334046  
   0.892955400    -0.1424596    0.6609094  
   0.894955300    -0.0398175    0.6728593  
