! MS46122B
! 2250307/22442219
! 7/26/2025 10:24:14 AM
! C:\USERS\SPARKY\DOCUMENTS\VNA_DATA\JULY26_2025\295K\PORT3_MOS5.S1P
! CHANNEL.1
! TR.MEASUREMENT
! RAW.DATA
# GHZ S RI R 50.0
! FREQ.GHZ         S11RE         S11IM         
!; PortSelection: Port_1
   0.001000000     1.0457100   -0.0718053  
   0.002999900     0.9641195   -0.1941948  
   0.004999800     0.9032489   -0.2989288  
   0.006999700     0.8355121   -0.3962530  
   0.008999600     0.7553533   -0.4909187  
   0.010999500     0.6603844   -0.5800708  
   0.012999400     0.5449826   -0.6606273  
   0.014999300     0.4034523   -0.7255906  
   0.016999200     0.2304850   -0.7609356  
   0.018999100     0.0248852   -0.7456948  
   0.020999000    -0.1997096   -0.6462790  
   0.022998900    -0.3971113   -0.4302877  
   0.024998800    -0.4668631   -0.1078504  
   0.026998700    -0.3812746    0.2475502  
   0.028998600    -0.1160654    0.4899172  
   0.030998500     0.2003303    0.5622979  
   0.032998400     0.4437519    0.4924363  
   0.034998300     0.6613125    0.3688953  
   0.036998200     0.7791852    0.2140388  
   0.038998100     0.8416986    0.0589413  
   0.040998000     0.8642641   -0.0852461  
   0.042997900     0.8577605   -0.2153058  
   0.044997800     0.8073519   -0.3051778  
   0.046997700     0.7886544   -0.4328735  
   0.048997600     0.7354938   -0.5216969  
   0.050997500     0.6741664   -0.5984288  
   0.052997400     0.6068208   -0.6637973  
   0.054997300     0.5331984   -0.7204506  
   0.056997200     0.4555907   -0.7673734  
   0.058997100     0.3745735   -0.8050839  
   0.060997000     0.2903671   -0.8338866  
   0.062996900     0.2031937   -0.8533334  
   0.064996800     0.1137960   -0.8635511  
   0.066996700     0.0223792   -0.8640009  
   0.068996600    -0.0701417   -0.8539046  
   0.070996500    -0.1638499   -0.8335336  
   0.072996400    -0.2565468   -0.7999468  
   0.074996300    -0.3475527   -0.7539104  
   0.076996200    -0.4356325   -0.6941909  
   0.078996100    -0.5177314   -0.6202332  
   0.080996000    -0.5924044   -0.5311792  
   0.082995900    -0.6556898   -0.4272258  
   0.084995800    -0.7037897   -0.3091310  
   0.086995700    -0.7343239   -0.1782435  
   0.088995600    -0.7422706   -0.0374031  
   0.090995500    -0.7234491    0.1095585  
   0.092995400    -0.6755690    0.2575451  
   0.094995300    -0.5945535    0.3983009  
   0.096995200    -0.4823366    0.5232120  
   0.098995100    -0.3411706    0.6237377  
   0.100995000    -0.1771615    0.6922344  
   0.102994900    -0.0019077    0.7213396  
   0.104994800     0.1750015    0.7098924  
   0.106994700     0.3423344    0.6583681  
   0.108994600     0.4912001    0.5736384  
   0.110994500     0.6145753    0.4619828  
   0.112994400     0.7081757    0.3313310  
   0.114994300     0.7706686    0.1905862  
   0.116994200     0.8033575    0.0466365  
   0.118994100     0.8082756   -0.0945617  
   0.120994000     0.7905041   -0.2284934  
   0.122993900     0.7501541   -0.3519701  
   0.124993800     0.6932002   -0.4621261  
   0.126993700     0.6220050   -0.5584675  
   0.128993600     0.5393603   -0.6394180  
   0.130993500     0.4492400   -0.7061821  
   0.132993400     0.3533432   -0.7579228  
   0.134993300     0.2533417   -0.7953376  
   0.136993200     0.1510918   -0.8183812  
   0.138993100     0.0478218   -0.8275297  
   0.140993000    -0.0545951   -0.8230985  
   0.142992900    -0.1550890   -0.8052933  
   0.144992800    -0.2530308   -0.7762929  
   0.146992700    -0.3465096   -0.7329048  
   0.148992600    -0.4338164   -0.6776483  
   0.150992500    -0.5130502   -0.6093283  
   0.152992400    -0.5849544   -0.5309349  
   0.154992300    -0.6462032   -0.4420504  
   0.156992200    -0.6956270   -0.3429056  
   0.158992100    -0.7313445   -0.2358657  
   0.160992000    -0.7516505   -0.1214371  
   0.162991900    -0.7546166   -0.0022488  
   0.164991800    -0.7386079    0.1195140  
   0.166991700    -0.7026584    0.2402636  
   0.168991600    -0.6459534    0.3570084  
   0.170991500    -0.5682558    0.4656251  
   0.172991400    -0.4704486    0.5614264  
   0.174991300    -0.3545922    0.6401043  
   0.176991200    -0.2233395    0.6979489  
   0.178991100    -0.0817660    0.7311934  
   0.180991000     0.0655325    0.7380267  
   0.182990900     0.2125234    0.7156964  
   0.184990800     0.3532822    0.6655001  
   0.186990700     0.4815985    0.5895531  
   0.188990600     0.5768628    0.5076178  
   0.190990500     0.6786060    0.3778150  
   0.192990400     0.7448707    0.2464097  
   0.194990300     0.7840267    0.1109409  
   0.196990200     0.7983431   -0.0263432  
   0.198990100     0.7883213   -0.1605563  
   0.200990000     0.7562340   -0.2883923  
   0.202989900     0.7042193   -0.4058484  
   0.204989800     0.6352207   -0.5105789  
   0.206989700     0.5538339   -0.6015726  
   0.208989600     0.4610965   -0.6757083  
   0.210989500     0.3593030   -0.7340013  
   0.212989400     0.2519353   -0.7758283  
   0.214989300     0.1417644   -0.8005981  
   0.216989200     0.0307109   -0.8090295  
   0.218989100    -0.0789507   -0.8018046  
   0.220989000    -0.1854936   -0.7786516  
   0.222988900    -0.2877744   -0.7408373  
   0.224988800    -0.3838454   -0.6888984  
   0.226988700    -0.4713218   -0.6241623  
   0.228988600    -0.5487569   -0.5473513  
   0.230988500    -0.6147900   -0.4595482  
   0.232988400    -0.6668999   -0.3612480  
   0.234988300    -0.7058115   -0.2552076  
   0.236988200    -0.7287934   -0.1426890  
   0.238988100    -0.7341084   -0.0263703  
   0.240988000    -0.7210178    0.0916490  
   0.242987900    -0.6889302    0.2076751  
   0.244987800    -0.6375422    0.3196612  
   0.246987700    -0.5664979    0.4238683  
   0.248987600    -0.4765783    0.5166508  
   0.250987500    -0.3695880    0.5938408  
   0.252987400    -0.2489674    0.6520946  
   0.254987300    -0.1181215    0.6878594  
   0.256987200     0.0187652    0.6992962  
   0.258987100     0.1571347    0.6864632  
   0.260987000     0.2915019    0.6467224  
   0.262986900     0.4166646    0.5817880  
   0.264986800     0.5274941    0.4946489  
   0.266986700     0.6195847    0.3886608  
   0.268986600     0.6896888    0.2686733  
   0.270986500     0.7355972    0.1402713  
   0.272986400     0.7574536    0.0074650  
   0.274986300     0.7556812   -0.1245995  
   0.276986200     0.7310920   -0.2520297  
   0.278986100     0.6859381   -0.3707376  
   0.280986000     0.6228433   -0.4786412  
   0.282985900     0.5448945   -0.5726073  
   0.284985800     0.4546512   -0.6512838  
   0.286985700     0.3554841   -0.7133254  
   0.288985600     0.2509983   -0.7582654  
   0.290985500     0.1432773   -0.7868801  
   0.292985400     0.0348965   -0.7992476  
   0.294985300    -0.0727271   -0.7958862  
   0.296985200    -0.1783125   -0.7775455  
   0.298985100    -0.2795607   -0.7448071  
   0.300985000    -0.3753075   -0.6983900  
   0.302984900    -0.4628714   -0.6397228  
   0.304984800    -0.5412699   -0.5694181  
   0.306984700    -0.6093267   -0.4888777  
   0.308984600    -0.6652542   -0.4001922  
   0.310984500    -0.7089961   -0.3040889  
   0.312984400    -0.7388781   -0.2017710  
   0.314984300    -0.7536355   -0.0946867  
   0.316984200    -0.7523006    0.0156479  
   0.318984100    -0.7338057    0.1271828  
   0.320984000    -0.6963175    0.2367962  
   0.322983900    -0.6397136    0.3399266  
   0.324983800    -0.5649503    0.4318916  
   0.326983700    -0.4752845    0.5086963  
   0.328983600    -0.3748729    0.5670943  
   0.330983500    -0.2693517    0.6060141  
   0.332983400    -0.1635260    0.6277124  
   0.334983300    -0.0585115    0.6346114  
   0.336983200     0.0454663    0.6284899  
   0.338983100     0.1484876    0.6088364  
   0.340983000     0.2495256    0.5748945  
   0.342982900     0.3466325    0.5252051  
   0.344982800     0.4374308    0.4594208  
   0.346982700     0.5183490    0.3772803  
   0.348982600     0.5843378    0.2801837  
   0.350982500     0.6341422    0.1716758  
   0.352982400     0.6642590    0.0547601  
   0.354982300     0.6726999   -0.0712540  
   0.356982200     0.6541755   -0.2086585  
   0.358982100     0.6082435   -0.3395219  
   0.360982000     0.5376596   -0.4580482  
   0.362981900     0.4449854   -0.5600752  
   0.364981800     0.3342721   -0.6415073  
   0.366981700     0.2105298   -0.6995024  
   0.368981600     0.0786909   -0.7323406  
   0.370981500    -0.0559860   -0.7393795  
   0.372981400    -0.1886956   -0.7208126  
   0.374981300    -0.3147031   -0.6779243  
   0.376981200    -0.2068582   -0.7187576  
   0.378981100    -0.3310381   -0.6730043  
   0.380981000    -0.4438623   -0.6052557  
   0.382980900    -0.5338477   -0.5274655  
   0.384980800    -0.6061138   -0.4411102  
   0.386980700    -0.6642907   -0.3446203  
   0.388980600    -0.7072729   -0.2402778  
   0.390980500    -0.7331179   -0.1314111  
   0.392980400    -0.7423185   -0.0197281  
   0.394980300    -0.7344213    0.0916426  
   0.396980200    -0.7096676    0.2011977  
   0.398980100    -0.6681828    0.3067015  
   0.400980000    -0.6106113    0.4049235  
   0.402979900    -0.5378692    0.4942608  
   0.404979800    -0.4512527    0.5717357  
   0.406979700    -0.3523334    0.6352614  
   0.408979600    -0.2437357    0.6831025  
   0.410979500    -0.1268221    0.7129582  
   0.412979400    -0.0046454    0.7236413  
   0.414979300     0.1190448    0.7129569  
   0.416979200     0.2403647    0.6823429  
   0.418979100     0.3555369    0.6312916  
   0.420979000     0.4614074    0.5607668  
   0.422978900     0.5541764    0.4724772  
   0.424978800     0.6305121    0.3686983  
   0.426978700     0.6879895    0.2529537  
   0.428978600     0.7241718    0.1289521  
   0.430978500     0.7380385    0.0012355  
   0.432978400     0.7297105   -0.1261050  
   0.434978300     0.7008542   -0.2497814  
   0.436978200     0.6506484   -0.3650952  
   0.438978100     0.5820630   -0.4692734  
   0.440978000     0.4976006   -0.5595610  
   0.442977900     0.4002956   -0.6340618  
   0.444977800     0.2934718   -0.6904239  
   0.446977700     0.1800095   -0.7280269  
   0.448977600     0.0634853   -0.7462875  
   0.450977500    -0.0532283   -0.7458350  
   0.452977400    -0.1678441   -0.7268428  
   0.454977300    -0.2774498   -0.6903644  
   0.456977200    -0.3795244   -0.6368988  
   0.458977100    -0.4714238   -0.5683394  
   0.460977000    -0.5509891   -0.4869814  
   0.462976900    -0.6164643   -0.3949420  
   0.464976800    -0.6667102   -0.2934533  
   0.466976700    -0.7006276   -0.1861610  
   0.468976600    -0.7173498   -0.0745656  
   0.470976500    -0.7164539    0.0389390  
   0.472976400    -0.6973465    0.1509682  
   0.474976300    -0.6607771    0.2594009  
   0.476976200    -0.6070711    0.3608696  
   0.478976100    -0.5371861    0.4531238  
   0.480976000    -0.4529362    0.5328090  
   0.482975900    -0.3562155    0.5985897  
   0.484975800    -0.2491734    0.6477377  
   0.486975700    -0.1341206    0.6785782  
   0.488975600    -0.0145219    0.6897586  
   0.490975500     0.1059537    0.6799689  
   0.492975400     0.2239512    0.6492743  
   0.494975300     0.3350069    0.5985106  
   0.496975200     0.4355639    0.5282519  
   0.498975100     0.5217046    0.4420976  
   0.500975000     0.5908954    0.3422842  
   0.502974900     0.6408080    0.2332994  
   0.504974800     0.6703978    0.1180138  
   0.506974700     0.6796037    0.0010007  
   0.508974600     0.6683828   -0.1144976  
   0.510974500     0.6387197   -0.2241540  
   0.512974400     0.5922648   -0.3254384  
   0.514974300     0.5311205   -0.4141100  
   0.516974200     0.4602521   -0.4915346  
   0.518974100     0.3802398   -0.5564688  
   0.520974000     0.2938884   -0.6078773  
   0.522973900     0.2023410   -0.6466551  
   0.524973800     0.1075635   -0.6721268  
   0.526973700     0.0099700   -0.6853287  
   0.528973600    -0.0888202   -0.6847410  
   0.530973500    -0.1879121   -0.6706359  
   0.532973400    -0.2854047   -0.6417732  
   0.534973300    -0.3789568   -0.5984408  
   0.536973200    -0.4667017   -0.5405050  
   0.538973100    -0.5451577   -0.4686683  
   0.540973000    -0.6123877   -0.3841719  
   0.542972900    -0.6654633   -0.2889106  
   0.544972800    -0.7031536   -0.1850824  
   0.546972700    -0.7236812   -0.0750728  
   0.548972600    -0.7261407    0.0375924  
   0.550972500    -0.7096902    0.1503836  
   0.552972400    -0.6749048    0.2595849  
   0.554972300    -0.6222368    0.3622559  
   0.556972200    -0.5533323    0.4554018  
   0.558972100    -0.4692374    0.5363175  
   0.560972000    -0.3728961    0.6025539  
   0.562971900    -0.2666673    0.6522999  
   0.564971800    -0.1532703    0.6841940  
   0.566971700    -0.0360765    0.6966650  
   0.568971600     0.0820697    0.6900479  
   0.570971500     0.1982466    0.6633996  
   0.572971400     0.3091286    0.6179413  
   0.574971300     0.4112603    0.5535364  
   0.576971200     0.5022179    0.4725349  
   0.578971100     0.5780277    0.3764454  
   0.580971000     0.6367764    0.2685969  
   0.582970900     0.6756827    0.1524191  
   0.584970800     0.6944168    0.0312871  
   0.586970700     0.6920607   -0.0908011  
   0.588970600     0.6692246   -0.2103481  
   0.590970500     0.6260860   -0.3241058  
   0.592970400     0.5648559   -0.4282498  
   0.594970300     0.4873682   -0.5199990  
   0.596970200     0.3961510   -0.5970485  
   0.598970100     0.2939619   -0.6576323  
   0.600970000     0.1841156   -0.6997768  
   0.602969900     0.0695178   -0.7234856  
   0.604969800    -0.0469661   -0.7283753  
   0.606969700    -0.1615118   -0.7145418  
   0.608969600    -0.2720659   -0.6824396  
   0.610969500    -0.3752954   -0.6337509  
   0.612969400    -0.4688878   -0.5697098  
   0.614969300    -0.5503165   -0.4927337  
   0.616969200    -0.6186253   -0.4046012  
   0.618969100    -0.6719753   -0.3080874  
   0.620969000    -0.7100689   -0.2052230  
   0.622968900    -0.7321483   -0.0979932  
   0.624968800    -0.7380078    0.0114252  
   0.626968700    -0.7274526    0.1207450  
   0.628968600    -0.7002580    0.2276723  
   0.630968500    -0.6573911    0.3294786  
   0.632968400    -0.5990702    0.4244040  
   0.634968300    -0.5266073    0.5097461  
   0.636968200    -0.4412716    0.5838682  
   0.638968100    -0.3452494    0.6438590  
   0.640968000    -0.2397124    0.6889846  
   0.642967900    -0.1275333    0.7171636  
   0.644967800    -0.0116692    0.7272760  
   0.646967700     0.1057176    0.7189137  
   0.648967600     0.2207355    0.6916713  
   0.650967500     0.3300593    0.6459341  
   0.652967400     0.4317694    0.5827357  
   0.654967300     0.5220218    0.5034784  
   0.656967200     0.5982746    0.4100769  
   0.658967100     0.6583664    0.3046588  
   0.660967000     0.7003471    0.1900266  
   0.662966900     0.7226831    0.0695254  
   0.664966800     0.7245201   -0.0538650  
   0.666966700     0.7055829   -0.1761339  
   0.668966600     0.6661526   -0.2928859  
   0.670966500     0.6081074   -0.4013574  
   0.672966400     0.5338315   -0.4987991  
   0.674966300     0.4447119   -0.5805482  
   0.676966200     0.3438915   -0.6456487  
   0.678966100     0.2350052   -0.6928433  
   0.680966000     0.1210958   -0.7213649  
   0.682965900     0.0055375   -0.7311329  
   0.684965800    -0.1090503   -0.7222323  
   0.686965700    -0.2195635   -0.6956666  
   0.688965600    -0.3238593   -0.6524249  
   0.690965500    -0.4183463   -0.5935143  
   0.692965400    -0.5024993   -0.5221096  
   0.694965300    -0.5742181   -0.4392347  
   0.696965200    -0.6320196   -0.3473887  
   0.698965100    -0.6751459   -0.2479081  
   0.700965000    -0.7026549   -0.1430876  
   0.702964900    -0.7141036   -0.0357563  
   0.704964800    -0.7091832    0.0724162  
   0.706964700    -0.6874054    0.1787976  
   0.708964600    -0.6494051    0.2808589  
   0.710964500    -0.5963177    0.3769329  
   0.712964400    -0.5279160    0.4637992  
   0.714964300    -0.4462946    0.5391209  
   0.716964200    -0.3534701    0.6007296  
   0.718964100    -0.2515683    0.6470834  
   0.720964000    -0.1433839    0.6764649  
   0.722963900    -0.0311950    0.6878044  
   0.724963800     0.0815802    0.6807180  
   0.726963700     0.1923940    0.6554172  
   0.728963600     0.2974164    0.6116328  
   0.730963500     0.3939517    0.5503263  
   0.732963400     0.4787137    0.4744501  
   0.734963300     0.5503151    0.3854745  
   0.736963200     0.6128945    0.2712041  
   0.738963100     0.6532435    0.1473831  
   0.740963000     0.6692941    0.0188920  
   0.742962900     0.6610868   -0.1087573  
   0.744962800     0.6296822   -0.2318899  
   0.746962700     0.5766363   -0.3456193  
   0.748962600     0.5045520   -0.4471175  
   0.750962500     0.5545384   -0.3650651  
   0.752962400     0.4805988   -0.4634735  
   0.754962300     0.3912207   -0.5465280  
   0.756962200     0.2889138   -0.6119911  
   0.758962100     0.1775132   -0.6584182  
   0.760962000     0.0595478   -0.6840796  
   0.762961900    -0.0552514   -0.6892707  
   0.764961800    -0.1599120   -0.6774822  
   0.766961700    -0.2618010   -0.6501008  
   0.768961600    -0.3584825   -0.6070652  
   0.770961500    -0.4480821   -0.5499060  
   0.772961400    -0.5275672   -0.4791286  
   0.774961300    -0.5955570   -0.3969648  
   0.776961200    -0.6501856   -0.3046100  
   0.778961100    -0.6895548   -0.2045067  
   0.780961000    -0.7131446   -0.0990872  
   0.782960900    -0.7196203    0.0094524  
   0.784960800    -0.7087592    0.1182867  
   0.786960700    -0.6805929    0.2242664  
   0.788960600    -0.6358508    0.3249022  
   0.790960500    -0.5754598    0.4174108  
   0.792960400    -0.5014925    0.4991090  
   0.794960300    -0.4149987    0.5682942  
   0.796960200    -0.3186481    0.6226759  
   0.798960100    -0.2148281    0.6612686  
   0.800960000    -0.1061317    0.6832256  
   0.802959900     0.0049346    0.6875612  
   0.804959800     0.1153002    0.6740245  
   0.806959700     0.2225694    0.6430380  
   0.808959600     0.3235803    0.5952759  
   0.810959500     0.4161277    0.5318014  
   0.812959400     0.4973788    0.4538862  
   0.814959300     0.5654778    0.3632232  
   0.816959200     0.6181546    0.2626062  
   0.818959100     0.6536660    0.1543737  
   0.820959000     0.6712729    0.0413870  
   0.822958900     0.6698832   -0.0734367  
   0.824958800     0.6496224   -0.1865812  
   0.826958700     0.6109964   -0.2948018  
   0.828958600     0.5551724   -0.3952903  
   0.830958500     0.4832551   -0.4849502  
   0.832958400     0.3978269   -0.5618157  
   0.834958300     0.3014764   -0.6228522  
   0.836958200     0.1966493   -0.6675733  
   0.838958100     0.0865005   -0.6941270  
   0.840958000    -0.0259594   -0.7026416  
   0.842957900    -0.1378740   -0.6929808  
   0.844957800    -0.2462112   -0.6654216  
   0.846957700    -0.3483346   -0.6212711  
   0.848957600    -0.4416003   -0.5619800  
   0.850957500    -0.5239682   -0.4890536  
   0.852957400    -0.5935397   -0.4044134  
   0.854957300    -0.6488580   -0.3107514  
   0.856957200    -0.6888052   -0.2098205  
   0.858957100    -0.7126371   -0.1048301  
   0.860957000    -0.7201423    0.0019010  
   0.862956900    -0.7113774    0.1076940  
   0.864956800    -0.6873103    0.2104375  
   0.866956700    -0.6480935    0.3079547  
   0.868956600    -0.5949640    0.3981663  
   0.870956500    -0.5290161    0.4797805  
   0.872956400    -0.4513875    0.5507608  
   0.874956300    -0.3637035    0.6098344  
   0.876956200    -0.2670180    0.6553330  
   0.878956100    -0.1637886    0.6862434  
   0.880956000    -0.0564542    0.7008925  
   0.882955900     0.0528119    0.6987711  
   0.884955800     0.1616388    0.6794976  
   0.886955700     0.2664647    0.6430604  
   0.888955600     0.3653483    0.5899718  
   0.890955500     0.4549221    0.5208800  
   0.892955400     0.5327680    0.4380779  
   0.894955300     0.5964758    0.3430626  
