! MS46122B
! 2250307/22442219
! 7/24/2025 12:46:26 PM
! C:\USERS\SPARKY\DOCUMENTS\VNA_DATA\JULY24_2025\295K\PORT4_MOS1_REPEAT1.S1P
! CHANNEL.1
! TR.MEASUREMENT
! RAW.DATA
# GHZ S RI R 50.0
! FREQ.GHZ         S11RE         S11IM         
!; PortSelection: Port_1
   0.001000000     1.0451770   -0.0721884  
   0.002999900     0.9635347   -0.1944236  
   0.004999800     0.9026985   -0.2990439  
   0.006999700     0.8348854   -0.3960747  
   0.008999600     0.7550188   -0.4902517  
   0.010999500     0.6606796   -0.5787809  
   0.012999400     0.5464339   -0.6586665  
   0.014999300     0.4071137   -0.7231812  
   0.016999200     0.2379235   -0.7590227  
   0.018999100     0.0373274   -0.7471761  
   0.020999000    -0.1822363   -0.6563897  
   0.022998900    -0.3801567   -0.4560929  
   0.024998800    -0.4636467   -0.1499757  
   0.026998700    -0.4078371    0.1993236  
   0.028998600    -0.1692763    0.4592073  
   0.030998500     0.1381818    0.5601847  
   0.032998400     0.3904900    0.5128324  
   0.034998300     0.6205622    0.4054663  
   0.036998200     0.7529218    0.2566488  
   0.038998100     0.8274947    0.1033156  
   0.040998000     0.8595155   -0.0421110  
   0.042997900     0.8607626   -0.1746018  
   0.044997800     0.8152106   -0.2686323  
   0.046997700     0.8021579   -0.3979336  
   0.048997600     0.7531598   -0.4901745  
   0.050997500     0.6951784   -0.5699532  
   0.052997400     0.6304280   -0.6386901  
   0.054997300     0.5602958   -0.6971884  
   0.056997200     0.4847442   -0.7474632  
   0.058997100     0.4063217   -0.7879314  
   0.060997000     0.3243316   -0.8197861  
   0.062996900     0.2397901   -0.8429839  
   0.064996800     0.1527387   -0.8566174  
   0.066996700     0.0634156   -0.8614073  
   0.068996600    -0.0270276   -0.8559044  
   0.070996500    -0.1182719   -0.8410061  
   0.072996400    -0.2099072   -0.8135939  
   0.074996300    -0.3000384   -0.7745389  
   0.076996200    -0.3876636   -0.7227356  
   0.078996100    -0.4710823   -0.6578618  
   0.080996000    -0.5480590   -0.5787814  
   0.082995900    -0.6163388   -0.4855573  
   0.084995800    -0.6717583   -0.3784446  
   0.086995700    -0.7127832   -0.2585727  
   0.088995600    -0.7345665   -0.1273057  
   0.090995500    -0.7334777    0.0123696  
   0.092995400    -0.7068460    0.1563807  
   0.094995300    -0.6500366    0.2987115  
   0.096995200    -0.5629520    0.4320019  
   0.098995100    -0.4462047    0.5480095  
   0.100995000    -0.3024266    0.6399555  
   0.102994900    -0.1408139    0.6980208  
   0.104994800     0.0307963    0.7189086  
   0.106994700     0.2019427    0.7004666  
   0.108994600     0.3631229    0.6463774  
   0.110994500     0.5056840    0.5600936  
   0.112994400     0.6234037    0.4488092  
   0.114994300     0.7124873    0.3201028  
   0.116994200     0.7718585    0.1817996  
   0.118994100     0.8023847    0.0409187  
   0.120994000     0.8080463   -0.0975320  
   0.122993900     0.7884228   -0.2287888  
   0.124993800     0.7488348   -0.3497524  
   0.126993700     0.6927688   -0.4584484  
   0.128993600     0.6222126   -0.5528248  
   0.130993500     0.5419729   -0.6330784  
   0.132993400     0.4535017   -0.6995883  
   0.134993300     0.3593662   -0.7512527  
   0.136993200     0.2611950   -0.7888858  
   0.138993100     0.1606253   -0.8124583  
   0.140993000     0.0594274   -0.8225622  
   0.142992900    -0.0413681   -0.8192269  
   0.144992800    -0.1403288   -0.8048236  
   0.146992700    -0.2367470   -0.7763478  
   0.148992600    -0.3286849   -0.7354926  
   0.150992500    -0.4142601   -0.6819949  
   0.152992400    -0.4940632   -0.6180671  
   0.154992300    -0.5656240   -0.5437047  
   0.156992200    -0.6274997   -0.4586152  
   0.158992100    -0.6784096   -0.3643202  
   0.160992000    -0.7162979   -0.2618815  
   0.162991900    -0.7401360   -0.1519238  
   0.164991800    -0.7477443   -0.0368851  
   0.166991700    -0.7377162    0.0804639  
   0.168991600    -0.7092369    0.1984316  
   0.170991500    -0.6609135    0.3138514  
   0.172991400    -0.5930239    0.4222555  
   0.174991300    -0.5057750    0.5201564  
   0.176991200    -0.4001957    0.6040412  
   0.178991100    -0.2789817    0.6695455  
   0.180991000    -0.1458879    0.7135885  
   0.182990900    -0.0050521    0.7324626  
   0.184990800     0.1388011    0.7244801  
   0.186990700     0.2794621    0.6899540  
   0.188990600     0.3920909    0.6404353  
   0.190990500     0.5256494    0.5479094  
   0.192990400     0.6270482    0.4426812  
   0.194990300     0.7048320    0.3241832  
   0.196990200     0.7586911    0.1963547  
   0.198990100     0.7886235    0.0637769  
   0.200990000     0.7941808   -0.0695291  
   0.202989900     0.7777367   -0.1996419  
   0.204989800     0.7403725   -0.3214592  
   0.206989700     0.6862226   -0.4332688  
   0.208989600     0.6157944   -0.5315423  
   0.210989500     0.5325228   -0.6160718  
   0.212989400     0.4391966   -0.6859653  
   0.214989300     0.3386095   -0.7393063  
   0.216989200     0.2336439   -0.7767382  
   0.218989100     0.1263628   -0.7982358  
   0.220989000     0.0182407   -0.8043874  
   0.222988900    -0.0886618   -0.7950916  
   0.224988800    -0.1928160   -0.7707708  
   0.226988700    -0.2915793   -0.7327803  
   0.228988600    -0.3837245   -0.6815789  
   0.230988500    -0.4678916   -0.6184418  
   0.232988400    -0.5419908   -0.5424266  
   0.234988300    -0.6061480   -0.4567026  
   0.236988200    -0.6579046   -0.3618907  
   0.238988100    -0.6960081   -0.2592556  
   0.240988000    -0.7188482   -0.1513034  
   0.242987900    -0.7252153   -0.0396057  
   0.244987800    -0.7144358    0.0739559  
   0.246987700    -0.6856186    0.1867481  
   0.248987600    -0.6382484    0.2963602  
   0.250987500    -0.5722544    0.3990155  
   0.252987400    -0.4886079    0.4906529  
   0.254987300    -0.3893254    0.5679969  
   0.256987200    -0.2763966    0.6284772  
   0.258987100    -0.1525890    0.6701329  
   0.260987000    -0.0209738    0.6877872  
   0.262986900     0.1135529    0.6813262  
   0.264986800     0.2456400    0.6502717  
   0.266986700     0.3705981    0.5950025  
   0.268986600     0.4830283    0.5176839  
   0.270986500     0.5784988    0.4216838  
   0.272986400     0.6545281    0.3103800  
   0.274986300     0.7082205    0.1889453  
   0.276986200     0.7391464    0.0611399  
   0.278986100     0.7468359   -0.0684899  
   0.280986000     0.7320150   -0.1951283  
   0.282985900     0.6964680   -0.3154112  
   0.284985800     0.6425048   -0.4255147  
   0.286985700     0.5729479   -0.5230607  
   0.288985600     0.4909954   -0.6059216  
   0.290985500     0.3995295   -0.6732706  
   0.292985400     0.3014363   -0.7247826  
   0.294985300     0.1986618   -0.7608272  
   0.296985200     0.0933839   -0.7812769  
   0.298985100    -0.0126203   -0.7861585  
   0.300985000    -0.1172168   -0.7761247  
   0.302984900    -0.2177003   -0.7520939  
   0.304984800    -0.3132882   -0.7149878  
   0.306984700    -0.4017246   -0.6659076  
   0.308984600    -0.4817268   -0.6060170  
   0.310984500    -0.5527945   -0.5365521  
   0.312984400    -0.6141058   -0.4580216  
   0.314984300    -0.6648661   -0.3718351  
   0.316984200    -0.7039022   -0.2787730  
   0.318984100    -0.7300658   -0.1792259  
   0.320984000    -0.7420464   -0.0747948  
   0.322983900    -0.7389082    0.0324426  
   0.324983800    -0.7186547    0.1394549  
   0.326983700    -0.6813288    0.2429648  
   0.328983600    -0.6267890    0.3396789  
   0.330983500    -0.5575460    0.4256330  
   0.332983400    -0.4765742    0.4983092  
   0.334983300    -0.3866585    0.5573518  
   0.336983200    -0.2897369    0.6022418  
   0.338983100    -0.1876416    0.6332572  
   0.340983000    -0.0817302    0.6495028  
   0.342982900     0.0269714    0.6506319  
   0.344982800     0.1360939    0.6350613  
   0.346982700     0.2439268    0.6018487  
   0.348982600     0.3462964    0.5501546  
   0.350982500     0.4402701    0.4822505  
   0.352982400     0.5226200    0.3982252  
   0.354982300     0.5921962    0.2967534  
   0.356982200     0.6458673    0.1725271  
   0.358982100     0.6742598    0.0399410  
   0.360982000     0.6760477   -0.0957942  
   0.362981900     0.6513071   -0.2290436  
   0.364981800     0.6009644   -0.3549354  
   0.366981700     0.5275974   -0.4682063  
   0.368981600     0.4335359   -0.5648327  
   0.370981500     0.3236291   -0.6412208  
   0.372981400     0.2016150   -0.6948166  
   0.374981300     0.0726684   -0.7243113  
   0.376981200     0.1795179   -0.7044093  
   0.378981100     0.0512171   -0.7282733  
   0.380981000    -0.0781327   -0.7281529  
   0.382980900    -0.1928124   -0.7076354  
   0.384980800    -0.2968705   -0.6718026  
   0.386980700    -0.3931225   -0.6198915  
   0.388980600    -0.4802461   -0.5544631  
   0.390980500    -0.5550659   -0.4775682  
   0.392980400    -0.6171036   -0.3910327  
   0.394980300    -0.6654230   -0.2969083  
   0.396980200    -0.6990479   -0.1968453  
   0.398980100    -0.7176656   -0.0931777  
   0.400980000    -0.7208598    0.0125500  
   0.402979900    -0.7084398    0.1182617  
   0.404979800    -0.6802765    0.2211587  
   0.406979700    -0.6373066    0.3192905  
   0.408979600    -0.5796204    0.4106408  
   0.410979500    -0.5075358    0.4936139  
   0.412979400    -0.4224169    0.5654557  
   0.414979300    -0.3256415    0.6233581  
   0.416979200    -0.2203188    0.6667309  
   0.418979100    -0.1083840    0.6931892  
   0.420979000     0.0073710    0.7016634  
   0.422978900     0.1247548    0.6908898  
   0.424978800     0.2399591    0.6609087  
   0.426978700     0.3496218    0.6116998  
   0.428978600     0.4503351    0.5444927  
   0.430978500     0.5383228    0.4610679  
   0.432978400     0.6110749    0.3640245  
   0.434978300     0.6677289    0.2561778  
   0.436978200     0.7042027    0.1402136  
   0.438978100     0.7205411    0.0198967  
   0.440978000     0.7163600   -0.1010081  
   0.442977900     0.6923074   -0.2189384  
   0.444977800     0.6488949   -0.3303276  
   0.446977700     0.5881326   -0.4318350  
   0.448977600     0.5122805   -0.5212857  
   0.450977500     0.4238754   -0.5964179  
   0.452977400     0.3251490   -0.6559516  
   0.454977300     0.2182443   -0.6982039  
   0.456977200     0.1070614   -0.7227334  
   0.458977100    -0.0054860   -0.7290726  
   0.460977000    -0.1164763   -0.7177500  
   0.462976900    -0.2230786   -0.6895562  
   0.464976800    -0.3229466   -0.6457452  
   0.466976700    -0.4143199   -0.5872107  
   0.468976600    -0.4950178   -0.5162277  
   0.470976500    -0.5637058   -0.4339548  
   0.472976400    -0.6187786   -0.3423120  
   0.474976300    -0.6594608   -0.2441322  
   0.476976200    -0.6845807   -0.1407406  
   0.478976100    -0.6933336   -0.0348398  
   0.480976000    -0.6858890    0.0706202  
   0.482975900    -0.6621811    0.1739625  
   0.484975800    -0.6231677    0.2729135  
   0.486975700    -0.5685279    0.3655667  
   0.488975600    -0.4992824    0.4490843  
   0.490975500    -0.4170402    0.5213118  
   0.492975400    -0.3233987    0.5796767  
   0.494975300    -0.2204207    0.6222394  
   0.496975200    -0.1107986    0.6470304  
   0.498975100     0.0016677    0.6533067  
   0.500975000     0.1140550    0.6400611  
   0.502974900     0.2223228    0.6075746  
   0.504974800     0.3233386    0.5565556  
   0.506974700     0.4137039    0.4892527  
   0.508974600     0.4904987    0.4071926  
   0.510974500     0.5509809    0.3140870  
   0.512974400     0.5939835    0.2138575  
   0.514974300     0.6179825    0.1103377  
   0.516974200     0.6255974    0.0069266  
   0.518974100     0.6170862   -0.0937176  
   0.520974000     0.5938600   -0.1894123  
   0.522973900     0.5585471   -0.2789438  
   0.524973800     0.5118634   -0.3607037  
   0.526973700     0.4549263   -0.4351700  
   0.528973600     0.3890711   -0.5005106  
   0.530973500     0.3148404   -0.5568100  
   0.532973400     0.2335203   -0.6029930  
   0.534973300     0.1456454   -0.6373732  
   0.536973200     0.0520687   -0.6596255  
   0.538973100    -0.0444089   -0.6677555  
   0.540973000    -0.1419506   -0.6607566  
   0.542972900    -0.2389994   -0.6396040  
   0.544972800    -0.3323866   -0.6028441  
   0.546972700    -0.4202924   -0.5510115  
   0.548972600    -0.4998672   -0.4853897  
   0.550972500    -0.5686480   -0.4071013  
   0.552972400    -0.6242802   -0.3182149  
   0.554972300    -0.6654013   -0.2209178  
   0.556972200    -0.6905501   -0.1176718  
   0.558972100    -0.6986280   -0.0113214  
   0.560972000    -0.6902701    0.0950160  
   0.562971900    -0.6648326    0.1989050  
   0.564971800    -0.6231257    0.2976360  
   0.566971700    -0.5660266    0.3885753  
   0.568971600    -0.4956401    0.4698827  
   0.570971500    -0.4126189    0.5392777  
   0.572971400    -0.3188975    0.5949509  
   0.574971300    -0.2165257    0.6353942  
   0.576971200    -0.1081592    0.6587735  
   0.578971100     0.0034044    0.6644300  
   0.580971000     0.1151673    0.6516615  
   0.582970900     0.2239830    0.6203912  
   0.584970800     0.3264252    0.5715533  
   0.586970700     0.4194863    0.5061561  
   0.588970600     0.5007483    0.4256741  
   0.590970500     0.5677137    0.3322307  
   0.592970400     0.6177309    0.2289814  
   0.594970300     0.6498179    0.1184706  
   0.596970200     0.6626839    0.0037221  
   0.598970100     0.6555291   -0.1112967  
   0.600970000     0.6296569   -0.2233892  
   0.602969900     0.5849239   -0.3292427  
   0.604969800     0.5229806   -0.4259118  
   0.606969700     0.4460314   -0.5103012  
   0.608969600     0.3562509   -0.5805454  
   0.610969500     0.2570090   -0.6343438  
   0.612969400     0.1508023   -0.6702351  
   0.614969300     0.0414052   -0.6883440  
   0.616969200    -0.0682677   -0.6882173  
   0.618969100    -0.1750398   -0.6709957  
   0.620969000    -0.2761898   -0.6375645  
   0.622968900    -0.3707670   -0.5887384  
   0.624968800    -0.4559964   -0.5265921  
   0.626968700    -0.5303799   -0.4521754  
   0.628968600    -0.5922748   -0.3677321  
   0.630968500    -0.6401380   -0.2752276  
   0.632968400    -0.6736348   -0.1767431  
   0.634968300    -0.6916738   -0.0744035  
   0.636968200    -0.6940219    0.0291355  
   0.638968100    -0.6810330    0.1318414  
   0.640968000    -0.6523829    0.2319810  
   0.642967900    -0.6090443    0.3267391  
   0.644967800    -0.5519207    0.4140845  
   0.646967700    -0.4815889    0.4923337  
   0.648967600    -0.4000424    0.5592299  
   0.650967500    -0.3088782    0.6133335  
   0.652967400    -0.2100930    0.6527706  
   0.654967300    -0.1055009    0.6768009  
   0.656967200     0.0020584    0.6843771  
   0.658967100     0.1108631    0.6750610  
   0.660967000     0.2174395    0.6481920  
   0.662966900     0.3200905    0.6040111  
   0.664966800     0.4154378    0.5429547  
   0.666966700     0.5002447    0.4666706  
   0.668966600     0.5719332    0.3765279  
   0.670966500     0.6279157    0.2752365  
   0.672966400     0.6676449    0.1664370  
   0.674966300     0.6873584    0.0517557  
   0.676966200     0.6879644   -0.0641602  
   0.678966100     0.6684567   -0.1779995  
   0.680966000     0.6310072   -0.2870620  
   0.682965900     0.5760751   -0.3876667  
   0.684965800     0.5061231   -0.4769967  
   0.686965700     0.4222206   -0.5535200  
   0.688965600     0.3284635   -0.6147983  
   0.690965500     0.2263931   -0.6585684  
   0.692965400     0.1200306   -0.6861122  
   0.694965300     0.0119018   -0.6959897  
   0.696965200    -0.0951242   -0.6890463  
   0.698965100    -0.1989409   -0.6656144  
   0.700965000    -0.2972454   -0.6269372  
   0.702964900    -0.3873639   -0.5740533  
   0.704964800    -0.4677451   -0.5084763  
   0.706964700    -0.5368785   -0.4317748  
   0.708964600    -0.5935473   -0.3457373  
   0.710964500    -0.6369268   -0.2529297  
   0.712964400    -0.6649762   -0.1544490  
   0.714964300    -0.6778638   -0.0533120  
   0.716964200    -0.6755239    0.0484328  
   0.718964100    -0.6576622    0.1482938  
   0.720964000    -0.6251085    0.2444339  
   0.722963900    -0.5784737    0.3344507  
   0.724963800    -0.5185412    0.4166980  
   0.726963700    -0.4459503    0.4890778  
   0.728963600    -0.3629473    0.5496506  
   0.730963500    -0.2704814    0.5964569  
   0.732963400    -0.1715714    0.6283690  
   0.734963300    -0.0680640    0.6439925  
   0.736963200     0.0532141    0.6417220  
   0.738963100     0.1728880    0.6167809  
   0.740963000     0.2859438    0.5699098  
   0.742962900     0.3885276    0.5026576  
   0.744962800     0.4766016    0.4178915  
   0.746962700     0.5472307    0.3182471  
   0.748962600     0.5981385    0.2073482  
   0.750962500     0.5459978    0.2952308  
   0.752962400     0.5926843    0.1847591  
   0.754962300     0.6181480    0.0685615  
   0.756962200     0.6223236   -0.0499927  
   0.758962100     0.6049309   -0.1661940  
   0.760962000     0.5671552   -0.2772644  
   0.762961900     0.5133183   -0.3745295  
   0.764961800     0.4505038   -0.4541166  
   0.766961700     0.3762671   -0.5231348  
   0.768961600     0.2923199   -0.5798275  
   0.770961500     0.2008576   -0.6232297  
   0.772961400     0.1038072   -0.6518155  
   0.774961300     0.0033392   -0.6653595  
   0.776961200    -0.0981124   -0.6633297  
   0.778961100    -0.1986423   -0.6457318  
   0.780961000    -0.2954167   -0.6123321  
   0.782960900    -0.3863537   -0.5641864  
   0.784960800    -0.4688739   -0.5020557  
   0.786960700    -0.5409443   -0.4273443  
   0.788960600    -0.6003941   -0.3421852  
   0.790960500    -0.6455034   -0.2485615  
   0.792960400    -0.6756377   -0.1492439  
   0.794960300    -0.6897664   -0.0464333  
   0.796960200    -0.6878783    0.0573557  
   0.798960100    -0.6695781    0.1593307  
   0.800960000    -0.6358303    0.2570181  
   0.802959900    -0.5873934    0.3484763  
   0.804959800    -0.5252632    0.4312710  
   0.806959700    -0.4513552    0.5034927  
   0.808959600    -0.3668079    0.5635422  
   0.810959500    -0.2737739    0.6094484  
   0.812959400    -0.1743888    0.6410788  
   0.814959300    -0.0710768    0.6566085  
   0.816959200     0.0338157    0.6556792  
   0.818959100     0.1379306    0.6385647  
   0.820959000     0.2384132    0.6049381  
   0.822958900     0.3330568    0.5554203  
   0.824958800     0.4192145    0.4912274  
   0.826958700     0.4939757    0.4134273  
   0.828958600     0.5557557    0.3241998  
   0.830958500     0.6021819    0.2256419  
   0.832958400     0.6320109    0.1204290  
   0.834958300     0.6442790    0.0115874  
   0.836958200     0.6383882   -0.0978301  
   0.838958100     0.6144625   -0.2048097  
   0.840958000     0.5732995   -0.3069834  
   0.842957900     0.5157648   -0.4006194  
   0.844957800     0.4435435   -0.4837693  
   0.846957700     0.3587419   -0.5535857  
   0.848957600     0.2637548   -0.6085247  
   0.850957500     0.1611045   -0.6466425  
   0.852957400     0.0545165   -0.6674055  
   0.854957300    -0.0536461   -0.6706682  
   0.856957200    -0.1598813   -0.6563656  
   0.858957100    -0.2620823   -0.6254176  
   0.860957000    -0.3570897   -0.5792539  
   0.862956900    -0.4426781   -0.5193105  
   0.864956800    -0.5171579   -0.4478595  
   0.866956700    -0.5791782   -0.3666226  
   0.868956600    -0.6275278   -0.2776008  
   0.870956500    -0.6621457   -0.1827216  
   0.872956400    -0.6819442   -0.0841407  
   0.874956300    -0.6870492    0.0157181  
   0.876956200    -0.6770323    0.1156111  
   0.878956100    -0.6518565    0.2127595  
   0.880956000    -0.6130206    0.3050312  
   0.882955900    -0.5606682    0.3908194  
   0.884955800    -0.4958602    0.4678814  
   0.886955700    -0.4201209    0.5349953  
   0.888955600    -0.3351025    0.5901136  
   0.890955500    -0.2419744    0.6322366  
   0.892955400    -0.1433868    0.6598993  
   0.894955300    -0.0409358    0.6720644  
