! MS46122B
! 2250307/22442219
! 7/22/2025 3:15:45 PM
! C:\USERS\SPARKY\DOCUMENTS\VNA_DATA\JULY22_2025\295\PORT1_MOS6.S1P
! CHANNEL.1
! TR.MEASUREMENT
! RAW.DATA
# GHZ S RI R 50.0
! FREQ.GHZ         S11RE         S11IM         
!; PortSelection: Port_1
   0.001000000     1.0455140   -0.0727267  
   0.002999900     0.9475144   -0.2225802  
   0.004999800     0.8218803   -0.0990869  
   0.006999700     0.5194561   -0.3812659  
   0.008999600     0.9293121   -0.0405501  
   0.010999500     0.9135143   -0.2447434  
   0.012999400     0.8741148   -0.3494464  
   0.014999300     0.8337898   -0.4300171  
   0.016999200     0.7921825   -0.5003956  
   0.018999100     0.7478936   -0.5656770  
   0.020999000     0.6982568   -0.6260713  
   0.022998900     0.6438773   -0.6817428  
   0.024998800     0.5756019   -0.6972504  
   0.026998700     0.5172021   -0.7780061  
   0.028998600     0.4433250   -0.8176325  
   0.030998500     0.3619453   -0.8501393  
   0.032998400     0.2775052   -0.8402455  
   0.034998300     0.1771591   -0.8881854  
   0.036998200     0.0736987   -0.8903713  
   0.038998100    -0.0351994   -0.8788386  
   0.040998000    -0.1485886   -0.8502211  
   0.042997900    -0.2646767   -0.8028429  
   0.044997800    -0.3561312   -0.7156611  
   0.046997700    -0.4898146   -0.6386388  
   0.048997600    -0.5883414   -0.5177400  
   0.050997500    -0.6677165   -0.3691933  
   0.052997400    -0.7176716   -0.1947972  
   0.054997300    -0.7270755   -0.0012314  
   0.056997200    -0.6854564    0.2043742  
   0.058997100    -0.5861146    0.3999459  
   0.060997000    -0.4314770    0.5661118  
   0.062996900    -0.2329873    0.6833734  
   0.064996800    -0.0103176    0.7389958  
   0.066996700     0.2131342    0.7294683  
   0.068996600     0.4169278    0.6625331  
   0.070996500     0.5868886    0.5523999  
   0.072996400     0.7157834    0.4128740  
   0.074996300     0.8032327    0.2596997  
   0.076996200     0.8524149    0.1029142  
   0.078996100     0.8687399   -0.0488029  
   0.080996000     0.8581092   -0.1914778  
   0.082995900     0.8252273   -0.3214609  
   0.084995800     0.7740277   -0.4369134  
   0.086995700     0.7103801   -0.5383050  
   0.088995600     0.6361675   -0.6254733  
   0.090995500     0.5539848   -0.6991425  
   0.092995400     0.4662476   -0.7597097  
   0.094995300     0.3728066   -0.8069487  
   0.096995200     0.2768103   -0.8412750  
   0.098995100     0.1784344   -0.8633935  
   0.100995000     0.0776177   -0.8735281  
   0.102994900    -0.0223760   -0.8715000  
   0.104994800    -0.1219131   -0.8575769  
   0.106994700    -0.2199237   -0.8306835  
   0.108994600    -0.3149830   -0.7925920  
   0.110994500    -0.4066214   -0.7423271  
   0.112994400    -0.4930132   -0.6794425  
   0.114994300    -0.5722749   -0.6040861  
   0.116994200    -0.6428787   -0.5160123  
   0.118994100    -0.7026131   -0.4162537  
   0.120994000    -0.7507160   -0.3058116  
   0.122993900    -0.7818269   -0.1843004  
   0.124993800    -0.7944974   -0.0548402  
   0.126993700    -0.7858664    0.0803181  
   0.128993600    -0.7525756    0.2168226  
   0.130993500    -0.6954520    0.3510785  
   0.132993400    -0.6120363    0.4774427  
   0.134993300    -0.5033121    0.5900776  
   0.136993200    -0.3709775    0.6819431  
   0.138993100    -0.2199019    0.7478538  
   0.140993000    -0.0557153    0.7823717  
   0.142992900     0.1137821    0.7825828  
   0.144992800     0.2809307    0.7490497  
   0.146992700     0.4364729    0.6807835  
   0.148992600     0.5732721    0.5832864  
   0.150992500     0.6843119    0.4613928  
   0.152992400     0.7682394    0.3238105  
   0.154992300     0.8224645    0.1768915  
   0.156992200     0.8471946    0.0266765  
   0.158992100     0.8444889   -0.1203234  
   0.160992000     0.8168114   -0.2599623  
   0.162991900     0.7672980   -0.3879494  
   0.164991800     0.6997783   -0.5024754  
   0.166991700     0.6174982   -0.6012949  
   0.168991600     0.5238194   -0.6836589  
   0.170991500     0.4213642   -0.7493910  
   0.172991400     0.3132486   -0.7981803  
   0.174991300     0.2019124   -0.8302545  
   0.176991200     0.0888506   -0.8459691  
   0.178991100    -0.0238008   -0.8457146  
   0.180991000    -0.1338988   -0.8310134  
   0.182990900    -0.2404542   -0.8010082  
   0.184990800    -0.3419833   -0.7568492  
   0.186990700    -0.4364520   -0.6993787  
   0.188990600    -0.5043665   -0.6429582  
   0.190990500    -0.5957119   -0.5491645  
   0.192990400    -0.6628381   -0.4537768  
   0.194990300    -0.7145975   -0.3515342  
   0.196990200    -0.7515886   -0.2416806  
   0.198990100    -0.7730608   -0.1252306  
   0.200990000    -0.7771417   -0.0042522  
   0.202989900    -0.7622256    0.1187743  
   0.204989800    -0.7278877    0.2409425  
   0.206989700    -0.6747434    0.3588698  
   0.208989600    -0.6004762    0.4685907  
   0.210989500    -0.5063050    0.5670680  
   0.212989400    -0.3945383    0.6499344  
   0.214989300    -0.2674543    0.7133301  
   0.216989200    -0.1289695    0.7542108  
   0.218989100     0.0161460    0.7695348  
   0.220989000     0.1635130    0.7581904  
   0.222988900     0.3076306    0.7194353  
   0.224988800     0.4423937    0.6546981  
   0.226988700     0.5628015    0.5666272  
   0.228988600     0.6640275    0.4589210  
   0.230988500     0.7431859    0.3356846  
   0.232988400     0.7973036    0.2014959  
   0.234988300     0.8274840    0.0625451  
   0.236988200     0.8327506   -0.0771498  
   0.238988100     0.8145819   -0.2127648  
   0.240988000     0.7752662   -0.3403369  
   0.242987900     0.7168830   -0.4564100  
   0.244987800     0.6429361   -0.5593080  
   0.246987700     0.5555561   -0.6481906  
   0.248987600     0.4576696   -0.7213150  
   0.250987500     0.3514903   -0.7775445  
   0.252987400     0.2410261   -0.8170165  
   0.254987300     0.1288056   -0.8397459  
   0.256987200     0.0161058   -0.8461501  
   0.258987100    -0.0952297   -0.8384951  
   0.260987000    -0.2036005   -0.8141267  
   0.262986900    -0.3074005   -0.7754128  
   0.264986800    -0.4044611   -0.7232692  
   0.266986700    -0.4934778   -0.6577831  
   0.268986600    -0.5726699   -0.5810222  
   0.270986500    -0.6401384   -0.4939704  
   0.272986400    -0.6955770   -0.3979016  
   0.274986300    -0.7376505   -0.2937946  
   0.276986200    -0.7645843   -0.1831782  
   0.278986100    -0.7753207   -0.0674757  
   0.280986000    -0.7686235    0.0507922  
   0.282985900    -0.7433316    0.1692906  
   0.284985800    -0.6987916    0.2846982  
   0.286985700    -0.6351286    0.3935435  
   0.288985600    -0.5534169    0.4921144  
   0.290985500    -0.4538560    0.5772866  
   0.292985400    -0.3391347    0.6447594  
   0.294985300    -0.2111334    0.6922023  
   0.296985200    -0.0738615    0.7157311  
   0.298985100     0.0681455    0.7132271  
   0.300985000     0.2083943    0.6830418  
   0.302984900     0.3408463    0.6255251  
   0.304984800     0.4589854    0.5426902  
   0.306984700     0.5576735    0.4392116  
   0.308984600     0.6324139    0.3192534  
   0.310984500     0.6803337    0.1901172  
   0.312984400     0.7011256    0.0569651  
   0.314984300     0.6955041   -0.0728125  
   0.316984200     0.6659747   -0.1940193  
   0.318984100     0.6161025   -0.3023358  
   0.320984000     0.5517033   -0.3942023  
   0.322983900     0.4773067   -0.4682927  
   0.324983800     0.3992911   -0.5246410  
   0.326983700     0.3217907   -0.5659819  
   0.328983600     0.2481489   -0.5968892  
   0.330983500     0.1782619   -0.6218669  
   0.332983400     0.1098622   -0.6443684  
   0.334983300     0.0380938   -0.6652172  
   0.336983200    -0.0406320   -0.6822599  
   0.338983100    -0.1282770   -0.6910533  
   0.340983000    -0.2228270   -0.6861687  
   0.342982900    -0.3212341   -0.6645148  
   0.344982800    -0.4183750   -0.6240605  
   0.346982700    -0.5106031   -0.5650634  
   0.348982600    -0.5912170   -0.4888940  
   0.350982500    -0.6595926   -0.3998307  
   0.352982400    -0.7127850   -0.2996778  
   0.354982300    -0.7503083   -0.1869173  
   0.356982200    -0.7701008   -0.0546369  
   0.358982100    -0.7650631    0.0780815  
   0.360982000    -0.7365296    0.2075059  
   0.362981900    -0.6856799    0.3300775  
   0.364981800    -0.6136410    0.4424766  
   0.366981700    -0.5229829    0.5406342  
   0.368981600    -0.4153594    0.6219270  
   0.370981500    -0.2945586    0.6829972  
   0.372981400    -0.1636028    0.7221870  
   0.374981300    -0.0260352    0.7373576  
   0.376981200    -0.1266320    0.7334273  
   0.378981100     0.0168568    0.7418782  
   0.380981000     0.1603620    0.7232237  
   0.382980900     0.2879487    0.6819919  
   0.384980800     0.4027624    0.6221048  
   0.386980700     0.5063610    0.5426882  
   0.388980600     0.5951247    0.4460623  
   0.390980500     0.6658182    0.3360774  
   0.392980400     0.7163693    0.2159744  
   0.394980300     0.7453404    0.0894774  
   0.396980200     0.7524117   -0.0394735  
   0.398980100     0.7374933   -0.1667164  
   0.400980000     0.7016317   -0.2886043  
   0.402979900     0.6459769   -0.4018847  
   0.404979800     0.5735590   -0.5030249  
   0.406979700     0.4864694   -0.5896049  
   0.408979600     0.3878027   -0.6599364  
   0.410979500     0.2797610   -0.7129697  
   0.412979400     0.1656739   -0.7477065  
   0.414979300     0.0489177   -0.7626377  
   0.416979200    -0.0674409   -0.7602513  
   0.418979100    -0.1804513   -0.7401864  
   0.420979000    -0.2879656   -0.7032217  
   0.422978900    -0.3879874   -0.6506952  
   0.424978800    -0.4788556   -0.5844993  
   0.426978700    -0.5578867   -0.5055805  
   0.428978600    -0.6236496   -0.4161950  
   0.430978500    -0.6751968   -0.3188441  
   0.432978400    -0.7116252   -0.2152282  
   0.434978300    -0.7334698   -0.1082487  
   0.436978200    -0.7383654    0.0015232  
   0.438978100    -0.7268022    0.1108712  
   0.440978000    -0.6991289    0.2182273  
   0.442977900    -0.6556588    0.3207240  
   0.444977800    -0.5968477    0.4162384  
   0.446977700    -0.5235282    0.5021800  
   0.448977600    -0.4373630    0.5769508  
   0.450977500    -0.3397539    0.6380972  
   0.452977400    -0.2322826    0.6842266  
   0.454977300    -0.1172116    0.7126403  
   0.456977200     0.0023272    0.7227448  
   0.458977100     0.1233352    0.7130310  
   0.460977000     0.2420155    0.6835978  
   0.462976900     0.3548146    0.6345646  
   0.464976800     0.4582213    0.5671687  
   0.466976700     0.5497053    0.4830540  
   0.468976600     0.6257992    0.3844843  
   0.470976500     0.6842310    0.2741639  
   0.472976400     0.7231136    0.1561442  
   0.474976300     0.7419081    0.0334606  
   0.476976200     0.7396072   -0.0898979  
   0.478976100     0.7169338   -0.2099125  
   0.480976000     0.6758342   -0.3230451  
   0.482975900     0.6175582   -0.4265545  
   0.484975800     0.5441747   -0.5182183  
   0.486975700     0.4581272   -0.5958745  
   0.488975600     0.3622825   -0.6587080  
   0.490975500     0.2592123   -0.7048429  
   0.492975400     0.1514559   -0.7347007  
   0.494975300     0.0416740   -0.7478821  
   0.496975200    -0.0674113   -0.7442580  
   0.498975100    -0.1732116   -0.7250416  
   0.500975000    -0.2742251   -0.6907400  
   0.502974900    -0.3682625   -0.6429258  
   0.504974800    -0.4541473   -0.5820311  
   0.506974700    -0.5306692   -0.5101089  
   0.508974600    -0.5963182   -0.4271238  
   0.510974500    -0.6494375   -0.3355190  
   0.512974400    -0.6890102   -0.2369971  
   0.514974300    -0.7122474   -0.1332922  
   0.516974200    -0.7211658   -0.0270485  
   0.518974100    -0.7141173    0.0801284  
   0.520974000    -0.6905718    0.1857461  
   0.522973900    -0.6507837    0.2872531  
   0.524973800    -0.5947539    0.3816932  
   0.526973700    -0.5240471    0.4667666  
   0.528973600    -0.4402494    0.5395689  
   0.530973500    -0.3456231    0.5982664  
   0.532973400    -0.2429623    0.6405151  
   0.534973300    -0.1348739    0.6659843  
   0.536973200    -0.0243334    0.6740250  
   0.538973100     0.0855029    0.6646988  
   0.540973000     0.1917724    0.6385549  
   0.542972900     0.2925961    0.5964488  
   0.544972800     0.3858066    0.5392794  
   0.546972700     0.4696009    0.4679117  
   0.548972600     0.5410029    0.3842644  
   0.550972500     0.5986905    0.2903758  
   0.552972400     0.6414933    0.1877126  
   0.554972300     0.6674147    0.0792714  
   0.556972200     0.6753249   -0.0320304  
   0.558972100     0.6655489   -0.1435022  
   0.560972000     0.6380776   -0.2517802  
   0.562971900     0.5937152   -0.3539572  
   0.564971800     0.5338464   -0.4476253  
   0.566971700     0.4601576   -0.5300140  
   0.568971600     0.3746026   -0.5997213  
   0.570971500     0.2793935   -0.6546755  
   0.572971400     0.1772576   -0.6937551  
   0.574971300     0.0699419   -0.7162921  
   0.576971200    -0.0392619   -0.7220634  
   0.578971100    -0.1478391   -0.7109324  
   0.580971000    -0.2529591   -0.6830753  
   0.582970900    -0.3516361   -0.6400361  
   0.584970800    -0.4420227   -0.5825214  
   0.586970700    -0.5221614   -0.5128432  
   0.588970600    -0.5903622   -0.4322629  
   0.590970500    -0.6458374   -0.3428713  
   0.592970400    -0.6874507   -0.2463865  
   0.594970300    -0.7142103   -0.1451983  
   0.596970200    -0.7258942   -0.0412362  
   0.598970100    -0.7222076    0.0634878  
   0.600970000    -0.7031553    0.1668915  
   0.602969900    -0.6690609    0.2663569  
   0.604969800    -0.6203682    0.3603638  
   0.606969700    -0.5579762    0.4465753  
   0.608969600    -0.4825332    0.5232060  
   0.610969500    -0.3961755    0.5877131  
   0.612969400    -0.3002249    0.6388904  
   0.614969300    -0.1969012    0.6752223  
   0.616969200    -0.0886567    0.6949942  
   0.618969100     0.0212355    0.6981858  
   0.620969000     0.1310609    0.6841136  
   0.622968900     0.2382512    0.6526616  
   0.624968800     0.3399840    0.6038886  
   0.626968700     0.4336404    0.5392044  
   0.628968600     0.5162132    0.4596640  
   0.630968500     0.5849766    0.3670124  
   0.632968400     0.6378130    0.2640438  
   0.634968300     0.6731882    0.1528760  
   0.636968200     0.6895036    0.0376828  
   0.638968100     0.6865271   -0.0789398  
   0.640968000     0.6640371   -0.1933045  
   0.642967900     0.6229562   -0.3014158  
   0.644967800     0.5646454   -0.4011022  
   0.646967700     0.4913144   -0.4890302  
   0.648967600     0.4054563   -0.5629107  
   0.650967500     0.3094109   -0.6211381  
   0.652967400     0.2064131   -0.6623286  
   0.654967300     0.0995196   -0.6867530  
   0.656967200    -0.0086878   -0.6935182  
   0.658967100    -0.1155948   -0.6831948  
   0.660967000    -0.2187602   -0.6564296  
   0.662966900    -0.3161293   -0.6143827  
   0.664966800    -0.4052319   -0.5580347  
   0.666966700    -0.4842477   -0.4890381  
   0.668966600    -0.5513244   -0.4092019  
   0.670966500    -0.6049119   -0.3206942  
   0.672966400    -0.6450403   -0.2258152  
   0.674966300    -0.6695123   -0.1262630  
   0.676966200    -0.6785173   -0.0247455  
   0.678966100    -0.6723847    0.0764678  
   0.680966000    -0.6509019    0.1760444  
   0.682965900    -0.6148454    0.2712259  
   0.684965800    -0.5648718    0.3598369  
   0.686965700    -0.5014614    0.4403424  
   0.688965600    -0.4261388    0.5105874  
   0.690965500    -0.3403201    0.5681592  
   0.692965400    -0.2463109    0.6125582  
   0.694965300    -0.1460839    0.6423607  
   0.696965200    -0.0415816    0.6558098  
   0.698965100     0.0649341    0.6524927  
   0.700965000     0.1703004    0.6320893  
   0.702964900     0.2717467    0.5947615  
   0.704964800     0.3661530    0.5407834  
   0.706964700     0.4514870    0.4714370  
   0.708964600     0.5241652    0.3880469  
   0.710964500     0.5830594    0.2943845  
   0.712964400     0.6247264    0.1914327  
   0.714964300     0.6484969    0.0831410  
   0.716964200     0.6537566   -0.0270663  
   0.718964100     0.6402543   -0.1353680  
   0.720964000     0.6096547   -0.2387822  
   0.722963900     0.5631694   -0.3345700  
   0.724963800     0.5024875   -0.4205834  
   0.726963700     0.4295648   -0.4952363  
   0.728963600     0.3469062   -0.5569438  
   0.730963500     0.2561838   -0.6035820  
   0.732963400     0.1610589   -0.6361603  
   0.734963300     0.0627943   -0.6536996  
   0.736963200    -0.0503324   -0.6556596  
   0.738963100    -0.1613358   -0.6376799  
   0.740963000    -0.2668371   -0.6011590  
   0.742962900    -0.3639390   -0.5475309  
   0.744962800    -0.4501950   -0.4782821  
   0.746962700    -0.5233598   -0.3956888  
   0.748962600    -0.5811738   -0.3010595  
   0.750962500    -0.5436445   -0.3857156  
   0.752962400    -0.6000720   -0.2893574  
   0.754962300    -0.6387666   -0.1845065  
   0.756962200    -0.6590689   -0.0740766  
   0.758962100    -0.6596663    0.0384626  
   0.760962000    -0.6403837    0.1499511  
   0.762961900    -0.6040978    0.2519313  
   0.764961800    -0.5567697    0.3386132  
   0.766961700    -0.4964965    0.4172818  
   0.768961600    -0.4241948    0.4855402  
   0.770961500    -0.3423586    0.5415075  
   0.772961400    -0.2524418    0.5842085  
   0.774961300    -0.1573061    0.6117290  
   0.776961200    -0.0586879    0.6245773  
   0.778961100     0.0413101    0.6216702  
   0.780961000     0.1395281    0.6033019  
   0.782960900     0.2342909    0.5693650  
   0.784960800     0.3230405    0.5205824  
   0.786960700     0.4034028    0.4583813  
   0.788960600     0.4732647    0.3837476  
   0.790960500     0.5301247    0.2990886  
   0.792960400     0.5730115    0.2061475  
   0.794960300     0.6003357    0.1076056  
   0.796960200     0.6116546    0.0057160  
   0.798960100     0.6061742   -0.0964486  
   0.800960000     0.5846010   -0.1961984  
   0.802959900     0.5473155   -0.2914586  
   0.804959800     0.4950814   -0.3793840  
   0.806959700     0.4298452   -0.4574217  
   0.808959600     0.3529597   -0.5243710  
   0.810959500     0.2662656   -0.5779337  
   0.812959400     0.1725343   -0.6171255  
   0.814959300     0.0738028   -0.6407391  
   0.816959200    -0.0269525   -0.6483853  
   0.818959100    -0.1274942   -0.6401628  
   0.820959000    -0.2249342   -0.6161782  
   0.822958900    -0.3176197   -0.5773839  
   0.824958800    -0.4024175   -0.5245934  
   0.826958700    -0.4777100   -0.4597474  
   0.828958600    -0.5419666   -0.3843484  
   0.830958500    -0.5932653   -0.3002423  
   0.832958400    -0.6311811   -0.2096777  
   0.834958300    -0.6545654   -0.1148204  
   0.836958200    -0.6637197   -0.0178178  
   0.838958100    -0.6578347    0.0791172  
   0.840958000    -0.6374757    0.1742384  
   0.842957900    -0.6027893    0.2645538  
   0.844957800    -0.5548849    0.3493324  
   0.846957700    -0.4946014    0.4260684  
   0.848957600    -0.4233136    0.4929636  
   0.850957500    -0.3423662    0.5484022  
   0.852957400    -0.2536091    0.5908006  
   0.854957300    -0.1589285    0.6194401  
   0.856957200    -0.0607155    0.6330528  
   0.858957100     0.0390572    0.6313461  
   0.860957000     0.1372476    0.6140039  
   0.862956900     0.2313207    0.5812884  
   0.864956800     0.3191096    0.5341492  
   0.866956700     0.3987121    0.4736930  
   0.868956600     0.4676500    0.4007747  
   0.870956500     0.5247467    0.3175588  
   0.872956400     0.5684565    0.2258150  
   0.874956300     0.5963535    0.1273918  
   0.876956200     0.6082394    0.0251093  
   0.878956100     0.6028935   -0.0781450  
   0.880956000     0.5805764   -0.1794278  
   0.882955900     0.5416883   -0.2756684  
   0.884955800     0.4869566   -0.3639482  
   0.886955700     0.4186839   -0.4416133  
   0.888955600     0.3385507   -0.5068039  
   0.890955500     0.2490252   -0.5572210  
   0.892955400     0.1528982   -0.5921023  
   0.894955300     0.0529941   -0.6104293  
