! MS46122B
! 2250307/22442219
! 7/23/2025 1:07:22 PM
! C:\USERS\SPARKY\DOCUMENTS\VNA_DATA\JULY23_2025\295K\PORT1_MOS5.S1P
! CHANNEL.1
! TR.MEASUREMENT
! RAW.DATA
# GHZ S RI R 50.0
! FREQ.GHZ         S11RE         S11IM         
!; PortSelection: Port_1
   0.001000000     1.0458350   -0.0711767  
   0.002999900     0.9640774   -0.1938092  
   0.004999800     0.9030129   -0.2986619  
   0.006999700     0.8351055   -0.3961155  
   0.008999600     0.7546505   -0.4907136  
   0.010999500     0.6593347   -0.5797895  
   0.012999400     0.5434876   -0.6600114  
   0.014999300     0.4015902   -0.7241945  
   0.016999200     0.2285466   -0.7584757  
   0.018999100     0.0233612   -0.7417572  
   0.020999000    -0.1995786   -0.6408141  
   0.022998900    -0.3939601   -0.4244246  
   0.024998800    -0.4606074   -0.1040535  
   0.026998700    -0.3736193    0.2469444  
   0.028998600    -0.1106304    0.4854768  
   0.030998500     0.2021515    0.5567158  
   0.032998400     0.4430276    0.4878623  
   0.034998300     0.6590630    0.3657092  
   0.036998200     0.7763936    0.2122368  
   0.038998100     0.8388613    0.0582031  
   0.040998000     0.8616012   -0.0853085  
   0.042997900     0.8552731   -0.2148874  
   0.044997800     0.8050738   -0.3043040  
   0.046997700     0.7863304   -0.4316252  
   0.048997600     0.7333438   -0.5202097  
   0.050997500     0.6721598   -0.5966848  
   0.052997400     0.6045668   -0.6621319  
   0.054997300     0.5315956   -0.7179505  
   0.056997200     0.4538178   -0.7647539  
   0.058997100     0.3729225   -0.8021144  
   0.060997000     0.2888359   -0.8304949  
   0.062996900     0.2018638   -0.8496324  
   0.064996800     0.1127720   -0.8594774  
   0.066996700     0.0216826   -0.8595319  
   0.068996600    -0.0704420   -0.8490546  
   0.070996500    -0.1635901   -0.8283038  
   0.072996400    -0.2556889   -0.7944188  
   0.074996300    -0.3459834   -0.7481416  
   0.076996200    -0.4331838   -0.6882885  
   0.078996100    -0.5144235   -0.6143704  
   0.080996000    -0.5880810   -0.5255722  
   0.082995900    -0.6504485   -0.4221034  
   0.084995800    -0.6975244   -0.3045805  
   0.086995700    -0.7271416   -0.1746408  
   0.088995600    -0.7343335   -0.0349693  
   0.090995500    -0.7151256    0.1105472  
   0.092995400    -0.6669886    0.2569413  
   0.094995300    -0.5864411    0.3960057  
   0.096995200    -0.4748618    0.5193596  
   0.098995100    -0.3350978    0.6185257  
   0.100995000    -0.1725751    0.6861150  
   0.102994900     0.0009740    0.7148805  
   0.104994800     0.1762612    0.7033220  
   0.106994700     0.3420256    0.6524606  
   0.108994600     0.4896680    0.5685207  
   0.110994500     0.6121381    0.4577734  
   0.112994400     0.7051265    0.3282242  
   0.114994300     0.7673129    0.1883870  
   0.116994200     0.7998833    0.0454015  
   0.118994100     0.8047918   -0.0949698  
   0.120994000     0.7870918   -0.2281023  
   0.122993900     0.7469431   -0.3509938  
   0.124993800     0.6902261   -0.4604653  
   0.126993700     0.6193574   -0.5562524  
   0.128993600     0.5368198   -0.6367087  
   0.130993500     0.4470730   -0.7029083  
   0.132993400     0.3513991   -0.7542676  
   0.134993300     0.2519386   -0.7911829  
   0.136993200     0.1499958   -0.8138376  
   0.138993100     0.0473359   -0.8226255  
   0.140993000    -0.0545700   -0.8178280  
   0.142992900    -0.1543118   -0.7997702  
   0.144992800    -0.2513673   -0.7705262  
   0.146992700    -0.3439391   -0.7271727  
   0.148992600    -0.4307605   -0.6718307  
   0.150992500    -0.5090414   -0.6037800  
   0.152992400    -0.5800390   -0.5257407  
   0.154992300    -0.6404634   -0.4373080  
   0.156992200    -0.6891244   -0.3387988  
   0.158992100    -0.7241842   -0.2325987  
   0.160992000    -0.7438697   -0.1191462  
   0.162991900    -0.7464122   -0.0010615  
   0.164991800    -0.7302577    0.1194992  
   0.166991700    -0.6943406    0.2389420  
   0.168991600    -0.6379609    0.3543972  
   0.170991500    -0.5608037    0.4617725  
   0.172991400    -0.4638907    0.5565037  
   0.174991300    -0.3491039    0.6342568  
   0.176991200    -0.2192859    0.6915877  
   0.178991100    -0.0789734    0.7244087  
   0.180991000     0.0669484    0.7312579  
   0.182990900     0.2126631    0.7092165  
   0.184990800     0.3522712    0.6595378  
   0.186990700     0.4794196    0.5843908  
   0.188990600     0.5741884    0.5031396  
   0.190990500     0.6753391    0.3743998  
   0.192990400     0.7411623    0.2439882  
   0.194990300     0.7802643    0.1091903  
   0.196990200     0.7943240   -0.0270099  
   0.198990100     0.7845211   -0.1605926  
   0.200990000     0.7524669   -0.2873137  
   0.202989900     0.7006770   -0.4043662  
   0.204989800     0.6319781   -0.5083405  
   0.206989700     0.5509684   -0.5988016  
   0.208989600     0.4585168   -0.6724470  
   0.210989500     0.3572746   -0.7301338  
   0.212989400     0.2504089   -0.7714381  
   0.214989300     0.1407252   -0.7957845  
   0.216989200     0.0305301   -0.8037446  
   0.218989100    -0.0782066   -0.7962168  
   0.220989000    -0.1842827   -0.7730464  
   0.222988900    -0.2855517   -0.7350668  
   0.224988800    -0.3807880   -0.6831259  
   0.226988700    -0.4672311   -0.6186080  
   0.228988600    -0.5437045   -0.5422156  
   0.230988500    -0.6087688   -0.4549326  
   0.232988400    -0.6601965   -0.3573326  
   0.234988300    -0.6984767   -0.2520590  
   0.236988200    -0.7207094   -0.1407912  
   0.238988100    -0.7257816   -0.0255506  
   0.240988000    -0.7125044    0.0912687  
   0.242987900    -0.6805254    0.2060431  
   0.244987800    -0.6294428    0.3167354  
   0.246987700    -0.5589217    0.4198234  
   0.248987600    -0.4699294    0.5114958  
   0.250987500    -0.3640200    0.5877799  
   0.252987400    -0.2446874    0.6453827  
   0.254987300    -0.1151610    0.6808283  
   0.256987200     0.0204847    0.6922116  
   0.258987100     0.1575275    0.6795307  
   0.260987000     0.2905461    0.6403323  
   0.262986900     0.4150449    0.5759359  
   0.264986800     0.5249265    0.4896953  
   0.266986700     0.6164069    0.3845791  
   0.268986600     0.6860235    0.2656459  
   0.270986500     0.7317456    0.1379786  
   0.272986400     0.7535319    0.0060705  
   0.274986300     0.7517727   -0.1252397  
   0.276986200     0.7272611   -0.2519018  
   0.278986100     0.6822817   -0.3699274  
   0.280986000     0.6193655   -0.4771523  
   0.282985900     0.5418111   -0.5704286  
   0.284985800     0.4518917   -0.6484845  
   0.286985700     0.3532839   -0.7099446  
   0.288985600     0.2492316   -0.7543594  
   0.290985500     0.1420881   -0.7825398  
   0.292985400     0.0343549   -0.7945179  
   0.294985300    -0.0725415   -0.7908075  
   0.296985200    -0.1773449   -0.7722548  
   0.298985100    -0.2777381   -0.7393236  
   0.300985000    -0.3724869   -0.6930863  
   0.302984900    -0.4593324   -0.6344535  
   0.304984800    -0.5368380   -0.5644475  
   0.306984700    -0.6040029   -0.4843588  
   0.308984600    -0.6591619   -0.3962594  
   0.310984500    -0.7021886   -0.3009108  
   0.312984400    -0.7314174   -0.1994548  
   0.314984300    -0.7458021   -0.0930951  
   0.316984200    -0.7441167    0.0158979  
   0.318984100    -0.7255424    0.1262656  
   0.320984000    -0.6880810    0.2345867  
   0.322983900    -0.6319036    0.3367889  
   0.324983800    -0.5579934    0.4274425  
   0.326983700    -0.4693331    0.5032679  
   0.328983600    -0.3701442    0.5610207  
   0.330983500    -0.2657233    0.5997663  
   0.332983400    -0.1610898    0.6214436  
   0.334983300    -0.0568371    0.6285740  
   0.336983200     0.0464001    0.6228065  
   0.338983100     0.1488500    0.6034838  
   0.340983000     0.2492640    0.5698383  
   0.342982900     0.3458958    0.5204480  
   0.344982800     0.4363181    0.4549921  
   0.346982700     0.5165088    0.3733305  
   0.348982600     0.5821458    0.2766926  
   0.350982500     0.6315179    0.1688244  
   0.352982400     0.6613529    0.0525156  
   0.354982300     0.6695473   -0.0728591  
   0.356982200     0.6508865   -0.2094722  
   0.358982100     0.6049592   -0.3394947  
   0.360982000     0.5344757   -0.4572142  
   0.362981900     0.4419238   -0.5584452  
   0.364981800     0.3317661   -0.6391747  
   0.366981700     0.2086033   -0.6964676  
   0.368981600     0.0773740   -0.7286751  
   0.370981500    -0.0564345   -0.7351647  
   0.372981400    -0.1883235   -0.7163706  
   0.374981300    -0.3133567   -0.6732804  
   0.376981200    -0.2060083   -0.7135310  
   0.378981100    -0.3291691   -0.6677223  
   0.380981000    -0.4409393   -0.5999842  
   0.382980900    -0.5298778   -0.5225282  
   0.384980800    -0.6010933   -0.4367433  
   0.386980700    -0.6585095   -0.3406078  
   0.388980600    -0.7007229   -0.2369925  
   0.390980500    -0.7259256   -0.1288522  
   0.392980400    -0.7346401   -0.0184096  
   0.394980300    -0.7263814    0.0919007  
   0.396980200    -0.7015474    0.2003748  
   0.398980100    -0.6602154    0.3046381  
   0.400980000    -0.6028716    0.4019089  
   0.402979900    -0.5306350    0.4902329  
   0.404979800    -0.4446580    0.5668223  
   0.406979700    -0.3464794    0.6295105  
   0.408979600    -0.2388391    0.6768433  
   0.410979500    -0.1228717    0.7062896  
   0.412979400    -0.0017843    0.7167264  
   0.414979300     0.1208403    0.7060225  
   0.416979200     0.2412614    0.6755394  
   0.418979100     0.3555405    0.6247587  
   0.420979000     0.4605675    0.5546689  
   0.422978900     0.5526014    0.4669435  
   0.424978800     0.6283077    0.3637654  
   0.426978700     0.6852902    0.2486507  
   0.428978600     0.7211035    0.1253557  
   0.430978500     0.7345923   -0.0015364  
   0.432978400     0.7260760   -0.1282673  
   0.434978300     0.6969641   -0.2511725  
   0.436978200     0.6469460   -0.3657170  
   0.438978100     0.5784891   -0.4690711  
   0.440978000     0.4940841   -0.5587236  
   0.442977900     0.3970596   -0.6322516  
   0.444977800     0.2905783   -0.6881058  
   0.446977700     0.1778324   -0.7249644  
   0.448977600     0.0617454   -0.7425787  
   0.450977500    -0.0543600   -0.7416398  
   0.452977400    -0.1681222   -0.7222336  
   0.454977300    -0.2767363   -0.6853120  
   0.456977200    -0.3779399   -0.6317526  
   0.458977100    -0.4688582   -0.5632441  
   0.460977000    -0.5474363   -0.4820432  
   0.462976900    -0.6119263   -0.3903434  
   0.464976800    -0.6612610   -0.2894672  
   0.466976700    -0.6943966   -0.1827902  
   0.468976600    -0.7105348   -0.0720164  
   0.470976500    -0.7089717    0.0404940  
   0.472976400    -0.6895759    0.1514681  
   0.474976300    -0.6527482    0.2586932  
   0.476976200    -0.5991836    0.3591824  
   0.478976100    -0.5293955    0.4503054  
   0.480976000    -0.4456629    0.5289789  
   0.482975900    -0.3496842    0.5939209  
   0.484975800    -0.2432750    0.6423585  
   0.486975700    -0.1291975    0.6725534  
   0.488975600    -0.0104277    0.6832113  
   0.490975500     0.1089473    0.6732928  
   0.492975400     0.2260135    0.6424693  
   0.494975300     0.3360627    0.5918838  
   0.496975200     0.4357358    0.5218955  
   0.498975100     0.5210856    0.4361458  
   0.500975000     0.5895568    0.3368234  
   0.502974900     0.6388346    0.2284295  
   0.504974800     0.6680058    0.1137789  
   0.506974700     0.6767684   -0.0024854  
   0.508974600     0.6653455   -0.1174768  
   0.510974500     0.6354699   -0.2263682  
   0.512974400     0.5890154   -0.3269359  
   0.514974300     0.5278400   -0.4149599  
   0.516974200     0.4570252   -0.4919887  
   0.518974100     0.3772168   -0.5561578  
   0.520974000     0.2912729   -0.6068088  
   0.522973900     0.1998092   -0.6452091  
   0.524973800     0.1052506   -0.6701877  
   0.526973700     0.0079441   -0.6828370  
   0.528973600    -0.0904787   -0.6817428  
   0.530973500    -0.1891484   -0.6670652  
   0.532973400    -0.2860554   -0.6377039  
   0.534973300    -0.3789503   -0.5938501  
   0.536973200    -0.4657805   -0.5355490  
   0.538973100    -0.5433396   -0.4634376  
   0.540973000    -0.6094739   -0.3787966  
   0.542972900    -0.6614639   -0.2837601  
   0.544972800    -0.6980653   -0.1803065  
   0.546972700    -0.7176193   -0.0708527  
   0.548972600    -0.7191415    0.0410393  
   0.550972500    -0.7019478    0.1528288  
   0.552972400    -0.6666176    0.2610642  
   0.554972300    -0.6135980    0.3625329  
   0.556972200    -0.5445529    0.4544737  
   0.558972100    -0.4605678    0.5341858  
   0.560972000    -0.3645276    0.5993207  
   0.562971900    -0.2587621    0.6479692  
   0.564971800    -0.1460433    0.6789291  
   0.566971700    -0.0295788    0.6906398  
   0.568971600     0.0877424    0.6833419  
   0.570971500     0.2029903    0.6562310  
   0.572971400     0.3128988    0.6103882  
   0.574971300     0.4141303    0.5457408  
   0.576971200     0.5040238    0.4647147  
   0.578971100     0.5789781    0.3684903  
   0.580971000     0.6367224    0.2607539  
   0.582970900     0.6746137    0.1449032  
   0.584970800     0.6924545    0.0240496  
   0.586970700     0.6892233   -0.0973837  
   0.588970600     0.6655218   -0.2165964  
   0.590970500     0.6216513   -0.3293179  
   0.592970400     0.5597258   -0.4326020  
   0.594970300     0.4815331   -0.5235305  
   0.596970200     0.3900814   -0.5992434  
   0.598970100     0.2878017   -0.6584654  
   0.600970000     0.1778003   -0.6995227  
   0.602969900     0.0633927   -0.7220281  
   0.604969800    -0.0527075   -0.7256396  
   0.606969700    -0.1667018   -0.7105903  
   0.608969600    -0.2763464   -0.6774420  
   0.610969500    -0.3785441   -0.6278338  
   0.612969400    -0.4709202   -0.5630736  
   0.614969300    -0.5510157   -0.4854982  
   0.616969200    -0.6179515   -0.3971649  
   0.618969100    -0.6698651   -0.3006479  
   0.620969000    -0.7065922   -0.1980665  
   0.622968900    -0.7272148   -0.0911723  
   0.624968800    -0.7318279    0.0176058  
   0.626968700    -0.7202274    0.1260679  
   0.628968600    -0.6921337    0.2321505  
   0.630968500    -0.6485238    0.3326663  
   0.632968400    -0.5896712    0.4263226  
   0.634968300    -0.5167363    0.5105854  
   0.636968200    -0.4313729    0.5831448  
   0.638968100    -0.3353599    0.6418916  
   0.640968000    -0.2299296    0.6856449  
   0.642967900    -0.1184303    0.7125782  
   0.644967800    -0.0028511    0.7215514  
   0.646967700     0.1134844    0.7122697  
   0.648967600     0.2277717    0.6841105  
   0.650967500     0.3363906    0.6374542  
   0.652967400     0.4367355    0.5736987  
   0.654967300     0.5260714    0.4937424  
   0.656967200     0.6010518    0.3999298  
   0.658967100     0.6597629    0.2944508  
   0.660967000     0.7003470    0.1797634  
   0.662966900     0.7213429    0.0594166  
   0.664966800     0.7218159   -0.0637940  
   0.666966700     0.7015090   -0.1855803  
   0.668966600     0.6607590   -0.3013926  
   0.670966500     0.6014936   -0.4089360  
   0.672966400     0.5260842   -0.5051253  
   0.674966300     0.4360692   -0.5854612  
   0.676966200     0.3345797   -0.6489703  
   0.678966100     0.2252981   -0.6944385  
   0.680966000     0.1114091   -0.7211983  
   0.682965900    -0.0039424   -0.7292095  
   0.684965800    -0.1179050   -0.7185932  
   0.686965700    -0.2276082   -0.6903290  
   0.688965600    -0.3307694   -0.6458227  
   0.690965500    -0.4239984   -0.5855289  
   0.692965400    -0.5067274   -0.5130935  
   0.694965300    -0.5766148   -0.4294849  
   0.696965200    -0.6326770   -0.3371239  
   0.698965100    -0.6740562   -0.2374333  
   0.700965000    -0.6996945   -0.1327752  
   0.702964900    -0.7091857   -0.0258511  
   0.704964800    -0.7025023    0.0817219  
   0.706964700    -0.6791493    0.1871103  
   0.708964600    -0.6397525    0.2880945  
   0.710964500    -0.5853352    0.3826793  
   0.712964400    -0.5160180    0.4678977  
   0.714964300    -0.4336680    0.5414663  
   0.716964200    -0.3402212    0.6012987  
   0.718964100    -0.2384577    0.6454943  
   0.720964000    -0.1303753    0.6730279  
   0.722963900    -0.0187778    0.6825122  
   0.724963800     0.0933982    0.6737796  
   0.726963700     0.2029448    0.6467395  
   0.728963600     0.3068389    0.6017223  
   0.730963500     0.4018518    0.5389495  
   0.732963400     0.4849297    0.4623041  
   0.734963300     0.5547226    0.3726559  
   0.736963200     0.6152997    0.2579169  
   0.738963100     0.6535393    0.1339740  
   0.740963000     0.6674639    0.0057644  
   0.742962900     0.6571890   -0.1212799  
   0.744962800     0.6238487   -0.2435315  
   0.746962700     0.5690055   -0.3561780  
   0.748962600     0.4954160   -0.4560395  
   0.750962500     0.5469182   -0.3754339  
   0.752962400     0.4715190   -0.4723107  
   0.754962300     0.3807155   -0.5535808  
   0.756962200     0.2773213   -0.6170834  
   0.758962100     0.1651267   -0.6612356  
   0.760962000     0.0469162   -0.6845384  
   0.762961900    -0.0677372   -0.6874352  
   0.764961800    -0.1720550   -0.6735143  
   0.766961700    -0.2731133   -0.6439673  
   0.768961600    -0.3687084   -0.5989205  
   0.770961500    -0.4568597   -0.5398626  
   0.772961400    -0.5345442   -0.4674899  
   0.774961300    -0.6003655   -0.3839671  
   0.776961200    -0.6525936   -0.2906313  
   0.778961100    -0.6894990   -0.1901392  
   0.780961000    -0.7104710   -0.0847232  
   0.782960900    -0.7142486    0.0235176  
   0.784960800    -0.7009417    0.1316296  
   0.786960700    -0.6704622    0.2362071  
   0.788960600    -0.6235949    0.3353142  
   0.790960500    -0.5615113    0.4257675  
   0.792960400    -0.4857674    0.5052943  
   0.794960300    -0.3984347    0.5720404  
   0.796960200    -0.3013738    0.6239252  
   0.798960100    -0.1973419    0.6598037  
   0.800960000    -0.0889941    0.6792635  
   0.802959900     0.0216291    0.6810320  
   0.804959800     0.1310459    0.6650710  
   0.806959700     0.2370402    0.6318849  
   0.808959600     0.3363868    0.5820946  
   0.810959500     0.4271392    0.5167283  
   0.812959400     0.5064064    0.4374394  
   0.814959300     0.5719609    0.3456002  
   0.816959200     0.6221554    0.2441499  
   0.818959100     0.6551349    0.1353237  
   0.820959000     0.6697097    0.0221635  
   0.822958900     0.6656560   -0.0922266  
   0.824958800     0.6425824   -0.2044788  
   0.826958700     0.6015192   -0.3114955  
   0.828958600     0.5429534   -0.4104329  
   0.830958500     0.4690486   -0.4981240  
   0.832958400     0.3818047   -0.5724949  
   0.834958300     0.2838442   -0.6308392  
   0.836958200     0.1781853   -0.6723831  
   0.838958100     0.0673486   -0.6958500  
   0.840958000    -0.0447731   -0.7010528  
   0.842957900    -0.1563144   -0.6881917  
   0.844957800    -0.2636395   -0.6577033  
   0.846957700    -0.3640963   -0.6105235  
   0.848957600    -0.4552129   -0.5487135  
   0.850957500    -0.5350891   -0.4734698  
   0.852957400    -0.6017852   -0.3872269  
   0.854957300    -0.6540613   -0.2922628  
   0.856957200    -0.6908035   -0.1905839  
   0.858957100    -0.7113207   -0.0853198  
   0.860957000    -0.7155105    0.0210447  
   0.862956900    -0.7035710    0.1259512  
   0.864956800    -0.6764735    0.2274618  
   0.866956700    -0.6347203    0.3232365  
   0.868956600    -0.5789669    0.4110967  
   0.870956500    -0.5110276    0.4903382  
   0.872956400    -0.4316119    0.5587671  
   0.874956300    -0.3425690    0.6147859  
   0.876956200    -0.2450032    0.6571208  
   0.878956100    -0.1414515    0.6847268  
   0.880956000    -0.0340636    0.6960131  
   0.882955900     0.0747761    0.6903450  
   0.884955800     0.1822513    0.6680121  
   0.886955700     0.2856169    0.6284504  
   0.888955600     0.3824306    0.5725238  
   0.890955500     0.4694330    0.5009111  
   0.892955400     0.5443143    0.4157880  
   0.894955300     0.6047350    0.3189011  
