! MS46122B
! 2250307/22442219
! 7/22/2025 3:18:50 PM
! C:\USERS\SPARKY\DOCUMENTS\VNA_DATA\JULY22_2025\295\PORT4_MOS3.S1P
! CHANNEL.1
! TR.MEASUREMENT
! RAW.DATA
# GHZ S RI R 50.0
! FREQ.GHZ         S11RE         S11IM         
!; PortSelection: Port_1
   0.001000000     1.0459540   -0.0715345  
   0.002999900     0.9640456   -0.1941365  
   0.004999800     0.9032555   -0.2988718  
   0.006999700     0.8354155   -0.3961612  
   0.008999600     0.7553939   -0.4905974  
   0.010999500     0.6607367   -0.5795172  
   0.012999400     0.5458729   -0.6597896  
   0.014999300     0.4055270   -0.7245212  
   0.016999200     0.2346631   -0.7600995  
   0.018999100     0.0319385   -0.7469980  
   0.020999000    -0.1898019   -0.6527789  
   0.022998900    -0.3878362   -0.4463553  
   0.024998800    -0.4663722   -0.1336676  
   0.026998700    -0.3994439    0.2186179  
   0.028998600    -0.1504809    0.4725817  
   0.030998500     0.1609256    0.5630807  
   0.032998400     0.4106449    0.5071231  
   0.034998300     0.6363539    0.3936421  
   0.036998200     0.7635593    0.2422149  
   0.038998100     0.8337193    0.0880653  
   0.040998000     0.8622496   -0.0571048  
   0.042997900     0.8606554   -0.1892427  
   0.044997800     0.8132174   -0.2816218  
   0.046997700     0.7980280   -0.4103841  
   0.048997600     0.7474222   -0.5016164  
   0.050997500     0.6882043   -0.5802926  
   0.052997400     0.6221371   -0.6482178  
   0.054997300     0.5516731   -0.7051316  
   0.056997200     0.4745400   -0.7548016  
   0.058997100     0.3950881   -0.7943143  
   0.060997000     0.3122183   -0.8249947  
   0.062996900     0.2266625   -0.8468236  
   0.064996800     0.1387519   -0.8592036  
   0.066996700     0.0486155   -0.8624309  
   0.068996600    -0.0426065   -0.8552266  
   0.070996500    -0.1348279   -0.8383008  
   0.072996400    -0.2268541   -0.8086165  
   0.074996300    -0.3172882   -0.7670484  
   0.076996200    -0.4051047   -0.7123551  
   0.078996100    -0.4880875   -0.6442889  
   0.080996000    -0.5642968   -0.5616376  
   0.082995900    -0.6308195   -0.4645695  
   0.084995800    -0.6838059   -0.3533585  
   0.086995700    -0.7212940   -0.2297858  
   0.088995600    -0.7381082   -0.0950336  
   0.090995500    -0.7310270    0.0475336  
   0.092995400    -0.6969130    0.1930674  
   0.094995300    -0.6317208    0.3352450  
   0.096995200    -0.5357359    0.4661189  
   0.098995100    -0.4101001    0.5772077  
   0.100995000    -0.2588106    0.6614457  
   0.102994900    -0.0918278    0.7096912  
   0.104994800     0.0825498    0.7192624  
   0.106994700     0.2533398    0.6890833  
   0.108994600     0.4110229    0.6236088  
   0.110994500     0.5475654    0.5277386  
   0.112994400     0.6570145    0.4089209  
   0.114994300     0.7369160    0.2751155  
   0.116994200     0.7867113    0.1339945  
   0.118994100     0.8079084   -0.0078033  
   0.120994000     0.8048198   -0.1451545  
   0.122993900     0.7777637   -0.2740089  
   0.124993800     0.7313890   -0.3912472  
   0.126993700     0.6694648   -0.4958405  
   0.128993600     0.5943586   -0.5854259  
   0.130993500     0.5102015   -0.6610556  
   0.132993400     0.4185227   -0.7223132  
   0.134993300     0.3221372   -0.7689510  
   0.136993200     0.2222995   -0.8011627  
   0.138993100     0.1204446   -0.8195926  
   0.140993000     0.0187114   -0.8243974  
   0.142992900    -0.0823922   -0.8158730  
   0.144992800    -0.1813052   -0.7962032  
   0.146992700    -0.2764343   -0.7622283  
   0.148992600    -0.3671842   -0.7162944  
   0.150992500    -0.4504332   -0.6574622  
   0.152992400    -0.5277759   -0.5882565  
   0.154992300    -0.5957241   -0.5086156  
   0.156992200    -0.6533704   -0.4183750  
   0.158992100    -0.6992018   -0.3194588  
   0.160992000    -0.7311671   -0.2123694  
   0.162991900    -0.7478988   -0.0991891  
   0.164991800    -0.7476420    0.0185701  
   0.166991700    -0.7287125    0.1378543  
   0.168991600    -0.6904390    0.2556583  
   0.170991500    -0.6318547    0.3695742  
   0.172991400    -0.5533202    0.4744777  
   0.174991300    -0.4557429    0.5665567  
   0.176991200    -0.3405285    0.6420950  
   0.178991100    -0.2112523    0.6972604  
   0.180991000    -0.0720634    0.7289420  
   0.182990900     0.0721211    0.7337664  
   0.184990800     0.2166788    0.7111769  
   0.186990700     0.3544422    0.6615403  
   0.188990600     0.4624062    0.6000597  
   0.190990500     0.5860621    0.4932213  
   0.192990400     0.6762699    0.3772575  
   0.194990300     0.7409486    0.2511048  
   0.196990200     0.7806279    0.1187190  
   0.198990100     0.7964961   -0.0164496  
   0.200990000     0.7885250   -0.1492264  
   0.202989900     0.7587065   -0.2759006  
   0.204989800     0.7093259   -0.3923382  
   0.206989700     0.6445779   -0.4975675  
   0.208989600     0.5649951   -0.5881603  
   0.210989500     0.4746722   -0.6636857  
   0.212989400     0.3750883   -0.7236611  
   0.214989300     0.2701970   -0.7672422  
   0.216989200     0.1623936   -0.7942876  
   0.218989100     0.0534842   -0.8053908  
   0.220989000    -0.0550334   -0.8012848  
   0.222988900    -0.1607974   -0.7814034  
   0.224988800    -0.2627811   -0.7472709  
   0.226988700    -0.3583451   -0.6993790  
   0.228988600    -0.4457712   -0.6391417  
   0.230988500    -0.5243223   -0.5666972  
   0.232988400    -0.5913226   -0.4825577  
   0.234988300    -0.6472227   -0.3890786  
   0.236988200    -0.6896837   -0.2873579  
   0.238988100    -0.7168101   -0.1790993  
   0.240988000    -0.7276934   -0.0665708  
   0.242987900    -0.7210968    0.0479949  
   0.244987800    -0.6964525    0.1622092  
   0.246987700    -0.6530660    0.2739619  
   0.248987600    -0.5906308    0.3794615  
   0.250987500    -0.5097659    0.4749738  
   0.252987400    -0.4119126    0.5570302  
   0.254987300    -0.3000810    0.6218879  
   0.256987200    -0.1766247    0.6666510  
   0.258987100    -0.0450612    0.6902863  
   0.260987000     0.0905614    0.6884009  
   0.262986900     0.2250813    0.6612387  
   0.264986800     0.3529390    0.6094915  
   0.266986700     0.4692225    0.5345650  
   0.268986600     0.5690363    0.4398716  
   0.270986500     0.6488116    0.3297004  
   0.272986400     0.7065883    0.2077266  
   0.274986300     0.7409931    0.0792302  
   0.276986200     0.7518298   -0.0513977  
   0.278986100     0.7400532   -0.1798101  
   0.280986000     0.7064472   -0.3022221  
   0.282985900     0.6542655   -0.4147897  
   0.284985800     0.5856013   -0.5153145  
   0.286985700     0.5036322   -0.6011732  
   0.288985600     0.4116831   -0.6711463  
   0.290985500     0.3128017   -0.7249738  
   0.292985400     0.2092611   -0.7628112  
   0.294985300     0.1034291   -0.7847061  
   0.296985200    -0.0032657   -0.7911057  
   0.298985100    -0.1089697   -0.7823518  
   0.300985000    -0.2114868   -0.7589998  
   0.302984900    -0.3087574   -0.7223362  
   0.304984800    -0.3993078   -0.6730767  
   0.306984700    -0.4815053   -0.6123265  
   0.308984600    -0.5541708   -0.5418713  
   0.310984500    -0.6166092   -0.4624223  
   0.312984400    -0.6682549   -0.3745301  
   0.314984300    -0.7075571   -0.2799675  
   0.316984200    -0.7339275   -0.1795613  
   0.318984100    -0.7456595   -0.0742742  
   0.320984000    -0.7419359    0.0344346  
   0.322983900    -0.7206624    0.1432756  
   0.324983800    -0.6817453    0.2485915  
   0.326983700    -0.6250815    0.3464322  
   0.328983600    -0.5525429    0.4332232  
   0.330983500    -0.4676092    0.5057657  
   0.332983400    -0.3742911    0.5624255  
   0.334983300    -0.2752852    0.6038480  
   0.336983200    -0.1726552    0.6310724  
   0.338983100    -0.0672205    0.6439756  
   0.340983000     0.0398779    0.6424148  
   0.342982900     0.1470962    0.6249300  
   0.344982800     0.2525585    0.5906622  
   0.346982700     0.3538728    0.5386791  
   0.348982600     0.4461690    0.4691225  
   0.350982500     0.5273419    0.3843534  
   0.352982400     0.5935624    0.2859293  
   0.354982300     0.6432099    0.1720770  
   0.356982200     0.6725242    0.0387415  
   0.358982100     0.6747841   -0.0981859  
   0.360982000     0.6499841   -0.2324431  
   0.362981900     0.5991520   -0.3591170  
   0.364981800     0.5248990   -0.4731576  
   0.366981700     0.4297047   -0.5701112  
   0.368981600     0.3183881   -0.6465744  
   0.370981500     0.1949894   -0.6996684  
   0.372981400     0.0649099   -0.7282766  
   0.374981300    -0.0676785   -0.7317947  
   0.376981200     0.0434439   -0.7328609  
   0.378981100    -0.0871927   -0.7314910  
   0.380981000    -0.2147843   -0.7063260  
   0.382980900    -0.3238979   -0.6646175  
   0.384980800    -0.4196326   -0.6085088  
   0.386980700    -0.5047587   -0.5390042  
   0.388980600    -0.5782142   -0.4575593  
   0.390980500    -0.6379065   -0.3665202  
   0.392980400    -0.6831326   -0.2684240  
   0.394980300    -0.7125607   -0.1654056  
   0.396980200    -0.7267183   -0.0586285  
   0.398980100    -0.7246009    0.0488377  
   0.400980000    -0.7067599    0.1555756  
   0.402979900    -0.6725357    0.2594009  
   0.404979800    -0.6233332    0.3570814  
   0.406979700    -0.5593398    0.4470695  
   0.408979600    -0.4814851    0.5270395  
   0.410979500    -0.3906049    0.5949686  
   0.412979400    -0.2891695    0.6492099  
   0.414979300    -0.1786411    0.6855932  
   0.416979200    -0.0623798    0.7052505  
   0.418979100     0.0563841    0.7061222  
   0.420979000     0.1749902    0.6869471  
   0.422978900     0.2901773    0.6481971  
   0.424978800     0.3983397    0.5901032  
   0.426978700     0.4956838    0.5138894  
   0.428978600     0.5790162    0.4216507  
   0.430978500     0.6453061    0.3167722  
   0.432978400     0.6927653    0.2023201  
   0.434978300     0.7210875    0.0816316  
   0.436978200     0.7271355   -0.0418172  
   0.438978100     0.7122573   -0.1639070  
   0.440978000     0.6772085   -0.2810523  
   0.442977900     0.6234835   -0.3896878  
   0.444977800     0.5526394   -0.4870327  
   0.446977700     0.4679394   -0.5700113  
   0.448977600     0.3716333   -0.6378580  
   0.450977500     0.2665062   -0.6884515  
   0.452977400     0.1559052   -0.7206064  
   0.454977300     0.0415900   -0.7348937  
   0.456977200    -0.0724717   -0.7308227  
   0.458977100    -0.1833140   -0.7087962  
   0.460977000    -0.2887378   -0.6700571  
   0.462976900    -0.3851193   -0.6161267  
   0.464976800    -0.4718682   -0.5482552  
   0.466976700    -0.5467240   -0.4679767  
   0.468976600    -0.6077584   -0.3777754  
   0.470976500    -0.6544660   -0.2795491  
   0.472976400    -0.6855170   -0.1752610  
   0.474976300    -0.7000594   -0.0674022  
   0.476976200    -0.6975088    0.0413417  
   0.478976100    -0.6781343    0.1484632  
   0.480976000    -0.6426237    0.2514601  
   0.482975900    -0.5910270    0.3481190  
   0.484975800    -0.5243500    0.4359115  
   0.486975700    -0.4436631    0.5127910  
   0.488975600    -0.3511626    0.5761159  
   0.490975500    -0.2482572    0.6240792  
   0.492975400    -0.1377774    0.6541169  
   0.494975300    -0.0229466    0.6655399  
   0.496975200     0.0928604    0.6568250  
   0.498975100     0.2057516    0.6282977  
   0.500975000     0.3116063    0.5804265  
   0.502974900     0.4076162    0.5150272  
   0.504974800     0.4899900    0.4340748  
   0.506974700     0.5565628    0.3404418  
   0.508974600     0.6049596    0.2371255  
   0.510974500     0.6349005    0.1290498  
   0.512974400     0.6456648    0.0194519  
   0.514974300     0.6368636   -0.0871257  
   0.516974200     0.6130785   -0.1883550  
   0.518974100     0.5750470   -0.2826375  
   0.520974000     0.5250045   -0.3680565  
   0.522973900     0.4647496   -0.4438783  
   0.524973800     0.3956109   -0.5094569  
   0.526973700     0.3187767   -0.5649819  
   0.528973600     0.2357025   -0.6099290  
   0.530973500     0.1466153   -0.6434045  
   0.532973400     0.0530824   -0.6645852  
   0.534973300    -0.0436016   -0.6722372  
   0.536973200    -0.1422041   -0.6656633  
   0.538973100    -0.2397023   -0.6442320  
   0.540973000    -0.3337798   -0.6077905  
   0.542972900    -0.4224932   -0.5566227  
   0.544972800    -0.5030306   -0.4911751  
   0.546972700    -0.5730374   -0.4122497  
   0.548972600    -0.6305376   -0.3227928  
   0.550972500    -0.6729864   -0.2241959  
   0.552972400    -0.6991565   -0.1190324  
   0.554972300    -0.7080104   -0.0107161  
   0.556972200    -0.6993212    0.0987311  
   0.558972100    -0.6729939    0.2055622  
   0.560972000    -0.6295906    0.3070277  
   0.562971900    -0.5704834    0.4001940  
   0.564971800    -0.4968186    0.4832910  
   0.566971700    -0.4106358    0.5535285  
   0.568971600    -0.3139468    0.6092421  
   0.570971500    -0.2088512    0.6490656  
   0.572971400    -0.0982674    0.6712589  
   0.574971300     0.0157718    0.6752184  
   0.576971200     0.1299150    0.6602266  
   0.578971100     0.2410973    0.6260650  
   0.580971000     0.3452796    0.5738467  
   0.582970900     0.4397570    0.5043916  
   0.584970800     0.5212021    0.4196930  
   0.586970700     0.5873424    0.3223768  
   0.588970600     0.6360035    0.2151562  
   0.590970500     0.6657856    0.1010771  
   0.592970400     0.6756496   -0.0165426  
   0.594970300     0.6652513   -0.1338486  
   0.596970200     0.6353568   -0.2477306  
   0.598970100     0.5865108   -0.3544166  
   0.600970000     0.5205513   -0.4510247  
   0.602969900     0.4398363   -0.5348353  
   0.604969800     0.3462563   -0.6034966  
   0.606969700     0.2438679   -0.6551054  
   0.608969600     0.1342866   -0.6891293  
   0.610969500     0.0214602   -0.7045493  
   0.612969400    -0.0910827   -0.7011051  
   0.614969300    -0.2006497   -0.6801162  
   0.616969200    -0.3039463   -0.6423602  
   0.618969100    -0.3990319   -0.5892155  
   0.620969000    -0.4837254   -0.5228896  
   0.622968900    -0.5570404   -0.4445182  
   0.624968800    -0.6171093   -0.3564685  
   0.626968700    -0.6633729   -0.2605529  
   0.628968600    -0.6942257   -0.1587736  
   0.630968500    -0.7094598   -0.0538084  
   0.632968400    -0.7089534    0.0521488  
   0.634968300    -0.6922298    0.1572818  
   0.636968200    -0.6597082    0.2587622  
   0.638968100    -0.6121639    0.3544871  
   0.640968000    -0.5505190    0.4424906  
   0.642967900    -0.4757555    0.5204008  
   0.644967800    -0.3895015    0.5867527  
   0.646967700    -0.2934352    0.6391070  
   0.648967600    -0.1897242    0.6761293  
   0.650967500    -0.0809335    0.6968364  
   0.652967400     0.0301845    0.7004390  
   0.654967300     0.1418449    0.6864025  
   0.656967200     0.2499975    0.6543629  
   0.658967100     0.3529674    0.6051892  
   0.660967000     0.4473472    0.5392354  
   0.662966900     0.5309317    0.4579712  
   0.664966800     0.6003929    0.3629272  
   0.666966700     0.6536069    0.2568000  
   0.668966600     0.6886398    0.1429565  
   0.670966500     0.7040778    0.0241196  
   0.672966400     0.7004794   -0.0953436  
   0.674966300     0.6755272   -0.2118207  
   0.676966200     0.6318983   -0.3220704  
   0.678966100     0.5707346   -0.4227362  
   0.680966000     0.4942807   -0.5111806  
   0.682965900     0.4048438   -0.5854153  
   0.684965800     0.3058320   -0.6431511  
   0.686965700     0.1993530   -0.6839229  
   0.688965600     0.0885743   -0.7065525  
   0.690965500    -0.0229614   -0.7101864  
   0.692965400    -0.1323054   -0.6974537  
   0.694965300    -0.2372545   -0.6679251  
   0.696965200    -0.3354999   -0.6231325  
   0.698965100    -0.4247489   -0.5642288  
   0.700965000    -0.5034360   -0.4928370  
   0.702964900    -0.5699052   -0.4106662  
   0.704964800    -0.6231719   -0.3201332  
   0.706964700    -0.6617793   -0.2227547  
   0.708964600    -0.6852340   -0.1203328  
   0.710964500    -0.6935704   -0.0160402  
   0.712964400    -0.6853325    0.0886384  
   0.714964300    -0.6610696    0.1907960  
   0.716964200    -0.6216049    0.2881529  
   0.718964100    -0.5674672    0.3782542  
   0.720964000    -0.5003277    0.4592186  
   0.722963900    -0.4209525    0.5290352  
   0.724963800    -0.3314160    0.5857452  
   0.726963700    -0.2331863    0.6277562  
   0.728963600    -0.1289808    0.6540826  
   0.730963500    -0.0218554    0.6626177  
   0.732963400     0.0864200    0.6541044  
   0.734963300     0.1921425    0.6277168  
   0.736963200     0.3068561    0.5770108  
   0.738963100     0.4108038    0.5051826  
   0.740963000     0.4995120    0.4155302  
   0.742962900     0.5693977    0.3106793  
   0.744962800     0.6180806    0.1953030  
   0.746962700     0.6443526    0.0737743  
   0.748962600     0.6476556   -0.0499488  
   0.750962500     0.6344920    0.0491173  
   0.752962400     0.6342087   -0.0724724  
   0.754962300     0.6120198   -0.1912664  
   0.756962200     0.5691296   -0.3034203  
   0.758962100     0.5071266   -0.4053285  
   0.760962000     0.4282756   -0.4944004  
   0.762961900     0.3399362   -0.5643992  
   0.764961800     0.2497417   -0.6148037  
   0.766961700     0.1531887   -0.6510700  
   0.768961600     0.0520420   -0.6718552  
   0.770961500    -0.0513341   -0.6771016  
   0.772961400    -0.1539305   -0.6665206  
   0.774961300    -0.2542607   -0.6402624  
   0.776961200    -0.3497037   -0.5988970  
   0.778961100    -0.4377056   -0.5426940  
   0.780961000    -0.5163727   -0.4732678  
   0.782960900    -0.5831344   -0.3921002  
   0.784960800    -0.6367471   -0.3008753  
   0.786960700    -0.6753050   -0.2020092  
   0.788960600    -0.6980039   -0.0978128  
   0.790960500    -0.7038561    0.0085375  
   0.792960400    -0.6933044    0.1143999  
   0.794960300    -0.6658338    0.2176380  
   0.796960200    -0.6226783    0.3151301  
   0.798960100    -0.5649598    0.4046339  
   0.800960000    -0.4939057    0.4835094  
   0.802959900    -0.4110097    0.5509357  
   0.804959800    -0.3189365    0.6046041  
   0.806959700    -0.2192908    0.6431679  
   0.808959600    -0.1148455    0.6659117  
   0.810959500    -0.0076681    0.6720824  
   0.812959400     0.0998308    0.6607631  
   0.814959300     0.2046104    0.6329319  
   0.816959200     0.3041741    0.5884759  
   0.818959100     0.3956603    0.5286654  
   0.820959000     0.4768776    0.4544105  
   0.822958900     0.5452319    0.3674037  
   0.824958800     0.5991616    0.2700035  
   0.826958700     0.6365800    0.1645938  
   0.828958600     0.6559321    0.0540676  
   0.830958500     0.6570453   -0.0583071  
   0.832958400     0.6395137   -0.1695047  
   0.834958300     0.6041296   -0.2763029  
   0.836958200     0.5512539   -0.3755911  
   0.838958100     0.4830500   -0.4646616  
   0.840958000     0.4008864   -0.5415478  
   0.842957900     0.3074861   -0.6034043  
   0.844957800     0.2054311   -0.6491590  
   0.846957700     0.0975581   -0.6773050  
   0.848957600    -0.0125615   -0.6874528  
   0.850957500    -0.1228297   -0.6798545  
   0.852957400    -0.2294369   -0.6546898  
   0.854957300    -0.3302250   -0.6127607  
   0.856957200    -0.4224028   -0.5560440  
   0.858957100    -0.5037397   -0.4859942  
   0.860957000    -0.5724849   -0.4050128  
   0.862956900    -0.6278485   -0.3153716  
   0.864956800    -0.6682205   -0.2192311  
   0.866956700    -0.6934882   -0.1192970  
   0.868956600    -0.7029568   -0.0169572  
   0.870956500    -0.6975254    0.0850979  
   0.872956400    -0.6771829    0.1851109  
   0.874956300    -0.6418861    0.2808751  
   0.876956200    -0.5930746    0.3709612  
   0.878956100    -0.5310797    0.4531062  
   0.880956000    -0.4569379    0.5252127  
   0.882955900    -0.3725909    0.5859084  
   0.884955800    -0.2795340    0.6334733  
   0.886955700    -0.1800148    0.6667740  
   0.888955600    -0.0757488    0.6845956  
   0.890955500     0.0306622    0.6859409  
   0.892955400     0.1368012    0.6711410  
   0.894955300     0.2399567    0.6395305  
