! MS46122B
! 2250307/22442219
! 7/24/2025 12:48:27 PM
! C:\USERS\SPARKY\DOCUMENTS\VNA_DATA\JULY24_2025\295K\PORT6_MOS3_REPEAT1.S1P
! CHANNEL.1
! TR.MEASUREMENT
! RAW.DATA
# GHZ S RI R 50.0
! FREQ.GHZ         S11RE         S11IM         
!; PortSelection: Port_1
   0.001000000     1.0454310   -0.0722287  
   0.002999900     0.9634894   -0.1944938  
   0.004999800     0.9026496   -0.2990186  
   0.006999700     0.8346850   -0.3961534  
   0.008999600     0.7547342   -0.4903482  
   0.010999500     0.6601333   -0.5789260  
   0.012999400     0.5454088   -0.6587930  
   0.014999300     0.4053682   -0.7230976  
   0.016999200     0.2350356   -0.7582291  
   0.018999100     0.0331921   -0.7447522  
   0.020999000    -0.1871820   -0.6505846  
   0.022998900    -0.3835745   -0.4450586  
   0.024998800    -0.4612971   -0.1344874  
   0.026998700    -0.3947939    0.2151116  
   0.028998600    -0.1479511    0.4674149  
   0.030998500     0.1611525    0.5579050  
   0.032998400     0.4094169    0.5029677  
   0.034998300     0.6343396    0.3902836  
   0.036998200     0.7611559    0.2398681  
   0.038998100     0.8312955    0.0862804  
   0.040998000     0.8598322   -0.0581106  
   0.042997900     0.8583550   -0.1898109  
   0.044997800     0.8111172   -0.2818374  
   0.046997700     0.7959518   -0.4102487  
   0.048997600     0.7455895   -0.5012152  
   0.050997500     0.6864992   -0.5796940  
   0.052997400     0.6205342   -0.6473759  
   0.054997300     0.5497483   -0.7045907  
   0.056997200     0.4733323   -0.7536082  
   0.058997100     0.3940476   -0.7929207  
   0.060997000     0.3113870   -0.8234826  
   0.062996900     0.2260372   -0.8451683  
   0.064996800     0.1383865   -0.8573927  
   0.066996700     0.0484026   -0.8605068  
   0.068996600    -0.0425312   -0.8532994  
   0.070996500    -0.1344157   -0.8362532  
   0.072996400    -0.2261073   -0.8065776  
   0.074996300    -0.3162721   -0.7650390  
   0.076996200    -0.4036955   -0.7103786  
   0.078996100    -0.4863635   -0.6423842  
   0.080996000    -0.5622351   -0.5599238  
   0.082995900    -0.6283959   -0.4631238  
   0.084995800    -0.6810631   -0.3522556  
   0.086995700    -0.7182767   -0.2290506  
   0.088995600    -0.7348440   -0.0947511  
   0.090995500    -0.7275954    0.0472094  
   0.092995400    -0.6934146    0.1921945  
   0.094995300    -0.6283824    0.3336699  
   0.096995200    -0.5326362    0.4639728  
   0.098995100    -0.4074187    0.5744919  
   0.100995000    -0.2566412    0.6582825  
   0.102994900    -0.0901819    0.7062008  
   0.104994800     0.0834036    0.7156247  
   0.106994700     0.2534730    0.6853998  
   0.108994600     0.4105368    0.6200999  
   0.110994500     0.5464699    0.5246035  
   0.112994400     0.6554580    0.4060835  
   0.114994300     0.7349735    0.2727251  
   0.116994200     0.7845031    0.1320655  
   0.118994100     0.8055763   -0.0092215  
   0.120994000     0.8023514   -0.1461652  
   0.122993900     0.7752303   -0.2745728  
   0.124993800     0.7289408   -0.3913579  
   0.126993700     0.6671289   -0.4955617  
   0.128993600     0.5921864   -0.5848046  
   0.130993500     0.5081468   -0.6601913  
   0.132993400     0.4167467   -0.7210585  
   0.134993300     0.3206905   -0.7674170  
   0.136993200     0.2210819   -0.7994617  
   0.138993100     0.1195002   -0.8176736  
   0.140993000     0.0183155   -0.8222314  
   0.142992900    -0.0826573   -0.8137279  
   0.144992800    -0.1812223   -0.7940053  
   0.146992700    -0.2761011   -0.7599355  
   0.148992600    -0.3663825   -0.7140815  
   0.150992500    -0.4494527   -0.6554102  
   0.152992400    -0.5263423   -0.5862916  
   0.154992300    -0.5940373   -0.5066844  
   0.156992200    -0.6513399   -0.4167926  
   0.158992100    -0.6968378   -0.3181403  
   0.160992000    -0.7285826   -0.2112059  
   0.162991900    -0.7450765   -0.0984953  
   0.164991800    -0.7446817    0.0188855  
   0.166991700    -0.7256774    0.1377261  
   0.168991600    -0.6873596    0.2551129  
   0.170991500    -0.6289539    0.3684214  
   0.172991400    -0.5503926    0.4730341  
   0.174991300    -0.4530072    0.5647004  
   0.176991200    -0.3382628    0.6398978  
   0.178991100    -0.2091649    0.6946504  
   0.180991000    -0.0704050    0.7260293  
   0.182990900     0.0733968    0.7306999  
   0.184990800     0.2173605    0.7079491  
   0.186990700     0.3547501    0.6581483  
   0.188990600     0.4622589    0.5968066  
   0.190990500     0.5853000    0.4900271  
   0.192990400     0.6750923    0.3743952  
   0.194990300     0.7392380    0.2487140  
   0.196990200     0.7788447    0.1163191  
   0.198990100     0.7941740   -0.0179890  
   0.200990000     0.7861785   -0.1506633  
   0.202989900     0.7561586   -0.2766794  
   0.204989800     0.7067671   -0.3929230  
   0.206989700     0.6419982   -0.4977324  
   0.208989600     0.5625685   -0.5877916  
   0.210989500     0.4722952   -0.6630364  
   0.212989400     0.3730035   -0.7225469  
   0.214989300     0.2682338   -0.7658673  
   0.216989200     0.1608906   -0.7925354  
   0.218989100     0.0521099   -0.8034482  
   0.220989000    -0.0560338   -0.7991253  
   0.222988900    -0.1613507   -0.7789472  
   0.224988800    -0.2628951   -0.7448409  
   0.226988700    -0.3582030   -0.6968899  
   0.228988600    -0.4453521   -0.6365744  
   0.230988500    -0.5234233   -0.5642700  
   0.232988400    -0.5899731   -0.4802375  
   0.234988300    -0.6455514   -0.3869062  
   0.236988200    -0.6876622   -0.2854441  
   0.238988100    -0.7144775   -0.1774150  
   0.240988000    -0.7250713   -0.0652381  
   0.242987900    -0.7182332    0.0490436  
   0.244987800    -0.6934111    0.1627780  
   0.246987700    -0.6499020    0.2741165  
   0.248987600    -0.5875105    0.3791413  
   0.250987500    -0.5065898    0.4742529  
   0.252987400    -0.4088193    0.5557761  
   0.254987300    -0.2971715    0.6201915  
   0.256987200    -0.1739385    0.6645459  
   0.258987100    -0.0427733    0.6877390  
   0.260987000     0.0922455    0.6855842  
   0.262986900     0.2265494    0.6581842  
   0.264986800     0.3538678    0.6062587  
   0.266986700     0.4695102    0.5312485  
   0.268986600     0.5688927    0.4366243  
   0.270986500     0.6480294    0.3265110  
   0.272986400     0.7054646    0.2048396  
   0.274986300     0.7394781    0.0765948  
   0.276986200     0.7499412   -0.0537038  
   0.278986100     0.7378302   -0.1817672  
   0.280986000     0.7040276   -0.3037744  
   0.282985900     0.6516880   -0.4158624  
   0.284985800     0.5829098   -0.5159835  
   0.286985700     0.5009914   -0.6013808  
   0.288985600     0.4090662   -0.6708092  
   0.290985500     0.3102826   -0.7242704  
   0.292985400     0.2069127   -0.7617425  
   0.294985300     0.1012765   -0.7833323  
   0.296985200    -0.0051574   -0.7893654  
   0.298985100    -0.1106679   -0.7802795  
   0.300985000    -0.2126807   -0.7567860  
   0.302984900    -0.3096314   -0.7199152  
   0.304984800    -0.3997443   -0.6705644  
   0.306984700    -0.4815677   -0.6097921  
   0.308984600    -0.5538886   -0.5392742  
   0.310984500    -0.6159782   -0.4596878  
   0.312984400    -0.6672496   -0.3722232  
   0.314984300    -0.7062550   -0.2775821  
   0.316984200    -0.7321612   -0.1774207  
   0.318984100    -0.7436592   -0.0722737  
   0.320984000    -0.7391688    0.0360025  
   0.322983900    -0.7179678    0.1446898  
   0.324983800    -0.6788361    0.2493950  
   0.326983700    -0.6219846    0.3467698  
   0.328983600    -0.5494249    0.4331959  
   0.330983500    -0.4645821    0.5052304  
   0.332983400    -0.3714920    0.5615590  
   0.334983300    -0.2725973    0.6026342  
   0.336983200    -0.1703030    0.6295874  
   0.338983100    -0.0650040    0.6422266  
   0.340983000     0.0418661    0.6404292  
   0.342982900     0.1487611    0.6227129  
   0.344982800     0.2541609    0.5881806  
   0.346982700     0.3551196    0.5360062  
   0.348982600     0.4470067    0.4662814  
   0.350982500     0.5276927    0.3815851  
   0.352982400     0.5935345    0.2828804  
   0.354982300     0.6427189    0.1690627  
   0.356982200     0.6714541    0.0358294  
   0.358982100     0.6732073   -0.1008384  
   0.360982000     0.6479264   -0.2347693  
   0.362981900     0.5966861   -0.3609640  
   0.364981800     0.5221208   -0.4744713  
   0.366981700     0.4267210   -0.5709214  
   0.368981600     0.3152511   -0.6467044  
   0.370981500     0.1919491   -0.6992335  
   0.372981400     0.0620390   -0.7272592  
   0.374981300    -0.0702964   -0.7301974  
   0.376981200     0.0406272   -0.7316441  
   0.378981100    -0.0896813   -0.7297376  
   0.380981000    -0.2168029   -0.7041098  
   0.382980900    -0.3257163   -0.6620890  
   0.384980800    -0.4206682   -0.6057822  
   0.386980700    -0.5056288   -0.5360169  
   0.388980600    -0.5784724   -0.4544420  
   0.390980500    -0.6376065   -0.3634180  
   0.392980400    -0.6822851   -0.2654772  
   0.394980300    -0.7113104   -0.1623994  
   0.396980200    -0.7249990   -0.0559474  
   0.398980100    -0.7224826    0.0513976  
   0.400980000    -0.7042426    0.1577195  
   0.402979900    -0.6696773    0.2611710  
   0.404979800    -0.6202722    0.3583268  
   0.406979700    -0.5560368    0.4479917  
   0.408979600    -0.4780048    0.5274733  
   0.410979500    -0.3872298    0.5947951  
   0.412979400    -0.2856612    0.6486512  
   0.414979300    -0.1752085    0.6845295  
   0.416979200    -0.0590898    0.7036808  
   0.418979100     0.0595938    0.7040719  
   0.420979000     0.1777639    0.6844657  
   0.422978900     0.2926022    0.6452979  
   0.424978800     0.4003167    0.5868346  
   0.426978700     0.4972427    0.5103501  
   0.428978600     0.5799993    0.4179149  
   0.430978500     0.6456410    0.3129260  
   0.432978400     0.6925128    0.1983506  
   0.434978300     0.7202362    0.0777217  
   0.436978200     0.7257047   -0.0455609  
   0.438978100     0.7102600   -0.1673588  
   0.440978000     0.6748104   -0.2840571  
   0.442977900     0.6205443   -0.3923579  
   0.444977800     0.5493090   -0.4891538  
   0.446977700     0.4642156   -0.5716894  
   0.448977600     0.3677214   -0.6388755  
   0.450977500     0.2626936   -0.6887078  
   0.452977400     0.1519314   -0.7202749  
   0.454977300     0.0380194   -0.7339240  
   0.456977200    -0.0759094   -0.7291852  
   0.458977100    -0.1862203   -0.7067469  
   0.460977000    -0.2912325   -0.6675541  
   0.462976900    -0.3871825   -0.6132197  
   0.464976800    -0.4735214   -0.5449963  
   0.466976700    -0.5476565   -0.4646795  
   0.468976600    -0.6081181   -0.3743566  
   0.470976500    -0.6542977   -0.2760879  
   0.472976400    -0.6847709   -0.1719016  
   0.474976300    -0.6987510   -0.0642894  
   0.476976200    -0.6956506    0.0441500  
   0.478976100    -0.6758978    0.1511879  
   0.480976000    -0.6399708    0.2536090  
   0.482975900    -0.5880052    0.3498968  
   0.484975800    -0.5210322    0.4371193  
   0.486975700    -0.4401471    0.5135853  
   0.488975600    -0.3474950    0.5763842  
   0.490975500    -0.2445514    0.6236625  
   0.492975400    -0.1339847    0.6532487  
   0.494975300    -0.0194462    0.6640903  
   0.496975200     0.0962314    0.6548273  
   0.498975100     0.2088242    0.6257368  
   0.500975000     0.3143281    0.5773115  
   0.502974900     0.4097992    0.5115578  
   0.504974800     0.4916446    0.4303229  
   0.506974700     0.5576067    0.3364575  
   0.508974600     0.6053924    0.2329870  
   0.510974500     0.6345930    0.1249018  
   0.512974400     0.6449416    0.0153630  
   0.514974300     0.6354771   -0.0910468  
   0.516974200     0.6111859   -0.1918702  
   0.518974100     0.5726985   -0.2860208  
   0.520974000     0.5221496   -0.3709280  
   0.522973900     0.4615502   -0.4463322  
   0.524973800     0.3921119   -0.5114536  
   0.526973700     0.3150471   -0.5664487  
   0.528973600     0.2318727   -0.6107645  
   0.530973500     0.1427000   -0.6437026  
   0.532973400     0.0490008   -0.6642849  
   0.534973300    -0.0475484   -0.6713530  
   0.536973200    -0.1459758   -0.6642125  
   0.538973100    -0.2433072   -0.6421944  
   0.540973000    -0.3369986   -0.6051487  
   0.542972900    -0.4252580   -0.5533804  
   0.544972800    -0.5053051   -0.4875771  
   0.546972700    -0.5746261   -0.4083433  
   0.548972600    -0.6314538   -0.3186587  
   0.550972500    -0.6731594   -0.2199399  
   0.552972400    -0.6986420   -0.1147477  
   0.554972300    -0.7067466   -0.0065553  
   0.556972200    -0.6973733    0.1026542  
   0.558972100    -0.6703754    0.2091578  
   0.560972000    -0.6264038    0.3102129  
   0.562971900    -0.5667982    0.4028618  
   0.564971800    -0.4926735    0.4853205  
   0.566971700    -0.4061644    0.5549400  
   0.568971600    -0.3092167    0.6099440  
   0.570971500    -0.2039779    0.6490434  
   0.572971400    -0.0933786    0.6704513  
   0.574971300     0.0205382    0.6736878  
   0.576971200     0.1345209    0.6578945  
   0.578971100     0.2453771    0.6230757  
   0.580971000     0.3490122    0.5700433  
   0.582970900     0.4430019    0.5000892  
   0.584970800     0.5236958    0.4150062  
   0.586970700     0.5892822    0.3170359  
   0.588970600     0.6369848    0.2098093  
   0.590970500     0.6659936    0.0954098  
   0.592970400     0.6749650   -0.0222283  
   0.594970300     0.6636186   -0.1392206  
   0.596970200     0.6329882   -0.2527815  
   0.598970100     0.5834050   -0.3589925  
   0.600970000     0.5168856   -0.4548603  
   0.602969900     0.4356992   -0.5378895  
   0.604969800     0.3416397   -0.6058215  
   0.606969700     0.2389525   -0.6567366  
   0.608969600     0.1291821   -0.6900700  
   0.610969500     0.0165269   -0.7044509  
   0.612969400    -0.0959295   -0.7001720  
   0.614969300    -0.2050387   -0.6785923  
   0.616969200    -0.3080526   -0.6398727  
   0.618969100    -0.4025363   -0.5863216  
   0.620969000    -0.4866153   -0.5195057  
   0.622968900    -0.5593499   -0.4407019  
   0.624968800    -0.6187548   -0.3523153  
   0.626968700    -0.6644002   -0.2562865  
   0.628968600    -0.6944168   -0.1543674  
   0.630968500    -0.7089407   -0.0492931  
   0.632968400    -0.7077751    0.0565234  
   0.634968300    -0.6901448    0.1614076  
   0.636968200    -0.6570840    0.2624977  
   0.638968100    -0.6089404    0.3578527  
   0.640968000    -0.5467690    0.4453553  
   0.642967900    -0.4714506    0.5228301  
   0.644967800    -0.3848324    0.5884265  
   0.646967700    -0.2882982    0.6401939  
   0.648967600    -0.1844956    0.6764154  
   0.650967500    -0.0757632    0.6963367  
   0.652967400     0.0356748    0.6991421  
   0.654967300     0.1470920    0.6842833  
   0.656967200     0.2550437    0.6514385  
   0.658967100     0.3577051    0.6014532  
   0.660967000     0.4516477    0.5346351  
   0.662966900     0.5342968    0.4529967  
   0.664966800     0.6031400    0.3572055  
   0.666966700     0.6556814    0.2505088  
   0.668966600     0.6895497    0.1365353  
   0.670966500     0.7039637    0.0177442  
   0.672966400     0.6993099   -0.1017990  
   0.674966300     0.6733682   -0.2180497  
   0.676966200     0.6287733   -0.3278193  
   0.678966100     0.5667630   -0.4279548  
   0.680966000     0.4896359   -0.5156203  
   0.682965900     0.3995240   -0.5890332  
   0.684965800     0.3000771   -0.6458713  
   0.686965700     0.1932881   -0.6856297  
   0.688965600     0.0822621   -0.7071471  
   0.690965500    -0.0291426   -0.7098799  
   0.692965400    -0.1382000   -0.6962449  
   0.694965300    -0.2429301   -0.6657393  
   0.696965200    -0.3403927   -0.6201706  
   0.698965100    -0.4291926   -0.5604589  
   0.700965000    -0.5071980   -0.4883839  
   0.702964900    -0.5729509   -0.4056871  
   0.704964800    -0.6252695   -0.3147238  
   0.706964700    -0.6630335   -0.2170421  
   0.708964600    -0.6855871   -0.1145678  
   0.710964500    -0.6929274   -0.0102997  
   0.712964400    -0.6837445    0.0943499  
   0.714964300    -0.6585519    0.1962822  
   0.716964200    -0.6181671    0.2933542  
   0.718964100    -0.5633708    0.3826767  
   0.720964000    -0.4954542    0.4630865  
   0.722963900    -0.4155378    0.5320343  
   0.724963800    -0.3253234    0.5880795  
   0.726963700    -0.2267457    0.6290997  
   0.728963600    -0.1223657    0.6543857  
   0.730963500    -0.0149491    0.6619427  
   0.732963400     0.0930405    0.6523618  
   0.734963300     0.1984798    0.6249954  
   0.736963200     0.3126027    0.5731844  
   0.738963100     0.4158361    0.5003977  
   0.740963000     0.5036670    0.4099088  
   0.742962900     0.5724500    0.3043965  
   0.744962800     0.6201439    0.1885465  
   0.746962700     0.6450506    0.0668019  
   0.748962600     0.6471041   -0.0568670  
   0.750962500     0.6351658    0.0422447  
   0.752962400     0.6336540   -0.0793550  
   0.754962300     0.6102422   -0.1978864  
   0.756962200     0.5662518   -0.3096085  
   0.758962100     0.5032515   -0.4108402  
   0.760962000     0.4235001   -0.4991236  
   0.762961900     0.3344115   -0.5683104  
   0.764961800     0.2438025   -0.6177348  
   0.766961700     0.1468234   -0.6529928  
   0.768961600     0.0455562   -0.6727983  
   0.770961500    -0.0579165   -0.6769962  
   0.772961400    -0.1603335   -0.6653690  
   0.774961300    -0.2603736   -0.6380621  
   0.776961200    -0.3552265   -0.5957039  
   0.778961100    -0.4427852   -0.5386184  
   0.780961000    -0.5206958   -0.4684539  
   0.782960900    -0.5866737   -0.3865100  
   0.784960800    -0.6392977   -0.2946425  
   0.786960700    -0.6768176   -0.1955026  
   0.788960600    -0.6983892   -0.0911201  
   0.790960500    -0.7031457    0.0152452  
   0.792960400    -0.6914868    0.1210351  
   0.794960300    -0.6629075    0.2239009  
   0.796960200    -0.6186761    0.3210091  
   0.798960100    -0.5601647    0.4097444  
   0.800960000    -0.4882479    0.4879019  
   0.802959900    -0.4046481    0.5543735  
   0.804959800    -0.3120804    0.6070543  
   0.806959700    -0.2120141    0.6446200  
   0.808959600    -0.1072798    0.6662273  
   0.810959500    -0.0001701    0.6712661  
   0.812959400     0.1071639    0.6588013  
   0.814959300     0.2117320    0.6298928  
   0.816959200     0.3107225    0.5843526  
   0.818959100     0.4015800    0.5235772  
   0.820959000     0.4819966    0.4484557  
   0.822958900     0.5494022    0.3607090  
   0.824958800     0.6022815    0.2627197  
   0.826958700     0.6385732    0.1569369  
   0.828958600     0.6567259    0.0460792  
   0.830958500     0.6566307   -0.0662878  
   0.832958400     0.6377617   -0.1774083  
   0.834958300     0.6011930   -0.2836808  
   0.836958200     0.5472333   -0.3824251  
   0.838958100     0.4779540   -0.4709461  
   0.840958000     0.3949091   -0.5467860  
   0.842957900     0.3006369   -0.6077262  
   0.844957800     0.1982224   -0.6521632  
   0.846957700     0.0897959   -0.6790738  
   0.848957600    -0.0204805   -0.6879223  
   0.850957500    -0.1306799   -0.6789733  
   0.852957400    -0.2369509   -0.6525680  
   0.854957300    -0.3372356   -0.6094113  
   0.856957200    -0.4287414   -0.5516009  
   0.858957100    -0.5092750   -0.4806135  
   0.860957000    -0.5770994   -0.3987210  
   0.862956900    -0.6313692   -0.3084966  
   0.864956800    -0.6705908   -0.2119484  
   0.866956700    -0.6947575   -0.1116320  
   0.868956600    -0.7029306   -0.0091927  
   0.870956500    -0.6963670    0.0928801  
   0.872956400    -0.6747962    0.1925769  
   0.874956300    -0.6383466    0.2879052  
   0.876956200    -0.5884578    0.3774918  
   0.878956100    -0.5254743    0.4589143  
   0.880956000    -0.4505445    0.5301507  
   0.882955900    -0.3654511    0.5898139  
   0.884955800    -0.2717217    0.6362153  
   0.886955700    -0.1717905    0.6683127  
   0.888955600    -0.0673489    0.6849131  
   0.890955500     0.0390909    0.6850255  
   0.892955400     0.1450754    0.6689463  
   0.894955300     0.2480595    0.6361328  
