! MS46122B
! 2250307/22442219
! 7/28/2025 8:06:15 AM
! C:\USERS\SPARKY\DOCUMENTS\VNA_DATA\JULY28_2025\295K\PORT1_MOS2_REPEAT1.S1P
! CHANNEL.1
! TR.MEASUREMENT
! RAW.DATA
# GHZ S RI R 50.0
! FREQ.GHZ         S11RE         S11IM         
!; PortSelection: Port_1
   0.001000000     1.0466480   -0.0720528  
   0.002999900     0.9647130   -0.1944686  
   0.004999800     0.9038918   -0.2991121  
   0.006999700     0.8360304   -0.3963317  
   0.008999600     0.7561693   -0.4906197  
   0.010999500     0.6617429   -0.5793951  
   0.012999400     0.5472079   -0.6595163  
   0.014999300     0.4074888   -0.7241725  
   0.016999200     0.2377498   -0.7599534  
   0.018999100     0.0361411   -0.7475819  
   0.020999000    -0.1842009   -0.6552926  
   0.022998900    -0.3817751   -0.4524503  
   0.024998800    -0.4627050   -0.1439400  
   0.026998700    -0.4018711    0.2055601  
   0.028998600    -0.1595609    0.4618315  
   0.030998500     0.1483977    0.5579187  
   0.032998400     0.3986615    0.5072364  
   0.034998300     0.6260353    0.3977826  
   0.036998200     0.7558747    0.2485126  
   0.038998100     0.8285244    0.0954448  
   0.040998000     0.8591822   -0.0493882  
   0.042997900     0.8593829   -0.1813462  
   0.044997800     0.8133220   -0.2744673  
   0.046997700     0.7994859   -0.4033892  
   0.048997600     0.7499665   -0.4951883  
   0.050997500     0.6916659   -0.5744545  
   0.052997400     0.6270147   -0.6423604  
   0.054997300     0.5556327   -0.7013779  
   0.056997200     0.4802359   -0.7508346  
   0.058997100     0.4014695   -0.7909742  
   0.060997000     0.3190757   -0.8224239  
   0.062996900     0.2341568   -0.8451344  
   0.064996800     0.1467644   -0.8582825  
   0.066996700     0.0570066   -0.8625436  
   0.068996600    -0.0337999   -0.8564160  
   0.070996500    -0.1255960   -0.8406823  
   0.072996400    -0.2174097   -0.8123583  
   0.074996300    -0.3078365   -0.7722256  
   0.076996200    -0.3956250   -0.7191650  
   0.078996100    -0.4789979   -0.6528676  
   0.080996000    -0.5557987   -0.5721200  
   0.082995900    -0.6233889   -0.4771516  
   0.084995800    -0.6777540   -0.3681111  
   0.086995700    -0.7173293   -0.2464411  
   0.088995600    -0.7367657   -0.1134523  
   0.090995500    -0.7329599    0.0276304  
   0.092995400    -0.7028320    0.1723968  
   0.094995300    -0.6421347    0.3146534  
   0.096995200    -0.5509020    0.4468060  
   0.098995100    -0.4296953    0.5604762  
   0.100995000    -0.2827910    0.6487819  
   0.102994900    -0.1187478    0.7022251  
   0.104994800     0.0538642    0.7178413  
   0.106994700     0.2247309    0.6938775  
   0.108994600     0.3840060    0.6344024  
   0.110994500     0.5233753    0.5440736  
   0.112994400     0.6370912    0.4294759  
   0.114994300     0.7217519    0.2987580  
   0.116994200     0.7767641    0.1593994  
   0.118994100     0.8030930    0.0184453  
   0.120994000     0.8047719   -0.1190336  
   0.122993900     0.7818835   -0.2487970  
   0.124993800     0.7395417   -0.3678934  
   0.126993700     0.6809501   -0.4747035  
   0.128993600     0.6088293   -0.5667550  
   0.130993500     0.5270358   -0.6451366  
   0.132993400     0.4375561   -0.7090325  
   0.134993300     0.3426295   -0.7586473  
   0.136993200     0.2438842   -0.7939659  
   0.138993100     0.1427432   -0.8154667  
   0.140993000     0.0415197   -0.8233643  
   0.142992900    -0.0594808   -0.8181781  
   0.144992800    -0.1582374   -0.8013713  
   0.146992700    -0.2541817   -0.7705680  
   0.148992600    -0.3457497   -0.7277959  
   0.150992500    -0.4305326   -0.6720418  
   0.152992400    -0.5090992   -0.6057460  
   0.154992300    -0.5794065   -0.5291742  
   0.156992200    -0.6395881   -0.4419153  
   0.158992100    -0.6883537   -0.3454435  
   0.160992000    -0.7239370   -0.2408113  
   0.162991900    -0.7446424   -0.1294893  
   0.164991800    -0.7488520   -0.0129752  
   0.166991700    -0.7349070    0.1055145  
   0.168991600    -0.7019662    0.2235849  
   0.170991500    -0.6490465    0.3384461  
   0.172991400    -0.5763451    0.4454005  
   0.174991300    -0.4843261    0.5407398  
   0.176991200    -0.3743439    0.6210256  
   0.178991100    -0.2492266    0.6817844  
   0.180991000    -0.1135459    0.7202170  
   0.182990900     0.0289909    0.7326571  
   0.184990800     0.1730687    0.7180917  
   0.186990700     0.3124060    0.6767995  
   0.188990600     0.4226289    0.6218753  
   0.190990500     0.5515484    0.5228512  
   0.192990400     0.6478448    0.4129998  
   0.194990300     0.7195310    0.2912841  
   0.196990200     0.7671357    0.1614314  
   0.198990100     0.7904627    0.0281190  
   0.200990000     0.7903820   -0.1049287  
   0.202989900     0.7679313   -0.2329160  
   0.204989800     0.7255597   -0.3524862  
   0.206989700     0.6668914   -0.4609793  
   0.208989600     0.5927699   -0.5556655  
   0.210989500     0.5064483   -0.6362200  
   0.212989400     0.4107410   -0.7018455  
   0.214989300     0.3085147   -0.7509258  
   0.216989200     0.2024234   -0.7840019  
   0.218989100     0.0946681   -0.8011369  
   0.220989000    -0.0134928   -0.8030121  
   0.222988900    -0.1201788   -0.7892295  
   0.224988800    -0.2233256   -0.7609352  
   0.226988700    -0.3206069   -0.7188985  
   0.228988600    -0.4109527   -0.6638819  
   0.230988500    -0.4929363   -0.5966284  
   0.232988400    -0.5639603   -0.5171863  
   0.234988300    -0.6247380   -0.4280922  
   0.236988200    -0.6724914   -0.3303421  
   0.238988100    -0.7061691   -0.2250992  
   0.240988000    -0.7239108   -0.1149360  
   0.242987900    -0.7248855   -0.0018796  
   0.244987800    -0.7080777    0.1121496  
   0.246987700    -0.6730212    0.2248201  
   0.248987600    -0.6190618    0.3327841  
   0.250987500    -0.5464219    0.4324207  
   0.252987400    -0.4564362    0.5200347  
   0.254987300    -0.3515837    0.5920410  
   0.256987200    -0.2338237    0.6456796  
   0.258987100    -0.1065267    0.6794807  
   0.260987000     0.0269770    0.6887313  
   0.262986900     0.1614827    0.6732684  
   0.264986800     0.2920924    0.6331208  
   0.266986700     0.4128194    0.5693273  
   0.268986600     0.5198922    0.4843519  
   0.270986500     0.6085573    0.3820850  
   0.272986400     0.6766056    0.2663603  
   0.274986300     0.7221079    0.1417168  
   0.276986200     0.7443224    0.0126258  
   0.278986100     0.7437328   -0.1162064  
   0.280986000     0.7206856   -0.2408503  
   0.282985900     0.6781036   -0.3578858  
   0.284985800     0.6178334   -0.4638290  
   0.286985700     0.5432311   -0.5564606  
   0.288985600     0.4572604   -0.6338452  
   0.290985500     0.3624826   -0.6955447  
   0.292985400     0.2621066   -0.7413274  
   0.294985300     0.1580601   -0.7714941  
   0.296985200     0.0520097   -0.7860658  
   0.298985100    -0.0539010   -0.7854220  
   0.300985000    -0.1576451   -0.7698482  
   0.302984900    -0.2571260   -0.7406303  
   0.304984800    -0.3504640   -0.6983030  
   0.306984700    -0.4366315   -0.6443139  
   0.308984600    -0.5137427   -0.5798045  
   0.310984500    -0.5815065   -0.5059532  
   0.312984400    -0.6387501   -0.4233730  
   0.314984300    -0.6849909   -0.3333538  
   0.316984200    -0.7188520   -0.2371484  
   0.318984100    -0.7390886   -0.1348459  
   0.320984000    -0.7445334   -0.0280414  
   0.322983900    -0.7337395    0.0798435  
   0.324983800    -0.7054215    0.1864290  
   0.326983700    -0.6598666    0.2883548  
   0.328983600    -0.5972527    0.3812101  
   0.330983500    -0.5209084    0.4618103  
   0.332983400    -0.4342032    0.5277808  
   0.334983300    -0.3398520    0.5791167  
   0.336983200    -0.2403836    0.6164203  
   0.338983100    -0.1366103    0.6395268  
   0.340983000    -0.0303004    0.6479993  
   0.342982900     0.0777357    0.6409938  
   0.344982800     0.1856004    0.6174113  
   0.346982700     0.2906286    0.5763228  
   0.348982600     0.3885670    0.5170867  
   0.350982500     0.4771312    0.4420160  
   0.352982400     0.5529861    0.3518355  
   0.354982300     0.6143139    0.2450430  
   0.356982200     0.6578190    0.1166899  
   0.358982100     0.6751968   -0.0180865  
   0.360982000     0.6657939   -0.1529805  
   0.362981900     0.6301984   -0.2836907  
   0.364981800     0.5696649   -0.4048207  
   0.366981700     0.4870733   -0.5117031  
   0.368981600     0.3857762   -0.5998681  
   0.370981500     0.2699845   -0.6667791  
   0.372981400     0.1443620   -0.7099006  
   0.374981300     0.0133844   -0.7288150  
   0.376981200     0.1224202   -0.7176270  
   0.378981100    -0.0069781   -0.7311571  
   0.380981000    -0.1359946   -0.7208605  
   0.382980900    -0.2488227   -0.6913446  
   0.384980800    -0.3498453   -0.6470971  
   0.386980700    -0.4414479   -0.5877594  
   0.388980600    -0.5234396   -0.5153533  
   0.390980500    -0.5925080   -0.4321420  
   0.392980400    -0.6475574   -0.3406076  
   0.394980300    -0.6883770   -0.2423477  
   0.396980200    -0.7139595   -0.1394709  
   0.398980100    -0.7242971   -0.0331889  
   0.400980000    -0.7187102    0.0733766  
   0.402979900    -0.6969975    0.1786348  
   0.404979800    -0.6601292    0.2800018  
   0.406979700    -0.6078337    0.3752677  
   0.408979600    -0.5414299    0.4622529  
   0.410979500    -0.4613650    0.5394369  
   0.412979400    -0.3687154    0.6042967  
   0.414979300    -0.2658512    0.6533088  
   0.416979200    -0.1554451    0.6870145  
   0.418979100    -0.0399808    0.7027784  
   0.420979000     0.0777852    0.6998857  
   0.422978900     0.1948669    0.6772755  
   0.424978800     0.3074383    0.6352680  
   0.426978700     0.4126850    0.5744328  
   0.428978600     0.5066061    0.4964483  
   0.430978500     0.5859650    0.4033811  
   0.432978400     0.6485829    0.2983392  
   0.434978300     0.6935399    0.1845153  
   0.436978200     0.7173952    0.0648971  
   0.438978100     0.7205582   -0.0569260  
   0.440978000     0.7034111   -0.1768789  
   0.442977900     0.6667504   -0.2914149  
   0.444977800     0.6117526   -0.3974737  
   0.446977700     0.5404551   -0.4920156  
   0.448977600     0.4558676   -0.5727001  
   0.450977500     0.3598939   -0.6381078  
   0.452977400     0.2556773   -0.6864617  
   0.454977300     0.1452546   -0.7171046  
   0.456977200     0.0324541   -0.7299453  
   0.458977100    -0.0803931   -0.7245968  
   0.460977000    -0.1893165   -0.7018444  
   0.462976900    -0.2924713   -0.6629097  
   0.464976800    -0.3875354   -0.6087452  
   0.466976700    -0.4726754   -0.5411935  
   0.468976600    -0.5459359   -0.4617556  
   0.470976500    -0.6058349   -0.3720890  
   0.472976400    -0.6514809   -0.2747937  
   0.474976300    -0.6817219   -0.1719934  
   0.476976200    -0.6957595   -0.0653912  
   0.478976100    -0.6930002    0.0419133  
   0.480976000    -0.6736825    0.1472171  
   0.482975900    -0.6385257    0.2488282  
   0.484975800    -0.5876971    0.3441274  
   0.486975700    -0.5217086    0.4310717  
   0.488975600    -0.4420424    0.5070838  
   0.490975500    -0.3505616    0.5698202  
   0.492975400    -0.2488697    0.6170779  
   0.494975300    -0.1398718    0.6469248  
   0.496975200    -0.0264165    0.6581369  
   0.498975100     0.0874300    0.6497803  
   0.500975000     0.1985196    0.6217978  
   0.502974900     0.3026085    0.5747988  
   0.504974800     0.3969707    0.5108392  
   0.506974700     0.4782779    0.4315315  
   0.508974600     0.5438918    0.3395079  
   0.510974500     0.5917343    0.2387669  
   0.512974400     0.6216429    0.1336140  
   0.514974300     0.6316191    0.0277262  
   0.516974200     0.6257002   -0.0760301  
   0.518974100     0.6041517   -0.1745480  
   0.520974000     0.5694935   -0.2668320  
   0.522973900     0.5229995   -0.3511550  
   0.524973800     0.4662613   -0.4267251  
   0.526973700     0.4006501   -0.4934433  
   0.528973600     0.3269426   -0.5501482  
   0.530973500     0.2462151   -0.5974103  
   0.532973400     0.1592205   -0.6334575  
   0.534973300     0.0671502   -0.6569946  
   0.536973200    -0.0291114   -0.6676694  
   0.538973100    -0.1267144   -0.6633712  
   0.540973000    -0.2237602   -0.6446533  
   0.542972900    -0.3182428   -0.6107434  
   0.544972800    -0.4072701   -0.5619188  
   0.546972700    -0.4888903   -0.4986710  
   0.548972600    -0.5599773   -0.4221497  
   0.550972500    -0.6188711   -0.3349687  
   0.552972400    -0.6631757   -0.2383983  
   0.554972300    -0.6914822   -0.1351999  
   0.556972200    -0.7029082   -0.0284616  
   0.558972100    -0.6970980    0.0795979  
   0.560972000    -0.6740471    0.1854089  
   0.562971900    -0.6341863    0.2864045  
   0.564971800    -0.5787553    0.3796733  
   0.566971700    -0.5088797    0.4635967  
   0.568971600    -0.4264279    0.5353530  
   0.570971500    -0.3330011    0.5933636  
   0.572971400    -0.2307703    0.6357901  
   0.574971300    -0.1223439    0.6616151  
   0.576971200    -0.0097447    0.6694224  
   0.578971100     0.1032849    0.6585250  
   0.580971000     0.2139155    0.6287552  
   0.582970900     0.3178968    0.5810959  
   0.584970800     0.4135284    0.5164638  
   0.586970700     0.4966093    0.4364891  
   0.588970600     0.5656327    0.3430003  
   0.590970500     0.6176133    0.2397199  
   0.592970400     0.6515272    0.1285841  
   0.594970300     0.6660780    0.0129628  
   0.596970200     0.6606022   -0.1027474  
   0.598970100     0.6359244   -0.2162544  
   0.600970000     0.5922715   -0.3234710  
   0.602969900     0.5314538   -0.4214329  
   0.604969800     0.4553072   -0.5075524  
   0.606969700     0.3659013   -0.5793567  
   0.608969600     0.2668896   -0.6349087  
   0.610969500     0.1602415   -0.6732357  
   0.612969400     0.0497858   -0.6928643  
   0.614969300    -0.0611640   -0.6942702  
   0.616969200    -0.1697116   -0.6782180  
   0.618969100    -0.2730441   -0.6455292  
   0.620969000    -0.3686844   -0.5976133  
   0.622968900    -0.4554311   -0.5356286  
   0.624968800    -0.5311206   -0.4616493  
   0.626968700    -0.5945344   -0.3772389  
   0.628968600    -0.6442077   -0.2843815  
   0.630968500    -0.6789473   -0.1853476  
   0.632968400    -0.6985086   -0.0824821  
   0.634968300    -0.7020724    0.0224003  
   0.636968200    -0.6899916    0.1264503  
   0.638968100    -0.6626079    0.2276362  
   0.640968000    -0.6198720    0.3242968  
   0.642967900    -0.5629300    0.4133843  
   0.644967800    -0.4926436    0.4932554  
   0.646967700    -0.4106682    0.5622674  
   0.648967600    -0.3184150    0.6179376  
   0.650967500    -0.2183315    0.6588057  
   0.652967400    -0.1126760    0.6839510  
   0.654967300    -0.0033306    0.6924907  
   0.656967200     0.1066649    0.6838781  
   0.658967100     0.2148268    0.6572630  
   0.660967000     0.3184314    0.6135619  
   0.662966900     0.4148979    0.5527209  
   0.664966800     0.5010313    0.4765036  
   0.666966700     0.5741293    0.3859773  
   0.668966600     0.6315405    0.2839732  
   0.670966500     0.6711851    0.1734399  
   0.672966400     0.6932278    0.0577450  
   0.674966300     0.6943461   -0.0594917  
   0.676966200     0.6754764   -0.1755178  
   0.678966100     0.6379901   -0.2858405  
   0.680966000     0.5828945   -0.3879071  
   0.682965900     0.5121285   -0.4789518  
   0.684965800     0.4280919   -0.5565763  
   0.686965700     0.3332629   -0.6187686  
   0.688965600     0.2304819   -0.6643352  
   0.690965500     0.1223778   -0.6917046  
   0.692965400     0.0129814   -0.7020159  
   0.694965300    -0.0955652   -0.6952378  
   0.696965200    -0.2004687   -0.6716469  
   0.698965100    -0.2998069   -0.6327701  
   0.700965000    -0.3912688   -0.5793105  
   0.702964900    -0.4726094   -0.5131465  
   0.704964800    -0.5425481   -0.4356147  
   0.706964700    -0.5999408   -0.3490385  
   0.708964600    -0.6432603   -0.2548311  
   0.710964500    -0.6725863   -0.1556370  
   0.712964400    -0.6856651   -0.0531362  
   0.714964300    -0.6832669    0.0503923  
   0.716964200    -0.6650440    0.1518195  
   0.718964100    -0.6318190    0.2496167  
   0.720964000    -0.5839736    0.3409668  
   0.722963900    -0.5228041    0.4244322  
   0.724963800    -0.4490841    0.4974967  
   0.726963700    -0.3644857    0.5586269  
   0.728963600    -0.2705025    0.6058595  
   0.730963500    -0.1697224    0.6376373  
   0.732963400    -0.0650864    0.6530626  
   0.734963300     0.0420121    0.6513910  
   0.736963200     0.1629923    0.6283902  
   0.738963100     0.2786706    0.5826132  
   0.740963000     0.3841627    0.5162169  
   0.742962900     0.4748709    0.4316162  
   0.744962800     0.5480547    0.3313291  
   0.746962700     0.6009464    0.2198308  
   0.748962600     0.6321914    0.1010083  
   0.750962500     0.5957218    0.1955024  
   0.752962400     0.6229272    0.0778255  
   0.754962300     0.6283463   -0.0422826  
   0.756962200     0.6118360   -0.1604324  
   0.758962100     0.5746883   -0.2727772  
   0.760962000     0.5180701   -0.3763098  
   0.762961900     0.4481552   -0.4637055  
   0.764961800     0.3722764   -0.5320694  
   0.766961700     0.2868164   -0.5879913  
   0.768961600     0.1938657   -0.6305178  
   0.770961500     0.0956125   -0.6579610  
   0.772961400    -0.0059505   -0.6702799  
   0.774961300    -0.1078999   -0.6668352  
   0.776961200    -0.2088175   -0.6477529  
   0.778961100    -0.3057828   -0.6133739  
   0.780961000    -0.3968385   -0.5637648  
   0.782960900    -0.4789877   -0.5006326  
   0.784960800    -0.5509333   -0.4246089  
   0.786960700    -0.6100429   -0.3381557  
   0.788960600    -0.6548157   -0.2433377  
   0.790960500    -0.6842330   -0.1423101  
   0.792960400    -0.6974550   -0.0379771  
   0.794960300    -0.6943523    0.0672412  
   0.796960200    -0.6745905    0.1704408  
   0.798960100    -0.6390901    0.2693986  
   0.800960000    -0.5885434    0.3613117  
   0.802959900    -0.5244769    0.4448330  
   0.804959800    -0.4478060    0.5167241  
   0.806959700    -0.3611698    0.5766310  
   0.808959600    -0.2659598    0.6216285  
   0.810959500    -0.1647260    0.6517648  
   0.812959400    -0.0593102    0.6658286  
   0.814959300     0.0471403    0.6628301  
   0.816959200     0.1524133    0.6433386  
   0.818959100     0.2535511    0.6071827  
   0.820959000     0.3486218    0.5550791  
   0.822958900     0.4344279    0.4880912  
   0.824958800     0.5084733    0.4076843  
   0.826958700     0.5691199    0.3159009  
   0.828958600     0.6139904    0.2150500  
   0.830958500     0.6418986    0.1076710  
   0.832958400     0.6518846   -0.0029764  
   0.834958300     0.6433775   -0.1137876  
   0.836958200     0.6166960   -0.2214449  
   0.838958100     0.5726565   -0.3237461  
   0.840958000     0.5123388   -0.4171957  
   0.842957900     0.4373898   -0.4996073  
   0.844957800     0.3501307   -0.5681084  
   0.846957700     0.2528574   -0.6215279  
   0.848957600     0.1484806   -0.6577829  
   0.850957500     0.0404037   -0.6764318  
   0.852957400    -0.0691530   -0.6774740  
   0.854957300    -0.1763353   -0.6607882  
   0.856957200    -0.2792781   -0.6272575  
   0.858957100    -0.3746107   -0.5784463  
   0.860957000    -0.4602452   -0.5156217  
   0.862956900    -0.5343772   -0.4411927  
   0.864956800    -0.5956940   -0.3573588  
   0.866956700    -0.6430323   -0.2656933  
   0.868956600    -0.6752462   -0.1686722  
   0.870956500    -0.6932259   -0.0683790  
   0.872956400    -0.6957930    0.0328409  
   0.874956300    -0.6832144    0.1332541  
   0.876956200    -0.6555612    0.2312064  
   0.878956100    -0.6142088    0.3238849  
   0.880956000    -0.5590988    0.4096483  
   0.882955900    -0.4914087    0.4863866  
   0.884955800    -0.4128759    0.5526377  
   0.886955700    -0.3249992    0.6065533  
   0.888955600    -0.2293024    0.6470292  
   0.890955500    -0.1282730    0.6725086  
   0.892955400    -0.0237099    0.6821933  
   0.894955300     0.0817668    0.6758857  
