! MS46122B
! 2250307/22442219
! 7/26/2025 10:33:36 AM
! C:\USERS\SPARKY\DOCUMENTS\VNA_DATA\JULY26_2025\295K\PORT5_MOS1_REPEAT1.S1P
! CHANNEL.1
! TR.MEASUREMENT
! RAW.DATA
# GHZ S RI R 50.0
! FREQ.GHZ         S11RE         S11IM         
!; PortSelection: Port_1
   0.001000000     1.0458250   -0.0716942  
   0.002999900     0.9642030   -0.1940696  
   0.004999800     0.9033242   -0.2986918  
   0.006999700     0.8356147   -0.3959255  
   0.008999600     0.7559205   -0.4902604  
   0.010999500     0.6617368   -0.5791079  
   0.012999400     0.5475956   -0.6594354  
   0.014999300     0.4082429   -0.7244709  
   0.016999200     0.2390275   -0.7611492  
   0.018999100     0.0377023   -0.7499064  
   0.020999000    -0.1829547   -0.6597045  
   0.022998900    -0.3823818   -0.4593272  
   0.024998800    -0.4670652   -0.1521620  
   0.026998700    -0.4118955    0.1988943  
   0.028998600    -0.1726580    0.4602249  
   0.030998500     0.1358356    0.5618130  
   0.032998400     0.3887176    0.5145397  
   0.034998300     0.6195844    0.4070703  
   0.036998200     0.7523037    0.2581423  
   0.038998100     0.8272659    0.1047219  
   0.040998000     0.8593785   -0.0408313  
   0.042997900     0.8611107   -0.1735974  
   0.044997800     0.8159379   -0.2676648  
   0.046997700     0.8031003   -0.3971645  
   0.048997600     0.7543113   -0.4897549  
   0.050997500     0.6965938   -0.5697596  
   0.052997400     0.6330110   -0.6376417  
   0.054997300     0.5613461   -0.6983244  
   0.056997200     0.4865049   -0.7484327  
   0.058997100     0.4081038   -0.7892712  
   0.060997000     0.3260602   -0.8215849  
   0.062996900     0.2414778   -0.8451807  
   0.064996800     0.1542346   -0.8592203  
   0.066996700     0.0647196   -0.8645227  
   0.068996600    -0.0259652   -0.8594810  
   0.070996500    -0.1175778   -0.8449967  
   0.072996400    -0.2096822   -0.8180531  
   0.074996300    -0.3003725   -0.7792202  
   0.076996200    -0.3885816   -0.7277153  
   0.078996100    -0.4727316   -0.6629860  
   0.080996000    -0.5504816   -0.5839487  
   0.082995900    -0.6195401   -0.4906447  
   0.084995800    -0.6757382   -0.3833396  
   0.086995700    -0.7176415   -0.2629773  
   0.088995600    -0.7400674   -0.1311001  
   0.090995500    -0.7397307    0.0093451  
   0.092995400    -0.7134350    0.1542309  
   0.094995300    -0.6569745    0.2974888  
   0.096995200    -0.5698361    0.4318634  
   0.098995100    -0.4528079    0.5488031  
   0.100995000    -0.3085333    0.6418179  
   0.102994900    -0.1463299    0.7007199  
   0.104994800     0.0259699    0.7222179  
   0.106994700     0.1979024    0.7040572  
   0.108994600     0.3599456    0.6501948  
   0.110994500     0.5031931    0.5640114  
   0.112994400     0.6216003    0.4526671  
   0.114994300     0.7113040    0.3238778  
   0.116994200     0.7712398    0.1855263  
   0.118994100     0.8023899    0.0443535  
   0.120994000     0.8085653   -0.0942836  
   0.122993900     0.7894878   -0.2259093  
   0.124993800     0.7504416   -0.3472973  
   0.126993700     0.6947876   -0.4564614  
   0.128993600     0.6246327   -0.5514467  
   0.130993500     0.5446506   -0.6324854  
   0.132993400     0.4564285   -0.6994750  
   0.134993300     0.3623458   -0.7518612  
   0.136993200     0.2641998   -0.7901953  
   0.138993100     0.1635041   -0.8145130  
   0.140993000     0.0621938   -0.8251345  
   0.142992900    -0.0393231   -0.8227820  
   0.144992800    -0.1386675   -0.8088894  
   0.146992700    -0.2353016   -0.7810171  
   0.148992600    -0.3282680   -0.7406169  
   0.150992500    -0.4145818   -0.6874816  
   0.152992400    -0.4950705   -0.6237463  
   0.154992300    -0.5674629   -0.5495241  
   0.156992200    -0.6303605   -0.4644214  
   0.158992100    -0.6820902   -0.3698849  
   0.160992000    -0.7208779   -0.2668114  
   0.162991900    -0.7455536   -0.1566131  
   0.164991800    -0.7538449   -0.0410799  
   0.166991700    -0.7445477    0.0769578  
   0.168991600    -0.7164619    0.1959220  
   0.170991500    -0.6684068    0.3123874  
   0.172991400    -0.6006052    0.4217699  
   0.174991300    -0.5132729    0.5206245  
   0.176991200    -0.4072600    0.6054273  
   0.178991100    -0.2858958    0.6718329  
   0.180991000    -0.1524086    0.7166198  
   0.182990900    -0.0108841    0.7361415  
   0.184990800     0.1335664    0.7287060  
   0.186990700     0.2749210    0.6946132  
   0.188990600     0.3881201    0.6452957  
   0.190990500     0.5224693    0.5532048  
   0.192990400     0.6246482    0.4480954  
   0.194990300     0.7031625    0.3298109  
   0.196990200     0.7578011    0.2021302  
   0.198990100     0.7883082    0.0694878  
   0.200990000     0.7951916   -0.0643856  
   0.202989900     0.7793406   -0.1941973  
   0.204989800     0.7429593   -0.3170145  
   0.206989700     0.6895449   -0.4291226  
   0.208989600     0.6196624   -0.5284179  
   0.210989500     0.5370591   -0.6136433  
   0.212989400     0.4441470   -0.6844921  
   0.214989300     0.3437919   -0.7389014  
   0.216989200     0.2387327   -0.7775004  
   0.218989100     0.1313106   -0.8000461  
   0.220989000     0.0229554   -0.8072604  
   0.222988900    -0.0845385   -0.7990130  
   0.224988800    -0.1892155   -0.7755131  
   0.226988700    -0.2889670   -0.7383758  
   0.228988600    -0.3819466   -0.6878428  
   0.230988500    -0.4671823   -0.6250428  
   0.232988400    -0.5424358   -0.5493678  
   0.234988300    -0.6077942   -0.4637327  
   0.236988200    -0.6606826   -0.3689118  
   0.238988100    -0.6999125   -0.2660510  
   0.240988000    -0.7238380   -0.1575432  
   0.242987900    -0.7311859   -0.0452575  
   0.244987800    -0.7213178    0.0692125  
   0.246987700    -0.6932335    0.1829233  
   0.248987600    -0.6464304    0.2936616  
   0.250987500    -0.5807837    0.3973858  
   0.252987400    -0.4973924    0.4901046  
   0.254987300    -0.3981598    0.5686452  
   0.256987200    -0.2847095    0.6301886  
   0.258987100    -0.1607275    0.6729686  
   0.260987000    -0.0286770    0.6915587  
   0.262986900     0.1064060    0.6860707  
   0.264986800     0.2392642    0.6557851  
   0.266986700     0.3651396    0.6012192  
   0.268986600     0.4783065    0.5246674  
   0.270986500     0.5749474    0.4289600  
   0.272986400     0.6519727    0.3181209  
   0.274986300     0.7068955    0.1967924  
   0.276986200     0.7389674    0.0689125  
   0.278986100     0.7479022   -0.0609243  
   0.280986000     0.7342954   -0.1879922  
   0.282985900     0.6999128   -0.3090386  
   0.284985800     0.6469070   -0.4197122  
   0.286985700     0.5781234   -0.5183818  
   0.288985600     0.4968127   -0.6023784  
   0.290985500     0.4056649   -0.6710401  
   0.292985400     0.3078827   -0.7237644  
   0.294985300     0.2050937   -0.7611082  
   0.296985200     0.0996518   -0.7828031  
   0.298985100    -0.0067293   -0.7888903  
   0.300985000    -0.1119086   -0.7800125  
   0.302984900    -0.2131277   -0.7569879  
   0.304984800    -0.3095327   -0.7207699  
   0.306984700    -0.3990978   -0.6724082  
   0.308984600    -0.4802722   -0.6130108  
   0.310984500    -0.5525020   -0.5438786  
   0.312984400    -0.6150259   -0.4655243  
   0.314984300    -0.6669950   -0.3793792  
   0.316984200    -0.7072415   -0.2861936  
   0.318984100    -0.7346319   -0.1863048  
   0.320984000    -0.7477552   -0.0815538  
   0.322983900    -0.7457541    0.0264536  
   0.324983800    -0.7263628    0.1342176  
   0.326983700    -0.6899490    0.2389446  
   0.328983600    -0.6361424    0.3368836  
   0.330983500    -0.5672064    0.4240615  
   0.332983400    -0.4863329    0.4981695  
   0.334983300    -0.3960012    0.5585649  
   0.336983200    -0.2988084    0.6044641  
   0.338983100    -0.1965132    0.6364427  
   0.340983000    -0.0902574    0.6536846  
   0.342982900     0.0189023    0.6555941  
   0.344982800     0.1288271    0.6408789  
   0.346982700     0.2372220    0.6085451  
   0.348982600     0.3403421    0.5576847  
   0.350982500     0.4352956    0.4904071  
   0.352982400     0.5186156    0.4068505  
   0.354982300     0.5895671    0.3057819  
   0.356982200     0.6446943    0.1818092  
   0.358982100     0.6746092    0.0492066  
   0.360982000     0.6779808   -0.0867962  
   0.362981900     0.6547632   -0.2205852  
   0.364981800     0.6058296   -0.3474811  
   0.366981700     0.5337082   -0.4619302  
   0.368981600     0.4406220   -0.5600036  
   0.370981500     0.3314573   -0.6380442  
   0.372981400     0.2097599   -0.6933453  
   0.374981300     0.0808054   -0.7246805  
   0.376981200     0.1874040   -0.7037913  
   0.378981100     0.0589799   -0.7295918  
   0.380981000    -0.0708504   -0.7312657  
   0.382980900    -0.1862468   -0.7122324  
   0.384980800    -0.2913288   -0.6776360  
   0.386980700    -0.3888164   -0.6268011  
   0.388980600    -0.4773858   -0.5622503  
   0.390980500    -0.5536716   -0.4858980  
   0.392980400    -0.6172408   -0.3997588  
   0.394980300    -0.6671411   -0.3057643  
   0.396980200    -0.7023910   -0.2054927  
   0.398980100    -0.7224037   -0.1010794  
   0.400980000    -0.7269861    0.0051766  
   0.402979900    -0.7158955    0.1116559  
   0.404979800    -0.6887751    0.2156369  
   0.406979700    -0.6467155    0.3149416  
   0.408979600    -0.5897452    0.4075495  
   0.410979500    -0.5181885    0.4918815  
   0.412979400    -0.4335485    0.5650156  
   0.414979300    -0.3368735    0.6243228  
   0.416979200    -0.2314031    0.6692023  
   0.418979100    -0.1191956    0.6970371  
   0.420979000    -0.0029926    0.7068845  
   0.422978900     0.1150422    0.6973913  
   0.424978800     0.2310146    0.6686671  
   0.426978700     0.3417305    0.6204811  
   0.428978600     0.4435267    0.5543447  
   0.430978500     0.5328600    0.4715665  
   0.432978400     0.6071522    0.3750091  
   0.434978300     0.6653422    0.2675689  
   0.436978200     0.7034244    0.1516761  
   0.438978100     0.7212868    0.0312875  
   0.440978000     0.7188250   -0.0900883  
   0.442977900     0.6962484   -0.2087084  
   0.444977800     0.6544088   -0.3210224  
   0.446977700     0.5949045   -0.4237187  
   0.448977600     0.5202468   -0.5144671  
   0.450977500     0.4325244   -0.5915675  
   0.452977400     0.3344913   -0.6525211  
   0.454977300     0.2281139   -0.6966795  
   0.456977200     0.1167976   -0.7230229  
   0.458977100     0.0040814   -0.7311822  
   0.460977000    -0.1078295   -0.7216402  
   0.462976900    -0.2153128   -0.6952425  
   0.464976800    -0.3166253   -0.6525944  
   0.466976700    -0.4092452   -0.5953789  
   0.468976600    -0.4916458   -0.5252169  
   0.470976500    -0.5621899   -0.4436627  
   0.472976400    -0.6189331   -0.3523857  
   0.474976300    -0.6615552   -0.2541449  
   0.476976200    -0.6882592   -0.1507315  
   0.478976100    -0.6989525   -0.0443217  
   0.480976000    -0.6930700    0.0621793  
   0.482975900    -0.6708116    0.1665869  
   0.484975800    -0.6329857    0.2668178  
   0.486975700    -0.5793536    0.3608992  
   0.488975600    -0.5109282    0.4459426  
   0.490975500    -0.4292156    0.5197983  
   0.492975400    -0.3359293    0.5798143  
   0.494975300    -0.2329021    0.6242324  
   0.496975200    -0.1231169    0.6506974  
   0.498975100    -0.0100048    0.6586233  
   0.500975000     0.1032276    0.6469359  
   0.502974900     0.2126467    0.6157131  
   0.504974800     0.3147651    0.5658371  
   0.506974700     0.4065761    0.4995413  
   0.508974600     0.4850680    0.4180708  
   0.510974500     0.5470728    0.3254489  
   0.512974400     0.5917410    0.2253074  
   0.514974300     0.6172653    0.1216714  
   0.516974200     0.6264113    0.0179451  
   0.518974100     0.6192298   -0.0833190  
   0.520974000     0.5971984   -0.1797351  
   0.522973900     0.5630022   -0.2700676  
   0.524973800     0.5172743   -0.3527073  
   0.526973700     0.4612829   -0.4282149  
   0.528973600     0.3962788   -0.4945521  
   0.530973500     0.3226915   -0.5522169  
   0.532973400     0.2419629   -0.5997717  
   0.534973300     0.1544630   -0.6356738  
   0.536973200     0.0610585   -0.6594954  
   0.538973100    -0.0355897   -0.6694310  
   0.540973000    -0.1335479   -0.6640621  
   0.542972900    -0.2312942   -0.6446064  
   0.544972800    -0.3256078   -0.6093085  
   0.546972700    -0.4149211   -0.5589679  
   0.548972600    -0.4960322   -0.4944870  
   0.550972500    -0.5666127   -0.4171708  
   0.552972400    -0.6241843   -0.3287679  
   0.554972300    -0.6673328   -0.2316649  
   0.556972200    -0.6944637   -0.1282756  
   0.558972100    -0.7045926   -0.0214015  
   0.560972000    -0.6979858    0.0858402  
   0.562971900    -0.6741651    0.1908140  
   0.564971800    -0.6338272    0.2909638  
   0.566971700    -0.5780049    0.3835693  
   0.568971600    -0.5083286    0.4665066  
   0.570971500    -0.4258925    0.5377116  
   0.572971400    -0.3325569    0.5952271  
   0.574971300    -0.2301278    0.6375428  
   0.576971200    -0.1217007    0.6628018  
   0.578971100    -0.0094956    0.6702989  
   0.580971000     0.1031615    0.6590883  
   0.582970900     0.2130920    0.6293710  
   0.584970800     0.3166285    0.5818471  
   0.586970700     0.4113224    0.5177602  
   0.588970600     0.4942306    0.4380811  
   0.590970500     0.5628808    0.3452583  
   0.592970400     0.6148605    0.2425167  
   0.594970300     0.6489046    0.1319328  
   0.596970200     0.6636702    0.0172641  
   0.598970100     0.6584550   -0.0983420  
   0.600970000     0.6344063   -0.2114388  
   0.602969900     0.5913873   -0.3182897  
   0.604969800     0.5310950   -0.4162767  
   0.606969700     0.4555865   -0.5022439  
   0.608969600     0.3668200   -0.5743906  
   0.610969500     0.2682025   -0.6303486  
   0.612969400     0.1623247   -0.6686022  
   0.614969300     0.0527245   -0.6887527  
   0.616969200    -0.0573330   -0.6907283  
   0.618969100    -0.1650980   -0.6753503  
   0.620969000    -0.2676893   -0.6438310  
   0.622968900    -0.3635350   -0.5965400  
   0.624968800    -0.4503397   -0.5356044  
   0.626968700    -0.5266369   -0.4621787  
   0.628968600    -0.5905503   -0.3784172  
   0.630968500    -0.6404836   -0.2860771  
   0.632968400    -0.6758035   -0.1876309  
   0.634968300    -0.6958299   -0.0848997  
   0.636968200    -0.6999956    0.0193438  
   0.638968100    -0.6886054    0.1230065  
   0.640968000    -0.6614701    0.2242903  
   0.642967900    -0.6195315    0.3204848  
   0.644967800    -0.5632809    0.4093649  
   0.646967700    -0.4937658    0.4892165  
   0.648967600    -0.4127339    0.5580038  
   0.650967500    -0.3216809    0.6137447  
   0.652967400    -0.2227677    0.6549066  
   0.654967300    -0.1180184    0.6806827  
   0.656967200    -0.0095334    0.6898191  
   0.658967100     0.0997899    0.6820865  
   0.660967000     0.2074576    0.6564499  
   0.662966900     0.3109876    0.6136514  
   0.664966800     0.4077511    0.5536964  
   0.666966700     0.4940778    0.4783600  
   0.668966600     0.5672392    0.3889859  
   0.670966500     0.6250466    0.2882616  
   0.672966400     0.6665912    0.1794021  
   0.674966300     0.6881014    0.0649399  
   0.676966200     0.6905786   -0.0514203  
   0.678966100     0.6729000   -0.1661618  
   0.680966000     0.6370946   -0.2762150  
   0.682965900     0.5838640   -0.3779125  
   0.684965800     0.5150107   -0.4688984  
   0.686965700     0.4321466   -0.5470477  
   0.688965600     0.3392563   -0.6102495  
   0.690965500     0.2374096   -0.6560138  
   0.692965400     0.1311006   -0.6855602  
   0.694965300     0.0227348   -0.6974517  
   0.696965200    -0.0848892   -0.6923800  
   0.698965100    -0.1895898   -0.6708458  
   0.700965000    -0.2891311   -0.6336464  
   0.702964900    -0.3807042   -0.5821176  
   0.704964800    -0.4626933   -0.5176740  
   0.706964700    -0.5335824   -0.4417772  
   0.708964600    -0.5921500   -0.3562979  
   0.710964500    -0.6374139   -0.2637512  
   0.712964400    -0.6674495   -0.1651371  
   0.714964300    -0.6821846   -0.0636102  
   0.716964200    -0.6816255    0.0388056  
   0.718964100    -0.6654209    0.1396589  
   0.720964000    -0.6343011    0.2371247  
   0.722963900    -0.5887933    0.3285188  
   0.724963800    -0.5296784    0.4126120  
   0.726963700    -0.4578795    0.4865304  
   0.728963600    -0.3751755    0.5489187  
   0.730963500    -0.2827742    0.5975195  
   0.732963400    -0.1836490    0.6311516  
   0.734963300    -0.0797652    0.6486232  
   0.736963200     0.0424325    0.6481424  
   0.738963100     0.1630904    0.6248046  
   0.740963000     0.2779815    0.5794737  
   0.742962900     0.3821279    0.5131915  
   0.744962800     0.4719055    0.4292029  
   0.746962700     0.5445491    0.3299591  
   0.748962600     0.5971636    0.2192710  
   0.750962500     0.5429053    0.3066380  
   0.752962400     0.5915363    0.1961869  
   0.754962300     0.6187951    0.0798681  
   0.756962200     0.6247060   -0.0390614  
   0.758962100     0.6089659   -0.1560404  
   0.760962000     0.5727718   -0.2680322  
   0.762961900     0.5201259   -0.3663725  
   0.764961800     0.4583050   -0.4471791  
   0.766961700     0.3849026   -0.5174512  
   0.768961600     0.3016275   -0.5756775  
   0.770961500     0.2105462   -0.6207303  
   0.772961400     0.1136743   -0.6509532  
   0.774961300     0.0131403   -0.6662334  
   0.776961200    -0.0887080   -0.6659121  
   0.778961100    -0.1898396   -0.6499584  
   0.780961000    -0.2875383   -0.6180688  
   0.782960900    -0.3796881   -0.5713261  
   0.784960800    -0.4636451   -0.5104063  
   0.786960700    -0.5373521   -0.4368839  
   0.788960600    -0.5986134   -0.3523297  
   0.790960500    -0.6457637   -0.2590902  
   0.792960400    -0.6778671   -0.1595751  
   0.794960300    -0.6938722   -0.0563260  
   0.796960200    -0.6938292    0.0481318  
   0.798960100    -0.6771570    0.1511685  
   0.800960000    -0.6448441    0.2500639  
   0.802959900    -0.5975946    0.3431706  
   0.804959800    -0.5363374    0.4276215  
   0.806959700    -0.4628990    0.5016440  
   0.808959600    -0.3787452    0.5635285  
   0.810959500    -0.2856856    0.6111560  
   0.812959400    -0.1860117    0.6445451  
   0.814959300    -0.0821948    0.6616457  
   0.816959200     0.0235155    0.6623468  
   0.818959100     0.1286565    0.6464891  
   0.820959000     0.2302505    0.6140259  
   0.822958900     0.3263652    0.5655948  
   0.824958800     0.4138453    0.5020647  
   0.826958700     0.4900913    0.4248344  
   0.828958600     0.5534431    0.3359141  
   0.830958500     0.6013870    0.2375261  
   0.832958400     0.6328464    0.1321262  
   0.834958300     0.6466993    0.0229738  
   0.836958200     0.6422418   -0.0870464  
   0.838958100     0.6197950   -0.1947287  
   0.840958000     0.5799593   -0.2977628  
   0.842957900     0.5234848   -0.3927275  
   0.844957800     0.4521727   -0.4774313  
   0.846957700     0.3682006   -0.5485724  
   0.848957600     0.2737413   -0.6051429  
   0.850957500     0.1714759   -0.6450316  
   0.852957400     0.0648016   -0.6675975  
   0.854957300    -0.0438337   -0.6724842  
   0.856957200    -0.1508319   -0.6600022  
   0.858957100    -0.2539690   -0.6305780  
   0.860957000    -0.3499913   -0.5857643  
   0.862956900    -0.4372711   -0.5269914  
   0.864956800    -0.5133393   -0.4564003  
   0.866956700    -0.5772188   -0.3756350  
   0.868956600    -0.6272992   -0.2866403  
   0.870956500    -0.6635898   -0.1917858  
   0.872956400    -0.6850768   -0.0928592  
   0.874956300    -0.6917025    0.0076080  
   0.876956200    -0.6832954    0.1083589  
   0.878956100    -0.6594415    0.2063791  
   0.880956000    -0.6218026    0.3001537  
   0.882955900    -0.5702733    0.3873965  
   0.884955800    -0.5061403    0.4660022  
   0.886955700    -0.4306875    0.5347622  
   0.888955600    -0.3457005    0.5914187  
   0.890955500    -0.2524888    0.6352051  
   0.892955400    -0.1534657    0.6643018  
   0.894955300    -0.0504434    0.6778540  
