! MS46122B
! 2250307/22442219
! 7/26/2025 10:22:41 AM
! C:\USERS\SPARKY\DOCUMENTS\VNA_DATA\JULY26_2025\295K\PORT1_MOS3.S1P
! CHANNEL.1
! TR.MEASUREMENT
! RAW.DATA
# GHZ S RI R 50.0
! FREQ.GHZ         S11RE         S11IM         
!; PortSelection: Port_1
   0.001000000     1.0457450   -0.0718305  
   0.002999900     0.9641085   -0.1942113  
   0.004999800     0.9032292   -0.2988442  
   0.006999700     0.8354523   -0.3961378  
   0.008999600     0.7554818   -0.4904942  
   0.010999500     0.6609359   -0.5792923  
   0.012999400     0.5462371   -0.6595098  
   0.014999300     0.4061151   -0.7241641  
   0.016999200     0.2354900   -0.7597905  
   0.018999100     0.0333392   -0.7464503  
   0.020999000    -0.1876622   -0.6522268  
   0.022998900    -0.3844004   -0.4464358  
   0.024998800    -0.4619912   -0.1353684  
   0.026998700    -0.3951294    0.2141786  
   0.028998600    -0.1481874    0.4659682  
   0.030998500     0.1604532    0.5560099  
   0.032998400     0.4081451    0.5011321  
   0.034998300     0.6324129    0.3889098  
   0.036998200     0.7590627    0.2390399  
   0.038998100     0.8292546    0.0861585  
   0.040998000     0.8580134   -0.0581369  
   0.042997900     0.8568351   -0.1895254  
   0.044997800     0.8100385   -0.2814654  
   0.046997700     0.7951329   -0.4097746  
   0.048997600     0.7449923   -0.5007731  
   0.050997500     0.6861985   -0.5793538  
   0.052997400     0.6210657   -0.6467008  
   0.054997300     0.5494703   -0.7050143  
   0.056997200     0.4736373   -0.7538770  
   0.058997100     0.3944986   -0.7934687  
   0.060997000     0.3118412   -0.8243566  
   0.062996900     0.2265499   -0.8464251  
   0.064996800     0.1387223   -0.8589341  
   0.066996700     0.0487131   -0.8623788  
   0.068996600    -0.0424307   -0.8554052  
   0.070996500    -0.1345526   -0.8386681  
   0.072996400    -0.2265844   -0.8091980  
   0.074996300    -0.3171187   -0.7678296  
   0.076996200    -0.4049595   -0.7132924  
   0.078996100    -0.4880652   -0.6453274  
   0.080996000    -0.5644456   -0.5627728  
   0.082995900    -0.6309735   -0.4658364  
   0.084995800    -0.6839734   -0.3547401  
   0.086995700    -0.7215439   -0.2311089  
   0.088995600    -0.7383397   -0.0964616  
   0.090995500    -0.7312071    0.0460435  
   0.092995400    -0.6970108    0.1914627  
   0.094995300    -0.6317698    0.3333511  
   0.096995200    -0.5357510    0.4639525  
   0.098995100    -0.4100179    0.5745639  
   0.100995000    -0.2592074    0.6583872  
   0.102994900    -0.0925616    0.7062057  
   0.104994800     0.0811092    0.7154201  
   0.106994700     0.2510650    0.6851429  
   0.108994600     0.4079786    0.6198583  
   0.110994500     0.5435688    0.5247144  
   0.112994400     0.6525581    0.4061989  
   0.114994300     0.7320103    0.2731807  
   0.116994200     0.7816521    0.1328961  
   0.118994100     0.8028765   -0.0080870  
   0.120994000     0.8000543   -0.1446480  
   0.122993900     0.7732390   -0.2728675  
   0.124993800     0.7275411   -0.3896387  
   0.126993700     0.6661154   -0.4938810  
   0.128993600     0.5916867   -0.5831452  
   0.130993500     0.5080882   -0.6588047  
   0.132993400     0.4170373   -0.7199945  
   0.134993300     0.3211583   -0.7667913  
   0.136993200     0.2217952   -0.7992237  
   0.138993100     0.1202815   -0.8179218  
   0.140993000     0.0189965   -0.8229219  
   0.142992900    -0.0820064   -0.8149352  
   0.144992800    -0.1807396   -0.7956386  
   0.146992700    -0.2761170   -0.7619253  
   0.148992600    -0.3667499   -0.7164139  
   0.150992500    -0.4499667   -0.6579053  
   0.152992400    -0.5274380   -0.5889753  
   0.154992300    -0.5955647   -0.5095440  
   0.156992200    -0.6534017   -0.4195384  
   0.158992100    -0.6993675   -0.3207359  
   0.160992000    -0.7315456   -0.2137251  
   0.162991900    -0.7483801   -0.1005310  
   0.164991800    -0.7482074    0.0171977  
   0.166991700    -0.7293773    0.1364702  
   0.168991600    -0.6911164    0.2542478  
   0.170991500    -0.6325848    0.3680713  
   0.172991400    -0.5540469    0.4728528  
   0.174991300    -0.4565527    0.5647662  
   0.176991200    -0.3414525    0.6400461  
   0.178991100    -0.2123832    0.6949366  
   0.180991000    -0.0735262    0.7263526  
   0.182990900     0.0702268    0.7309981  
   0.184990800     0.2141051    0.7083108  
   0.186990700     0.3513803    0.6586660  
   0.188990600     0.4587491    0.5974109  
   0.190990500     0.5817701    0.4911101  
   0.192990400     0.6714506    0.3758600  
   0.194990300     0.7357775    0.2504909  
   0.196990200     0.7755344    0.1187736  
   0.198990100     0.7912420   -0.0151747  
   0.200990000     0.7835481   -0.1471987  
   0.202989900     0.7544394   -0.2733750  
   0.204989800     0.7056655   -0.3895128  
   0.206989700     0.6415460   -0.4942789  
   0.208989600     0.5627485   -0.5845985  
   0.210989500     0.4732383   -0.6600601  
   0.212989400     0.3744490   -0.7200568  
   0.214989300     0.2701081   -0.7640284  
   0.216989200     0.1629029   -0.7913861  
   0.218989100     0.0544184   -0.8029683  
   0.220989000    -0.0537637   -0.7993561  
   0.222988900    -0.1595613   -0.7801394  
   0.224988800    -0.2610974   -0.7464216  
   0.226988700    -0.3567021   -0.6990387  
   0.228988600    -0.4442448   -0.6392765  
   0.230988500    -0.5228821   -0.5673587  
   0.232988400    -0.5901083   -0.4835398  
   0.234988300    -0.6462568   -0.3904310  
   0.236988200    -0.6890483   -0.2889297  
   0.238988100    -0.7164687   -0.1808472  
   0.240988000    -0.7276183   -0.0684305  
   0.242987900    -0.7212690    0.0460660  
   0.244987800    -0.6969165    0.1601548  
   0.246987700    -0.6537236    0.2718421  
   0.248987600    -0.5914986    0.3772586  
   0.250987500    -0.5108947    0.4728389  
   0.252987400    -0.4132670    0.5546136  
   0.254987300    -0.3017248    0.6194107  
   0.256987200    -0.1786349    0.6640688  
   0.258987100    -0.0476183    0.6875972  
   0.260987000     0.0874490    0.6858174  
   0.262986900     0.2214282    0.6588665  
   0.264986800     0.3487233    0.6074526  
   0.266986700     0.4643678    0.5330079  
   0.268986600     0.5638126    0.4390132  
   0.270986500     0.6432134    0.3295209  
   0.272986400     0.7009708    0.2086533  
   0.274986300     0.7356067    0.0808608  
   0.276986200     0.7467921   -0.0489630  
   0.278986100     0.7355802   -0.1767896  
   0.280986000     0.7025853   -0.2982683  
   0.282985900     0.6512269   -0.4104926  
   0.284985800     0.5833927   -0.5107973  
   0.286985700     0.5023081   -0.5966719  
   0.288985600     0.4111796   -0.6667522  
   0.290985500     0.3130076   -0.7209168  
   0.292985400     0.2101300   -0.7591874  
   0.294985300     0.1047369   -0.7816494  
   0.296985200    -0.0015211   -0.7886193  
   0.298985100    -0.1070132   -0.7803820  
   0.300985000    -0.2092831   -0.7578443  
   0.302984900    -0.3065947   -0.7216932  
   0.304984800    -0.3971829   -0.6730763  
   0.306984700    -0.4795892   -0.6128937  
   0.308984600    -0.5525570   -0.5428551  
   0.310984500    -0.6153827   -0.4636096  
   0.312984400    -0.6673674   -0.3764228  
   0.314984300    -0.7070804   -0.2819836  
   0.316984200    -0.7337423   -0.1818206  
   0.318984100    -0.7459216   -0.0766629  
   0.320984000    -0.7424189    0.0318858  
   0.322983900    -0.7217774    0.1406384  
   0.324983800    -0.6832835    0.2456573  
   0.326983700    -0.6271076    0.3438537  
   0.328983600    -0.5549818    0.4305895  
   0.330983500    -0.4705256    0.5033877  
   0.332983400    -0.3776007    0.5603344  
   0.334983300    -0.2788882    0.6020682  
   0.336983200    -0.1765294    0.6296576  
   0.338983100    -0.0713187    0.6428718  
   0.340983000     0.0354742    0.6416086  
   0.342982900     0.1424882    0.6244767  
   0.344982800     0.2479093    0.5905624  
   0.346982700     0.3489336    0.5390909  
   0.348982600     0.4410540    0.4699948  
   0.350982500     0.5221212    0.3860117  
   0.352982400     0.5883629    0.2881225  
   0.354982300     0.6382257    0.1749857  
   0.356982200     0.6679209    0.0424618  
   0.358982100     0.6707580   -0.0937283  
   0.360982000     0.6467248   -0.2273569  
   0.362981900     0.5968854   -0.3535207  
   0.364981800     0.5236433   -0.4673246  
   0.366981700     0.4295239   -0.5643259  
   0.368981600     0.3192184   -0.6410280  
   0.370981500     0.1968421   -0.6946698  
   0.372981400     0.0675959   -0.7240006  
   0.374981300    -0.0644322   -0.7283866  
   0.376981200     0.0461602   -0.7293643  
   0.378981100    -0.0838204   -0.7289097  
   0.380981000    -0.2112440   -0.7047621  
   0.382980900    -0.3204996   -0.6640185  
   0.384980800    -0.4160617   -0.6088383  
   0.386980700    -0.5018153   -0.5400465  
   0.388980600    -0.5756203   -0.4592938  
   0.390980500    -0.6358205   -0.3688829  
   0.392980400    -0.6815928   -0.2713865  
   0.394980300    -0.7117775   -0.1683332  
   0.396980200    -0.7265806   -0.0622137  
   0.398980100    -0.7251745    0.0454540  
   0.400980000    -0.7079619    0.1520766  
   0.402979900    -0.6743348    0.2559355  
   0.404979800    -0.6258402    0.3536911  
   0.406979700    -0.5623589    0.4439659  
   0.408979600    -0.4849798    0.5242134  
   0.410979500    -0.3948110    0.5923209  
   0.412979400    -0.2937690    0.6470004  
   0.414979300    -0.1836124    0.6838014  
   0.416979200    -0.0677239    0.7039244  
   0.418979100     0.0506490    0.7053421  
   0.420979000     0.1689354    0.6867446  
   0.422978900     0.2838902    0.6486493  
   0.424978800     0.3918544    0.5913162  
   0.426978700     0.4891846    0.5159330  
   0.428978600     0.5725976    0.4245499  
   0.430978500     0.6390499    0.3205965  
   0.432978400     0.6869832    0.2068749  
   0.434978300     0.7158262    0.0869942  
   0.436978200     0.7226877   -0.0358104  
   0.438978100     0.7087661   -0.1571577  
   0.440978000     0.6748198   -0.2739989  
   0.442977900     0.6220818   -0.3824479  
   0.444977800     0.5524232   -0.4799230  
   0.446977700     0.4687231   -0.5633041  
   0.448977600     0.3734316   -0.6314733  
   0.450977500     0.2696094   -0.6827042  
   0.452977400     0.1595867   -0.7158296  
   0.454977300     0.0460215   -0.7311178  
   0.456977200    -0.0675810   -0.7280861  
   0.458977100    -0.1780906   -0.7073201  
   0.460977000    -0.2836456   -0.6697204  
   0.462976900    -0.3802685   -0.6169266  
   0.464976800    -0.4675669   -0.5500166  
   0.466976700    -0.5429232   -0.4707810  
   0.468976600    -0.6046337   -0.3814577  
   0.470976500    -0.6522171   -0.2837535  
   0.472976400    -0.6842438   -0.1799448  
   0.474976300    -0.6997782   -0.0724603  
   0.476976200    -0.6981332    0.0360667  
   0.478976100    -0.6797301    0.1433766  
   0.480976000    -0.6452287    0.2465042  
   0.482975900    -0.5944816    0.3434403  
   0.484975800    -0.5286523    0.4316123  
   0.486975700    -0.4486056    0.5088597  
   0.488975600    -0.3567526    0.5729378  
   0.490975500    -0.2544404    0.6214764  
   0.492975400    -0.1443643    0.6523772  
   0.494975300    -0.0299552    0.6645619  
   0.496975200     0.0857253    0.6566517  
   0.498975100     0.1984118    0.6290000  
   0.500975000     0.3043441    0.5819501  
   0.502974900     0.4004264    0.5174703  
   0.504974800     0.4831448    0.4374332  
   0.506974700     0.5500765    0.3446790  
   0.508974600     0.5991820    0.2421756  
   0.510974500     0.6296018    0.1346560  
   0.512974400     0.6411523    0.0256926  
   0.514974300     0.6333560   -0.0806054  
   0.516974200     0.6104906   -0.1816817  
   0.518974100     0.5733959   -0.2758329  
   0.520974000     0.5241889   -0.3610498  
   0.522973900     0.4649030   -0.4372319  
   0.524973800     0.3966289   -0.5030807  
   0.526973700     0.3206497   -0.5590450  
   0.528973600     0.2384206   -0.6044254  
   0.530973500     0.1501089   -0.6386210  
   0.532973400     0.0570528   -0.6605852  
   0.534973300    -0.0390389   -0.6692232  
   0.536973200    -0.1373426   -0.6637030  
   0.538973100    -0.2346464   -0.6433535  
   0.540973000    -0.3288416   -0.6080121  
   0.542972900    -0.4178306   -0.5579255  
   0.544972800    -0.4988836   -0.4935551  
   0.546972700    -0.5695111   -0.4155833  
   0.548972600    -0.6278046   -0.3269936  
   0.550972500    -0.6711885   -0.2290602  
   0.552972400    -0.6984221   -0.1243859  
   0.554972300    -0.7084295   -0.0162899  
   0.556972200    -0.7008489    0.0930435  
   0.558972100    -0.6756310    0.2000926  
   0.560972000    -0.6332693    0.3018895  
   0.562971900    -0.5750754    0.3955109  
   0.564971800    -0.5022183    0.4791881  
   0.566971700    -0.4167683    0.5501679  
   0.568971600    -0.3206481    0.6066619  
   0.570971500    -0.2161278    0.6473334  
   0.572971400    -0.1057895    0.6703873  
   0.574971300     0.0079918    0.6753408  
   0.576971200     0.1220255    0.6612703  
   0.578971100     0.2332643    0.6281660  
   0.580971000     0.3374183    0.5766762  
   0.582970900     0.4324562    0.5082671  
   0.584970800     0.5143574    0.4245119  
   0.586970700     0.5811947    0.3279354  
   0.588970600     0.6304293    0.2216002  
   0.590970500     0.6611122    0.1082071  
   0.592970400     0.6719937   -0.0088995  
   0.594970300     0.6627941   -0.1257405  
   0.596970200     0.6339773   -0.2396306  
   0.598970100     0.5864330   -0.3460375  
   0.600970000     0.5217994   -0.4429369  
   0.602969900     0.4422425   -0.5272681  
   0.604969800     0.3498378   -0.5965581  
   0.606969700     0.2484028   -0.6492510  
   0.608969600     0.1395560   -0.6845646  
   0.610969500     0.0273931   -0.7010604  
   0.612969400    -0.0848194   -0.6989984  
   0.614969300    -0.1943322   -0.6793872  
   0.616969200    -0.2980427   -0.6427517  
   0.618969100    -0.3935202   -0.5909747  
   0.620969000    -0.4788421   -0.5257384  
   0.622968900    -0.5529956   -0.4483208  
   0.624968800    -0.6140231   -0.3609544  
   0.626968700    -0.6614016   -0.2657581  
   0.628968600    -0.6932416   -0.1643422  
   0.630968500    -0.7096962   -0.0594840  
   0.632968400    -0.7102389    0.0464573  
   0.634968300    -0.6945058    0.1519074  
   0.636968200    -0.6631052    0.2537237  
   0.638968100    -0.6164837    0.3499793  
   0.640968000    -0.5555268    0.4386228  
   0.642967900    -0.4814164    0.5172493  
   0.644967800    -0.3955979    0.5843500  
   0.646967700    -0.2997499    0.6376393  
   0.648967600    -0.1964377    0.6754380  
   0.650967500    -0.0878627    0.6969843  
   0.652967400     0.0235218    0.7013841  
   0.654967300     0.1350853    0.6881745  
   0.656967200     0.2436252    0.6568281  
   0.658967100     0.3469291    0.6083283  
   0.660967000     0.4417665    0.5429193  
   0.662966900     0.5254157    0.4626219  
   0.664966800     0.5956724    0.3681107  
   0.666966700     0.6494663    0.2623765  
   0.668966600     0.6852274    0.1489805  
   0.670966500     0.7013271    0.0307623  
   0.672966400     0.6986752   -0.0882774  
   0.674966300     0.6746745   -0.2047983  
   0.676966200     0.6320910   -0.3150396  
   0.678966100     0.5719690   -0.4157980  
   0.680966000     0.4965384   -0.5048004  
   0.682965900     0.4079783   -0.5795628  
   0.684965800     0.3099369   -0.6380344  
   0.686965700     0.2039218   -0.6798288  
   0.688965600     0.0935020   -0.7033938  
   0.690965500    -0.0177529   -0.7081535  
   0.692965400    -0.1269336   -0.6965718  
   0.694965300    -0.2319440   -0.6682889  
   0.696965200    -0.3305162   -0.6244754  
   0.698965100    -0.4204229   -0.5665039  
   0.700965000    -0.4998058   -0.4958959  
   0.702964900    -0.5670910   -0.4144485  
   0.704964800    -0.6212525   -0.3244244  
   0.706964700    -0.6608728   -0.2274195  
   0.708964600    -0.6853890   -0.1252276  
   0.710964500    -0.6946540   -0.0209101  
   0.712964400    -0.6874455    0.0838854  
   0.714964300    -0.6639953    0.1866038  
   0.716964200    -0.6252880    0.2844603  
   0.718964100    -0.5718070    0.3750612  
   0.720964000    -0.5051579    0.4568032  
   0.722963900    -0.4261852    0.5273286  
   0.724963800    -0.3369509    0.5847476  
   0.726963700    -0.2387057    0.6275589  
   0.728963600    -0.1346055    0.6545580  
   0.730963500    -0.0272608    0.6637896  
   0.732963400     0.0809523    0.6559311  
   0.734963300     0.1867397    0.6303180  
   0.736963200     0.3019267    0.5802179  
   0.738963100     0.4064171    0.5090860  
   0.740963000     0.4955507    0.4200793  
   0.742962900     0.5662118    0.3156521  
   0.744962800     0.6157009    0.2006772  
   0.746962700     0.6426970    0.0793800  
   0.748962600     0.6467718   -0.0442182  
   0.750962500     0.6324794    0.0547316  
   0.752962400     0.6330707   -0.0669119  
   0.754962300     0.6116941   -0.1856930  
   0.756962200     0.5696344   -0.2979353  
   0.758962100     0.5084642   -0.4000922  
   0.760962000     0.4303910   -0.4895687  
   0.762961900     0.3427029   -0.5600284  
   0.764961800     0.2530737   -0.6110578  
   0.766961700     0.1569676   -0.6479716  
   0.768961600     0.0561198   -0.6695442  
   0.770961500    -0.0470655   -0.6755976  
   0.772961400    -0.1496135   -0.6659021  
   0.774961300    -0.2500467   -0.6405174  
   0.776961200    -0.3457513   -0.5999416  
   0.778961100    -0.4342473   -0.5446032  
   0.780961000    -0.5134308   -0.4759363  
   0.782960900    -0.5809534   -0.3953289  
   0.784960800    -0.6354293   -0.3045675  
   0.786960700    -0.6749216   -0.2059493  
   0.788960600    -0.6985947   -0.1018867  
   0.790960500    -0.7053320    0.0045830  
   0.792960400    -0.6955940    0.1107089  
   0.794960300    -0.6688985    0.2144163  
   0.796960200    -0.6263991    0.3123955  
   0.798960100    -0.5691959    0.4027105  
   0.800960000    -0.4984853    0.4823169  
   0.802959900    -0.4158877    0.5504552  
   0.804959800    -0.3238312    0.6048586  
   0.806959700    -0.2241247    0.6441633  
   0.808959600    -0.1194281    0.6675861  
   0.810959500    -0.0120780    0.6743115  
   0.812959400     0.0956558    0.6635168  
   0.814959300     0.2007826    0.6361126  
   0.816959200     0.3006443    0.5921136  
   0.818959100     0.3926478    0.5324553  
   0.820959000     0.4742804    0.4584556  
   0.822958900     0.5430490    0.3716784  
   0.824958800     0.5974203    0.2744864  
   0.826958700     0.6353135    0.1691879  
   0.828958600     0.6551833    0.0587463  
   0.830958500     0.6568179   -0.0536736  
   0.832958400     0.6397517   -0.1650261  
   0.834958300     0.6048650   -0.2718295  
   0.836958200     0.5524510   -0.3713733  
   0.838958100     0.4846761   -0.4608380  
   0.840958000     0.4030163   -0.5378820  
   0.842957900     0.3100203   -0.6002209  
   0.844957800     0.2083917   -0.6464722  
   0.846957700     0.1007638   -0.6752548  
   0.848957600    -0.0092400   -0.6861157  
   0.850957500    -0.1195327   -0.6792064  
   0.852957400    -0.2262963   -0.6547629  
   0.854957300    -0.3273503   -0.6135573  
   0.856957200    -0.4200741   -0.5574075  
   0.858957100    -0.5019665   -0.4879057  
   0.860957000    -0.5714245   -0.4072427  
   0.862956900    -0.6275349   -0.3177676  
   0.864956800    -0.6686626   -0.2215634  
   0.866956700    -0.6946963   -0.1214400  
   0.868956600    -0.7047379   -0.0187691  
   0.870956500    -0.6999072    0.0836516  
   0.872956400    -0.6800101    0.1841592  
   0.874956300    -0.6449829    0.2803758  
   0.876956200    -0.5964076    0.3710780  
   0.878956100    -0.5344110    0.4537308  
   0.880956000    -0.4602881    0.5264681  
   0.882955900    -0.3759436    0.5876523  
   0.884955800    -0.2827485    0.6356670  
   0.886955700    -0.1828035    0.6693990  
   0.888955600    -0.0781718    0.6875346  
   0.890955500     0.0286224    0.6891110  
   0.892955400     0.1352475    0.6743631  
   0.894955300     0.2387436    0.6427929  
