! MS46122B
! 2250307/22442219
! 7/28/2025 8:08:25 AM
! C:\USERS\SPARKY\DOCUMENTS\VNA_DATA\JULY28_2025\295K\PORT4_MOS5_REPEAT1.S1P
! CHANNEL.1
! TR.MEASUREMENT
! RAW.DATA
# GHZ S RI R 50.0
! FREQ.GHZ         S11RE         S11IM         
!; PortSelection: Port_1
   0.001000000     1.0464990   -0.0719910  
   0.002999900     0.9647510   -0.1943501  
   0.004999800     0.9038628   -0.2990947  
   0.006999700     0.8361189   -0.3964014  
   0.008999600     0.7559140   -0.4909750  
   0.010999500     0.6609371   -0.5800508  
   0.012999400     0.5454628   -0.6605364  
   0.014999300     0.4038568   -0.7252874  
   0.016999200     0.2312037   -0.7602718  
   0.018999100     0.0257523   -0.7449559  
   0.020999000    -0.1984609   -0.6455331  
   0.022998900    -0.3953730   -0.4298170  
   0.024998800    -0.4649362   -0.1079119  
   0.026998700    -0.3796118    0.2468109  
   0.028998600    -0.1149546    0.4890292  
   0.030998500     0.2009978    0.5615634  
   0.032998400     0.4443077    0.4919386  
   0.034998300     0.6618699    0.3685954  
   0.036998200     0.7798067    0.2137828  
   0.038998100     0.8423027    0.0586400  
   0.040998000     0.8648442   -0.0854788  
   0.042997900     0.8583184   -0.2156459  
   0.044997800     0.8078005   -0.3053688  
   0.046997700     0.7890406   -0.4331326  
   0.048997600     0.7357972   -0.5219237  
   0.050997500     0.6744131   -0.5986087  
   0.052997400     0.6070581   -0.6638957  
   0.054997300     0.5332527   -0.7204294  
   0.056997200     0.4556231   -0.7672643  
   0.058997100     0.3746538   -0.8047835  
   0.060997000     0.2903338   -0.8334488  
   0.062996900     0.2031667   -0.8528098  
   0.064996800     0.1139274   -0.8628457  
   0.066996700     0.0225052   -0.8631496  
   0.068996600    -0.0698845   -0.8528904  
   0.070996500    -0.1634565   -0.8323399  
   0.072996400    -0.2560138   -0.7986347  
   0.074996300    -0.3468253   -0.7524700  
   0.076996200    -0.4346762   -0.6926256  
   0.078996100    -0.5165111   -0.6186202  
   0.080996000    -0.5909154   -0.5296845  
   0.082995900    -0.6539472   -0.4257884  
   0.084995800    -0.7017000   -0.3078267  
   0.086995700    -0.7320162   -0.1771476  
   0.088995600    -0.7397203   -0.0365266  
   0.090995500    -0.7207788    0.1100885  
   0.092995400    -0.6727604    0.2577226  
   0.094995300    -0.5917746    0.3981109  
   0.096995200    -0.4796656    0.5226233  
   0.098995100    -0.3387767    0.6228769  
   0.100995000    -0.1749109    0.6911588  
   0.102994900     0.0000510    0.7201281  
   0.104994800     0.1767256    0.7086005  
   0.106994700     0.3436770    0.6570945  
   0.108994600     0.4923823    0.5723037  
   0.110994500     0.6155725    0.4607469  
   0.112994400     0.7090209    0.3301060  
   0.114994300     0.7713249    0.1893835  
   0.116994200     0.8039004    0.0455303  
   0.118994100     0.8086981   -0.0956117  
   0.120994000     0.7907150   -0.2294485  
   0.122993900     0.7502742   -0.3527452  
   0.124993800     0.6931943   -0.4627283  
   0.126993700     0.6218763   -0.5589767  
   0.128993600     0.5391062   -0.6397746  
   0.130993500     0.4489712   -0.7062530  
   0.132993400     0.3530566   -0.7578122  
   0.134993300     0.2530516   -0.7950522  
   0.136993200     0.1508141   -0.8178285  
   0.138993100     0.0476992   -0.8268196  
   0.140993000    -0.0546432   -0.8222523  
   0.142992900    -0.1548785   -0.8041897  
   0.144992800    -0.2526589   -0.7750430  
   0.146992700    -0.3456952   -0.7316387  
   0.148992600    -0.4330882   -0.6761630  
   0.150992500    -0.5118793   -0.6078863  
   0.152992400    -0.5836109   -0.5295108  
   0.154992300    -0.6445978   -0.4406599  
   0.156992200    -0.6937641   -0.3416668  
   0.158992100    -0.7292365   -0.2348152  
   0.160992000    -0.7493353   -0.1205177  
   0.162991900    -0.7521074   -0.0015520  
   0.164991800    -0.7360339    0.1199086  
   0.166991700    -0.6999730    0.2404121  
   0.168991600    -0.6432678    0.3568542  
   0.170991500    -0.5655223    0.4652027  
   0.172991400    -0.4678600    0.5607414  
   0.174991300    -0.3521120    0.6391436  
   0.176991200    -0.2211671    0.6969142  
   0.178991100    -0.0796783    0.7298877  
   0.180991000     0.0674049    0.7366326  
   0.182990900     0.2142486    0.7142131  
   0.184990800     0.3548189    0.6639388  
   0.186990700     0.4829453    0.5879193  
   0.188990600     0.5781104    0.5060095  
   0.190990500     0.6796042    0.3761995  
   0.192990400     0.7456440    0.2447130  
   0.194990300     0.7847914    0.1091234  
   0.196990200     0.7988360   -0.0281587  
   0.198990100     0.7885881   -0.1622978  
   0.200990000     0.7561263   -0.2897181  
   0.202989900     0.7039020   -0.4068495  
   0.204989800     0.6348861   -0.5117995  
   0.206989700     0.5533007   -0.6023289  
   0.208989600     0.4601437   -0.6764716  
   0.210989500     0.3585754   -0.7343237  
   0.212989400     0.2510316   -0.7758636  
   0.214989300     0.1409344   -0.8003452  
   0.216989200     0.0298913   -0.8084292  
   0.218989100    -0.0794861   -0.8009476  
   0.220989000    -0.1858971   -0.7775775  
   0.222988900    -0.2879916   -0.7395191  
   0.224988800    -0.3837835   -0.6874030  
   0.226988700    -0.4709362   -0.6225711  
   0.228988600    -0.5479595   -0.5456816  
   0.230988500    -0.6135449   -0.4578809  
   0.232988400    -0.6654968   -0.3596338  
   0.234988300    -0.7041281   -0.2536251  
   0.236988200    -0.7267640   -0.1414276  
   0.238988100    -0.7318260   -0.0252854  
   0.240988000    -0.7185367    0.0923952  
   0.242987900    -0.6863116    0.2081938  
   0.244987800    -0.6348649    0.3198114  
   0.246987700    -0.5637186    0.4237416  
   0.248987600    -0.4738312    0.5161860  
   0.250987500    -0.3670950    0.5930463  
   0.252987400    -0.2465243    0.6510310  
   0.254987300    -0.1160192    0.6867052  
   0.256987200     0.0207467    0.6979869  
   0.258987100     0.1588868    0.6850365  
   0.260987000     0.2930221    0.6451371  
   0.262986900     0.4181347    0.5802169  
   0.264986800     0.5286973    0.4931436  
   0.266986700     0.6206598    0.3871518  
   0.268986600     0.6906224    0.2670957  
   0.270986500     0.7363985    0.1386631  
   0.272986400     0.7580717    0.0059085  
   0.274986300     0.7561205   -0.1261307  
   0.276986200     0.7312801   -0.2536055  
   0.278986100     0.6860218   -0.3724392  
   0.280986000     0.6226362   -0.4799906  
   0.282985900     0.5444543   -0.5737891  
   0.284985800     0.4542471   -0.6522472  
   0.286985700     0.3547428   -0.7140766  
   0.288985600     0.2502540   -0.7587572  
   0.290985500     0.1424785   -0.7871259  
   0.292985400     0.0341135   -0.7992067  
   0.294985300    -0.0734779   -0.7955133  
   0.296985200    -0.1789059   -0.7769305  
   0.298985100    -0.2799979   -0.7438508  
   0.300985000    -0.3755889   -0.6972600  
   0.302984900    -0.4628931   -0.6383754  
   0.304984800    -0.5409983   -0.5679427  
   0.306984700    -0.6087593   -0.4872240  
   0.308984600    -0.6643696   -0.3984855  
   0.310984500    -0.7077758   -0.3024276  
   0.312984400    -0.7372421   -0.2000964  
   0.314984300    -0.7518368   -0.0929855  
   0.316984200    -0.7500345    0.0170156  
   0.318984100    -0.7312557    0.1283270  
   0.320984000    -0.6934969    0.2376624  
   0.322983900    -0.6366029    0.3406744  
   0.324983800    -0.5619080    0.4320401  
   0.326983700    -0.4720617    0.5085595  
   0.328983600    -0.3716159    0.5664333  
   0.330983500    -0.2661254    0.6049352  
   0.332983400    -0.1604646    0.6260507  
   0.334983300    -0.0555917    0.6325509  
   0.336983200     0.0478942    0.6260346  
   0.338983100     0.1503961    0.6062418  
   0.340983000     0.2508014    0.5723516  
   0.342982900     0.3476624    0.5227162  
   0.344982800     0.4380703    0.4571479  
   0.346982700     0.5187424    0.3752525  
   0.348982600     0.5846128    0.2782755  
   0.350982500     0.6342472    0.1700273  
   0.352982400     0.6643579    0.0532175  
   0.354982300     0.6727082   -0.0727726  
   0.356982200     0.6540521   -0.2101184  
   0.358982100     0.6079559   -0.3408472  
   0.360982000     0.5371903   -0.4593060  
   0.362981900     0.4442116   -0.5610833  
   0.364981800     0.3334638   -0.6423854  
   0.366981700     0.2095665   -0.7001277  
   0.368981600     0.0776633   -0.7326316  
   0.370981500    -0.0570419   -0.7393501  
   0.372981400    -0.1896448   -0.7204670  
   0.374981300    -0.3154749   -0.6772388  
   0.376981200    -0.2076495   -0.7180007  
   0.378981100    -0.3313359   -0.6719342  
   0.380981000    -0.4441299   -0.6039871  
   0.382980900    -0.5338584   -0.5258675  
   0.384980800    -0.6057601   -0.4393686  
   0.386980700    -0.6635709   -0.3427590  
   0.388980600    -0.7062380   -0.2383402  
   0.390980500    -0.7316564   -0.1293352  
   0.392980400    -0.7405329   -0.0180010  
   0.394980300    -0.7322435    0.0933346  
   0.396980200    -0.7071684    0.2025133  
   0.398980100    -0.6653931    0.3078229  
   0.400980000    -0.6075844    0.4057300  
   0.402979900    -0.5346734    0.4947532  
   0.404979800    -0.4479591    0.5718952  
   0.406979700    -0.3488960    0.6350430  
   0.408979600    -0.2405315    0.6824468  
   0.410979500    -0.1234830    0.7122554  
   0.412979400    -0.0014148    0.7224014  
   0.414979300     0.1219949    0.7113883  
   0.416979200     0.2432299    0.6804662  
   0.418979100     0.3582057    0.6291659  
   0.420979000     0.4638492    0.5584382  
   0.422978900     0.5562960    0.4699458  
   0.424978800     0.6323804    0.3659567  
   0.426978700     0.6894853    0.2501037  
   0.428978600     0.7253538    0.1259802  
   0.430978500     0.7388105   -0.0017532  
   0.432978400     0.7300547   -0.1291215  
   0.434978300     0.7008440   -0.2527077  
   0.436978200     0.6502636   -0.3678284  
   0.438978100     0.5813254   -0.4717639  
   0.440978000     0.4965463   -0.5617181  
   0.442977900     0.3989397   -0.6359199  
   0.444977800     0.2920426   -0.6918156  
   0.446977700     0.1783339   -0.7290273  
   0.448977600     0.0617086   -0.7469131  
   0.450977500    -0.0549405   -0.7459199  
   0.452977400    -0.1691571   -0.7265333  
   0.454977300    -0.2787459   -0.6895601  
   0.456977200    -0.3805896   -0.6357138  
   0.458977100    -0.4719622   -0.5670163  
   0.460977000    -0.5513236   -0.4852568  
   0.462976900    -0.6163905   -0.3929988  
   0.464976800    -0.6661379   -0.2914997  
   0.466976700    -0.6996611   -0.1840561  
   0.468976600    -0.7160424   -0.0724909  
   0.470976500    -0.7145735    0.0408910  
   0.472976400    -0.6950693    0.1527116  
   0.474976300    -0.6580344    0.2607614  
   0.476976200    -0.6040838    0.3620821  
   0.478976100    -0.5339195    0.4539903  
   0.480976000    -0.4494000    0.5332922  
   0.482975900    -0.3525627    0.5987042  
   0.484975800    -0.2454207    0.6474133  
   0.486975700    -0.1302842    0.6778821  
   0.488975600    -0.0106220    0.6885194  
   0.490975500     0.1098163    0.6784637  
   0.492975400     0.2275497    0.6472331  
   0.494975300     0.3384513    0.5960964  
   0.496975200     0.4387688    0.5254810  
   0.498975100     0.5246603    0.4389973  
   0.500975000     0.5934548    0.3388973  
   0.502974900     0.6429998    0.2296689  
   0.504974800     0.6721796    0.1141536  
   0.506974700     0.6808264   -0.0028791  
   0.508974600     0.6691638   -0.1185913  
   0.510974500     0.6389295   -0.2281852  
   0.512974400     0.5919917   -0.3293732  
   0.514974300     0.5303900   -0.4178877  
   0.516974200     0.4588040   -0.4953289  
   0.518974100     0.3784337   -0.5595734  
   0.520974000     0.2917286   -0.6104816  
   0.522973900     0.1999193   -0.6487359  
   0.524973800     0.1047026   -0.6738604  
   0.526973700     0.0072995   -0.6861989  
   0.528973600    -0.0914178   -0.6850430  
   0.530973500    -0.1904013   -0.6703531  
   0.532973400    -0.2877420   -0.6410658  
   0.534973300    -0.3808380   -0.5971838  
   0.536973200    -0.4681052   -0.5388796  
   0.538973100    -0.5462541   -0.4665282  
   0.540973000    -0.6129273   -0.3819306  
   0.542972900    -0.6655155   -0.2863560  
   0.544972800    -0.7025989   -0.1825092  
   0.546972700    -0.7225978   -0.0724008  
   0.548972600    -0.7244719    0.0401975  
   0.550972500    -0.7074603    0.1527828  
   0.552972400    -0.6721444    0.2617883  
   0.554972300    -0.6190047    0.3641210  
   0.556972200    -0.5496942    0.4567764  
   0.558972100    -0.4652154    0.5372632  
   0.560972000    -0.3686072    0.6030219  
   0.562971900    -0.2621865    0.6521453  
   0.564971800    -0.1486687    0.6835366  
   0.566971700    -0.0314467    0.6953999  
   0.568971600     0.0867693    0.6880654  
   0.570971500     0.2027457    0.6610654  
   0.572971400     0.3134690    0.6150104  
   0.574971300     0.4151565    0.5500981  
   0.576971200     0.5055263    0.4686669  
   0.578971100     0.5811481    0.3718699  
   0.580971000     0.6392685    0.2636950  
   0.582970900     0.6775663    0.1471723  
   0.584970800     0.6955889    0.0258272  
   0.586970700     0.6924949   -0.0962655  
   0.588970600     0.6688759   -0.2160080  
   0.590970500     0.6250965   -0.3292350  
   0.592970400     0.5631515   -0.4331326  
   0.594970300     0.4848893   -0.5244479  
   0.596970200     0.3933519   -0.6007410  
   0.598970100     0.2905148   -0.6608655  
   0.600970000     0.1803863   -0.7021830  
   0.602969900     0.0655839   -0.7252110  
   0.604969800    -0.0507625   -0.7292500  
   0.606969700    -0.1655135   -0.7146612  
   0.608969600    -0.2757217   -0.6818070  
   0.610969500    -0.3785984   -0.6324688  
   0.612969400    -0.4716267   -0.5677930  
   0.614969300    -0.5525515   -0.4903172  
   0.616969200    -0.6202684   -0.4018012  
   0.618969100    -0.6729161   -0.3049923  
   0.620969000    -0.7103298   -0.2019383  
   0.622968900    -0.7315918   -0.0946790  
   0.624968800    -0.7367719    0.0146512  
   0.626968700    -0.7256895    0.1238193  
   0.628968600    -0.6978404    0.2304815  
   0.630968500    -0.6544958    0.3318646  
   0.632968400    -0.5956382    0.4264338  
   0.634968300    -0.5227277    0.5115241  
   0.636968200    -0.4371096    0.5849122  
   0.638968100    -0.3407462    0.6444352  
   0.640968000    -0.2349817    0.6889092  
   0.642967900    -0.1228444    0.7165211  
   0.644967800    -0.0066713    0.7259506  
   0.646967700     0.1106195    0.7170431  
   0.648967600     0.2253740    0.6892543  
   0.650967500     0.3348975    0.6426352  
   0.652967400     0.4360339    0.5789005  
   0.654967300     0.5262357    0.4987805  
   0.656967200     0.6018384    0.4049244  
   0.658967100     0.6612470    0.2990148  
   0.660967000     0.7025719    0.1838107  
   0.662966900     0.7240234    0.0629939  
   0.664966800     0.7250629   -0.0606642  
   0.666966700     0.7050188   -0.1831110  
   0.668966600     0.6645617   -0.2996185  
   0.670966500     0.6055200   -0.4077146  
   0.672966400     0.5302922   -0.5046257  
   0.674966300     0.4403019   -0.5856955  
   0.676966200     0.3388087   -0.6499819  
   0.678966100     0.2294098   -0.6962138  
   0.680966000     0.1151923   -0.7236310  
   0.682965900    -0.0006809   -0.7322363  
   0.684965800    -0.1150682   -0.7222775  
   0.686965700    -0.2254588   -0.6944926  
   0.688965600    -0.3292403   -0.6504023  
   0.690965500    -0.4231833   -0.5904514  
   0.692965400    -0.5067410   -0.5182533  
   0.694965300    -0.5774161   -0.4347579  
   0.696965200    -0.6342660   -0.3424686  
   0.698965100    -0.6765400   -0.2426289  
   0.700965000    -0.7030160   -0.1377680  
   0.702964900    -0.7134683   -0.0303371  
   0.704964800    -0.7074357    0.0776088  
   0.706964700    -0.6848229    0.1836420  
   0.708964600    -0.6459961    0.2853010  
   0.710964500    -0.5921474    0.3807855  
   0.712964400    -0.5230407    0.4670427  
   0.714964300    -0.4409135    0.5416210  
   0.716964200    -0.3476383    0.6024054  
   0.718964100    -0.2454587    0.6478508  
   0.720964000    -0.1369346    0.6763836  
   0.722963900    -0.0248216    0.6867830  
   0.724963800     0.0881881    0.6788722  
   0.726963700     0.1985414    0.6525735  
   0.728963600     0.3035080    0.6079262  
   0.730963500     0.3996758    0.5456142  
   0.732963400     0.4837238    0.4690222  
   0.734963300     0.5545859    0.3793271  
   0.736963200     0.6162257    0.2643333  
   0.738963100     0.6554346    0.1398772  
   0.740963000     0.6702273    0.0110637  
   0.742962900     0.6607277   -0.1167196  
   0.744962800     0.6278443   -0.2396891  
   0.746962700     0.5734318   -0.3531317  
   0.748962600     0.5001234   -0.4538456  
   0.750962500     0.5511501   -0.3724712  
   0.752962400     0.4760466   -0.4700932  
   0.754962300     0.3854869   -0.5521967  
   0.756962200     0.2823364   -0.6165089  
   0.758962100     0.1700799   -0.6615958  
   0.760962000     0.0518792   -0.6857823  
   0.762961900    -0.0629905   -0.6895847  
   0.764961800    -0.1675309   -0.6764708  
   0.766961700    -0.2690960   -0.6477734  
   0.768961600    -0.3653650   -0.6035134  
   0.770961500    -0.4541069   -0.5452365  
   0.772961400    -0.5327432   -0.4734107  
   0.774961300    -0.5995539   -0.3904279  
   0.776961200    -0.6529809   -0.2974083  
   0.778961100    -0.6910506   -0.1969764  
   0.780961000    -0.7133142   -0.0912131  
   0.782960900    -0.7183501    0.0171384  
   0.784960800    -0.7061779    0.1257791  
   0.786960700    -0.6767476    0.2311537  
   0.788960600    -0.6308305    0.3311764  
   0.790960500    -0.5694301    0.4228249  
   0.792960400    -0.4944898    0.5035811  
   0.794960300    -0.4073548    0.5715905  
   0.796960200    -0.3103862    0.6248634  
   0.798960100    -0.2062918    0.6621294  
   0.800960000    -0.0974844    0.6828755  
   0.802959900     0.0136981    0.6858819  
   0.804959800     0.1239207    0.6710624  
   0.806959700     0.2308589    0.6388505  
   0.808959600     0.3312715    0.5898899  
   0.810959500     0.4231454    0.5251812  
   0.812959400     0.5035259    0.4463578  
   0.814959300     0.5705291    0.3547529  
   0.816959200     0.6219997    0.2533959  
   0.818959100     0.6562669    0.1445136  
   0.820959000     0.6721977    0.0311143  
   0.822958900     0.6694086   -0.0837211  
   0.824958800     0.6476603   -0.1966560  
   0.826958700     0.6074520   -0.3046650  
   0.828958600     0.5499613   -0.4045404  
   0.830958500     0.4767082   -0.4934242  
   0.832958400     0.3900331   -0.5690734  
   0.834958300     0.2925943   -0.6286596  
   0.836958200     0.1870578   -0.6716833  
   0.838958100     0.0763349   -0.6966003  
   0.840958000    -0.0362479   -0.7032975  
   0.842957900    -0.1481402   -0.6918238  
   0.844957800    -0.2559249   -0.6626404  
   0.846957700    -0.3573819   -0.6169047  
   0.848957600    -0.4496513   -0.5561408  
   0.850957500    -0.5308349   -0.4818648  
   0.852957400    -0.5990219   -0.3962447  
   0.854957300    -0.6528039   -0.3017357  
   0.856957200    -0.6911132   -0.2003651  
   0.858957100    -0.7133676   -0.0949533  
   0.860957000    -0.7191237    0.0116772  
   0.862956900    -0.7087237    0.1171851  
   0.864956800    -0.6831530    0.2194914  
   0.866956700    -0.6427530    0.3163779  
   0.868956600    -0.5879372    0.4055661  
   0.870956500    -0.5209016    0.4861351  
   0.872956400    -0.4422453    0.5560645  
   0.874956300    -0.3536699    0.6137430  
   0.876956200    -0.2562893    0.6577566  
   0.878956100    -0.1526339    0.6869962  
   0.880956000    -0.0451479    0.6999840  
   0.882955900     0.0642218    0.6960259  
   0.884955800     0.1727393    0.6750008  
   0.886955700     0.2769864    0.6369497  
   0.888955600     0.3751043    0.5821613  
   0.890955500     0.4635715    0.5115696  
   0.892955400     0.5399313    0.4273709  
   0.894955300     0.6023014    0.3309405  
