! MS46122B
! 2250307/22442219
! 7/22/2025 3:26:42 PM
! C:\USERS\SPARKY\DOCUMENTS\VNA_DATA\JULY22_2025\295\PORT5_MOS4_REPEAT1.S1P
! CHANNEL.1
! TR.MEASUREMENT
! RAW.DATA
# GHZ S RI R 50.0
! FREQ.GHZ         S11RE         S11IM         
!; PortSelection: Port_1
   0.001000000     1.0459060   -0.0711684  
   0.002999900     0.9644299   -0.1937560  
   0.004999800     0.9034900   -0.2986392  
   0.006999700     0.8356812   -0.3960403  
   0.008999600     0.7554715   -0.4907073  
   0.010999500     0.6605962   -0.5798083  
   0.012999400     0.5454034   -0.6602388  
   0.014999300     0.4044193   -0.7250500  
   0.016999200     0.2325037   -0.7605486  
   0.018999100     0.0285638   -0.7463679  
   0.020999000    -0.1943599   -0.6499869  
   0.022998900    -0.3920720   -0.4398501  
   0.024998800    -0.4673215   -0.1235346  
   0.026998700    -0.3936145    0.2300726  
   0.028998600    -0.1387792    0.4799705  
   0.030998500     0.1745380    0.5641964  
   0.032998400     0.4223271    0.5034921  
   0.034998300     0.6454957    0.3863060  
   0.036998200     0.7695759    0.2336451  
   0.038998100     0.8372514    0.0791385  
   0.040998000     0.8636653   -0.0658927  
   0.042997900     0.8604642   -0.1975441  
   0.044997800     0.8120598   -0.2891837  
   0.046997700     0.7954759   -0.4176364  
   0.048997600     0.7440754   -0.5082371  
   0.050997500     0.6839769   -0.5863636  
   0.052997400     0.6175730   -0.6532951  
   0.054997300     0.5453423   -0.7108497  
   0.056997200     0.4684684   -0.7590790  
   0.058997100     0.3884368   -0.7979232  
   0.060997000     0.3050410   -0.8279850  
   0.062996900     0.2189311   -0.8490187  
   0.064996800     0.1303794   -0.8606263  
   0.066996700     0.0398382   -0.8628302  
   0.068996600    -0.0518198   -0.8546218  
   0.070996500    -0.1444620   -0.8364727  
   0.072996400    -0.2367565   -0.8054406  
   0.074996300    -0.3273908   -0.7623098  
   0.076996200    -0.4152695   -0.7059000  
   0.078996100    -0.4979499   -0.6358452  
   0.080996000    -0.5736852   -0.5510397  
   0.082995900    -0.6389859   -0.4517035  
   0.084995800    -0.6903227   -0.3382443  
   0.086995700    -0.7255108   -0.2122408  
   0.088995600    -0.7395015   -0.0753711  
   0.090995500    -0.7285051    0.0684955  
   0.092995400    -0.6898631    0.2148208  
   0.094995300    -0.6195908    0.3565751  
   0.096995200    -0.5182453    0.4858170  
   0.098995100    -0.3873031    0.5934805  
   0.100995000    -0.2316847    0.6730622  
   0.102994900    -0.0616409    0.7152013  
   0.104994800     0.1138619    0.7178831  
   0.106994700     0.2837373    0.6804414  
   0.108994600     0.4389924    0.6085889  
   0.110994500     0.5714569    0.5073122  
   0.112994400     0.6758708    0.3841341  
   0.114994300     0.7501749    0.2475042  
   0.116994200     0.7943027    0.1051154  
   0.118994100     0.8099936   -0.0368202  
   0.120994000     0.8018280   -0.1733373  
   0.122993900     0.7701691   -0.3006036  
   0.124993800     0.7200473   -0.4158719  
   0.126993700     0.6547724   -0.5177001  
   0.128993600     0.5769241   -0.6045291  
   0.130993500     0.4906785   -0.6770590  
   0.132993400     0.3972958   -0.7352126  
   0.134993300     0.2995734   -0.7786998  
   0.136993200     0.1987942   -0.8077375  
   0.138993100     0.0966283   -0.8227767  
   0.140993000    -0.0056131   -0.8246267  
   0.142992900    -0.1066617   -0.8129340  
   0.144992800    -0.2053746   -0.7900656  
   0.146992700    -0.2999898   -0.7528416  
   0.148992600    -0.3895309   -0.7037874  
   0.150992500    -0.4716721   -0.6416822  
   0.152992400    -0.5470575   -0.5693986  
   0.154992300    -0.6129004   -0.4865529  
   0.156992200    -0.6677443   -0.3934631  
   0.158992100    -0.7103642   -0.2917514  
   0.160992000    -0.7384385   -0.1820618  
   0.162991900    -0.7508067   -0.0668592  
   0.164991800    -0.7454360    0.0522669  
   0.166991700    -0.7209547    0.1722911  
   0.168991600    -0.6765926    0.2900698  
   0.170991500    -0.6116694    0.4024595  
   0.172991400    -0.5267537    0.5047281  
   0.174991300    -0.4228222    0.5928361  
   0.176991200    -0.3023150    0.6631638  
   0.178991100    -0.1684781    0.7110868  
   0.180991000    -0.0261080    0.7349424  
   0.182990900     0.1198059    0.7308464  
   0.184990800     0.2637519    0.6990303  
   0.186990700     0.3991048    0.6404254  
   0.188990600     0.5033728    0.5719334  
   0.190990500     0.6202583    0.4567079  
   0.192990400     0.7028937    0.3351776  
   0.194990300     0.7592698    0.2051080  
   0.196990200     0.7909078    0.0701940  
   0.198990100     0.7974286   -0.0649375  
   0.200990000     0.7813267   -0.1970262  
   0.202989900     0.7436917   -0.3209260  
   0.204989800     0.6876753   -0.4343058  
   0.206989700     0.6168158   -0.5347329  
   0.208989600     0.5323152   -0.6200373  
   0.210989500     0.4375192   -0.6902287  
   0.212989400     0.3352057   -0.7437775  
   0.214989300     0.2279606   -0.7811368  
   0.216989200     0.1185089   -0.8019574  
   0.218989100     0.0091748   -0.8069639  
   0.220989000    -0.0989660   -0.7963533  
   0.222988900    -0.2039563   -0.7701657  
   0.224988800    -0.3041415   -0.7300247  
   0.226988700    -0.3972893   -0.6762999  
   0.228988600    -0.4816385   -0.6102917  
   0.230988500    -0.5563118   -0.5325916  
   0.232988400    -0.6185840   -0.4432017  
   0.234988300    -0.6689526   -0.3454559  
   0.236988200    -0.7052343   -0.2397180  
   0.238988100    -0.7254502   -0.1284608  
   0.240988000    -0.7284430   -0.0137719  
   0.242987900    -0.7135400    0.1020675  
   0.244987800    -0.6800100    0.2160253  
   0.246987700    -0.6274258    0.3259661  
   0.248987600    -0.5556154    0.4281026  
   0.250987500    -0.4654976    0.5184645  
   0.252987400    -0.3597002    0.5930094  
   0.254987300    -0.2407355    0.6490800  
   0.256987200    -0.1117975    0.6834034  
   0.258987100     0.0233679    0.6951946  
   0.260987000     0.1598499    0.6805957  
   0.262986900     0.2925681    0.6407778  
   0.264986800     0.4159594    0.5764219  
   0.266986700     0.5253046    0.4902110  
   0.268986600     0.6158873    0.3859704  
   0.270986500     0.6851547    0.2679964  
   0.272986400     0.7310634    0.1412007  
   0.274986300     0.7531270    0.0099914  
   0.276986200     0.7519360   -0.1205629  
   0.278986100     0.7281177   -0.2472291  
   0.280986000     0.6839458   -0.3652866  
   0.282985900     0.6219906   -0.4724271  
   0.284985800     0.5453511   -0.5659114  
   0.286985700     0.4567124   -0.6441361  
   0.288985600     0.3594960   -0.7058450  
   0.290985500     0.2570408   -0.7509691  
   0.292985400     0.1510197   -0.7802274  
   0.294985300     0.0437668   -0.7934638  
   0.296985200    -0.0629259   -0.7912788  
   0.298985100    -0.1678897   -0.7740831  
   0.300985000    -0.2686072   -0.7428319  
   0.302984900    -0.3628856   -0.6982737  
   0.304984800    -0.4496554   -0.6417450  
   0.306984700    -0.5274606   -0.5740286  
   0.308984600    -0.5950693   -0.4967271  
   0.310984500    -0.6513850   -0.4116302  
   0.312984400    -0.6963152   -0.3183925  
   0.314984300    -0.7279916   -0.2189493  
   0.316984200    -0.7453578   -0.1148110  
   0.318984100    -0.7474231   -0.0061182  
   0.320984000    -0.7325873    0.1032420  
   0.322983900    -0.6996594    0.2118068  
   0.324983800    -0.6485608    0.3143899  
   0.326983700    -0.5800411    0.4065165  
   0.328983600    -0.4972310    0.4850458  
   0.330983500    -0.4037650    0.5473619  
   0.332983400    -0.3046376    0.5926101  
   0.334983300    -0.2021405    0.6227668  
   0.336983200    -0.0976272    0.6385629  
   0.338983100     0.0082729    0.6403547  
   0.340983000     0.1144507    0.6273944  
   0.342982900     0.2196684    0.5985824  
   0.344982800     0.3214102    0.5528771  
   0.346982700     0.4169135    0.4901347  
   0.348982600     0.5014216    0.4098389  
   0.350982500     0.5729976    0.3160014  
   0.352982400     0.6277441    0.2097144  
   0.354982300     0.6638506    0.0898503  
   0.356982200     0.6770191   -0.0471147  
   0.358982100     0.6624899   -0.1838651  
   0.360982000     0.6212374   -0.3147005  
   0.362981900     0.5550579   -0.4348672  
   0.364981800     0.4666856   -0.5392905  
   0.366981700     0.3598697   -0.6241528  
   0.368981600     0.2396451   -0.6861798  
   0.370981500     0.1102957   -0.7239696  
   0.372981400    -0.0225930   -0.7362569  
   0.374981300    -0.1549946   -0.7230753  
   0.376981200    -0.0431721   -0.7378893  
   0.378981100    -0.1733872   -0.7205308  
   0.380981000    -0.2975359   -0.6805562  
   0.382980900    -0.4013102   -0.6253556  
   0.384980800    -0.4899852   -0.5579107  
   0.386980700    -0.5666984   -0.4781036  
   0.388980600    -0.6304126   -0.3874034  
   0.390980500    -0.6792563   -0.2892987  
   0.392980400    -0.7122431   -0.1852392  
   0.394980300    -0.7292895   -0.0777215  
   0.396980200    -0.7302237    0.0310226  
   0.398980100    -0.7148464    0.1394962  
   0.400980000    -0.6830248    0.2448979  
   0.402979900    -0.6355136    0.3450785  
   0.404979800    -0.5729108    0.4374886  
   0.406979700    -0.4959454    0.5200459  
   0.408979600    -0.4063984    0.5901552  
   0.410979500    -0.3052961    0.6469659  
   0.412979400    -0.1948411    0.6874079  
   0.414979300    -0.0776387    0.7084336  
   0.416979200     0.0425427    0.7116507  
   0.418979100     0.1628751    0.6946636  
   0.420979000     0.2797436    0.6576613  
   0.422978900     0.3900543    0.6009901  
   0.424978800     0.4898887    0.5257140  
   0.426978700     0.5757145    0.4338383  
   0.428978600     0.6446722    0.3282678  
   0.430978500     0.6945585    0.2124704  
   0.432978400     0.7235116    0.0903011  
   0.434978300     0.7321361   -0.0348470  
   0.436978200     0.7181684   -0.1584603  
   0.438978100     0.6837096   -0.2776203  
   0.440978000     0.6298949   -0.3881891  
   0.442977900     0.5587246   -0.4871644  
   0.444977800     0.4729430   -0.5720252  
   0.446977700     0.3754398   -0.6410493  
   0.448977600     0.2693048   -0.6925097  
   0.450977500     0.1575277   -0.7251408  
   0.452977400     0.0425002   -0.7396501  
   0.454977300    -0.0724116   -0.7355157  
   0.456977200    -0.1846841   -0.7133786  
   0.458977100    -0.2913827   -0.6740935  
   0.460977000    -0.3894909   -0.6189932  
   0.462976900    -0.4770747   -0.5501177  
   0.464976800    -0.5526108   -0.4685808  
   0.466976700    -0.6141466   -0.3769592  
   0.468976600    -0.6609711   -0.2771454  
   0.470976500    -0.6917238   -0.1713671  
   0.472976400    -0.7057966   -0.0618809  
   0.474976300    -0.7026144    0.0485805  
   0.476976200    -0.6818120    0.1573398  
   0.478976100    -0.6446134    0.2619006  
   0.480976000    -0.5911853    0.3595502  
   0.482975900    -0.5222954    0.4479522  
   0.484975800    -0.4395249    0.5247186  
   0.486975700    -0.3447049    0.5877491  
   0.488975600    -0.2396904    0.6347799  
   0.490975500    -0.1272056    0.6639824  
   0.492975400    -0.0104070    0.6735843  
   0.494975300     0.1069950    0.6632001  
   0.496975200     0.2214841    0.6321154  
   0.498975100     0.3286220    0.5817739  
   0.500975000     0.4253609    0.5132550  
   0.502974900     0.5078873    0.4294908  
   0.504974800     0.5739213    0.3328214  
   0.506974700     0.6214590    0.2269383  
   0.508974600     0.6498028    0.1155545  
   0.510974500     0.6581210    0.0030421  
   0.512974400     0.6476775   -0.1071808  
   0.514974300     0.6191211   -0.2103314  
   0.516974200     0.5766589   -0.3063068  
   0.518974100     0.5218753   -0.3919882  
   0.520974000     0.4568269   -0.4671277  
   0.522973900     0.3832494   -0.5316172  
   0.524973800     0.3025717   -0.5840783  
   0.526973700     0.2162004   -0.6260765  
   0.528973600     0.1250978   -0.6553935  
   0.530973500     0.0297314   -0.6728810  
   0.532973400    -0.0680755   -0.6766927  
   0.534973300    -0.1667554   -0.6657193  
   0.536973200    -0.2646266   -0.6407878  
   0.538973100    -0.3584816   -0.6003439  
   0.540973000    -0.4457993   -0.5453301  
   0.542972900    -0.5248529   -0.4762132  
   0.544972800    -0.5928195   -0.3945502  
   0.546972700    -0.6472507   -0.3018138  
   0.548972600    -0.6865485   -0.2004106  
   0.550972500    -0.7090449   -0.0930094  
   0.552972400    -0.7138348    0.0171995  
   0.554972300    -0.7005997    0.1278256  
   0.556972200    -0.6694245    0.2352419  
   0.558972100    -0.6208946    0.3367046  
   0.560972000    -0.5566595    0.4290865  
   0.562971900    -0.4777586    0.5100995  
   0.564971800    -0.3866289    0.5775855  
   0.566971700    -0.2854872    0.6295299  
   0.568971600    -0.1767735    0.6648040  
   0.570971500    -0.0634352    0.6815833  
   0.572971400     0.0522074    0.6797923  
   0.574971300     0.1669202    0.6587192  
   0.576971200     0.2777626    0.6183233  
   0.578971100     0.3807573    0.5595139  
   0.580971000     0.4729485    0.4840158  
   0.582970900     0.5510912    0.3933470  
   0.584970800     0.6128318    0.2905867  
   0.586970700     0.6558852    0.1793050  
   0.588970600     0.6794889    0.0620311  
   0.590970500     0.6826939   -0.0578497  
   0.592970400     0.6655016   -0.1761072  
   0.594970300     0.6283337   -0.2894132  
   0.596970200     0.5729204   -0.3941650  
   0.598970100     0.5006945   -0.4879186  
   0.600970000     0.4142500   -0.5676330  
   0.602969900     0.3161471   -0.6316526  
   0.604969800     0.2097582   -0.6779224  
   0.606969700     0.0974725   -0.7055976  
   0.608969600    -0.0170088   -0.7150151  
   0.610969500    -0.1307130   -0.7052749  
   0.612969400    -0.2402921   -0.6781628  
   0.614969300    -0.3431601   -0.6341062  
   0.616969200    -0.4365502   -0.5748826  
   0.618969100    -0.5186529   -0.5026982  
   0.620969000    -0.5882806   -0.4195981  
   0.622968900    -0.6441974   -0.3274953  
   0.624968800    -0.6854114   -0.2281376  
   0.626968700    -0.7112836   -0.1235760  
   0.628968600    -0.7210279   -0.0163370  
   0.630968500    -0.7145050    0.0909319  
   0.632968400    -0.6919094    0.1965085  
   0.634968300    -0.6533390    0.2975707  
   0.636968200    -0.6000025    0.3922670  
   0.638968100    -0.5326289    0.4781999  
   0.640968000    -0.4520377    0.5531871  
   0.642967900    -0.3607537    0.6154758  
   0.644967800    -0.2598040    0.6634204  
   0.646967700    -0.1519265    0.6952048  
   0.648967600    -0.0398513    0.7097154  
   0.650967500     0.0736523    0.7065505  
   0.652967400     0.1862802    0.6852475  
   0.654967300     0.2948706    0.6460407  
   0.656967200     0.3961517    0.5893723  
   0.658967100     0.4877398    0.5163221  
   0.660967000     0.5669572    0.4288421  
   0.662966900     0.6310220    0.3281804  
   0.664966800     0.6781353    0.2174561  
   0.666966700     0.7060339    0.0997497  
   0.668966600     0.7137378   -0.0213840  
   0.670966500     0.7008107   -0.1420938  
   0.672966400     0.6690400   -0.2589148  
   0.674966300     0.6174290   -0.3677426  
   0.676966200     0.5483201   -0.4658014  
   0.678966100     0.4653994   -0.5499080  
   0.680966000     0.3695967   -0.6187599  
   0.682965900     0.2654667   -0.6702067  
   0.684965800     0.1552156   -0.7039636  
   0.686965700     0.0419851   -0.7192910  
   0.688965600    -0.0711123   -0.7162384  
   0.690965500    -0.1807219   -0.6948735  
   0.692965400    -0.2848217   -0.6578137  
   0.694965300    -0.3806467   -0.6055532  
   0.696965200    -0.4666642   -0.5401046  
   0.698965100    -0.5410401   -0.4624376  
   0.700965000    -0.6026361   -0.3747879  
   0.702964900    -0.6498882   -0.2795592  
   0.704964800    -0.6822338   -0.1784566  
   0.706964700    -0.6986890   -0.0738043  
   0.708964600    -0.6993354    0.0324099  
   0.710964500    -0.6840103    0.1381196  
   0.712964400    -0.6523091    0.2398906  
   0.714964300    -0.6048093    0.3360263  
   0.716964200    -0.5432097    0.4237758  
   0.718964100    -0.4684293    0.5011389  
   0.720964000    -0.3822418    0.5660602  
   0.722963900    -0.2866441    0.6167018  
   0.724963800    -0.1835731    0.6516963  
   0.726963700    -0.0757235    0.6698132  
   0.728963600     0.0344411    0.6701910  
   0.730963500     0.1432094    0.6521279  
   0.732963400     0.2480516    0.6166454  
   0.734963300     0.3462112    0.5641752  
   0.736963200     0.4468169    0.4854225  
   0.738963100     0.5312318    0.3888117  
   0.740963000     0.5953854    0.2782600  
   0.742962900     0.6377043    0.1583229  
   0.744962800     0.6566895    0.0333020  
   0.746962700     0.6520366   -0.0916312  
   0.748962600     0.6248528   -0.2131067  
   0.750962500     0.6370410   -0.1149397  
   0.752962400     0.6069705   -0.2338704  
   0.754962300     0.5561255   -0.3445181  
   0.756962200     0.4866133   -0.4434923  
   0.758962100     0.4012988   -0.5278634  
   0.760962000     0.3024194   -0.5956613  
   0.762961900     0.1990228   -0.6430784  
   0.764961800     0.0983834   -0.6708440  
   0.766961700    -0.0048044   -0.6830969  
   0.768961600    -0.1093688   -0.6791829  
   0.770961500    -0.2121206   -0.6595045  
   0.772961400    -0.3106207   -0.6240433  
   0.774961300    -0.4028825   -0.5741030  
   0.776961200    -0.4864478   -0.5099854  
   0.778961100    -0.5594934   -0.4334216  
   0.780961000    -0.6197009   -0.3459682  
   0.782960900    -0.6656767   -0.2496206  
   0.784960800    -0.6961002   -0.1467003  
   0.786960700    -0.7098626   -0.0400558  
   0.788960600    -0.7064516    0.0678481  
   0.790960500    -0.6862409    0.1738846  
   0.792960400    -0.6494998    0.2754724  
   0.794960300    -0.5969020    0.3703011  
   0.796960200    -0.5305316    0.4554705  
   0.798960100    -0.4512588    0.5291910  
   0.800960000    -0.3613953    0.5895131  
   0.802959900    -0.2629434    0.6352300  
   0.804959800    -0.1584990    0.6650386  
   0.806959700    -0.0507599    0.6780980  
   0.808959600     0.0582873    0.6737864  
   0.810959500     0.1655521    0.6523446  
   0.812959400     0.2686919    0.6138021  
   0.814959300     0.3648433    0.5592959  
   0.816959200     0.4511090    0.4897978  
   0.818959100     0.5257921    0.4065053  
   0.820959000     0.5861994    0.3120493  
   0.822958900     0.6305122    0.2084311  
   0.824958800     0.6575953    0.0986037  
   0.826958700     0.6660438   -0.0148170  
   0.828958600     0.6556894   -0.1280019  
   0.830958500     0.6266459   -0.2382313  
   0.832958400     0.5800553   -0.3422073  
   0.834958300     0.5166509   -0.4366901  
   0.836958200     0.4386829   -0.5194219  
   0.838958100     0.3486577   -0.5879381  
   0.840958000     0.2487265   -0.6407320  
   0.842957900     0.1416360   -0.6761572  
   0.844957800     0.0308014   -0.6935624  
   0.846957700    -0.0809030   -0.6928733  
   0.848957600    -0.1902288   -0.6741719  
   0.850957500    -0.2948610   -0.6382899  
   0.852957400    -0.3915754   -0.5867204  
   0.854957300    -0.4786620   -0.5207806  
   0.856957200    -0.5538088   -0.4424324  
   0.858957100    -0.6153370   -0.3540820  
   0.860957000    -0.6620211   -0.2581521  
   0.862956900    -0.6933163   -0.1573252  
   0.864956800    -0.7088629   -0.0537950  
   0.866956700    -0.7085978    0.0499656  
   0.868956600    -0.6930217    0.1522423  
   0.870956500    -0.6626223    0.2506456  
   0.872956400    -0.6177931    0.3439241  
   0.874956300    -0.5597626    0.4294464  
   0.876956200    -0.4893755    0.5058640  
   0.878956100    -0.4074422    0.5713989  
   0.880956000    -0.3165482    0.6240637  
   0.882955900    -0.2180441    0.6630180  
   0.884955800    -0.1139801    0.6864218  
   0.886955700    -0.0066919    0.6938290  
   0.888955600     0.1011517    0.6842232  
   0.890955500     0.2071658    0.6581715  
   0.892955400     0.3085710    0.6152353  
   0.894955300     0.4021997    0.5561240  
