! MS46122B
! 2250307/22442219
! 7/28/2025 7:59:15 AM
! C:\USERS\SPARKY\DOCUMENTS\VNA_DATA\JULY28_2025\295K\PORT1_MOS2.S1P
! CHANNEL.1
! TR.MEASUREMENT
! RAW.DATA
# GHZ S RI R 50.0
! FREQ.GHZ         S11RE         S11IM         
!; PortSelection: Port_1
   0.001000000     1.0466060   -0.0720668  
   0.002999900     0.9645941   -0.1944305  
   0.004999800     0.9037734   -0.2990915  
   0.006999700     0.8358773   -0.3963984  
   0.008999600     0.7559799   -0.4906432  
   0.010999500     0.6614785   -0.5794377  
   0.012999400     0.5468787   -0.6594994  
   0.014999300     0.4070410   -0.7240489  
   0.016999200     0.2371666   -0.7596071  
   0.018999100     0.0357283   -0.7469317  
   0.020999000    -0.1843072   -0.6543119  
   0.022998900    -0.3811598   -0.4513291  
   0.024998800    -0.4613547   -0.1432366  
   0.026998700    -0.4000462    0.2052117  
   0.028998600    -0.1582084    0.4604005  
   0.030998500     0.1487362    0.5560005  
   0.032998400     0.3981887    0.5055620  
   0.034998300     0.6250299    0.3965244  
   0.036998200     0.7546507    0.2477144  
   0.038998100     0.8272768    0.0950320  
   0.040998000     0.8579721   -0.0495276  
   0.042997900     0.8582441   -0.1814566  
   0.044997800     0.8123279   -0.2743036  
   0.046997700     0.7985485   -0.4030954  
   0.048997600     0.7491889   -0.4948206  
   0.050997500     0.6909323   -0.5740078  
   0.052997400     0.6258999   -0.6423091  
   0.054997300     0.5555847   -0.7003537  
   0.056997200     0.4797188   -0.7502601  
   0.058997100     0.4009683   -0.7903334  
   0.060997000     0.3186713   -0.8218101  
   0.062996900     0.2338362   -0.8444763  
   0.064996800     0.1464528   -0.8576176  
   0.066996700     0.0567517   -0.8618247  
   0.068996600    -0.0340574   -0.8556430  
   0.070996500    -0.1256675   -0.8398924  
   0.072996400    -0.2175210   -0.8115011  
   0.074996300    -0.3078663   -0.7713308  
   0.076996200    -0.3955396   -0.7182291  
   0.078996100    -0.4788247   -0.6519270  
   0.080996000    -0.5554945   -0.5712034  
   0.082995900    -0.6229085   -0.4762182  
   0.084995800    -0.6771754   -0.3671713  
   0.086995700    -0.7164927   -0.2456591  
   0.088995600    -0.7358178   -0.1128290  
   0.090995500    -0.7318407    0.0280666  
   0.092995400    -0.7016049    0.1726117  
   0.094995300    -0.6408525    0.3145952  
   0.096995200    -0.5496138    0.4464437  
   0.098995100    -0.4288549    0.5597675  
   0.100995000    -0.2818460    0.6477460  
   0.102994900    -0.1181450    0.7009617  
   0.104994800     0.0539502    0.7164705  
   0.106994700     0.2245648    0.6924741  
   0.108994600     0.3835301    0.6330733  
   0.110994500     0.5225736    0.5429304  
   0.112994400     0.6360500    0.4286036  
   0.114994300     0.7205097    0.2981601  
   0.116994200     0.7754959    0.1590425  
   0.118994100     0.8018402    0.0183614  
   0.120994000     0.8034596   -0.1189536  
   0.122993900     0.7806988   -0.2484527  
   0.124993800     0.7384865   -0.3673947  
   0.126993700     0.6800115   -0.4741018  
   0.128993600     0.6079481   -0.5660129  
   0.130993500     0.5263042   -0.6443529  
   0.132993400     0.4369470   -0.7081869  
   0.134993300     0.3419338   -0.7578335  
   0.136993200     0.2434453   -0.7930170  
   0.138993100     0.1424227   -0.8145034  
   0.140993000     0.0412780   -0.8223608  
   0.142992900    -0.0596349   -0.8171644  
   0.144992800    -0.1583109   -0.8003660  
   0.146992700    -0.2541502   -0.7695535  
   0.148992600    -0.3456275   -0.7267752  
   0.150992500    -0.4301293   -0.6710034  
   0.152992400    -0.5087159   -0.6048107  
   0.154992300    -0.5789253   -0.5282307  
   0.156992200    -0.6390305   -0.4411194  
   0.158992100    -0.6876430   -0.3446665  
   0.160992000    -0.7229346   -0.2400897  
   0.162991900    -0.7437238   -0.1287976  
   0.164991800    -0.7477595   -0.0124913  
   0.166991700    -0.7338450    0.1057397  
   0.168991600    -0.7008554    0.2236128  
   0.170991500    -0.6479195    0.3382773  
   0.172991400    -0.5752805    0.4450050  
   0.174991300    -0.4834588    0.5402313  
   0.176991200    -0.3733421    0.6201841  
   0.178991100    -0.2487129    0.6807904  
   0.180991000    -0.1131404    0.7191197  
   0.182990900     0.0291591    0.7314746  
   0.184990800     0.1729779    0.7168611  
   0.186990700     0.3120793    0.6756231  
   0.188990600     0.4220895    0.6207271  
   0.190990500     0.5507521    0.5219327  
   0.192990400     0.6469105    0.4121268  
   0.194990300     0.7184037    0.2906647  
   0.196990200     0.7659717    0.1610419  
   0.198990100     0.7891918    0.0279773  
   0.200990000     0.7890453   -0.1048496  
   0.202989900     0.7667169   -0.2327628  
   0.204989800     0.7243817   -0.3521313  
   0.206989700     0.6657071   -0.4605766  
   0.208989600     0.5917238   -0.5550616  
   0.210989500     0.5055292   -0.6354584  
   0.212989400     0.4098929   -0.7009781  
   0.214989300     0.3078377   -0.7499935  
   0.216989200     0.2018185   -0.7830098  
   0.218989100     0.0942750   -0.8000523  
   0.220989000    -0.0137357   -0.8018988  
   0.222988900    -0.1204304   -0.7881325  
   0.224988800    -0.2232502   -0.7598429  
   0.226988700    -0.3204950   -0.7178073  
   0.228988600    -0.4106643   -0.6627198  
   0.230988500    -0.4925193   -0.5956609  
   0.232988400    -0.5633985   -0.5162823  
   0.234988300    -0.6240808   -0.4272771  
   0.236988200    -0.6717715   -0.3295732  
   0.238988100    -0.7052923   -0.2245060  
   0.240988000    -0.7229405   -0.1145406  
   0.242987900    -0.7239004   -0.0016029  
   0.244987800    -0.7070481    0.1122256  
   0.246987700    -0.6720106    0.2246910  
   0.248987600    -0.6180471    0.3324901  
   0.250987500    -0.5454661    0.4319190  
   0.252987400    -0.4555871    0.5193823  
   0.254987300    -0.3508272    0.5911973  
   0.256987200    -0.2333233    0.6446809  
   0.258987100    -0.1060733    0.6784264  
   0.260987000     0.0270732    0.6875829  
   0.262986900     0.1615183    0.6720864  
   0.264986800     0.2917589    0.6319147  
   0.266986700     0.4123002    0.5682425  
   0.268986600     0.5191723    0.4833856  
   0.270986500     0.6076322    0.3813071  
   0.272986400     0.6756243    0.2655826  
   0.274986300     0.7209671    0.1412465  
   0.276986200     0.7431245    0.0122604  
   0.278986100     0.7424749   -0.1163025  
   0.280986000     0.7195010   -0.2408124  
   0.282985900     0.6769075   -0.3576377  
   0.284985800     0.6166828   -0.4633793  
   0.286985700     0.5421743   -0.5559211  
   0.288985600     0.4563325   -0.6330933  
   0.290985500     0.3616479   -0.6946660  
   0.292985400     0.2613983   -0.7404228  
   0.294985300     0.1574923   -0.7705132  
   0.296985200     0.0515912   -0.7849907  
   0.298985100    -0.0541378   -0.7843179  
   0.300985000    -0.1578193   -0.7687781  
   0.302984900    -0.2570953   -0.7394967  
   0.304984800    -0.3503354   -0.6972666  
   0.306984700    -0.4362907   -0.6433847  
   0.308984600    -0.5133320   -0.5788555  
   0.310984500    -0.5809008   -0.5052138  
   0.312984400    -0.6381246   -0.4226774  
   0.314984300    -0.6842812   -0.3326899  
   0.316984200    -0.7180247   -0.2365791  
   0.318984100    -0.7382336   -0.1344289  
   0.320984000    -0.7436092   -0.0277907  
   0.322983900    -0.7326667    0.0797682  
   0.324983800    -0.7044114    0.1864907  
   0.326983700    -0.6589007    0.2881325  
   0.328983600    -0.5963587    0.3808616  
   0.330983500    -0.5201385    0.4612827  
   0.332983400    -0.4335476    0.5270330  
   0.334983300    -0.3393082    0.5784111  
   0.336983200    -0.2399618    0.6156463  
   0.338983100    -0.1362925    0.6387395  
   0.340983000    -0.0301005    0.6471678  
   0.342982900     0.0778630    0.6401118  
   0.344982800     0.1855925    0.6165101  
   0.346982700     0.2904755    0.5754049  
   0.348982600     0.3882847    0.5161510  
   0.350982500     0.4767894    0.4410630  
   0.352982400     0.5523049    0.3509643  
   0.354982300     0.6135556    0.2442923  
   0.356982200     0.6569191    0.1161101  
   0.358982100     0.6741980   -0.0184875  
   0.360982000     0.6647165   -0.1531571  
   0.362981900     0.6290591   -0.2836699  
   0.364981800     0.5685672   -0.4045799  
   0.366981700     0.4860646   -0.5112528  
   0.368981600     0.3849056   -0.5992061  
   0.370981500     0.2692629   -0.6659962  
   0.372981400     0.1437846   -0.7089939  
   0.374981300     0.0129606   -0.7278246  
   0.376981200     0.1218679   -0.7166750  
   0.378981100    -0.0074798   -0.7302231  
   0.380981000    -0.1361682   -0.7198300  
   0.382980900    -0.2488293   -0.6903852  
   0.384980800    -0.3496735   -0.6461695  
   0.386980700    -0.4412336   -0.5868669  
   0.388980600    -0.5229352   -0.5145451  
   0.390980500    -0.5919088   -0.4314444  
   0.392980400    -0.6468058   -0.3400728  
   0.394980300    -0.6876127   -0.2416725  
   0.396980200    -0.7131737   -0.1389489  
   0.398980100    -0.7233896   -0.0330607  
   0.400980000    -0.7177566    0.0734999  
   0.402979900    -0.6960502    0.1785975  
   0.404979800    -0.6591693    0.2798065  
   0.406979700    -0.6069518    0.3749564  
   0.408979600    -0.5406260    0.4617449  
   0.410979500    -0.4605507    0.5388809  
   0.412979400    -0.3680100    0.6035814  
   0.414979300    -0.2652302    0.6524829  
   0.416979200    -0.1549525    0.6860858  
   0.418979100    -0.0395673    0.7017891  
   0.420979000     0.0779890    0.6988132  
   0.422978900     0.1949462    0.6761652  
   0.424978800     0.3073199    0.6341597  
   0.426978700     0.4123927    0.5733511  
   0.428978600     0.5061329    0.4954094  
   0.430978500     0.5853365    0.4024262  
   0.432978400     0.6477669    0.2975704  
   0.434978300     0.6926023    0.1838712  
   0.436978200     0.7162266    0.0642649  
   0.438978100     0.7194996   -0.0571909  
   0.440978000     0.7023038   -0.1769816  
   0.442977900     0.6656666   -0.2912538  
   0.444977800     0.6106853   -0.3972070  
   0.446977700     0.5394889   -0.4916588  
   0.448977600     0.4550781   -0.5720020  
   0.450977500     0.3591506   -0.6373900  
   0.452977400     0.2548816   -0.6857095  
   0.454977300     0.1447897   -0.7161745  
   0.456977200     0.0321371   -0.7290002  
   0.458977100    -0.0805864   -0.7236009  
   0.460977000    -0.1892899   -0.7008486  
   0.462976900    -0.2923558   -0.6619285  
   0.464976800    -0.3873244   -0.6077195  
   0.466976700    -0.4722801   -0.5403180  
   0.468976600    -0.5454091   -0.4609129  
   0.470976500    -0.6051780   -0.3713185  
   0.472976400    -0.6507413   -0.2741441  
   0.474976300    -0.6809146   -0.1714130  
   0.476976200    -0.6947879   -0.0651025  
   0.478976100    -0.6920000    0.0420844  
   0.480976000    -0.6727444    0.1474640  
   0.482975900    -0.6374899    0.2487908  
   0.484975800    -0.5866740    0.3439519  
   0.486975700    -0.5206098    0.4307295  
   0.488975600    -0.4411286    0.5065868  
   0.490975500    -0.3497026    0.5692025  
   0.492975400    -0.2481407    0.6163350  
   0.494975300    -0.1392031    0.6460416  
   0.496975200    -0.0259351    0.6572032  
   0.498975100     0.0877341    0.6487963  
   0.500975000     0.1986200    0.6207396  
   0.502974900     0.3026045    0.5737135  
   0.504974800     0.3967086    0.5098497  
   0.506974700     0.4777894    0.4306602  
   0.508974600     0.5433207    0.3386940  
   0.510974500     0.5910091    0.2380781  
   0.512974400     0.6208042    0.1331000  
   0.514974300     0.6307623    0.0274072  
   0.516974200     0.6248354   -0.0761777  
   0.518974100     0.6033196   -0.1744592  
   0.520974000     0.5687007   -0.2666771  
   0.522973900     0.5222508   -0.3508557  
   0.524973800     0.4655959   -0.4263919  
   0.526973700     0.4000775   -0.4929979  
   0.528973600     0.3264356   -0.5497362  
   0.530973500     0.2457900   -0.5968151  
   0.532973400     0.1588852   -0.6328257  
   0.534973300     0.0668589   -0.6563383  
   0.536973200    -0.0293005   -0.6669617  
   0.538973100    -0.1268584   -0.6627378  
   0.540973000    -0.2237183   -0.6438910  
   0.542972900    -0.3181502   -0.6099702  
   0.544972800    -0.4069810   -0.5611028  
   0.546972700    -0.4884911   -0.4978912  
   0.548972600    -0.5594541   -0.4214020  
   0.550972500    -0.6182666   -0.3342469  
   0.552972400    -0.6624394   -0.2377989  
   0.554972300    -0.6906769   -0.1346790  
   0.556972200    -0.7020197   -0.0280674  
   0.558972100    -0.6961620    0.0798763  
   0.560972000    -0.6730642    0.1855442  
   0.562971900    -0.6331976    0.2864039  
   0.564971800    -0.5777401    0.3795294  
   0.566971700    -0.5079409    0.4632866  
   0.568971600    -0.4255323    0.5349325  
   0.570971500    -0.3321956    0.5928095  
   0.572971400    -0.2300327    0.6351235  
   0.574971300    -0.1216201    0.6609077  
   0.576971200    -0.0092614    0.6686124  
   0.578971100     0.1036628    0.6576494  
   0.580971000     0.2141218    0.6278541  
   0.582970900     0.3180884    0.5801662  
   0.584970800     0.4134421    0.5155698  
   0.586970700     0.4964853    0.4355444  
   0.588970600     0.5651474    0.3424159  
   0.590970500     0.6170859    0.2390238  
   0.592970400     0.6509343    0.1278424  
   0.594970300     0.6653385    0.0126458  
   0.596970200     0.6597362   -0.1030080  
   0.598970100     0.6350638   -0.2164412  
   0.600970000     0.5914513   -0.3233249  
   0.602969900     0.5305397   -0.4213157  
   0.604969800     0.4544427   -0.5072753  
   0.606969700     0.3651713   -0.5788452  
   0.608969600     0.2660698   -0.6344743  
   0.610969500     0.1597148   -0.6722236  
   0.612969400     0.0492040   -0.6920395  
   0.614969300    -0.0615966   -0.6934043  
   0.616969200    -0.1699913   -0.6772836  
   0.618969100    -0.2731590   -0.6445314  
   0.620969000    -0.3686376   -0.5965707  
   0.622968900    -0.4552421   -0.5348005  
   0.624968800    -0.5307599   -0.4607232  
   0.626968700    -0.5940986   -0.3763322  
   0.628968600    -0.6436738   -0.2835628  
   0.630968500    -0.6783196   -0.1845992  
   0.632968400    -0.6977464   -0.0818390  
   0.634968300    -0.7012834    0.0229600  
   0.636968200    -0.6893119    0.1268104  
   0.638968100    -0.6617246    0.2279890  
   0.640968000    -0.6190870    0.3244855  
   0.642967900    -0.5620250    0.4134522  
   0.644967800    -0.4917874    0.4931787  
   0.646967700    -0.4097925    0.5620951  
   0.648967600    -0.3175982    0.6176506  
   0.650967500    -0.2176468    0.6583947  
   0.652967400    -0.1120655    0.6834746  
   0.654967300    -0.0027775    0.6919053  
   0.656967200     0.1071225    0.6832107  
   0.658967100     0.2151796    0.6565510  
   0.660967000     0.3184913    0.6128390  
   0.662966900     0.4148156    0.5520427  
   0.664966800     0.5009476    0.4757136  
   0.666966700     0.5738953    0.3852083  
   0.668966600     0.6311312    0.2832423  
   0.670966500     0.6706336    0.1729992  
   0.672966400     0.6925827    0.0572706  
   0.674966300     0.6937388   -0.0600788  
   0.676966200     0.6746634   -0.1758538  
   0.678966100     0.6371263   -0.2859963  
   0.680966000     0.5820102   -0.3878985  
   0.682965900     0.5112080   -0.4787536  
   0.684965800     0.4273143   -0.5561960  
   0.686965700     0.3324823   -0.6183017  
   0.688965600     0.2298499   -0.6640265  
   0.690965500     0.1218205   -0.6909732  
   0.692965400     0.0124905   -0.7012504  
   0.694965300    -0.0959369   -0.6943953  
   0.696965200    -0.2007237   -0.6707768  
   0.698965100    -0.2998874   -0.6318656  
   0.700965000    -0.3912865   -0.5784150  
   0.702964900    -0.4724823   -0.5122219  
   0.704964800    -0.5423423   -0.4347251  
   0.706964700    -0.5996614   -0.3482906  
   0.708964600    -0.6428515   -0.2540589  
   0.710964500    -0.6720825   -0.1548499  
   0.712964400    -0.6851009   -0.0524805  
   0.714964300    -0.6826449    0.0509418  
   0.716964200    -0.6643440    0.1523015  
   0.718964100    -0.6310555    0.2499820  
   0.720964000    -0.5832489    0.3412195  
   0.722963900    -0.5220866    0.4245231  
   0.724963800    -0.4483410    0.4975208  
   0.726963700    -0.3638091    0.5585248  
   0.728963600    -0.2698489    0.6056650  
   0.730963500    -0.1692535    0.6373305  
   0.732963400    -0.0645953    0.6526868  
   0.734963300     0.0424192    0.6509445  
   0.736963200     0.1632720    0.6277567  
   0.738963100     0.2788400    0.5819905  
   0.740963000     0.3842196    0.5155762  
   0.742962900     0.4747663    0.4309757  
   0.744962800     0.5479048    0.3307531  
   0.746962700     0.6005825    0.2192910  
   0.748962600     0.6316862    0.1005913  
   0.750962500     0.5952800    0.1949971  
   0.752962400     0.6223636    0.0774004  
   0.754962300     0.6277336   -0.0425764  
   0.756962200     0.6111771   -0.1606315  
   0.758962100     0.5740121   -0.2728908  
   0.760962000     0.5173942   -0.3762727  
   0.762961900     0.4474885   -0.4635386  
   0.764961800     0.3715871   -0.5318500  
   0.766961700     0.2861586   -0.5876961  
   0.768961600     0.1932712   -0.6301096  
   0.770961500     0.0950507   -0.6574479  
   0.772961400    -0.0064540   -0.6696057  
   0.774961300    -0.1082843   -0.6661776  
   0.776961200    -0.2091330   -0.6470903  
   0.778961100    -0.3060407   -0.6126699  
   0.780961000    -0.3969985   -0.5630063  
   0.782960900    -0.4790744   -0.4998395  
   0.784960800    -0.5509163   -0.4238252  
   0.786960700    -0.6099061   -0.3373469  
   0.788960600    -0.6545397   -0.2425459  
   0.790960500    -0.6838994   -0.1415911  
   0.792960400    -0.6970429   -0.0373546  
   0.794960300    -0.6938004    0.0678552  
   0.796960200    -0.6739485    0.1709860  
   0.798960100    -0.6383622    0.2698151  
   0.800960000    -0.5879331    0.3617171  
   0.802959900    -0.5236892    0.4450124  
   0.804959800    -0.4470719    0.5167716  
   0.806959700    -0.3603859    0.5765806  
   0.808959600    -0.2652905    0.6215150  
   0.810959500    -0.1639795    0.6515030  
   0.812959400    -0.0587157    0.6652828  
   0.814959300     0.0477638    0.6622841  
   0.816959200     0.1528534    0.6427189  
   0.818959100     0.2539279    0.6064829  
   0.820959000     0.3488716    0.5543175  
   0.822958900     0.4345059    0.4873185  
   0.824958800     0.5083985    0.4068752  
   0.826958700     0.5689102    0.3151245  
   0.828958600     0.6136524    0.2143219  
   0.830958500     0.6414447    0.1069934  
   0.832958400     0.6513438   -0.0035716  
   0.834958300     0.6427039   -0.1143048  
   0.836958200     0.6159680   -0.2218457  
   0.838958100     0.5718502   -0.3240119  
   0.840958000     0.5114949   -0.4172790  
   0.842957900     0.4365069   -0.4996288  
   0.844957800     0.3492684   -0.5679627  
   0.846957700     0.2520742   -0.6212631  
   0.848957600     0.1475677   -0.6574555  
   0.850957500     0.0395928   -0.6759813  
   0.852957400    -0.0698298   -0.6769121  
   0.854957300    -0.1769725   -0.6601061  
   0.856957200    -0.2797590   -0.6265281  
   0.858957100    -0.3749604   -0.5776427  
   0.860957000    -0.4605510   -0.5147761  
   0.862956900    -0.5345057   -0.4403760  
   0.864956800    -0.5956815   -0.3565440  
   0.866956700    -0.6429316   -0.2649649  
   0.868956600    -0.6750780   -0.1679191  
   0.870956500    -0.6928212   -0.0677734  
   0.872956400    -0.6953810    0.0334357  
   0.874956300    -0.6827626    0.1337218  
   0.876956200    -0.6550360    0.2315622  
   0.878956100    -0.6136054    0.3241289  
   0.880956000    -0.5584669    0.4099038  
   0.882955900    -0.4907357    0.4865109  
   0.884955800    -0.4121735    0.5526487  
   0.886955700    -0.3242855    0.6064081  
   0.888955600    -0.2285867    0.6468033  
   0.890955500    -0.1276112    0.6721687  
   0.892955400    -0.0230363    0.6816738  
   0.894955300     0.0822569    0.6754075  
