! MS46122B
! 2250307/22442219
! 7/23/2025 1:20:49 PM
! C:\USERS\SPARKY\DOCUMENTS\VNA_DATA\JULY23_2025\295K\PORT5_MOS3_REPEAT1.S1P
! CHANNEL.1
! TR.MEASUREMENT
! RAW.DATA
# GHZ S RI R 50.0
! FREQ.GHZ         S11RE         S11IM         
!; PortSelection: Port_1
   0.001000000     1.0462420   -0.0710927  
   0.002999900     0.9643485   -0.1937675  
   0.004999800     0.9033683   -0.2986266  
   0.006999700     0.8355324   -0.3960320  
   0.008999600     0.7552934   -0.4905720  
   0.010999500     0.6604525   -0.5794932  
   0.012999400     0.5454064   -0.6596508  
   0.014999300     0.4049215   -0.7241336  
   0.016999200     0.2341163   -0.7595125  
   0.018999100     0.0315865   -0.7456335  
   0.020999000    -0.1893747   -0.6508962  
   0.022998900    -0.3859108   -0.4445291  
   0.024998800    -0.4631072   -0.1333340  
   0.026998700    -0.3960723    0.2164748  
   0.028998600    -0.1490515    0.4685660  
   0.030998500     0.1599222    0.5590082  
   0.032998400     0.4080680    0.5044570  
   0.034998300     0.6331534    0.3922315  
   0.036998200     0.7604464    0.2419821  
   0.038998100     0.8310353    0.0886878  
   0.040998000     0.8597500   -0.0559867  
   0.042997900     0.8588373   -0.1878211  
   0.044997800     0.8119934   -0.2800043  
   0.046997700     0.7967768   -0.4087599  
   0.048997600     0.7467856   -0.4999632  
   0.050997500     0.6878009   -0.5786859  
   0.052997400     0.6234248   -0.6449958  
   0.054997300     0.5505103   -0.7047149  
   0.056997200     0.4746994   -0.7534634  
   0.058997100     0.3954298   -0.7929564  
   0.060997000     0.3127006   -0.8237758  
   0.062996900     0.2273010   -0.8456877  
   0.064996800     0.1395557   -0.8580617  
   0.066996700     0.0494647   -0.8614020  
   0.068996600    -0.0415838   -0.8542824  
   0.070996500    -0.1335277   -0.8374600  
   0.072996400    -0.2255117   -0.8079127  
   0.074996300    -0.3158065   -0.7664924  
   0.076996200    -0.4034326   -0.7119862  
   0.078996100    -0.4862638   -0.6441278  
   0.080996000    -0.5622803   -0.5617482  
   0.082995900    -0.6287184   -0.4650408  
   0.084995800    -0.6816213   -0.3542919  
   0.086995700    -0.7191275   -0.2311700  
   0.088995600    -0.7360659   -0.0969603  
   0.090995500    -0.7292169    0.0450540  
   0.092995400    -0.6955326    0.1901141  
   0.094995300    -0.6309550    0.3317910  
   0.096995200    -0.5355293    0.4624098  
   0.098995100    -0.4108639    0.5733282  
   0.100995000    -0.2604598    0.6578405  
   0.102994900    -0.0943524    0.7064331  
   0.104994800     0.0793580    0.7165973  
   0.106994700     0.2495546    0.6872870  
   0.108994600     0.4070030    0.6227368  
   0.110994500     0.5435336    0.5278512  
   0.112994400     0.6531994    0.4098696  
   0.114994300     0.7335246    0.2768300  
   0.116994200     0.7838602    0.1363064  
   0.118994100     0.8057123   -0.0050118  
   0.120994000     0.8032000   -0.1420903  
   0.122993900     0.7767910   -0.2708062  
   0.124993800     0.7310231   -0.3879867  
   0.126993700     0.6696542   -0.4926854  
   0.128993600     0.5950890   -0.5824075  
   0.130993500     0.5113717   -0.6583003  
   0.132993400     0.4201358   -0.7196978  
   0.134993300     0.3241579   -0.7666384  
   0.136993200     0.2246209   -0.7991914  
   0.138993100     0.1231435   -0.8178311  
   0.140993000     0.0215315   -0.8231376  
   0.142992900    -0.0793496   -0.8149931  
   0.144992800    -0.1780917   -0.7957196  
   0.146992700    -0.2731989   -0.7621540  
   0.148992600    -0.3637952   -0.7167062  
   0.150992500    -0.4471509   -0.6582904  
   0.152992400    -0.5245541   -0.5895490  
   0.154992300    -0.5927690   -0.5101881  
   0.156992200    -0.6505080   -0.4205959  
   0.158992100    -0.6965278   -0.3221167  
   0.160992000    -0.7288601   -0.2154102  
   0.162991900    -0.7459673   -0.1025768  
   0.164991800    -0.7461472    0.0148454  
   0.166991700    -0.7277759    0.1338547  
   0.168991600    -0.6901115    0.2514319  
   0.170991500    -0.6322199    0.3652625  
   0.172991400    -0.5543701    0.4701636  
   0.174991300    -0.4575849    0.5624297  
   0.176991200    -0.3431549    0.6382699  
   0.178991100    -0.2145835    0.6938835  
   0.180991000    -0.0761244    0.7261796  
   0.182990900     0.0677147    0.7318408  
   0.184990800     0.2117519    0.7101219  
   0.186990700     0.3495020    0.6614225  
   0.188990600     0.4574825    0.6008641  
   0.190990500     0.5814417    0.4951960  
   0.192990400     0.6720791    0.3801520  
   0.194990300     0.7374609    0.2548307  
   0.196990200     0.7779368    0.1228883  
   0.198990100     0.7946330   -0.0116781  
   0.200990000     0.7875370   -0.1440085  
   0.202989900     0.7587081   -0.2707454  
   0.204989800     0.7102432   -0.3874682  
   0.206989700     0.6463367   -0.4927961  
   0.208989600     0.5675879   -0.5836462  
   0.210989500     0.4779674   -0.6596749  
   0.212989400     0.3789943   -0.7201500  
   0.214989300     0.2744742   -0.7644842  
   0.216989200     0.1672190   -0.7921279  
   0.218989100     0.0584450   -0.8039547  
   0.220989000    -0.0497560   -0.8005643  
   0.222988900    -0.1556650   -0.7812618  
   0.224988800    -0.2575553   -0.7479475  
   0.226988700    -0.3532223   -0.7008456  
   0.228988600    -0.4409632   -0.6411121  
   0.230988500    -0.5198384   -0.5693257  
   0.232988400    -0.5870703   -0.4857817  
   0.234988300    -0.6435289   -0.3928694  
   0.236988200    -0.6865312   -0.2916614  
   0.238988100    -0.7141882   -0.1838444  
   0.240988000    -0.7257912   -0.0716346  
   0.242987900    -0.7199188    0.0426850  
   0.244987800    -0.6960716    0.1567410  
   0.246987700    -0.6535326    0.2683895  
   0.248987600    -0.5920461    0.3739252  
   0.250987500    -0.5121143    0.4696803  
   0.252987400    -0.4152016    0.5521459  
   0.254987300    -0.3041508    0.6175963  
   0.256987200    -0.1815075    0.6631310  
   0.258987100    -0.0505813    0.6876407  
   0.260987000     0.0843912    0.6868762  
   0.262986900     0.2187845    0.6609260  
   0.264986800     0.3467153    0.6103960  
   0.266986700     0.4629820    0.5367595  
   0.268986600     0.5634525    0.4432757  
   0.270986500     0.6438484    0.3342455  
   0.272986400     0.7027324    0.2130398  
   0.274986300     0.7382315    0.0852308  
   0.276986200     0.7502581   -0.0450030  
   0.278986100     0.7397183   -0.1734683  
   0.280986000     0.7072154   -0.2955208  
   0.282985900     0.6561650   -0.4085311  
   0.284985800     0.5885447   -0.5094938  
   0.286985700     0.5073422   -0.5959920  
   0.288985600     0.4161063   -0.6667041  
   0.290985500     0.3178412   -0.7213086  
   0.292985400     0.2146221   -0.7599403  
   0.294985300     0.1091637   -0.7825560  
   0.296985200     0.0025249   -0.7898410  
   0.298985100    -0.1030246   -0.7819554  
   0.300985000    -0.2056345   -0.7593829  
   0.302984900    -0.3029404   -0.7235631  
   0.304984800    -0.3938035   -0.6749267  
   0.306984700    -0.4763283   -0.6148595  
   0.308984600    -0.5494269   -0.5449631  
   0.310984500    -0.6123719   -0.4659764  
   0.312984400    -0.6644318   -0.3786976  
   0.314984300    -0.7043507   -0.2846647  
   0.316984200    -0.7313917   -0.1847719  
   0.318984100    -0.7439124   -0.0799237  
   0.320984000    -0.7409147    0.0285495  
   0.322983900    -0.7207967    0.1372058  
   0.324983800    -0.6828882    0.2424610  
   0.326983700    -0.6274062    0.3405100  
   0.328983600    -0.5559037    0.4277137  
   0.330983500    -0.4720257    0.5010155  
   0.332983400    -0.3795438    0.5586601  
   0.334983300    -0.2809946    0.6011531  
   0.336983200    -0.1788117    0.6294076  
   0.338983100    -0.0734810    0.6434850  
   0.340983000     0.0336165    0.6428536  
   0.342982900     0.1411403    0.6263182  
   0.344982800     0.2467413    0.5930522  
   0.346982700     0.3483861    0.5420466  
   0.348982600     0.4412343    0.4734344  
   0.350982500     0.5230264    0.3894485  
   0.352982400     0.5900579    0.2918120  
   0.354982300     0.6407135    0.1786059  
   0.356982200     0.6712843    0.0457363  
   0.358982100     0.6748678   -0.0909141  
   0.360982000     0.6514493   -0.2253096  
   0.362981900     0.6019817   -0.3522479  
   0.364981800     0.5289138   -0.4668982  
   0.366981700     0.4348166   -0.5647594  
   0.368981600     0.3243915   -0.6422174  
   0.370981500     0.2016377   -0.6965006  
   0.372981400     0.0719847   -0.7263622  
   0.374981300    -0.0603623   -0.7311777  
   0.376981200     0.0504372   -0.7311222  
   0.378981100    -0.0799430   -0.7309771  
   0.380981000    -0.2076011   -0.7070785  
   0.382980900    -0.3169833   -0.6664198  
   0.384980800    -0.4131365   -0.6113133  
   0.386980700    -0.4989232   -0.5426705  
   0.388980600    -0.5730194   -0.4619171  
   0.390980500    -0.6333234   -0.3717234  
   0.392980400    -0.6794056   -0.2740865  
   0.394980300    -0.7097914   -0.1714761  
   0.396980200    -0.7246754   -0.0651266  
   0.398980100    -0.7237511    0.0422367  
   0.400980000    -0.7069281    0.1488355  
   0.402979900    -0.6737289    0.2527268  
   0.404979800    -0.6256595    0.3505564  
   0.406979700    -0.5626589    0.4409380  
   0.408979600    -0.4858078    0.5214744  
   0.410979500    -0.3959802    0.5900342  
   0.412979400    -0.2954299    0.6451549  
   0.414979300    -0.1856081    0.6825902  
   0.416979200    -0.0699152    0.7034335  
   0.418979100     0.0484267    0.7056230  
   0.420979000     0.1668800    0.6878108  
   0.422978900     0.2821791    0.6504929  
   0.424978800     0.3906519    0.5938420  
   0.426978700     0.4886938    0.5190217  
   0.428978600     0.5729153    0.4280510  
   0.430978500     0.6402482    0.3241847  
   0.432978400     0.6891178    0.2104141  
   0.434978300     0.7188691    0.0902363  
   0.436978200     0.7264057   -0.0330407  
   0.438978100     0.7130189   -0.1549026  
   0.440978000     0.6794727   -0.2724957  
   0.442977900     0.6270559   -0.3816774  
   0.444977800     0.5575929   -0.4797986  
   0.446977700     0.4736788   -0.5639777  
   0.448977600     0.3781975   -0.6326703  
   0.450977500     0.2740294   -0.6843361  
   0.452977400     0.1637880   -0.7177908  
   0.454977300     0.0497975   -0.7333863  
   0.456977200    -0.0641008   -0.7305806  
   0.458977100    -0.1751908   -0.7099136  
   0.460977000    -0.2808102   -0.6724316  
   0.462976900    -0.3777221   -0.6197295  
   0.464976800    -0.4650931   -0.5529299  
   0.466976700    -0.5405800   -0.4737163  
   0.468976600    -0.6027209   -0.3843966  
   0.470976500    -0.6504857   -0.2868000  
   0.472976400    -0.6827797   -0.1830913  
   0.474976300    -0.6985722   -0.0756518  
   0.476976200    -0.6973269    0.0329038  
   0.478976100    -0.6791877    0.1400300  
   0.480976000    -0.6450957    0.2432964  
   0.482975900    -0.5947776    0.3404018  
   0.484975800    -0.5293494    0.4288468  
   0.486975700    -0.4498090    0.5064161  
   0.488975600    -0.3583724    0.5708255  
   0.490975500    -0.2563975    0.6199017  
   0.492975400    -0.1465158    0.6514479  
   0.494975300    -0.0321670    0.6642756  
   0.496975200     0.0835494    0.6570826  
   0.498975100     0.1965280    0.6301016  
   0.500975000     0.3028217    0.5837586  
   0.502974900     0.3993980    0.5197616  
   0.504974800     0.4827410    0.4401340  
   0.506974700     0.5504331    0.3476259  
   0.508974600     0.6001024    0.2452836  
   0.510974500     0.6314121    0.1376876  
   0.512974400     0.6436380    0.0286379  
   0.514974300     0.6364643   -0.0780899  
   0.516974200     0.6141477   -0.1794074  
   0.518974100     0.5775554   -0.2740053  
   0.520974000     0.5286235   -0.3599041  
   0.522973900     0.4696994   -0.4366286  
   0.524973800     0.4015644   -0.5031093  
   0.526973700     0.3255471   -0.5596790  
   0.528973600     0.2432088   -0.6056649  
   0.530973500     0.1546400   -0.6404654  
   0.532973400     0.0614327   -0.6629616  
   0.534973300    -0.0351683   -0.6718647  
   0.536973200    -0.1338459   -0.6666628  
   0.538973100    -0.2315904   -0.6464068  
   0.540973000    -0.3262064   -0.6111189  
   0.542972900    -0.4154947   -0.5611408  
   0.544972800    -0.4968338   -0.4966850  
   0.546972700    -0.5677184   -0.4187682  
   0.548972600    -0.6262777   -0.3300090  
   0.550972500    -0.6698261   -0.2321188  
   0.552972400    -0.6973152   -0.1273596  
   0.554972300    -0.7075121   -0.0193229  
   0.556972200    -0.7001642    0.0900166  
   0.558972100    -0.6752216    0.1970947  
   0.560972000    -0.6331466    0.2989849  
   0.562971900    -0.5752844    0.3927333  
   0.564971800    -0.5027533    0.4766307  
   0.566971700    -0.4176097    0.5478507  
   0.568971600    -0.3217642    0.6047347  
   0.570971500    -0.2174710    0.6457626  
   0.572971400    -0.1071830    0.6693701  
   0.574971300     0.0066069    0.6747674  
   0.576971200     0.1206894    0.6613365  
   0.578971100     0.2321257    0.6287520  
   0.580971000     0.3368319    0.5778106  
   0.582970900     0.4321780    0.5097854  
   0.584970800     0.5146075    0.4263401  
   0.586970700     0.5821214    0.3298943  
   0.588970600     0.6319908    0.2235125  
   0.590970500     0.6633320    0.1098815  
   0.592970400     0.6747872   -0.0075603  
   0.594970300     0.6660501   -0.1245424  
   0.596970200     0.6376285   -0.2390509  
   0.598970100     0.5902776   -0.3460389  
   0.600970000     0.5257175   -0.4436007  
   0.602969900     0.4461786   -0.5283761  
   0.604969800     0.3536311   -0.5981578  
   0.606969700     0.2519317   -0.6514173  
   0.608969600     0.1428632   -0.6867746  
   0.610969500     0.0303582   -0.7036374  
   0.612969400    -0.0821959   -0.7017099  
   0.614969300    -0.1921007   -0.6821733  
   0.616969200    -0.2960295   -0.6455733  
   0.618969100    -0.3917825   -0.5937338  
   0.620969000    -0.4774114   -0.5282676  
   0.622968900    -0.5516171   -0.4509371  
   0.624968800    -0.6127865   -0.3634947  
   0.626968700    -0.6601418   -0.2682252  
   0.628968600    -0.6921210   -0.1667618  
   0.630968500    -0.7085893   -0.0618883  
   0.632968400    -0.7091708    0.0440302  
   0.634968300    -0.6935107    0.1493870  
   0.636968200    -0.6621827    0.2510921  
   0.638968100    -0.6157435    0.3472725  
   0.640968000    -0.5549339    0.4358722  
   0.642967900    -0.4811634    0.5144956  
   0.644967800    -0.3956496    0.5815657  
   0.646967700    -0.3001444    0.6351224  
   0.648967600    -0.1971302    0.6731932  
   0.650967500    -0.0887632    0.6950548  
   0.652967400     0.0223808    0.6998579  
   0.654967300     0.1341253    0.6870634  
   0.656967200     0.2425761    0.6562340  
   0.658967100     0.3459593    0.6081932  
   0.660967000     0.4410656    0.5433102  
   0.662966900     0.5252532    0.4632452  
   0.664966800     0.5958408    0.3691773  
   0.666966700     0.6500946    0.2637162  
   0.668966600     0.6863583    0.1503841  
   0.670966500     0.7031851    0.0318086  
   0.672966400     0.7010376   -0.0874971  
   0.674966300     0.6774195   -0.2043894  
   0.676966200     0.6351237   -0.3150846  
   0.678966100     0.5751173   -0.4163937  
   0.680966000     0.4996366   -0.5058208  
   0.682965900     0.4110439   -0.5810943  
   0.684965800     0.3127968   -0.6398816  
   0.686965700     0.2065039   -0.6819438  
   0.688965600     0.0959592   -0.7058675  
   0.690965500    -0.0156752   -0.7105532  
   0.692965400    -0.1252797   -0.6990618  
   0.694965300    -0.2304700   -0.6707107  
   0.696965200    -0.3293482   -0.6266879  
   0.698965100    -0.4192373   -0.5686592  
   0.700965000    -0.4986295   -0.4979596  
   0.702964900    -0.5659553   -0.4164176  
   0.704964800    -0.6200677   -0.3263941  
   0.706964700    -0.6596024   -0.2293774  
   0.708964600    -0.6840702   -0.1271937  
   0.710964500    -0.6933153   -0.0229906  
   0.712964400    -0.6860915    0.0816759  
   0.714964300    -0.6627980    0.1840803  
   0.716964200    -0.6242124    0.2818579  
   0.718964100    -0.5709702    0.3724159  
   0.720964000    -0.5046411    0.4540023  
   0.722963900    -0.4259410    0.5245955  
   0.724963800    -0.3370496    0.5820566  
   0.726963700    -0.2390615    0.6250943  
   0.728963600    -0.1353091    0.6523347  
   0.730963500    -0.0282884    0.6619418  
   0.732963400     0.0799493    0.6545064  
   0.734963300     0.1857055    0.6293326  
   0.736963200     0.3009644    0.5797728  
   0.738963100     0.4055937    0.5091089  
   0.740963000     0.4950856    0.4204726  
   0.742962900     0.5661721    0.3163775  
   0.744962800     0.6160389    0.2015468  
   0.746962700     0.6437648    0.0804515  
   0.748962600     0.6484020   -0.0434020  
   0.750962500     0.6343910    0.0558591  
   0.752962400     0.6353717   -0.0659734  
   0.754962300     0.6144646   -0.1851129  
   0.756962200     0.5727203   -0.2978332  
   0.758962100     0.5117429   -0.4005001  
   0.760962000     0.4337537   -0.4905434  
   0.762961900     0.3460147   -0.5615160  
   0.764961800     0.2562119   -0.6129374  
   0.766961700     0.1599421   -0.6501840  
   0.768961600     0.0587831   -0.6720124  
   0.770961500    -0.0446626   -0.6782221  
   0.772961400    -0.1475452   -0.6686202  
   0.774961300    -0.2482139   -0.6432528  
   0.776961200    -0.3441039   -0.6025587  
   0.778961100    -0.4327521   -0.5472120  
   0.780961000    -0.5120525   -0.4784823  
   0.782960900    -0.5795973   -0.3978571  
   0.784960800    -0.6340888   -0.3070262  
   0.786960700    -0.6735477   -0.2084697  
   0.788960600    -0.6972424   -0.1045260  
   0.790960500    -0.7040311    0.0018477  
   0.792960400    -0.6943952    0.1079450  
   0.794960300    -0.6678462    0.2113665  
   0.796960200    -0.6255506    0.3092728  
   0.798960100    -0.5686660    0.3993936  
   0.800960000    -0.4983024    0.4789700  
   0.802959900    -0.4160658    0.5471707  
   0.804959800    -0.3244544    0.6016426  
   0.806959700    -0.2250965    0.6411820  
   0.808959600    -0.1208345    0.6649557  
   0.810959500    -0.0137751    0.6720845  
   0.812959400     0.0937585    0.6619139  
   0.814959300     0.1988338    0.6350585  
   0.816959200     0.2988268    0.5915894  
   0.818959100     0.3910325    0.5325695  
   0.820959000     0.4729249    0.4591203  
   0.822958900     0.5422353    0.3727279  
   0.824958800     0.5971058    0.2758635  
   0.826958700     0.6356156    0.1707453  
   0.828958600     0.6560844    0.0604426  
   0.830958500     0.6583437   -0.0522107  
   0.832958400     0.6418517   -0.1637134  
   0.834958300     0.6073988   -0.2708056  
   0.836958200     0.5554183   -0.3708348  
   0.838958100     0.4879315   -0.4607691  
   0.840958000     0.4064211   -0.5383785  
   0.842957900     0.3134006   -0.6012451  
   0.844957800     0.2116216   -0.6479014  
   0.846957700     0.1038608   -0.6770040  
   0.848957600    -0.0063422   -0.6881267  
   0.850957500    -0.1168174   -0.6813945  
   0.852957400    -0.2238363   -0.6570657  
   0.854957300    -0.3249278   -0.6160408  
   0.856957200    -0.4178157   -0.5599554  
   0.858957100    -0.4998149   -0.4905307  
   0.860957000    -0.5692829   -0.4099718  
   0.862956900    -0.6254903   -0.3206241  
   0.864956800    -0.6666975   -0.2244938  
   0.866956700    -0.6927159   -0.1245536  
   0.868956600    -0.7030135   -0.0220838  
   0.870956500    -0.6983237    0.0802042  
   0.872956400    -0.6786366    0.1804999  
   0.874956300    -0.6439283    0.2766060  
   0.876956200    -0.5956812    0.3671041  
   0.878956100    -0.5341976    0.4496491  
   0.880956000    -0.4605853    0.5223619  
   0.882955900    -0.3767611    0.5835686  
   0.884955800    -0.2840068    0.6318799  
   0.886955700    -0.1846772    0.6659446  
   0.888955600    -0.0805393    0.6845787  
   0.890955500     0.0258735    0.6867831  
   0.892955400     0.1321848    0.6727518  
   0.894955300     0.2355865    0.6419096  
