! MS46122B
! 2250307/22442219
! 7/28/2025 8:07:38 AM
! C:\USERS\SPARKY\DOCUMENTS\VNA_DATA\JULY28_2025\295K\PORT3_MOS4_REPEAT1.S1P
! CHANNEL.1
! TR.MEASUREMENT
! RAW.DATA
# GHZ S RI R 50.0
! FREQ.GHZ         S11RE         S11IM         
!; PortSelection: Port_1
   0.001000000     1.0467880   -0.0718752  
   0.002999900     0.9647570   -0.1943494  
   0.004999800     0.9038952   -0.2990626  
   0.006999700     0.8361532   -0.3963250  
   0.008999600     0.7560669   -0.4908121  
   0.010999500     0.6613798   -0.5797436  
   0.012999400     0.5464098   -0.6600842  
   0.014999300     0.4057796   -0.7248713  
   0.016999200     0.2345513   -0.7604181  
   0.018999100     0.0309269   -0.7467726  
   0.020999000    -0.1916346   -0.6511014  
   0.022998900    -0.3894245   -0.4419068  
   0.024998800    -0.4652805   -0.1263088  
   0.026998700    -0.3925903    0.2268628  
   0.028998600    -0.1385418    0.4770268  
   0.030998500     0.1742628    0.5616687  
   0.032998400     0.4219420    0.5013486  
   0.034998300     0.6449551    0.3844506  
   0.036998200     0.7689663    0.2319953  
   0.038998100     0.8365600    0.0774608  
   0.040998000     0.8629710   -0.0671302  
   0.042997900     0.8598152   -0.1986146  
   0.044997800     0.8114151   -0.2900566  
   0.046997700     0.7950288   -0.4184694  
   0.048997600     0.7435723   -0.5089335  
   0.050997500     0.6836495   -0.5869657  
   0.052997400     0.6175746   -0.6535826  
   0.054997300     0.5449819   -0.7114625  
   0.056997200     0.4683509   -0.7596449  
   0.058997100     0.3884111   -0.7984840  
   0.060997000     0.3050679   -0.8285994  
   0.062996900     0.2189737   -0.8497203  
   0.064996800     0.1305211   -0.8613055  
   0.066996700     0.0398826   -0.8636449  
   0.068996600    -0.0518394   -0.8554727  
   0.070996500    -0.1445921   -0.8374043  
   0.072996400    -0.2368789   -0.8064203  
   0.074996300    -0.3276412   -0.7633006  
   0.076996200    -0.4156076   -0.7069041  
   0.078996100    -0.4984037   -0.6368183  
   0.080996000    -0.5742634   -0.5519335  
   0.082995900    -0.6397620   -0.4524772  
   0.084995800    -0.6911638   -0.3387959  
   0.086995700    -0.7264429   -0.2126549  
   0.088995600    -0.7403370   -0.0754985  
   0.090995500    -0.7292032    0.0687114  
   0.092995400    -0.6903189    0.2153252  
   0.094995300    -0.6196815    0.3572440  
   0.096995200    -0.5178400    0.4865140  
   0.098995100    -0.3865672    0.5940768  
   0.100995000    -0.2306350    0.6732842  
   0.102994900    -0.0601728    0.7150475  
   0.104994800     0.1152216    0.7173126  
   0.106994700     0.2854627    0.6793178  
   0.108994600     0.4403023    0.6068785  
   0.110994500     0.5724201    0.5051174  
   0.112994400     0.6764135    0.3818590  
   0.114994300     0.7502544    0.2451699  
   0.116994200     0.7940054    0.1028282  
   0.118994100     0.8093094   -0.0389477  
   0.120994000     0.8009375   -0.1752196  
   0.122993900     0.7689939   -0.3023175  
   0.124993800     0.7188783   -0.4172719  
   0.126993700     0.6535168   -0.5189335  
   0.128993600     0.5756032   -0.6056109  
   0.130993500     0.4893797   -0.6779230  
   0.132993400     0.3961362   -0.7359554  
   0.134993300     0.2986391   -0.7792723  
   0.136993200     0.1977352   -0.8084030  
   0.138993100     0.0953199   -0.8236421  
   0.140993000    -0.0065918   -0.8251549  
   0.142992900    -0.1077010   -0.8135721  
   0.144992800    -0.2064913   -0.7906629  
   0.146992700    -0.3011302   -0.7534004  
   0.148992600    -0.3905475   -0.7042549  
   0.150992500    -0.4730573   -0.6421586  
   0.152992400    -0.5484129   -0.5697291  
   0.154992300    -0.6143577   -0.4867472  
   0.156992200    -0.6692467   -0.3934999  
   0.158992100    -0.7119051   -0.2914777  
   0.160992000    -0.7399056   -0.1815386  
   0.162991900    -0.7522619   -0.0661094  
   0.164991800    -0.7466108    0.0534056  
   0.166991700    -0.7218543    0.1736236  
   0.168991600    -0.6771778    0.2916027  
   0.170991500    -0.6118227    0.4041083  
   0.172991400    -0.5264220    0.5064172  
   0.174991300    -0.4219490    0.5944046  
   0.176991200    -0.3009624    0.6644545  
   0.178991100    -0.1666924    0.7119941  
   0.180991000    -0.0239637    0.7353917  
   0.182990900     0.1221200    0.7306749  
   0.184990800     0.2660623    0.6981917  
   0.186990700     0.4012827    0.6389567  
   0.188990600     0.5053504    0.5700008  
   0.190990500     0.6216406    0.4542569  
   0.192990400     0.7038334    0.3322323  
   0.194990300     0.7597954    0.2020748  
   0.196990200     0.7907699    0.0671883  
   0.198990100     0.7969298   -0.0681159  
   0.200990000     0.7802162   -0.1997058  
   0.202989900     0.7421755   -0.3232724  
   0.204989800     0.6857350   -0.4363532  
   0.206989700     0.6148254   -0.5365779  
   0.208989600     0.5300264   -0.6216266  
   0.210989500     0.4353524   -0.6914625  
   0.212989400     0.3328133   -0.7448436  
   0.214989300     0.2256273   -0.7819765  
   0.216989200     0.1161744   -0.8025515  
   0.218989100     0.0070847   -0.8073322  
   0.220989000    -0.1011781   -0.7965388  
   0.222988900    -0.2061638   -0.7702927  
   0.224988800    -0.3062831   -0.7298639  
   0.226988700    -0.3994257   -0.6759510  
   0.228988600    -0.4837979   -0.6098686  
   0.230988500    -0.5583559   -0.5318686  
   0.232988400    -0.6205861   -0.4422008  
   0.234988300    -0.6708276   -0.3442915  
   0.236988200    -0.7069255   -0.2383178  
   0.238988100    -0.7270098   -0.1267297  
   0.240988000    -0.7296849   -0.0118537  
   0.242987900    -0.7144382    0.1041505  
   0.244987800    -0.6805384    0.2183805  
   0.246987700    -0.6275091    0.3282626  
   0.248987600    -0.5554344    0.4302220  
   0.250987500    -0.4646161    0.5206154  
   0.252987400    -0.3584106    0.5949959  
   0.254987300    -0.2389523    0.6505632  
   0.256987200    -0.1096615    0.6844063  
   0.258987100     0.0255867    0.6956393  
   0.260987000     0.1623706    0.6804350  
   0.262986900     0.2946975    0.6400639  
   0.264986800     0.4180470    0.5750979  
   0.266986700     0.5270008    0.4884222  
   0.268986600     0.6172291    0.3837110  
   0.270986500     0.6858704    0.2657124  
   0.272986400     0.7313579    0.1387358  
   0.274986300     0.7529625    0.0074268  
   0.276986200     0.7513207   -0.1228323  
   0.278986100     0.7270984   -0.2492201  
   0.280986000     0.6826708   -0.3672461  
   0.282985900     0.6205589   -0.4741269  
   0.284985800     0.5437784   -0.5674614  
   0.286985700     0.4549966   -0.6454084  
   0.288985600     0.3577299   -0.7069199  
   0.290985500     0.2552394   -0.7518841  
   0.292985400     0.1491597   -0.7809612  
   0.294985300     0.0420595   -0.7941238  
   0.296985200    -0.0648253   -0.7917644  
   0.298985100    -0.1698545   -0.7744729  
   0.300985000    -0.2706552   -0.7430611  
   0.302984900    -0.3649638   -0.6983356  
   0.304984800    -0.4518096   -0.6416181  
   0.306984700    -0.5296641   -0.5736563  
   0.308984600    -0.5973012   -0.4961182  
   0.310984500    -0.6535428   -0.4107752  
   0.312984400    -0.6983562   -0.3170969  
   0.314984300    -0.7299521   -0.2176478  
   0.316984200    -0.7471166   -0.1130560  
   0.318984100    -0.7489012   -0.0041423  
   0.320984000    -0.7338555    0.1058091  
   0.322983900    -0.7003739    0.2141990  
   0.324983800    -0.6489174    0.3166393  
   0.326983700    -0.5798205    0.4088213  
   0.328983600    -0.4963316    0.4873417  
   0.330983500    -0.4024887    0.5491926  
   0.332983400    -0.3030450    0.5939023  
   0.334983300    -0.2002280    0.6235319  
   0.336983200    -0.0958466    0.6387517  
   0.338983100     0.0098227    0.6400831  
   0.340983000     0.1156552    0.6268086  
   0.342982900     0.2207886    0.5976861  
   0.344982800     0.3221388    0.5518169  
   0.346982700     0.4173689    0.4889922  
   0.348982600     0.5016138    0.4087330  
   0.350982500     0.5729023    0.3148900  
   0.352982400     0.6274431    0.2084942  
   0.354982300     0.6633475    0.0886991  
   0.356982200     0.6762679   -0.0481992  
   0.358982100     0.6615512   -0.1847923  
   0.360982000     0.6201587   -0.3155415  
   0.362981900     0.5538970   -0.4354707  
   0.364981800     0.4654711   -0.5397788  
   0.366981700     0.3586197   -0.6244733  
   0.368981600     0.2383755   -0.6863804  
   0.370981500     0.1090347   -0.7240537  
   0.372981400    -0.0240498   -0.7361500  
   0.374981300    -0.1561631   -0.7231142  
   0.376981200    -0.0442988   -0.7381405  
   0.378981100    -0.1744711   -0.7208278  
   0.380981000    -0.2988530   -0.6807947  
   0.382980900    -0.4026524   -0.6256043  
   0.384980800    -0.4912960   -0.5579547  
   0.386980700    -0.5683026   -0.4781269  
   0.388980600    -0.6321535   -0.3872293  
   0.390980500    -0.6810446   -0.2889581  
   0.392980400    -0.7140539   -0.1847506  
   0.394980300    -0.7311268   -0.0770804  
   0.396980200    -0.7319292    0.0320729  
   0.398980100    -0.7164819    0.1406463  
   0.400980000    -0.6845069    0.2464134  
   0.402979900    -0.6367220    0.3467781  
   0.404979800    -0.5738484    0.4392750  
   0.406979700    -0.4965914    0.5217741  
   0.408979600    -0.4067720    0.5920053  
   0.410979500    -0.3053589    0.6487771  
   0.412979400    -0.1945882    0.6891543  
   0.414979300    -0.0772597    0.7099478  
   0.416979200     0.0431810    0.7128941  
   0.418979100     0.1636185    0.6956079  
   0.420979000     0.2806129    0.6583343  
   0.422978900     0.3909053    0.6014439  
   0.424978800     0.4905499    0.5259759  
   0.426978700     0.5763262    0.4338293  
   0.428978600     0.6451252    0.3281375  
   0.430978500     0.6947997    0.2122618  
   0.432978400     0.7236534    0.0900056  
   0.434978300     0.7321129   -0.0350943  
   0.436978200     0.7181402   -0.1585945  
   0.438978100     0.6836641   -0.2777075  
   0.440978000     0.6297304   -0.3882155  
   0.442977900     0.5586327   -0.4872034  
   0.444977800     0.4729100   -0.5720298  
   0.446977700     0.3755132   -0.6410846  
   0.448977600     0.2695883   -0.6925676  
   0.450977500     0.1575717   -0.7254542  
   0.452977400     0.0429762   -0.7400752  
   0.454977300    -0.0721374   -0.7361407  
   0.456977200    -0.1844493   -0.7142479  
   0.458977100    -0.2915463   -0.6750180  
   0.460977000    -0.3896337   -0.6202356  
   0.462976900    -0.4774524   -0.5514404  
   0.464976800    -0.5531849   -0.4700628  
   0.466976700    -0.6151320   -0.3784033  
   0.468976600    -0.6621810   -0.2785091  
   0.470976500    -0.6931875   -0.1726013  
   0.472976400    -0.7075733   -0.0630171  
   0.474976300    -0.7045342    0.0477582  
   0.476976200    -0.6838794    0.1568453  
   0.478976100    -0.6467583    0.2616824  
   0.480976000    -0.5932522    0.3597104  
   0.482975900    -0.5245098    0.4483729  
   0.484975800    -0.4415707    0.5254270  
   0.486975700    -0.3465672    0.5887070  
   0.488975600    -0.2413354    0.6359367  
   0.490975500    -0.1287039    0.6652361  
   0.492975400    -0.0116353    0.6750373  
   0.494975300     0.1060373    0.6646997  
   0.496975200     0.2209432    0.6336888  
   0.498975100     0.3281454    0.5832633  
   0.500975000     0.4251130    0.5147112  
   0.502974900     0.5078350    0.4307450  
   0.504974800     0.5740285    0.3341397  
   0.506974700     0.6215417    0.2280406  
   0.508974600     0.6503089    0.1165063  
   0.510974500     0.6586813    0.0038045  
   0.512974400     0.6483030   -0.1066072  
   0.514974300     0.6196615   -0.2098912  
   0.516974200     0.5771812   -0.3059077  
   0.518974100     0.5224505   -0.3920442  
   0.520974000     0.4573996   -0.4673056  
   0.522973900     0.3837596   -0.5315318  
   0.524973800     0.3030823   -0.5840573  
   0.526973700     0.2168438   -0.6260029  
   0.528973600     0.1257146   -0.6556061  
   0.530973500     0.0307743   -0.6730566  
   0.532973400    -0.0668995   -0.6771128  
   0.534973300    -0.1653966   -0.6665881  
   0.536973200    -0.2633090   -0.6419913  
   0.538973100    -0.3571674   -0.6019368  
   0.540973000    -0.4448487   -0.5474268  
   0.542972900    -0.5242184   -0.4787763  
   0.544972800    -0.5926118   -0.3974974  
   0.546972700    -0.6476010   -0.3048814  
   0.548972600    -0.6874999   -0.2035760  
   0.550972500    -0.7106099   -0.0961427  
   0.552972400    -0.7159346    0.0141900  
   0.554972300    -0.7032885    0.1250701  
   0.556972200    -0.6726000    0.2328776  
   0.558972100    -0.6244913    0.3347808  
   0.560972000    -0.5605108    0.4277422  
   0.562971900    -0.4818214    0.5093001  
   0.564971800    -0.3908020    0.5773365  
   0.566971700    -0.2896751    0.6298631  
   0.568971600    -0.1808415    0.6657084  
   0.570971500    -0.0673323    0.6829893  
   0.572971400     0.0485469    0.6817043  
   0.574971300     0.1635319    0.6610812  
   0.576971200     0.2748439    0.6211680  
   0.578971100     0.3782028    0.5626262  
   0.580971000     0.4708288    0.4873936  
   0.582970900     0.5495051    0.3968722  
   0.584970800     0.6117482    0.2942812  
   0.586970700     0.6553139    0.1831640  
   0.588970600     0.6795609    0.0656345  
   0.590970500     0.6832793   -0.0539546  
   0.592970400     0.6666958   -0.1724800  
   0.594970300     0.6300998   -0.2860642  
   0.596970200     0.5752498   -0.3912455  
   0.598970100     0.5034961   -0.4853298  
   0.600970000     0.4175637   -0.5655973  
   0.602969900     0.3198528   -0.6302349  
   0.604969800     0.2137625   -0.6771985  
   0.606969700     0.1018432   -0.7057101  
   0.608969600    -0.0127844   -0.7158515  
   0.610969500    -0.1265780   -0.7069631  
   0.612969400    -0.2363641   -0.6807227  
   0.614969300    -0.3395641   -0.6372122  
   0.616969200    -0.4337638   -0.5788021  
   0.618969100    -0.5164880   -0.5071951  
   0.620969000    -0.5868247   -0.4246369  
   0.622968900    -0.6436078   -0.3327762  
   0.624968800    -0.6856633   -0.2335650  
   0.626968700    -0.7124507   -0.1290842  
   0.628968600    -0.7230805   -0.0217716  
   0.630968500    -0.7173746    0.0857010  
   0.632968400    -0.6956289    0.1917107  
   0.634968300    -0.6578160    0.2932137  
   0.636968200    -0.6051643    0.3887797  
   0.638968100    -0.5383862    0.4751699  
   0.640968000    -0.4582169    0.5510937  
   0.642967900    -0.3672242    0.6142097  
   0.644967800    -0.2663734    0.6631807  
   0.646967700    -0.1584725    0.6959116  
   0.648967600    -0.0463701    0.7113609  
   0.650967500     0.0677166    0.7090374  
   0.652967400     0.1807403    0.6885453  
   0.654967300     0.2897688    0.6499765  
   0.656967200     0.3919524    0.5939669  
   0.658967100     0.4841912    0.5215134  
   0.660967000     0.5641532    0.4346013  
   0.662966900     0.6291775    0.3342724  
   0.664966800     0.6771142    0.2236131  
   0.666966700     0.7059985    0.1058675  
   0.668966600     0.7146480   -0.0154110  
   0.670966500     0.7027968   -0.1364494  
   0.672966400     0.6717429   -0.2536374  
   0.674966300     0.6209198   -0.3630107  
   0.676966200     0.5525802   -0.4616098  
   0.678966100     0.4701903   -0.5465725  
   0.680966000     0.3749486   -0.6163535  
   0.682965900     0.2711772   -0.6687578  
   0.684965800     0.1609203   -0.7035410  
   0.686965700     0.0479472   -0.7199563  
   0.688965600    -0.0652202   -0.7178153  
   0.690965500    -0.1751655   -0.6975365  
   0.692965400    -0.2797658   -0.6614785  
   0.694965300    -0.3762045   -0.6100878  
   0.696965200    -0.4629296   -0.5454749  
   0.698965100    -0.5381313   -0.4685119  
   0.700965000    -0.6007845   -0.3814043  
   0.702964900    -0.6491420   -0.2866772  
   0.704964800    -0.6826356   -0.1857712  
   0.706964700    -0.7003121   -0.0810910  
   0.708964600    -0.7020894    0.0251852  
   0.710964500    -0.6880293    0.1310946  
   0.712964400    -0.6574042    0.2335428  
   0.714964300    -0.6110719    0.3304312  
   0.716964200    -0.5503671    0.4189890  
   0.718964100    -0.4762743    0.4975063  
   0.720964000    -0.3907684    0.5635518  
   0.722963900    -0.2955163    0.6155068  
   0.724963800    -0.1926514    0.6518607  
   0.726963700    -0.0847880    0.6713479  
   0.728963600     0.0255889    0.6731082  
   0.730963500     0.1351201    0.6563052  
   0.732963400     0.2405780    0.6221723  
   0.734963300     0.3394243    0.5708088  
   0.736963200     0.4413326    0.4930397  
   0.738963100     0.5272601    0.3971687  
   0.740963000     0.5929163    0.2870266  
   0.742962900     0.6368024    0.1672411  
   0.744962800     0.6571323    0.0423293  
   0.746962700     0.6541091   -0.0832333  
   0.748962600     0.6283275   -0.2052618  
   0.750962500     0.6390464   -0.1065603  
   0.752962400     0.6103238   -0.2261652  
   0.754962300     0.5607182   -0.3373871  
   0.756962200     0.4923510   -0.4374132  
   0.758962100     0.4078879   -0.5229290  
   0.760962000     0.3098367   -0.5920143  
   0.762961900     0.2068948   -0.6406746  
   0.764961800     0.1065932   -0.6697068  
   0.766961700     0.0035323   -0.6833171  
   0.768961600    -0.1011030   -0.6807650  
   0.770961500    -0.2039877   -0.6624444  
   0.772961400    -0.3031591   -0.6283829  
   0.774961300    -0.3961128   -0.5797857  
   0.776961200    -0.4807551   -0.5167393  
   0.778961100    -0.5548724   -0.4412869  
   0.780961000    -0.6164427   -0.3546867  
   0.782960900    -0.6639253   -0.2590191  
   0.784960800    -0.6959225   -0.1565438  
   0.786960700    -0.7114364   -0.0499122  
   0.788960600    -0.7095297    0.0581417  
   0.790960500    -0.6911331    0.1647572  
   0.792960400    -0.6559008    0.2670551  
   0.794960300    -0.6047515    0.3629760  
   0.796960200    -0.5396269    0.4494877  
   0.798960100    -0.4613896    0.5244574  
   0.800960000    -0.3722507    0.5864047  
   0.802959900    -0.2742770    0.6338760  
   0.804959800    -0.1699877    0.6653798  
   0.806959700    -0.0622701    0.6801194  
   0.808959600     0.0470996    0.6777003  
   0.810959500     0.1550155    0.6578414  
   0.812959400     0.2589336    0.6208330  
   0.814959300     0.3561425    0.5676210  
   0.816959200     0.4438055    0.4994531  
   0.818959100     0.5198489    0.4173920  
   0.820959000     0.5819405    0.3235950  
   0.822958900     0.6280251    0.2206970  
   0.824958800     0.6569283    0.1110313  
   0.826958700     0.6671447   -0.0023157  
   0.828958600     0.6587813   -0.1159076  
   0.830958500     0.6316736   -0.2267713  
   0.832958400     0.5867988   -0.3316970  
   0.834958300     0.5250553   -0.4272509  
   0.836958200     0.4484596   -0.5116869  
   0.838958100     0.3595703   -0.5817518  
   0.840958000     0.2603487   -0.6364382  
   0.842957900     0.1541409   -0.6737565  
   0.844957800     0.0433700   -0.6933174  
   0.846957700    -0.0683998   -0.6947182  
   0.848957600    -0.1783841   -0.6780609  
   0.850957500    -0.2839001   -0.6441462  
   0.852957400    -0.3816815   -0.5942250  
   0.854957300    -0.4701494   -0.5298884  
   0.856957200    -0.5469192   -0.4529151  
   0.858957100    -0.6102230   -0.3657265  
   0.860957000    -0.6589171   -0.2704145  
   0.862956900    -0.6923056   -0.1700079  
   0.864956800    -0.7101945   -0.0664526  
   0.866956700    -0.7116238    0.0375765  
   0.868956600    -0.6980595    0.1404944  
   0.870956500    -0.6696749    0.2397159  
   0.872956400    -0.6264022    0.3338584  
   0.874956300    -0.5698571    0.4208640  
   0.876956200    -0.5007965    0.4988242  
   0.878956100    -0.4198804    0.5661076  
   0.880956000    -0.3297948    0.6206677  
   0.882955900    -0.2316218    0.6615346  
   0.884955800    -0.1280159    0.6869809  
   0.886955700    -0.0206618    0.6964673  
   0.888955600     0.0874104    0.6890886  
   0.890955500     0.1942507    0.6649200  
   0.892955400     0.2966055    0.6239622  
   0.894955300     0.3915589    0.5667948  
