! MS46122B
! 2250307/22442219
! 7/23/2025 1:18:31 PM
! C:\USERS\SPARKY\DOCUMENTS\VNA_DATA\JULY23_2025\295K\PORT3_MOS1_REPEAT1.S1P
! CHANNEL.1
! TR.MEASUREMENT
! RAW.DATA
# GHZ S RI R 50.0
! FREQ.GHZ         S11RE         S11IM         
!; PortSelection: Port_1
   0.001000000     1.0462330   -0.0711138  
   0.002999900     0.9643555   -0.1937839  
   0.004999800     0.9034150   -0.2986443  
   0.006999700     0.8356308   -0.3960299  
   0.008999600     0.7555634   -0.4905775  
   0.010999500     0.6610252   -0.5794689  
   0.012999400     0.5464261   -0.6597897  
   0.014999300     0.4066108   -0.7246064  
   0.016999200     0.2367020   -0.7608735  
   0.018999100     0.0351275   -0.7487538  
   0.020999000    -0.1855372   -0.6573809  
   0.022998900    -0.3842942   -0.4557231  
   0.024998800    -0.4675880   -0.1480204  
   0.026998700    -0.4107278    0.2028877  
   0.028998600    -0.1705557    0.4631818  
   0.030998500     0.1380266    0.5637521  
   0.032998400     0.3907225    0.5159135  
   0.034998300     0.6214249    0.4080059  
   0.036998200     0.7540023    0.2588012  
   0.038998100     0.8287953    0.1051181  
   0.040998000     0.8605789   -0.0406047  
   0.042997900     0.8623217   -0.1734709  
   0.044997800     0.8168705   -0.2676529  
   0.046997700     0.8037792   -0.3973079  
   0.048997600     0.7547790   -0.4899110  
   0.050997500     0.6967662   -0.5699669  
   0.052997400     0.6333441   -0.6375838  
   0.054997300     0.5610066   -0.6983735  
   0.056997200     0.4859463   -0.7482538  
   0.058997100     0.4073269   -0.7889366  
   0.060997000     0.3251794   -0.8210424  
   0.062996900     0.2405077   -0.8442995  
   0.064996800     0.1531550   -0.8580425  
   0.066996700     0.0636176   -0.8629583  
   0.068996600    -0.0270602   -0.8575513  
   0.070996500    -0.1184922   -0.8427045  
   0.072996400    -0.2104944   -0.8153033  
   0.074996300    -0.3008759   -0.7761829  
   0.076996200    -0.3887376   -0.7243667  
   0.078996100    -0.4724869   -0.6594031  
   0.080996000    -0.5497041   -0.5801294  
   0.082995900    -0.6182576   -0.4867186  
   0.084995800    -0.6738820   -0.3794139  
   0.086995700    -0.7151524   -0.2592615  
   0.088995600    -0.7370650   -0.1276557  
   0.090995500    -0.7361881    0.0123740  
   0.092995400    -0.7094837    0.1567599  
   0.094995300    -0.6526991    0.2994809  
   0.096995200    -0.5656179    0.4331501  
   0.098995100    -0.4485898    0.5494651  
   0.100995000    -0.3044121    0.6419977  
   0.102994900    -0.1424857    0.7004634  
   0.104994800     0.0295159    0.7216431  
   0.106994700     0.2011642    0.7032586  
   0.108994600     0.3628679    0.6492471  
   0.110994500     0.5058968    0.5627329  
   0.112994400     0.6240755    0.4514138  
   0.114994300     0.7135632    0.3225105  
   0.116994200     0.7732813    0.1840064  
   0.118994100     0.8040606    0.0427076  
   0.120994000     0.8099086   -0.0960244  
   0.122993900     0.7904873   -0.2276551  
   0.124993800     0.7509892   -0.3489761  
   0.126993700     0.6949506   -0.4580410  
   0.128993600     0.6244053   -0.5528349  
   0.130993500     0.5440448   -0.6336132  
   0.132993400     0.4555430   -0.7002377  
   0.134993300     0.3612035   -0.7521970  
   0.136993200     0.2628992   -0.7901128  
   0.138993100     0.1621623   -0.8139250  
   0.140993000     0.0607865   -0.8241124  
   0.142992900    -0.0404678   -0.8211271  
   0.144992800    -0.1397516   -0.8068611  
   0.146992700    -0.2361225   -0.7785575  
   0.148992600    -0.3286093   -0.7377642  
   0.150992500    -0.4145198   -0.6842485  
   0.152992400    -0.4946194   -0.6203039  
   0.154992300    -0.5663851   -0.5458614  
   0.156992200    -0.6288226   -0.4607514  
   0.158992100    -0.6799802   -0.3661722  
   0.160992000    -0.7182000   -0.2635250  
   0.162991900    -0.7422853   -0.1532856  
   0.164991800    -0.7501147   -0.0379402  
   0.166991700    -0.7403818    0.0796974  
   0.168991600    -0.7119192    0.1981080  
   0.170991500    -0.6636452    0.3139679  
   0.172991400    -0.5957028    0.4227831  
   0.174991300    -0.5083979    0.5210800  
   0.176991200    -0.4025055    0.6053539  
   0.178991100    -0.2812287    0.6712677  
   0.180991000    -0.1478500    0.7156552  
   0.182990900    -0.0066833    0.7348092  
   0.184990800     0.1375464    0.7270493  
   0.186990700     0.2785447    0.6927280  
   0.188990600     0.3915454    0.6432897  
   0.190990500     0.5255700    0.5508243  
   0.192990400     0.6274335    0.4455827  
   0.194990300     0.7055897    0.3271464  
   0.196990200     0.7598516    0.1992546  
   0.198990100     0.7901428    0.0663064  
   0.200990000     0.7961887   -0.0671775  
   0.202989900     0.7800930   -0.1976488  
   0.204989800     0.7429975   -0.3198293  
   0.206989700     0.6890907   -0.4320452  
   0.208989600     0.6188207   -0.5308118  
   0.210989500     0.5356727   -0.6157586  
   0.212989400     0.4423070   -0.6861363  
   0.214989300     0.3417664   -0.7398993  
   0.216989200     0.2365679   -0.7778594  
   0.218989100     0.1290051   -0.7997797  
   0.220989000     0.0206339   -0.8063037  
   0.222988900    -0.0865538   -0.7973431  
   0.224988800    -0.1910654   -0.7733316  
   0.226988700    -0.2903022   -0.7355279  
   0.228988600    -0.3829489   -0.6845105  
   0.230988500    -0.4675697   -0.6213290  
   0.232988400    -0.5421710   -0.5453673  
   0.234988300    -0.6068360   -0.4595212  
   0.236988200    -0.6589678   -0.3646371  
   0.238988100    -0.6975089   -0.2618199  
   0.240988000    -0.7207031   -0.1535329  
   0.242987900    -0.7274225   -0.0414920  
   0.244987800    -0.7169083    0.0724778  
   0.246987700    -0.6883283    0.1856565  
   0.248987600    -0.6411493    0.2956957  
   0.250987500    -0.5752249    0.3988066  
   0.252987400    -0.4915107    0.4910324  
   0.254987300    -0.3922491    0.5687760  
   0.256987200    -0.2791622    0.6297211  
   0.258987100    -0.1552191    0.6718068  
   0.260987000    -0.0233862    0.6899551  
   0.262986900     0.1115017    0.6838475  
   0.264986800     0.2439660    0.6531039  
   0.266986700     0.3694083    0.5981091  
   0.268986600     0.4822368    0.5211380  
   0.270986500     0.5782118    0.4253178  
   0.272986400     0.6548964    0.3140206  
   0.274986300     0.7091401    0.1925369  
   0.276986200     0.7406377    0.0645595  
   0.278986100     0.7488746   -0.0653045  
   0.280986000     0.7345630   -0.1923060  
   0.282985900     0.6994702   -0.3129983  
   0.284985800     0.6458556   -0.4235200  
   0.286985700     0.5765147   -0.5216650  
   0.288985600     0.4946616   -0.6051356  
   0.290985500     0.4031301   -0.6731147  
   0.292985400     0.3050571   -0.7251545  
   0.294985300     0.2021005   -0.7617627  
   0.296985200     0.0965920   -0.7826537  
   0.298985100    -0.0096820   -0.7879708  
   0.300985000    -0.1145585   -0.7783614  
   0.302984900    -0.2154880   -0.7546445  
   0.304984800    -0.3115028   -0.7177947  
   0.306984700    -0.4004139   -0.6688849  
   0.308984600    -0.4809369   -0.6090646  
   0.310984500    -0.5525281   -0.5395437  
   0.312984400    -0.6142911   -0.4610500  
   0.314984300    -0.6654736   -0.3747810  
   0.316984200    -0.7049507   -0.2815949  
   0.318984100    -0.7315325   -0.1819123  
   0.320984000    -0.7439398   -0.0772474  
   0.322983900    -0.7409394    0.0300989  
   0.324983800    -0.7212914    0.1376946  
   0.326983700    -0.6843427    0.2414262  
   0.328983600    -0.6300123    0.3387835  
   0.330983500    -0.5608862    0.4251890  
   0.332983400    -0.4799178    0.4985571  
   0.334983300    -0.3898512    0.5582114  
   0.336983200    -0.2928890    0.6035365  
   0.338983100    -0.1906669    0.6349959  
   0.340983000    -0.0844441    0.6517072  
   0.342982900     0.0245562    0.6532174  
   0.344982800     0.1339741    0.6379941  
   0.346982700     0.2421743    0.6051379  
   0.348982600     0.3448943    0.5538446  
   0.350982500     0.4394626    0.4861764  
   0.352982400     0.5223302    0.4022445  
   0.354982300     0.5925151    0.3008507  
   0.356982200     0.6468875    0.1765709  
   0.358982100     0.6759734    0.0438256  
   0.360982000     0.6784725   -0.0922809  
   0.362981900     0.6543512   -0.2259825  
   0.364981800     0.6045046   -0.3524840  
   0.366981700     0.5315298   -0.4664573  
   0.368981600     0.4377291   -0.5638307  
   0.370981500     0.3279172   -0.6410236  
   0.372981400     0.2058146   -0.6953804  
   0.374981300     0.0766221   -0.7255951  
   0.376981200     0.1835907   -0.7050665  
   0.378981100     0.0548835   -0.7297279  
   0.380981000    -0.0746851   -0.7302245  
   0.382980900    -0.1898469   -0.7102607  
   0.384980800    -0.2944137   -0.6747449  
   0.386980700    -0.3912182   -0.6231566  
   0.388980600    -0.4788889   -0.5579540  
   0.390980500    -0.5543226   -0.4812971  
   0.392980400    -0.6170720   -0.3945340  
   0.394980300    -0.6659920   -0.3005158  
   0.396980200    -0.7001559   -0.2001977  
   0.398980100    -0.7192906   -0.0962590  
   0.400980000    -0.7229711    0.0097237  
   0.402979900    -0.7109965    0.1157618  
   0.404979800    -0.6832624    0.2190737  
   0.406979700    -0.6406625    0.3176656  
   0.408979600    -0.5831679    0.4096694  
   0.410979500    -0.5113153    0.4930559  
   0.412979400    -0.4265079    0.5653777  
   0.414979300    -0.3298821    0.6238365  
   0.416979200    -0.2244501    0.6678953  
   0.418979100    -0.1124534    0.6950177  
   0.420979000     0.0034705    0.7041149  
   0.422978900     0.1211338    0.6939891  
   0.424978800     0.2366751    0.6646344  
   0.426978700     0.3469295    0.6159719  
   0.428978600     0.4481317    0.5493109  
   0.430978500     0.5368555    0.4661629  
   0.432978400     0.6105082    0.3692322  
   0.434978300     0.6679844    0.2614986  
   0.436978200     0.7052402    0.1454199  
   0.438978100     0.7223818    0.0248985  
   0.440978000     0.7189546   -0.0963507  
   0.442977900     0.6956280   -0.2147681  
   0.444977800     0.6528009   -0.3266971  
   0.446977700     0.5925288   -0.4288581  
   0.448977600     0.5169622   -0.5192118  
   0.450977500     0.4287063   -0.5953502  
   0.452977400     0.3300923   -0.6554419  
   0.454977300     0.2233748   -0.6985195  
   0.456977200     0.1119274   -0.7238365  
   0.458977100    -0.0009357   -0.7309133  
   0.460977000    -0.1123298   -0.7202604  
   0.462976900    -0.2194272   -0.6927967  
   0.464976800    -0.3200636   -0.6492682  
   0.466976700    -0.4119639   -0.5912930  
   0.468976600    -0.4933814   -0.5205996  
   0.470976500    -0.5628883   -0.4385713  
   0.472976400    -0.6186391   -0.3469873  
   0.474976300    -0.6601864   -0.2486029  
   0.476976200    -0.6859466   -0.1452522  
   0.478976100    -0.6955310   -0.0391864  
   0.480976000    -0.6887144    0.0667818  
   0.482975900    -0.6656109    0.1705997  
   0.484975800    -0.6271020    0.2702290  
   0.486975700    -0.5730458    0.3633523  
   0.488975600    -0.5041107    0.4475805  
   0.490975500    -0.4221576    0.5205321  
   0.492975400    -0.3287383    0.5796300  
   0.494975300    -0.2258165    0.6231288  
   0.496975200    -0.1160972    0.6486778  
   0.498975100    -0.0033950    0.6557754  
   0.500975000     0.1093340    0.6433683  
   0.502974900     0.2181965    0.6115292  
   0.504974800     0.3196778    0.5611467  
   0.506974700     0.4108516    0.4944027  
   0.508974600     0.4884312    0.4126252  
   0.510974500     0.5498030    0.3199702  
   0.512974400     0.5936899    0.2198045  
   0.514974300     0.6185800    0.1162130  
   0.516974200     0.6270138    0.0127726  
   0.518974100     0.6193420   -0.0882516  
   0.520974000     0.5969184   -0.1843739  
   0.522973900     0.5623134   -0.2744130  
   0.524973800     0.5161793   -0.3568354  
   0.526973700     0.4598117   -0.4319960  
   0.528973600     0.3944132   -0.4980390  
   0.530973500     0.3203816   -0.5552993  
   0.532973400     0.2392098   -0.6023577  
   0.534973300     0.1513763   -0.6376383  
   0.536973200     0.0576370   -0.6607484  
   0.538973100    -0.0391909   -0.6698208  
   0.540973000    -0.1370697   -0.6635218  
   0.542972900    -0.2346894   -0.6431363  
   0.544972800    -0.3286047   -0.6069451  
   0.546972700    -0.4174008   -0.5557519  
   0.548972600    -0.4977225   -0.4906103  
   0.550972500    -0.5673615   -0.4126738  
   0.552972400    -0.6239316   -0.3239302  
   0.554972300    -0.6659939   -0.2266733  
   0.556972200    -0.6920664   -0.1233581  
   0.558972100    -0.7010948   -0.0167462  
   0.560972000    -0.6935881    0.0900120  
   0.562971900    -0.6689204    0.1944163  
   0.564971800    -0.6279165    0.2938172  
   0.566971700    -0.5714707    0.3855168  
   0.568971600    -0.5014791    0.4676141  
   0.570971500    -0.4188116    0.5378940  
   0.572971400    -0.3253759    0.5945009  
   0.574971300    -0.2230691    0.6359143  
   0.576971200    -0.1148472    0.6603223  
   0.578971100    -0.0029112    0.6669728  
   0.580971000     0.1092709    0.6550561  
   0.582970900     0.2186357    0.6247481  
   0.584970800     0.3217259    0.5767909  
   0.586970700     0.4155808    0.5120364  
   0.588970600     0.4978428    0.4321633  
   0.590970500     0.5658484    0.3390646  
   0.592970400     0.6170017    0.2360701  
   0.594970300     0.6502224    0.1254824  
   0.596970200     0.6641878    0.0105911  
   0.598970100     0.6581194   -0.1047094  
   0.600970000     0.6333464   -0.2174775  
   0.602969900     0.5895491   -0.3237979  
   0.604969800     0.5284598   -0.4213772  
   0.606969700     0.4523453   -0.5068621  
   0.608969600     0.3629809   -0.5780746  
   0.610969500     0.2639722   -0.6331141  
   0.612969400     0.1579147   -0.6703422  
   0.614969300     0.0482540   -0.6895915  
   0.616969200    -0.0618291   -0.6905295  
   0.618969100    -0.1691797   -0.6743156  
   0.620969000    -0.2711017   -0.6418496  
   0.622968900    -0.3665115   -0.5936815  
   0.624968800    -0.4525914   -0.5321372  
   0.626968700    -0.5279623   -0.4581670  
   0.628968600    -0.5909508   -0.3740605  
   0.630968500    -0.6397592   -0.2815997  
   0.632968400    -0.6742019   -0.1830907  
   0.634968300    -0.6932480   -0.0805846  
   0.636968200    -0.6965283    0.0232678  
   0.638968100    -0.6843523    0.1264041  
   0.640968000    -0.6565096    0.2270760  
   0.642967900    -0.6138849    0.3225141  
   0.644967800    -0.5572950    0.4105872  
   0.646967700    -0.4875135    0.4895174  
   0.648967600    -0.4063508    0.5574751  
   0.650967500    -0.3153475    0.6124220  
   0.652967400    -0.2167736    0.6527441  
   0.654967300    -0.1121093    0.6778001  
   0.656967200    -0.0041324    0.6863270  
   0.658967100     0.1047677    0.6780553  
   0.660967000     0.2116900    0.6520129  
   0.662966900     0.3149405    0.6087739  
   0.664966800     0.4108368    0.5486453  
   0.666966700     0.4967317    0.4729867  
   0.668966600     0.5694070    0.3834324  
   0.670966500     0.6265112    0.2825611  
   0.672966400     0.6674159    0.1739385  
   0.674966300     0.6884296    0.0592181  
   0.676966200     0.6901653   -0.0567837  
   0.678966100     0.6718881   -0.1713050  
   0.680966000     0.6355085   -0.2810275  
   0.682965900     0.5815939   -0.3822404  
   0.684965800     0.5123658   -0.4728469  
   0.686965700     0.4290633   -0.5504486  
   0.688965600     0.3357450   -0.6129024  
   0.690965500     0.2337544   -0.6579327  
   0.692965400     0.1273362   -0.6866829  
   0.694965300     0.0189582   -0.6977152  
   0.696965200    -0.0884956   -0.6918701  
   0.698965100    -0.1928036   -0.6695310  
   0.700965000    -0.2918749   -0.6316783  
   0.702964900    -0.3828692   -0.5794926  
   0.704964800    -0.4641076   -0.5145407  
   0.706964700    -0.5342259   -0.4381944  
   0.708964600    -0.5919251   -0.3525805  
   0.710964500    -0.6362620   -0.2600647  
   0.712964400    -0.6654500   -0.1615391  
   0.714964300    -0.6793396   -0.0602238  
   0.716964200    -0.6780400    0.0416841  
   0.718964100    -0.6611532    0.1421177  
   0.720964000    -0.6293997    0.2389014  
   0.722963900    -0.5835807    0.3296342  
   0.724963800    -0.5243624    0.4127233  
   0.726963700    -0.4522934    0.4859821  
   0.728963600    -0.3697205    0.5475803  
   0.730963500    -0.2775346    0.5954457  
   0.732963400    -0.1787421    0.6284506  
   0.734963300    -0.0752498    0.6453072  
   0.736963200     0.0462656    0.6442347  
   0.738963100     0.1664514    0.6205670  
   0.740963000     0.2805486    0.5748273  
   0.742962900     0.3839776    0.5085262  
   0.744962800     0.4731968    0.4245515  
   0.746962700     0.5452126    0.3253995  
   0.748962600     0.5972306    0.2150339  
   0.750962500     0.5441466    0.3025888  
   0.752962400     0.5922425    0.1923172  
   0.754962300     0.6191538    0.0761209  
   0.756962200     0.6246992   -0.0426962  
   0.758962100     0.6086260   -0.1595080  
   0.760962000     0.5720962   -0.2713210  
   0.762961900     0.5191325   -0.3694998  
   0.764961800     0.4570163   -0.4501091  
   0.766961700     0.3833722   -0.5200935  
   0.768961600     0.2997670   -0.5780106  
   0.770961500     0.2084934   -0.6226042  
   0.772961400     0.1114577   -0.6523693  
   0.774961300     0.0108358   -0.6671018  
   0.776961200    -0.0909462   -0.6662009  
   0.778961100    -0.1919443   -0.6496116  
   0.780961000    -0.2892801   -0.6171376  
   0.782960900    -0.3811056   -0.5698557  
   0.784960800    -0.4645103   -0.5084931  
   0.786960700    -0.5375280   -0.4345890  
   0.788960600    -0.5981413   -0.3497202  
   0.790960500    -0.6445103   -0.2565651  
   0.792960400    -0.6758089   -0.1571709  
   0.794960300    -0.6910975   -0.0542364  
   0.796960200    -0.6903841    0.0498425  
   0.798960100    -0.6732205    0.1522536  
   0.800960000    -0.6405202    0.2505350  
   0.802959900    -0.5930641    0.3428768  
   0.804959800    -0.5317490    0.4265274  
   0.806959700    -0.4584573    0.4997908  
   0.808959600    -0.3744052    0.5610966  
   0.810959500    -0.2817585    0.6081554  
   0.812959400    -0.1825124    0.6409972  
   0.814959300    -0.0790651    0.6577852  
   0.816959200     0.0260403    0.6581872  
   0.818959100     0.1305649    0.6422769  
   0.820959000     0.2316333    0.6098590  
   0.822958900     0.3270875    0.5613363  
   0.824958800     0.4142948    0.4981146  
   0.826958700     0.4902082    0.4210546  
   0.828958600     0.5532706    0.3323937  
   0.830958500     0.6009987    0.2342368  
   0.832958400     0.6322775    0.1291547  
   0.834958300     0.6460025    0.0202241  
   0.836958200     0.6414703   -0.0895993  
   0.838958100     0.6188318   -0.1971993  
   0.840958000     0.5789445   -0.3000218  
   0.842957900     0.5224141   -0.3946373  
   0.844957800     0.4509824   -0.4790193  
   0.846957700     0.3669347   -0.5500664  
   0.848957600     0.2723229   -0.6063899  
   0.850957500     0.1701095   -0.6458771  
   0.852957400     0.0634385   -0.6680694  
   0.854957300    -0.0450400   -0.6726995  
   0.856957200    -0.1517808   -0.6597254  
   0.858957100    -0.2546684   -0.6299535  
   0.860957000    -0.3503826   -0.5848929  
   0.862956900    -0.4371433   -0.5258333  
   0.864956800    -0.5127905   -0.4549369  
   0.866956700    -0.5760560   -0.3742005  
   0.868956600    -0.6255445   -0.2854507  
   0.870956500    -0.6614050   -0.1907031  
   0.872956400    -0.6824045   -0.0919584  
   0.874956300    -0.6886317    0.0079770  
   0.876956200    -0.6797458    0.1083249  
   0.878956100    -0.6556506    0.2058730  
   0.880956000    -0.6179045    0.2988912  
   0.882955900    -0.5664879    0.3854959  
   0.884955800    -0.5025803    0.4635005  
   0.886955700    -0.4274510    0.5317205  
   0.888955600    -0.3427686    0.5879183  
   0.890955500    -0.2500921    0.6312698  
   0.892955400    -0.1515753    0.6602272  
   0.894955300    -0.0490561    0.6736434  
