! MS46122B
! 2250307/22442219
! 7/22/2025 3:24:55 PM
! C:\USERS\SPARKY\DOCUMENTS\VNA_DATA\JULY22_2025\295\PORT3_MOS2_REPEAT1.S1P
! CHANNEL.1
! TR.MEASUREMENT
! RAW.DATA
# GHZ S RI R 50.0
! FREQ.GHZ         S11RE         S11IM         
!; PortSelection: Port_1
   0.001000000     1.0459070   -0.0712277  
   0.002999900     0.9643332   -0.1937790  
   0.004999800     0.9034879   -0.2985854  
   0.006999700     0.8357165   -0.3959364  
   0.008999600     0.7556836   -0.4904661  
   0.010999500     0.6611085   -0.5794055  
   0.012999400     0.5464395   -0.6597511  
   0.014999300     0.4063395   -0.7246048  
   0.016999200     0.2361336   -0.7606083  
   0.018999100     0.0339068   -0.7481552  
   0.020999000    -0.1873530   -0.6555677  
   0.022998900    -0.3859124   -0.4518386  
   0.024998800    -0.4672575   -0.1417491  
   0.026998700    -0.4059333    0.2099835  
   0.028998600    -0.1617728    0.4675861  
   0.030998500     0.1482292    0.5637488  
   0.032998400     0.3998589    0.5122316  
   0.034998300     0.6282176    0.4018095  
   0.036998200     0.7584086    0.2515721  
   0.038998100     0.8311718    0.0976662  
   0.040998000     0.8616673   -0.0478596  
   0.042997900     0.8616945   -0.1804232  
   0.044997800     0.8154454   -0.2738421  
   0.046997700     0.8013942   -0.4030966  
   0.048997600     0.7516410   -0.4951373  
   0.050997500     0.6930600   -0.5745982  
   0.052997400     0.6278362   -0.6429455  
   0.054997300     0.5569645   -0.7014358  
   0.056997200     0.4810291   -0.7512327  
   0.058997100     0.4020518   -0.7913899  
   0.060997000     0.3195573   -0.8228665  
   0.062996900     0.2345476   -0.8456041  
   0.064996800     0.1468799   -0.8587247  
   0.066996700     0.0570528   -0.8628931  
   0.068996600    -0.0339068   -0.8567327  
   0.070996500    -0.1256972   -0.8409733  
   0.072996400    -0.2177346   -0.8125890  
   0.074996300    -0.3082120   -0.7724119  
   0.076996200    -0.3960938   -0.7193103  
   0.078996100    -0.4796122   -0.6529490  
   0.080996000    -0.5565088   -0.5721781  
   0.082995900    -0.6241216   -0.4771111  
   0.084995800    -0.6786452   -0.3680403  
   0.086995700    -0.7183534   -0.2463209  
   0.088995600    -0.7380033   -0.1132642  
   0.090995500    -0.7344292    0.0280086  
   0.092995400    -0.7044633    0.1730916  
   0.094995300    -0.6439950    0.3156832  
   0.096995200    -0.5528525    0.4482864  
   0.098995100    -0.4317188    0.5624722  
   0.100995000    -0.2844819    0.6514198  
   0.102994900    -0.1201046    0.7054016  
   0.104994800     0.0530649    0.7214643  
   0.106994700     0.2246256    0.6978073  
   0.108994600     0.3847801    0.6383740  
   0.110994500     0.5249734    0.5479749  
   0.112994400     0.6393214    0.4329722  
   0.114994300     0.7245742    0.3016423  
   0.116994200     0.7799644    0.1616786  
   0.118994100     0.8065390    0.0200492  
   0.120994000     0.8082667   -0.1180433  
   0.122993900     0.7853327   -0.2485738  
   0.124993800     0.7427734   -0.3681337  
   0.126993700     0.6838494   -0.4752683  
   0.128993600     0.6112542   -0.5676769  
   0.130993500     0.5290914   -0.6464165  
   0.132993400     0.4392166   -0.7104848  
   0.134993300     0.3437375   -0.7602943  
   0.136993200     0.2447758   -0.7955080  
   0.138993100     0.1434277   -0.8168651  
   0.140993000     0.0418508   -0.8246826  
   0.142992900    -0.0595188   -0.8193715  
   0.144992800    -0.1584197   -0.8025203  
   0.146992700    -0.2547813   -0.7715273  
   0.148992600    -0.3465067   -0.7285879  
   0.150992500    -0.4312039   -0.6726982  
   0.152992400    -0.5099792   -0.6063157  
   0.154992300    -0.5802484   -0.5294579  
   0.156992200    -0.6405761   -0.4421251  
   0.158992100    -0.6893201   -0.3454565  
   0.160992000    -0.7248871   -0.2406671  
   0.162991900    -0.7457011   -0.1290524  
   0.164991800    -0.7499394   -0.0125118  
   0.166991700    -0.7360949    0.1060673  
   0.168991600    -0.7033629    0.2241470  
   0.170991500    -0.6503054    0.3394817  
   0.172991400    -0.5776589    0.4466689  
   0.174991300    -0.4856003    0.5425059  
   0.176991200    -0.3753970    0.6229630  
   0.178991100    -0.2502412    0.6841151  
   0.180991000    -0.1142476    0.7229320  
   0.182990900     0.0287021    0.7357102  
   0.184990800     0.1733327    0.7214009  
   0.186990700     0.3133022    0.6799843  
   0.188990600     0.4239931    0.6251045  
   0.190990500     0.5535652    0.5261525  
   0.192990400     0.6505529    0.4158135  
   0.194990300     0.7226397    0.2935773  
   0.196990200     0.7707230    0.1631673  
   0.198990100     0.7941772    0.0292418  
   0.200990000     0.7940087   -0.1043353  
   0.202989900     0.7714860   -0.2328677  
   0.204989800     0.7289346   -0.3529662  
   0.206989700     0.6699741   -0.4622891  
   0.208989600     0.5954321   -0.5574425  
   0.210989500     0.5086796   -0.6382865  
   0.212989400     0.4125382   -0.7041064  
   0.214989300     0.3098037   -0.7532253  
   0.216989200     0.2032133   -0.7863547  
   0.218989100     0.0948789   -0.8034096  
   0.220989000    -0.0134087   -0.8051600  
   0.222988900    -0.1206687   -0.7912756  
   0.224988800    -0.2237542   -0.7627318  
   0.226988700    -0.3215892   -0.7204903  
   0.228988600    -0.4120855   -0.6651141  
   0.230988500    -0.4941412   -0.5976695  
   0.232988400    -0.5652593   -0.5179187  
   0.234988300    -0.6260676   -0.4287011  
   0.236988200    -0.6739484   -0.3305400  
   0.238988100    -0.7076157   -0.2251576  
   0.240988000    -0.7254694   -0.1147340  
   0.242987900    -0.7264088   -0.0012842  
   0.244987800    -0.7095510    0.1130211  
   0.246987700    -0.6744403    0.2259753  
   0.248987600    -0.6202778    0.3344316  
   0.250987500    -0.5475549    0.4342137  
   0.252987400    -0.4573462    0.5221835  
   0.254987300    -0.3521655    0.5944872  
   0.256987200    -0.2341482    0.6484079  
   0.258987100    -0.1061850    0.6823865  
   0.260987000     0.0276010    0.6917124  
   0.262986900     0.1630403    0.6762469  
   0.264986800     0.2940538    0.6360713  
   0.266986700     0.4155250    0.5718057  
   0.268986600     0.5229033    0.4865385  
   0.270986500     0.6121223    0.3835865  
   0.272986400     0.6803584    0.2673710  
   0.274986300     0.7259836    0.1418940  
   0.276986200     0.7481531    0.0123371  
   0.278986100     0.7473491   -0.1171321  
   0.280986000     0.7239249   -0.2425163  
   0.282985900     0.6809365   -0.3599217  
   0.284985800     0.6201878   -0.4662549  
   0.286985700     0.5450344   -0.5591885  
   0.288985600     0.4584703   -0.6365855  
   0.290985500     0.3632201   -0.6982848  
   0.292985400     0.2624306   -0.7439661  
   0.294985300     0.1578874   -0.7739729  
   0.296985200     0.0514526   -0.7883000  
   0.298985100    -0.0547216   -0.7873323  
   0.300985000    -0.1587856   -0.7714944  
   0.302984900    -0.2584038   -0.7419498  
   0.304984800    -0.3518456   -0.6993075  
   0.306984700    -0.4379716   -0.6451074  
   0.308984600    -0.5151608   -0.5802500  
   0.310984500    -0.5828937   -0.5061410  
   0.312984400    -0.6401344   -0.4233864  
   0.314984300    -0.6864210   -0.3330517  
   0.316984200    -0.7201849   -0.2365473  
   0.318984100    -0.7404237   -0.1340376  
   0.320984000    -0.7455754   -0.0272366  
   0.322983900    -0.7348244    0.0812061  
   0.324983800    -0.7063241    0.1879680  
   0.326983700    -0.6605658    0.2900937  
   0.328983600    -0.5977528    0.3830983  
   0.330983500    -0.5211247    0.4639407  
   0.332983400    -0.4340953    0.5300638  
   0.334983300    -0.3393941    0.5816065  
   0.336983200    -0.2395141    0.6190618  
   0.338983100    -0.1352304    0.6422040  
   0.340983000    -0.0282326    0.6506430  
   0.342982900     0.0801471    0.6434202  
   0.344982800     0.1885743    0.6195464  
   0.346982700     0.2940908    0.5780073  
   0.348982600     0.3923831    0.5182341  
   0.350982500     0.4812230    0.4425891  
   0.352982400     0.5572267    0.3517555  
   0.354982300     0.6185626    0.2442139  
   0.356982200     0.6619244    0.1150712  
   0.358982100     0.6790974   -0.0203612  
   0.360982000     0.6691131   -0.1560066  
   0.362981900     0.6328270   -0.2873070  
   0.364981800     0.5715236   -0.4088785  
   0.366981700     0.4881626   -0.5159498  
   0.368981600     0.3859928   -0.6041499  
   0.370981500     0.2693993   -0.6708827  
   0.372981400     0.1429348   -0.7139602  
   0.374981300     0.0113592   -0.7321053  
   0.376981200     0.1208925   -0.7209965  
   0.378981100    -0.0092336   -0.7340293  
   0.380981000    -0.1385986   -0.7230722  
   0.382980900    -0.2516848   -0.6930026  
   0.384980800    -0.3525614   -0.6481007  
   0.386980700    -0.4446500   -0.5881239  
   0.388980600    -0.5262823   -0.5151710  
   0.390980500    -0.5951604   -0.4314105  
   0.392980400    -0.6498324   -0.3396532  
   0.394980300    -0.6905105   -0.2405775  
   0.396980200    -0.7157299   -0.1374065  
   0.398980100    -0.7256427   -0.0311510  
   0.400980000    -0.7196696    0.0757919  
   0.402979900    -0.6975548    0.1811895  
   0.404979800    -0.6602627    0.2826708  
   0.406979700    -0.6075758    0.3779967  
   0.408979600    -0.5406846    0.4651339  
   0.410979500    -0.4602867    0.5421665  
   0.412979400    -0.3671897    0.6069533  
   0.414979300    -0.2638363    0.6558608  
   0.416979200    -0.1530034    0.6893637  
   0.418979100    -0.0370509    0.7049075  
   0.420979000     0.0810498    0.7016762  
   0.422978900     0.1985746    0.6786664  
   0.424978800     0.3114691    0.6361734  
   0.426978700     0.4169938    0.5747682  
   0.428978600     0.5110668    0.4961287  
   0.430978500     0.5905046    0.4023531  
   0.432978400     0.6530751    0.2965990  
   0.434978300     0.6976866    0.1821362  
   0.436978200     0.7211573    0.0616630  
   0.438978100     0.7239501   -0.0606553  
   0.440978000     0.7059384   -0.1813188  
   0.442977900     0.6685990   -0.2961403  
   0.444977800     0.6128030   -0.4024951  
   0.446977700     0.5406078   -0.4970891  
   0.448977600     0.4551308   -0.5776623  
   0.450977500     0.3583565   -0.6427847  
   0.452977400     0.2532106   -0.6907378  
   0.454977300     0.1421717   -0.7207557  
   0.456977200     0.0286496   -0.7328750  
   0.458977100    -0.0843260   -0.7267554  
   0.460977000    -0.1937155   -0.7031380  
   0.462976900    -0.2969992   -0.6633451  
   0.464976800    -0.3919459   -0.6082892  
   0.466976700    -0.4769492   -0.5399408  
   0.468976600    -0.5498841   -0.4597483  
   0.470976500    -0.6093729   -0.3693215  
   0.472976400    -0.6544425   -0.2715232  
   0.474976300    -0.6841028   -0.1680534  
   0.476976200    -0.6972758   -0.0614523  
   0.478976100    -0.6939415    0.0462123  
   0.480976000    -0.6740374    0.1518595  
   0.482975900    -0.6381246    0.2532676  
   0.484975800    -0.5865600    0.3485217  
   0.486975700    -0.5197170    0.4353253  
   0.488975600    -0.4395745    0.5110952  
   0.490975500    -0.3474417    0.5735748  
   0.492975400    -0.2452446    0.6202949  
   0.494975300    -0.1356748    0.6496258  
   0.496975200    -0.0218982    0.6603576  
   0.498975100     0.0922791    0.6513811  
   0.500975000     0.2035252    0.6225740  
   0.502974900     0.3077388    0.5747975  
   0.504974800     0.4019430    0.5101619  
   0.506974700     0.4830080    0.4301728  
   0.508974600     0.5484818    0.3373148  
   0.510974500     0.5958159    0.2361472  
   0.512974400     0.6252366    0.1305875  
   0.514974300     0.6346890    0.0243005  
   0.516974200     0.6282846   -0.0797513  
   0.518974100     0.6063153   -0.1784662  
   0.520974000     0.5709606   -0.2708552  
   0.522973900     0.5239706   -0.3553716  
   0.524973800     0.4666765   -0.4308526  
   0.526973700     0.4004250   -0.4978376  
   0.528973600     0.3260465   -0.5545014  
   0.530973500     0.2445328   -0.6016445  
   0.532973400     0.1567873   -0.6373665  
   0.534973300     0.0638167   -0.6606320  
   0.536973200    -0.0329687   -0.6705070  
   0.538973100    -0.1311974   -0.6654270  
   0.540973000    -0.2284872   -0.6458258  
   0.542972900    -0.3232848   -0.6109180  
   0.544972800    -0.4122153   -0.5610307  
   0.546972700    -0.4936764   -0.4967071  
   0.548972600    -0.5643950   -0.4192858  
   0.550972500    -0.6226313   -0.3313017  
   0.552972400    -0.6662536   -0.2339282  
   0.554972300    -0.6937649   -0.1301794  
   0.556972200    -0.7042419   -0.0230317  
   0.558972100    -0.6975127    0.0853469  
   0.560972000    -0.6734658    0.1911635  
   0.562971900    -0.6326467    0.2920566  
   0.564971800    -0.5763304    0.3851174  
   0.566971700    -0.5055975    0.4686365  
   0.568971600    -0.4223470    0.5399162  
   0.570971500    -0.3282686    0.5973174  
   0.572971400    -0.2253026    0.6393109  
   0.574971300    -0.1164425    0.6641710  
   0.576971200    -0.0035746    0.6710929  
   0.578971100     0.1097081    0.6593298  
   0.580971000     0.2203657    0.6286761  
   0.582970900     0.3245864    0.5801050  
   0.584970800     0.4197471    0.5145496  
   0.586970700     0.5025982    0.4336256  
   0.588970600     0.5710776    0.3394246  
   0.590970500     0.6224728    0.2352449  
   0.592970400     0.6555964    0.1235207  
   0.594970300     0.6692994    0.0074571  
   0.596970200     0.6629140   -0.1086736  
   0.598970100     0.6372088   -0.2224149  
   0.600970000     0.5924637   -0.3297754  
   0.602969900     0.5306104   -0.4275263  
   0.604969800     0.4533387   -0.5134529  
   0.606969700     0.3630550   -0.5845511  
   0.608969600     0.2629519   -0.6398410  
   0.610969500     0.1556041   -0.6768438  
   0.612969400     0.0445419   -0.6957647  
   0.614969300    -0.0668677   -0.6961028  
   0.616969200    -0.1756289   -0.6788537  
   0.618969100    -0.2788488   -0.6452091  
   0.620969000    -0.3743039   -0.5962676  
   0.622968900    -0.4607925   -0.5332456  
   0.624968800    -0.5360479   -0.4583032  
   0.626968700    -0.5988345   -0.3730987  
   0.628968600    -0.6477293   -0.2794505  
   0.630968500    -0.6815825   -0.1797890  
   0.632968400    -0.7001294   -0.0764583  
   0.634968300    -0.7027748    0.0287088  
   0.636968200    -0.6897653    0.1328258  
   0.638968100    -0.6611621    0.2341083  
   0.640968000    -0.6173728    0.3304822  
   0.642967900    -0.5594418    0.4190877  
   0.644967800    -0.4882971    0.4983758  
   0.646967700    -0.4055938    0.5666550  
   0.648967600    -0.3128909    0.6214820  
   0.650967500    -0.2124253    0.6615034  
   0.652967400    -0.1061652    0.6858122  
   0.654967300     0.0032950    0.6934246  
   0.656967200     0.1133650    0.6838883  
   0.658967100     0.2212580    0.6564529  
   0.660967000     0.3246766    0.6118147  
   0.662966900     0.4207685    0.5501830  
   0.664966800     0.5064294    0.4732063  
   0.666966700     0.5789804    0.3818812  
   0.668966600     0.6356723    0.2792006  
   0.670966500     0.6745852    0.1685078  
   0.672966400     0.6958326    0.0522787  
   0.674966300     0.6961089   -0.0654348  
   0.676966200     0.6763042   -0.1815222  
   0.678966100     0.6378664   -0.2917701  
   0.680966000     0.5817979   -0.3935845  
   0.682965900     0.5102337   -0.4842589  
   0.684965800     0.4254977   -0.5613927  
   0.686965700     0.3298197   -0.6229544  
   0.688965600     0.2263187   -0.6680460  
   0.690965500     0.1177406   -0.6943871  
   0.692965400     0.0080910   -0.7037709  
   0.694965300    -0.1006026   -0.6960628  
   0.696965200    -0.2055785   -0.6714959  
   0.698965100    -0.3048712   -0.6316947  
   0.700965000    -0.3959444   -0.5773436  
   0.702964900    -0.4768541   -0.5103416  
   0.704964800    -0.5462709   -0.4320347  
   0.706964700    -0.6030105   -0.3448877  
   0.708964600    -0.6455315   -0.2500550  
   0.710964500    -0.6739827   -0.1501936  
   0.712964400    -0.6861487   -0.0476483  
   0.714964300    -0.6828646    0.0559872  
   0.716964200    -0.6636651    0.1574167  
   0.718964100    -0.6295566    0.2549362  
   0.720964000    -0.5808158    0.3460397  
   0.722963900    -0.5189651    0.4288321  
   0.724963800    -0.4443962    0.5014777  
   0.726963700    -0.3593335    0.5617755  
   0.728963600    -0.2648508    0.6082174  
   0.730963500    -0.1636316    0.6391973  
   0.732963400    -0.0589483    0.6537019  
   0.734963300     0.0482039    0.6511024  
   0.736963200     0.1691352    0.6269861  
   0.738963100     0.2844406    0.5803370  
   0.740963000     0.3892418    0.5129907  
   0.742962900     0.4795780    0.4276603  
   0.744962800     0.5518867    0.3267241  
   0.746962700     0.6039480    0.2148024  
   0.748962600     0.6343166    0.0956496  
   0.750962500     0.5987982    0.1905994  
   0.752962400     0.6250988    0.0727206  
   0.754962300     0.6296606   -0.0475475  
   0.756962200     0.6123195   -0.1657115  
   0.758962100     0.5743732   -0.2780958  
   0.760962000     0.5169085   -0.3813863  
   0.762961900     0.4462809   -0.4684344  
   0.764961800     0.3697461   -0.5364491  
   0.766961700     0.2836991   -0.5918863  
   0.768961600     0.1902121   -0.6338960  
   0.770961500     0.0914741   -0.6606487  
   0.772961400    -0.0104467   -0.6721895  
   0.774961300    -0.1125674   -0.6679944  
   0.776961200    -0.2136748   -0.6480733  
   0.778961100    -0.3105499   -0.6127155  
   0.780961000    -0.4014129   -0.5622749  
   0.782960900    -0.4832757   -0.4982681  
   0.784960800    -0.5546666   -0.4214131  
   0.786960700    -0.6130786   -0.3343153  
   0.788960600    -0.6570037   -0.2388996  
   0.790960500    -0.6856236   -0.1374418  
   0.792960400    -0.6978304   -0.0330081  
   0.794960300    -0.6937564    0.0722876  
   0.796960200    -0.6730239    0.1753818  
   0.798960100    -0.6365811    0.2740078  
   0.800960000    -0.5855067    0.3655644  
   0.802959900    -0.5204709    0.4482894  
   0.804959800    -0.4433638    0.5195389  
   0.806959700    -0.3563026    0.5787131  
   0.808959600    -0.2606888    0.6229771  
   0.810959500    -0.1593802    0.6522573  
   0.812959400    -0.0539155    0.6653710  
   0.814959300     0.0524690    0.6617059  
   0.816959200     0.1574686    0.6414942  
   0.818959100     0.2582813    0.6046286  
   0.820959000     0.3529474    0.5519371  
   0.822958900     0.4382923    0.4844152  
   0.824958800     0.5117524    0.4035077  
   0.826958700     0.5718073    0.3113507  
   0.828958600     0.6161358    0.2100705  
   0.830958500     0.6432091    0.1026741  
   0.832958400     0.6524631   -0.0080812  
   0.834958300     0.6432409   -0.1188425  
   0.836958200     0.6158255   -0.2264150  
   0.838958100     0.5711277   -0.3284906  
   0.840958000     0.5102374   -0.4214160  
   0.842957900     0.4346645   -0.5035498  
   0.844957800     0.3468794   -0.5714867  
   0.846957700     0.2491845   -0.6243275  
   0.848957600     0.1443713   -0.6599057  
   0.850957500     0.0361542   -0.6778060  
   0.852957400    -0.0734662   -0.6780326  
   0.854957300    -0.1806795   -0.6605942  
   0.856957200    -0.2832892   -0.6262899  
   0.858957100    -0.3782916   -0.5767009  
   0.860957000    -0.4635150   -0.5132260  
   0.862956900    -0.5370093   -0.4383214  
   0.864956800    -0.5976143   -0.3540822  
   0.866956700    -0.6443389   -0.2621443  
   0.868956600    -0.6757445   -0.1650155  
   0.870956500    -0.6930479   -0.0649309  
   0.872956400    -0.6948937    0.0364007  
   0.874956300    -0.6817180    0.1366046  
   0.876956200    -0.6534954    0.2343572  
   0.878956100    -0.6115388    0.3264691  
   0.880956000    -0.5560066    0.4118154  
   0.882955900    -0.4881511    0.4879671  
   0.884955800    -0.4092691    0.5537386  
   0.886955700    -0.3212708    0.6070461  
   0.888955600    -0.2254712    0.6470551  
   0.890955500    -0.1244691    0.6719939  
   0.892955400    -0.0199111    0.6810758  
   0.894955300     0.0852137    0.6743991  
