! MS46122B
! 2250307/22442219
! 7/24/2025 12:44:47 PM
! C:\USERS\SPARKY\DOCUMENTS\VNA_DATA\JULY24_2025\295K\PORT2_MOS5_REPEAT1.S1P
! CHANNEL.1
! TR.MEASUREMENT
! RAW.DATA
# GHZ S RI R 50.0
! FREQ.GHZ         S11RE         S11IM         
!; PortSelection: Port_1
   0.001000000     1.0455310   -0.0721199  
   0.002999900     0.9634941   -0.1944504  
   0.004999800     0.9026419   -0.2991031  
   0.006999700     0.8347521   -0.3962804  
   0.008999600     0.7544790   -0.4906473  
   0.010999500     0.6594594   -0.5794858  
   0.012999400     0.5439882   -0.6596098  
   0.014999300     0.4025975   -0.7239227  
   0.016999200     0.2301216   -0.7585649  
   0.018999100     0.0253576   -0.7427083  
   0.020999000    -0.1977925   -0.6431127  
   0.022998900    -0.3935649   -0.4280233  
   0.024998800    -0.4626005   -0.1075609  
   0.026998700    -0.3777631    0.2455671  
   0.028998600    -0.1145578    0.4870497  
   0.030998500     0.2002835    0.5600530  
   0.032998400     0.4430927    0.4910877  
   0.034998300     0.6605855    0.3683099  
   0.036998200     0.7785340    0.2138399  
   0.038998100     0.8411330    0.0590441  
   0.040998000     0.8637713   -0.0850562  
   0.042997900     0.8572977   -0.2150797  
   0.044997800     0.8066908   -0.3047178  
   0.046997700     0.7879894   -0.4322147  
   0.048997600     0.7347949   -0.5208957  
   0.050997500     0.6733959   -0.5974035  
   0.052997400     0.6055188   -0.6631385  
   0.054997300     0.5329934   -0.7184439  
   0.056997200     0.4549091   -0.7655306  
   0.058997100     0.3740513   -0.8028681  
   0.060997000     0.2899680   -0.8313890  
   0.062996900     0.2029978   -0.8505481  
   0.064996800     0.1139517   -0.8604572  
   0.066996700     0.0228141   -0.8606310  
   0.068996600    -0.0692882   -0.8502759  
   0.070996500    -0.1624469   -0.8296875  
   0.072996400    -0.2545874   -0.7959864  
   0.074996300    -0.3449813   -0.7499142  
   0.076996200    -0.4323425   -0.6902667  
   0.078996100    -0.5137820   -0.6165813  
   0.080996000    -0.5877827   -0.5280137  
   0.082995900    -0.6504654   -0.4246861  
   0.084995800    -0.6980118   -0.3072952  
   0.086995700    -0.7282273   -0.1773654  
   0.088995600    -0.7360108   -0.0375436  
   0.090995500    -0.7173621    0.1082720  
   0.092995400    -0.6700055    0.2551374  
   0.094995300    -0.5898025    0.3949762  
   0.096995200    -0.4786165    0.5191919  
   0.098995100    -0.3389820    0.6194658  
   0.100995000    -0.1759506    0.6878573  
   0.102994900    -0.0018300    0.7175082  
   0.104994800     0.1742529    0.7067481  
   0.106994700     0.3410117    0.6561304  
   0.108994600     0.4896237    0.5722758  
   0.110994500     0.6130141    0.4613135  
   0.112994400     0.7068087    0.3314116  
   0.114994300     0.7695495    0.1910910  
   0.116994200     0.8024865    0.0474876  
   0.118994100     0.8076594   -0.0934926  
   0.120994000     0.7900276   -0.2273093  
   0.122993900     0.7498760   -0.3505824  
   0.124993800     0.6930525   -0.4605494  
   0.126993700     0.6220381   -0.5566867  
   0.128993600     0.5393751   -0.6375941  
   0.130993500     0.4493931   -0.7040467  
   0.132993400     0.3536422   -0.7555608  
   0.134993300     0.2539418   -0.7926587  
   0.136993200     0.1518278   -0.8154679  
   0.138993100     0.0489898   -0.8244214  
   0.140993000    -0.0530790   -0.8197765  
   0.142992900    -0.1528699   -0.8018458  
   0.144992800    -0.2504660   -0.7727623  
   0.146992700    -0.3431066   -0.7294945  
   0.148992600    -0.4301322   -0.6742688  
   0.150992500    -0.5086592   -0.6063108  
   0.152992400    -0.5799978   -0.5283415  
   0.154992300    -0.6407323   -0.4399850  
   0.156992200    -0.6896735   -0.3414975  
   0.158992100    -0.7251116   -0.2352754  
   0.160992000    -0.7452598   -0.1216959  
   0.162991900    -0.7482004   -0.0034505  
   0.164991800    -0.7324574    0.1173587  
   0.166991700    -0.6969594    0.2371597  
   0.168991600    -0.6409345    0.3530941  
   0.170991500    -0.5640894    0.4610556  
   0.172991400    -0.4672999    0.5564225  
   0.174991300    -0.3525246    0.6348608  
   0.176991200    -0.2224203    0.6928384  
   0.178991100    -0.0819221    0.7264697  
   0.180991000     0.0644877    0.7339561  
   0.182990900     0.2108245    0.7124382  
   0.184990800     0.3512359    0.6630652  
   0.186990700     0.4792707    0.5880989  
   0.188990600     0.5746735    0.5067563  
   0.190990500     0.6766573    0.3777666  
   0.192990400     0.7432107    0.2468206  
   0.194990300     0.7827837    0.1116195  
   0.196990200     0.7973250   -0.0253092  
   0.198990100     0.7876969   -0.1594290  
   0.200990000     0.7556406   -0.2866678  
   0.202989900     0.7038563   -0.4042730  
   0.204989800     0.6349958   -0.5088623  
   0.206989700     0.5538297   -0.5997056  
   0.208989600     0.4612307   -0.6736659  
   0.210989500     0.3595819   -0.7317541  
   0.212989400     0.2525285   -0.7732746  
   0.214989300     0.1425161   -0.7978046  
   0.216989200     0.0320361   -0.8060065  
   0.218989100    -0.0772184   -0.7986391  
   0.220989000    -0.1833466   -0.7754844  
   0.222988900    -0.2849164   -0.7375951  
   0.224988800    -0.3804720   -0.6857267  
   0.226988700    -0.4672297   -0.6212214  
   0.228988600    -0.5440009   -0.5448873  
   0.230988500    -0.6093815   -0.4575372  
   0.232988400    -0.6611819   -0.3598983  
   0.234988300    -0.6997856   -0.2545049  
   0.236988200    -0.7223591   -0.1430861  
   0.238988100    -0.7278043   -0.0275716  
   0.240988000    -0.7148917    0.0895518  
   0.242987900    -0.6831921    0.2046619  
   0.244987800    -0.6323475    0.3158171  
   0.246987700    -0.5620499    0.4193858  
   0.248987600    -0.4730883    0.5116774  
   0.250987500    -0.3671114    0.5886289  
   0.252987400    -0.2475108    0.6468502  
   0.254987300    -0.1177504    0.6828974  
   0.256987200     0.0183571    0.6947481  
   0.258987100     0.1559760    0.6825075  
   0.260987000     0.2898043    0.6434385  
   0.262986900     0.4149582    0.5792010  
   0.264986800     0.5255385    0.4928756  
   0.266986700     0.6175865    0.3876131  
   0.268986600     0.6878912    0.2681518  
   0.270986500     0.7340545    0.1400114  
   0.272986400     0.7561255    0.0074489  
   0.274986300     0.7545314   -0.1243098  
   0.276986200     0.7299759   -0.2514310  
   0.278986100     0.6850257   -0.3700761  
   0.280986000     0.6219800   -0.4777530  
   0.282985900     0.5441384   -0.5714438  
   0.284985800     0.4539283   -0.6498406  
   0.286985700     0.3548636   -0.7115831  
   0.288985600     0.2507009   -0.7561365  
   0.290985500     0.1432683   -0.7844148  
   0.292985400     0.0352445   -0.7964857  
   0.294985300    -0.0719585   -0.7928210  
   0.296985200    -0.1770192   -0.7742997  
   0.298985100    -0.2777220   -0.7413439  
   0.300985000    -0.3727894   -0.6949838  
   0.302984900    -0.4597394   -0.6363536  
   0.304984800    -0.5374403   -0.5662582  
   0.306984700    -0.6048404   -0.4861253  
   0.308984600    -0.6601840   -0.3978640  
   0.310984500    -0.7034020   -0.3023653  
   0.312984400    -0.7328746   -0.2007427  
   0.314984300    -0.7474900   -0.0942559  
   0.316984200    -0.7458635    0.0150725  
   0.318984100    -0.7274258    0.1257678  
   0.320984000    -0.6900605    0.2344760  
   0.322983900    -0.6338977    0.3370631  
   0.324983800    -0.5598647    0.4281249  
   0.326983700    -0.4709543    0.5043678  
   0.328983600    -0.3712575    0.5624738  
   0.330983500    -0.2665318    0.6012806  
   0.332983400    -0.1614886    0.6229798  
   0.334983300    -0.0569788    0.6300353  
   0.336983200     0.0465266    0.6241831  
   0.338983100     0.1491255    0.6047668  
   0.340983000     0.2497287    0.5710935  
   0.342982900     0.3465185    0.5216984  
   0.344982800     0.4371598    0.4561358  
   0.346982700     0.5178101    0.3742737  
   0.348982600     0.5836293    0.2773791  
   0.350982500     0.6332301    0.1691429  
   0.352982400     0.6631953    0.0525234  
   0.354982300     0.6714417   -0.0732452  
   0.356982200     0.6526513   -0.2103349  
   0.358982100     0.6065397   -0.3407797  
   0.360982000     0.5357617   -0.4588497  
   0.362981900     0.4429486   -0.5603652  
   0.364981800     0.3322393   -0.6412196  
   0.366981700     0.2085865   -0.6985867  
   0.368981600     0.0769559   -0.7307446  
   0.370981500    -0.0573318   -0.7371515  
   0.372981400    -0.1894699   -0.7180659  
   0.374981300    -0.3149146   -0.6746590  
   0.376981200    -0.2072788   -0.7150915  
   0.378981100    -0.3307052   -0.6689802  
   0.380981000    -0.4426605   -0.6009046  
   0.382980900    -0.5316920   -0.5230750  
   0.384980800    -0.6029075   -0.4369821  
   0.386980700    -0.6603568   -0.3405676  
   0.388980600    -0.7024776   -0.2366000  
   0.390980500    -0.7275918   -0.1281638  
   0.392980400    -0.7361430   -0.0175107  
   0.394980300    -0.7277085    0.0931600  
   0.396980200    -0.7025628    0.2019031  
   0.398980100    -0.6609519    0.3064071  
   0.400980000    -0.6033348    0.4037535  
   0.402979900    -0.5307237    0.4921667  
   0.404979800    -0.4443552    0.5688124  
   0.406979700    -0.3457935    0.6315017  
   0.408979600    -0.2377007    0.6787707  
   0.410979500    -0.1212321    0.7081708  
   0.412979400     0.0002994    0.7182496  
   0.414979300     0.1232501    0.7072048  
   0.416979200     0.2440138    0.6762750  
   0.418979100     0.3585172    0.6249878  
   0.420979000     0.4637642    0.5543300  
   0.422978900     0.5557919    0.4659076  
   0.424978800     0.6314307    0.3620701  
   0.426978700     0.6881500    0.2463364  
   0.428978600     0.7235717    0.1224469  
   0.430978500     0.7365631   -0.0049729  
   0.432978400     0.7274508   -0.1320460  
   0.434978300     0.6977833   -0.2552447  
   0.436978200     0.6468662   -0.3698919  
   0.438978100     0.5776184   -0.4732759  
   0.440978000     0.4925250   -0.5627545  
   0.442977900     0.3948719   -0.6358806  
   0.444977800     0.2877336   -0.6913431  
   0.446977700     0.1745317   -0.7276710  
   0.448977600     0.0579179   -0.7446930  
   0.450977500    -0.0582209   -0.7430662  
   0.452977400    -0.1723045   -0.7229326  
   0.454977300    -0.2810446   -0.6853145  
   0.456977200    -0.3821607   -0.6310453  
   0.458977100    -0.4727572   -0.5618781  
   0.460977000    -0.5511033   -0.4799406  
   0.462976900    -0.6152210   -0.3876217  
   0.464976800    -0.6639301   -0.2863226  
   0.466976700    -0.6966379   -0.1791121  
   0.468976600    -0.7120667   -0.0679384  
   0.470976500    -0.7098261    0.0447778  
   0.472976400    -0.6895924    0.1560252  
   0.474976300    -0.6521302    0.2632723  
   0.476976200    -0.5977086    0.3635903  
   0.478976100    -0.5273024    0.4545196  
   0.480976000    -0.4425457    0.5328659  
   0.482975900    -0.3459383    0.5972652  
   0.484975800    -0.2389644    0.6450779  
   0.486975700    -0.1241999    0.6746085  
   0.488975600    -0.0050085    0.6844597  
   0.490975500     0.1147074    0.6735795  
   0.492975400     0.2319748    0.6417654  
   0.494975300     0.3419666    0.5901533  
   0.496975200     0.4414398    0.5190629  
   0.498975100     0.5263570    0.4323010  
   0.500975000     0.5941314    0.3318746  
   0.502974900     0.6427423    0.2228038  
   0.504974800     0.6709614    0.1073837  
   0.506974700     0.6786287   -0.0093191  
   0.508974600     0.6661113   -0.1247757  
   0.510974500     0.6349966   -0.2335954  
   0.512974400     0.5872923   -0.3340526  
   0.514974300     0.5250409   -0.4217939  
   0.516974200     0.4531040   -0.4983786  
   0.518974100     0.3723848   -0.5616868  
   0.520974000     0.2854146   -0.6116810  
   0.522973900     0.1934086   -0.6490057  
   0.524973800     0.0983470   -0.6729194  
   0.526973700     0.0006750   -0.6844544  
   0.528973600    -0.0979146   -0.6821975  
   0.530973500    -0.1965563   -0.6663597  
   0.532973400    -0.2933743   -0.6357946  
   0.534973300    -0.3858001   -0.5907958  
   0.536973200    -0.4721444   -0.5314165  
   0.538973100    -0.5489945   -0.4582546  
   0.540973000    -0.6142151   -0.3727933  
   0.542972900    -0.6652536   -0.2769971  
   0.544972800    -0.7007167   -0.1728893  
   0.546972700    -0.7189941   -0.0630629  
   0.548972600    -0.7192332    0.0490495  
   0.550972500    -0.7006746    0.1608893  
   0.552972400    -0.6639577    0.2688439  
   0.554972300    -0.6096128    0.3698815  
   0.556972200    -0.5391699    0.4614022  
   0.558972100    -0.4541787    0.5400030  
   0.560972000    -0.3571362    0.6040894  
   0.562971900    -0.2505708    0.6515173  
   0.564971800    -0.1371982    0.6811170  
   0.566971700    -0.0203364    0.6913634  
   0.568971600     0.0971562    0.6825305  
   0.570971500     0.2123677    0.6538021  
   0.572971400     0.3218323    0.6062338  
   0.574971300     0.4226214    0.5402114  
   0.576971200     0.5115355    0.4576412  
   0.578971100     0.5851462    0.3603676  
   0.580971000     0.6413738    0.2515100  
   0.582970900     0.6779461    0.1346082  
   0.584970800     0.6939641    0.0136397  
   0.586970700     0.6889324   -0.1081348  
   0.588970600     0.6634501   -0.2272353  
   0.590970500     0.6178815   -0.3392290  
   0.592970400     0.5542901   -0.4418977  
   0.594970300     0.4746364   -0.5317447  
   0.596970200     0.3819163   -0.6062233  
   0.598970100     0.2784817   -0.6641128  
   0.600970000     0.1678419   -0.7034243  
   0.602969900     0.0530833   -0.7241272  
   0.604969800    -0.0632141   -0.7260150  
   0.606969700    -0.1771444   -0.7092115  
   0.608969600    -0.2862697   -0.6744359  
   0.610969500    -0.3877857   -0.6232781  
   0.612969400    -0.4792232   -0.5570922  
   0.614969300    -0.5581726   -0.4782901  
   0.616969200    -0.6238588   -0.3889767  
   0.618969100    -0.6743963   -0.2916605  
   0.620969000    -0.7096751   -0.1883367  
   0.622968900    -0.7287865   -0.0811804  
   0.624968800    -0.7318775    0.0277771  
   0.626968700    -0.7186490    0.1361604  
   0.628968600    -0.6889361    0.2419513  
   0.630968500    -0.6437930    0.3419707  
   0.632968400    -0.5834689    0.4348680  
   0.634968300    -0.5092470    0.5180501  
   0.636968200    -0.4226749    0.5895670  
   0.638968100    -0.3254907    0.6469585  
   0.640968000    -0.2191946    0.6891985  
   0.642967900    -0.1071515    0.7144096  
   0.644967800     0.0089540    0.7215632  
   0.646967700     0.1253981    0.7104196  
   0.648967600     0.2392476    0.6803186  
   0.650967500     0.3475029    0.6319382  
   0.652967400     0.4468318    0.5662639  
   0.654967300     0.5349284    0.4846247  
   0.656967200     0.6083649    0.3893405  
   0.658967100     0.6653091    0.2826628  
   0.660967000     0.7039447    0.1671090  
   0.662966900     0.7228392    0.0460899  
   0.664966800     0.7207623   -0.0770560  
   0.666966700     0.6984352   -0.1986895  
   0.668966600     0.6555253   -0.3137956  
   0.670966500     0.5942097   -0.4203238  
   0.672966400     0.5170749   -0.5150151  
   0.674966300     0.4256193   -0.5937193  
   0.676966200     0.3229380   -0.6553849  
   0.678966100     0.2128223   -0.6989621  
   0.680966000     0.0984986   -0.7235026  
   0.682965900    -0.0169459   -0.7293696  
   0.684965800    -0.1306898   -0.7167054  
   0.686965700    -0.2399132   -0.6863871  
   0.688965600    -0.3421640   -0.6400177  
   0.690965500    -0.4342469   -0.5780514  
   0.692965400    -0.5156181   -0.5041440  
   0.694965300    -0.5839685   -0.4193130  
   0.696965200    -0.6384115   -0.3258988  
   0.698965100    -0.6780327   -0.2254178  
   0.700965000    -0.7016817   -0.1203357  
   0.702964900    -0.7092783   -0.0131944  
   0.704964800    -0.7005182    0.0944886  
   0.706964700    -0.6752356    0.1994630  
   0.708964600    -0.6339779    0.2998054  
   0.710964500    -0.5776285    0.3933577  
   0.712964400    -0.5066445    0.4773877  
   0.714964300    -0.4227247    0.5494928  
   0.716964200    -0.3282361    0.6074342  
   0.718964100    -0.2253778    0.6498474  
   0.720964000    -0.1165935    0.6752164  
   0.722963900    -0.0045311    0.6825449  
   0.724963800     0.1075279    0.6715106  
   0.726963700     0.2167538    0.6421578  
   0.728963600     0.3200195    0.5949266  
   0.730963500     0.4137082    0.5299999  
   0.732963400     0.4952281    0.4514874  
   0.734963300     0.5631816    0.3601882  
   0.736963200     0.6213440    0.2439941  
   0.738963100     0.6567585    0.1190467  
   0.740963000     0.6677715   -0.0094618  
   0.742962900     0.6546444   -0.1363023  
   0.744962800     0.6184970   -0.2577144  
   0.746962700     0.5611290   -0.3690470  
   0.748962600     0.4851476   -0.4672761  
   0.750962500     0.5385192   -0.3879936  
   0.752962400     0.4611361   -0.4830588  
   0.754962300     0.3686184   -0.5622146  
   0.756962200     0.2639021   -0.6233844  
   0.758962100     0.1509993   -0.6650090  
   0.760962000     0.0322607   -0.6856312  
   0.762961900    -0.0823399   -0.6860505  
   0.764961800    -0.1861781   -0.6698350  
   0.766961700    -0.2866437   -0.6380361  
   0.768961600    -0.3811368   -0.5910538  
   0.770961500    -0.4679219   -0.5300820  
   0.772961400    -0.5440964   -0.4562668  
   0.774961300    -0.6079662   -0.3712471  
   0.776961200    -0.6580678   -0.2769508  
   0.778961100    -0.6927777   -0.1757199  
   0.780961000    -0.7114858   -0.0698303  
   0.782960900    -0.7128638    0.0383362  
   0.784960800    -0.6972538    0.1461519  
   0.786960700    -0.6644674    0.2500986  
   0.788960600    -0.6154863    0.3480964  
   0.790960500    -0.5513654    0.4372642  
   0.792960400    -0.4739373    0.5149327  
   0.794960300    -0.3851349    0.5797836  
   0.796960200    -0.2870451    0.6295011  
   0.798960100    -0.1821276    0.6631849  
   0.800960000    -0.0733962    0.6801274  
   0.802959900     0.0372102    0.6795056  
   0.804959800     0.1464778    0.6611377  
   0.806959700     0.2515952    0.6254443  
   0.808959600     0.3498906    0.5733790  
   0.810959500     0.4391134    0.5059118  
   0.812959400     0.5166608    0.4245740  
   0.814959300     0.5799743    0.3313761  
   0.816959200     0.6277791    0.2287279  
   0.818959100     0.6582554    0.1190618  
   0.820959000     0.6700997    0.0056810  
   0.822958900     0.6633685   -0.1086129  
   0.824958800     0.6376959   -0.2202818  
   0.826958700     0.5940047   -0.3263714  
   0.828958600     0.5330480   -0.4239012  
   0.830958500     0.4571394   -0.5096888  
   0.832958400     0.3681094   -0.5819165  
   0.834958300     0.2688345   -0.6378501  
   0.836958200     0.1623367   -0.6767752  
   0.838958100     0.0510213   -0.6975597  
   0.840958000    -0.0610640   -0.7000657  
   0.842957900    -0.1721760   -0.6845948  
   0.844957800    -0.2784587   -0.6517826  
   0.846957700    -0.3775860   -0.6023716  
   0.848957600    -0.4674188   -0.5383212  
   0.850957500    -0.5452998   -0.4614713  
   0.852957400    -0.6098697   -0.3738087  
   0.854957300    -0.6601024   -0.2776905  
   0.856957200    -0.6944694   -0.1753360  
   0.858957100    -0.7126948   -0.0698933  
   0.860957000    -0.7142491    0.0363465  
   0.862956900    -0.7001721    0.1410273  
   0.864956800    -0.6707301    0.2416627  
   0.866956700    -0.6268369    0.3365142  
   0.868956600    -0.5692796    0.4229923  
   0.870956500    -0.4996924    0.5007070  
   0.872956400    -0.4186994    0.5670817  
   0.874956300    -0.3284187    0.6213082  
   0.876956200    -0.2299269    0.6615265  
   0.878956100    -0.1258848    0.6867236  
   0.880956000    -0.0181358    0.6955771  
   0.882955900     0.0904172    0.6874612  
   0.884955800     0.1973144    0.6626475  
   0.886955700     0.3000035    0.6206560  
   0.888955600     0.3954386    0.5624654  
   0.890955500     0.4808847    0.4888420  
   0.892955400     0.5536228    0.4019316  
   0.894955300     0.6118135    0.3034753  
