! MS46122B
! 2250307/22442219
! 7/21/2025 12:14:21 PM
! C:\USERS\SPARKY\DOCUMENTS\VNA_DATA\JULY21_2025\295K\PORT1_MOS1_REPEAT1.S1P
! CHANNEL.1
! TR.MEASUREMENT
! RAW.DATA
# GHZ S RI R 50.0
! FREQ.GHZ         S11RE         S11IM         
!; PortSelection: Port_1
   0.001000000     1.0455230   -0.0709909  
   0.002999900     0.9636639   -0.1936543  
   0.004999800     0.9028833   -0.2982394  
   0.006999700     0.8351747   -0.3954674  
   0.008999600     0.7553206   -0.4897329  
   0.010999500     0.6609391   -0.5784366  
   0.012999400     0.5466020   -0.6584613  
   0.014999300     0.4072145   -0.7230849  
   0.016999200     0.2377917   -0.7589076  
   0.018999100     0.0371666   -0.7469909  
   0.020999000    -0.1825609   -0.6557515  
   0.022998900    -0.3800479   -0.4550460  
   0.024998800    -0.4627587   -0.1489771  
   0.026998700    -0.4061336    0.1994259  
   0.028998600    -0.1678233    0.4580086  
   0.030998500     0.1385115    0.5582575  
   0.032998400     0.3896224    0.5111234  
   0.034998300     0.6190251    0.4042793  
   0.036998200     0.7510508    0.2561134  
   0.038998100     0.8256972    0.1034020  
   0.040998000     0.8579325   -0.0415402  
   0.042997900     0.8593370   -0.1738210  
   0.044997800     0.8142343   -0.2676284  
   0.046997700     0.8011795   -0.3968198  
   0.048997600     0.7524951   -0.4890043  
   0.050997500     0.6947401   -0.5687653  
   0.052997400     0.6301151   -0.6376358  
   0.054997300     0.5602764   -0.6961099  
   0.056997200     0.4847686   -0.7465090  
   0.058997100     0.4064247   -0.7870513  
   0.060997000     0.3245188   -0.8189747  
   0.062996900     0.2400619   -0.8422971  
   0.064996800     0.1530339   -0.8559883  
   0.066996700     0.0637165   -0.8609013  
   0.068996600    -0.0266947   -0.8555136  
   0.070996500    -0.1180096   -0.8406731  
   0.072996400    -0.2095921   -0.8133380  
   0.074996300    -0.2997671   -0.7743406  
   0.076996200    -0.3873793   -0.7225651  
   0.078996100    -0.4708158   -0.6577669  
   0.080996000    -0.5477879   -0.5786773  
   0.082995900    -0.6160953   -0.4855074  
   0.084995800    -0.6714835   -0.3783312  
   0.086995700    -0.7124524   -0.2585869  
   0.088995600    -0.7341227   -0.1274132  
   0.090995500    -0.7329934    0.0121717  
   0.092995400    -0.7062833    0.1559559  
   0.094995300    -0.6495129    0.2980147  
   0.096995200    -0.5625417    0.4310278  
   0.098995100    -0.4458539    0.5467100  
   0.100995000    -0.3021297    0.6386240  
   0.102994900    -0.1409140    0.6965711  
   0.104994800     0.0302561    0.7173544  
   0.106994700     0.2009625    0.6988735  
   0.108994600     0.3616938    0.6448807  
   0.110994500     0.5038794    0.5588656  
   0.112994400     0.6213409    0.4480253  
   0.114994300     0.7102151    0.3197399  
   0.116994200     0.7694672    0.1819795  
   0.118994100     0.8001896    0.0413945  
   0.120994000     0.8059762   -0.0964621  
   0.122993900     0.7866271   -0.2275265  
   0.124993800     0.7473565   -0.3483042  
   0.126993700     0.6915579   -0.4568782  
   0.128993600     0.6214103   -0.5508275  
   0.130993500     0.5413517   -0.6315823  
   0.132993400     0.4531960   -0.6979971  
   0.134993300     0.3592854   -0.7497290  
   0.136993200     0.2613331   -0.7874997  
   0.138993100     0.1609967   -0.8111845  
   0.140993000     0.0599169   -0.8213818  
   0.142992900    -0.0409322   -0.8183731  
   0.144992800    -0.1396962   -0.8040858  
   0.146992700    -0.2359361   -0.7757145  
   0.148992600    -0.3281606   -0.7349853  
   0.150992500    -0.4137270   -0.6817199  
   0.152992400    -0.4934306   -0.6178521  
   0.154992300    -0.5648655   -0.5436051  
   0.156992200    -0.6269385   -0.4587365  
   0.158992100    -0.6778303   -0.3644458  
   0.160992000    -0.7158918   -0.2619760  
   0.162991900    -0.7396583   -0.1521942  
   0.164991800    -0.7472998   -0.0373827  
   0.166991700    -0.7372513    0.0799286  
   0.168991600    -0.7088446    0.1977467  
   0.170991500    -0.6605766    0.3130298  
   0.172991400    -0.5928281    0.4212638  
   0.174991300    -0.5057499    0.5189950  
   0.176991200    -0.4002354    0.6027041  
   0.178991100    -0.2792880    0.6680904  
   0.180991000    -0.1465101    0.7120702  
   0.182990900    -0.0060133    0.7308973  
   0.184990800     0.1374279    0.7229825  
   0.186990700     0.2776793    0.6886470  
   0.188990600     0.3900653    0.6392716  
   0.190990500     0.5232455    0.5472345  
   0.192990400     0.6244709    0.4422899  
   0.194990300     0.7020846    0.3242804  
   0.196990200     0.7559661    0.1970607  
   0.198990100     0.7859467    0.0649825  
   0.200990000     0.7917848   -0.0679680  
   0.202989900     0.7756451   -0.1975756  
   0.204989800     0.7387747   -0.3194951  
   0.206989700     0.6849343   -0.4308378  
   0.208989600     0.6149434   -0.5291440  
   0.210989500     0.5320495   -0.6136519  
   0.212989400     0.4392433   -0.6835137  
   0.214989300     0.3390617   -0.7369654  
   0.216989200     0.2343084   -0.7746714  
   0.218989100     0.1273486   -0.7963503  
   0.220989000     0.0194813   -0.8027994  
   0.222988900    -0.0871901   -0.7936695  
   0.224988800    -0.1911307   -0.7697603  
   0.226988700    -0.2898868   -0.7320632  
   0.228988600    -0.3820323   -0.6811826  
   0.230988500    -0.4661805   -0.6183124  
   0.232988400    -0.5404414   -0.5426638  
   0.234988300    -0.6046508   -0.4571681  
   0.236988200    -0.6564432   -0.3626669  
   0.238988100    -0.6946797   -0.2603756  
   0.240988000    -0.7177153   -0.1525351  
   0.242987900    -0.7242558   -0.0411979  
   0.244987800    -0.7137322    0.0722289  
   0.246987700    -0.6851509    0.1848266  
   0.248987600    -0.6381134    0.2942950  
   0.250987500    -0.5724257    0.3968505  
   0.252987400    -0.4891167    0.4884672  
   0.254987300    -0.3902629    0.5657125  
   0.256987200    -0.2777752    0.6262475  
   0.258987100    -0.1544321    0.6680102  
   0.260987000    -0.0233539    0.6858554  
   0.262986900     0.1108824    0.6797144  
   0.264986800     0.2425659    0.6490657  
   0.266986700     0.3673486    0.5942603  
   0.268986600     0.4794661    0.5176349  
   0.270986500     0.5749174    0.4222770  
   0.272986400     0.6510140    0.3116040  
   0.274986300     0.7049553    0.1906613  
   0.276986200     0.7361656    0.0632925  
   0.278986100     0.7443731   -0.0658220  
   0.280986000     0.7301774   -0.1923694  
   0.282985900     0.6950884   -0.3121147  
   0.284985800     0.6417885   -0.4220113  
   0.286985700     0.5727455   -0.5197746  
   0.288985600     0.4913038   -0.6026462  
   0.290985500     0.4002904   -0.6703394  
   0.292985400     0.3026807   -0.7220907  
   0.294985300     0.2002249   -0.7585154  
   0.296985200     0.0952643   -0.7792971  
   0.298985100    -0.0105247   -0.7846077  
   0.300985000    -0.1148765   -0.7749725  
   0.302984900    -0.2153831   -0.7513450  
   0.304984800    -0.3109309   -0.7146643  
   0.306984700    -0.3993971   -0.6659904  
   0.308984600    -0.4794989   -0.6064696  
   0.310984500    -0.5506491   -0.5371531  
   0.312984400    -0.6121281   -0.4590929  
   0.314984300    -0.6630039   -0.3731496  
   0.316984200    -0.7022941   -0.2804530  
   0.318984100    -0.7287042   -0.1811815  
   0.320984000    -0.7408788   -0.0770898  
   0.322983900    -0.7379999    0.0298251  
   0.324983800    -0.7182677    0.1368310  
   0.326983700    -0.6813771    0.2401820  
   0.328983600    -0.6273159    0.3367455  
   0.330983500    -0.5584849    0.4227948  
   0.332983400    -0.4779633    0.4956214  
   0.334983300    -0.3884466    0.5547229  
   0.336983200    -0.2917843    0.5998491  
   0.338983100    -0.1904161    0.6309720  
   0.340983000    -0.0847170    0.6476479  
   0.342982900     0.0234338    0.6490716  
   0.344982800     0.1323641    0.6339695  
   0.346982700     0.2399175    0.6013477  
   0.348982600     0.3421324    0.5502476  
   0.350982500     0.4359955    0.4829445  
   0.352982400     0.5184902    0.3996865  
   0.354982300     0.5882760    0.2989267  
   0.356982200     0.6423287    0.1753981  
   0.358982100     0.6712844    0.0434844  
   0.360982000     0.6737500   -0.0917294  
   0.362981900     0.6498332   -0.2246274  
   0.364981800     0.6003341   -0.3503425  
   0.366981700     0.5278405   -0.4636067  
   0.368981600     0.4346830   -0.5604196  
   0.370981500     0.3255644   -0.6371605  
   0.372981400     0.2042374   -0.6912566  
   0.374981300     0.0756530   -0.7213639  
   0.376981200     0.1822679   -0.7011786  
   0.378981100     0.0543725   -0.7257351  
   0.380981000    -0.0744954   -0.7262844  
   0.382980900    -0.1891411   -0.7066033  
   0.384980800    -0.2930625   -0.6713821  
   0.386980700    -0.3893352   -0.6201304  
   0.388980600    -0.4765912   -0.5553347  
   0.390980500    -0.5516134   -0.4790721  
   0.392980400    -0.6139870   -0.3930643  
   0.394980300    -0.6627828   -0.2993506  
   0.396980200    -0.6968549   -0.1997034  
   0.398980100    -0.7158329   -0.0962898  
   0.400980000    -0.7195987    0.0091569  
   0.402979900    -0.7078018    0.1146973  
   0.404979800    -0.6801902    0.2174845  
   0.406979700    -0.6377690    0.3155743  
   0.408979600    -0.5806440    0.4069822  
   0.410979500    -0.5091101    0.4901510  
   0.412979400    -0.4246407    0.5621414  
   0.414979300    -0.3284897    0.6202644  
   0.416979200    -0.2235438    0.6640687  
   0.418979100    -0.1120698    0.6909814  
   0.420979000     0.0032725    0.6999955  
   0.422978900     0.1202991    0.6898159  
   0.424978800     0.2352218    0.6605068  
   0.426978700     0.3447741    0.6120318  
   0.428978600     0.4454153    0.5456257  
   0.430978500     0.5333940    0.4629958  
   0.432978400     0.6065340    0.3666881  
   0.434978300     0.6635238    0.2596423  
   0.436978200     0.7006173    0.1443378  
   0.438978100     0.7175238    0.0247193  
   0.440978000     0.7142130   -0.0958167  
   0.442977900     0.6910226   -0.2134631  
   0.444977800     0.6485479   -0.3247073  
   0.446977700     0.5887198   -0.4262225  
   0.448977600     0.5138001   -0.5159778  
   0.450977500     0.4260752   -0.5915437  
   0.452977400     0.3282043   -0.6514070  
   0.454977300     0.2220246   -0.6942497  
   0.456977200     0.1114270   -0.7195410  
   0.458977100    -0.0005446   -0.7266929  
   0.460977000    -0.1114799   -0.7162365  
   0.462976900    -0.2179061   -0.6888093  
   0.464976800    -0.3179192   -0.6458784  
   0.466976700    -0.4094313   -0.5882415  
   0.468976600    -0.4904276   -0.5180013  
   0.470976500    -0.5596699   -0.4363921  
   0.472976400    -0.6151263   -0.3454224  
   0.474976300    -0.6563395   -0.2475835  
   0.476976200    -0.6820081   -0.1447225  
   0.478976100    -0.6915895   -0.0391955  
   0.480976000    -0.6849371    0.0660747  
   0.482975900    -0.6619594    0.1693351  
   0.484975800    -0.6236764    0.2682629  
   0.486975700    -0.5697725    0.3609642  
   0.488975600    -0.5012996    0.4447609  
   0.490975500    -0.4197613    0.5172498  
   0.492975400    -0.3268184    0.5760437  
   0.494975300    -0.2244005    0.6191196  
   0.496975200    -0.1154533    0.6446145  
   0.498975100    -0.0033547    0.6515713  
   0.500975000     0.1086807    0.6392134  
   0.502974900     0.2169494    0.6074935  
   0.504974800     0.3179243    0.5573888  
   0.506974700     0.4083968    0.4910042  
   0.508974600     0.4855736    0.4096341  
   0.510974500     0.5465139    0.3173875  
   0.512974400     0.5902359    0.2177262  
   0.514974300     0.6148096    0.1147438  
   0.516974200     0.6230788    0.0116753  
   0.518974100     0.6153475   -0.0886320  
   0.520974000     0.5928515   -0.1841558  
   0.522973900     0.5584154   -0.2736948  
   0.524973800     0.5122841   -0.3553928  
   0.526973700     0.4560864   -0.4299764  
   0.528973600     0.3909289   -0.4953949  
   0.530973500     0.3174476   -0.5521046  
   0.532973400     0.2368196   -0.5986298  
   0.534973300     0.1496510   -0.6336071  
   0.536973200     0.0566040   -0.6564984  
   0.538973100    -0.0394924   -0.6654311  
   0.540973000    -0.1366704   -0.6593736  
   0.542972900    -0.2334294   -0.6390262  
   0.544972800    -0.3266995   -0.6031351  
   0.546972700    -0.4148865   -0.5522573  
   0.548972600    -0.4947133   -0.4875730  
   0.550972500    -0.5638793   -0.4103702  
   0.552972400    -0.6202173   -0.3222057  
   0.554972300    -0.6620775   -0.2255673  
   0.556972200    -0.6880733   -0.1228641  
   0.558972100    -0.6970523   -0.0169342  
   0.560972000    -0.6896716    0.0891490  
   0.562971900    -0.6652239    0.1929344  
   0.564971800    -0.6245017    0.2917823  
   0.566971700    -0.5683719    0.3829148  
   0.568971600    -0.4989138    0.4645744  
   0.570971500    -0.4167975    0.5344703  
   0.572971400    -0.3239058    0.5907543  
   0.574971300    -0.2222524    0.6318979  
   0.576971200    -0.1145272    0.6562136  
   0.578971100    -0.0033982    0.6628584  
   0.580971000     0.1080605    0.6511476  
   0.582970900     0.2165717    0.6210809  
   0.584970800     0.3191087    0.5733708  
   0.586970700     0.4125923    0.5090212  
   0.588970600     0.4942370    0.4297355  
   0.590970500     0.5617548    0.3373495  
   0.592970400     0.6126094    0.2351377  
   0.594970300     0.6457528    0.1251011  
   0.596970200     0.6596686    0.0111154  
   0.598970100     0.6537127   -0.1035676  
   0.600970000     0.6291358   -0.2155269  
   0.602969900     0.5856879   -0.3213542  
   0.604969800     0.5251208   -0.4182304  
   0.606969700     0.4493768   -0.5030091  
   0.608969600     0.3607467   -0.5740616  
   0.610969500     0.2626257   -0.6285371  
   0.612969400     0.1570289   -0.6657344  
   0.614969300     0.0480874   -0.6849387  
   0.616969200    -0.0611790   -0.6860905  
   0.618969100    -0.1676632   -0.6701300  
   0.620969000    -0.2690111   -0.6378559  
   0.622968900    -0.3638927   -0.5903471  
   0.624968800    -0.4495307   -0.5292650  
   0.626968700    -0.5246283   -0.4558676  
   0.628968600    -0.5872006   -0.3722464  
   0.630968500    -0.6360478   -0.2803960  
   0.632968400    -0.6704359   -0.1826252  
   0.634968300    -0.6894715   -0.0807170  
   0.636968200    -0.6930214    0.0224234  
   0.638968100    -0.6809425    0.1251321  
   0.640968000    -0.6534059    0.2252940  
   0.642967900    -0.6112219    0.3201129  
   0.644967800    -0.5550430    0.4078800  
   0.646967700    -0.4857865    0.4864652  
   0.648967600    -0.4050512    0.5541523  
   0.650967500    -0.3147563    0.6089154  
   0.652967400    -0.2166432    0.6492655  
   0.654967300    -0.1126191    0.6742142  
   0.656967200    -0.0053272    0.6828929  
   0.658967100     0.1030856    0.6747173  
   0.660967000     0.2095574    0.6490071  
   0.662966900     0.3122966    0.6060743  
   0.664966800     0.4078679    0.5462771  
   0.666966700     0.4931845    0.4711726  
   0.668966600     0.5655555    0.3821666  
   0.670966500     0.6224649    0.2818377  
   0.672966400     0.6632701    0.1736648  
   0.674966300     0.6842484    0.0597331  
   0.676966200     0.6860768   -0.0556290  
   0.678966100     0.6679610   -0.1695058  
   0.680966000     0.6318436   -0.2785972  
   0.682965900     0.5783705   -0.3794465  
   0.684965800     0.5095613   -0.4694076  
   0.686965700     0.4267974   -0.5465625  
   0.688965600     0.3341770   -0.6088142  
   0.690965500     0.2327308   -0.6536610  
   0.692965400     0.1269662   -0.6823922  
   0.694965300     0.0192146   -0.6935374  
   0.696965200    -0.0875189   -0.6878130  
   0.698965100    -0.1914256   -0.6656347  
   0.700965000    -0.2899034   -0.6282166  
   0.702964900    -0.3804474   -0.5764861  
   0.704964800    -0.4613919   -0.5120057  
   0.706964700    -0.5311834   -0.4361912  
   0.708964600    -0.5887311   -0.3510655  
   0.710964500    -0.6330264   -0.2589978  
   0.712964400    -0.6621060   -0.1611034  
   0.714964300    -0.6761462   -0.0604026  
   0.716964200    -0.6749800    0.0409713  
   0.718964100    -0.6583321    0.1409236  
   0.720964000    -0.6269101    0.2372051  
   0.722963900    -0.5814860    0.3274672  
   0.724963800    -0.5226556    0.4102793  
   0.726963700    -0.4511503    0.4832222  
   0.728963600    -0.3690115    0.5446532  
   0.730963500    -0.2774234    0.5923680  
   0.732963400    -0.1790282    0.6254114  
   0.734963300    -0.0759977    0.6422674  
   0.736963200     0.0450631    0.6414031  
   0.738963100     0.1645640    0.6179138  
   0.740963000     0.2781659    0.5725222  
   0.742962900     0.3814060    0.5065542  
   0.744962800     0.4699303    0.4229022  
   0.746962700     0.5417710    0.3242736  
   0.748962600     0.5935689    0.2143416  
   0.750962500     0.5404985    0.3013215  
   0.752962400     0.5883519    0.1916144  
   0.754962300     0.6150493    0.0760590  
   0.756962200     0.6205259   -0.0420724  
   0.758962100     0.6044766   -0.1581629  
   0.760962000     0.5680320   -0.2693546  
   0.762961900     0.5154818   -0.3668877  
   0.764961800     0.4537284   -0.4469698  
   0.766961700     0.3805722   -0.5164950  
   0.768961600     0.2974758   -0.5740443  
   0.770961500     0.2068175   -0.6183242  
   0.772961400     0.1104285   -0.6479642  
   0.774961300     0.0104111   -0.6625591  
   0.776961200    -0.0907242   -0.6616766  
   0.778961100    -0.1911239   -0.6453484  
   0.780961000    -0.2879395   -0.6131654  
   0.782960900    -0.3792272   -0.5662171  
   0.784960800    -0.4622134   -0.5052536  
   0.786960700    -0.5349166   -0.4317750  
   0.788960600    -0.5952497   -0.3474431  
   0.790960500    -0.6413457   -0.2546903  
   0.792960400    -0.6725016   -0.1559886  
   0.794960300    -0.6878797   -0.0535095  
   0.796960200    -0.6870754    0.0499851  
   0.798960100    -0.6701336    0.1519424  
   0.800960000    -0.6376429    0.2497532  
   0.802959900    -0.5903688    0.3416879  
   0.804959800    -0.5294024    0.4248904  
   0.806959700    -0.4563351    0.4979101  
   0.808959600    -0.3726963    0.5588011  
   0.810959500    -0.2803891    0.6056315  
   0.812959400    -0.1816376    0.6382667  
   0.814959300    -0.0787246    0.6550215  
   0.816959200     0.0259929    0.6552995  
   0.818959100     0.1300827    0.6393239  
   0.820959000     0.2306558    0.6069186  
   0.822958900     0.3257136    0.5585070  
   0.824958800     0.4123959    0.4954797  
   0.826958700     0.4878052    0.4186743  
   0.828958600     0.5504279    0.3303442  
   0.830958500     0.5977934    0.2326069  
   0.832958400     0.6287724    0.1279342  
   0.834958300     0.6422499    0.0195991  
   0.836958200     0.6376041   -0.0896407  
   0.838958100     0.6150365   -0.1966090  
   0.840958000     0.5750732   -0.2989623  
   0.842957900     0.5187955   -0.3930889  
   0.844957800     0.4476764   -0.4768970  
   0.846957700     0.3639532   -0.5474218  
   0.848957600     0.2696610   -0.6034719  
   0.850957500     0.1678308   -0.6426767  
   0.852957400     0.0617685   -0.6646514  
   0.854957300    -0.0462050   -0.6690953  
   0.856957200    -0.1524949   -0.6561088  
   0.858957100    -0.2548957   -0.6263026  
   0.860957000    -0.3501387   -0.5814191  
   0.862956900    -0.4364070   -0.5225152  
   0.864956800    -0.5116240   -0.4519394  
   0.866956700    -0.5745255   -0.3714343  
   0.868956600    -0.6237172   -0.2829744  
   0.870956500    -0.6592992   -0.1885881  
   0.872956400    -0.6800020   -0.0904009  
   0.874956300    -0.6860307    0.0093678  
   0.876956200    -0.6771498    0.1092045  
   0.878956100    -0.6530616    0.2065905  
   0.880956000    -0.6151723    0.2991004  
   0.882955900    -0.5637622    0.3852991  
   0.884955800    -0.4998299    0.4629141  
   0.886955700    -0.4247209    0.5307308  
   0.888955600    -0.3402457    0.5865076  
   0.890955500    -0.2476982    0.6292596  
   0.892955400    -0.1494618    0.6580188  
   0.894955300    -0.0472642    0.6710975  
