! MS46122B
! 2250307/22442219
! 7/21/2025 12:09:11 PM
! C:\USERS\SPARKY\DOCUMENTS\VNA_DATA\JULY21_2025\295K\PORT5_MOS5.S1P
! CHANNEL.1
! TR.MEASUREMENT
! RAW.DATA
# GHZ S RI R 50.0
! FREQ.GHZ         S11RE         S11IM         
!; PortSelection: Port_1
   0.001000000     1.0451870   -0.0711121  
   0.002999900     0.9637285   -0.1937285  
   0.004999800     0.9029010   -0.2984374  
   0.006999700     0.8350773   -0.3958352  
   0.008999600     0.7548932   -0.4904154  
   0.010999500     0.6598814   -0.5795555  
   0.012999400     0.5442702   -0.6599989  
   0.014999300     0.4026474   -0.7246416  
   0.016999200     0.2297533   -0.7596800  
   0.018999100     0.0243104   -0.7440137  
   0.020999000    -0.1998697   -0.6442553  
   0.022998900    -0.3965915   -0.4282901  
   0.024998800    -0.4658437   -0.1063951  
   0.026998700    -0.3803059    0.2482300  
   0.028998600    -0.1156814    0.4903256  
   0.030998500     0.2002259    0.5629391  
   0.032998400     0.4435796    0.4933429  
   0.034998300     0.6612695    0.3701796  
   0.036998200     0.7793195    0.2154055  
   0.038998100     0.8419749    0.0603644  
   0.040998000     0.8646781   -0.0838803  
   0.042997900     0.8582067   -0.2140245  
   0.044997800     0.8078208   -0.3039550  
   0.046997700     0.7890559   -0.4317234  
   0.048997600     0.7358677   -0.5205297  
   0.050997500     0.6745398   -0.5972449  
   0.052997400     0.6066154   -0.6631590  
   0.054997300     0.5341581   -0.7186376  
   0.056997200     0.4558100   -0.7659014  
   0.058997100     0.3749380   -0.8034604  
   0.060997000     0.2907059   -0.8320580  
   0.062996900     0.2036066   -0.8514603  
   0.064996800     0.1143215   -0.8615553  
   0.066996700     0.0231147   -0.8618320  
   0.068996600    -0.0692122   -0.8515940  
   0.070996500    -0.1626376   -0.8311123  
   0.072996400    -0.2550294   -0.7974762  
   0.074996300    -0.3456994   -0.7514329  
   0.076996200    -0.4334231   -0.6917754  
   0.078996100    -0.5151177   -0.6180291  
   0.080996000    -0.5894180   -0.5292695  
   0.082995900    -0.6523874   -0.4256773  
   0.084995800    -0.7001589   -0.3080677  
   0.086995700    -0.7306291   -0.1778011  
   0.088995600    -0.7385581   -0.0376572  
   0.090995500    -0.7199633    0.1086207  
   0.092995400    -0.6725100    0.2559652  
   0.094995300    -0.5921185    0.3961473  
   0.096995200    -0.4807733    0.5207952  
   0.098995100    -0.3407938    0.6213655  
   0.100995000    -0.1771540    0.6902260  
   0.102994900    -0.0026172    0.7198703  
   0.104994800     0.1738788    0.7091324  
   0.106994700     0.3411812    0.6583958  
   0.108994600     0.4900011    0.5743009  
   0.110994500     0.6136344    0.4631822  
   0.112994400     0.7076689    0.3329278  
   0.114994300     0.7705687    0.1924016  
   0.116994200     0.8036577    0.0485309  
   0.118994100     0.8088893   -0.0926952  
   0.120994000     0.7912896   -0.2266469  
   0.122993900     0.7511865   -0.3501941  
   0.124993800     0.6944396   -0.4603668  
   0.126993700     0.6232262   -0.5568586  
   0.128993600     0.5405817   -0.6379421  
   0.130993500     0.4506141   -0.7045310  
   0.132993400     0.3546157   -0.7563693  
   0.134993300     0.2547082   -0.7937354  
   0.136993200     0.1525490   -0.8167223  
   0.138993100     0.0494288   -0.8258063  
   0.140993000    -0.0529361   -0.8213437  
   0.142992900    -0.1530036   -0.8034581  
   0.144992800    -0.2508031   -0.7744620  
   0.146992700    -0.3438531   -0.7310680  
   0.148992600    -0.4311240   -0.6758921  
   0.150992500    -0.5099517   -0.6078154  
   0.152992400    -0.5815027   -0.5297424  
   0.154992300    -0.6424870   -0.4412415  
   0.156992200    -0.6917952   -0.3424754  
   0.158992100    -0.7273709   -0.2359917  
   0.160992000    -0.7477202   -0.1220614  
   0.162991900    -0.7507401   -0.0034316  
   0.164991800    -0.7350127    0.1177440  
   0.166991700    -0.6994721    0.2379220  
   0.168991600    -0.6433244    0.3542382  
   0.170991500    -0.5662581    0.4625292  
   0.172991400    -0.4692832    0.5581959  
   0.174991300    -0.3541909    0.6368884  
   0.176991200    -0.2237286    0.6950265  
   0.178991100    -0.0828669    0.7287878  
   0.180991000     0.0639079    0.7362837  
   0.182990900     0.2106600    0.7147061  
   0.184990800     0.3513433    0.6652726  
   0.186990700     0.4796877    0.5901077  
   0.188990600     0.5751739    0.5086164  
   0.190990500     0.6775238    0.3794299  
   0.192990400     0.7441965    0.2483951  
   0.194990300     0.7841157    0.1128476  
   0.196990200     0.7987926   -0.0243997  
   0.198990100     0.7891245   -0.1586863  
   0.200990000     0.7572349   -0.2864998  
   0.202989900     0.7054158   -0.4039057  
   0.204989800     0.6366599   -0.5087260  
   0.206989700     0.5552361   -0.6000484  
   0.208989600     0.4626228   -0.6742551  
   0.210989500     0.3608940   -0.7325468  
   0.212989400     0.2537452   -0.7742956  
   0.214989300     0.1434387   -0.7991570  
   0.216989200     0.0327445   -0.8075538  
   0.218989100    -0.0765847   -0.8003158  
   0.220989000    -0.1832636   -0.7773348  
   0.222988900    -0.2851644   -0.7395099  
   0.224988800    -0.3810301   -0.6876602  
   0.226988700    -0.4681543   -0.6231630  
   0.228988600    -0.5453091   -0.5466763  
   0.230988500    -0.6109672   -0.4592285  
   0.232988400    -0.6630846   -0.3613806  
   0.234988300    -0.7019219   -0.2558579  
   0.236988200    -0.7247866   -0.1440075  
   0.238988100    -0.7304338   -0.0280909  
   0.240988000    -0.7176308    0.0893053  
   0.242987900    -0.6859727    0.2048468  
   0.244987800    -0.6351500    0.3164494  
   0.246987700    -0.5647679    0.4203855  
   0.248987600    -0.4756220    0.5130619  
   0.250987500    -0.3694193    0.5903683  
   0.252987400    -0.2495186    0.6488966  
   0.254987300    -0.1194297    0.6851287  
   0.256987200     0.0170505    0.6971799  
   0.258987100     0.1550719    0.6850078  
   0.260987000     0.2892553    0.6459977  
   0.262986900     0.4147900    0.5817392  
   0.264986800     0.5257361    0.4953648  
   0.266986700     0.6182345    0.3898254  
   0.268986600     0.6888372    0.2701610  
   0.270986500     0.7352442    0.1419300  
   0.272986400     0.7575337    0.0091023  
   0.274986300     0.7561142   -0.1229604  
   0.276986200     0.7317347   -0.2503757  
   0.278986100     0.6868447   -0.3695241  
   0.280986000     0.6238478   -0.4774421  
   0.282985900     0.5459954   -0.5714903  
   0.284985800     0.4557276   -0.6502041  
   0.286985700     0.3564962   -0.7122810  
   0.288985600     0.2522154   -0.7571584  
   0.290985500     0.1445521   -0.7857128  
   0.292985400     0.0363111   -0.7980170  
   0.294985300    -0.0711517   -0.7945529  
   0.296985200    -0.1764998   -0.7761601  
   0.298985100    -0.2774759   -0.7433326  
   0.300985000    -0.3728601   -0.6970921  
   0.302984900    -0.4602641   -0.6384418  
   0.304984800    -0.5382774   -0.5682930  
   0.306984700    -0.6060095   -0.4880164  
   0.308984600    -0.6617088   -0.3996533  
   0.310984500    -0.7052416   -0.3039870  
   0.312984400    -0.7349541   -0.2021343  
   0.314984300    -0.7498698   -0.0953946  
   0.316984200    -0.7484362    0.0142945  
   0.318984100    -0.7301207    0.1253387  
   0.320984000    -0.6929362    0.2343708  
   0.322983900    -0.6367254    0.3373604  
   0.324983800    -0.5626039    0.4289166  
   0.326983700    -0.4735151    0.5055293  
   0.328983600    -0.3735943    0.5639672  
   0.330983500    -0.2685596    0.6030610  
   0.332983400    -0.1631586    0.6249404  
   0.334983300    -0.0583235    0.6320883  
   0.336983200     0.0454093    0.6262652  
   0.338983100     0.1482903    0.6069132  
   0.340983000     0.2491155    0.5732679  
   0.342982900     0.3461009    0.5239331  
   0.344982800     0.4369496    0.4584059  
   0.346982700     0.5179375    0.3765594  
   0.348982600     0.5840825    0.2796442  
   0.350982500     0.6339785    0.1712872  
   0.352982400     0.6642479    0.0545363  
   0.354982300     0.6727635   -0.0714325  
   0.356982200     0.6543307   -0.2087660  
   0.358982100     0.6084515   -0.3395859  
   0.360982000     0.5378804   -0.4580957  
   0.362981900     0.4451984   -0.5600300  
   0.364981800     0.3344801   -0.6413327  
   0.366981700     0.2107410   -0.6992148  
   0.368981600     0.0789753   -0.7318639  
   0.370981500    -0.0556011   -0.7386893  
   0.372981400    -0.1880964   -0.7199146  
   0.374981300    -0.3138383   -0.6768202  
   0.376981200    -0.2061089   -0.7171720  
   0.378981100    -0.3298754   -0.6712639  
   0.380981000    -0.4423336   -0.6033366  
   0.382980900    -0.5318445   -0.5256312  
   0.384980800    -0.6035960   -0.4393755  
   0.386980700    -0.6613948   -0.3429943  
   0.388980600    -0.7039582   -0.2388809  
   0.390980500    -0.7294047   -0.1301988  
   0.392980400    -0.7383131   -0.0193388  
   0.394980300    -0.7301461    0.0917212  
   0.396980200    -0.7053344    0.2007000  
   0.398980100    -0.6639004    0.3055566  
   0.400980000    -0.6063285    0.4035064  
   0.402979900    -0.5337403    0.4923688  
   0.404979800    -0.4473417    0.5694539  
   0.406979700    -0.3486470    0.6327186  
   0.408979600    -0.2404886    0.6801906  
   0.410979500    -0.1238736    0.7100973  
   0.412979400    -0.0020432    0.7203817  
   0.414979300     0.1211587    0.7096477  
   0.416979200     0.2422706    0.6789865  
   0.418979100     0.3571373    0.6279014  
   0.420979000     0.4627430    0.5573797  
   0.422978900     0.5551708    0.4691518  
   0.424978800     0.6312836    0.3653467  
   0.426978700     0.6884224    0.2496169  
   0.428978600     0.7243078    0.1256935  
   0.430978500     0.7377880   -0.0018448  
   0.432978400     0.7291101   -0.1291467  
   0.434978300     0.6999550   -0.2525750  
   0.436978200     0.6493812   -0.3675807  
   0.438978100     0.5804517   -0.4714208  
   0.440978000     0.4956278   -0.5613622  
   0.442977900     0.3981482   -0.6350196  
   0.444977800     0.2911615   -0.6910447  
   0.446977700     0.1777025   -0.7280008  
   0.448977600     0.0612208   -0.7455207  
   0.450977500    -0.0551638   -0.7444755  
   0.452977400    -0.1696383   -0.7248752  
   0.454977300    -0.2787269   -0.6878018  
   0.456977200    -0.3802580   -0.6338288  
   0.458977100    -0.4715042   -0.5649378  
   0.460977000    -0.5503312   -0.4832518  
   0.462976900    -0.6150643   -0.3910807  
   0.464976800    -0.6643953   -0.2897944  
   0.466976700    -0.6976640   -0.1824838  
   0.468976600    -0.7135702   -0.0712121  
   0.470976500    -0.7119935    0.0418865  
   0.472976400    -0.6923251    0.1533484  
   0.474976300    -0.6552419    0.2611040  
   0.476976200    -0.6011837    0.3619377  
   0.478976100    -0.5309475    0.4533840  
   0.480976000    -0.4465932    0.5322811  
   0.482975900    -0.3499915    0.5973362  
   0.484975800    -0.2430695    0.6457069  
   0.486975700    -0.1282501    0.6758723  
   0.488975600    -0.0088632    0.6863338  
   0.490975500     0.1110766    0.6760260  
   0.492975400     0.2286702    0.6446813  
   0.494975300     0.3390790    0.5935723  
   0.496975200     0.4389772    0.5229307  
   0.498975100     0.5244311    0.4365337  
   0.500975000     0.5928317    0.3363801  
   0.502974900     0.6421156    0.2275064  
   0.504974800     0.6709806    0.1122077  
   0.506974700     0.6793822   -0.0046216  
   0.508974600     0.6674789   -0.1199561  
   0.510974500     0.6370766   -0.2292132  
   0.512974400     0.5900542   -0.3300381  
   0.514974300     0.5284287   -0.4182835  
   0.516974200     0.4569145   -0.4953341  
   0.518974100     0.3766390   -0.5592437  
   0.520974000     0.2900111   -0.6099111  
   0.522973900     0.1981866   -0.6479567  
   0.524973800     0.1032735   -0.6726065  
   0.526973700     0.0056923   -0.6849130  
   0.528973600    -0.0930323   -0.6834324  
   0.530973500    -0.1919005   -0.6684363  
   0.532973400    -0.2889913   -0.6386552  
   0.534973300    -0.3819191   -0.5944233  
   0.536973200    -0.4688649   -0.5357133  
   0.538973100    -0.5464608   -0.4631444  
   0.540973000    -0.6125451   -0.3781616  
   0.542972900    -0.6644352   -0.2826524  
   0.544972800    -0.7009051   -0.1787303  
   0.546972700    -0.7201744   -0.0689114  
   0.548972600    -0.7214348    0.0433857  
   0.550972500    -0.7038359    0.1554646  
   0.552972400    -0.6680588    0.2639330  
   0.554972300    -0.6145295    0.3656613  
   0.556972200    -0.5449774    0.4576637  
   0.558972100    -0.4604135    0.5374188  
   0.560972000    -0.3638713    0.6024537  
   0.562971900    -0.2575662    0.6509037  
   0.564971800    -0.1443959    0.6816092  
   0.566971700    -0.0275050    0.6929402  
   0.568971600     0.0902122    0.6852360  
   0.570971500     0.2057469    0.6576012  
   0.572971400     0.3157878    0.6111569  
   0.574971300     0.4171588    0.5460841  
   0.576971200     0.5069805    0.4643573  
   0.578971100     0.5817143    0.3676424  
   0.580971000     0.6391877    0.2594212  
   0.582970900     0.6768010    0.1430814  
   0.584970800     0.6942049    0.0219140  
   0.586970700     0.6905356   -0.0997699  
   0.588970600     0.6663416   -0.2192149  
   0.590970500     0.6220755   -0.3318480  
   0.592970400     0.5596290   -0.4352908  
   0.594970300     0.4809319   -0.5261774  
   0.596970200     0.3890295   -0.6017882  
   0.598970100     0.2862646   -0.6609314  
   0.600970000     0.1760204   -0.7016075  
   0.602969900     0.0612990   -0.7237472  
   0.604969800    -0.0550793   -0.7270145  
   0.606969700    -0.1693160   -0.7115883  
   0.608969600    -0.2789699   -0.6780856  
   0.610969500    -0.3812276   -0.6280898  
   0.612969400    -0.4735987   -0.5629232  
   0.614969300    -0.5536441   -0.4849937  
   0.616969200    -0.6204903   -0.3963212  
   0.618969100    -0.6722270   -0.2994836  
   0.620969000    -0.7088339   -0.1966636  
   0.622968900    -0.7292348   -0.0894193  
   0.624968800    -0.7336234    0.0196177  
   0.626968700    -0.7217068    0.1283268  
   0.628968600    -0.6932302    0.2346035  
   0.630968500    -0.6492378    0.3352141  
   0.632968400    -0.5899522    0.4288870  
   0.634968300    -0.5167136    0.5130994  
   0.636968200    -0.4309312    0.5856075  
   0.638968100    -0.3344722    0.6442136  
   0.640968000    -0.2286964    0.6877742  
   0.642967900    -0.1169303    0.7144000  
   0.644967800    -0.0010926    0.7230492  
   0.646967700     0.1154542    0.7134292  
   0.648967600     0.2299425    0.6848286  
   0.650967500     0.3385950    0.6377606  
   0.652967400     0.4388783    0.5735705  
   0.654967300     0.5280252    0.4933614  
   0.656967200     0.6030121    0.3989563  
   0.658967100     0.6614662    0.2931055  
   0.660967000     0.7017073    0.1782602  
   0.662966900     0.7223660    0.0575219  
   0.664966800     0.7226139   -0.0659065  
   0.666966700     0.7017076   -0.1877082  
   0.668966600     0.6605844   -0.3035437  
   0.670966500     0.6008769   -0.4110661  
   0.672966400     0.5252795   -0.5070455  
   0.674966300     0.4348129   -0.5872955  
   0.676966200     0.3330196   -0.6505828  
   0.678966100     0.2235100   -0.6957815  
   0.680966000     0.1094020   -0.7222552  
   0.682965900    -0.0060619   -0.7299470  
   0.684965800    -0.1200606   -0.7190648  
   0.686965700    -0.2299784   -0.6904277  
   0.688965600    -0.3329762   -0.6456187  
   0.690965500    -0.4261846   -0.5850353  
   0.692965400    -0.5088027   -0.5123370  
   0.694965300    -0.5785468   -0.4285204  
   0.696965200    -0.6343998   -0.3359579  
   0.698965100    -0.6756542   -0.2360345  
   0.700965000    -0.7010736   -0.1312643  
   0.702964900    -0.7103672   -0.0241959  
   0.704964800    -0.7034699    0.0835109  
   0.706964700    -0.6798884    0.1889864  
   0.708964600    -0.6402568    0.2900375  
   0.710964500    -0.5856060    0.3844517  
   0.712964400    -0.5160660    0.4696663  
   0.714964300    -0.4334763    0.5432097  
   0.716964200    -0.3399820    0.6028318  
   0.718964100    -0.2378171    0.6470354  
   0.720964000    -0.1295419    0.6744279  
   0.722963900    -0.0177643    0.6837167  
   0.724963800     0.0945826    0.6747850  
   0.726963700     0.2043438    0.6474901  
   0.728963600     0.3082322    0.6021729  
   0.730963500     0.4034850    0.5391215  
   0.732963400     0.4864012    0.4621198  
   0.734963300     0.5561556    0.3721383  
   0.736963200     0.6164327    0.2570902  
   0.738963100     0.6543655    0.1328489  
   0.740963000     0.6679383    0.0044373  
   0.742962900     0.6573030   -0.1226597  
   0.744962800     0.6236210   -0.2448449  
   0.746962700     0.5684296   -0.3573756  
   0.748962600     0.4945553   -0.4571550  
   0.750962500     0.5461482   -0.3765965  
   0.752962400     0.4705185   -0.4732775  
   0.754962300     0.3795573   -0.5543332  
   0.756962200     0.2760545   -0.6175638  
   0.758962100     0.1639505   -0.6614943  
   0.760962000     0.0456463   -0.6845425  
   0.762961900    -0.0690149   -0.6872861  
   0.764961800    -0.1731676   -0.6731566  
   0.766961700    -0.2741551   -0.6435660  
   0.768961600    -0.3697152   -0.5984353  
   0.770961500    -0.4578029   -0.5392895  
   0.772961400    -0.5353854   -0.4669453  
   0.774961300    -0.6011958   -0.3833620  
   0.776961200    -0.6533595   -0.2900743  
   0.778961100    -0.6902313   -0.1895161  
   0.780961000    -0.7112314   -0.0839351  
   0.782960900    -0.7149245    0.0241564  
   0.784960800    -0.7016529    0.1323752  
   0.786960700    -0.6711504    0.2369969  
   0.788960600    -0.6242772    0.3360826  
   0.790960500    -0.5620256    0.4266979  
   0.792960400    -0.4864091    0.5063227  
   0.794960300    -0.3989457    0.5730031  
   0.796960200    -0.3017863    0.6249740  
   0.798960100    -0.1977364    0.6609786  
   0.800960000    -0.0891511    0.6804068  
   0.802959900     0.0215519    0.6821548  
   0.804959800     0.1311646    0.6661316  
   0.806959700     0.2371306    0.6329039  
   0.808959600     0.3365821    0.5830488  
   0.810959500     0.4274066    0.5176413  
   0.812959400     0.5067263    0.4382925  
   0.814959300     0.5722771    0.3464106  
   0.816959200     0.6224932    0.2448901  
   0.818959100     0.6555465    0.1359833  
   0.820959000     0.6701121    0.0229249  
   0.822958900     0.6661667   -0.0914737  
   0.824958800     0.6432332   -0.2037605  
   0.826958700     0.6021639   -0.3108818  
   0.828958600     0.5436537   -0.4098909  
   0.830958500     0.4698199   -0.4975624  
   0.832958400     0.3825703   -0.5720015  
   0.834958300     0.2847837   -0.6304107  
   0.836958200     0.1792000   -0.6720950  
   0.838958100     0.0685021   -0.6956905  
   0.840958000    -0.0437367   -0.7010648  
   0.842957900    -0.1550742   -0.6884508  
   0.844957800    -0.2623695   -0.6582674  
   0.846957700    -0.3628991   -0.6113681  
   0.848957600    -0.4541170   -0.5497878  
   0.850957500    -0.5342311   -0.4748275  
   0.852957400    -0.6010805   -0.3888653  
   0.854957300    -0.6536877   -0.2939462  
   0.856957200    -0.6907514   -0.1924359  
   0.858957100    -0.7116274   -0.0872211  
   0.860957000    -0.7161235    0.0189511  
   0.862956900    -0.7045857    0.1239965  
   0.864956800    -0.6778966    0.2256201  
   0.866956700    -0.6364448    0.3215798  
   0.868956600    -0.5810152    0.4097250  
   0.870956500    -0.5134093    0.4892459  
   0.872956400    -0.4342883    0.5578742  
   0.874956300    -0.3454347    0.6143491  
   0.876956200    -0.2479139    0.6571239  
   0.878956100    -0.1445002    0.6851177  
   0.880956000    -0.0372060    0.6968898  
   0.882955900     0.0717376    0.6916539  
   0.884955800     0.1791672    0.6698330  
   0.886955700     0.2829333    0.6306499  
   0.888955600     0.3800179    0.5751815  
   0.890955500     0.4673276    0.5039796  
   0.892955400     0.5427606    0.4192670  
   0.894955300     0.6036549    0.3225638  
