! MS46122B
! 2250307/22442219
! 7/23/2025 1:16:16 PM
! C:\USERS\SPARKY\DOCUMENTS\VNA_DATA\JULY23_2025\295K\PORT1_MOS5_REPEAT1.S1P
! CHANNEL.1
! TR.MEASUREMENT
! RAW.DATA
# GHZ S RI R 50.0
! FREQ.GHZ         S11RE         S11IM         
!; PortSelection: Port_1
   0.001000000     1.0459190   -0.0711876  
   0.002999900     0.9643551   -0.1937884  
   0.004999800     0.9032511   -0.2987056  
   0.006999700     0.8353757   -0.3961787  
   0.008999600     0.7549049   -0.4908473  
   0.010999500     0.6596230   -0.5799244  
   0.012999400     0.5437654   -0.6602406  
   0.014999300     0.4018449   -0.7246089  
   0.016999200     0.2287380   -0.7589681  
   0.018999100     0.0234243   -0.7423776  
   0.020999000    -0.1998765   -0.6415256  
   0.022998900    -0.3946521   -0.4250429  
   0.024998800    -0.4616243   -0.1042777  
   0.026998700    -0.3746587    0.2474403  
   0.028998600    -0.1112371    0.4866224  
   0.030998500     0.2021877    0.5579227  
   0.032998400     0.4434053    0.4888375  
   0.034998300     0.6597932    0.3664189  
   0.036998200     0.7772579    0.2126182  
   0.038998100     0.8397378    0.0583684  
   0.040998000     0.8624293   -0.0852735  
   0.042997900     0.8560593   -0.2149646  
   0.044997800     0.8057906   -0.3044657  
   0.046997700     0.7870319   -0.4319809  
   0.048997600     0.7340172   -0.5205919  
   0.050997500     0.6727299   -0.5971245  
   0.052997400     0.6060324   -0.6615301  
   0.054997300     0.5316758   -0.7188294  
   0.056997200     0.4541869   -0.7653339  
   0.058997100     0.3733003   -0.8027365  
   0.060997000     0.2891726   -0.8311797  
   0.062996900     0.2021316   -0.8503661  
   0.064996800     0.1129789   -0.8601953  
   0.066996700     0.0218190   -0.8603029  
   0.068996600    -0.0703241   -0.8497945  
   0.070996500    -0.1635433   -0.8290963  
   0.072996400    -0.2557156   -0.7952003  
   0.074996300    -0.3461040   -0.7489492  
   0.076996200    -0.4334425   -0.6890733  
   0.078996100    -0.5147243   -0.6151668  
   0.080996000    -0.5885137   -0.5263395  
   0.082995900    -0.6509385   -0.4227602  
   0.084995800    -0.6981464   -0.3052332  
   0.086995700    -0.7278949   -0.1751758  
   0.088995600    -0.7351596   -0.0353638  
   0.090995500    -0.7160136    0.1103026  
   0.092995400    -0.6680514    0.2568608  
   0.094995300    -0.5873723    0.3961950  
   0.096995200    -0.4756068    0.5197545  
   0.098995100    -0.3358466    0.6191704  
   0.100995000    -0.1731202    0.6869385  
   0.102994900     0.0007348    0.7156848  
   0.104994800     0.1762623    0.7042065  
   0.106994700     0.3423010    0.6532548  
   0.108994600     0.4901188    0.5692127  
   0.110994500     0.6127780    0.4582591  
   0.112994400     0.7059228    0.3285700  
   0.114994300     0.7681333    0.1886136  
   0.116994200     0.8007188    0.0454228  
   0.118994100     0.8056248   -0.0950989  
   0.120994000     0.7878641   -0.2284308  
   0.122993900     0.7476566   -0.3513123  
   0.124993800     0.6908571   -0.4609201  
   0.126993700     0.6198785   -0.5567672  
   0.128993600     0.5373729   -0.6373422  
   0.130993500     0.4476029   -0.7033498  
   0.132993400     0.3518354   -0.7549590  
   0.134993300     0.2521048   -0.7919740  
   0.136993200     0.1502964   -0.8145844  
   0.138993100     0.0475792   -0.8234101  
   0.140993000    -0.0543224   -0.8185488  
   0.142992900    -0.1542224   -0.8005987  
   0.144992800    -0.2514891   -0.7713394  
   0.146992700    -0.3440003   -0.7279895  
   0.148992600    -0.4309439   -0.6726802  
   0.150992500    -0.5093024   -0.6045579  
   0.152992400    -0.5803621   -0.5265225  
   0.154992300    -0.6409304   -0.4380471  
   0.156992200    -0.6896616   -0.3394538  
   0.158992100    -0.7248065   -0.2331622  
   0.160992000    -0.7445716   -0.1195929  
   0.162991900    -0.7471234   -0.0013871  
   0.164991800    -0.7310196    0.1193101  
   0.166991700    -0.6951251    0.2389185  
   0.168991600    -0.6387039    0.3545654  
   0.170991500    -0.5614589    0.4620708  
   0.172991400    -0.4644890    0.5569586  
   0.174991300    -0.3497974    0.6347875  
   0.176991200    -0.2195911    0.6922625  
   0.178991100    -0.0790638    0.7251437  
   0.180991000     0.0669850    0.7319943  
   0.182990900     0.2128673    0.7099413  
   0.184990800     0.3526101    0.6602279  
   0.186990700     0.4800605    0.5849190  
   0.188990600     0.5748281    0.5037172  
   0.190990500     0.6760445    0.3747755  
   0.192990400     0.7419866    0.2441628  
   0.194990300     0.7811179    0.1093472  
   0.196990200     0.7953438   -0.0272247  
   0.198990100     0.7853942   -0.1606894  
   0.200990000     0.7533885   -0.2878241  
   0.202989900     0.7015665   -0.4046974  
   0.204989800     0.6327810   -0.5087225  
   0.206989700     0.5516620   -0.5993143  
   0.208989600     0.4591145   -0.6730950  
   0.210989500     0.3579040   -0.7307496  
   0.212989400     0.2510798   -0.7721060  
   0.214989300     0.1414227   -0.7965046  
   0.216989200     0.0309125   -0.8045890  
   0.218989100    -0.0778356   -0.7970475  
   0.220989000    -0.1840564   -0.7738758  
   0.222988900    -0.2854613   -0.7359655  
   0.224988800    -0.3808395   -0.6840471  
   0.226988700    -0.4673956   -0.6194987  
   0.228988600    -0.5440440   -0.5430053  
   0.230988500    -0.6091794   -0.4557009  
   0.232988400    -0.6607097   -0.3579864  
   0.234988300    -0.6990419   -0.2525856  
   0.236988200    -0.7214648   -0.1411171  
   0.238988100    -0.7264810   -0.0257167  
   0.240988000    -0.7132301    0.0911342  
   0.242987900    -0.6812081    0.2060840  
   0.244987800    -0.6300799    0.3169198  
   0.246987700    -0.5594947    0.4201156  
   0.248987600    -0.4704136    0.5119044  
   0.250987500    -0.3644103    0.5882875  
   0.252987400    -0.2449017    0.6459937  
   0.254987300    -0.1152541    0.6814765  
   0.256987200     0.0204821    0.6928816  
   0.258987100     0.1576757    0.6802677  
   0.260987000     0.2908705    0.6409011  
   0.262986900     0.4154195    0.5765406  
   0.264986800     0.5254415    0.4902360  
   0.266986700     0.6169774    0.3851236  
   0.268986600     0.6867629    0.2659678  
   0.270986500     0.7325534    0.1382474  
   0.272986400     0.7543318    0.0062283  
   0.274986300     0.7526077   -0.1249035  
   0.276986200     0.7280995   -0.2518313  
   0.278986100     0.6831669   -0.3700660  
   0.280986000     0.6202630   -0.4773397  
   0.282985900     0.5427186   -0.5706989  
   0.284985800     0.4529210   -0.6488833  
   0.286985700     0.3539678   -0.7104797  
   0.288985600     0.2499388   -0.7549691  
   0.290985500     0.1426924   -0.7832131  
   0.292985400     0.0348534   -0.7952637  
   0.294985300    -0.0721630   -0.7916064  
   0.296985200    -0.1770631   -0.7730656  
   0.298985100    -0.2775736   -0.7401764  
   0.300985000    -0.3724533   -0.6939110  
   0.302984900    -0.4594133   -0.6352586  
   0.304984800    -0.5370113   -0.5651906  
   0.306984700    -0.6043035   -0.4850360  
   0.308984600    -0.6595772   -0.3968554  
   0.310984500    -0.7026898   -0.3013925  
   0.312984400    -0.7319707   -0.1997934  
   0.314984300    -0.7464835   -0.0934922  
   0.316984200    -0.7447293    0.0157578  
   0.318984100    -0.7261875    0.1261975  
   0.320984000    -0.6887673    0.2346197  
   0.322983900    -0.6326318    0.3367576  
   0.324983800    -0.5585714    0.4277551  
   0.326983700    -0.4698570    0.5036760  
   0.328983600    -0.3705600    0.5615056  
   0.330983500    -0.2661226    0.6003010  
   0.332983400    -0.1612938    0.6221014  
   0.334983300    -0.0570219    0.6292867  
   0.336983200     0.0462875    0.6235079  
   0.338983100     0.1488522    0.6041834  
   0.340983000     0.2492228    0.5706171  
   0.342982900     0.3461102    0.5211799  
   0.344982800     0.4363534    0.4557878  
   0.346982700     0.5168943    0.3740543  
   0.348982600     0.5826122    0.2773769  
   0.350982500     0.6321172    0.1693526  
   0.352982400     0.6620588    0.0530628  
   0.354982300     0.6703259   -0.0724224  
   0.356982200     0.6517286   -0.2092086  
   0.358982100     0.6058406   -0.3393935  
   0.360982000     0.5353475   -0.4572727  
   0.362981900     0.4427242   -0.5586044  
   0.364981800     0.3324796   -0.6395470  
   0.366981700     0.2091673   -0.6969847  
   0.368981600     0.0778581   -0.7292615  
   0.370981500    -0.0561789   -0.7358820  
   0.372981400    -0.1880619   -0.7170146  
   0.374981300    -0.3132808   -0.6740151  
   0.376981200    -0.2058014   -0.7142222  
   0.378981100    -0.3290457   -0.6684008  
   0.380981000    -0.4410109   -0.6007122  
   0.382980900    -0.5299472   -0.5232643  
   0.384980800    -0.6014337   -0.4372439  
   0.386980700    -0.6588944   -0.3411378  
   0.388980600    -0.7011050   -0.2375161  
   0.390980500    -0.7264031   -0.1293579  
   0.392980400    -0.7352160   -0.0186606  
   0.394980300    -0.7269846    0.0917996  
   0.396980200    -0.7021723    0.2004276  
   0.398980100    -0.6608452    0.3046879  
   0.400980000    -0.6034888    0.4021142  
   0.402979900    -0.5312216    0.4905233  
   0.404979800    -0.4452087    0.5672096  
   0.406979700    -0.3469669    0.6300711  
   0.408979600    -0.2393179    0.6773949  
   0.410979500    -0.1232400    0.7070529  
   0.412979400    -0.0020644    0.7174469  
   0.414979300     0.1206759    0.7067996  
   0.416979200     0.2410525    0.6763713  
   0.418979100     0.3554147    0.6256467  
   0.420979000     0.4605863    0.5556294  
   0.422978900     0.5527452    0.4678578  
   0.424978800     0.6285889    0.3646660  
   0.426978700     0.6856839    0.2495377  
   0.428978600     0.7216315    0.1261503  
   0.430978500     0.7352654   -0.0009006  
   0.432978400     0.7268498   -0.1277242  
   0.434978300     0.6979101   -0.2508287  
   0.436978200     0.6477374   -0.3655592  
   0.438978100     0.5792421   -0.4691009  
   0.440978000     0.4948338   -0.5588343  
   0.442977900     0.3976789   -0.6325215  
   0.444977800     0.2911653   -0.6884754  
   0.446977700     0.1782969   -0.7254066  
   0.448977600     0.0620776   -0.7431008  
   0.450977500    -0.0539324   -0.7422553  
   0.452977400    -0.1677052   -0.7228621  
   0.454977300    -0.2766855   -0.6860487  
   0.456977200    -0.3779708   -0.6324306  
   0.458977100    -0.4688974   -0.5640174  
   0.460977000    -0.5476499   -0.4827017  
   0.462976900    -0.6122800   -0.3909115  
   0.464976800    -0.6616812   -0.2900067  
   0.466976700    -0.6949065   -0.1833786  
   0.468976600    -0.7110025   -0.0725838  
   0.470976500    -0.7096679    0.0400694  
   0.472976400    -0.6903272    0.1511240  
   0.474976300    -0.6535910    0.2584201  
   0.476976200    -0.6000724    0.3590319  
   0.478976100    -0.5304629    0.4503106  
   0.480976000    -0.4465909    0.5291170  
   0.482975900    -0.3505417    0.5941908  
   0.484975800    -0.2440991    0.6427490  
   0.486975700    -0.1299116    0.6730353  
   0.488975600    -0.0111461    0.6838423  
   0.490975500     0.1083948    0.6740170  
   0.492975400     0.2255597    0.6432248  
   0.494975300     0.3357393    0.5927216  
   0.496975200     0.4355604    0.5227144  
   0.498975100     0.5210556    0.4369494  
   0.500975000     0.5896177    0.3376217  
   0.502974900     0.6390400    0.2291925  
   0.504974800     0.6683199    0.1144165  
   0.506974700     0.6771540   -0.0018980  
   0.508974600     0.6658311   -0.1169042  
   0.510974500     0.6360181   -0.2259238  
   0.512974400     0.5895923   -0.3266295  
   0.514974300     0.5284089   -0.4147898  
   0.516974200     0.4576648   -0.4918222  
   0.518974100     0.3778888   -0.5561013  
   0.520974000     0.2918328   -0.6070003  
   0.522973900     0.2003576   -0.6454430  
   0.524973800     0.1057768   -0.6706029  
   0.526973700     0.0084369   -0.6833155  
   0.528973600    -0.0900315   -0.6822739  
   0.530973500    -0.1887968   -0.6676717  
   0.532973400    -0.2858532   -0.6384678  
   0.534973300    -0.3787706   -0.5946386  
   0.536973200    -0.4658821   -0.5363308  
   0.538973100    -0.5434642   -0.4642641  
   0.540973000    -0.6097583   -0.3795801  
   0.542972900    -0.6618714   -0.2845242  
   0.544972800    -0.6985788   -0.1810897  
   0.546972700    -0.7182425   -0.0715118  
   0.548972600    -0.7199148    0.0404613  
   0.550972500    -0.7027680    0.1523371  
   0.552972400    -0.6675198    0.2606598  
   0.554972300    -0.6145340    0.3622695  
   0.556972200    -0.5455635    0.4542591  
   0.558972100    -0.4615448    0.5341798  
   0.560972000    -0.3655116    0.5994387  
   0.562971900    -0.2597170    0.6482181  
   0.564971800    -0.1469187    0.6792926  
   0.566971700    -0.0304091    0.6911055  
   0.568971600     0.0871086    0.6838264  
   0.570971500     0.2023924    0.6569595  
   0.572971400     0.3124104    0.6111121  
   0.574971300     0.4137183    0.5465974  
   0.576971200     0.5037487    0.4655027  
   0.578971100     0.5788983    0.3692862  
   0.580971000     0.6367467    0.2615986  
   0.582970900     0.6748605    0.1455342  
   0.584970800     0.6927617    0.0248080  
   0.586970700     0.6896547   -0.0967677  
   0.588970600     0.6660755   -0.2161407  
   0.590970500     0.6222965   -0.3289343  
   0.592970400     0.5604506   -0.4323387  
   0.594970300     0.4823513   -0.5234091  
   0.596970200     0.3910137   -0.5991958  
   0.598970100     0.2884579   -0.6588783  
   0.600970000     0.1784976   -0.6998067  
   0.602969900     0.0640938   -0.7225644  
   0.604969800    -0.0519444   -0.7262151  
   0.606969700    -0.1661339   -0.7113715  
   0.608969600    -0.2758791   -0.6783409  
   0.610969500    -0.3781801   -0.6288424  
   0.612969400    -0.4707045   -0.5641178  
   0.614969300    -0.5509894   -0.4866413  
   0.616969200    -0.6180756   -0.3982520  
   0.618969100    -0.6701465   -0.3016474  
   0.620969000    -0.7069938   -0.1989609  
   0.622968900    -0.7277359   -0.0920517  
   0.624968800    -0.7324959    0.0167909  
   0.626968700    -0.7209705    0.1253042  
   0.628968600    -0.6929139    0.2313766  
   0.630968500    -0.6494330    0.3320335  
   0.632968400    -0.5905857    0.4259480  
   0.634968300    -0.5176835    0.5101864  
   0.636968200    -0.4322821    0.5830308  
   0.638968100    -0.3363953    0.6417813  
   0.640968000    -0.2308770    0.6856927  
   0.642967900    -0.1191761    0.7128385  
   0.644967800    -0.0037866    0.7219031  
   0.646967700     0.1129510    0.7126617  
   0.648967600     0.2271394    0.6846144  
   0.650967500     0.3359007    0.6380214  
   0.652967400     0.4362857    0.5743552  
   0.654967300     0.5257317    0.4945129  
   0.656967200     0.6009834    0.4005558  
   0.658967100     0.6598441    0.2950979  
   0.660967000     0.7005838    0.1804112  
   0.662966900     0.7216646    0.0600165  
   0.664966800     0.7220832   -0.0631101  
   0.666966700     0.7021751   -0.1849361  
   0.668966600     0.6614830   -0.3010058  
   0.670966500     0.6021600   -0.4087292  
   0.672966400     0.5269737   -0.5050014  
   0.674966300     0.4370253   -0.5855078  
   0.676966200     0.3355405   -0.6491885  
   0.678966100     0.2262653   -0.6948459  
   0.680966000     0.1122584   -0.7217464  
   0.682965900    -0.0031718   -0.7298831  
   0.684965800    -0.1173583   -0.7193586  
   0.686965700    -0.2270741   -0.6912411  
   0.688965600    -0.3304003   -0.6466954  
   0.690965500    -0.4237159   -0.5865231  
   0.692965400    -0.5064989   -0.5141053  
   0.694965300    -0.5766205   -0.4305124  
   0.696965200    -0.6327909   -0.3381193  
   0.698965100    -0.6742924   -0.2384113  
   0.700965000    -0.6999469   -0.1336273  
   0.702964900    -0.7096425   -0.0267108  
   0.704964800    -0.7030402    0.0810479  
   0.706964700    -0.6797794    0.1864247  
   0.708964600    -0.6405096    0.2873568  
   0.710964500    -0.5861323    0.3820980  
   0.712964400    -0.5168170    0.4674455  
   0.714964300    -0.4345501    0.5411356  
   0.716964200    -0.3412793    0.6009685  
   0.718964100    -0.2391734    0.6455035  
   0.720964000    -0.1311880    0.6731551  
   0.722963900    -0.0193294    0.6827312  
   0.724963800     0.0928064    0.6741173  
   0.726963700     0.2025580    0.6471819  
   0.728963600     0.3065067    0.6021814  
   0.730963500     0.4017657    0.5395682  
   0.732963400     0.4848270    0.4629466  
   0.734963300     0.5547021    0.3733434  
   0.736963200     0.6154823    0.2586078  
   0.738963100     0.6538746    0.1346025  
   0.740963000     0.6679515    0.0063696  
   0.742962900     0.6579054   -0.1208049  
   0.744962800     0.6246244   -0.2431020  
   0.746962700     0.5698763   -0.3559429  
   0.748962600     0.4963339   -0.4560103  
   0.750962500     0.5478659   -0.3750820  
   0.752962400     0.4724673   -0.4722444  
   0.754962300     0.3817033   -0.5536719  
   0.756962200     0.2783113   -0.6173235  
   0.758962100     0.1660878   -0.6616586  
   0.760962000     0.0477685   -0.6851277  
   0.762961900    -0.0670562   -0.6881487  
   0.764961800    -0.1714071   -0.6742697  
   0.766961700    -0.2725506   -0.6447744  
   0.768961600    -0.3682704   -0.5998104  
   0.770961500    -0.4565533   -0.5407470  
   0.772961400    -0.5343961   -0.4684434  
   0.774961300    -0.6002699   -0.3848853  
   0.776961200    -0.6526012   -0.2916163  
   0.778961100    -0.6895881   -0.1910522  
   0.780961000    -0.7107040   -0.0855366  
   0.782960900    -0.7145846    0.0226506  
   0.784960800    -0.7013855    0.1308187  
   0.786960700    -0.6709961    0.2354928  
   0.788960600    -0.6242333    0.3346479  
   0.790960500    -0.5622067    0.4252542  
   0.792960400    -0.4866468    0.5049254  
   0.794960300    -0.3993073    0.5717902  
   0.796960200    -0.3022619    0.6237912  
   0.798960100    -0.1982607    0.6598789  
   0.800960000    -0.0898652    0.6795136  
   0.802959900     0.0208621    0.6814435  
   0.804959800     0.1304094    0.6655819  
   0.806959700     0.2364797    0.6325495  
   0.808959600     0.3360325    0.5828266  
   0.810959500     0.4269635    0.5175647  
   0.812959400     0.5063310    0.4382782  
   0.814959300     0.5720786    0.3464849  
   0.816959200     0.6224319    0.2450077  
   0.818959100     0.6556111    0.1360541  
   0.820959000     0.6703075    0.0229192  
   0.822958900     0.6663880   -0.0915459  
   0.824958800     0.6434395   -0.2039232  
   0.826958700     0.6024705   -0.3110674  
   0.828958600     0.5439429   -0.4101512  
   0.830958500     0.4701205   -0.4979868  
   0.832958400     0.3828690   -0.5723357  
   0.834958300     0.2849467   -0.6309320  
   0.836958200     0.1791307   -0.6726460  
   0.838958100     0.0683250   -0.6962310  
   0.840958000    -0.0439771   -0.7015674  
   0.842957900    -0.1556101   -0.6887680  
   0.844957800    -0.2629654   -0.6583959  
   0.846957700    -0.3634421   -0.6113645  
   0.848957600    -0.4547448   -0.5495960  
   0.850957500    -0.5347736   -0.4743389  
   0.852957400    -0.6015207   -0.3882147  
   0.854957300    -0.6539447   -0.2931723  
   0.856957200    -0.6907862   -0.1916619  
   0.858957100    -0.7115124   -0.0862561  
   0.860957000    -0.7157554    0.0200685  
   0.862956900    -0.7040520    0.1252096  
   0.864956800    -0.6769394    0.2268299  
   0.866956700    -0.6352813    0.3227812  
   0.868956600    -0.5795510    0.4108273  
   0.870956500    -0.5116558    0.4902128  
   0.872956400    -0.4322906    0.5587033  
   0.874956300    -0.3431633    0.6149573  
   0.876956200    -0.2457059    0.6573431  
   0.878956100    -0.1420553    0.6851110  
   0.880956000    -0.0346172    0.6965279  
   0.882955900     0.0742755    0.6910365  
   0.884955800     0.1818967    0.6686946  
   0.886955700     0.2853463    0.6292765  
   0.888955600     0.3822781    0.5734032  
   0.890955500     0.4694959    0.5018793  
   0.892955400     0.5445472    0.4167746  
   0.894955300     0.6051068    0.3197916  
