! MS46122B
! 2250307/22442219
! 7/28/2025 7:59:59 AM
! C:\USERS\SPARKY\DOCUMENTS\VNA_DATA\JULY28_2025\295K\PORT2_MOS3.S1P
! CHANNEL.1
! TR.MEASUREMENT
! RAW.DATA
# GHZ S RI R 50.0
! FREQ.GHZ         S11RE         S11IM         
!; PortSelection: Port_1
   0.001000000     1.0464420   -0.0720642  
   0.002999900     0.9645085   -0.1944326  
   0.004999800     0.9037593   -0.2991895  
   0.006999700     0.8360258   -0.3963929  
   0.008999600     0.7559999   -0.4908875  
   0.010999500     0.6613966   -0.5798154  
   0.012999400     0.5466904   -0.6600987  
   0.014999300     0.4064710   -0.7248617  
   0.016999200     0.2357548   -0.7606459  
   0.018999100     0.0332447   -0.7477692  
   0.020999000    -0.1883890   -0.6540292  
   0.022998900    -0.3864842   -0.4481903  
   0.024998800    -0.4655867   -0.1361601  
   0.026998700    -0.3996396    0.2157865  
   0.028998600    -0.1516639    0.4701172  
   0.030998500     0.1591616    0.5614080  
   0.032998400     0.4088751    0.5063007  
   0.034998300     0.6347258    0.3934147  
   0.036998200     0.7622346    0.2423500  
   0.038998100     0.8327243    0.0884985  
   0.040998000     0.8615604   -0.0565576  
   0.042997900     0.8602480   -0.1886579  
   0.044997800     0.8130853   -0.2810259  
   0.046997700     0.7981430   -0.4099542  
   0.048997600     0.7477416   -0.5011625  
   0.050997500     0.6886490   -0.5799573  
   0.052997400     0.6228073   -0.6477894  
   0.054997300     0.5517149   -0.7055605  
   0.056997200     0.4754142   -0.7548794  
   0.058997100     0.3960496   -0.7945054  
   0.060997000     0.3132611   -0.8254073  
   0.062996900     0.2277528   -0.8474655  
   0.064996800     0.1398056   -0.8600027  
   0.066996700     0.0496436   -0.8634462  
   0.068996600    -0.0416172   -0.8564503  
   0.070996500    -0.1338777   -0.8397554  
   0.072996400    -0.2260173   -0.8102724  
   0.074996300    -0.3166380   -0.7688880  
   0.076996200    -0.4046993   -0.7143803  
   0.078996100    -0.4878291   -0.6464189  
   0.080996000    -0.5643498   -0.5639176  
   0.082995900    -0.6311173   -0.4669710  
   0.084995800    -0.6843889   -0.3558704  
   0.086995700    -0.7221726   -0.2322153  
   0.088995600    -0.7393692   -0.0974537  
   0.090995500    -0.7325959    0.0451986  
   0.092995400    -0.6988291    0.1909901  
   0.094995300    -0.6338872    0.3333738  
   0.096995200    -0.5381918    0.4645513  
   0.098995100    -0.4126180    0.5759590  
   0.100995000    -0.2616760    0.6606294  
   0.102994900    -0.0946643    0.7093080  
   0.104994800     0.0796050    0.7193120  
   0.106994700     0.2506060    0.6896805  
   0.108994600     0.4083006    0.6245415  
   0.110994500     0.5450405    0.5292152  
   0.112994400     0.6548381    0.4106855  
   0.114994300     0.7351393    0.2771812  
   0.116994200     0.7854223    0.1363079  
   0.118994100     0.8070764   -0.0053347  
   0.120994000     0.8045198   -0.1424075  
   0.122993900     0.7778827   -0.2715839  
   0.124993800     0.7320678   -0.3888855  
   0.126993700     0.6705348   -0.4937730  
   0.128993600     0.5958609   -0.5835947  
   0.130993500     0.5119982   -0.6596587  
   0.132993400     0.4206337   -0.7211965  
   0.134993300     0.3245118   -0.7682189  
   0.136993200     0.2248178   -0.8009323  
   0.138993100     0.1229623   -0.8198465  
   0.140993000     0.0212952   -0.8251029  
   0.142992900    -0.0799596   -0.8172467  
   0.144992800    -0.1788442   -0.7978599  
   0.146992700    -0.2744754   -0.7641918  
   0.148992600    -0.3653575   -0.7187369  
   0.150992500    -0.4488391   -0.6602617  
   0.152992400    -0.5265825   -0.5913824  
   0.154992300    -0.5950729   -0.5118428  
   0.156992200    -0.6531078   -0.4219904  
   0.158992100    -0.6994053   -0.3231643  
   0.160992000    -0.7319278   -0.2160572  
   0.162991900    -0.7492000   -0.1028861  
   0.164991800    -0.7495056    0.0148059  
   0.166991700    -0.7310053    0.1345301  
   0.168991600    -0.6931819    0.2525926  
   0.170991500    -0.6350790    0.3668704  
   0.172991400    -0.5568684    0.4721771  
   0.174991300    -0.4597706    0.5648221  
   0.176991200    -0.3448446    0.6408876  
   0.178991100    -0.2156095    0.6965882  
   0.180991000    -0.0765252    0.7288583  
   0.182990900     0.0677600    0.7342973  
   0.184990800     0.2123161    0.7123420  
   0.186990700     0.3504303    0.6633996  
   0.188990600     0.4586394    0.6023805  
   0.190990500     0.5826881    0.4961249  
   0.192990400     0.6735116    0.3806531  
   0.194990300     0.7386886    0.2549765  
   0.196990200     0.7793260    0.1226417  
   0.198990100     0.7955874   -0.0119398  
   0.200990000     0.7884655   -0.1448145  
   0.202989900     0.7593824   -0.2714194  
   0.204989800     0.7108261   -0.3887466  
   0.206989700     0.6466597   -0.4940846  
   0.208989600     0.5676184   -0.5851907  
   0.210989500     0.4778933   -0.6611547  
   0.212989400     0.3786924   -0.7217600  
   0.214989300     0.2741591   -0.7660103  
   0.216989200     0.1665802   -0.7937888  
   0.218989100     0.0577011   -0.8056157  
   0.220989000    -0.0509391   -0.8022601  
   0.222988900    -0.1568477   -0.7831447  
   0.224988800    -0.2590072   -0.7496562  
   0.226988700    -0.3549136   -0.7026024  
   0.228988600    -0.4430522   -0.6426384  
   0.230988500    -0.5221081   -0.5707486  
   0.232988400    -0.5895684   -0.4870730  
   0.234988300    -0.6462382   -0.3939135  
   0.236988200    -0.6894559   -0.2924015  
   0.238988100    -0.7173231   -0.1842542  
   0.240988000    -0.7290084   -0.0716901  
   0.242987900    -0.7231541    0.0431089  
   0.244987800    -0.6992995    0.1574475  
   0.246987700    -0.6566657    0.2695490  
   0.248987600    -0.5949844    0.3754705  
   0.250987500    -0.5147282    0.4716125  
   0.252987400    -0.4174640    0.5543527  
   0.254987300    -0.3060297    0.6200328  
   0.256987200    -0.1829370    0.6656923  
   0.258987100    -0.0515115    0.6902389  
   0.260987000     0.0840627    0.6893775  
   0.262986900     0.2186476    0.6632711  
   0.264986800     0.3469428    0.6125089  
   0.266986700     0.4636364    0.5385090  
   0.268986600     0.5643057    0.4446860  
   0.270986500     0.6447893    0.3353055  
   0.272986400     0.7037550    0.2138169  
   0.274986300     0.7392170    0.0857652  
   0.276986200     0.7512105   -0.0447697  
   0.278986100     0.7406231   -0.1734839  
   0.280986000     0.7080325   -0.2958182  
   0.282985900     0.6568750   -0.4090505  
   0.284985800     0.5890921   -0.5102355  
   0.286985700     0.5077242   -0.5969000  
   0.288985600     0.4164481   -0.6676973  
   0.290985500     0.3180678   -0.7225032  
   0.292985400     0.2146764   -0.7613108  
   0.294985300     0.1089025   -0.7841862  
   0.296985200     0.0021902   -0.7914879  
   0.298985100    -0.1036471   -0.7836483  
   0.300985000    -0.2064578   -0.7611878  
   0.302984900    -0.3042783   -0.7252060  
   0.304984800    -0.3952424   -0.6766970  
   0.306984700    -0.4781536   -0.6165482  
   0.308984600    -0.5514947   -0.5465559  
   0.310984500    -0.6146760   -0.4675010  
   0.312984400    -0.6670076   -0.3799201  
   0.314984300    -0.7073032   -0.2854907  
   0.316984200    -0.7344154   -0.1852796  
   0.318984100    -0.7470489   -0.0800176  
   0.320984000    -0.7440005    0.0285321  
   0.322983900    -0.7238911    0.1379422  
   0.324983800    -0.6857877    0.2436298  
   0.326983700    -0.6300148    0.3421648  
   0.328983600    -0.5581345    0.4296288  
   0.330983500    -0.4736029    0.5031024  
   0.332983400    -0.3806218    0.5606505  
   0.334983300    -0.2816570    0.6029356  
   0.336983200    -0.1794025    0.6308955  
   0.338983100    -0.0739710    0.6447088  
   0.340983000     0.0330862    0.6439114  
   0.342982900     0.1406518    0.6273165  
   0.344982800     0.2462458    0.5940167  
   0.346982700     0.3479330    0.5430093  
   0.348982600     0.4408379    0.4743390  
   0.350982500     0.5226460    0.3906598  
   0.352982400     0.5898859    0.2927579  
   0.354982300     0.6407077    0.1794615  
   0.356982200     0.6714156    0.0465342  
   0.358982100     0.6751032   -0.0902409  
   0.360982000     0.6518123   -0.2247283  
   0.362981900     0.6024544   -0.3517978  
   0.364981800     0.5295076   -0.4666972  
   0.366981700     0.4354543   -0.5647348  
   0.368981600     0.3250688   -0.6424851  
   0.370981500     0.2022412   -0.6970267  
   0.372981400     0.0724652   -0.7271830  
   0.374981300    -0.0600439   -0.7322310  
   0.376981200     0.0509917   -0.7322580  
   0.378981100    -0.0798265   -0.7324471  
   0.380981000    -0.2078496   -0.7088177  
   0.382980900    -0.3178077   -0.6683117  
   0.384980800    -0.4140854   -0.6131751  
   0.386980700    -0.5001990   -0.5445649  
   0.388980600    -0.5746912   -0.4638131  
   0.390980500    -0.6353428   -0.3734012  
   0.392980400    -0.6818532   -0.2755080  
   0.394980300    -0.7124724   -0.1723079  
   0.396980200    -0.7277460   -0.0659506  
   0.398980100    -0.7267992    0.0420168  
   0.400980000    -0.7100061    0.1490302  
   0.402979900    -0.6767401    0.2532907  
   0.404979800    -0.6285715    0.3516449  
   0.406979700    -0.5653425    0.4424496  
   0.408979600    -0.4881855    0.5232947  
   0.410979500    -0.3980632    0.5920820  
   0.412979400    -0.2969574    0.6474441  
   0.414979300    -0.1867460    0.6849415  
   0.416979200    -0.0705744    0.7058008  
   0.418979100     0.0483052    0.7078752  
   0.420979000     0.1670477    0.6898893  
   0.422978900     0.2826271    0.6523196  
   0.424978800     0.3913529    0.5954139  
   0.426978700     0.4895438    0.5202396  
   0.428978600     0.5737928    0.4290484  
   0.430978500     0.6411718    0.3249139  
   0.432978400     0.6900541    0.2109005  
   0.434978300     0.7197089    0.0905410  
   0.436978200     0.7272152   -0.0328310  
   0.438978100     0.7138235   -0.1548728  
   0.440978000     0.6803316   -0.2724950  
   0.442977900     0.6277907   -0.3817804  
   0.444977800     0.5581952   -0.4800960  
   0.446977700     0.4744600   -0.5644156  
   0.448977600     0.3789089   -0.6332405  
   0.450977500     0.2747608   -0.6851743  
   0.452977400     0.1641473   -0.7189159  
   0.454977300     0.0502304   -0.7346880  
   0.456977200    -0.0639211   -0.7320695  
   0.458977100    -0.1750609   -0.7116088  
   0.460977000    -0.2812506   -0.6741465  
   0.462976900    -0.3784401   -0.6214861  
   0.464976800    -0.4662646   -0.5546157  
   0.466976700    -0.5422884   -0.4752329  
   0.468976600    -0.6045458   -0.3857861  
   0.470976500    -0.6526501   -0.2878369  
   0.472976400    -0.6850877   -0.1839462  
   0.474976300    -0.7011169   -0.0759959  
   0.476976200    -0.7000107    0.0331509  
   0.478976100    -0.6817821    0.1406367  
   0.480976000    -0.6475712    0.2442203  
   0.482975900    -0.5970894    0.3417582  
   0.484975800    -0.5314125    0.4304455  
   0.486975700    -0.4514124    0.5084829  
   0.488975600    -0.3595341    0.5730699  
   0.490975500    -0.2570631    0.6223160  
   0.492975400    -0.1467161    0.6538140  
   0.494975300    -0.0318742    0.6665694  
   0.496975200     0.0843123    0.6591783  
   0.498975100     0.1977223    0.6318939  
   0.500975000     0.3043136    0.5852002  
   0.502974900     0.4011371    0.5207748  
   0.504974800     0.4846517    0.4406657  
   0.506974700     0.5523224    0.3477292  
   0.508974600     0.6021316    0.2447961  
   0.510974500     0.6331331    0.1368425  
   0.512974400     0.6451505    0.0272301  
   0.514974300     0.6375476   -0.0796662  
   0.516974200     0.6147950   -0.1813713  
   0.518974100     0.5777179   -0.2760983  
   0.520974000     0.5285695   -0.3621271  
   0.522973900     0.4689667   -0.4385863  
   0.524973800     0.4004902   -0.5049906  
   0.526973700     0.3242559   -0.5611640  
   0.528973600     0.2417067   -0.6069180  
   0.530973500     0.1531204   -0.6413751  
   0.532973400     0.0598975   -0.6635429  
   0.534973300    -0.0367249   -0.6725273  
   0.536973200    -0.1352900   -0.6670896  
   0.538973100    -0.2331937   -0.6469958  
   0.540973000    -0.3276065   -0.6116197  
   0.542972900    -0.4171264   -0.5615814  
   0.544972800    -0.4984587   -0.4971543  
   0.546972700    -0.5694868   -0.4192976  
   0.548972600    -0.6282899   -0.3302415  
   0.550972500    -0.6721029   -0.2319877  
   0.552972400    -0.6995250   -0.1271063  
   0.554972300    -0.7098202   -0.0186216  
   0.556972200    -0.7024533    0.0911390  
   0.558972100    -0.6773570    0.1985824  
   0.560972000    -0.6350878    0.3008377  
   0.562971900    -0.5768813    0.3949052  
   0.564971800    -0.5039458    0.4790588  
   0.566971700    -0.4183731    0.5504656  
   0.568971600    -0.3220181    0.6073956  
   0.570971500    -0.2172298    0.6484395  
   0.572971400    -0.1064449    0.6718369  
   0.574971300     0.0077014    0.6770983  
   0.576971200     0.1222678    0.6631778  
   0.578971100     0.2340580    0.6301597  
   0.580971000     0.3388457    0.5786756  
   0.582970900     0.4341900    0.5102140  
   0.584970800     0.5167941    0.4261249  
   0.586970700     0.5841517    0.3292143  
   0.588970600     0.6337416    0.2225612  
   0.590970500     0.6647583    0.1083552  
   0.592970400     0.6758070   -0.0092293  
   0.594970300     0.6666803   -0.1268233  
   0.596970200     0.6377323   -0.2412451  
   0.598970100     0.5899315   -0.3484193  
   0.600970000     0.5249932   -0.4457010  
   0.602969900     0.4450439   -0.5303622  
   0.604969800     0.3521174   -0.5999946  
   0.606969700     0.2501678   -0.6529029  
   0.608969600     0.1408439   -0.6880751  
   0.610969500     0.0282493   -0.7046905  
   0.612969400    -0.0846204   -0.7024925  
   0.614969300    -0.1945770   -0.6827168  
   0.616969200    -0.2986101   -0.6458188  
   0.618969100    -0.3943803   -0.5937181  
   0.620969000    -0.4800446   -0.5279953  
   0.622968900    -0.5542366   -0.4503925  
   0.624968800    -0.6152644   -0.3628129  
   0.626968700    -0.6627515   -0.2671548  
   0.628968600    -0.6946023   -0.1654482  
   0.630968500    -0.7109342   -0.0603096  
   0.632968400    -0.7114511    0.0459614  
   0.634968300    -0.6956887    0.1515357  
   0.636968200    -0.6640409    0.2535855  
   0.638968100    -0.6172810    0.3500724  
   0.640968000    -0.5562469    0.4388930  
   0.642967900    -0.4819203    0.5177333  
   0.644967800    -0.3959563    0.5850797  
   0.646967700    -0.2998309    0.6384709  
   0.648967600    -0.1960803    0.6764489  
   0.650967500    -0.0872486    0.6980676  
   0.652967400     0.0243883    0.7024751  
   0.654967300     0.1365588    0.6891875  
   0.656967200     0.2452011    0.6578000  
   0.658967100     0.3490057    0.6091021  
   0.660967000     0.4442361    0.5434215  
   0.662966900     0.5283304    0.4626019  
   0.664966800     0.5986033    0.3677652  
   0.666966700     0.6527053    0.2614323  
   0.668966600     0.6884691    0.1475770  
   0.670966500     0.7044615    0.0286156  
   0.672966400     0.7015784   -0.0910288  
   0.674966300     0.6771477   -0.2080780  
   0.676966200     0.6339897   -0.3189110  
   0.678966100     0.5732697   -0.4198216  
   0.680966000     0.4970509   -0.5089548  
   0.682965900     0.4079339   -0.5838344  
   0.684965800     0.3091685   -0.6421564  
   0.686965700     0.2025100   -0.6836444  
   0.688965600     0.0916320   -0.7068256  
   0.690965500    -0.0199790   -0.7110497  
   0.692965400    -0.1296582   -0.6990292  
   0.694965300    -0.2348774   -0.6700775  
   0.696965200    -0.3335508   -0.6256403  
   0.698965100    -0.4234055   -0.5670707  
   0.700965000    -0.5026733   -0.4959157  
   0.702964900    -0.5696987   -0.4139355  
   0.704964800    -0.6235652   -0.3234689  
   0.706964700    -0.6628249   -0.2260759  
   0.708964600    -0.6869000   -0.1234777  
   0.710964500    -0.6957222   -0.0188500  
   0.712964400    -0.6880614    0.0860400  
   0.714964300    -0.6642341    0.1886757  
   0.716964200    -0.6250857    0.2865603  
   0.718964100    -0.5712652    0.3771344  
   0.720964000    -0.5042070    0.4588029  
   0.722963900    -0.4249367    0.5291575  
   0.724963800    -0.3352206    0.5865224  
   0.726963700    -0.2367495    0.6291252  
   0.728963600    -0.1321338    0.6559845  
   0.730963500    -0.0244878    0.6649025  
   0.732963400     0.0840410    0.6567152  
   0.734963300     0.1903023    0.6305870  
   0.736963200     0.3056411    0.5800342  
   0.738963100     0.4101311    0.5081470  
   0.740963000     0.4992326    0.4184079  
   0.742962900     0.5697165    0.3132596  
   0.744962800     0.6188469    0.1976915  
   0.746962700     0.6453009    0.0758572  
   0.748962600     0.6488186   -0.0483872  
   0.750962500     0.6353009    0.0507883  
   0.752962400     0.6352012   -0.0712610  
   0.754962300     0.6130354   -0.1903841  
   0.756962200     0.5701479   -0.3028353  
   0.758962100     0.5080786   -0.4050381  
   0.760962000     0.4291517   -0.4943182  
   0.762961900     0.3406659   -0.5645275  
   0.764961800     0.2503698   -0.6150715  
   0.766961700     0.1536873   -0.6515156  
   0.768961600     0.0523570   -0.6724288  
   0.770961500    -0.0511880   -0.6777835  
   0.772961400    -0.1539904   -0.6673133  
   0.774961300    -0.2545495   -0.6410928  
   0.776961200    -0.3500915   -0.5997998  
   0.778961100    -0.4384706   -0.5435792  
   0.780961000    -0.5174139   -0.4741192  
   0.782960900    -0.5845178   -0.3928234  
   0.784960800    -0.6382653   -0.3015308  
   0.786960700    -0.6770676   -0.2024059  
   0.788960600    -0.7000657   -0.0980018  
   0.790960500    -0.7060304    0.0087107  
   0.792960400    -0.6955577    0.1149229  
   0.794960300    -0.6680915    0.2185856  
   0.796960200    -0.6248533    0.3164771  
   0.798960100    -0.5670337    0.4061772  
   0.800960000    -0.4955610    0.4856619  
   0.802959900    -0.4123518    0.5533928  
   0.804959800    -0.3197842    0.6072929  
   0.806959700    -0.2197079    0.6459350  
   0.808959600    -0.1145931    0.6687575  
   0.810959500    -0.0069579    0.6747848  
   0.812959400     0.1009731    0.6632587  
   0.814959300     0.2061833    0.6351347  
   0.816959200     0.3061752    0.5901855  
   0.818959100     0.3979098    0.5298513  
   0.820959000     0.4792388    0.4550328  
   0.822958900     0.5476003    0.3674976  
   0.824958800     0.6014646    0.2695659  
   0.826958700     0.6386787    0.1636153  
   0.828958600     0.6577085    0.0525927  
   0.830958500     0.6584455   -0.0602282  
   0.832958400     0.6403542   -0.1718097  
   0.834958300     0.6044576   -0.2786807  
   0.836958200     0.5510658   -0.3780079  
   0.838958100     0.4822966   -0.4671647  
   0.840958000     0.3996242   -0.5439343  
   0.842957900     0.3056994   -0.6055989  
   0.844957800     0.2032176   -0.6510745  
   0.846957700     0.0950131   -0.6788648  
   0.848957600    -0.0154425   -0.6886356  
   0.850957500    -0.1258303   -0.6806286  
   0.852957400    -0.2327557   -0.6549696  
   0.854957300    -0.3336206   -0.6126269  
   0.856957200    -0.4259213   -0.5554009  
   0.858957100    -0.5072728   -0.4849148  
   0.860957000    -0.5759919   -0.4034417  
   0.862956900    -0.6312422   -0.3133126  
   0.864956800    -0.6714092   -0.2167062  
   0.866956700    -0.6965513   -0.1160546  
   0.868956600    -0.7055747   -0.0131971  
   0.870956500    -0.6997195    0.0892977  
   0.872956400    -0.6788402    0.1896398  
   0.874956300    -0.6429006    0.2856606  
   0.876956200    -0.5934352    0.3759969  
   0.878956100    -0.5307598    0.4581383  
   0.880956000    -0.4558685    0.5302808  
   0.882955900    -0.3706377    0.5906963  
   0.884955800    -0.2768053    0.6379843  
   0.886955700    -0.1765460    0.6708030  
   0.888955600    -0.0716825    0.6880721  
   0.890955500     0.0353825    0.6886520  
   0.892955400     0.1418283    0.6730227  
   0.894955300     0.2455009    0.6403662  
