! MS46122B
! 2250307/22442219
! 7/28/2025 8:03:11 AM
! C:\USERS\SPARKY\DOCUMENTS\VNA_DATA\JULY28_2025\295K\PORT6_MOS1.S1P
! CHANNEL.1
! TR.MEASUREMENT
! RAW.DATA
# GHZ S RI R 50.0
! FREQ.GHZ         S11RE         S11IM         
!; PortSelection: Port_1
   0.001000000     1.0467520   -0.0719542  
   0.002999900     0.9646551   -0.1944651  
   0.004999800     0.9038230   -0.2991049  
   0.006999700     0.8359967   -0.3962812  
   0.008999600     0.7561828   -0.4905701  
   0.010999500     0.6618419   -0.5793105  
   0.012999400     0.5475164   -0.6593748  
   0.014999300     0.4080212   -0.7240267  
   0.016999200     0.2385888   -0.7601323  
   0.018999100     0.0378623   -0.7481312  
   0.020999000    -0.1818188   -0.6571954  
   0.022998900    -0.3795244   -0.4565960  
   0.024998800    -0.4625205   -0.1504127  
   0.026998700    -0.4061925    0.1980550  
   0.028998600    -0.1679903    0.4568741  
   0.030998500     0.1384206    0.5573289  
   0.032998400     0.3897145    0.5102776  
   0.034998300     0.6191407    0.4034855  
   0.036998200     0.7512490    0.2553049  
   0.038998100     0.8258908    0.1025823  
   0.040998000     0.8581588   -0.0424052  
   0.042997900     0.8596559   -0.1746215  
   0.044997800     0.8144045   -0.2685210  
   0.046997700     0.8015935   -0.3977209  
   0.048997600     0.7527911   -0.4900668  
   0.050997500     0.6950279   -0.5698665  
   0.052997400     0.6306399   -0.6384602  
   0.054997300     0.5600531   -0.6976646  
   0.056997200     0.4849436   -0.7478051  
   0.058997100     0.4064631   -0.7885188  
   0.060997000     0.3245502   -0.8204220  
   0.062996900     0.2399542   -0.8437836  
   0.064996800     0.1528453   -0.8575219  
   0.066996700     0.0633766   -0.8624960  
   0.068996600    -0.0271613   -0.8571766  
   0.070996500    -0.1185258   -0.8423020  
   0.072996400    -0.2104092   -0.8149472  
   0.074996300    -0.3007442   -0.7758837  
   0.076996200    -0.3885987   -0.7240181  
   0.078996100    -0.4722511   -0.6590428  
   0.080996000    -0.5494081   -0.5798096  
   0.082995900    -0.6178699   -0.4864116  
   0.084995800    -0.6733677   -0.3790287  
   0.086995700    -0.7144496   -0.2588095  
   0.088995600    -0.7361252   -0.1272234  
   0.090995500    -0.7348899    0.0128284  
   0.092995400    -0.7078783    0.1570142  
   0.094995300    -0.6507418    0.2994304  
   0.096995200    -0.5633756    0.4326939  
   0.098995100    -0.4460258    0.5484408  
   0.100995000    -0.3020142    0.6402358  
   0.102994900    -0.1402654    0.6979831  
   0.104994800     0.0313317    0.7184612  
   0.106994700     0.2023729    0.6995962  
   0.108994600     0.3632111    0.6451120  
   0.110994500     0.5053955    0.5586668  
   0.112994400     0.6227258    0.4474050  
   0.114994300     0.7114385    0.3188500  
   0.116994200     0.7705052    0.1807963  
   0.118994100     0.8009484    0.0401930  
   0.120994000     0.8065489   -0.0978736  
   0.122993900     0.7870153   -0.2289720  
   0.124993800     0.7475637   -0.3498490  
   0.126993700     0.6916162   -0.4583063  
   0.128993600     0.6213536   -0.5526268  
   0.130993500     0.5412602   -0.6332151  
   0.132993400     0.4531027   -0.6993773  
   0.134993300     0.3590664   -0.7511836  
   0.136993200     0.2609255   -0.7890289  
   0.138993100     0.1604261   -0.8127810  
   0.140993000     0.0591765   -0.8230318  
   0.142992900    -0.0418846   -0.8201126  
   0.144992800    -0.1409101   -0.8056349  
   0.146992700    -0.2372089   -0.7771899  
   0.148992600    -0.3296146   -0.7364644  
   0.150992500    -0.4153976   -0.6830742  
   0.152992400    -0.4952808   -0.6190431  
   0.154992300    -0.5669965   -0.5446447  
   0.156992200    -0.6291733   -0.4593506  
   0.158992100    -0.6802235   -0.3648139  
   0.160992000    -0.7183561   -0.2620098  
   0.162991900    -0.7421502   -0.1518508  
   0.164991800    -0.7497124   -0.0364700  
   0.166991700    -0.7396189    0.0811436  
   0.168991600    -0.7108951    0.1993396  
   0.170991500    -0.6622379    0.3150915  
   0.172991400    -0.5940017    0.4236450  
   0.174991300    -0.5062697    0.5215756  
   0.176991200    -0.4004226    0.6053330  
   0.178991100    -0.2787667    0.6706962  
   0.180991000    -0.1453689    0.7144595  
   0.182990900    -0.0043255    0.7329124  
   0.184990800     0.1395144    0.7245075  
   0.186990700     0.2801157    0.6895949  
   0.188990600     0.3925958    0.6397077  
   0.190990500     0.5258216    0.5469311  
   0.192990400     0.6269004    0.4415831  
   0.194990300     0.7043172    0.3230721  
   0.196990200     0.7578514    0.1955211  
   0.198990100     0.7876339    0.0629615  
   0.200990000     0.7930153   -0.0700863  
   0.202989900     0.7764935   -0.1998455  
   0.204989800     0.7392488   -0.3217341  
   0.206989700     0.6851868   -0.4332730  
   0.208989600     0.6148540   -0.5314921  
   0.210989500     0.5317107   -0.6159486  
   0.212989400     0.4385836   -0.6858466  
   0.214989300     0.3380958   -0.7392561  
   0.216989200     0.2331187   -0.7768912  
   0.218989100     0.1257937   -0.7984788  
   0.220989000     0.0178272   -0.8047950  
   0.222988900    -0.0890983   -0.7955187  
   0.224988800    -0.1933922   -0.7715359  
   0.226988700    -0.2923571   -0.7335129  
   0.228988600    -0.3845605   -0.6824179  
   0.230988500    -0.4691039   -0.6191300  
   0.232988400    -0.5434682   -0.5431483  
   0.234988300    -0.6078360   -0.4572020  
   0.236988200    -0.6597076   -0.3622500  
   0.238988100    -0.6979588   -0.2593775  
   0.240988000    -0.7208523   -0.1511201  
   0.242987900    -0.7271960   -0.0390846  
   0.244987800    -0.7163535    0.0747293  
   0.246987700    -0.6873590    0.1877830  
   0.248987600    -0.6397718    0.2976190  
   0.250987500    -0.5734739    0.4004773  
   0.252987400    -0.4894108    0.4922603  
   0.254987300    -0.3899539    0.5695202  
   0.256987200    -0.2765683    0.6298698  
   0.258987100    -0.1526056    0.6712359  
   0.260987000    -0.0206760    0.6886574  
   0.262986900     0.1137485    0.6820006  
   0.264986800     0.2460012    0.6506152  
   0.266986700     0.3709313    0.5950444  
   0.268986600     0.4831203    0.5176335  
   0.270986500     0.5784006    0.4215405  
   0.272986400     0.6542671    0.3101806  
   0.274986300     0.7078313    0.1888182  
   0.276986200     0.7385755    0.0611329  
   0.278986100     0.7463289   -0.0683783  
   0.280986000     0.7316179   -0.1949420  
   0.282985900     0.6961660   -0.3151742  
   0.284985800     0.6421695   -0.4252887  
   0.286985700     0.5728649   -0.5228010  
   0.288985600     0.4911988   -0.6058133  
   0.290985500     0.3995977   -0.6733989  
   0.292985400     0.3016021   -0.7250439  
   0.294985300     0.1988139   -0.7613028  
   0.296985200     0.0934607   -0.7820125  
   0.298985100    -0.0126442   -0.7870629  
   0.300985000    -0.1175292   -0.7772304  
   0.302984900    -0.2182067   -0.7533453  
   0.304984800    -0.3141026   -0.7163306  
   0.306984700    -0.4028737   -0.6672482  
   0.308984600    -0.4832417   -0.6072454  
   0.310984500    -0.5546518   -0.5375758  
   0.312984400    -0.6162160   -0.4588489  
   0.314984300    -0.6671944   -0.3723958  
   0.316984200    -0.7064055   -0.2789898  
   0.318984100    -0.7326469   -0.1790799  
   0.320984000    -0.7446281   -0.0742863  
   0.322983900    -0.7412770    0.0331829  
   0.324983800    -0.7209345    0.1407256  
   0.326983700    -0.6833247    0.2445239  
   0.328983600    -0.6285020    0.3412986  
   0.330983500    -0.5587307    0.4275597  
   0.332983400    -0.4773150    0.5001982  
   0.334983300    -0.3869091    0.5591838  
   0.336983200    -0.2898861    0.6037003  
   0.338983100    -0.1878218    0.6344368  
   0.340983000    -0.0816509    0.6504910  
   0.342982900     0.0267826    0.6514165  
   0.344982800     0.1359099    0.6357124  
   0.346982700     0.2436466    0.6024574  
   0.348982600     0.3459342    0.5506973  
   0.350982500     0.4398672    0.4827687  
   0.352982400     0.5221508    0.3987908  
   0.354982300     0.5917022    0.2973700  
   0.356982200     0.6453869    0.1731899  
   0.358982100     0.6738237    0.0406735  
   0.360982000     0.6756818   -0.0950002  
   0.362981900     0.6510761   -0.2282467  
   0.364981800     0.6008790   -0.3541813  
   0.366981700     0.5276792   -0.4674928  
   0.368981600     0.4337782   -0.5642802  
   0.370981500     0.3239149   -0.6408193  
   0.372981400     0.2019909   -0.6946362  
   0.374981300     0.0729880   -0.7243603  
   0.376981200     0.1799494   -0.7046103  
   0.378981100     0.0514058   -0.7288275  
   0.380981000    -0.0779933   -0.7289556  
   0.382980900    -0.1928131   -0.7086736  
   0.384980800    -0.2973357   -0.6730208  
   0.386980700    -0.3938756   -0.6211721  
   0.388980600    -0.4812321   -0.5557469  
   0.390980500    -0.5564466   -0.4789026  
   0.392980400    -0.6190181   -0.3919832  
   0.394980300    -0.6676602   -0.2976809  
   0.396980200    -0.7015446   -0.1973688  
   0.398980100    -0.7203187   -0.0931292  
   0.400980000    -0.7235746    0.0129933  
   0.402979900    -0.7112280    0.1190645  
   0.404979800    -0.6829465    0.2223995  
   0.406979700    -0.6398125    0.3209354  
   0.408979600    -0.5818979    0.4126053  
   0.410979500    -0.5095021    0.4958854  
   0.412979400    -0.4240147    0.5679508  
   0.414979300    -0.3268678    0.6258882  
   0.416979200    -0.2211667    0.6692791  
   0.418979100    -0.1088790    0.6956968  
   0.420979000     0.0072123    0.7040702  
   0.422978900     0.1248854    0.6930956  
   0.424978800     0.2402279    0.6629367  
   0.426978700     0.3501253    0.6135297  
   0.428978600     0.4508195    0.5461638  
   0.430978500     0.5389048    0.4623776  
   0.432978400     0.6116896    0.3651448  
   0.434978300     0.6683061    0.2571639  
   0.436978200     0.7047861    0.1410755  
   0.438978100     0.7210948    0.0206238  
   0.440978000     0.7169208   -0.1002789  
   0.442977900     0.6929266   -0.2182270  
   0.444977800     0.6495967   -0.3297779  
   0.446977700     0.5888884   -0.4313782  
   0.448977600     0.5130860   -0.5210136  
   0.450977500     0.4246814   -0.5965561  
   0.452977400     0.3262186   -0.6559889  
   0.454977300     0.2192564   -0.6985834  
   0.456977200     0.1079951   -0.7234346  
   0.458977100    -0.0045898   -0.7300767  
   0.460977000    -0.1159053   -0.7190616  
   0.462976900    -0.2227565   -0.6911132  
   0.464976800    -0.3230096   -0.6474749  
   0.466976700    -0.4148053   -0.5890825  
   0.468976600    -0.4959480   -0.5180863  
   0.470976500    -0.5651076   -0.4357492  
   0.472976400    -0.6206523   -0.3439467  
   0.474976300    -0.6617577   -0.2453400  
   0.476976200    -0.6871246   -0.1417184  
   0.478976100    -0.6961662   -0.0353430  
   0.480976000    -0.6888680    0.0705809  
   0.482975900    -0.6652176    0.1744263  
   0.484975800    -0.6260910    0.2740248  
   0.486975700    -0.5713913    0.3669785  
   0.488975600    -0.5018655    0.4509324  
   0.490975500    -0.4193033    0.5234857  
   0.492975400    -0.3253597    0.5820520  
   0.494975300    -0.2219017    0.6249607  
   0.496975200    -0.1117837    0.6497371  
   0.498975100     0.0010852    0.6560441  
   0.500975000     0.1139384    0.6426257  
   0.502974900     0.2225866    0.6100227  
   0.504974800     0.3239092    0.5587733  
   0.506974700     0.4145248    0.4911808  
   0.508974600     0.4914995    0.4088430  
   0.510974500     0.5520975    0.3154043  
   0.512974400     0.5952870    0.2147808  
   0.514974300     0.6191222    0.1110555  
   0.516974200     0.6266447    0.0072251  
   0.518974100     0.6180617   -0.0935713  
   0.520974000     0.5946722   -0.1894035  
   0.522973900     0.5593605   -0.2791076  
   0.524973800     0.5124112   -0.3608485  
   0.526973700     0.4554298   -0.4353284  
   0.528973600     0.3895683   -0.5006886  
   0.530973500     0.3153372   -0.5570612  
   0.532973400     0.2341077   -0.6032788  
   0.534973300     0.1463264   -0.6378940  
   0.536973200     0.0527662   -0.6603944  
   0.538973100    -0.0436533   -0.6687058  
   0.540973000    -0.1415918   -0.6622759  
   0.542972900    -0.2387566   -0.6413090  
   0.544972800    -0.3324287   -0.6047853  
   0.546972700    -0.4208604   -0.5531422  
   0.548972600    -0.5008345   -0.4877714  
   0.550972500    -0.5701092   -0.4095814  
   0.552972400    -0.6262959   -0.3205043  
   0.554972300    -0.6679518   -0.2229750  
   0.556972200    -0.6935670   -0.1194381  
   0.558972100    -0.7020613   -0.0125984  
   0.560972000    -0.6940035    0.0942385  
   0.562971900    -0.6687444    0.1987430  
   0.564971800    -0.6270719    0.2980419  
   0.566971700    -0.5699718    0.3898057  
   0.568971600    -0.4993171    0.4714651  
   0.570971500    -0.4160588    0.5413395  
   0.572971400    -0.3220289    0.5974228  
   0.574971300    -0.2192433    0.6382183  
   0.576971200    -0.1105572    0.6619075  
   0.578971100     0.0016490    0.6676845  
   0.580971000     0.1138901    0.6549855  
   0.582970900     0.2232239    0.6236936  
   0.584970800     0.3261540    0.5748212  
   0.586970700     0.4195519    0.5092222  
   0.588970600     0.5011775    0.4286141  
   0.590970500     0.5684791    0.3348199  
   0.592970400     0.6187536    0.2313395  
   0.594970300     0.6511026    0.1204229  
   0.596970200     0.6641104    0.0053530  
   0.598970100     0.6571107   -0.1099295  
   0.600970000     0.6313941   -0.2222736  
   0.602969900     0.5866941   -0.3285305  
   0.604969800     0.5249502   -0.4254664  
   0.606969700     0.4480760   -0.5102587  
   0.608969600     0.3583217   -0.5808356  
   0.610969500     0.2590258   -0.6350749  
   0.612969400     0.1525488   -0.6714652  
   0.614969300     0.0429298   -0.6901906  
   0.616969200    -0.0670415   -0.6902657  
   0.618969100    -0.1740523   -0.6733763  
   0.620969000    -0.2758243   -0.6402655  
   0.622968900    -0.3708103   -0.5918083  
   0.624968800    -0.4566185   -0.5296474  
   0.626968700    -0.5316090   -0.4553392  
   0.628968600    -0.5941123   -0.3708572  
   0.630968500    -0.6425374   -0.2781931  
   0.632968400    -0.6766276   -0.1794224  
   0.634968300    -0.6952234   -0.0767214  
   0.636968200    -0.6980375    0.0272900  
   0.638968100    -0.6853586    0.1305809  
   0.640968000    -0.6570433    0.2313295  
   0.642967900    -0.6140381    0.3267655  
   0.644967800    -0.5567365    0.4148114  
   0.646967700    -0.4863986    0.4936222  
   0.648967600    -0.4045405    0.5613313  
   0.650967500    -0.3131224    0.6159802  
   0.652967400    -0.2138860    0.6559537  
   0.654967300    -0.1087007    0.6804209  
   0.656967200    -0.0002620    0.6883522  
   0.658967100     0.1089507    0.6792594  
   0.660967000     0.2161712    0.6524141  
   0.662966900     0.3194019    0.6082529  
   0.664966800     0.4151005    0.5472550  
   0.666966700     0.5006222    0.4706552  
   0.668966600     0.5728276    0.3803163  
   0.670966500     0.6294001    0.2786753  
   0.672966400     0.6694129    0.1694625  
   0.674966300     0.6895238    0.0543120  
   0.676966200     0.6903195   -0.0620942  
   0.678966100     0.6709808   -0.1764311  
   0.680966000     0.6335917   -0.2860030  
   0.682965900     0.5787448   -0.3868909  
   0.684965800     0.5087275   -0.4769923  
   0.686965700     0.4247729   -0.5539423  
   0.688965600     0.3308789   -0.6156808  
   0.690965500     0.2285402   -0.6599703  
   0.692965400     0.1218742   -0.6879014  
   0.694965300     0.0134060   -0.6982113  
   0.696965200    -0.0940831   -0.6916161  
   0.698965100    -0.1983336   -0.6684293  
   0.700965000    -0.2971110   -0.6299796  
   0.702964900    -0.3877884   -0.5772468  
   0.704964800    -0.4687411   -0.5117387  
   0.706964700    -0.5384766   -0.4349346  
   0.708964600    -0.5957316   -0.3488848  
   0.710964500    -0.6396919   -0.2558564  
   0.712964400    -0.6683517   -0.1571089  
   0.714964300    -0.6817118   -0.0555645  
   0.716964200    -0.6798125    0.0466301  
   0.718964100    -0.6623461    0.1471872  
   0.720964000    -0.6299828    0.2439971  
   0.722963900    -0.5835035    0.3348126  
   0.724963800    -0.5236793    0.4177639  
   0.726963700    -0.4510767    0.4907696  
   0.728963600    -0.3677051    0.5521258  
   0.730963500    -0.2750405    0.5995482  
   0.732963400    -0.1755152    0.6320809  
   0.734963300    -0.0714684    0.6482610  
   0.736963200     0.0506465    0.6463628  
   0.738963100     0.1710988    0.6217350  
   0.740963000     0.2852508    0.5750431  
   0.742962900     0.3885228    0.5075065  
   0.744962800     0.4774006    0.4224716  
   0.746962700     0.5487839    0.3223709  
   0.748962600     0.6000248    0.2111091  
   0.750962500     0.5472230    0.2990386  
   0.752962400     0.5944089    0.1880823  
   0.754962300     0.6202607    0.0713962  
   0.756962200     0.6247099   -0.0476722  
   0.758962100     0.6074858   -0.1644252  
   0.760962000     0.5698397   -0.2760263  
   0.762961900     0.5160250   -0.3737482  
   0.764961800     0.4531610   -0.4538205  
   0.766961700     0.3788628   -0.5232218  
   0.768961600     0.2947679   -0.5804300  
   0.770961500     0.2031591   -0.6242731  
   0.772961400     0.1058424   -0.6532865  
   0.774961300     0.0051050   -0.6672069  
   0.776961200    -0.0967110   -0.6655787  
   0.778961100    -0.1976317   -0.6483040  
   0.780961000    -0.2948485   -0.6151602  
   0.782960900    -0.3863756   -0.5672990  
   0.784960800    -0.4694577   -0.5053137  
   0.786960700    -0.5421757   -0.4307252  
   0.788960600    -0.6023256   -0.3454941  
   0.790960500    -0.6481681   -0.2518014  
   0.792960400    -0.6789749   -0.1520544  
   0.794960300    -0.6936806   -0.0487856  
   0.796960200    -0.6923456    0.0554779  
   0.798960100    -0.6745121    0.1581047  
   0.800960000    -0.6410037    0.2565828  
   0.802959900    -0.5927152    0.3489251  
   0.804959800    -0.5306002    0.4326495  
   0.806959700    -0.4564264    0.5056316  
   0.808959600    -0.3717376    0.5663530  
   0.810959500    -0.2782215    0.6130524  
   0.812959400    -0.1782644    0.6452742  
   0.814959300    -0.0743152    0.6613245  
   0.816959200     0.0313078    0.6608291  
   0.818959100     0.1362000    0.6438819  
   0.820959000     0.2374890    0.6103651  
   0.822958900     0.3329854    0.5608838  
   0.824958800     0.4197697    0.4964605  
   0.826958700     0.4952397    0.4183561  
   0.828958600     0.5576442    0.3287120  
   0.830958500     0.6046566    0.2297261  
   0.832958400     0.6348963    0.1239122  
   0.834958300     0.6475073    0.0145266  
   0.836958200     0.6419172   -0.0954046  
   0.838958100     0.6180657   -0.2031190  
   0.840958000     0.5769781   -0.3058584  
   0.842957900     0.5194671   -0.4001509  
   0.844957800     0.4471427   -0.4839692  
   0.846957700     0.3622234   -0.5542673  
   0.848957600     0.2669485   -0.6097710  
   0.850957500     0.1640682   -0.6484493  
   0.852957400     0.0571115   -0.6697452  
   0.854957300    -0.0515804   -0.6734285  
   0.856957200    -0.1584022   -0.6595402  
   0.858957100    -0.2611837   -0.6289588  
   0.860957000    -0.3568149   -0.5830435  
   0.862956900    -0.4431227   -0.5232662  
   0.864956800    -0.5183921   -0.4517633  
   0.866956700    -0.5813111   -0.3702705  
   0.868956600    -0.6303526   -0.2807990  
   0.870956500    -0.6656127   -0.1855713  
   0.872956400    -0.6859199   -0.0865710  
   0.874956300    -0.6914445    0.0139364  
   0.876956200    -0.6819392    0.1144384  
   0.878956100    -0.6571544    0.2123724  
   0.880956000    -0.6185097    0.3053798  
   0.882955900    -0.5661865    0.3920378  
   0.884955800    -0.5012762    0.4699684  
   0.886955700    -0.4251598    0.5378900  
   0.888955600    -0.3396638    0.5936555  
   0.890955500    -0.2460621    0.6365352  
   0.892955400    -0.1468396    0.6646762  
   0.894955300    -0.0436088    0.6772715  
