! MS46122B
! 2250307/22442219
! 7/26/2025 10:30:17 AM
! C:\USERS\SPARKY\DOCUMENTS\VNA_DATA\JULY26_2025\295K\PORT1_MOS3_REPEAT1.S1P
! CHANNEL.1
! TR.MEASUREMENT
! RAW.DATA
# GHZ S RI R 50.0
! FREQ.GHZ         S11RE         S11IM         
!; PortSelection: Port_1
   0.001000000     1.0458440   -0.0717398  
   0.002999900     0.9641468   -0.1940695  
   0.004999800     0.9032142   -0.2987445  
   0.006999700     0.8355913   -0.3959920  
   0.008999600     0.7556084   -0.4903628  
   0.010999500     0.6610820   -0.5792717  
   0.012999400     0.5464162   -0.6595426  
   0.014999300     0.4063018   -0.7243399  
   0.016999200     0.2357655   -0.7602156  
   0.018999100     0.0333018   -0.7470930  
   0.020999000    -0.1881050   -0.6531580  
   0.022998900    -0.3855622   -0.4472583  
   0.024998800    -0.4638765   -0.1355895  
   0.026998700    -0.3971995    0.2152611  
   0.028998600    -0.1495057    0.4680496  
   0.030998500     0.1602430    0.5583047  
   0.032998400     0.4086884    0.5031565  
   0.034998300     0.6334745    0.3904788  
   0.036998200     0.7603784    0.2400227  
   0.038998100     0.8306344    0.0867199  
   0.040998000     0.8592772   -0.0577597  
   0.042997900     0.8580292   -0.1894318  
   0.044997800     0.8111337   -0.2815220  
   0.046997700     0.7960080   -0.4099968  
   0.048997600     0.7458859   -0.5011318  
   0.050997500     0.6870134   -0.5797511  
   0.052997400     0.6222357   -0.6465551  
   0.054997300     0.5499482   -0.7056816  
   0.056997200     0.4741555   -0.7544935  
   0.058997100     0.3949743   -0.7941255  
   0.060997000     0.3122797   -0.8250578  
   0.062996900     0.2268362   -0.8470460  
   0.064996800     0.1390110   -0.8597141  
   0.066996700     0.0489196   -0.8631527  
   0.068996600    -0.0423052   -0.8562151  
   0.070996500    -0.1345554   -0.8395307  
   0.072996400    -0.2266301   -0.8101238  
   0.074996300    -0.3172778   -0.7687262  
   0.076996200    -0.4052455   -0.7142184  
   0.078996100    -0.4884579   -0.6462331  
   0.080996000    -0.5649795   -0.5636813  
   0.082995900    -0.6316717   -0.4666292  
   0.084995800    -0.6848605   -0.3554730  
   0.086995700    -0.7225527   -0.2317236  
   0.088995600    -0.7395204   -0.0968234  
   0.090995500    -0.7324854    0.0458245  
   0.092995400    -0.6984062    0.1915082  
   0.094995300    -0.6331363    0.3337117  
   0.096995200    -0.5368149    0.4646839  
   0.098995100    -0.4114849    0.5756284  
   0.100995000    -0.2600649    0.6597080  
   0.102994900    -0.0931037    0.7077518  
   0.104994800     0.0809044    0.7171300  
   0.106994700     0.2513200    0.6867733  
   0.108994600     0.4085938    0.6213338  
   0.110994500     0.5446436    0.5256480  
   0.112994400     0.6537081    0.4072420  
   0.114994300     0.7333434    0.2739095  
   0.116994200     0.7830594    0.1333528  
   0.118994100     0.8042491   -0.0078898  
   0.120994000     0.8013610   -0.1446975  
   0.122993900     0.7745850   -0.2730926  
   0.124993800     0.7286971   -0.3900364  
   0.126993700     0.6672231   -0.4943691  
   0.128993600     0.5926356   -0.5838978  
   0.130993500     0.5089063   -0.6596255  
   0.132993400     0.4177444   -0.7208802  
   0.134993300     0.3217008   -0.7677460  
   0.136993200     0.2223794   -0.7999982  
   0.138993100     0.1205966   -0.8189633  
   0.140993000     0.0192008   -0.8240024  
   0.142992900    -0.0819389   -0.8160548  
   0.144992800    -0.1807103   -0.7966985  
   0.146992700    -0.2762144   -0.7629927  
   0.148992600    -0.3669748   -0.7174679  
   0.150992500    -0.4503022   -0.6589573  
   0.152992400    -0.5279162   -0.5899519  
   0.154992300    -0.5962622   -0.5103551  
   0.156992200    -0.6541736   -0.4203950  
   0.158992100    -0.7002687   -0.3213965  
   0.160992000    -0.7325734   -0.2142587  
   0.162991900    -0.7494722   -0.1009682  
   0.164991800    -0.7493548    0.0169411  
   0.166991700    -0.7305646    0.1364239  
   0.168991600    -0.6923395    0.2544057  
   0.170991500    -0.6337831    0.3684360  
   0.172991400    -0.5551282    0.4734426  
   0.174991300    -0.4576723    0.5655959  
   0.176991200    -0.3424532    0.6411138  
   0.178991100    -0.2130080    0.6961100  
   0.180991000    -0.0739272    0.7276490  
   0.182990900     0.0701572    0.7323599  
   0.184990800     0.2142760    0.7097079  
   0.186990700     0.3517620    0.6601401  
   0.188990600     0.4593843    0.5988297  
   0.190990500     0.5826420    0.4921427  
   0.192990400     0.6725349    0.3767750  
   0.194990300     0.7369897    0.2511334  
   0.196990200     0.7767683    0.1192819  
   0.198990100     0.7926906   -0.0151482  
   0.200990000     0.7850086   -0.1472894  
   0.202989900     0.7556599   -0.2732746  
   0.204989800     0.7069566   -0.3899259  
   0.206989700     0.6427008   -0.4948166  
   0.208989600     0.5637823   -0.5853075  
   0.210989500     0.4741335   -0.6609322  
   0.212989400     0.3752888   -0.7210104  
   0.214989300     0.2707677   -0.7650539  
   0.216989200     0.1635550   -0.7924408  
   0.218989100     0.0548420   -0.8041211  
   0.220989000    -0.0534991   -0.8005248  
   0.222988900    -0.1593556   -0.7812654  
   0.224988800    -0.2610192   -0.7476174  
   0.226988700    -0.3568073   -0.7003961  
   0.228988600    -0.4445660   -0.6404070  
   0.230988500    -0.5234929   -0.5683211  
   0.232988400    -0.5908588   -0.4844601  
   0.234988300    -0.6470673   -0.3912173  
   0.236988200    -0.6899856   -0.2896178  
   0.238988100    -0.7175347   -0.1813985  
   0.240988000    -0.7287103   -0.0688019  
   0.242987900    -0.7224030    0.0458967  
   0.244987800    -0.6980420    0.1602366  
   0.246987700    -0.6548111    0.2721739  
   0.248987600    -0.5926327    0.3777216  
   0.250987500    -0.5118787    0.4734755  
   0.252987400    -0.4141935    0.5554628  
   0.254987300    -0.3024735    0.6204025  
   0.256987200    -0.1790444    0.6651388  
   0.258987100    -0.0478183    0.6888391  
   0.260987000     0.0873063    0.6871046  
   0.262986900     0.2215975    0.6601661  
   0.264986800     0.3491464    0.6086925  
   0.266986700     0.4649929    0.5341517  
   0.268986600     0.5646728    0.4400376  
   0.270986500     0.6442271    0.3304330  
   0.272986400     0.7021279    0.2093403  
   0.274986300     0.7368271    0.0814173  
   0.276986200     0.7480813   -0.0486669  
   0.278986100     0.7368405   -0.1766179  
   0.280986000     0.7038833   -0.2983590  
   0.282985900     0.6525202   -0.4109251  
   0.284985800     0.5845970   -0.5112364  
   0.286985700     0.5033561   -0.5972677  
   0.288985600     0.4120966   -0.6674627  
   0.290985500     0.3138376   -0.7217932  
   0.292985400     0.2107800   -0.7601603  
   0.294985300     0.1052770   -0.7826725  
   0.296985200    -0.0011291   -0.7896435  
   0.298985100    -0.1067996   -0.7814757  
   0.300985000    -0.2091767   -0.7588799  
   0.302984900    -0.3066693   -0.7227548  
   0.304984800    -0.3972691   -0.6741459  
   0.306984700    -0.4798618   -0.6138875  
   0.308984600    -0.5530038   -0.5437769  
   0.310984500    -0.6159794   -0.4644819  
   0.312984400    -0.6680166   -0.3769431  
   0.314984300    -0.7077944   -0.2825649  
   0.316984200    -0.7346269   -0.1823090  
   0.318984100    -0.7468619   -0.0770437  
   0.320984000    -0.7432355    0.0315129  
   0.322983900    -0.7227780    0.1406303  
   0.324983800    -0.6842949    0.2458711  
   0.326983700    -0.6281222    0.3440898  
   0.328983600    -0.5559285    0.4311202  
   0.330983500    -0.4713458    0.5040644  
   0.332983400    -0.3783065    0.5611620  
   0.334983300    -0.2793444    0.6030924  
   0.336983200    -0.1771470    0.6306331  
   0.338983100    -0.0715937    0.6439592  
   0.340983000     0.0353143    0.6427590  
   0.342982900     0.1425555    0.6256489  
   0.344982800     0.2480962    0.5917256  
   0.346982700     0.3493218    0.5402094  
   0.348982600     0.4416497    0.4710629  
   0.350982500     0.5227787    0.3870844  
   0.352982400     0.5892501    0.2889753  
   0.354982300     0.6392386    0.1756770  
   0.356982200     0.6690662    0.0429843  
   0.358982100     0.6719814   -0.0934360  
   0.360982000     0.6479685   -0.2273460  
   0.362981900     0.5980932   -0.3537374  
   0.364981800     0.5247845   -0.4677390  
   0.366981700     0.4305544   -0.5649521  
   0.368981600     0.3201513   -0.6418214  
   0.370981500     0.1975820   -0.6955961  
   0.372981400     0.0681622   -0.7250161  
   0.374981300    -0.0640588   -0.7294683  
   0.376981200     0.0468384   -0.7303155  
   0.378981100    -0.0835784   -0.7299467  
   0.380981000    -0.2111715   -0.7058564  
   0.382980900    -0.3205378   -0.6650370  
   0.384980800    -0.4164740   -0.6097471  
   0.386980700    -0.5022029   -0.5409915  
   0.388980600    -0.5761281   -0.4601258  
   0.390980500    -0.6364809   -0.3696332  
   0.392980400    -0.6823826   -0.2719943  
   0.394980300    -0.7126562   -0.1688147  
   0.396980200    -0.7275043   -0.0624545  
   0.398980100    -0.7261055    0.0452625  
   0.400980000    -0.7089417    0.1520175  
   0.402979900    -0.6753328    0.2560495  
   0.404979800    -0.6268087    0.3539338  
   0.406979700    -0.5632713    0.4444024  
   0.408979600    -0.4859665    0.5246983  
   0.410979500    -0.3954642    0.5931063  
   0.412979400    -0.2944525    0.6478077  
   0.414979300    -0.1842254    0.6847248  
   0.416979200    -0.0682076    0.7049710  
   0.418979100     0.0504729    0.7064325  
   0.420979000     0.1687998    0.6879385  
   0.422978900     0.2838854    0.6498681  
   0.424978800     0.3920422    0.5925409  
   0.426978700     0.4895633    0.5170996  
   0.428978600     0.5731750    0.4256323  
   0.430978500     0.6398317    0.3215263  
   0.432978400     0.6879262    0.2077157  
   0.434978300     0.7169018    0.0875956  
   0.436978200     0.7238143   -0.0353830  
   0.438978100     0.7099226   -0.1569663  
   0.440978000     0.6759970   -0.2738931  
   0.442977900     0.6232240   -0.3826160  
   0.444977800     0.5535322   -0.4801767  
   0.446977700     0.4697045   -0.5639741  
   0.448977600     0.3743170   -0.6321231  
   0.450977500     0.2702956   -0.6835135  
   0.452977400     0.1602986   -0.7166534  
   0.454977300     0.0465138   -0.7320393  
   0.456977200    -0.0672256   -0.7291056  
   0.458977100    -0.1779380   -0.7083603  
   0.460977000    -0.2836104   -0.6707513  
   0.462976900    -0.3804185   -0.6179898  
   0.464976800    -0.4678258   -0.5510066  
   0.466976700    -0.5433364   -0.4717100  
   0.468976600    -0.6052306   -0.3822632  
   0.470976500    -0.6530123   -0.2844646  
   0.472976400    -0.6850674   -0.1806351  
   0.474976300    -0.7006544   -0.0730570  
   0.476976200    -0.6991235    0.0356641  
   0.478976100    -0.6808061    0.1430951  
   0.480976000    -0.6463025    0.2463659  
   0.482975900    -0.5955729    0.3435503  
   0.484975800    -0.5297832    0.4318313  
   0.486975700    -0.4496566    0.5093306  
   0.488975600    -0.3577476    0.5735210  
   0.490975500    -0.2553263    0.6222883  
   0.492975400    -0.1451770    0.6532793  
   0.494975300    -0.0304814    0.6654829  
   0.496975200     0.0852023    0.6577229  
   0.498975100     0.1981461    0.6300949  
   0.500975000     0.3042082    0.5831106  
   0.502974900     0.4005019    0.5185930  
   0.504974800     0.4833159    0.4384901  
   0.506974700     0.5504404    0.3457279  
   0.508974600     0.5997123    0.2430931  
   0.510974500     0.6302503    0.1354935  
   0.512974400     0.6419068    0.0264094  
   0.514974300     0.6341800   -0.0800631  
   0.516974200     0.6113811   -0.1812550  
   0.518974100     0.5743363   -0.2755167  
   0.520974000     0.5253033   -0.3611121  
   0.522973900     0.4658687   -0.4372703  
   0.524973800     0.3975558   -0.5032671  
   0.526973700     0.3215632   -0.5593828  
   0.528973600     0.2392787   -0.6048782  
   0.530973500     0.1509147   -0.6391814  
   0.532973400     0.0578504   -0.6612884  
   0.534973300    -0.0386253   -0.6701790  
   0.536973200    -0.1369410   -0.6646060  
   0.538973100    -0.2345597   -0.6444371  
   0.540973000    -0.3287964   -0.6090391  
   0.542972900    -0.4181063   -0.5589210  
   0.544972800    -0.4991114   -0.4945740  
   0.546972700    -0.5699029   -0.4167178  
   0.548972600    -0.6283906   -0.3278430  
   0.550972500    -0.6718926   -0.2298734  
   0.552972400    -0.6992749   -0.1250325  
   0.554972300    -0.7093406   -0.0168732  
   0.556972200    -0.7018547    0.0926346  
   0.558972100    -0.6766755    0.1998057  
   0.560972000    -0.6343311    0.3017733  
   0.562971900    -0.5762013    0.3955511  
   0.564971800    -0.5033000    0.4793968  
   0.566971700    -0.4178216    0.5504816  
   0.568971600    -0.3216208    0.6071608  
   0.570971500    -0.2170394    0.6479452  
   0.572971400    -0.1065780    0.6711277  
   0.574971300     0.0073514    0.6761341  
   0.576971200     0.1214876    0.6622161  
   0.578971100     0.2328624    0.6291669  
   0.580971000     0.3373773    0.5777884  
   0.582970900     0.4324237    0.5093502  
   0.584970800     0.5143830    0.4256736  
   0.586970700     0.5814574    0.3289814  
   0.588970600     0.6308275    0.2226897  
   0.590970500     0.6617545    0.1089235  
   0.592970400     0.6727450   -0.0081743  
   0.594970300     0.6636499   -0.1252778  
   0.596970200     0.6349159   -0.2392891  
   0.598970100     0.5873601   -0.3460389  
   0.600970000     0.5229070   -0.4428429  
   0.602969900     0.4434026   -0.5272851  
   0.604969800     0.3508467   -0.5968378  
   0.606969700     0.2493654   -0.6496990  
   0.608969600     0.1404486   -0.6850792  
   0.610969500     0.0281921   -0.7018221  
   0.612969400    -0.0841503   -0.6998672  
   0.614969300    -0.1938124   -0.6803963  
   0.616969200    -0.2976633   -0.6438521  
   0.618969100    -0.3933316   -0.5920590  
   0.620969000    -0.4789580   -0.5266644  
   0.622968900    -0.5531414   -0.4493895  
   0.624968800    -0.6142585   -0.3621078  
   0.626968700    -0.6618106   -0.2667255  
   0.628968600    -0.6938328   -0.1652222  
   0.630968500    -0.7103521   -0.0603647  
   0.632968400    -0.7110517    0.0457434  
   0.634968300    -0.6954937    0.1511842  
   0.636968200    -0.6640367    0.2532063  
   0.638968100    -0.6174867    0.3496404  
   0.640968000    -0.5565761    0.4383897  
   0.642967900    -0.4824613    0.5171542  
   0.644967800    -0.3966110    0.5843406  
   0.646967700    -0.3007502    0.6378540  
   0.648967600    -0.1973943    0.6758032  
   0.650967500    -0.0887148    0.6975508  
   0.652967400     0.0226966    0.7019863  
   0.654967300     0.1345954    0.6888318  
   0.656967200     0.2431809    0.6575943  
   0.658967100     0.3463657    0.6092330  
   0.660967000     0.4415139    0.5438573  
   0.662966900     0.5254442    0.4634565  
   0.664966800     0.5957401    0.3690769  
   0.666966700     0.6495503    0.2634923  
   0.668966600     0.6855810    0.1499748  
   0.670966500     0.7019086    0.0315768  
   0.672966400     0.6994215   -0.0875875  
   0.674966300     0.6754871   -0.2041792  
   0.676966200     0.6328978   -0.3147385  
   0.678966100     0.5729358   -0.4156236  
   0.680966000     0.4974977   -0.5046959  
   0.682965900     0.4089747   -0.5797017  
   0.684965800     0.3108807   -0.6383252  
   0.686965700     0.2048657   -0.6802258  
   0.688965600     0.0943874   -0.7039839  
   0.690965500    -0.0168838   -0.7088268  
   0.692965400    -0.1263365   -0.6974070  
   0.694965300    -0.2315005   -0.6691974  
   0.696965200    -0.3301608   -0.6254143  
   0.698965100    -0.4201974   -0.5674769  
   0.700965000    -0.4997074   -0.4969131  
   0.702964900    -0.5671378   -0.4154436  
   0.704964800    -0.6214317   -0.3254367  
   0.706964700    -0.6611593   -0.2283811  
   0.708964600    -0.6857957   -0.1260682  
   0.710964500    -0.6951736   -0.0216859  
   0.712964400    -0.6880633    0.0831005  
   0.714964300    -0.6647366    0.1858634  
   0.716964200    -0.6260523    0.2838998  
   0.718964100    -0.5727009    0.3745862  
   0.720964000    -0.5059896    0.4565630  
   0.722963900    -0.4272006    0.5270443  
   0.724963800    -0.3377699    0.5847698  
   0.726963700    -0.2396711    0.6276427  
   0.728963600    -0.1353085    0.6548551  
   0.730963500    -0.0281837    0.6642414  
   0.732963400     0.0802487    0.6564735  
   0.734963300     0.1862716    0.6309384  
   0.736963200     0.3014625    0.5810143  
   0.738963100     0.4060591    0.5099444  
   0.740963000     0.4954696    0.4209774  
   0.742962900     0.5662203    0.3165688  
   0.744962800     0.6158268    0.2016540  
   0.746962700     0.6431307    0.0803416  
   0.748962600     0.6474015   -0.0434587  
   0.750962500     0.6330139    0.0555904  
   0.752962400     0.6337401   -0.0661632  
   0.754962300     0.6125145   -0.1850825  
   0.756962200     0.5706016   -0.2975124  
   0.758962100     0.5094503   -0.3998355  
   0.760962000     0.4314624   -0.4894066  
   0.762961900     0.3437217   -0.5602134  
   0.764961800     0.2541153   -0.6113027  
   0.766961700     0.1580221   -0.6483912  
   0.768961600     0.0571160   -0.6700779  
   0.770961500    -0.0462325   -0.6763249  
   0.772961400    -0.1488594   -0.6667020  
   0.774961300    -0.2493942   -0.6414121  
   0.776961200    -0.3451773   -0.6008314  
   0.778961100    -0.4338173   -0.5455999  
   0.780961000    -0.5131294   -0.4770308  
   0.782960900    -0.5809296   -0.3963755  
   0.784960800    -0.6354597   -0.3056184  
   0.786960700    -0.6750590   -0.2070079  
   0.788960600    -0.6988822   -0.1030058  
   0.790960500    -0.7057966    0.0036339  
   0.792960400    -0.6962286    0.1098954  
   0.794960300    -0.6695618    0.2135437  
   0.796960200    -0.6271718    0.3117526  
   0.798960100    -0.5701251    0.4021281  
   0.800960000    -0.4994668    0.4818806  
   0.802959900    -0.4169003    0.5502236  
   0.804959800    -0.3248184    0.6047582  
   0.806959700    -0.2250917    0.6442049  
   0.808959600    -0.1204126    0.6678250  
   0.810959500    -0.0129696    0.6746874  
   0.812959400     0.0947776    0.6641436  
   0.814959300     0.2000668    0.6368130  
   0.816959200     0.3000940    0.5928605  
   0.818959100     0.3921905    0.5333569  
   0.820959000     0.4739622    0.4594374  
   0.822958900     0.5429326    0.3727213  
   0.824958800     0.5974503    0.2755536  
   0.826958700     0.6355526    0.1702407  
   0.828958600     0.6556054    0.0597502  
   0.830958500     0.6574193   -0.0527624  
   0.832958400     0.6405242   -0.1641813  
   0.834958300     0.6057096   -0.2710868  
   0.836958200     0.5534198   -0.3708159  
   0.838958100     0.4857464   -0.4602610  
   0.840958000     0.4041295   -0.5376549  
   0.842957900     0.3111603   -0.6001444  
   0.844957800     0.2094414   -0.6466106  
   0.846957700     0.1017749   -0.6755351  
   0.848957600    -0.0082512   -0.6865617  
   0.850957500    -0.1184910   -0.6798025  
   0.852957400    -0.2253775   -0.6555002  
   0.854957300    -0.3266007   -0.6143732  
   0.856957200    -0.4194602   -0.5583091  
   0.858957100    -0.5015135   -0.4888528  
   0.860957000    -0.5711069   -0.4082031  
   0.862956900    -0.6273673   -0.3188497  
   0.864956800    -0.6686146   -0.2227098  
   0.866956700    -0.6947035   -0.1225843  
   0.868956600    -0.7050140   -0.0196869  
   0.870956500    -0.7002689    0.0828234  
   0.872956400    -0.6804919    0.1833956  
   0.874956300    -0.6456174    0.2797845  
   0.876956200    -0.5970710    0.3704737  
   0.878956100    -0.5353440    0.4533567  
   0.880956000    -0.4613715    0.5261682  
   0.882955900    -0.3768081    0.5874881  
   0.884955800    -0.2836586    0.6356807  
   0.886955700    -0.1837035    0.6695451  
   0.888955600    -0.0790332    0.6878207  
   0.890955500     0.0277437    0.6895761  
   0.892955400     0.1342496    0.6750937  
   0.894955300     0.2380296    0.6436442  
