! MS46122B
! 2250307/22442219
! 7/22/2025 3:20:15 PM
! C:\USERS\SPARKY\DOCUMENTS\VNA_DATA\JULY22_2025\295\PORT6_MOS5.S1P
! CHANNEL.1
! TR.MEASUREMENT
! RAW.DATA
# GHZ S RI R 50.0
! FREQ.GHZ         S11RE         S11IM         
!; PortSelection: Port_1
   0.001000000     1.0456410   -0.0716461  
   0.002999900     0.9640480   -0.1941189  
   0.004999800     0.9031444   -0.2988759  
   0.006999700     0.8351834   -0.3962543  
   0.008999600     0.7549186   -0.4907468  
   0.010999500     0.6597509   -0.5797065  
   0.012999400     0.5441193   -0.6599540  
   0.014999300     0.4022958   -0.7242587  
   0.016999200     0.2295925   -0.7586874  
   0.018999100     0.0245476   -0.7423368  
   0.020999000    -0.1985537   -0.6418825  
   0.022998900    -0.3933545   -0.4259111  
   0.024998800    -0.4608200   -0.1054404  
   0.026998700    -0.3743982    0.2462007  
   0.028998600    -0.1112239    0.4855636  
   0.030998500     0.2022210    0.5571647  
   0.032998400     0.4435564    0.4881041  
   0.034998300     0.6598377    0.3656760  
   0.036998200     0.7772024    0.2118739  
   0.038998100     0.8396308    0.0576818  
   0.040998000     0.8622203   -0.0859222  
   0.042997900     0.8557498   -0.2154873  
   0.044997800     0.8053918   -0.3050435  
   0.046997700     0.7866578   -0.4323849  
   0.048997600     0.7335986   -0.5209250  
   0.050997500     0.6722710   -0.5973654  
   0.052997400     0.6042708   -0.6632044  
   0.054997300     0.5324512   -0.7179554  
   0.056997200     0.4538934   -0.7653230  
   0.058997100     0.3729927   -0.8026637  
   0.060997000     0.2888654   -0.8310491  
   0.062996900     0.2018782   -0.8502197  
   0.064996800     0.1127112   -0.8600973  
   0.066996700     0.0216209   -0.8601678  
   0.068996600    -0.0704951   -0.8496585  
   0.070996500    -0.1636829   -0.8289493  
   0.072996400    -0.2558701   -0.7950549  
   0.074996300    -0.3462620   -0.7487814  
   0.076996200    -0.4336058   -0.6888856  
   0.078996100    -0.5149082   -0.6149514  
   0.080996000    -0.5887355   -0.5260675  
   0.082995900    -0.6511533   -0.4224516  
   0.084995800    -0.6983073   -0.3047981  
   0.086995700    -0.7280528   -0.1746812  
   0.088995600    -0.7352815   -0.0347444  
   0.090995500    -0.7159634    0.1111573  
   0.092995400    -0.6678814    0.2576554  
   0.094995300    -0.5869727    0.3970259  
   0.096995200    -0.4753068    0.5205387  
   0.098995100    -0.3352035    0.6199597  
   0.100995000    -0.1720549    0.6874164  
   0.102994900     0.0018882    0.7160508  
   0.104994800     0.1775266    0.7042988  
   0.106994700     0.3436264    0.6530613  
   0.108994600     0.4913379    0.5686966  
   0.110994500     0.6138342    0.4575058  
   0.112994400     0.7067640    0.3275415  
   0.114994300     0.7687394    0.1874422  
   0.116994200     0.8011162    0.0441767  
   0.118994100     0.8057464   -0.0964071  
   0.120994000     0.7877061   -0.2295796  
   0.122993900     0.7473021   -0.3526104  
   0.124993800     0.6903084   -0.4621057  
   0.126993700     0.6191460   -0.5578797  
   0.128993600     0.5364264   -0.6383836  
   0.130993500     0.4464070   -0.7044926  
   0.132993400     0.3506300   -0.7556809  
   0.134993300     0.2508533   -0.7925225  
   0.136993200     0.1489016   -0.8149832  
   0.138993100     0.0460929   -0.8236231  
   0.140993000    -0.0557755   -0.8186985  
   0.142992900    -0.1557918   -0.8004447  
   0.144992800    -0.2531315   -0.7710077  
   0.146992700    -0.3456357   -0.7274255  
   0.148992600    -0.4323910   -0.6719683  
   0.150992500    -0.5107574   -0.6036320  
   0.152992400    -0.5816277   -0.5254081  
   0.154992300    -0.6421819   -0.4366823  
   0.156992200    -0.6907718   -0.3379893  
   0.158992100    -0.7257510   -0.2314785  
   0.160992000    -0.7452930   -0.1177348  
   0.162991900    -0.7476441    0.0005852  
   0.164991800    -0.7313272    0.1212563  
   0.166991700    -0.6950374    0.2410370  
   0.168991600    -0.6382791    0.3566826  
   0.170991500    -0.5607072    0.4641485  
   0.172991400    -0.4633785    0.5589073  
   0.174991300    -0.3480870    0.6365952  
   0.176991200    -0.2177733    0.6937718  
   0.178991100    -0.0770059    0.7262971  
   0.180991000     0.0692883    0.7327491  
   0.182990900     0.2153205    0.7102244  
   0.184990800     0.3551346    0.6599695  
   0.186990700     0.4824705    0.5840812  
   0.188990600     0.5771580    0.5024784  
   0.190990500     0.6780431    0.3730250  
   0.192990400     0.7435532    0.2420841  
   0.194990300     0.7822230    0.1068463  
   0.196990200     0.7960244   -0.0299964  
   0.198990100     0.7854683   -0.1633860  
   0.200990000     0.7530270   -0.2907082  
   0.202989900     0.7006690   -0.4071800  
   0.204989800     0.6315608   -0.5116127  
   0.206989700     0.5499160   -0.6017606  
   0.208989600     0.4569651   -0.6752457  
   0.210989500     0.3554064   -0.7325926  
   0.212989400     0.2481853   -0.7735875  
   0.214989300     0.1383165   -0.7975219  
   0.216989200     0.0276719   -0.8052266  
   0.218989100    -0.0812836   -0.7973573  
   0.220989000    -0.1872592   -0.7737372  
   0.222988900    -0.2886541   -0.7353523  
   0.224988800    -0.3837726   -0.6830451  
   0.226988700    -0.4703511   -0.6181166  
   0.228988600    -0.5467598   -0.5412455  
   0.230988500    -0.6116259   -0.4536098  
   0.232988400    -0.6629183   -0.3556032  
   0.234988300    -0.7009556   -0.2499166  
   0.236988200    -0.7229800   -0.1381655  
   0.238988100    -0.7276014   -0.0225466  
   0.240988000    -0.7138833    0.0944367  
   0.242987900    -0.6813716    0.2095581  
   0.244987800    -0.6297550    0.3203432  
   0.246987700    -0.5586027    0.4235028  
   0.248987600    -0.4689524    0.5151844  
   0.250987500    -0.3623275    0.5913383  
   0.252987400    -0.2422393    0.6486308  
   0.254987300    -0.1121986    0.6836193  
   0.256987200     0.0241266    0.6944736  
   0.258987100     0.1615604    0.6811053  
   0.260987000     0.2949812    0.6408415  
   0.262986900     0.4194103    0.5757291  
   0.264986800     0.5292733    0.4885541  
   0.266986700     0.6204720    0.3825836  
   0.268986600     0.6896405    0.2629293  
   0.270986500     0.7348134    0.1345683  
   0.272986400     0.7558967    0.0020895  
   0.274986300     0.7533674   -0.1293625  
   0.276986200     0.7279812   -0.2562650  
   0.278986100     0.6823357   -0.3745342  
   0.280986000     0.6186899   -0.4814996  
   0.282985900     0.5403783   -0.5745564  
   0.284985800     0.4500426   -0.6523256  
   0.286985700     0.3505359   -0.7134114  
   0.288985600     0.2462614   -0.7573489  
   0.290985500     0.1387785   -0.7850531  
   0.292985400     0.0307769   -0.7965622  
   0.294985300    -0.0763670   -0.7923099  
   0.296985200    -0.1813162   -0.7732533  
   0.298985100    -0.2819493   -0.7398003  
   0.300985000    -0.3767296   -0.6928829  
   0.302984900    -0.4633688   -0.6338000  
   0.304984800    -0.5407764   -0.5632508  
   0.306984700    -0.6077679   -0.4827266  
   0.308984600    -0.6626745   -0.3940456  
   0.310984500    -0.7053640   -0.2983165  
   0.312984400    -0.7342899   -0.1960597  
   0.314984300    -0.7482872   -0.0895519  
   0.316984200    -0.7459157    0.0200443  
   0.318984100    -0.7266752    0.1307341  
   0.320984000    -0.6885701    0.2392485  
   0.322983900    -0.6313646    0.3416283  
   0.324983800    -0.5565517    0.4321918  
   0.326983700    -0.4669335    0.5077493  
   0.328983600    -0.3667126    0.5649870  
   0.330983500    -0.2617278    0.6028807  
   0.332983400    -0.1565826    0.6236389  
   0.334983300    -0.0519786    0.6298326  
   0.336983200     0.0512685    0.6231782  
   0.338983100     0.1534931    0.6030487  
   0.340983000     0.2537227    0.5687420  
   0.342982900     0.3501656    0.5186881  
   0.344982800     0.4400255    0.4526708  
   0.346982700     0.5201155    0.3703391  
   0.348982600     0.5853419    0.2731107  
   0.350982500     0.6341428    0.1646904  
   0.352982400     0.6633353    0.0478884  
   0.354982300     0.6707489   -0.0778626  
   0.356982200     0.6511441   -0.2147452  
   0.358982100     0.6042016   -0.3448011  
   0.360982000     0.5327413   -0.4624066  
   0.362981900     0.4391461   -0.5632321  
   0.364981800     0.3281518   -0.6434004  
   0.366981700     0.2041070   -0.6999923  
   0.368981600     0.0724662   -0.7313864  
   0.370981500    -0.0618525   -0.7370137  
   0.372981400    -0.1937539   -0.7171841  
   0.374981300    -0.3189206   -0.6731015  
   0.376981200    -0.2116895   -0.7143440  
   0.378981100    -0.3345047   -0.6674618  
   0.380981000    -0.4464107   -0.5987497  
   0.382980900    -0.5350973   -0.5204432  
   0.384980800    -0.6060237   -0.4337092  
   0.386980700    -0.6628842   -0.3371231  
   0.388980600    -0.7045219   -0.2328281  
   0.390980500    -0.7290255   -0.1241323  
   0.392980400    -0.7370348   -0.0133418  
   0.394980300    -0.7280262    0.0975201  
   0.396980200    -0.7023154    0.2059420  
   0.398980100    -0.6599976    0.3105336  
   0.400980000    -0.6017820    0.4077374  
   0.402979900    -0.5285242    0.4958952  
   0.404979800    -0.4416568    0.5721367  
   0.406979700    -0.3426180    0.6343375  
   0.408979600    -0.2341630    0.6809961  
   0.410979500    -0.1174960    0.7096091  
   0.412979400     0.0043993    0.7191522  
   0.414979300     0.1273531    0.7073671  
   0.416979200     0.2481470    0.6756659  
   0.418979100     0.3623873    0.6236858  
   0.420979000     0.4672221    0.5523512  
   0.422978900     0.5587761    0.4633594  
   0.424978800     0.6339108    0.3590792  
   0.426978700     0.6899443    0.2429985  
   0.428978600     0.7247157    0.1189003  
   0.430978500     0.7371179   -0.0086805  
   0.432978400     0.7273023   -0.1355694  
   0.434978300     0.6969981   -0.2586331  
   0.436978200     0.6455845   -0.3730204  
   0.438978100     0.5758360   -0.4759899  
   0.440978000     0.4904796   -0.5649927  
   0.442977900     0.3923078   -0.6380340  
   0.444977800     0.2851692   -0.6928410  
   0.446977700     0.1714587   -0.7288227  
   0.448977600     0.0549321   -0.7455578  
   0.450977500    -0.0613017   -0.7433084  
   0.452977400    -0.1752533   -0.7227637  
   0.454977300    -0.2838693   -0.6847227  
   0.456977200    -0.3848994   -0.6301209  
   0.458977100    -0.4753538   -0.5606990  
   0.460977000    -0.5534775   -0.4783675  
   0.462976900    -0.6173481   -0.3857681  
   0.464976800    -0.6659011   -0.2840250  
   0.466976700    -0.6981602   -0.1767620  
   0.468976600    -0.7132686   -0.0654112  
   0.470976500    -0.7107244    0.0474926  
   0.472976400    -0.6901283    0.1586831  
   0.474976300    -0.6521841    0.2659171  
   0.476976200    -0.5973992    0.3663709  
   0.478976100    -0.5266577    0.4571226  
   0.480976000    -0.4415905    0.5352539  
   0.482975900    -0.3446530    0.5994766  
   0.484975800    -0.2374594    0.6469821  
   0.486975700    -0.1224186    0.6762049  
   0.488975600    -0.0031239    0.6856939  
   0.490975500     0.1167041    0.6745505  
   0.492975400     0.2338069    0.6423913  
   0.494975300     0.3438240    0.5904619  
   0.496975200     0.4431323    0.5191328  
   0.498975100     0.5279677    0.4319302  
   0.500975000     0.5955362    0.3317281  
   0.502974900     0.6439364    0.2224218  
   0.504974800     0.6719419    0.1069561  
   0.506974700     0.6794760   -0.0097703  
   0.508974600     0.6668159   -0.1251334  
   0.510974500     0.6356081   -0.2339320  
   0.512974400     0.5879230   -0.3344684  
   0.514974300     0.5257048   -0.4221015  
   0.516974200     0.4537040   -0.4987533  
   0.518974100     0.3729457   -0.5621446  
   0.520974000     0.2860313   -0.6121662  
   0.522973900     0.1939828   -0.6495573  
   0.524973800     0.0989113   -0.6735843  
   0.526973700     0.0012080   -0.6852244  
   0.528973600    -0.0974767   -0.6830866  
   0.530973500    -0.1962581   -0.6673580  
   0.532973400    -0.2931226   -0.6368616  
   0.534973300    -0.3857564   -0.5920136  
   0.536973200    -0.4722182   -0.5327575  
   0.538973100    -0.5493364   -0.4595326  
   0.540973000    -0.6147529   -0.3742237  
   0.542972900    -0.6660584   -0.2783090  
   0.544972800    -0.7017521   -0.1742104  
   0.546972700    -0.7202755   -0.0642301  
   0.548972600    -0.7207590    0.0480410  
   0.550972500    -0.7024176    0.1601173  
   0.552972400    -0.6659127    0.2682164  
   0.554972300    -0.6117370    0.3695375  
   0.556972200    -0.5414268    0.4612862  
   0.558972100    -0.4565149    0.5402218  
   0.560972000    -0.3595631    0.6046339  
   0.562971900    -0.2529420    0.6524004  
   0.564971800    -0.1395681    0.6823863  
   0.566971700    -0.0225003    0.6929675  
   0.568971600     0.0950990    0.6843795  
   0.570971500     0.2103490    0.6562779  
   0.572971400     0.3201606    0.6090122  
   0.574971300     0.4211678    0.5431284  
   0.576971200     0.5104283    0.4609014  
   0.578971100     0.5846022    0.3637075  
   0.580971000     0.6413655    0.2549918  
   0.582970900     0.6782972    0.1383407  
   0.584970800     0.6948940    0.0173638  
   0.586970700     0.6904480   -0.1047689  
   0.588970600     0.6655036   -0.2240148  
   0.590970500     0.6204502   -0.3363629  
   0.592970400     0.5574590   -0.4391172  
   0.594970300     0.4780835   -0.5296515  
   0.596970200     0.3858147   -0.6045669  
   0.598970100     0.2824371   -0.6632931  
   0.600970000     0.1718261   -0.7032214  
   0.602969900     0.0570992   -0.7246414  
   0.604969800    -0.0590832   -0.7271798  
   0.606969700    -0.1733881   -0.7110463  
   0.608969600    -0.2828993   -0.6769570  
   0.610969500    -0.3848900   -0.6262633  
   0.612969400    -0.4769068   -0.5605333  
   0.614969300    -0.5564385   -0.4821545  
   0.616969200    -0.6227753   -0.3930939  
   0.618969100    -0.6739670   -0.2959600  
   0.620969000    -0.7099585   -0.1927661  
   0.622968900    -0.7297460   -0.0855935  
   0.624968800    -0.7335479    0.0234006  
   0.626968700    -0.7210001    0.1321602  
   0.628968600    -0.6920660    0.2379948  
   0.630968500    -0.6475163    0.3384663  
   0.632968400    -0.5879055    0.4319903  
   0.634968300    -0.5143285    0.5157538  
   0.636968200    -0.4279940    0.5880844  
   0.638968100    -0.3313593    0.6461760  
   0.640968000    -0.2252320    0.6893116  
   0.642967900    -0.1131239    0.7154627  
   0.644967800     0.0028482    0.7235791  
   0.646967700     0.1193611    0.7133662  
   0.648967600     0.2335435    0.6843290  
   0.650967500     0.3421994    0.6366489  
   0.652967400     0.4422384    0.5720587  
   0.654967300     0.5312368    0.4910850  
   0.656967200     0.6056929    0.3964400  
   0.658967100     0.6637125    0.2902433  
   0.660967000     0.7035297    0.1749569  
   0.662966900     0.7236180    0.0541244  
   0.664966800     0.7233147   -0.0694259  
   0.666966700     0.7018008   -0.1912445  
   0.668966600     0.6600660   -0.3070453  
   0.670966500     0.5998711   -0.4142248  
   0.672966400     0.5236461   -0.5100081  
   0.674966300     0.4328501   -0.5898283  
   0.676966200     0.3306872   -0.6527122  
   0.678966100     0.2209560   -0.6975346  
   0.680966000     0.1066412   -0.7234237  
   0.682965900    -0.0089359   -0.7306178  
   0.684965800    -0.1231035   -0.7191676  
   0.686965700    -0.2328057   -0.6901195  
   0.688965600    -0.3357242   -0.6448555  
   0.690965500    -0.4287384   -0.5838332  
   0.692965400    -0.5110962   -0.5107589  
   0.694965300    -0.5805776   -0.4266381  
   0.696965200    -0.6361783   -0.3335801  
   0.698965100    -0.6769598   -0.2335037  
   0.700965000    -0.7019343   -0.1285077  
   0.702964900    -0.7108357   -0.0213286  
   0.704964800    -0.7034117    0.0865925  
   0.706964700    -0.6793739    0.1919449  
   0.708964600    -0.6392440    0.2929110  
   0.710964500    -0.5840749    0.3873621  
   0.712964400    -0.5140948    0.4723073  
   0.714964300    -0.4311396    0.5455194  
   0.716964200    -0.3372729    0.6047761  
   0.718964100    -0.2348515    0.6486084  
   0.720964000    -0.1263280    0.6755490  
   0.722963900    -0.0144392    0.6843448  
   0.724963800     0.0980584    0.6748706  
   0.726963700     0.2076668    0.6471105  
   0.728963600     0.3118043    0.6012523  
   0.730963500     0.4066668    0.5376481  
   0.732963400     0.4893588    0.4601910  
   0.734963300     0.5587716    0.3697730  
   0.736963200     0.6185676    0.2543006  
   0.738963100     0.6559629    0.1296678  
   0.740963000     0.6689169    0.0011304  
   0.742962900     0.6577902   -0.1261329  
   0.744962800     0.6233594   -0.2482827  
   0.746962700     0.5675579   -0.3606662  
   0.748962600     0.4931354   -0.4601642  
   0.750962500     0.5452445   -0.3797555  
   0.752962400     0.4690960   -0.4761679  
   0.754962300     0.3776352   -0.5569066  
   0.756962200     0.2738224   -0.6197547  
   0.758962100     0.1613037   -0.6632254  
   0.760962000     0.0427464   -0.6857650  
   0.762961900    -0.0719382   -0.6879422  
   0.764961800    -0.1762557   -0.6734107  
   0.766961700    -0.2772474   -0.6432723  
   0.768961600    -0.3728538   -0.5976778  
   0.770961500    -0.4606126   -0.5380387  
   0.772961400    -0.5380372   -0.4652197  
   0.774961300    -0.6034049   -0.3812008  
   0.776961200    -0.6551885   -0.2876040  
   0.778961100    -0.6916167   -0.1867714  
   0.780961000    -0.7121354   -0.0809564  
   0.782960900    -0.7153714    0.0272793  
   0.784960800    -0.7015699    0.1354178  
   0.786960700    -0.6704745    0.2400744  
   0.788960600    -0.6231200    0.3390209  
   0.790960500    -0.5603914    0.4294313  
   0.792960400    -0.4842927    0.5087397  
   0.794960300    -0.3964376    0.5751175  
   0.796960200    -0.2990013    0.6266289  
   0.798960100    -0.1946137    0.6621835  
   0.800960000    -0.0859673    0.6810660  
   0.802959900     0.0248109    0.6822927  
   0.804959800     0.1344239    0.6657549  
   0.806959700     0.2403877    0.6320093  
   0.808959600     0.3397124    0.5816416  
   0.810959500     0.4302572    0.5157837  
   0.812959400     0.5093703    0.4358397  
   0.814959300     0.5745013    0.3436698  
   0.816959200     0.6242600    0.2418376  
   0.818959100     0.6568077    0.1327324  
   0.820959000     0.6708871    0.0194016  
   0.822958900     0.6663870   -0.0951105  
   0.824958800     0.6430026   -0.2072890  
   0.826958700     0.6012380   -0.3145064  
   0.828958600     0.5421335   -0.4132861  
   0.830958500     0.4677579   -0.5008075  
   0.832958400     0.3800958   -0.5747479  
   0.834958300     0.2817340   -0.6328753  
   0.836958200     0.1759430   -0.6739613  
   0.838958100     0.0648463   -0.6970298  
   0.840958000    -0.0475317   -0.7018036  
   0.842957900    -0.1590477   -0.6885033  
   0.844957800    -0.2662468   -0.6577144  
   0.846957700    -0.3664918   -0.6102450  
   0.848957600    -0.4576595   -0.5479678  
   0.850957500    -0.5373728   -0.4724387  
   0.852957400    -0.6037349   -0.3860326  
   0.854957300    -0.6558847   -0.2906483  
   0.856957200    -0.6924133   -0.1887707  
   0.858957100    -0.7126094   -0.0834369  
   0.860957000    -0.7166080    0.0231302  
   0.862956900    -0.7043136    0.1279706  
   0.864956800    -0.6769552    0.2294262  
   0.866956700    -0.6348836    0.3252588  
   0.868956600    -0.5788985    0.4130928  
   0.870956500    -0.5107440    0.4921988  
   0.872956400    -0.4311967    0.5604632  
   0.874956300    -0.3418852    0.6164358  
   0.876956200    -0.2442514    0.6586937  
   0.878956100    -0.1405975    0.6860383  
   0.880956000    -0.0329724    0.6971648  
   0.882955900     0.0759379    0.6913199  
   0.884955800     0.1835785    0.6687144  
   0.886955700     0.2869907    0.6290224  
   0.888955600     0.3838284    0.5729095  
   0.890955500     0.4709083    0.5010890  
   0.892955400     0.5457408    0.4157408  
   0.894955300     0.6060485    0.3186207  
