! MS46122B
! 2250307/22442219
! 7/22/2025 3:24:15 PM
! C:\USERS\SPARKY\DOCUMENTS\VNA_DATA\JULY22_2025\295\PORT2_MOS1_REPEAT1.S1P
! CHANNEL.1
! TR.MEASUREMENT
! RAW.DATA
# GHZ S RI R 50.0
! FREQ.GHZ         S11RE         S11IM         
!; PortSelection: Port_1
   0.001000000     1.0459160   -0.0713715  
   0.002999900     0.9643289   -0.1937993  
   0.004999800     0.9034299   -0.2985775  
   0.006999700     0.8357358   -0.3958963  
   0.008999600     0.7557567   -0.4903269  
   0.010999500     0.6612804   -0.5792187  
   0.012999400     0.5468254   -0.6595215  
   0.014999300     0.4071869   -0.7243694  
   0.016999200     0.2375125   -0.7605096  
   0.018999100     0.0360859   -0.7487304  
   0.020999000    -0.1844045   -0.6576464  
   0.022998900    -0.3830994   -0.4565186  
   0.024998800    -0.4667883   -0.1491980  
   0.026998700    -0.4104641    0.2013968  
   0.028998600    -0.1709495    0.4618015  
   0.030998500     0.1373147    0.5627843  
   0.032998400     0.3899213    0.5153052  
   0.034998300     0.6205745    0.4077726  
   0.036998200     0.7532259    0.2587914  
   0.038998100     0.8281472    0.1052760  
   0.040998000     0.8603930   -0.0402906  
   0.042997900     0.8618672   -0.1730593  
   0.044997800     0.8164907   -0.2673438  
   0.046997700     0.8033989   -0.3969708  
   0.048997600     0.7545410   -0.4894349  
   0.050997500     0.6965733   -0.5694638  
   0.052997400     0.6318918   -0.6383798  
   0.054997300     0.5616376   -0.6972495  
   0.056997200     0.4861520   -0.7476939  
   0.058997100     0.4076200   -0.7883514  
   0.060997000     0.3255230   -0.8204268  
   0.062996900     0.2409291   -0.8438451  
   0.064996800     0.1536696   -0.8576091  
   0.066996700     0.0642228   -0.8625891  
   0.068996600    -0.0263876   -0.8572154  
   0.070996500    -0.1178976   -0.8424577  
   0.072996400    -0.2097026   -0.8151689  
   0.074996300    -0.3000483   -0.7762232  
   0.076996200    -0.3879241   -0.7244785  
   0.078996100    -0.4715777   -0.6596587  
   0.080996000    -0.5488582   -0.5805719  
   0.082995900    -0.6174310   -0.4873453  
   0.084995800    -0.6730998   -0.3802022  
   0.086995700    -0.7145274   -0.2602123  
   0.088995600    -0.7365013   -0.1287721  
   0.090995500    -0.7357427    0.0110947  
   0.092995400    -0.7093875    0.1553568  
   0.094995300    -0.6528860    0.2979231  
   0.096995200    -0.5661454    0.4316300  
   0.098995100    -0.4496046    0.5480258  
   0.100995000    -0.3057012    0.6406573  
   0.102994900    -0.1441081    0.6994079  
   0.104994800     0.0276828    0.7208548  
   0.106994700     0.1992484    0.7030278  
   0.108994600     0.3607410    0.6493142  
   0.110994500     0.5038262    0.5633687  
   0.112994400     0.6221688    0.4523613  
   0.114994300     0.7118555    0.3237879  
   0.116994200     0.7718642    0.1855413  
   0.118994100     0.8029933    0.0444011  
   0.120994000     0.8091859   -0.0941593  
   0.122993900     0.7900590   -0.2258407  
   0.124993800     0.7508497   -0.3472926  
   0.126993700     0.6950973   -0.4562633  
   0.128993600     0.6247734   -0.5511801  
   0.130993500     0.5445960   -0.6321999  
   0.132993400     0.4562689   -0.6988587  
   0.134993300     0.3620822   -0.7509885  
   0.136993200     0.2638772   -0.7890651  
   0.138993100     0.1633646   -0.8129014  
   0.140993000     0.0618446   -0.8235449  
   0.142992900    -0.0392676   -0.8205923  
   0.144992800    -0.1384925   -0.8065234  
   0.146992700    -0.2350120   -0.7783638  
   0.148992600    -0.3273855   -0.7378184  
   0.150992500    -0.4132362   -0.6844226  
   0.152992400    -0.4933621   -0.6207200  
   0.154992300    -0.5653287   -0.5464255  
   0.156992200    -0.6276636   -0.4614914  
   0.158992100    -0.6789810   -0.3672193  
   0.160992000    -0.7173923   -0.2646185  
   0.162991900    -0.7416167   -0.1547167  
   0.164991800    -0.7496595   -0.0395334  
   0.166991700    -0.7401429    0.0779463  
   0.168991600    -0.7120363    0.1961690  
   0.170991500    -0.6641033    0.3119770  
   0.172991400    -0.5965814    0.4207709  
   0.174991300    -0.5096294    0.5191650  
   0.176991200    -0.4041713    0.6035402  
   0.178991100    -0.2833150    0.6696997  
   0.180991000    -0.1503292    0.7144594  
   0.182990900    -0.0094502    0.7340034  
   0.184990800     0.1345593    0.7267615  
   0.186990700     0.2755291    0.6929526  
   0.188990600     0.3885547    0.6439756  
   0.190990500     0.5227219    0.5521902  
   0.192990400     0.6248654    0.4473216  
   0.194990300     0.7032812    0.3293028  
   0.196990200     0.7582046    0.2017308  
   0.198990100     0.7887107    0.0691271  
   0.200990000     0.7954719   -0.0647028  
   0.202989900     0.7795631   -0.1945129  
   0.204989800     0.7430561   -0.3172428  
   0.206989700     0.6895472   -0.4293557  
   0.208989600     0.6196468   -0.5283204  
   0.210989500     0.5366784   -0.6136133  
   0.212989400     0.4437393   -0.6841231  
   0.214989300     0.3431861   -0.7383054  
   0.216989200     0.2384354   -0.7764104  
   0.218989100     0.1307733   -0.7987273  
   0.220989000     0.0227236   -0.8055529  
   0.222988900    -0.0845984   -0.7969989  
   0.224988800    -0.1889312   -0.7732014  
   0.226988700    -0.2882708   -0.7358692  
   0.228988600    -0.3807790   -0.6851338  
   0.230988500    -0.4654761   -0.6223313  
   0.232988400    -0.5402438   -0.5467387  
   0.234988300    -0.6050799   -0.4612183  
   0.236988200    -0.6574590   -0.3666715  
   0.238988100    -0.6963022   -0.2641434  
   0.240988000    -0.7198683   -0.1561466  
   0.242987900    -0.7269862   -0.0443753  
   0.244987800    -0.7169591    0.0693818  
   0.246987700    -0.6888974    0.1824730  
   0.248987600    -0.6422994    0.2925397  
   0.250987500    -0.5769393    0.3957678  
   0.252987400    -0.4939190    0.4880759  
   0.254987300    -0.3950472    0.5662457  
   0.256987200    -0.2825099    0.6276278  
   0.258987100    -0.1590945    0.6702566  
   0.260987000    -0.0274765    0.6890403  
   0.262986900     0.1072032    0.6836230  
   0.264986800     0.2396967    0.6536490  
   0.266986700     0.3653018    0.5993624  
   0.268986600     0.4784958    0.5229867  
   0.270986500     0.5749788    0.4276347  
   0.272986400     0.6520278    0.3169289  
   0.274986300     0.7068779    0.1958468  
   0.276986200     0.7389997    0.0681275  
   0.278986100     0.7478462   -0.0616366  
   0.280986000     0.7341922   -0.1885908  
   0.282985900     0.6996723   -0.3094631  
   0.284985800     0.6466075   -0.4201166  
   0.286985700     0.5777187   -0.5185989  
   0.288985600     0.4963032   -0.6023073  
   0.290985500     0.4051473   -0.6707142  
   0.292985400     0.3073788   -0.7231275  
   0.294985300     0.2046667   -0.7601216  
   0.296985200     0.0992860   -0.7814575  
   0.298985100    -0.0068869   -0.7872542  
   0.300985000    -0.1118383   -0.7780552  
   0.302984900    -0.2126698   -0.7547814  
   0.304984800    -0.3086682   -0.7183855  
   0.306984700    -0.3977571   -0.6699101  
   0.308984600    -0.4784131   -0.6105335  
   0.310984500    -0.5501422   -0.5414226  
   0.312984400    -0.6121604   -0.4632962  
   0.314984300    -0.6636503   -0.3773641  
   0.316984200    -0.7034556   -0.2845555  
   0.318984100    -0.7305143   -0.1851132  
   0.320984000    -0.7432734   -0.0807191  
   0.322983900    -0.7411779    0.0265920  
   0.324983800    -0.7218548    0.1338761  
   0.326983700    -0.6854155    0.2379731  
   0.328983600    -0.6317233    0.3353299  
   0.330983500    -0.5632392    0.4219482  
   0.332983400    -0.4827095    0.4956934  
   0.334983300    -0.3929884    0.5557172  
   0.336983200    -0.2963462    0.6014888  
   0.338983100    -0.1943653    0.6334387  
   0.340983000    -0.0884395    0.6507055  
   0.342982900     0.0201775    0.6526871  
   0.344982800     0.1297987    0.6380708  
   0.346982700     0.2379073    0.6059067  
   0.348982600     0.3407179    0.5553248  
   0.350982500     0.4355637    0.4881329  
   0.352982400     0.5186433    0.4049213  
   0.354982300     0.5894721    0.3040732  
   0.356982200     0.6445040    0.1803090  
   0.358982100     0.6743838    0.0479102  
   0.360982000     0.6776846   -0.0878913  
   0.362981900     0.6544295   -0.2215343  
   0.364981800     0.6054356   -0.3482051  
   0.366981700     0.5332794   -0.4624799  
   0.368981600     0.4402155   -0.5602913  
   0.370981500     0.3310336   -0.6380691  
   0.372981400     0.2093847   -0.6931044  
   0.374981300     0.0804603   -0.7241471  
   0.376981200     0.1872038   -0.7030858  
   0.378981100     0.0588967   -0.7284715  
   0.380981000    -0.0706332   -0.7297351  
   0.382980900    -0.1858158   -0.7105192  
   0.384980800    -0.2903100   -0.6757286  
   0.386980700    -0.3876338   -0.6247172  
   0.388980600    -0.4754682   -0.5601251  
   0.390980500    -0.5512412   -0.4838441  
   0.392980400    -0.6142984   -0.3978961  
   0.394980300    -0.6637069   -0.3041523  
   0.396980200    -0.6984817   -0.2043172  
   0.398980100    -0.7181991   -0.1002526  
   0.400980000    -0.7225003    0.0054232  
   0.402979900    -0.7111883    0.1113929  
   0.404979800    -0.6840736    0.2147023  
   0.406979700    -0.6420857    0.3133983  
   0.408979600    -0.5852757    0.4054948  
   0.410979500    -0.5140921    0.4892185  
   0.412979400    -0.4296228    0.5621832  
   0.414979300    -0.3334892    0.6210408  
   0.416979200    -0.2285001    0.6656601  
   0.418979100    -0.1167917    0.6933896  
   0.420979000    -0.0010712    0.7032083  
   0.422978900     0.1164842    0.6937628  
   0.424978800     0.2320407    0.6651477  
   0.426978700     0.3424027    0.6171731  
   0.428978600     0.4438847    0.5512860  
   0.430978500     0.5328981    0.4688288  
   0.432978400     0.6070719    0.3725423  
   0.434978300     0.6650831    0.2653593  
   0.436978200     0.7031380    0.1497024  
   0.438978100     0.7209114    0.0295905  
   0.440978000     0.7183984   -0.0915997  
   0.442977900     0.6957317   -0.2100450  
   0.444977800     0.6538481   -0.3221314  
   0.446977700     0.5942977   -0.4245994  
   0.448977600     0.5194868   -0.5151928  
   0.450977500     0.4317902   -0.5918725  
   0.452977400     0.3338230   -0.6524675  
   0.454977300     0.2273591   -0.6963028  
   0.456977200     0.1161137   -0.7222090  
   0.458977100     0.0035058   -0.7301108  
   0.460977000    -0.1079866   -0.7201605  
   0.462976900    -0.2152157   -0.6933697  
   0.464976800    -0.3159085   -0.6505171  
   0.466976700    -0.4080540   -0.5931526  
   0.468976600    -0.4898649   -0.5229819  
   0.470976500    -0.5597569   -0.4415125  
   0.472976400    -0.6160281   -0.3502755  
   0.474976300    -0.6580957   -0.2522614  
   0.476976200    -0.6843415   -0.1491672  
   0.478976100    -0.6946089   -0.0431904  
   0.480976000    -0.6884214    0.0626258  
   0.482975900    -0.6660095    0.1664943  
   0.484975800    -0.6281106    0.2660310  
   0.486975700    -0.5745562    0.3594809  
   0.488975600    -0.5062942    0.4439506  
   0.490975500    -0.4248481    0.5172740  
   0.492975400    -0.3319582    0.5768783  
   0.494975300    -0.2294297    0.6209174  
   0.496975200    -0.1200191    0.6471209  
   0.498975100    -0.0075094    0.6549286  
   0.500975000     0.1051360    0.6432227  
   0.502974900     0.2140720    0.6120905  
   0.504974800     0.3157640    0.5624242  
   0.506974700     0.4071854    0.4963038  
   0.508974600     0.4853941    0.4150512  
   0.510974500     0.5471119    0.3228060  
   0.512974400     0.5916381    0.2229442  
   0.514974300     0.6170612    0.1196595  
   0.516974200     0.6261680    0.0161926  
   0.518974100     0.6189756   -0.0848122  
   0.520974000     0.5969735   -0.1810194  
   0.522973900     0.5628346   -0.2711659  
   0.524973800     0.5170999   -0.3536429  
   0.526973700     0.4611036   -0.4289748  
   0.528973600     0.3960675   -0.4952143  
   0.530973500     0.3223807   -0.5526788  
   0.532973400     0.2417031   -0.5999134  
   0.534973300     0.1540997   -0.6356708  
   0.536973200     0.0607207   -0.6591406  
   0.538973100    -0.0358185   -0.6686531  
   0.540973000    -0.1335854   -0.6629554  
   0.542972900    -0.2310267   -0.6431199  
   0.544972800    -0.3249090   -0.6074655  
   0.546972700    -0.4138201   -0.5569041  
   0.548972600    -0.4943930   -0.4921696  
   0.550972500    -0.5643235   -0.4148879  
   0.552972400    -0.6213344   -0.3265584  
   0.554972300    -0.6638713   -0.2296557  
   0.556972200    -0.6904796   -0.1265929  
   0.558972100    -0.7000231   -0.0201647  
   0.560972000    -0.6931182    0.0864604  
   0.562971900    -0.6690248    0.1908621  
   0.564971800    -0.6285933    0.2903421  
   0.566971700    -0.5726625    0.3822006  
   0.568971600    -0.5032635    0.4645599  
   0.570971500    -0.4210696    0.5351995  
   0.572971400    -0.3280395    0.5921888  
   0.574971300    -0.2260717    0.6340765  
   0.576971200    -0.1180964    0.6589873  
   0.578971100    -0.0063326    0.6662152  
   0.580971000     0.1056844    0.6549716  
   0.582970900     0.2150940    0.6252133  
   0.584970800     0.3181672    0.5777763  
   0.586970700     0.4124314    0.5136874  
   0.588970600     0.4948999    0.4342771  
   0.590970500     0.5632134    0.3416309  
   0.592970400     0.6148697    0.2391301  
   0.594970300     0.6486335    0.1286778  
   0.596970200     0.6631680    0.0142574  
   0.598970100     0.6576464   -0.1011255  
   0.600970000     0.6333943   -0.2139374  
   0.602969900     0.5901029   -0.3205393  
   0.604969800     0.5295507   -0.4181719  
   0.606969700     0.4537905   -0.5037569  
   0.608969600     0.3648021   -0.5754907  
   0.610969500     0.2661624   -0.6308621  
   0.612969400     0.1603281   -0.6685930  
   0.614969300     0.0508806   -0.6880361  
   0.616969200    -0.0589546   -0.6895425  
   0.618969100    -0.1663146   -0.6735756  
   0.620969000    -0.2682434   -0.6415588  
   0.622968900    -0.3636555   -0.5940256  
   0.624968800    -0.4499088   -0.5327070  
   0.626968700    -0.5254028   -0.4591373  
   0.628968600    -0.5885836   -0.3753167  
   0.630968500    -0.6378198   -0.2831239  
   0.632968400    -0.6725934   -0.1849922  
   0.634968300    -0.6920161   -0.0827209  
   0.636968200    -0.6956761    0.0210513  
   0.638968100    -0.6838845    0.1241599  
   0.640968000    -0.6564316    0.2248256  
   0.642967900    -0.6141459    0.3202002  
   0.644967800    -0.5579911    0.4084895  
   0.646967700    -0.4886035    0.4875242  
   0.648967600    -0.4076494    0.5556723  
   0.650967500    -0.3171692    0.6108508  
   0.652967400    -0.2186849    0.6515474  
   0.654967300    -0.1142010    0.6768470  
   0.656967200    -0.0064085    0.6857797  
   0.658967100     0.1024267    0.6778432  
   0.660967000     0.2095362    0.6521046  
   0.662966900     0.3127303    0.6092093  
   0.664966800     0.4088059    0.5493427  
   0.666966700     0.4947051    0.4741424  
   0.668966600     0.5674778    0.3848061  
   0.670966500     0.6248957    0.2843245  
   0.672966400     0.6660286    0.1756598  
   0.674966300     0.6872835    0.0612470  
   0.676966200     0.6893333   -0.0546531  
   0.678966100     0.6713559   -0.1691313  
   0.680966000     0.6352710   -0.2788021  
   0.682965900     0.5816984   -0.3801747  
   0.684965800     0.5126785   -0.4706357  
   0.686965700     0.4296582   -0.5483338  
   0.688965600     0.3366521   -0.6110241  
   0.690965500     0.2346886   -0.6563119  
   0.692965400     0.1285077   -0.6851687  
   0.694965300     0.0201959   -0.6964974  
   0.696965200    -0.0870671   -0.6908282  
   0.698965100    -0.1913758   -0.6687159  
   0.700965000    -0.2904814   -0.6309785  
   0.702964900    -0.3814793   -0.5790697  
   0.704964800    -0.4627948   -0.5142919  
   0.706964700    -0.5329938   -0.4381240  
   0.708964600    -0.5907704   -0.3526437  
   0.710964500    -0.6352626   -0.2601642  
   0.712964400    -0.6644911   -0.1617989  
   0.714964300    -0.6785744   -0.0606232  
   0.716964200    -0.6773637    0.0413032  
   0.718964100    -0.6606162    0.1415251  
   0.720964000    -0.6290198    0.2383201  
   0.722963900    -0.5833845    0.3289186  
   0.724963800    -0.5241615    0.4122057  
   0.726963700    -0.4524232    0.4852841  
   0.728963600    -0.3697219    0.5470865  
   0.730963500    -0.2779186    0.5948588  
   0.732963400    -0.1789959    0.6279972  
   0.734963300    -0.0754728    0.6448406  
   0.736963200     0.0460607    0.6438069  
   0.738963100     0.1661751    0.6200405  
   0.740963000     0.2802523    0.5744775  
   0.742962900     0.3836473    0.5080308  
   0.744962800     0.4725905    0.4239558  
   0.746962700     0.5445963    0.3248122  
   0.748962600     0.5964995    0.2143662  
   0.750962500     0.5434409    0.3018094  
   0.752962400     0.5913344    0.1915628  
   0.754962300     0.6180207    0.0754644  
   0.756962200     0.6233828   -0.0432556  
   0.758962100     0.6071345   -0.1599016  
   0.760962000     0.5704650   -0.2715200  
   0.762961900     0.5173903   -0.3694517  
   0.764961800     0.4552370   -0.4498289  
   0.766961700     0.3815508   -0.5196071  
   0.768961600     0.2979809   -0.5772492  
   0.770961500     0.2067644   -0.6215920  
   0.772961400     0.1098262   -0.6511477  
   0.774961300     0.0093019   -0.6656427  
   0.776961200    -0.0923093   -0.6645247  
   0.778961100    -0.1931849   -0.6478633  
   0.780961000    -0.2904870   -0.6152948  
   0.782960900    -0.3819783   -0.5678555  
   0.784960800    -0.4651986   -0.5063593  
   0.786960700    -0.5380862   -0.4322330  
   0.788960600    -0.5983726   -0.3475121  
   0.790960500    -0.6444122   -0.2541554  
   0.792960400    -0.6755493   -0.1548445  
   0.794960300    -0.6905848   -0.0519598  
   0.796960200    -0.6896074    0.0520575  
   0.798960100    -0.6721312    0.1543910  
   0.800960000    -0.6391673    0.2525914  
   0.802959900    -0.5913814    0.3446983  
   0.804959800    -0.5298089    0.4283600  
   0.806959700    -0.4561957    0.5012112  
   0.808959600    -0.3720352    0.5620842  
   0.810959500    -0.2791631    0.6087864  
   0.812959400    -0.1797937    0.6412250  
   0.814959300    -0.0764892    0.6576487  
   0.816959200     0.0288095    0.6574782  
   0.818959100     0.1332283    0.6410416  
   0.820959000     0.2341296    0.6080508  
   0.822958900     0.3295592    0.5592083  
   0.824958800     0.4162188    0.4953902  
   0.826958700     0.4916480    0.4179426  
   0.828958600     0.5541823    0.3289500  
   0.830958500     0.6013343    0.2305746  
   0.832958400     0.6319892    0.1252791  
   0.834958300     0.6450195    0.0163398  
   0.836958200     0.6397913   -0.0933940  
   0.838958100     0.6165793   -0.2006815  
   0.840958000     0.5759096   -0.3033658  
   0.842957900     0.5189050   -0.3976387  
   0.844957800     0.4469496   -0.4814768  
   0.846957700     0.3624297   -0.5518023  
   0.848957600     0.2675019   -0.6074312  
   0.850957500     0.1650674   -0.6462107  
   0.852957400     0.0583933   -0.6676366  
   0.854957300    -0.0500563   -0.6715290  
   0.856957200    -0.1567151   -0.6577830  
   0.858957100    -0.2593084   -0.6273122  
   0.860957000    -0.3546760   -0.5816477  
   0.862956900    -0.4408449   -0.5219841  
   0.864956800    -0.5158891   -0.4506672  
   0.866956700    -0.5784862   -0.3695861  
   0.868956600    -0.6273653   -0.2804801  
   0.870956500    -0.6625117   -0.1854621  
   0.872956400    -0.6827149   -0.0867479  
   0.874956300    -0.6881272    0.0133827  
   0.876956200    -0.6785216    0.1134473  
   0.878956100    -0.6536525    0.2109322  
   0.880956000    -0.6151969    0.3036154  
   0.882955900    -0.5630620    0.3898232  
   0.884955800    -0.4982741    0.4673640  
   0.886955700    -0.4225249    0.5349284  
   0.888955600    -0.3373851    0.5903627  
   0.890955500    -0.2442201    0.6328986  
   0.892955400    -0.1454186    0.6609198  
   0.894955300    -0.0427090    0.6733391  
