! MS46122B
! 2250307/22442219
! 7/21/2025 12:07:27 PM
! C:\USERS\SPARKY\DOCUMENTS\VNA_DATA\JULY21_2025\295K\PORT3_MOS3.S1P
! CHANNEL.1
! TR.MEASUREMENT
! RAW.DATA
# GHZ S RI R 50.0
! FREQ.GHZ         S11RE         S11IM         
!; PortSelection: Port_1
   0.001000000     1.0453590   -0.0710715  
   0.002999900     0.9637539   -0.1937002  
   0.004999800     0.9029704   -0.2983841  
   0.006999700     0.8350080   -0.3956927  
   0.008999600     0.7552333   -0.4900827  
   0.010999500     0.6606269   -0.5789774  
   0.012999400     0.5457993   -0.6592162  
   0.014999300     0.4055247   -0.7238361  
   0.016999200     0.2348004   -0.7595351  
   0.018999100     0.0323369   -0.7462837  
   0.020999000    -0.1890859   -0.6521134  
   0.022998900    -0.3866514   -0.4459758  
   0.024998800    -0.4649541   -0.1340452  
   0.026998700    -0.3982452    0.2173208  
   0.028998600    -0.1502264    0.4706806  
   0.030998500     0.1601703    0.5613126  
   0.032998400     0.4092976    0.5060282  
   0.034998300     0.6347318    0.3931443  
   0.036998200     0.7619207    0.2422365  
   0.038998100     0.8323134    0.0885163  
   0.040998000     0.8610145   -0.0564078  
   0.042997900     0.8596529   -0.1883152  
   0.044997800     0.8125746   -0.2806574  
   0.046997700     0.7974586   -0.4092539  
   0.048997600     0.7470676   -0.5005253  
   0.050997500     0.6879939   -0.5792255  
   0.052997400     0.6221474   -0.6471188  
   0.054997300     0.5513450   -0.7044343  
   0.056997200     0.4748002   -0.7538574  
   0.058997100     0.3954382   -0.7933880  
   0.060997000     0.3126818   -0.8241351  
   0.062996900     0.2272336   -0.8461266  
   0.064996800     0.1394039   -0.8585485  
   0.066996700     0.0493279   -0.8618960  
   0.068996600    -0.0418329   -0.8547973  
   0.070996500    -0.1339285   -0.8380065  
   0.072996400    -0.2259420   -0.8084244  
   0.074996300    -0.3164078   -0.7670061  
   0.076996200    -0.4041651   -0.7124403  
   0.078996100    -0.4871587   -0.6445131  
   0.080996000    -0.5633769   -0.5619956  
   0.082995900    -0.6300008   -0.4651228  
   0.084995800    -0.6830110   -0.3540691  
   0.086995700    -0.7205681   -0.2306816  
   0.088995600    -0.7375994   -0.0959844  
   0.090995500    -0.7306249    0.0462549  
   0.092995400    -0.6967118    0.1917289  
   0.094995300    -0.6317800    0.3337182  
   0.096995200    -0.5359742    0.4646084  
   0.098995100    -0.4108777    0.5756747  
   0.100995000    -0.2596652    0.6602405  
   0.102994900    -0.0928529    0.7086499  
   0.104994800     0.0812160    0.7184163  
   0.106994700     0.2517581    0.6884844  
   0.108994600     0.4094497    0.6233204  
   0.110994500     0.5459439    0.5280100  
   0.112994400     0.6554795    0.4093188  
   0.114994300     0.7354948    0.2757771  
   0.116994200     0.7855363    0.1348668  
   0.118994100     0.8068744   -0.0065766  
   0.120994000     0.8040535   -0.1439095  
   0.122993900     0.7772312   -0.2727245  
   0.124993800     0.7311109   -0.3899291  
   0.126993700     0.6694223   -0.4945258  
   0.128993600     0.5945474   -0.5842024  
   0.130993500     0.5105073   -0.6600325  
   0.132993400     0.4190583   -0.7212670  
   0.134993300     0.3229530   -0.7679791  
   0.136993200     0.2231364   -0.8004247  
   0.138993100     0.1213227   -0.8190014  
   0.140993000     0.0198048   -0.8238474  
   0.142992900    -0.0813733   -0.8156285  
   0.144992800    -0.1801023   -0.7960918  
   0.146992700    -0.2753768   -0.7622918  
   0.148992600    -0.3660230   -0.7165599  
   0.150992500    -0.4494352   -0.6578935  
   0.152992400    -0.5268360   -0.5888841  
   0.154992300    -0.5950114   -0.5092052  
   0.156992200    -0.6526958   -0.4192887  
   0.158992100    -0.6985890   -0.3204438  
   0.160992000    -0.7307100   -0.2133162  
   0.162991900    -0.7476326   -0.1005996  
   0.164991800    -0.7475197    0.0173314  
   0.166991700    -0.7287626    0.1365523  
   0.168991600    -0.6906559    0.2543376  
   0.170991500    -0.6322974    0.3683090  
   0.172991400    -0.5539218    0.4732078  
   0.174991300    -0.4566280    0.5653880  
   0.176991200    -0.3417984    0.6410362  
   0.178991100    -0.2124423    0.6963169  
   0.180991000    -0.0735093    0.7281937  
   0.182990900     0.0707140    0.7332698  
   0.184990800     0.2150219    0.7108478  
   0.186990700     0.3528538    0.6614939  
   0.188990600     0.4607367    0.6004273  
   0.190990500     0.5844952    0.4937192  
   0.192990400     0.6747830    0.3780396  
   0.194990300     0.7397543    0.2520595  
   0.196990200     0.7795666    0.1197744  
   0.198990100     0.7954268   -0.0147486  
   0.200990000     0.7877185   -0.1475521  
   0.202989900     0.7583812   -0.2743735  
   0.204989800     0.7092661   -0.3908252  
   0.206989700     0.6447550   -0.4959972  
   0.208989600     0.5654404   -0.5867206  
   0.210989500     0.4753831   -0.6623189  
   0.212989400     0.3760302   -0.7224430  
   0.214989300     0.2711998   -0.7662967  
   0.216989200     0.1636465   -0.7934617  
   0.218989100     0.0548791   -0.8047898  
   0.220989000    -0.0535472   -0.8009787  
   0.222988900    -0.1593024   -0.7812969  
   0.224988800    -0.2611526   -0.7474164  
   0.226988700    -0.3569450   -0.6997722  
   0.228988600    -0.4444246   -0.6397417  
   0.230988500    -0.5231119   -0.5675122  
   0.232988400    -0.5902568   -0.4835586  
   0.234988300    -0.6462890   -0.3903218  
   0.236988200    -0.6889735   -0.2887077  
   0.238988100    -0.7162823   -0.1805709  
   0.240988000    -0.7274181   -0.0681702  
   0.242987900    -0.7210342    0.0464460  
   0.244987800    -0.6966532    0.1605133  
   0.246987700    -0.6535345    0.2722901  
   0.248987600    -0.5915077    0.3777785  
   0.250987500    -0.5108091    0.4734008  
   0.252987400    -0.4132546    0.5555894  
   0.254987300    -0.3017313    0.6206073  
   0.256987200    -0.1784073    0.6656871  
   0.258987100    -0.0470106    0.6895348  
   0.260987000     0.0883653    0.6880009  
   0.262986900     0.2229517    0.6611898  
   0.264986800     0.3508762    0.6097474  
   0.266986700     0.4669954    0.5351993  
   0.268986600     0.5671061    0.4408460  
   0.270986500     0.6469647    0.3310258  
   0.272986400     0.7051398    0.2093360  
   0.274986300     0.7398316    0.0810584  
   0.276986200     0.7510021   -0.0494092  
   0.278986100     0.7396634   -0.1780104  
   0.280986000     0.7063223   -0.3001246  
   0.282985900     0.6544676   -0.4128388  
   0.284985800     0.5861198   -0.5134929  
   0.286985700     0.5043004   -0.5995321  
   0.288985600     0.4126740   -0.6696584  
   0.290985500     0.3140220   -0.7237155  
   0.292985400     0.2105522   -0.7618014  
   0.294985300     0.1048217   -0.7839309  
   0.296985200    -0.0017741   -0.7905983  
   0.298985100    -0.1074437   -0.7820029  
   0.300985000    -0.2099492   -0.7590022  
   0.302984900    -0.3073392   -0.7224808  
   0.304984800    -0.3977822   -0.6735454  
   0.306984700    -0.4801414   -0.6130038  
   0.308984600    -0.5529297   -0.5427185  
   0.310984500    -0.6154934   -0.4634533  
   0.312984400    -0.6673102   -0.3758028  
   0.314984300    -0.7067819   -0.2813375  
   0.316984200    -0.7333641   -0.1810851  
   0.318984100    -0.7452746   -0.0759024  
   0.320984000    -0.7417730    0.0326885  
   0.322983900    -0.7208390    0.1414867  
   0.324983800    -0.6822654    0.2467726  
   0.326983700    -0.6259505    0.3446701  
   0.328983600    -0.5536609    0.4316060  
   0.330983500    -0.4690227    0.5043857  
   0.332983400    -0.3759471    0.5612984  
   0.334983300    -0.2770521    0.6029857  
   0.336983200    -0.1746798    0.6304578  
   0.338983100    -0.0692796    0.6436563  
   0.340983000     0.0378213    0.6423426  
   0.342982900     0.1450961    0.6251377  
   0.344982800     0.2505497    0.5911857  
   0.346982700     0.3518920    0.5395206  
   0.348982600     0.4443542    0.4702212  
   0.350982500     0.5255614    0.3859868  
   0.352982400     0.5921093    0.2875832  
   0.354982300     0.6420288    0.1739644  
   0.356982200     0.6716900    0.0408166  
   0.358982100     0.6743461   -0.0959806  
   0.360982000     0.6499200   -0.2302054  
   0.362981900     0.5995863   -0.3567904  
   0.364981800     0.5257147   -0.4710074  
   0.366981700     0.4308848   -0.5682111  
   0.368981600     0.3199116   -0.6449105  
   0.370981500     0.1967598   -0.6983819  
   0.372981400     0.0668470   -0.7273582  
   0.374981300    -0.0655935   -0.7312757  
   0.376981200     0.0453845   -0.7320429  
   0.378981100    -0.0851282   -0.7310497  
   0.380981000    -0.2127719   -0.7063286  
   0.382980900    -0.3219943   -0.6649619  
   0.384980800    -0.4177291   -0.6091708  
   0.386980700    -0.5031241   -0.5399198  
   0.388980600    -0.5766894   -0.4587011  
   0.390980500    -0.6366403   -0.3678811  
   0.392980400    -0.6821703   -0.2699121  
   0.394980300    -0.7117914   -0.1670781  
   0.396980200    -0.7262065   -0.0606120  
   0.398980100    -0.7244290    0.0470362  
   0.400980000    -0.7068304    0.1537460  
   0.402979900    -0.6728983    0.2575627  
   0.404979800    -0.6240221    0.3552443  
   0.406979700    -0.5602529    0.4453896  
   0.408979600    -0.4826329    0.5255516  
   0.410979500    -0.3920230    0.5936184  
   0.412979400    -0.2908288    0.6480847  
   0.414979300    -0.1803053    0.6847500  
   0.416979200    -0.0643051    0.7046463  
   0.418979100     0.0544357    0.7058175  
   0.420979000     0.1728704    0.6869659  
   0.422978900     0.2880392    0.6485168  
   0.424978800     0.3962483    0.5907440  
   0.426978700     0.4936950    0.5149028  
   0.428978600     0.5771956    0.4230089  
   0.430978500     0.6436061    0.3183879  
   0.432978400     0.6913891    0.2041526  
   0.434978300     0.7199906    0.0836733  
   0.436978200     0.7263629   -0.0396114  
   0.438978100     0.7118772   -0.1615746  
   0.440978000     0.6773058   -0.2786365  
   0.442977900     0.6238666   -0.3873702  
   0.444977800     0.5533692   -0.4848162  
   0.446977700     0.4689447   -0.5681032  
   0.448977600     0.3729889   -0.6360594  
   0.450977500     0.2682959   -0.6868533  
   0.452977400     0.1578443   -0.7193789  
   0.454977300     0.0436910   -0.7340419  
   0.456977200    -0.0702164   -0.7303131  
   0.458977100    -0.1811772   -0.7086855  
   0.460977000    -0.2864988   -0.6703677  
   0.462976900    -0.3829782   -0.6168068  
   0.464976800    -0.4698860   -0.5492877  
   0.466976700    -0.5449708   -0.4693195  
   0.468976600    -0.6062589   -0.3794156  
   0.470976500    -0.6532838   -0.2813090  
   0.472976400    -0.6846397   -0.1773333  
   0.474976300    -0.6995658   -0.0695542  
   0.476976200    -0.6974428    0.0392459  
   0.478976100    -0.6783535    0.1464161  
   0.480976000    -0.6432112    0.2493626  
   0.482975900    -0.5919120    0.3460966  
   0.484975800    -0.5255576    0.4339424  
   0.486975700    -0.4451280    0.5111266  
   0.488975600    -0.3529232    0.5746660  
   0.490975500    -0.2502347    0.6229095  
   0.492975400    -0.1398786    0.6532609  
   0.494975300    -0.0251869    0.6650006  
   0.496975200     0.0905614    0.6566492  
   0.498975100     0.2034536    0.6284580  
   0.500975000     0.3093499    0.5809266  
   0.502974900     0.4054056    0.5158346  
   0.504974800     0.4879705    0.4352745  
   0.506974700     0.5547697    0.3418415  
   0.508974600     0.6035383    0.2387314  
   0.510974500     0.6335075    0.1309460  
   0.512974400     0.6446517    0.0215155  
   0.514974300     0.6362328   -0.0850494  
   0.516974200     0.6127534   -0.1863176  
   0.518974100     0.5750532   -0.2805399  
   0.520974000     0.5253421   -0.3661240  
   0.522973900     0.4653742   -0.4419278  
   0.524973800     0.3964600   -0.5077613  
   0.526973700     0.3199232   -0.5633265  
   0.528973600     0.2369424   -0.6085604  
   0.530973500     0.1481960   -0.6421824  
   0.532973400     0.0549702   -0.6636786  
   0.534973300    -0.0417265   -0.6715906  
   0.536973200    -0.1402292   -0.6653609  
   0.538973100    -0.2377646   -0.6443083  
   0.540973000    -0.3318219   -0.6081713  
   0.542972900    -0.4206383   -0.5572597  
   0.544972800    -0.5013111   -0.4922147  
   0.546972700    -0.5714773   -0.4136428  
   0.548972600    -0.6292427   -0.3244338  
   0.550972500    -0.6719890   -0.2260374  
   0.552972400    -0.6984809   -0.1210646  
   0.554972300    -0.7076914   -0.0128840  
   0.556972200    -0.6993672    0.0964628  
   0.558972100    -0.6734158    0.2033071  
   0.560972000    -0.6303815    0.3048539  
   0.562971900    -0.5716452    0.3981225  
   0.564971800    -0.4982899    0.4813740  
   0.566971700    -0.4124278    0.5518659  
   0.568971600    -0.3159949    0.6078510  
   0.570971500    -0.2111740    0.6480240  
   0.572971400    -0.1007544    0.6704717  
   0.574971300     0.0129499    0.6749178  
   0.576971200     0.1272004    0.6602180  
   0.578971100     0.2383712    0.6264721  
   0.580971000     0.3426201    0.5747142  
   0.582970900     0.4372054    0.5056285  
   0.584970800     0.5188577    0.4213626  
   0.586970700     0.5853699    0.3241802  
   0.588970600     0.6342328    0.2175036  
   0.590970500     0.6644481    0.1035164  
   0.592970400     0.6747129   -0.0137633  
   0.594970300     0.6648564   -0.1309976  
   0.596970200     0.6353624   -0.2448884  
   0.598970100     0.5870262   -0.3514543  
   0.600970000     0.5216977   -0.4481157  
   0.602969900     0.4413004   -0.5322422  
   0.604969800     0.3481886   -0.6012472  
   0.606969700     0.2460527   -0.6535819  
   0.608969600     0.1369536   -0.6876920  
   0.610969500     0.0242598   -0.7036128  
   0.612969400    -0.0881608   -0.7007278  
   0.614969300    -0.1976990   -0.6804015  
   0.616969200    -0.3012061   -0.6428538  
   0.618969100    -0.3964109   -0.5903278  
   0.620969000    -0.4813602   -0.5244066  
   0.622968900    -0.5549601   -0.4464780  
   0.624968800    -0.6153299   -0.3587216  
   0.626968700    -0.6621087   -0.2630866  
   0.628968600    -0.6932610   -0.1614686  
   0.630968500    -0.7089424   -0.0565726  
   0.632968400    -0.7088202    0.0492877  
   0.634968300    -0.6925380    0.1543174  
   0.636968200    -0.6604079    0.2559008  
   0.638968100    -0.6132989    0.3517574  
   0.640968000    -0.5520830    0.4398922  
   0.642967900    -0.4776949    0.5180270  
   0.644967800    -0.3918112    0.5844659  
   0.646967700    -0.2959901    0.6373882  
   0.648967600    -0.1926403    0.6747401  
   0.650967500    -0.0839863    0.6958901  
   0.652967400     0.0270721    0.6999192  
   0.654967300     0.1387341    0.6863235  
   0.656967200     0.2469408    0.6547316  
   0.658967100     0.3499400    0.6060059  
   0.660967000     0.4445990    0.5403727  
   0.662966900     0.5282282    0.4596389  
   0.664966800     0.5980510    0.3649866  
   0.666966700     0.6515651    0.2591203  
   0.668966600     0.6870871    0.1455675  
   0.670966500     0.7028579    0.0271671  
   0.672966400     0.6998532   -0.0922798  
   0.674966300     0.6753054   -0.2088343  
   0.676966200     0.6322086   -0.3192050  
   0.678966100     0.5715171   -0.4199193  
   0.680966000     0.4955428   -0.5085921  
   0.682965900     0.4064528   -0.5830811  
   0.684965800     0.3079475   -0.6410821  
   0.686965700     0.2015553   -0.6823414  
   0.688965600     0.0909757   -0.7053528  
   0.690965500    -0.0203585   -0.7094452  
   0.692965400    -0.1296990   -0.6972051  
   0.694965300    -0.2346911   -0.6680566  
   0.696965200    -0.3328081   -0.6239028  
   0.698965100    -0.4223777   -0.5652862  
   0.700965000    -0.5012820   -0.4942630  
   0.702964900    -0.5680176   -0.4124610  
   0.704964800    -0.6215777   -0.3222603  
   0.706964700    -0.6605671   -0.2251228  
   0.708964600    -0.6844895   -0.1230558  
   0.710964500    -0.6931020   -0.0187234  
   0.712964400    -0.6853619    0.0857360  
   0.714964300    -0.6615474    0.1878972  
   0.716964200    -0.6225335    0.2853590  
   0.718964100    -0.5688633    0.3756146  
   0.720964000    -0.5022113    0.4567397  
   0.722963900    -0.4232076    0.5268805  
   0.724963800    -0.3341338    0.5838389  
   0.726963700    -0.2361155    0.6262928  
   0.728963600    -0.1320712    0.6530911  
   0.730963500    -0.0251216    0.6620965  
   0.732963400     0.0830557    0.6541017  
   0.734963300     0.1888279    0.6282892  
   0.736963200     0.3036629    0.5781264  
   0.738963100     0.4078464    0.5068411  
   0.740963000     0.4967906    0.4177676  
   0.742962900     0.5671769    0.3132793  
   0.744962800     0.6163148    0.1982956  
   0.746962700     0.6432095    0.0770346  
   0.748962600     0.6471221   -0.0465780  
   0.750962500     0.6334259    0.0524164  
   0.752962400     0.6337249   -0.0691087  
   0.754962300     0.6121423   -0.1878871  
   0.756962200     0.5698406   -0.3001405  
   0.758962100     0.5084127   -0.4022261  
   0.760962000     0.4300785   -0.4915819  
   0.762961900     0.3420622   -0.5620215  
   0.764961800     0.2523112   -0.6126992  
   0.766961700     0.1560679   -0.6494023  
   0.768961600     0.0551448   -0.6706858  
   0.770961500    -0.0481071   -0.6764018  
   0.772961400    -0.1506353   -0.6663349  
   0.774961300    -0.2509859   -0.6406073  
   0.776961200    -0.3465299   -0.5997455  
   0.778961100    -0.4346586   -0.5440480  
   0.780961000    -0.5135742   -0.4751253  
   0.782960900    -0.5806668   -0.3944146  
   0.784960800    -0.6347315   -0.3034877  
   0.786960700    -0.6737078   -0.2049675  
   0.788960600    -0.6969258   -0.1010561  
   0.790960500    -0.7033595    0.0051588  
   0.792960400    -0.6933891    0.1109784  
   0.794960300    -0.6664274    0.2141455  
   0.796960200    -0.6238237    0.3117872  
   0.798960100    -0.5667169    0.4014061  
   0.800960000    -0.4960947    0.4807059  
   0.802959900    -0.4136389    0.5484863  
   0.804959800    -0.3219508    0.6025371  
   0.806959700    -0.2225501    0.6416718  
   0.808959600    -0.1182909    0.6649722  
   0.810959500    -0.0113085    0.6716530  
   0.812959400     0.0960259    0.6610160  
   0.814959300     0.2008448    0.6337005  
   0.816959200     0.3005697    0.5898296  
   0.818959100     0.3922713    0.5305830  
   0.820959000     0.4737611    0.4568658  
   0.822958900     0.5425051    0.3703864  
   0.824958800     0.5968739    0.2734724  
   0.826958700     0.6348578    0.1683867  
   0.828958600     0.6548399    0.0581417  
   0.830958500     0.6566409   -0.0540895  
   0.832958400     0.6397921   -0.1651408  
   0.834958300     0.6050611   -0.2719546  
   0.836958200     0.5529260   -0.3714705  
   0.838958100     0.4853502   -0.4610060  
   0.840958000     0.4038088   -0.5381649  
   0.842957900     0.3109492   -0.6005931  
   0.844957800     0.2093111   -0.6469737  
   0.846957700     0.1016259   -0.6758032  
   0.848957600    -0.0082572   -0.6866124  
   0.850957500    -0.1183730   -0.6797490  
   0.852957400    -0.2251978   -0.6551882  
   0.854957300    -0.3260631   -0.6139966  
   0.856957200    -0.4185256   -0.5579216  
   0.858957100    -0.5003167   -0.4884487  
   0.860957000    -0.5694774   -0.4080383  
   0.862956900    -0.6253981   -0.3188094  
   0.864956800    -0.6662928   -0.2231023  
   0.866956700    -0.6921962   -0.1231462  
   0.868956600    -0.7023137   -0.0209609  
   0.870956500    -0.6975512    0.0810891  
   0.872956400    -0.6777810    0.1811425  
   0.874956300    -0.6430832    0.2770380  
   0.876956200    -0.5949146    0.3672876  
   0.878956100    -0.5334114    0.4497282  
   0.880956000    -0.4598700    0.5222857  
   0.882955900    -0.3759808    0.5833164  
   0.884955800    -0.2833422    0.6314405  
   0.886955700    -0.1841008    0.6653482  
   0.888955600    -0.0802292    0.6838250  
   0.890955500     0.0261389    0.6858335  
   0.892955400     0.1321772    0.6717745  
   0.894955300     0.2354559    0.6407475  
