! MS46122B
! 2250307/22442219
! 7/21/2025 12:18:14 PM
! C:\USERS\SPARKY\DOCUMENTS\VNA_DATA\JULY21_2025\295K\PORT5_MOS5_REPEAT1.S1P
! CHANNEL.1
! TR.MEASUREMENT
! RAW.DATA
# GHZ S RI R 50.0
! FREQ.GHZ         S11RE         S11IM         
!; PortSelection: Port_1
   0.001000000     1.0454990   -0.0710832  
   0.002999900     0.9637021   -0.1937242  
   0.004999800     0.9028241   -0.2983514  
   0.006999700     0.8350071   -0.3957635  
   0.008999600     0.7548671   -0.4903151  
   0.010999500     0.6598683   -0.5793810  
   0.012999400     0.5443703   -0.6597610  
   0.014999300     0.4027101   -0.7244303  
   0.016999200     0.2299780   -0.7593597  
   0.018999100     0.0247210   -0.7437190  
   0.020999000    -0.1992258   -0.6440319  
   0.022998900    -0.3957687   -0.4283341  
   0.024998800    -0.4650163   -0.1068598  
   0.026998700    -0.3796977    0.2474031  
   0.028998600    -0.1154575    0.4893757  
   0.030998500     0.2000805    0.5620982  
   0.032998400     0.4432326    0.4927706  
   0.034998300     0.6608962    0.3697520  
   0.036998200     0.7789352    0.2151005  
   0.038998100     0.8416100    0.0602312  
   0.040998000     0.8643574   -0.0839736  
   0.042997900     0.8579234   -0.2140830  
   0.044997800     0.8075250   -0.3039140  
   0.046997700     0.7887852   -0.4316059  
   0.048997600     0.7356395   -0.5204152  
   0.050997500     0.6743391   -0.5970681  
   0.052997400     0.6063375   -0.6630486  
   0.054997300     0.5340253   -0.7184088  
   0.056997200     0.4558017   -0.7656905  
   0.058997100     0.3748674   -0.8031959  
   0.060997000     0.2906900   -0.8318578  
   0.062996900     0.2036900   -0.8512071  
   0.064996800     0.1144861   -0.8612716  
   0.066996700     0.0232302   -0.8615469  
   0.068996600    -0.0690033   -0.8513438  
   0.070996500    -0.1623769   -0.8308876  
   0.072996400    -0.2547559   -0.7972574  
   0.074996300    -0.3453681   -0.7512739  
   0.076996200    -0.4330363   -0.6916174  
   0.078996100    -0.5147124   -0.6179081  
   0.080996000    -0.5889950   -0.5292278  
   0.082995900    -0.6519530   -0.4256768  
   0.084995800    -0.6997279   -0.3081707  
   0.086995700    -0.7301523   -0.1779439  
   0.088995600    -0.7380806   -0.0378798  
   0.090995500    -0.7195218    0.1083596  
   0.092995400    -0.6721229    0.2555947  
   0.094995300    -0.5918586    0.3957093  
   0.096995200    -0.4804691    0.5202860  
   0.098995100    -0.3403788    0.6207658  
   0.100995000    -0.1770942    0.6896356  
   0.102994900    -0.0026203    0.7193364  
   0.104994800     0.1737618    0.7086238  
   0.106994700     0.3407770    0.6578978  
   0.108994600     0.4897347    0.5739022  
   0.110994500     0.6133286    0.4628516  
   0.112994400     0.7073180    0.3327003  
   0.114994300     0.7702168    0.1922121  
   0.116994200     0.8033256    0.0484539  
   0.118994100     0.8085445   -0.0927298  
   0.120994000     0.7910367   -0.2265427  
   0.122993900     0.7509041   -0.3501340  
   0.124993800     0.6941033   -0.4602744  
   0.126993700     0.6230660   -0.5566540  
   0.128993600     0.5403844   -0.6377491  
   0.130993500     0.4503418   -0.7044378  
   0.132993400     0.3545156   -0.7561610  
   0.134993300     0.2547196   -0.7934322  
   0.136993200     0.1524543   -0.8164384  
   0.138993100     0.0494284   -0.8255495  
   0.140993000    -0.0528493   -0.8210478  
   0.142992900    -0.1530311   -0.8032368  
   0.144992800    -0.2505159   -0.7742482  
   0.146992700    -0.3435867   -0.7309717  
   0.148992600    -0.4307172   -0.6758144  
   0.150992500    -0.5095264   -0.6077510  
   0.152992400    -0.5812328   -0.5296308  
   0.154992300    -0.6422203   -0.4411454  
   0.156992200    -0.6914462   -0.3424515  
   0.158992100    -0.7270755   -0.2359432  
   0.160992000    -0.7473488   -0.1221033  
   0.162991900    -0.7503914   -0.0035659  
   0.164991800    -0.7347801    0.1173966  
   0.166991700    -0.6991631    0.2377130  
   0.168991600    -0.6430562    0.3539743  
   0.170991500    -0.5660453    0.4622395  
   0.172991400    -0.4690970    0.5578239  
   0.174991300    -0.3540431    0.6365157  
   0.176991200    -0.2237823    0.6947727  
   0.178991100    -0.0828397    0.7283705  
   0.180991000     0.0638481    0.7358822  
   0.182990900     0.2105385    0.7143325  
   0.184990800     0.3511955    0.6649120  
   0.186990700     0.4795149    0.5897500  
   0.188990600     0.5750674    0.5084353  
   0.190990500     0.6772317    0.3792148  
   0.192990400     0.7439967    0.2481400  
   0.194990300     0.7836046    0.1128061  
   0.196990200     0.7983388   -0.0242341  
   0.198990100     0.7887509   -0.1585459  
   0.200990000     0.7569109   -0.2864497  
   0.202989900     0.7051145   -0.4037659  
   0.204989800     0.6364670   -0.5089351  
   0.206989700     0.5551907   -0.5997409  
   0.208989600     0.4622793   -0.6742013  
   0.210989500     0.3609208   -0.7323073  
   0.212989400     0.2535077   -0.7741152  
   0.214989300     0.1434343   -0.7989416  
   0.216989200     0.0326540   -0.8072801  
   0.218989100    -0.0767533   -0.8001380  
   0.220989000    -0.1831381   -0.7771285  
   0.222988900    -0.2849991   -0.7392946  
   0.224988800    -0.3808532   -0.6874837  
   0.226988700    -0.4679580   -0.6230019  
   0.228988600    -0.5450708   -0.5465398  
   0.230988500    -0.6107274   -0.4591631  
   0.232988400    -0.6628164   -0.3613143  
   0.234988300    -0.7016901   -0.2556992  
   0.236988200    -0.7246491   -0.1438962  
   0.238988100    -0.7301440   -0.0281404  
   0.240988000    -0.7173417    0.0891859  
   0.242987900    -0.6857411    0.2046627  
   0.244987800    -0.6348924    0.3162319  
   0.246987700    -0.5644819    0.4201791  
   0.248987600    -0.4754109    0.5127723  
   0.250987500    -0.3692648    0.5900329  
   0.252987400    -0.2493257    0.6485184  
   0.254987300    -0.1193504    0.6847928  
   0.256987200     0.0170380    0.6968415  
   0.258987100     0.1549750    0.6847757  
   0.260987000     0.2892013    0.6457059  
   0.262986900     0.4144759    0.5816006  
   0.264986800     0.5255463    0.4951196  
   0.266986700     0.6180263    0.3896207  
   0.268986600     0.6885217    0.2701507  
   0.270986500     0.7349942    0.1418288  
   0.272986400     0.7572558    0.0090964  
   0.274986300     0.7558685   -0.1230133  
   0.276986200     0.7314651   -0.2502056  
   0.278986100     0.6866499   -0.3695087  
   0.280986000     0.6236907   -0.4772340  
   0.282985900     0.5458019   -0.5713850  
   0.284985800     0.4557960   -0.6500799  
   0.286985700     0.3563866   -0.7121208  
   0.288985600     0.2521249   -0.7569842  
   0.290985500     0.1445258   -0.7855573  
   0.292985400     0.0363013   -0.7978690  
   0.294985300    -0.0711145   -0.7943692  
   0.296985200    -0.1764445   -0.7760293  
   0.298985100    -0.2774148   -0.7431706  
   0.300985000    -0.3729068   -0.6968635  
   0.302984900    -0.4601095   -0.6382955  
   0.304984800    -0.5381235   -0.5682446  
   0.306984700    -0.6058695   -0.4879446  
   0.308984600    -0.6615149   -0.3996171  
   0.310984500    -0.7050532   -0.3040210  
   0.312984400    -0.7346752   -0.2020317  
   0.314984300    -0.7495894   -0.0954681  
   0.316984200    -0.7482163    0.0142057  
   0.318984100    -0.7298854    0.1252240  
   0.320984000    -0.6926443    0.2343068  
   0.322983900    -0.6364951    0.3372731  
   0.324983800    -0.5623552    0.4288102  
   0.326983700    -0.4733197    0.5053491  
   0.328983600    -0.3733931    0.5637736  
   0.330983500    -0.2684840    0.6028058  
   0.332983400    -0.1630759    0.6246341  
   0.334983300    -0.0582372    0.6318040  
   0.336983200     0.0453616    0.6259072  
   0.338983100     0.1481812    0.6065688  
   0.340983000     0.2489418    0.5729806  
   0.342982900     0.3460223    0.5235933  
   0.344982800     0.4367661    0.4581853  
   0.346982700     0.5176781    0.3763892  
   0.348982600     0.5837880    0.2795339  
   0.350982500     0.6336448    0.1713163  
   0.352982400     0.6639646    0.0545455  
   0.354982300     0.6725348   -0.0713778  
   0.356982200     0.6541094   -0.2087093  
   0.358982100     0.6082525   -0.3394662  
   0.360982000     0.5377187   -0.4579536  
   0.362981900     0.4449733   -0.5598276  
   0.364981800     0.3343907   -0.6411855  
   0.366981700     0.2106657   -0.6990184  
   0.368981600     0.0789243   -0.7316809  
   0.370981500    -0.0555918   -0.7384992  
   0.372981400    -0.1880506   -0.7197366  
   0.374981300    -0.3137959   -0.6766485  
   0.376981200    -0.2061231   -0.7170448  
   0.378981100    -0.3296491   -0.6710852  
   0.380981000    -0.4421624   -0.6033434  
   0.382980900    -0.5316468   -0.5255712  
   0.384980800    -0.6034545   -0.4392004  
   0.386980700    -0.6612082   -0.3429474  
   0.388980600    -0.7037888   -0.2388315  
   0.390980500    -0.7292091   -0.1303917  
   0.392980400    -0.7381862   -0.0192903  
   0.394980300    -0.7299239    0.0917099  
   0.396980200    -0.7051932    0.2005441  
   0.398980100    -0.6636891    0.3055961  
   0.400980000    -0.6062000    0.4033434  
   0.402979900    -0.5336499    0.4921978  
   0.404979800    -0.4472946    0.5692750  
   0.406979700    -0.3486644    0.6323298  
   0.408979600    -0.2405905    0.6799473  
   0.410979500    -0.1240432    0.7096412  
   0.412979400    -0.0020901    0.7202133  
   0.414979300     0.1211129    0.7094616  
   0.416979200     0.2421390    0.6787946  
   0.418979100     0.3570365    0.6277561  
   0.420979000     0.4626510    0.5572646  
   0.422978900     0.5550212    0.4690259  
   0.424978800     0.6311308    0.3652660  
   0.426978700     0.6882713    0.2495500  
   0.428978600     0.7241894    0.1256223  
   0.430978500     0.7377155   -0.0019790  
   0.432978400     0.7289958   -0.1291130  
   0.434978300     0.6998163   -0.2525719  
   0.436978200     0.6492385   -0.3675679  
   0.438978100     0.5803289   -0.4713663  
   0.440978000     0.4955105   -0.5612287  
   0.442977900     0.3980526   -0.6350294  
   0.444977800     0.2910051   -0.6909850  
   0.446977700     0.1775969   -0.7279301  
   0.448977600     0.0611127   -0.7454554  
   0.450977500    -0.0553879   -0.7443573  
   0.452977400    -0.1693811   -0.7248107  
   0.454977300    -0.2786175   -0.6875156  
   0.456977200    -0.3801925   -0.6337302  
   0.458977100    -0.4712711   -0.5649663  
   0.460977000    -0.5502426   -0.4832322  
   0.462976900    -0.6149356   -0.3910657  
   0.464976800    -0.6643159   -0.2897118  
   0.466976700    -0.6975315   -0.1824885  
   0.468976600    -0.7135803   -0.0711979  
   0.470976500    -0.7118858    0.0418430  
   0.472976400    -0.6922142    0.1532897  
   0.474976300    -0.6550767    0.2609186  
   0.476976200    -0.6010402    0.3619164  
   0.478976100    -0.5309574    0.4532863  
   0.480976000    -0.4465043    0.5321670  
   0.482975900    -0.3499308    0.5971979  
   0.484975800    -0.2430415    0.6455873  
   0.486975700    -0.1281729    0.6757292  
   0.488975600    -0.0088465    0.6861492  
   0.490975500     0.1111410    0.6759395  
   0.492975400     0.2285837    0.6445964  
   0.494975300     0.3390622    0.5934995  
   0.496975200     0.4389847    0.5228509  
   0.498975100     0.5245098    0.4363707  
   0.500975000     0.5928640    0.3364448  
   0.502974900     0.6420156    0.2273864  
   0.504974800     0.6709558    0.1121528  
   0.506974700     0.6793387   -0.0046615  
   0.508974600     0.6674641   -0.1201171  
   0.510974500     0.6370420   -0.2293128  
   0.512974400     0.5899916   -0.3301119  
   0.514974300     0.5283306   -0.4182414  
   0.516974200     0.4568445   -0.4952542  
   0.518974100     0.3764407   -0.5593377  
   0.520974000     0.2898170   -0.6099598  
   0.522973900     0.1980745   -0.6479676  
   0.524973800     0.1029310   -0.6728082  
   0.526973700     0.0055453   -0.6848644  
   0.528973600    -0.0931265   -0.6833427  
   0.530973500    -0.1919724   -0.6683401  
   0.532973400    -0.2889984   -0.6385406  
   0.534973300    -0.3819185   -0.5942923  
   0.536973200    -0.4687595   -0.5356604  
   0.538973100    -0.5463880   -0.4630118  
   0.540973000    -0.6123794   -0.3781600  
   0.542972900    -0.6643445   -0.2826206  
   0.544972800    -0.7007490   -0.1788127  
   0.546972700    -0.7200845   -0.0688806  
   0.548972600    -0.7213520    0.0433505  
   0.550972500    -0.7037719    0.1555474  
   0.552972400    -0.6679858    0.2638940  
   0.554972300    -0.6144772    0.3655944  
   0.556972200    -0.5448577    0.4577849  
   0.558972100    -0.4604023    0.5373194  
   0.560972000    -0.3638308    0.6023530  
   0.562971900    -0.2575727    0.6508246  
   0.564971800    -0.1443855    0.6815520  
   0.566971700    -0.0275536    0.6928564  
   0.568971600     0.0902348    0.6850104  
   0.570971500     0.2056827    0.6575742  
   0.572971400     0.3157792    0.6111824  
   0.574971300     0.4170093    0.5460058  
   0.576971200     0.5068637    0.4642965  
   0.578971100     0.5815941    0.3677102  
   0.580971000     0.6391522    0.2594109  
   0.582970900     0.6767477    0.1430383  
   0.584970800     0.6941540    0.0219160  
   0.586970700     0.6904819   -0.0998584  
   0.588970600     0.6663734   -0.2191792  
   0.590970500     0.6219661   -0.3320180  
   0.592970400     0.5595791   -0.4353036  
   0.594970300     0.4809267   -0.5261071  
   0.596970200     0.3890029   -0.6017675  
   0.598970100     0.2861798   -0.6609642  
   0.600970000     0.1759388   -0.7015226  
   0.602969900     0.0612053   -0.7238742  
   0.604969800    -0.0548532   -0.7269605  
   0.606969700    -0.1692641   -0.7116052  
   0.608969600    -0.2789942   -0.6780660  
   0.610969500    -0.3812191   -0.6280797  
   0.612969400    -0.4736044   -0.5629153  
   0.614969300    -0.5536160   -0.4850004  
   0.616969200    -0.6204538   -0.3963332  
   0.618969100    -0.6722083   -0.2995144  
   0.620969000    -0.7087879   -0.1964679  
   0.622968900    -0.7291700   -0.0894706  
   0.624968800    -0.7335393    0.0195360  
   0.626968700    -0.7216797    0.1282417  
   0.628968600    -0.6931685    0.2345006  
   0.630968500    -0.6492527    0.3350514  
   0.632968400    -0.5899254    0.4288568  
   0.634968300    -0.5167697    0.5128868  
   0.636968200    -0.4308546    0.5855871  
   0.638968100    -0.3345853    0.6440961  
   0.640968000    -0.2287103    0.6877406  
   0.642967900    -0.1169047    0.7143722  
   0.644967800    -0.0010790    0.7230362  
   0.646967700     0.1155185    0.7133725  
   0.648967600     0.2297257    0.6848695  
   0.650967500     0.3385178    0.6377820  
   0.652967400     0.4387788    0.5736282  
   0.654967300     0.5280862    0.4931471  
   0.656967200     0.6028351    0.3991048  
   0.658967100     0.6614437    0.2931029  
   0.660967000     0.7017648    0.1781736  
   0.662966900     0.7224054    0.0575311  
   0.664966800     0.7225531   -0.0658747  
   0.666966700     0.7017438   -0.1877676  
   0.668966600     0.6605667   -0.3036276  
   0.670966500     0.6009211   -0.4110308  
   0.672966400     0.5251130   -0.5071530  
   0.674966300     0.4348095   -0.5872988  
   0.676966200     0.3330452   -0.6506177  
   0.678966100     0.2235921   -0.6958914  
   0.680966000     0.1094067   -0.7222751  
   0.682965900    -0.0060399   -0.7299724  
   0.684965800    -0.1202734   -0.7190309  
   0.686965700    -0.2298979   -0.6904424  
   0.688965600    -0.3329674   -0.6456534  
   0.690965500    -0.4261775   -0.5850477  
   0.692965400    -0.5087910   -0.5123609  
   0.694965300    -0.5785268   -0.4285374  
   0.696965200    -0.6344103   -0.3359865  
   0.698965100    -0.6756524   -0.2360840  
   0.700965000    -0.7010778   -0.1312912  
   0.702964900    -0.7104135   -0.0241699  
   0.704964800    -0.7033831    0.0835162  
   0.706964700    -0.6799076    0.1889226  
   0.708964600    -0.6402355    0.2898906  
   0.710964500    -0.5856344    0.3844863  
   0.712964400    -0.5159916    0.4696636  
   0.714964300    -0.4334878    0.5431503  
   0.716964200    -0.3400173    0.6027849  
   0.718964100    -0.2378842    0.6469734  
   0.720964000    -0.1295993    0.6743655  
   0.722963900    -0.0178003    0.6836963  
   0.724963800     0.0945592    0.6747271  
   0.726963700     0.2041427    0.6475148  
   0.728963600     0.3082747    0.6020541  
   0.730963500     0.4033096    0.5390493  
   0.732963400     0.4863892    0.4621057  
   0.734963300     0.5560043    0.3721203  
   0.736963200     0.6164607    0.2570713  
   0.738963100     0.6543790    0.1327916  
   0.740963000     0.6679291    0.0044241  
   0.742962900     0.6574043   -0.1227363  
   0.744962800     0.6236101   -0.2449023  
   0.746962700     0.5684105   -0.3574347  
   0.748962600     0.4944562   -0.4571740  
   0.750962500     0.5460894   -0.3765841  
   0.752962400     0.4705090   -0.4732899  
   0.754962300     0.3795105   -0.5543312  
   0.756962200     0.2760016   -0.6175808  
   0.758962100     0.1638414   -0.6615165  
   0.760962000     0.0455481   -0.6845461  
   0.762961900    -0.0690135   -0.6872226  
   0.764961800    -0.1732238   -0.6731748  
   0.766961700    -0.2742359   -0.6435178  
   0.768961600    -0.3697977   -0.5984147  
   0.770961500    -0.4577231   -0.5393639  
   0.772961400    -0.5353743   -0.4669604  
   0.774961300    -0.6010951   -0.3833291  
   0.776961200    -0.6533135   -0.2902100  
   0.778961100    -0.6902148   -0.1895626  
   0.780961000    -0.7112209   -0.0839875  
   0.782960900    -0.7149488    0.0241257  
   0.784960800    -0.7016993    0.1322452  
   0.786960700    -0.6711335    0.2369353  
   0.788960600    -0.6242544    0.3360462  
   0.790960500    -0.5620504    0.4266750  
   0.792960400    -0.4864671    0.5062934  
   0.794960300    -0.3989487    0.5730093  
   0.796960200    -0.3018240    0.6248899  
   0.798960100    -0.1977810    0.6609747  
   0.800960000    -0.0892317    0.6803190  
   0.802959900     0.0215427    0.6821203  
   0.804959800     0.1310774    0.6661298  
   0.806959700     0.2370673    0.6329340  
   0.808959600     0.3365339    0.5830649  
   0.810959500     0.4273381    0.5176743  
   0.812959400     0.5066015    0.4383260  
   0.814959300     0.5722689    0.3464278  
   0.816959200     0.6224644    0.2449308  
   0.818959100     0.6555086    0.1360435  
   0.820959000     0.6701003    0.0229521  
   0.822958900     0.6661543   -0.0914536  
   0.824958800     0.6432917   -0.2036536  
   0.826958700     0.6021826   -0.3108464  
   0.828958600     0.5436779   -0.4098524  
   0.830958500     0.4697940   -0.4976210  
   0.832958400     0.3826283   -0.5719336  
   0.834958300     0.2847726   -0.6304159  
   0.836958200     0.1791882   -0.6720747  
   0.838958100     0.0686178   -0.6956829  
   0.840958000    -0.0437306   -0.7010920  
   0.842957900    -0.1550981   -0.6884520  
   0.844957800    -0.2623604   -0.6583062  
   0.846957700    -0.3628003   -0.6114668  
   0.848957600    -0.4541440   -0.5498193  
   0.850957500    -0.5341583   -0.4748946  
   0.852957400    -0.6010821   -0.3888745  
   0.854957300    -0.6536843   -0.2939102  
   0.856957200    -0.6906747   -0.1925189  
   0.858957100    -0.7115989   -0.0872363  
   0.860957000    -0.7161575    0.0191269  
   0.862956900    -0.7046796    0.1239585  
   0.864956800    -0.6778268    0.2256256  
   0.866956700    -0.6364890    0.3216273  
   0.868956600    -0.5810632    0.4098358  
   0.870956500    -0.5133725    0.4892291  
   0.872956400    -0.4342963    0.5578480  
   0.874956300    -0.3453543    0.6143517  
   0.876956200    -0.2479193    0.6571172  
   0.878956100    -0.1445947    0.6851051  
   0.880956000    -0.0371980    0.6968843  
   0.882955900     0.0717014    0.6916410  
   0.884955800     0.1793179    0.6697671  
   0.886955700     0.2828532    0.6306835  
   0.888955600     0.3799855    0.5751693  
   0.890955500     0.4673365    0.5039616  
   0.892955400     0.5426531    0.4192102  
   0.894955300     0.6033842    0.3226701  
