! MS46122B
! 2250307/22442219
! 7/26/2025 10:25:05 AM
! C:\USERS\SPARKY\DOCUMENTS\VNA_DATA\JULY26_2025\295K\PORT4_MOS6.S1P
! CHANNEL.1
! TR.MEASUREMENT
! RAW.DATA
# GHZ S RI R 50.0
! FREQ.GHZ         S11RE         S11IM         
!; PortSelection: Port_1
   0.001000000     1.0456710   -0.0726360  
   0.002999900     0.9475521   -0.2222880  
   0.004999800     0.8215193   -0.0990096  
   0.006999700     0.5206610   -0.3811887  
   0.008999600     0.9293549   -0.0401593  
   0.010999500     0.9137987   -0.2444599  
   0.012999400     0.8744510   -0.3491417  
   0.014999300     0.8343073   -0.4297937  
   0.016999200     0.7928665   -0.5001977  
   0.018999100     0.7484065   -0.5654179  
   0.020999000     0.6993979   -0.6261900  
   0.022998900     0.6449766   -0.6819023  
   0.024998800     0.5768872   -0.6975045  
   0.026998700     0.5185931   -0.7786075  
   0.028998600     0.4447514   -0.8185238  
   0.030998500     0.3635361   -0.8513767  
   0.032998400     0.2792275   -0.8417117  
   0.034998300     0.1783412   -0.8900638  
   0.036998200     0.0751408   -0.8929798  
   0.038998100    -0.0339185   -0.8818832  
   0.040998000    -0.1477197   -0.8537069  
   0.042997900    -0.2642555   -0.8067785  
   0.044997800    -0.3561974   -0.7198672  
   0.046997700    -0.4907462   -0.6432637  
   0.048997600    -0.5902124   -0.5224277  
   0.050997500    -0.6706178   -0.3737135  
   0.052997400    -0.7214039   -0.1996913  
   0.054997300    -0.7319104   -0.0032835  
   0.056997200    -0.6910059    0.2022560  
   0.058997100    -0.5919147    0.3992098  
   0.060997000    -0.4369048    0.5667313  
   0.062996900    -0.2377509    0.6851094  
   0.064996800    -0.0141776    0.7414573  
   0.066996700     0.2103079    0.7322733  
   0.068996600     0.4150032    0.6653694  
   0.070996500     0.5856553    0.5550849  
   0.072996400     0.7151562    0.4153317  
   0.074996300     0.8029994    0.2617883  
   0.076996200     0.8525788    0.1047362  
   0.078996100     0.8692106   -0.0470814  
   0.080996000     0.8588740   -0.1901221  
   0.082995900     0.8262793   -0.3203551  
   0.084995800     0.7753472   -0.4361308  
   0.086995700     0.7119127   -0.5378619  
   0.088995600     0.6378644   -0.6254059  
   0.090995500     0.5558474   -0.6994046  
   0.092995400     0.4681283   -0.7604264  
   0.094995300     0.3747954   -0.8080956  
   0.096995200     0.2787862   -0.8428945  
   0.098995100     0.1803637   -0.8655193  
   0.100995000     0.0793967   -0.8761650  
   0.102994900    -0.0208464   -0.8746547  
   0.104994800    -0.1205884   -0.8612277  
   0.106994700    -0.2190758   -0.8347179  
   0.108994600    -0.3146487   -0.7969995  
   0.110994500    -0.4069751   -0.7470186  
   0.112994400    -0.4938396   -0.6845178  
   0.114994300    -0.5738943   -0.6092344  
   0.116994200    -0.6452053   -0.5211982  
   0.118994100    -0.7058203   -0.4212884  
   0.120994000    -0.7545841   -0.3108245  
   0.122993900    -0.7865567   -0.1886272  
   0.124993800    -0.7999382   -0.0585624  
   0.126993700    -0.7918822    0.0773592  
   0.128993600    -0.7590091    0.2147465  
   0.130993500    -0.7021129    0.3500362  
   0.132993400    -0.6185623    0.4774951  
   0.134993300    -0.5096523    0.5910820  
   0.136993200    -0.3769293    0.6838801  
   0.138993100    -0.2251909    0.7505716  
   0.140993000    -0.0602544    0.7856839  
   0.142992900     0.1101142    0.7862694  
   0.144992800     0.2779379    0.7531486  
   0.146992700     0.4342498    0.6847332  
   0.148992600     0.5718572    0.5869997  
   0.150992500     0.6834997    0.4650691  
   0.152992400     0.7680144    0.3272630  
   0.154992300     0.8227267    0.1801326  
   0.156992200     0.8479708    0.0296385  
   0.158992100     0.8456988   -0.1175997  
   0.160992000     0.8184964   -0.2576515  
   0.162991900     0.7693284   -0.3861502  
   0.164991800     0.7023019   -0.5010450  
   0.166991700     0.6201221   -0.6006297  
   0.168991600     0.5268541   -0.6833711  
   0.170991500     0.4244995   -0.7498375  
   0.172991400     0.3164312   -0.7992947  
   0.174991300     0.2051152   -0.8320920  
   0.176991200     0.0915977   -0.8486270  
   0.178991100    -0.0212744   -0.8490375  
   0.180991000    -0.1318722   -0.8349866  
   0.182990900    -0.2389902   -0.8055708  
   0.184990800    -0.3412029   -0.7620475  
   0.186990700    -0.4364622   -0.7047874  
   0.188990600    -0.5049156   -0.6489242  
   0.190990500    -0.5975589   -0.5549760  
   0.192990400    -0.6654849   -0.4594885  
   0.194990300    -0.7182276   -0.3569025  
   0.196990200    -0.7560964   -0.2465985  
   0.198990100    -0.7783548   -0.1295958  
   0.200990000    -0.7830768   -0.0080604  
   0.202989900    -0.7688712    0.1159343  
   0.204989800    -0.7348960    0.2391300  
   0.206989700    -0.6820782    0.3581505  
   0.208989600    -0.6074668    0.4688480  
   0.210989500    -0.5132450    0.5682588  
   0.212989400    -0.4010931    0.6520476  
   0.214989300    -0.2732124    0.7164961  
   0.216989200    -0.1343848    0.7579724  
   0.218989100     0.0117455    0.7736894  
   0.220989000     0.1597045    0.7627225  
   0.222988900     0.3045658    0.7243578  
   0.224988800     0.4402409    0.6594805  
   0.226988700     0.5612255    0.5714839  
   0.228988600     0.6631839    0.4637405  
   0.230988500     0.7429721    0.3403885  
   0.232988400     0.7977467    0.2060100  
   0.234988300     0.8284927    0.0667669  
   0.236988200     0.8344217   -0.0732208  
   0.238988100     0.8168346   -0.2091930  
   0.240988000     0.7780293   -0.3372940  
   0.242987900     0.7202073   -0.4538447  
   0.244987800     0.6465709   -0.5576208  
   0.246987700     0.5595071   -0.6471740  
   0.248987600     0.4617404   -0.7211308  
   0.250987500     0.3557428   -0.7781740  
   0.252987400     0.2453389   -0.8184656  
   0.254987300     0.1326467   -0.8421937  
   0.256987200     0.0195340   -0.8493267  
   0.258987100    -0.0923349   -0.8424361  
   0.260987000    -0.2013185   -0.8187600  
   0.262986900    -0.3058903   -0.7805976  
   0.264986800    -0.4039150   -0.7288457  
   0.266986700    -0.4937502   -0.6637450  
   0.268986600    -0.5739987   -0.5871056  
   0.270986500    -0.6425507   -0.4999312  
   0.272986400    -0.6990823   -0.4034323  
   0.274986300    -0.7420476   -0.2991660  
   0.276986200    -0.7697766   -0.1878524  
   0.278986100    -0.7816158   -0.0716137  
   0.280986000    -0.7753337    0.0475410  
   0.282985900    -0.7505854    0.1670471  
   0.284985800    -0.7065806    0.2833700  
   0.286985700    -0.6428251    0.3934096  
   0.288985600    -0.5609258    0.4935789  
   0.290985500    -0.4611939    0.5794683  
   0.292985400    -0.3457984    0.6479958  
   0.294985300    -0.2174915    0.6962001  
   0.296985200    -0.0794441    0.7204762  
   0.298985100     0.0634238    0.7185733  
   0.300985000     0.2046979    0.6886911  
   0.302984900     0.3379896    0.6316003  
   0.304984800     0.4571712    0.5490029  
   0.306984700     0.5568429    0.4452348  
   0.308984600     0.6324167    0.3251316  
   0.310984500     0.6812171    0.1955575  
   0.312984400     0.7026227    0.0620469  
   0.314984300     0.6977290   -0.0684518  
   0.316984200     0.6687168   -0.1901468  
   0.318984100     0.6192082   -0.2990427  
   0.320984000     0.5550793   -0.3917683  
   0.322983900     0.4809905   -0.4665397  
   0.324983800     0.4028176   -0.5235970  
   0.326983700     0.3254371   -0.5655111  
   0.328983600     0.2516090   -0.5969957  
   0.330983500     0.1817339   -0.6225131  
   0.332983400     0.1132232   -0.6455672  
   0.334983300     0.0413464   -0.6671016  
   0.336983200    -0.0375435   -0.6848401  
   0.338983100    -0.1255167   -0.6944229  
   0.340983000    -0.2206000   -0.6902745  
   0.342982900    -0.3196689   -0.6694272  
   0.344982800    -0.4177698   -0.6296138  
   0.346982700    -0.5109345   -0.5709776  
   0.348982600    -0.5928341   -0.4948835  
   0.350982500    -0.6623403   -0.4059594  
   0.352982400    -0.7169850   -0.3053620  
   0.354982300    -0.7554916   -0.1919277  
   0.356982200    -0.7762802   -0.0588552  
   0.358982100    -0.7721461    0.0749836  
   0.360982000    -0.7442622    0.2056981  
   0.362981900    -0.6936759    0.3295428  
   0.364981800    -0.6217092    0.4432688  
   0.366981700    -0.5306105    0.5429072  
   0.368981600    -0.4229138    0.6251666  
   0.370981500    -0.3012730    0.6874245  
   0.372981400    -0.1696183    0.7275500  
   0.374981300    -0.0310715    0.7434829  
   0.376981200    -0.1327855    0.7387485  
   0.378981100     0.0116708    0.7478449  
   0.380981000     0.1563807    0.7297225  
   0.382980900     0.2850021    0.6887946  
   0.384980800     0.4007409    0.6290008  
   0.386980700     0.5053584    0.5495560  
   0.388980600     0.5949562    0.4528549  
   0.390980500     0.6665560    0.3424948  
   0.392980400     0.7179224    0.2219665  
   0.394980300     0.7476375    0.0950263  
   0.396980200     0.7553834   -0.0345994  
   0.398980100     0.7411192   -0.1625548  
   0.400980000     0.7056414   -0.2851958  
   0.402979900     0.6503998   -0.3993049  
   0.404979800     0.5781198   -0.5014576  
   0.406979700     0.4911432   -0.5888969  
   0.408979600     0.3925528   -0.6602537  
   0.410979500     0.2842360   -0.7142941  
   0.412979400     0.1698575   -0.7500851  
   0.414979300     0.0525395   -0.7658073  
   0.416979200    -0.0645486   -0.7642072  
   0.418979100    -0.1782725   -0.7449014  
   0.420979000    -0.2867353   -0.7085000  
   0.422978900    -0.3878489   -0.6564689  
   0.424978800    -0.4796994   -0.5904534  
   0.426978700    -0.5596730   -0.5116112  
   0.428978600    -0.6265940   -0.4221035  
   0.430978500    -0.6796042   -0.3240728  
   0.432978400    -0.7169631   -0.2199939  
   0.434978300    -0.7397337   -0.1122565  
   0.436978200    -0.7453794   -0.0018078  
   0.438978100    -0.7344081    0.1088732  
   0.440978000    -0.7071583    0.2171009  
   0.442977900    -0.6639225    0.3207333  
   0.444977800    -0.6051208    0.4173928  
   0.446977700    -0.5316643    0.5044215  
   0.448977600    -0.4451403    0.5802848  
   0.450977500    -0.3470273    0.6424377  
   0.452977400    -0.2388649    0.6893475  
   0.454977300    -0.1231314    0.7185613  
   0.456977200    -0.0026400    0.7292951  
   0.458977100     0.1192498    0.7200760  
   0.460977000     0.2387993    0.6909348  
   0.462976900     0.3526918    0.6419486  
   0.464976800     0.4571142    0.5744763  
   0.466976700     0.5495368    0.4902048  
   0.468976600     0.6265101    0.3913623  
   0.470976500     0.6858122    0.2805908  
   0.472976400     0.7254227    0.1620672  
   0.474976300     0.7448890    0.0387386  
   0.476976200     0.7431697   -0.0852337  
   0.478976100     0.7209505   -0.2060678  
   0.480976000     0.6801924   -0.3201386  
   0.482975900     0.6220592   -0.4245911  
   0.484975800     0.5488484   -0.5169626  
   0.486975700     0.4627421   -0.5957761  
   0.488975600     0.3668463   -0.6594753  
   0.490975500     0.2635185   -0.7065535  
   0.492975400     0.1553556   -0.7372246  
   0.494975300     0.0450662   -0.7512479  
   0.496975200    -0.0647435   -0.7483889  
   0.498975100    -0.1713426   -0.7297965  
   0.500975000    -0.2731095   -0.6960704  
   0.502974900    -0.3682680   -0.6485834  
   0.504974800    -0.4551626   -0.5880218  
   0.506974700    -0.5327037   -0.5161899  
   0.508974600    -0.5995114   -0.4330649  
   0.510974500    -0.6537268   -0.3411924  
   0.512974400    -0.6943480   -0.2422515  
   0.514974300    -0.7186705   -0.1379300  
   0.516974200    -0.7284728   -0.0307647  
   0.518974100    -0.7221547    0.0773482  
   0.520974000    -0.6991698    0.1840822  
   0.522973900    -0.6598239    0.2867728  
   0.524973800    -0.6038901    0.3825669  
   0.526973700    -0.5331196    0.4689126  
   0.528973600    -0.4489822    0.5429010  
   0.530973500    -0.3538290    0.6028006  
   0.532973400    -0.2503309    0.6460475  
   0.534973300    -0.1413514    0.6724285  
   0.536973200    -0.0298912    0.6810656  
   0.538973100     0.0810873    0.6722649  
   0.540973000     0.1885271    0.6462837  
   0.542972900     0.2904325    0.6041701  
   0.544972800     0.3847218    0.5468470  
   0.546972700     0.4694047    0.4754738  
   0.548972600     0.5416543    0.3913903  
   0.550972500     0.6002929    0.2968724  
   0.552972400     0.6437598    0.1936509  
   0.554972300     0.6704123    0.0845582  
   0.556972200     0.6788236   -0.0274370  
   0.558972100     0.6694945   -0.1397121  
   0.560972000     0.6423059   -0.2488680  
   0.562971900     0.5982959   -0.3518419  
   0.564971800     0.5385332   -0.4464137  
   0.566971700     0.4648086   -0.5298383  
   0.568971600     0.3791564   -0.6003906  
   0.570971500     0.2837500   -0.6562836  
   0.572971400     0.1812724   -0.6963106  
   0.574971300     0.0734371   -0.7197044  
   0.576971200    -0.0362761   -0.7262090  
   0.578971100    -0.1457882   -0.7158146  
   0.580971000    -0.2517631   -0.6886526  
   0.582970900    -0.3515746   -0.6459399  
   0.584970800    -0.4431527   -0.5886694  
   0.586970700    -0.5244188   -0.5190378  
   0.588970600    -0.5938364   -0.4383262  
   0.590970500    -0.6504150   -0.3485763  
   0.592970400    -0.6931380   -0.2515632  
   0.594970300    -0.7208650   -0.1496865  
   0.596970200    -0.7334382   -0.0448859  
   0.598970100    -0.7304125    0.0609304  
   0.600970000    -0.7119210    0.1655176  
   0.602969900    -0.6781206    0.2660977  
   0.604969800    -0.6295635    0.3614165  
   0.606969700    -0.5670733    0.4488147  
   0.608969600    -0.4912301    0.5267147  
   0.610969500    -0.4044853    0.5923364  
   0.612969400    -0.3078109    0.6448717  
   0.614969300    -0.2036350    0.6818194  
   0.616969200    -0.0943878    0.7024168  
   0.618969100     0.0166861    0.7061143  
   0.620969000     0.1276276    0.6924198  
   0.622968900     0.2360549    0.6610693  
   0.624968800     0.3389066    0.6124607  
   0.626968700     0.4337532    0.5474287  
   0.628968600     0.5173134    0.4675523  
   0.630968500     0.5870510    0.3742959  
   0.632968400     0.6408188    0.2706769  
   0.634968300     0.6769606    0.1586488  
   0.636968200     0.6938591    0.0429315  
   0.638968100     0.6914366   -0.0746858  
   0.640968000     0.6691817   -0.1898804  
   0.642967900     0.6286239   -0.2993048  
   0.644967800     0.5703877   -0.3999363  
   0.646967700     0.4970307   -0.4889277  
   0.648967600     0.4110486   -0.5638417  
   0.650967500     0.3146459   -0.6231815  
   0.652967400     0.2111309   -0.6653453  
   0.654967300     0.1036084   -0.6907284  
   0.656967200    -0.0053931   -0.6983427  
   0.658967100    -0.1132173   -0.6887037  
   0.660967000    -0.2174093   -0.6625138  
   0.662966900    -0.3158763   -0.6208549  
   0.664966800    -0.4062512   -0.5648428  
   0.666966700    -0.4864211   -0.4957418  
   0.668966600    -0.5547732   -0.4157294  
   0.670966500    -0.6095821   -0.3267862  
   0.672966400    -0.6507602   -0.2310803  
   0.674966300    -0.6763045   -0.1309080  
   0.676966200    -0.6862658   -0.0283475  
   0.678966100    -0.6806877    0.0739959  
   0.680966000    -0.6596980    0.1747976  
   0.682965900    -0.6239343    0.2712589  
   0.684965800    -0.5739999    0.3611966  
   0.686965700    -0.5103933    0.4430259  
   0.688965600    -0.4346738    0.5145104  
   0.690965500    -0.3483284    0.5733594  
   0.692965400    -0.2533784    0.6187264  
   0.694965300    -0.1519846    0.6493602  
   0.696965200    -0.0465757    0.6635426  
   0.698965100     0.0611065    0.6607208  
   0.700965000     0.1677565    0.6405960  
   0.702964900     0.2705459    0.6034099  
   0.704964800     0.3661271    0.5492163  
   0.706964700     0.4524173    0.4796089  
   0.708964600     0.5263078    0.3957275  
   0.710964500     0.5864068    0.3014373  
   0.712964400     0.6288553    0.1976617  
   0.714964300     0.6532328    0.0884247  
   0.716964200     0.6590980   -0.0226129  
   0.718964100     0.6459324   -0.1320047  
   0.720964000     0.6155579   -0.2364334  
   0.722963900     0.5689225   -0.3334163  
   0.724963800     0.5082929   -0.4207264  
   0.726963700     0.4350909   -0.4961959  
   0.728963600     0.3521205   -0.5588194  
   0.730963500     0.2608773   -0.6063322  
   0.732963400     0.1652272   -0.6396435  
   0.734963300     0.0661796   -0.6579486  
   0.736963200    -0.0478055   -0.6605592  
   0.738963100    -0.1598227   -0.6431103  
   0.740963000    -0.2664406   -0.6070616  
   0.742962900    -0.3647393   -0.5535146  
   0.744962800    -0.4522877   -0.4843107  
   0.746962700    -0.5266883   -0.4012716  
   0.748962600    -0.5856895   -0.3063043  
   0.750962500    -0.5476694   -0.3917001  
   0.752962400    -0.6052773   -0.2947904  
   0.754962300    -0.6451054   -0.1890615  
   0.756962200    -0.6663349   -0.0775279  
   0.758962100    -0.6676899    0.0363089  
   0.760962000    -0.6488252    0.1493271  
   0.762961900    -0.6127844    0.2526543  
   0.764961800    -0.5656548    0.3407781  
   0.766961700    -0.5049713    0.4205806  
   0.768961600    -0.4321886    0.4901547  
   0.770961500    -0.3495049    0.5472835  
   0.772961400    -0.2586611    0.5909957  
   0.774961300    -0.1624082    0.6194314  
   0.776961200    -0.0626689    0.6327333  
   0.778961100     0.0384532    0.6301224  
   0.780961000     0.1380872    0.6119655  
   0.782960900     0.2340427    0.5780526  
   0.784960800     0.3239620    0.5289860  
   0.786960700     0.4055446    0.4663030  
   0.788960600     0.4764264    0.3910737  
   0.790960500     0.5342188    0.3056904  
   0.792960400     0.5778674    0.2118039  
   0.794960300     0.6057855    0.1124307  
   0.796960200     0.6174709    0.0094327  
   0.798960100     0.6122421   -0.0937975  
   0.800960000     0.5908232   -0.1946094  
   0.802959900     0.5534750   -0.2909196  
   0.804959800     0.5010694   -0.3798635  
   0.806959700     0.4354745   -0.4588997  
   0.808959600     0.3581660   -0.5267640  
   0.810959500     0.2708361   -0.5811514  
   0.812959400     0.1764064   -0.6211359  
   0.814959300     0.0769842   -0.6453912  
   0.816959200    -0.0248681   -0.6535580  
   0.818959100    -0.1263890   -0.6456997  
   0.820959000    -0.2248389   -0.6220431  
   0.822958900    -0.3185983   -0.5832855  
   0.824958800    -0.4045007   -0.5304863  
   0.826958700    -0.4809396   -0.4653781  
   0.828958600    -0.5462183   -0.3895395  
   0.830958500    -0.5986552   -0.3046316  
   0.832958400    -0.6374175   -0.2132432  
   0.834958300    -0.6616047   -0.1175265  
   0.836958200    -0.6713046   -0.0195369  
   0.838958100    -0.6658977    0.0785107  
   0.840958000    -0.6456847    0.1747094  
   0.842957900    -0.6110564    0.2664864  
   0.844957800    -0.5629433    0.3525851  
   0.846957700    -0.5022256    0.4306060  
   0.848957600    -0.4302997    0.4985954  
   0.850957500    -0.3485838    0.5550289  
   0.852957400    -0.2587450    0.5982982  
   0.854957300    -0.1630247    0.6276260  
   0.856957200    -0.0635062    0.6417270  
   0.858957100     0.0375851    0.6402844  
   0.860957000     0.1371209    0.6229426  
   0.862956900     0.2325995    0.5898656  
   0.864956800     0.3218372    0.5423720  
   0.866956700     0.4024134    0.4811490  
   0.868956600     0.4722782    0.4073336  
   0.870956500     0.5301296    0.3231457  
   0.872956400     0.5744612    0.2302457  
   0.874956300     0.6027358    0.1307410  
   0.876956200     0.6147305    0.0272102  
   0.878956100     0.6095995   -0.0771388  
   0.880956000     0.5868708   -0.1796269  
   0.882955900     0.5475409   -0.2766692  
   0.884955800     0.4921768   -0.3661128  
   0.886955700     0.4232863   -0.4445738  
   0.888955600     0.3423306   -0.5104863  
   0.890955500     0.2520084   -0.5614426  
   0.892955400     0.1549902   -0.5968118  
   0.894955300     0.0541977   -0.6156494  
