! MS46122B
! 2250307/22442219
! 7/28/2025 8:06:56 AM
! C:\USERS\SPARKY\DOCUMENTS\VNA_DATA\JULY28_2025\295K\PORT2_MOS3_REPEAT1.S1P
! CHANNEL.1
! TR.MEASUREMENT
! RAW.DATA
# GHZ S RI R 50.0
! FREQ.GHZ         S11RE         S11IM         
!; PortSelection: Port_1
   0.001000000     1.0467710   -0.0719116  
   0.002999900     0.9647290   -0.1943629  
   0.004999800     0.9039057   -0.2990295  
   0.006999700     0.8361837   -0.3962598  
   0.008999600     0.7562073   -0.4907233  
   0.010999500     0.6616822   -0.5795991  
   0.012999400     0.5469903   -0.6598994  
   0.014999300     0.4068849   -0.7247556  
   0.016999200     0.2362677   -0.7607487  
   0.018999100     0.0337783   -0.7479503  
   0.020999000    -0.1879512   -0.6544653  
   0.022998900    -0.3863223   -0.4488622  
   0.024998800    -0.4658326   -0.1367573  
   0.026998700    -0.4003108    0.2155721  
   0.028998600    -0.1523029    0.4703970  
   0.030998500     0.1588971    0.5620328  
   0.032998400     0.4089215    0.5069169  
   0.034998300     0.6350467    0.3939421  
   0.036998200     0.7626773    0.2427173  
   0.038998100     0.8332368    0.0887127  
   0.040998000     0.8620552   -0.0564546  
   0.042997900     0.8607232   -0.1886103  
   0.044997800     0.8135535   -0.2810585  
   0.046997700     0.7985722   -0.4098869  
   0.048997600     0.7481558   -0.5012533  
   0.050997500     0.6890341   -0.5801028  
   0.052997400     0.6237723   -0.6474032  
   0.054997300     0.5517687   -0.7061525  
   0.056997200     0.4757907   -0.7550968  
   0.058997100     0.3964261   -0.7947239  
   0.060997000     0.3135965   -0.8256738  
   0.062996900     0.2281526   -0.8477687  
   0.064996800     0.1401142   -0.8603541  
   0.066996700     0.0500066   -0.8637864  
   0.068996600    -0.0412791   -0.8568528  
   0.070996500    -0.1335354   -0.8401716  
   0.072996400    -0.2256735   -0.8107301  
   0.074996300    -0.3163533   -0.7694108  
   0.076996200    -0.4043926   -0.7149349  
   0.078996100    -0.4876832   -0.6470433  
   0.080996000    -0.5642399   -0.5645488  
   0.082995900    -0.6310891   -0.4675936  
   0.084995800    -0.6844799   -0.3564613  
   0.086995700    -0.7223700   -0.2328647  
   0.088995600    -0.7396956   -0.0980485  
   0.090995500    -0.7330275    0.0447002  
   0.092995400    -0.6993402    0.1905432  
   0.094995300    -0.6345239    0.3330643  
   0.096995200    -0.5388459    0.4644100  
   0.098995100    -0.4131880    0.5759979  
   0.100995000    -0.2622166    0.6608949  
   0.102994900    -0.0950808    0.7096888  
   0.104994800     0.0793355    0.7198420  
   0.106994700     0.2503408    0.6901085  
   0.108994600     0.4083856    0.6250687  
   0.110994500     0.5453025    0.5296769  
   0.112994400     0.6552263    0.4110293  
   0.114994300     0.7355540    0.2774434  
   0.116994200     0.7859220    0.1364566  
   0.118994100     0.8076223   -0.0052368  
   0.120994000     0.8049932   -0.1427033  
   0.122993900     0.7784184   -0.2716219  
   0.124993800     0.7325440   -0.3891054  
   0.126993700     0.6710349   -0.4939041  
   0.128993600     0.5962809   -0.5838802  
   0.130993500     0.5123783   -0.6599724  
   0.132993400     0.4210138   -0.7215379  
   0.134993300     0.3247589   -0.7686626  
   0.136993200     0.2251101   -0.8013162  
   0.138993100     0.1234770   -0.8200805  
   0.140993000     0.0215545   -0.8255545  
   0.142992900    -0.0797331   -0.8177053  
   0.144992800    -0.1785527   -0.7983421  
   0.146992700    -0.2741563   -0.7648114  
   0.148992600    -0.3652539   -0.7192808  
   0.150992500    -0.4487760   -0.6608501  
   0.152992400    -0.5265529   -0.5919994  
   0.154992300    -0.5951477   -0.5124376  
   0.156992200    -0.6532437   -0.4225828  
   0.158992100    -0.6995785   -0.3237507  
   0.160992000    -0.7322071   -0.2165837  
   0.162991900    -0.7495067   -0.1033442  
   0.164991800    -0.7498265    0.0146265  
   0.166991700    -0.7314752    0.1341956  
   0.168991600    -0.6936806    0.2523652  
   0.170991500    -0.6355976    0.3667576  
   0.172991400    -0.5574089    0.4721770  
   0.174991300    -0.4602655    0.5649081  
   0.176991200    -0.3452966    0.6411176  
   0.178991100    -0.2159307    0.6968961  
   0.180991000    -0.0766899    0.7292485  
   0.182990900     0.0676540    0.7347425  
   0.184990800     0.2123312    0.7128167  
   0.186990700     0.3505102    0.6638889  
   0.188990600     0.4588433    0.6027268  
   0.190990500     0.5830144    0.4965129  
   0.192990400     0.6738792    0.3809905  
   0.194990300     0.7391719    0.2551708  
   0.196990200     0.7799568    0.1228078  
   0.198990100     0.7960815   -0.0118282  
   0.200990000     0.7890965   -0.1449134  
   0.202989900     0.7600070   -0.2718091  
   0.204989800     0.7113330   -0.3885238  
   0.206989700     0.6472337   -0.4941907  
   0.208989600     0.5682812   -0.5852498  
   0.210989500     0.4783286   -0.6615118  
   0.212989400     0.3792378   -0.7220700  
   0.214989300     0.2745514   -0.7664389  
   0.216989200     0.1669733   -0.7942182  
   0.218989100     0.0579946   -0.8061419  
   0.220989000    -0.0506609   -0.8027839  
   0.222988900    -0.1567455   -0.7837198  
   0.224988800    -0.2588385   -0.7502376  
   0.226988700    -0.3548062   -0.7032267  
   0.228988600    -0.4428769   -0.6432865  
   0.230988500    -0.5221197   -0.5713097  
   0.232988400    -0.5897910   -0.4875858  
   0.234988300    -0.6464251   -0.3943733  
   0.236988200    -0.6896616   -0.2928744  
   0.238988100    -0.7176189   -0.1847331  
   0.240988000    -0.7293638   -0.0720421  
   0.242987900    -0.7235605    0.0427968  
   0.244987800    -0.6997796    0.1572596  
   0.246987700    -0.6571115    0.2694587  
   0.248987600    -0.5953736    0.3754717  
   0.250987500    -0.5151511    0.4716680  
   0.252987400    -0.4178286    0.5544899  
   0.254987300    -0.3063669    0.6202931  
   0.256987200    -0.1832019    0.6660092  
   0.258987100    -0.0518527    0.6905901  
   0.260987000     0.0837602    0.6897898  
   0.262986900     0.2186374    0.6637413  
   0.264986800     0.3470219    0.6129779  
   0.266986700     0.4637837    0.5389337  
   0.268986600     0.5644697    0.4452326  
   0.270986500     0.6451069    0.3356323  
   0.272986400     0.7041471    0.2141666  
   0.274986300     0.7396997    0.0858854  
   0.276986200     0.7517081   -0.0445006  
   0.278986100     0.7411813   -0.1734388  
   0.280986000     0.7085720   -0.2957840  
   0.282985900     0.6574449   -0.4090780  
   0.284985800     0.5897040   -0.5103530  
   0.286985700     0.5084818   -0.5970483  
   0.288985600     0.4169944   -0.6679180  
   0.290985500     0.3184883   -0.7228327  
   0.292985400     0.2151901   -0.7617051  
   0.294985300     0.1093707   -0.7845709  
   0.296985200     0.0025284   -0.7919788  
   0.298985100    -0.1035038   -0.7840769  
   0.300985000    -0.2062804   -0.7617568  
   0.302984900    -0.3040745   -0.7258098  
   0.304984800    -0.3950217   -0.6772707  
   0.306984700    -0.4781317   -0.6170915  
   0.308984600    -0.5515891   -0.5470672  
   0.310984500    -0.6148303   -0.4679496  
   0.312984400    -0.6672294   -0.3803402  
   0.314984300    -0.7075391   -0.2860240  
   0.316984200    -0.7347025   -0.1856520  
   0.318984100    -0.7475165   -0.0802806  
   0.320984000    -0.7444710    0.0284777  
   0.322983900    -0.7243143    0.1376575  
   0.324983800    -0.6862696    0.2433029  
   0.326983700    -0.6304692    0.3421606  
   0.328983600    -0.5585237    0.4296795  
   0.330983500    -0.4740334    0.5031775  
   0.332983400    -0.3810157    0.5608312  
   0.334983300    -0.2819442    0.6031942  
   0.336983200    -0.1795207    0.6311862  
   0.338983100    -0.0740976    0.6449223  
   0.340983000     0.0330266    0.6442642  
   0.342982900     0.1403191    0.6277276  
   0.344982800     0.2461897    0.5944067  
   0.346982700     0.3479365    0.5434304  
   0.348982600     0.4408729    0.4748448  
   0.350982500     0.5228593    0.3910363  
   0.352982400     0.5900052    0.2933156  
   0.354982300     0.6409950    0.1798986  
   0.356982200     0.6718034    0.0469104  
   0.358982100     0.6755604   -0.0899582  
   0.360982000     0.6523104   -0.2245581  
   0.362981900     0.6029722   -0.3518389  
   0.364981800     0.5300455   -0.4667141  
   0.366981700     0.4359533   -0.5648785  
   0.368981600     0.3255340   -0.6426939  
   0.370981500     0.2026736   -0.6973597  
   0.372981400     0.0729288   -0.7275866  
   0.374981300    -0.0599292   -0.7326619  
   0.376981200     0.0513109   -0.7326566  
   0.378981100    -0.0794588   -0.7328498  
   0.380981000    -0.2076890   -0.7092329  
   0.382980900    -0.3176529   -0.6687632  
   0.384980800    -0.4140939   -0.6136271  
   0.386980700    -0.5003766   -0.5450292  
   0.388980600    -0.5747793   -0.4642082  
   0.390980500    -0.6356390   -0.3736879  
   0.392980400    -0.6821392   -0.2757612  
   0.394980300    -0.7127787   -0.1726669  
   0.396980200    -0.7280858   -0.0662005  
   0.398980100    -0.7271250    0.0419194  
   0.400980000    -0.7104200    0.1488817  
   0.402979900    -0.6772351    0.2532493  
   0.404979800    -0.6290131    0.3515847  
   0.406979700    -0.5657691    0.4425154  
   0.408979600    -0.4886017    0.5234326  
   0.410979500    -0.3983459    0.5923432  
   0.412979400    -0.2974033    0.6476759  
   0.414979300    -0.1871360    0.6852539  
   0.416979200    -0.0709146    0.7061692  
   0.418979100     0.0479728    0.7083083  
   0.420979000     0.1668165    0.6903994  
   0.422978900     0.2824704    0.6528541  
   0.424978800     0.3912740    0.5959309  
   0.426978700     0.4895599    0.5208265  
   0.428978600     0.5739642    0.4295294  
   0.430978500     0.6413907    0.3254318  
   0.432978400     0.6903332    0.2113714  
   0.434978300     0.7201020    0.0909275  
   0.436978200     0.7276659   -0.0324923  
   0.438978100     0.7142724   -0.1545791  
   0.440978000     0.6808171   -0.2723242  
   0.442977900     0.6282997   -0.3817603  
   0.444977800     0.5586982   -0.4801476  
   0.446977700     0.4749211   -0.5644963  
   0.448977600     0.3794101   -0.6334370  
   0.450977500     0.2750495   -0.6854756  
   0.452977400     0.1645426   -0.7192361  
   0.454977300     0.0505165   -0.7350359  
   0.456977200    -0.0636858   -0.7324761  
   0.458977100    -0.1748652   -0.7120355  
   0.460977000    -0.2811121   -0.6746365  
   0.462976900    -0.3783945   -0.6219534  
   0.464976800    -0.4663273   -0.5550528  
   0.466976700    -0.5423469   -0.4757562  
   0.468976600    -0.6047165   -0.3862140  
   0.470976500    -0.6528838   -0.2883793  
   0.472976400    -0.6854389   -0.1842415  
   0.474976300    -0.7014162   -0.0765245  
   0.476976200    -0.7002769    0.0325424  
   0.478976100    -0.6822873    0.1403192  
   0.480976000    -0.6481312    0.2441261  
   0.482975900    -0.5977198    0.3415635  
   0.484975800    -0.5319729    0.4304117  
   0.486975700    -0.4519674    0.5084373  
   0.488975600    -0.3600938    0.5732204  
   0.490975500    -0.2575890    0.6225972  
   0.492975400    -0.1472435    0.6541406  
   0.494975300    -0.0322984    0.6669338  
   0.496975200     0.0839384    0.6596240  
   0.498975100     0.1973533    0.6324030  
   0.500975000     0.3041086    0.5857487  
   0.502974900     0.4010262    0.5213078  
   0.504974800     0.4846474    0.4412248  
   0.506974700     0.5524033    0.3482437  
   0.508974600     0.6022756    0.2453027  
   0.510974500     0.6333785    0.1372547  
   0.512974400     0.6454029    0.0275996  
   0.514974300     0.6379162   -0.0794058  
   0.516974200     0.6151791   -0.1812175  
   0.518974100     0.5781345   -0.2760378  
   0.520974000     0.5288575   -0.3621253  
   0.522973900     0.4693411   -0.4386022  
   0.524973800     0.4008316   -0.5050040  
   0.526973700     0.3245667   -0.5613133  
   0.528973600     0.2420619   -0.6070604  
   0.530973500     0.1534798   -0.6415612  
   0.532973400     0.0602124   -0.6638030  
   0.534973300    -0.0363578   -0.6727554  
   0.536973200    -0.1351044   -0.6674321  
   0.538973100    -0.2330071   -0.6473818  
   0.540973000    -0.3275244   -0.6120848  
   0.542972900    -0.4170002   -0.5620764  
   0.544972800    -0.4985201   -0.4976445  
   0.546972700    -0.5696500   -0.4196753  
   0.548972600    -0.6284731   -0.3307208  
   0.550972500    -0.6722929   -0.2325589  
   0.552972400    -0.6998331   -0.1275947  
   0.554972300    -0.7102100   -0.0190404  
   0.556972200    -0.7029358    0.0907703  
   0.558972100    -0.6778787    0.1982945  
   0.560972000    -0.6356232    0.3006218  
   0.562971900    -0.5774802    0.3947549  
   0.564971800    -0.5045717    0.4789837  
   0.566971700    -0.4189847    0.5504752  
   0.568971600    -0.3225935    0.6075079  
   0.570971500    -0.2177730    0.6486349  
   0.572971400    -0.1069874    0.6720834  
   0.574971300     0.0072339    0.6773910  
   0.576971200     0.1218535    0.6635658  
   0.578971100     0.2337385    0.6306819  
   0.580971000     0.3384845    0.5791079  
   0.582970900     0.4341601    0.5106398  
   0.584970800     0.5166919    0.4266554  
   0.586970700     0.5841047    0.3298068  
   0.588970600     0.6337883    0.2230742  
   0.590970500     0.6649476    0.1087867  
   0.592970400     0.6760577   -0.0088201  
   0.594970300     0.6669832   -0.1264602  
   0.596970200     0.6381565   -0.2408016  
   0.598970100     0.5904159   -0.3480808  
   0.600970000     0.5254926   -0.4456010  
   0.602969900     0.4455865   -0.5302847  
   0.604969800     0.3526828   -0.6000032  
   0.606969700     0.2507266   -0.6530581  
   0.608969600     0.1412936   -0.6884633  
   0.610969500     0.0286031   -0.7050601  
   0.612969400    -0.0841653   -0.7029362  
   0.614969300    -0.1941897   -0.6832550  
   0.616969200    -0.2983402   -0.6463484  
   0.618969100    -0.3941936   -0.5943153  
   0.620969000    -0.4799925   -0.5285516  
   0.622968900    -0.5542236   -0.4510486  
   0.624968800    -0.6154221   -0.3633588  
   0.626968700    -0.6629180   -0.2678339  
   0.628968600    -0.6948625   -0.1659819  
   0.630968500    -0.7112893   -0.0607809  
   0.632968400    -0.7118052    0.0454155  
   0.634968300    -0.6960887    0.1510688  
   0.636968200    -0.6645455    0.2531533  
   0.638968100    -0.6178933    0.3497921  
   0.640968000    -0.5568270    0.4386094  
   0.642967900    -0.4825378    0.5175327  
   0.644967800    -0.3965690    0.5849016  
   0.646967700    -0.3004391    0.6384421  
   0.648967600    -0.1967201    0.6764857  
   0.650967500    -0.0877736    0.6982005  
   0.652967400     0.0238530    0.7026927  
   0.654967300     0.1358828    0.6895192  
   0.656967200     0.2449974    0.6580737  
   0.658967100     0.3486656    0.6095045  
   0.660967000     0.4439134    0.5438684  
   0.662966900     0.5280028    0.4632696  
   0.664966800     0.5986208    0.3682745  
   0.666966700     0.6527794    0.2619791  
   0.668966600     0.6885368    0.1481310  
   0.670966500     0.7046894    0.0291315  
   0.672966400     0.7019918   -0.0905164  
   0.674966300     0.6775454   -0.2076440  
   0.676966200     0.6345031   -0.3184188  
   0.678966100     0.5738174   -0.4196498  
   0.680966000     0.4977864   -0.5088985  
   0.682965900     0.4084885   -0.5838486  
   0.684965800     0.3097874   -0.6422318  
   0.686965700     0.2031589   -0.6838555  
   0.688965600     0.0921848   -0.7071720  
   0.690965500    -0.0196413   -0.7114971  
   0.692965400    -0.1292547   -0.6995255  
   0.694965300    -0.2345180   -0.6706642  
   0.696965200    -0.3332708   -0.6262058  
   0.698965100    -0.4232383   -0.5676663  
   0.700965000    -0.5025621   -0.4965225  
   0.702964900    -0.5696898   -0.4145298  
   0.704964800    -0.6236191   -0.3240737  
   0.706964700    -0.6629251   -0.2266738  
   0.708964600    -0.6870512   -0.1241940  
   0.710964500    -0.6959980   -0.0195799  
   0.712964400    -0.6884173    0.0854236  
   0.714964300    -0.6646242    0.1881709  
   0.716964200    -0.6254604    0.2862169  
   0.718964100    -0.5717375    0.3767395  
   0.720964000    -0.5047085    0.4585219  
   0.722963900    -0.4254542    0.5288977  
   0.724963800    -0.3356675    0.5864468  
   0.726963700    -0.2372494    0.6290638  
   0.728963600    -0.1327405    0.6559907  
   0.730963500    -0.0249619    0.6650366  
   0.732963400     0.0836167    0.6569473  
   0.734963300     0.1898608    0.6308662  
   0.736963200     0.3052029    0.5803245  
   0.738963100     0.4098550    0.5085748  
   0.740963000     0.4991294    0.4188861  
   0.742962900     0.5696858    0.3137454  
   0.744962800     0.6189048    0.1981651  
   0.746962700     0.6455204    0.0761664  
   0.748962600     0.6491082   -0.0479938  
   0.750962500     0.6355922    0.0511838  
   0.752962400     0.6355310   -0.0709132  
   0.754962300     0.6134478   -0.1900944  
   0.756962200     0.5706043   -0.3026272  
   0.758962100     0.5085582   -0.4049803  
   0.760962000     0.4296640   -0.4943026  
   0.762961900     0.3411246   -0.5646482  
   0.764961800     0.2508951   -0.6152279  
   0.766961700     0.1541592   -0.6516866  
   0.768961600     0.0528492   -0.6726906  
   0.770961500    -0.0508056   -0.6781374  
   0.772961400    -0.1536299   -0.6677009  
   0.774961300    -0.2541567   -0.6415680  
   0.776961200    -0.3497607   -0.6002919  
   0.778961100    -0.4382235   -0.5441157  
   0.780961000    -0.5172241   -0.4746924  
   0.782960900    -0.5843942   -0.3934570  
   0.784960800    -0.6382539   -0.3020163  
   0.786960700    -0.6771225   -0.2030742  
   0.788960600    -0.7001590   -0.0986433  
   0.790960500    -0.7062268    0.0080965  
   0.792960400    -0.6958847    0.1143389  
   0.794960300    -0.6684515    0.2179849  
   0.796960200    -0.6252367    0.3158983  
   0.798960100    -0.5674742    0.4059759  
   0.800960000    -0.4961155    0.4853324  
   0.802959900    -0.4130063    0.5530989  
   0.804959800    -0.3204192    0.6071225  
   0.806959700    -0.2202644    0.6459571  
   0.808959600    -0.1152260    0.6688369  
   0.810959500    -0.0075167    0.6749734  
   0.812959400     0.1004760    0.6635181  
   0.814959300     0.2057952    0.6354684  
   0.816959200     0.3057602    0.5906612  
   0.818959100     0.3976119    0.5303929  
   0.820959000     0.4790444    0.4556066  
   0.822958900     0.5475199    0.3681033  
   0.824958800     0.6014820    0.2701557  
   0.826958700     0.6388247    0.1642271  
   0.828958600     0.6579667    0.0530899  
   0.830958500     0.6588015   -0.0596991  
   0.832958400     0.6407448   -0.1713539  
   0.834958300     0.6049343   -0.2781923  
   0.836958200     0.5516171   -0.3777805  
   0.838958100     0.4828686   -0.4669097  
   0.840958000     0.4002706   -0.5437793  
   0.842957900     0.3063634   -0.6055632  
   0.844957800     0.2038502   -0.6511070  
   0.846957700     0.0956351   -0.6789987  
   0.848957600    -0.0148363   -0.6888732  
   0.850957500    -0.1253524   -0.6809185  
   0.852957400    -0.2322122   -0.6553887  
   0.854957300    -0.3330073   -0.6131912  
   0.856957200    -0.4254243   -0.5560336  
   0.858957100    -0.5069238   -0.4855125  
   0.860957000    -0.5757641   -0.4040416  
   0.862956900    -0.6311372   -0.3138606  
   0.864956800    -0.6714205   -0.2172436  
   0.866956700    -0.6965924   -0.1167240  
   0.868956600    -0.7057049   -0.0139005  
   0.870956500    -0.6999376    0.0887003  
   0.872956400    -0.6791309    0.1891812  
   0.874956300    -0.6432309    0.2852193  
   0.876956200    -0.5938053    0.3756001  
   0.878956100    -0.5311586    0.4578661  
   0.880956000    -0.4564514    0.5300749  
   0.882955900    -0.3713437    0.5906118  
   0.884955800    -0.2775115    0.6379555  
   0.886955700    -0.1771221    0.6709035  
   0.888955600    -0.0721384    0.6882220  
   0.890955500     0.0348479    0.6889592  
   0.892955400     0.1414752    0.6733980  
   0.894955300     0.2451312    0.6408792  
