! MS46122B
! 2250307/22442219
! 7/24/2025 12:35:47 PM
! C:\USERS\SPARKY\DOCUMENTS\VNA_DATA\JULY24_2025\295K\PORT1_MOS4.S1P
! CHANNEL.1
! TR.MEASUREMENT
! RAW.DATA
# GHZ S RI R 50.0
! FREQ.GHZ         S11RE         S11IM         
!; PortSelection: Port_1
   0.001000000     1.0452810   -0.0721950  
   0.002999900     0.9634679   -0.1944602  
   0.004999800     0.9025733   -0.2990570  
   0.006999700     0.8347265   -0.3961748  
   0.008999600     0.7544396   -0.4903541  
   0.010999500     0.6596240   -0.5789562  
   0.012999400     0.5445391   -0.6587021  
   0.014999300     0.4038696   -0.7226751  
   0.016999200     0.2329553   -0.7572401  
   0.018999100     0.0305956   -0.7421060  
   0.020999000    -0.1896884   -0.6454790  
   0.022998900    -0.3840590   -0.4366882  
   0.024998800    -0.4569316   -0.1241553  
   0.026998700    -0.3833172    0.2236495  
   0.028998600    -0.1324335    0.4694315  
   0.030998500     0.1759306    0.5528165  
   0.032998400     0.4202781    0.4937121  
   0.034998300     0.6411954    0.3784244  
   0.036998200     0.7642444    0.2279529  
   0.038998100     0.8315805    0.0749875  
   0.040998000     0.8580382   -0.0685354  
   0.042997900     0.8550233   -0.1991003  
   0.044997800     0.8069856   -0.2898844  
   0.046997700     0.7906732   -0.4176988  
   0.048997600     0.7395042   -0.5075186  
   0.050997500     0.6798609   -0.5850394  
   0.052997400     0.6134202   -0.6518149  
   0.054997300     0.5422426   -0.7082361  
   0.056997200     0.4653700   -0.7564569  
   0.058997100     0.3857150   -0.7949399  
   0.060997000     0.3027028   -0.8246362  
   0.062996900     0.2169044   -0.8453608  
   0.064996800     0.1289750   -0.8566721  
   0.066996700     0.0387991   -0.8586948  
   0.068996600    -0.0523194   -0.8502364  
   0.070996500    -0.1444886   -0.8318532  
   0.072996400    -0.2360603   -0.8007503  
   0.074996300    -0.3260366   -0.7575269  
   0.076996200    -0.4131419   -0.7011059  
   0.078996100    -0.4950307   -0.6311541  
   0.080996000    -0.5699186   -0.5465675  
   0.082995900    -0.6344313   -0.4475910  
   0.084995800    -0.6849254   -0.3346553  
   0.086995700    -0.7192335   -0.2093041  
   0.088995600    -0.7325193   -0.0734631  
   0.090995500    -0.7208874    0.0691712  
   0.092995400    -0.6817566    0.2142113  
   0.094995300    -0.6114659    0.3543543  
   0.096995200    -0.5103934    0.4818898  
   0.098995100    -0.3802106    0.5879643  
   0.100995000    -0.2257568    0.6659636  
   0.102994900    -0.0572157    0.7069423  
   0.104994800     0.1165535    0.7088602  
   0.106994700     0.2844900    0.6712837  
   0.108994600     0.4378851    0.5996258  
   0.110994500     0.5686675    0.4989372  
   0.112994400     0.6716717    0.3767992  
   0.114994300     0.7448969    0.2413199  
   0.116994200     0.7882216    0.1002384  
   0.118994100     0.8034232   -0.0404131  
   0.120994000     0.7950792   -0.1755621  
   0.122993900     0.7632766   -0.3017118  
   0.124993800     0.7134387   -0.4158407  
   0.126993700     0.6485109   -0.5166054  
   0.128993600     0.5709152   -0.6026259  
   0.130993500     0.4851384   -0.6741928  
   0.132993400     0.3924311   -0.7317871  
   0.134993300     0.2954378   -0.7745657  
   0.136993200     0.1952545   -0.8031659  
   0.138993100     0.0934736   -0.8180237  
   0.140993000    -0.0078207   -0.8193280  
   0.142992900    -0.1080296   -0.8073753  
   0.144992800    -0.2060236   -0.7842766  
   0.146992700    -0.2996341   -0.7470098  
   0.148992600    -0.3885880   -0.6978047  
   0.150992500    -0.4698286   -0.6358274  
   0.152992400    -0.5443132   -0.5638386  
   0.154992300    -0.6093055   -0.4813393  
   0.156992200    -0.6633364   -0.3886495  
   0.158992100    -0.7052242   -0.2875230  
   0.160992000    -0.7325209   -0.1785207  
   0.162991900    -0.7443236   -0.0640543  
   0.164991800    -0.7383409    0.0540860  
   0.166991700    -0.7134768    0.1729794  
   0.168991600    -0.6689037    0.2895904  
   0.170991500    -0.6039424    0.4007201  
   0.172991400    -0.5192268    0.5016710  
   0.174991300    -0.4157289    0.5885013  
   0.176991200    -0.2958135    0.6573839  
   0.178991100    -0.1630124    0.7043771  
   0.180991000    -0.0218871    0.7273867  
   0.182990900     0.1226921    0.7225810  
   0.184990800     0.2651592    0.6903525  
   0.186990700     0.3989812    0.6316235  
   0.188990600     0.5020314    0.5633130  
   0.190990500     0.6171904    0.4486441  
   0.192990400     0.6985325    0.3276522  
   0.194990300     0.7538220    0.1987173  
   0.196990200     0.7844164    0.0649457  
   0.198990100     0.7905725   -0.0692856  
   0.200990000     0.7738454   -0.1998035  
   0.202989900     0.7360570   -0.3226973  
   0.204989800     0.6798476   -0.4345788  
   0.206989700     0.6092051   -0.5339659  
   0.208989600     0.5249423   -0.6179821  
   0.210989500     0.4308850   -0.6871111  
   0.212989400     0.3291399   -0.7397303  
   0.214989300     0.2226565   -0.7762357  
   0.216989200     0.1139856   -0.7963472  
   0.218989100     0.0056001   -0.8007687  
   0.220989000    -0.1015928   -0.7896873  
   0.222988900    -0.2056188   -0.7631364  
   0.224988800    -0.3045984   -0.7228704  
   0.226988700    -0.3966763   -0.6690160  
   0.228988600    -0.4800102   -0.6032445  
   0.230988500    -0.5536026   -0.5257472  
   0.232988400    -0.6148756   -0.4367042  
   0.234988300    -0.6641307   -0.3396630  
   0.236988200    -0.6995727   -0.2345019  
   0.238988100    -0.7189415   -0.1240983  
   0.240988000    -0.7212216   -0.0104288  
   0.242987900    -0.7057375    0.1042567  
   0.244987800    -0.6718274    0.2170533  
   0.246987700    -0.6190372    0.3256156  
   0.248987600    -0.5473216    0.4262779  
   0.250987500    -0.4574209    0.5153351  
   0.252987400    -0.3521597    0.5885320  
   0.254987300    -0.2340258    0.6432796  
   0.256987200    -0.1060545    0.6764742  
   0.258987100     0.0279645    0.6873320  
   0.260987000     0.1630018    0.6720351  
   0.262986900     0.2941223    0.6317851  
   0.264986800     0.4159339    0.5673530  
   0.266986700     0.5236046    0.4814045  
   0.268986600     0.6128069    0.3775655  
   0.270986500     0.6807246    0.2603187  
   0.272986400     0.7254446    0.1345495  
   0.274986300     0.7465624    0.0044575  
   0.276986200     0.7446493   -0.1246833  
   0.278986100     0.7203783   -0.2501385  
   0.280986000     0.6760061   -0.3667553  
   0.282985900     0.6140352   -0.4726907  
   0.284985800     0.5376269   -0.5650168  
   0.286985700     0.4494010   -0.6419199  
   0.288985600     0.3527727   -0.7025765  
   0.290985500     0.2509034   -0.7468459  
   0.292985400     0.1457775   -0.7752119  
   0.294985300     0.0394208   -0.7877917  
   0.296985200    -0.0663254   -0.7850423  
   0.298985100    -0.1703225   -0.7674995  
   0.300985000    -0.2700475   -0.7360054  
   0.302984900    -0.3633153   -0.6913435  
   0.304984800    -0.4490594   -0.6348379  
   0.306984700    -0.5258369   -0.5672249  
   0.308984600    -0.5924503   -0.4902733  
   0.310984500    -0.6479211   -0.4054444  
   0.312984400    -0.6918117   -0.3127687  
   0.314984300    -0.7226724   -0.2141704  
   0.316984200    -0.7392757   -0.1106765  
   0.318984100    -0.7407193   -0.0028932  
   0.320984000    -0.7254105    0.1057590  
   0.322983900    -0.6919014    0.2127401  
   0.324983800    -0.6407349    0.3140418  
   0.326983700    -0.5723850    0.4047262  
   0.328983600    -0.4899881    0.4819964  
   0.330983500    -0.3971853    0.5432212  
   0.332983400    -0.2988305    0.5875435  
   0.334983300    -0.1971999    0.6170055  
   0.336983200    -0.0938555    0.6321746  
   0.338983100     0.0111547    0.6335848  
   0.340983000     0.1163466    0.6202824  
   0.342982900     0.2206766    0.5912327  
   0.344982800     0.3213125    0.5453869  
   0.346982700     0.4156872    0.4827046  
   0.348982600     0.4990826    0.4027340  
   0.350982500     0.5695009    0.3092238  
   0.352982400     0.6232086    0.2035915  
   0.354982300     0.6583075    0.0845624  
   0.356982200     0.6705686   -0.0513255  
   0.358982100     0.6553634   -0.1867527  
   0.360982000     0.6136236   -0.3162820  
   0.362981900     0.5474637   -0.4347803  
   0.364981800     0.4592250   -0.5378360  
   0.366981700     0.3528918   -0.6212939  
   0.368981600     0.2333989   -0.6820338  
   0.370981500     0.1049841   -0.7186612  
   0.372981400    -0.0267652   -0.7301425  
   0.374981300    -0.1577768   -0.7163864  
   0.376981200    -0.0469824   -0.7316848  
   0.378981100    -0.1757332   -0.7137781  
   0.380981000    -0.2987393   -0.6734627  
   0.382980900    -0.4012381   -0.6182258  
   0.384980800    -0.4887915   -0.5507871  
   0.386980700    -0.5643772   -0.4713995  
   0.388980600    -0.6270549   -0.3812203  
   0.390980500    -0.6748310   -0.2837823  
   0.392980400    -0.7070677   -0.1802976  
   0.394980300    -0.7233781   -0.0738237  
   0.396980200    -0.7237306    0.0340820  
   0.398980100    -0.7079191    0.1414982  
   0.400980000    -0.6757457    0.2457902  
   0.402979900    -0.6281756    0.3448591  
   0.404979800    -0.5656223    0.4361589  
   0.406979700    -0.4888609    0.5175971  
   0.408979600    -0.3996095    0.5867039  
   0.410979500    -0.2992587    0.6423776  
   0.412979400    -0.1895171    0.6818367  
   0.414979300    -0.0729562    0.7021158  
   0.416979200     0.0460921    0.7046566  
   0.418979100     0.1653214    0.6870836  
   0.420979000     0.2810608    0.6497875  
   0.422978900     0.3900575    0.5930098  
   0.424978800     0.4885855    0.5177743  
   0.426978700     0.5732009    0.4262380  
   0.428978600     0.6409479    0.3212028  
   0.430978500     0.6897317    0.2061850  
   0.432978400     0.7177889    0.0848996  
   0.434978300     0.7255850   -0.0391358  
   0.436978200     0.7111560   -0.1615227  
   0.438978100     0.6763753   -0.2794279  
   0.440978000     0.6223847   -0.3887155  
   0.442977900     0.5513663   -0.4864282  
   0.444977800     0.4660648   -0.5699607  
   0.446977700     0.3689472   -0.6379913  
   0.448977600     0.2635940   -0.6884096  
   0.450977500     0.1523867   -0.7203252  
   0.452977400     0.0384952   -0.7341101  
   0.454977300    -0.0755729   -0.7293252  
   0.456977200    -0.1865958   -0.7069724  
   0.458977100    -0.2922005   -0.6674933  
   0.460977000    -0.3892288   -0.6124166  
   0.462976900    -0.4756946   -0.5436687  
   0.464976800    -0.5501562   -0.4624472  
   0.466976700    -0.6106903   -0.3712254  
   0.468976600    -0.6565480   -0.2720606  
   0.470976500    -0.6866880   -0.1670408  
   0.472976400    -0.7000328   -0.0585014  
   0.474976300    -0.6960857    0.0507830  
   0.476976200    -0.6751778    0.1587357  
   0.478976100    -0.6377968    0.2621748  
   0.480976000    -0.5842559    0.3587657  
   0.482975900    -0.5155693    0.4460095  
   0.484975800    -0.4331480    0.5217617  
   0.486975700    -0.3388463    0.5838115  
   0.488975600    -0.2344438    0.6299264  
   0.490975500    -0.1228838    0.6583927  
   0.492975400    -0.0070002    0.6673745  
   0.494975300     0.1094403    0.6564344  
   0.496975200     0.2227934    0.6251776  
   0.498975100     0.3287486    0.5745588  
   0.500975000     0.4244438    0.5063981  
   0.502974900     0.5059175    0.4229513  
   0.504974800     0.5709691    0.3267753  
   0.506974700     0.6176348    0.2214202  
   0.508974600     0.6453762    0.1108033  
   0.510974500     0.6531597   -0.0010400  
   0.512974400     0.6421667   -0.1102268  
   0.514974300     0.6132213   -0.2125011  
   0.516974200     0.5706914   -0.3073493  
   0.518974100     0.5159174   -0.3923201  
   0.520974000     0.4509708   -0.4666882  
   0.522973900     0.3776065   -0.5302706  
   0.524973800     0.2971582   -0.5820639  
   0.526973700     0.2112243   -0.6231028  
   0.528973600     0.1206400   -0.6517051  
   0.530973500     0.0257642   -0.6684070  
   0.532973400    -0.0711292   -0.6717269  
   0.534973300    -0.1688984   -0.6602146  
   0.536973200    -0.2658713   -0.6350560  
   0.538973100    -0.3586116   -0.5943832  
   0.540973000    -0.4450624   -0.5394478  
   0.542972900    -0.5231069   -0.4704831  
   0.544972800    -0.5901132   -0.3891324  
   0.546972700    -0.6436452   -0.2969130  
   0.548972600    -0.6821394   -0.1960651  
   0.550972500    -0.7039364   -0.0894737  
   0.552972400    -0.7081023    0.0198661  
   0.554972300    -0.6945143    0.1295474  
   0.556972200    -0.6630827    0.2359573  
   0.558972100    -0.6144934    0.3363855  
   0.560972000    -0.5501710    0.4279710  
   0.562971900    -0.4716796    0.5077765  
   0.564971800    -0.3810375    0.5742932  
   0.566971700    -0.2803943    0.6253960  
   0.568971600    -0.1722965    0.6598395  
   0.570971500    -0.0597537    0.6761220  
   0.572971400     0.0549382    0.6738964  
   0.574971300     0.1687964    0.6524710  
   0.576971200     0.2785943    0.6119080  
   0.578971100     0.3806619    0.5530890  
   0.580971000     0.4718212    0.4776969  
   0.582970900     0.5490636    0.3873210  
   0.584970800     0.6098572    0.2850575  
   0.586970700     0.6521316    0.1743610  
   0.588970600     0.6750909    0.0576096  
   0.590970500     0.6776839   -0.0611863  
   0.592970400     0.6600377   -0.1786617  
   0.594970300     0.6227075   -0.2909238  
   0.596970200     0.5671037   -0.3948912  
   0.598970100     0.4948718   -0.4874939  
   0.600970000     0.4089384   -0.5661001  
   0.602969900     0.3110901   -0.6293569  
   0.604969800     0.2051718   -0.6748163  
   0.606969700     0.0935904   -0.7018234  
   0.608969600    -0.0202211   -0.7106149  
   0.610969500    -0.1331145   -0.7003894  
   0.612969400    -0.2417262   -0.6731357  
   0.614969300    -0.3435324   -0.6287212  
   0.616969200    -0.4362515   -0.5696221  
   0.618969100    -0.5173563   -0.4976209  
   0.620969000    -0.5860291   -0.4149718  
   0.622968900    -0.6412941   -0.3231178  
   0.624968800    -0.6817077   -0.2242061  
   0.626968700    -0.7071083   -0.1203453  
   0.628968600    -0.7163937   -0.0137750  
   0.630968500    -0.7094690    0.0927284  
   0.632968400    -0.6866853    0.1975956  
   0.634968300    -0.6479540    0.2978688  
   0.636968200    -0.5946681    0.3918134  
   0.638968100    -0.5275252    0.4767914  
   0.640968000    -0.4469900    0.5513421  
   0.642967900    -0.3560136    0.6126426  
   0.644967800    -0.2554899    0.6601160  
   0.646967700    -0.1482803    0.6913442  
   0.648967600    -0.0365583    0.7054102  
   0.650967500     0.0764308    0.7017428  
   0.652967400     0.1882244    0.6801612  
   0.654967300     0.2961281    0.6406714  
   0.656967200     0.3965973    0.5839632  
   0.658967100     0.4873761    0.5108594  
   0.660967000     0.5657890    0.4236583  
   0.662966900     0.6292076    0.3229730  
   0.664966800     0.6756055    0.2125732  
   0.666966700     0.7027577    0.0953701  
   0.668966600     0.7098362   -0.0252289  
   0.670966500     0.6965350   -0.1455016  
   0.672966400     0.6641820   -0.2611286  
   0.674966300     0.6122456   -0.3692625  
   0.676966200     0.5430599   -0.4663946  
   0.678966100     0.4601844   -0.5496127  
   0.680966000     0.3645740   -0.6176423  
   0.682965900     0.2606416   -0.6683506  
   0.684965800     0.1508114   -0.7013263  
   0.686965700     0.0381670   -0.7158912  
   0.688965600    -0.0741073   -0.7123845  
   0.690965500    -0.1830578   -0.6906323  
   0.692965400    -0.2864027   -0.6533039  
   0.694965300    -0.3814232   -0.6008718  
   0.696965200    -0.4667037   -0.5353021  
   0.698965100    -0.5403803   -0.4576481  
   0.700965000    -0.6011577   -0.3703045  
   0.702964900    -0.6478013   -0.2754544  
   0.704964800    -0.6793977   -0.1745994  
   0.706964700    -0.6953431   -0.0704688  
   0.708964600    -0.6954651    0.0353948  
   0.710964500    -0.6797366    0.1403458  
   0.712964400    -0.6476675    0.2415503  
   0.714964300    -0.5998942    0.3370363  
   0.716964200    -0.5382001    0.4239637  
   0.718964100    -0.4633926    0.5006489  
   0.720964000    -0.3772958    0.5647490  
   0.722963900    -0.2817868    0.6147263  
   0.724963800    -0.1792517    0.6489398  
   0.726963700    -0.0718272    0.6664101  
   0.728963600     0.0376230    0.6662328  
   0.730963500     0.1460795    0.6476635  
   0.732963400     0.2501133    0.6119836  
   0.734963300     0.3474579    0.5591837  
   0.736963200     0.4471536    0.4804162  
   0.738963100     0.5307186    0.3838348  
   0.740963000     0.5940914    0.2735421  
   0.742962900     0.6356350    0.1538797  
   0.744962800     0.6537672    0.0294677  
   0.746962700     0.6486250   -0.0951157  
   0.748962600     0.6209168   -0.2159090  
   0.750962500     0.6336254   -0.1183529  
   0.752962400     0.6030331   -0.2365993  
   0.754962300     0.5518005   -0.3463994  
   0.756962200     0.4819799   -0.4446759  
   0.758962100     0.3965899   -0.5281883  
   0.760962000     0.2977681   -0.5951128  
   0.762961900     0.1945455   -0.6417373  
   0.764961800     0.0942097   -0.6687598  
   0.766961700    -0.0086470   -0.6804094  
   0.768961600    -0.1127448   -0.6759090  
   0.770961500    -0.2149378   -0.6556807  
   0.772961400    -0.3128113   -0.6198946  
   0.774961300    -0.4044185   -0.5695360  
   0.776961200    -0.4873209   -0.5051770  
   0.778961100    -0.5595119   -0.4285800  
   0.780961000    -0.6189476   -0.3410908  
   0.782960900    -0.6641899   -0.2449273  
   0.784960800    -0.6938067   -0.1422587  
   0.786960700    -0.7068610   -0.0358850  
   0.788960600    -0.7027682    0.0716176  
   0.790960500    -0.6819799    0.1770613  
   0.792960400    -0.6447253    0.2778771  
   0.794960300    -0.5917807    0.3720846  
   0.796960200    -0.5251502    0.4564530  
   0.798960100    -0.4457724    0.5292218  
   0.800960000    -0.3558807    0.5888372  
   0.802959900    -0.2575434    0.6335550  
   0.804959800    -0.1533102    0.6626540  
   0.806959700    -0.0460324    0.6749855  
   0.808959600     0.0624813    0.6700045  
   0.810959500     0.1690954    0.6479493  
   0.812959400     0.2715715    0.6088958  
   0.814959300     0.3669203    0.5539080  
   0.816959200     0.4524610    0.4842259  
   0.818959100     0.5262758    0.4008251  
   0.820959000     0.5859091    0.3063192  
   0.822958900     0.6293222    0.2028750  
   0.824958800     0.6555856    0.0932834  
   0.826958700     0.6631527   -0.0197470  
   0.828958600     0.6520627   -0.1324150  
   0.830958500     0.6224988   -0.2419743  
   0.832958400     0.5754324   -0.3452350  
   0.834958300     0.5116248   -0.4389010  
   0.836958200     0.4334237   -0.5209243  
   0.838958100     0.3432358   -0.5886518  
   0.840958000     0.2431260   -0.6406161  
   0.842957900     0.1361217   -0.6751322  
   0.844957800     0.0255812   -0.6917545  
   0.846957700    -0.0856813   -0.6903560  
   0.848957600    -0.1947178   -0.6707500  
   0.850957500    -0.2987314   -0.6342060  
   0.852957400    -0.3948289   -0.5819336  
   0.854957300    -0.4811113   -0.5156019  
   0.856957200    -0.5554159   -0.4368840  
   0.858957100    -0.6160139   -0.3484050  
   0.860957000    -0.6618298   -0.2524338  
   0.862956900    -0.6922191   -0.1516989  
   0.864956800    -0.7068934   -0.0483212  
   0.866956700    -0.7057925    0.0551406  
   0.868956600    -0.6894157    0.1569868  
   0.870956500    -0.6582321    0.2548894  
   0.872956400    -0.6129938    0.3473731  
   0.874956300    -0.5542713    0.4321108  
   0.876956200    -0.4834465    0.5076534  
   0.878956100    -0.4011710    0.5723617  
   0.880956000    -0.3100636    0.6240886  
   0.882955900    -0.2113969    0.6620855  
   0.884955800    -0.1074856    0.6845856  
   0.886955700    -0.0005257    0.6908988  
   0.888955600     0.1070634    0.6805225  
   0.890955500     0.2122607    0.6534612  
   0.892955400     0.3129284    0.6097065  
   0.894955300     0.4057457    0.5498810  
