! MS46122B
! 2250307/22442219
! 7/21/2025 12:06:02 PM
! C:\USERS\SPARKY\DOCUMENTS\VNA_DATA\JULY21_2025\295K\PORT2_MOS2.S1P
! CHANNEL.1
! TR.MEASUREMENT
! RAW.DATA
# GHZ S RI R 50.0
! FREQ.GHZ         S11RE         S11IM         
!; PortSelection: Port_1
   0.001000000     1.0454280   -0.0710656  
   0.002999900     0.9634768   -0.1933687  
   0.004999800     0.9037764   -0.2980012  
   0.006999700     0.8345454   -0.3966720  
   0.008999600     0.7548090   -0.4905153  
   0.010999500     0.6602104   -0.5792350  
   0.012999400     0.5452042   -0.6589847  
   0.014999300     0.4069760   -0.7233015  
   0.016999200     0.2361804   -0.7604121  
   0.018999100     0.0337752   -0.7476882  
   0.020999000    -0.1871573   -0.6550109  
   0.022998900    -0.3853345   -0.4513611  
   0.024998800    -0.4664283   -0.1417574  
   0.026998700    -0.4050981    0.2092775  
   0.028998600    -0.1614735    0.4663752  
   0.030998500     0.1477739    0.5624685  
   0.032998400     0.3989915    0.5111789  
   0.034998300     0.6270342    0.4012194  
   0.036998200     0.7571204    0.2513249  
   0.038998100     0.8299285    0.0977202  
   0.040998000     0.8605153   -0.0475343  
   0.042997900     0.8606691   -0.1800423  
   0.044997800     0.8145646   -0.2733328  
   0.046997700     0.8006468   -0.4023668  
   0.048997600     0.7510213   -0.4943466  
   0.050997500     0.6925058   -0.5737329  
   0.052997400     0.6274673   -0.6421471  
   0.054997300     0.5569862   -0.7003984  
   0.056997200     0.4808909   -0.7503745  
   0.058997100     0.4020236   -0.7905468  
   0.060997000     0.3196312   -0.8220519  
   0.062996900     0.2346965   -0.8448188  
   0.064996800     0.1471228   -0.8580052  
   0.066996700     0.0573603   -0.8622290  
   0.068996600    -0.0335117   -0.8561172  
   0.070996500    -0.1253258   -0.8404208  
   0.072996400    -0.2171914   -0.8121482  
   0.074996300    -0.3076058   -0.7720640  
   0.076996200    -0.3954310   -0.7190262  
   0.078996100    -0.4788185   -0.6528084  
   0.080996000    -0.5556300   -0.5721743  
   0.082995900    -0.6233593   -0.4772471  
   0.084995800    -0.6779145   -0.3683105  
   0.086995700    -0.7175732   -0.2468105  
   0.088995600    -0.7372885   -0.1139265  
   0.090995500    -0.7337664    0.0270970  
   0.092995400    -0.7039970    0.1719281  
   0.094995300    -0.6436645    0.3143705  
   0.096995200    -0.5528414    0.4467953  
   0.098995100    -0.4322299    0.5609164  
   0.100995000    -0.2850572    0.6499294  
   0.102994900    -0.1210806    0.7040192  
   0.104994800     0.0518290    0.7201763  
   0.106994700     0.2230471    0.6969169  
   0.108994600     0.3828575    0.6378682  
   0.110994500     0.5230328    0.5478457  
   0.112994400     0.6373624    0.4332222  
   0.114994300     0.7226630    0.3023118  
   0.116994200     0.7783107    0.1625861  
   0.118994100     0.8050921    0.0212555  
   0.120994000     0.8070714   -0.1165654  
   0.122993900     0.7843114   -0.2468598  
   0.124993800     0.7420174   -0.3665783  
   0.126993700     0.6834828   -0.4736769  
   0.128993600     0.6112569   -0.5658615  
   0.130993500     0.5293657   -0.6445771  
   0.132993400     0.4396340   -0.7090127  
   0.134993300     0.3444721   -0.7588528  
   0.136993200     0.2455559   -0.7943119  
   0.138993100     0.1442350   -0.8159335  
   0.140993000     0.0428350   -0.8238844  
   0.142992900    -0.0582069   -0.8185488  
   0.144992800    -0.1570733   -0.8020430  
   0.146992700    -0.2534333   -0.7712454  
   0.148992600    -0.3451533   -0.7284833  
   0.150992500    -0.4298695   -0.6727697  
   0.152992400    -0.5085958   -0.6065537  
   0.154992300    -0.5789884   -0.5299653  
   0.156992200    -0.6393474   -0.4428217  
   0.158992100    -0.6881534   -0.3463365  
   0.160992000    -0.7238601   -0.2418060  
   0.162991900    -0.7448666   -0.1303689  
   0.164991800    -0.7492774   -0.0140257  
   0.166991700    -0.7356704    0.1043657  
   0.168991600    -0.7030433    0.2224882  
   0.170991500    -0.6504670    0.3375280  
   0.172991400    -0.5781574    0.4446783  
   0.174991300    -0.4864606    0.5404295  
   0.176991200    -0.3765779    0.6210229  
   0.178991100    -0.2518245    0.6823841  
   0.180991000    -0.1162160    0.7214347  
   0.182990900     0.0264409    0.7345390  
   0.184990800     0.1708262    0.7206011  
   0.186990700     0.3106347    0.6796378  
   0.188990600     0.4213108    0.6251107  
   0.190990500     0.5509269    0.5266831  
   0.192990400     0.6480301    0.4167571  
   0.194990300     0.7203333    0.2949848  
   0.196990200     0.7684272    0.1651658  
   0.198990100     0.7925505    0.0311078  
   0.200990000     0.7927823   -0.1020039  
   0.202989900     0.7706704   -0.2306746  
   0.204989800     0.7284451   -0.3505156  
   0.206989700     0.6698561   -0.4599448  
   0.208989600     0.5957721   -0.5549459  
   0.210989500     0.5091777   -0.6361368  
   0.212989400     0.4135494   -0.7020141  
   0.214989300     0.3111999   -0.7512977  
   0.216989200     0.2046914   -0.7847593  
   0.218989100     0.0967187   -0.8020955  
   0.220989000    -0.0115972   -0.8041344  
   0.222988900    -0.1184580   -0.7904604  
   0.224988800    -0.2219854   -0.7623748  
   0.226988700    -0.3193592   -0.7203652  
   0.228988600    -0.4098503   -0.6652781  
   0.230988500    -0.4921137   -0.5982990  
   0.232988400    -0.5633603   -0.5189683  
   0.234988300    -0.6242915   -0.4300165  
   0.236988200    -0.6724045   -0.3321733  
   0.238988100    -0.7063648   -0.2269655  
   0.240988000    -0.7244588   -0.1170030  
   0.242987900    -0.7257516   -0.0037290  
   0.244987800    -0.7093043    0.1103894  
   0.246987700    -0.6745923    0.2232351  
   0.248987600    -0.6209785    0.3314756  
   0.250987500    -0.5487008    0.4314608  
   0.252987400    -0.4589978    0.5195177  
   0.254987300    -0.3542500    0.5920560  
   0.256987200    -0.2367382    0.6463255  
   0.258987100    -0.1092226    0.6806652  
   0.260987000     0.0242582    0.6905184  
   0.262986900     0.1595094    0.6756179  
   0.264986800     0.2904307    0.6360033  
   0.266986700     0.4119262    0.5723962  
   0.268986600     0.5195014    0.4876826  
   0.270986500     0.6088879    0.3853326  
   0.272986400     0.6776011    0.2694046  
   0.274986300     0.7235575    0.1446306  
   0.276986200     0.7462268    0.0149890  
   0.278986100     0.7459441   -0.1142359  
   0.280986000     0.7230327   -0.2394179  
   0.282985900     0.6805304   -0.3568352  
   0.284985800     0.6202413   -0.4632507  
   0.286985700     0.5455726   -0.5562894  
   0.288985600     0.4592222   -0.6338937  
   0.290985500     0.3644498   -0.6958272  
   0.292985400     0.2638723   -0.7418271  
   0.294985300     0.1596437   -0.7720954  
   0.296985200     0.0534159   -0.7867665  
   0.298985100    -0.0524474   -0.7860464  
   0.300985000    -0.1565291   -0.7706393  
   0.302984900    -0.2560157   -0.7414235  
   0.304984800    -0.3495083   -0.6992146  
   0.306984700    -0.4356133   -0.6453809  
   0.308984600    -0.5128562   -0.5809233  
   0.310984500    -0.5807245   -0.5069704  
   0.312984400    -0.6380697   -0.4247620  
   0.314984300    -0.6845582   -0.3348793  
   0.316984200    -0.7186278   -0.2386470  
   0.318984100    -0.7391367   -0.1365272  
   0.320984000    -0.7447586   -0.0299795  
   0.322983900    -0.7345019    0.0783234  
   0.324983800    -0.7064736    0.1850327  
   0.326983700    -0.6613935    0.2869626  
   0.328983600    -0.5991210    0.3802602  
   0.330983500    -0.5231657    0.4612851  
   0.332983400    -0.4366229    0.5277665  
   0.334983300    -0.3424325    0.5799310  
   0.336983200    -0.2424619    0.6180830  
   0.338983100    -0.1383219    0.6417204  
   0.340983000    -0.0313876    0.6506127  
   0.342982900     0.0772420    0.6438113  
   0.344982800     0.1858293    0.6202448  
   0.346982700     0.2915120    0.5789946  
   0.348982600     0.3900057    0.5195086  
   0.350982500     0.4790705    0.4441049  
   0.352982400     0.5552098    0.3535988  
   0.354982300     0.6167790    0.2463515  
   0.356982200     0.6604785    0.1175090  
   0.358982100     0.6780302   -0.0177110  
   0.360982000     0.6685067   -0.1531385  
   0.362981900     0.6327613   -0.2843277  
   0.364981800     0.5720243   -0.4059251  
   0.366981700     0.4891846   -0.5131087  
   0.368981600     0.3875579   -0.6014726  
   0.370981500     0.2714064   -0.6685982  
   0.372981400     0.1453443   -0.7119781  
   0.374981300     0.0140713   -0.7307245  
   0.376981200     0.1233440   -0.7192512  
   0.378981100    -0.0064845   -0.7327943  
   0.380981000    -0.1356377   -0.7223920  
   0.382980900    -0.2488666   -0.6929316  
   0.384980800    -0.3494692   -0.6484132  
   0.386980700    -0.4415305   -0.5889551  
   0.388980600    -0.5235472   -0.5164232  
   0.390980500    -0.5926833   -0.4331222  
   0.392980400    -0.6476806   -0.3416191  
   0.394980300    -0.6885942   -0.2430953  
   0.396980200    -0.7142474   -0.1400792  
   0.398980100    -0.7246116   -0.0340287  
   0.400980000    -0.7190218    0.0728288  
   0.402979900    -0.6973991    0.1781280  
   0.404979800    -0.6605917    0.2795544  
   0.406979700    -0.6083690    0.3749075  
   0.408979600    -0.5420086    0.4620381  
   0.410979500    -0.4619109    0.5394524  
   0.412979400    -0.3693200    0.6043839  
   0.414979300    -0.2662428    0.6537001  
   0.416979200    -0.1556850    0.6876015  
   0.418979100    -0.0400584    0.7035207  
   0.420979000     0.0779305    0.7007365  
   0.422978900     0.1953164    0.6781990  
   0.424978800     0.3081923    0.6361731  
   0.426978700     0.4137367    0.5753056  
   0.428978600     0.5078597    0.4971390  
   0.430978500     0.5874774    0.4038801  
   0.432978400     0.6503412    0.2985657  
   0.434978300     0.6952901    0.1845007  
   0.436978200     0.7191339    0.0643560  
   0.438978100     0.7223684   -0.0576997  
   0.440978000     0.7049295   -0.1781150  
   0.442977900     0.6682264   -0.2929333  
   0.444977800     0.6129193   -0.3991464  
   0.446977700     0.5412983   -0.4937637  
   0.448977600     0.4562247   -0.5747542  
   0.450977500     0.3598430   -0.6400720  
   0.452977400     0.2550619   -0.6883528  
   0.454977300     0.1444611   -0.7187172  
   0.456977200     0.0312772   -0.7312514  
   0.458977100    -0.0816444   -0.7256328  
   0.460977000    -0.1908275   -0.7025104  
   0.462976900    -0.2941020   -0.6631958  
   0.464976800    -0.3892296   -0.6086203  
   0.466976700    -0.4742260   -0.5407160  
   0.468976600    -0.5474128   -0.4609124  
   0.470976500    -0.6071516   -0.3709154  
   0.472976400    -0.6525045   -0.2734125  
   0.474976300    -0.6825223   -0.1702331  
   0.476976200    -0.6960320   -0.0639001  
   0.478976100    -0.6930667    0.0435939  
   0.480976000    -0.6736296    0.1492387  
   0.482975900    -0.6381167    0.2506917  
   0.484975800    -0.5869653    0.3459212  
   0.486975700    -0.5206605    0.4328262  
   0.488975600    -0.4407282    0.5086771  
   0.490975500    -0.3489772    0.5713640  
   0.492975400    -0.2469048    0.6184136  
   0.494975300    -0.1377292    0.6479421  
   0.496975200    -0.0241958    0.6588883  
   0.498975100     0.0897753    0.6502574  
   0.500975000     0.2008303    0.6218265  
   0.502974900     0.3049223    0.5744418  
   0.504974800     0.3990810    0.5102133  
   0.506974700     0.4800787    0.4306718  
   0.508974600     0.5455035    0.3384586  
   0.510974500     0.5930343    0.2376653  
   0.512974400     0.6227644    0.1325785  
   0.514974300     0.6326060    0.0267399  
   0.516974200     0.6266526   -0.0769670  
   0.518974100     0.6053697   -0.1754902  
   0.520974000     0.5705609   -0.2677003  
   0.522973900     0.5242034   -0.3522108  
   0.524973800     0.4674580   -0.4279673  
   0.526973700     0.4016720   -0.4952955  
   0.528973600     0.3276286   -0.5523913  
   0.530973500     0.2463364   -0.5999052  
   0.532973400     0.1586909   -0.6360787  
   0.534973300     0.0658565   -0.6595444  
   0.536973200    -0.0310851   -0.6698427  
   0.538973100    -0.1294094   -0.6650847  
   0.540973000    -0.2268201   -0.6456409  
   0.542972900    -0.3215002   -0.6108676  
   0.544972800    -0.4107231   -0.5611479  
   0.546972700    -0.4921583   -0.4970529  
   0.548972600    -0.5628562   -0.4197821  
   0.550972500    -0.6211920   -0.3319514  
   0.552972400    -0.6649348   -0.2347639  
   0.554972300    -0.6925606   -0.1311474  
   0.556972200    -0.7031900   -0.0241574  
   0.558972100    -0.6966127    0.0840418  
   0.560972000    -0.6727818    0.1898008  
   0.562971900    -0.6321635    0.2906457  
   0.564971800    -0.5760055    0.3836635  
   0.566971700    -0.5055190    0.4671528  
   0.568971600    -0.4224872    0.5384569  
   0.570971500    -0.3285801    0.5959029  
   0.572971400    -0.2258255    0.6378945  
   0.574971300    -0.1170946    0.6628969  
   0.576971200    -0.0044655    0.6700292  
   0.578971100     0.1088100    0.6582226  
   0.580971000     0.2193515    0.6277238  
   0.582970900     0.3233261    0.5792403  
   0.584970800     0.4184001    0.5139204  
   0.586970700     0.5011923    0.4331183  
   0.588970600     0.5696282    0.3389755  
   0.590970500     0.6209474    0.2351585  
   0.592970400     0.6541661    0.1233369  
   0.594970300     0.6678230    0.0074833  
   0.596970200     0.6614282   -0.1085674  
   0.598970100     0.6357763   -0.2219735  
   0.600970000     0.5910751   -0.3291709  
   0.602969900     0.5292625   -0.4268495  
   0.604969800     0.4521299   -0.5125294  
   0.606969700     0.3619868   -0.5834507  
   0.608969600     0.2619868   -0.6385789  
   0.610969500     0.1548167   -0.6755859  
   0.612969400     0.0440272   -0.6943576  
   0.614969300    -0.0671588   -0.6947264  
   0.616969200    -0.1757158   -0.6775804  
   0.618969100    -0.2788248   -0.6438360  
   0.620969000    -0.3740769   -0.5949275  
   0.622968900    -0.4604197   -0.5319948  
   0.624968800    -0.5355923   -0.4571799  
   0.626968700    -0.5982375   -0.3719898  
   0.628968600    -0.6470315   -0.2784476  
   0.630968500    -0.6808343   -0.1788181  
   0.632968400    -0.6992571   -0.0756375  
   0.634968300    -0.7017804    0.0294159  
   0.636968200    -0.6886526    0.1334443  
   0.638968100    -0.6599724    0.2345754  
   0.640968000    -0.6161194    0.3308078  
   0.642967900    -0.5581332    0.4192232  
   0.644967800    -0.4869046    0.4984660  
   0.646967700    -0.4041628    0.5664594  
   0.648967600    -0.3112801    0.6211752  
   0.650967500    -0.2107816    0.6609350  
   0.652967400    -0.1047213    0.6849520  
   0.654967300     0.0047306    0.6922823  
   0.656967200     0.1147080    0.6824781  
   0.658967100     0.2223062    0.6547862  
   0.660967000     0.3254818    0.6099270  
   0.662966900     0.4214593    0.5479809  
   0.664966800     0.5066610    0.4708682  
   0.666966700     0.5789553    0.3792892  
   0.668966600     0.6352754    0.2766026  
   0.670966500     0.6737009    0.1655422  
   0.672966400     0.6942202    0.0497661  
   0.674966300     0.6943088   -0.0679695  
   0.676966200     0.6739439   -0.1837752  
   0.678966100     0.6350756   -0.2938059  
   0.680966000     0.5786704   -0.3951830  
   0.682965900     0.5068093   -0.4854916  
   0.684965800     0.4218809   -0.5619690  
   0.686965700     0.3260594   -0.6229983  
   0.688965600     0.2226211   -0.6675662  
   0.690965500     0.1141968   -0.6932542  
   0.692965400     0.0045796   -0.7021804  
   0.694965300    -0.1038412   -0.6939701  
   0.696965200    -0.2085378   -0.6690089  
   0.698965100    -0.3074261   -0.6288058  
   0.700965000    -0.3980874   -0.5741742  
   0.702964900    -0.4785373   -0.5068741  
   0.704964800    -0.5474972   -0.4283983  
   0.706964700    -0.6037441   -0.3411371  
   0.708964600    -0.6457890   -0.2462197  
   0.710964500    -0.6736550   -0.1462648  
   0.712964400    -0.6853608   -0.0438845  
   0.714964300    -0.6815625    0.0596275  
   0.716964200    -0.6618980    0.1607875  
   0.718964100    -0.6272451    0.2581440  
   0.720964000    -0.5781748    0.3487581  
   0.722963900    -0.5158093    0.4313190  
   0.724963800    -0.4409971    0.5033440  
   0.726963700    -0.3554244    0.5632715  
   0.728963600    -0.2607701    0.6090659  
   0.730963500    -0.1594972    0.6393778  
   0.732963400    -0.0546781    0.6531852  
   0.734963300     0.0523972    0.6498393  
   0.736963200     0.1731500    0.6249040  
   0.738963100     0.2880498    0.5775810  
   0.740963000     0.3921147    0.5095019  
   0.742962900     0.4816185    0.4236584  
   0.744962800     0.5532334    0.3223674  
   0.746962700     0.6044555    0.2102290  
   0.748962600     0.6339491    0.0910088  
   0.750962500     0.5992110    0.1859107  
   0.752962400     0.6246604    0.0680171  
   0.754962300     0.6284017   -0.0521986  
   0.756962200     0.6102369   -0.1701282  
   0.758962100     0.5714326   -0.2820609  
   0.760962000     0.5133110   -0.3849883  
   0.762961900     0.4420237   -0.4714939  
   0.764961800     0.3649604   -0.5389050  
   0.766961700     0.2784301   -0.5936983  
   0.768961600     0.1846086   -0.6348522  
   0.770961500     0.0855997   -0.6608201  
   0.772961400    -0.0165514   -0.6713933  
   0.774961300    -0.1185789   -0.6662880  
   0.776961200    -0.2195320   -0.6453595  
   0.778961100    -0.3160496   -0.6091211  
   0.780961000    -0.4064364   -0.5577848  
   0.782960900    -0.4876888   -0.4928924  
   0.784960800    -0.5581780   -0.4153731  
   0.786960700    -0.6156443   -0.3276993  
   0.788960600    -0.6585582   -0.2317736  
   0.790960500    -0.6860572   -0.1300258  
   0.792960400    -0.6971332   -0.0256027  
   0.794960300    -0.6919171    0.0795973  
   0.796960200    -0.6700445    0.1824227  
   0.798960100    -0.6326143    0.2805859  
   0.800960000    -0.5804396    0.3715242  
   0.802959900    -0.5143812    0.4536076  
   0.804959800    -0.4365683    0.5238315  
   0.806959700    -0.3488846    0.5817125  
   0.808959600    -0.2525299    0.6250616  
   0.810959500    -0.1509836    0.6531162  
   0.812959400    -0.0453802    0.6649650  
   0.814959300     0.0609492    0.6598572  
   0.816959200     0.1656898    0.6382801  
   0.818959100     0.2662394    0.6001013  
   0.820959000     0.3600363    0.5460767  
   0.822958900     0.4444181    0.4774234  
   0.824958800     0.5167468    0.3954654  
   0.826958700     0.5754434    0.3024544  
   0.828958600     0.6183549    0.2005301  
   0.830958500     0.6437773    0.0927362  
   0.832958400     0.6513353   -0.0181786  
   0.834958300     0.6404579   -0.1287113  
   0.836958200     0.6113851   -0.2357988  
   0.838958100     0.5651392   -0.3370903  
   0.840958000     0.5027936   -0.4291918  
   0.842957900     0.4260176   -0.5098528  
   0.844957800     0.3371270   -0.5764938  
   0.846957700     0.2388590   -0.6274714  
   0.848957600     0.1335129   -0.6614002  
   0.850957500     0.0251107   -0.6775582  
   0.852957400    -0.0842606   -0.6760599  
   0.854957300    -0.1911766   -0.6569830  
   0.856957200    -0.2929701   -0.6210750  
   0.858957100    -0.3871936   -0.5700198  
   0.860957000    -0.4711782   -0.5054007  
   0.862956900    -0.5433832   -0.4293049  
   0.864956800    -0.6027007   -0.3441193  
   0.866956700    -0.6479453   -0.2514871  
   0.868956600    -0.6777703   -0.1539854  
   0.870956500    -0.6933863   -0.0535851  
   0.872956400    -0.6935859    0.0475840  
   0.874956300    -0.6787273    0.1476047  
   0.876956200    -0.6489564    0.2448866  
   0.878956100    -0.6053905    0.3363433  
   0.880956000    -0.5484561    0.4206976  
   0.882955900    -0.4790120    0.4957126  
   0.884955800    -0.3992111    0.5601144  
   0.886955700    -0.3100362    0.6120425  
   0.888955600    -0.2135735    0.6501605  
   0.890955500    -0.1118646    0.6733025  
   0.892955400    -0.0072857    0.6804178  
   0.894955300     0.0978729    0.6716368  
