! MS46122B
! 2250307/22442219
! 7/26/2025 10:32:28 AM
! C:\USERS\SPARKY\DOCUMENTS\VNA_DATA\JULY26_2025\295K\PORT4_MOS6_REPEAT1.S1P
! CHANNEL.1
! TR.MEASUREMENT
! RAW.DATA
# GHZ S RI R 50.0
! FREQ.GHZ         S11RE         S11IM         
!; PortSelection: Port_1
   0.001000000     1.0457090   -0.0725877  
   0.002999900     0.9475126   -0.2221444  
   0.004999800     0.8210050   -0.0983648  
   0.006999700     0.5213742   -0.3810900  
   0.008999600     0.9294066   -0.0399081  
   0.010999500     0.9138993   -0.2442966  
   0.012999400     0.8745730   -0.3489939  
   0.014999300     0.8343873   -0.4295969  
   0.016999200     0.7928599   -0.5001631  
   0.018999100     0.7485710   -0.5653236  
   0.020999000     0.6995831   -0.6260069  
   0.022998900     0.6451491   -0.6817314  
   0.024998800     0.5770962   -0.6973040  
   0.026998700     0.5187886   -0.7784140  
   0.028998600     0.4450519   -0.8183292  
   0.030998500     0.3638229   -0.8512605  
   0.032998400     0.2794897   -0.8416086  
   0.034998300     0.1789909   -0.8900661  
   0.036998200     0.0754775   -0.8929727  
   0.038998100    -0.0335713   -0.8818291  
   0.040998000    -0.1473061   -0.8537209  
   0.042997900    -0.2637843   -0.8068886  
   0.044997800    -0.3557492   -0.7200524  
   0.046997700    -0.4903594   -0.6435198  
   0.048997600    -0.5898675   -0.5227648  
   0.050997500    -0.6703123   -0.3741619  
   0.052997400    -0.7210548   -0.2006582  
   0.054997300    -0.7317877   -0.0037840  
   0.056997200    -0.6910232    0.2017127  
   0.058997100    -0.5920637    0.3987128  
   0.060997000    -0.4372352    0.5663615  
   0.062996900    -0.2380734    0.6848199  
   0.064996800    -0.0145100    0.7412982  
   0.066996700     0.2099696    0.7322240  
   0.068996600     0.4147494    0.6654601  
   0.070996500     0.5854681    0.5552156  
   0.072996400     0.7150561    0.4154977  
   0.074996300     0.8028949    0.2619199  
   0.076996200     0.8525899    0.1049692  
   0.078996100     0.8692486   -0.0469482  
   0.080996000     0.8589277   -0.1899570  
   0.082995900     0.8265125   -0.3201337  
   0.084995800     0.7754894   -0.4360005  
   0.086995700     0.7120342   -0.5377606  
   0.088995600     0.6381029   -0.6252474  
   0.090995500     0.5560749   -0.6993477  
   0.092995400     0.4684554   -0.7603531  
   0.094995300     0.3750695   -0.8080940  
   0.096995200     0.2790841   -0.8428658  
   0.098995100     0.1806587   -0.8655639  
   0.100995000     0.0796589   -0.8762833  
   0.102994900    -0.0205865   -0.8747748  
   0.104994800    -0.1203791   -0.8613442  
   0.106994700    -0.2187901   -0.8349260  
   0.108994600    -0.3143227   -0.7972254  
   0.110994500    -0.4066599   -0.7473078  
   0.112994400    -0.4935067   -0.6848575  
   0.114994300    -0.5736458   -0.6095996  
   0.116994200    -0.6450359   -0.5216301  
   0.118994100    -0.7056499   -0.4217662  
   0.120994000    -0.7545698   -0.3111307  
   0.122993900    -0.7865106   -0.1891495  
   0.124993800    -0.7999708   -0.0591356  
   0.126993700    -0.7920119    0.0767859  
   0.128993600    -0.7592203    0.2142310  
   0.130993500    -0.7024064    0.3495941  
   0.132993400    -0.6190408    0.4771423  
   0.134993300    -0.5101237    0.5908086  
   0.136993200    -0.3773516    0.6836818  
   0.138993100    -0.2256124    0.7504931  
   0.140993000    -0.0607963    0.7857781  
   0.142992900     0.1097383    0.7863927  
   0.144992800     0.2776826    0.7532497  
   0.146992700     0.4340548    0.6849249  
   0.148992600     0.5717137    0.5871882  
   0.150992500     0.6834361    0.4653539  
   0.152992400     0.7679995    0.3275517  
   0.154992300     0.8227848    0.1803971  
   0.156992200     0.8479493    0.0299831  
   0.158992100     0.8459094   -0.1173647  
   0.160992000     0.8187289   -0.2574583  
   0.162991900     0.7695904   -0.3859830  
   0.164991800     0.7024814   -0.5011296  
   0.166991700     0.6205947   -0.6003621  
   0.168991600     0.5271437   -0.6833989  
   0.170991500     0.4247911   -0.7498861  
   0.172991400     0.3168320   -0.7993429  
   0.174991300     0.2055995   -0.8321390  
   0.176991200     0.0920239   -0.8487927  
   0.178991100    -0.0208071   -0.8492052  
   0.180991000    -0.1314483   -0.8352293  
   0.182990900    -0.2386447   -0.8058766  
   0.184990800    -0.3408414   -0.7622077  
   0.186990700    -0.4359469   -0.7052696  
   0.188990600    -0.5046132   -0.6493527  
   0.190990500    -0.5973567   -0.5554497  
   0.192990400    -0.6653528   -0.4599198  
   0.194990300    -0.7181472   -0.3574248  
   0.196990200    -0.7560988   -0.2471123  
   0.198990100    -0.7784379   -0.1300987  
   0.200990000    -0.7832481   -0.0083414  
   0.202989900    -0.7690535    0.1155182  
   0.204989800    -0.7351730    0.2386557  
   0.206989700    -0.6822341    0.3578014  
   0.208989600    -0.6077939    0.4685478  
   0.210989500    -0.5135764    0.5680401  
   0.212989400    -0.4013638    0.6520056  
   0.214989300    -0.2735710    0.7164708  
   0.216989200    -0.1347570    0.7579730  
   0.218989100     0.0114369    0.7737873  
   0.220989000     0.1594194    0.7628886  
   0.222988900     0.3042451    0.7245329  
   0.224988800     0.4399714    0.6597815  
   0.226988700     0.5612684    0.5717099  
   0.228988600     0.6631629    0.4639713  
   0.230988500     0.7429684    0.3407343  
   0.232988400     0.7976715    0.2064734  
   0.234988300     0.8286629    0.0671422  
   0.236988200     0.8346377   -0.0728447  
   0.238988100     0.8170288   -0.2087054  
   0.240988000     0.7784173   -0.3369980  
   0.242987900     0.7206274   -0.4536077  
   0.244987800     0.6470119   -0.5573919  
   0.246987700     0.5601026   -0.6470687  
   0.248987600     0.4623519   -0.7210504  
   0.250987500     0.3563790   -0.7782522  
   0.252987400     0.2458483   -0.8185914  
   0.254987300     0.1331655   -0.8423600  
   0.256987200     0.0200572   -0.8495865  
   0.258987100    -0.0919289   -0.8427516  
   0.260987000    -0.2008930   -0.8191360  
   0.262986900    -0.3055135   -0.7809917  
   0.264986800    -0.4033271   -0.7295417  
   0.266986700    -0.4934399   -0.6642295  
   0.268986600    -0.5737664   -0.5876001  
   0.270986500    -0.6424026   -0.5004371  
   0.272986400    -0.6989710   -0.4040121  
   0.274986300    -0.7420267   -0.2996607  
   0.276986200    -0.7698185   -0.1883247  
   0.278986100    -0.7817481   -0.0720780  
   0.280986000    -0.7755360    0.0471976  
   0.282985900    -0.7508607    0.1666550  
   0.284985800    -0.7068940    0.2830029  
   0.286985700    -0.6431721    0.3930680  
   0.288985600    -0.5613148    0.4932548  
   0.290985500    -0.4615567    0.5793233  
   0.292985400    -0.3461901    0.6479416  
   0.294985300    -0.2177889    0.6962662  
   0.296985200    -0.0798433    0.7205820  
   0.298985100     0.0630218    0.7187564  
   0.300985000     0.2043206    0.6890397  
   0.302984900     0.3378100    0.6319078  
   0.304984800     0.4569246    0.5494672  
   0.306984700     0.5567802    0.4456754  
   0.308984600     0.6324599    0.3256046  
   0.310984500     0.6814230    0.1959437  
   0.312984400     0.7028956    0.0624444  
   0.314984300     0.6980449   -0.0681674  
   0.316984200     0.6691451   -0.1898734  
   0.318984100     0.6197094   -0.2988871  
   0.320984000     0.5555999   -0.3916482  
   0.322983900     0.4814203   -0.4665330  
   0.324983800     0.4032696   -0.5237033  
   0.326983700     0.3257445   -0.5656341  
   0.328983600     0.2519004   -0.5971534  
   0.330983500     0.1819536   -0.6226423  
   0.332983400     0.1134635   -0.6456755  
   0.334983300     0.0415408   -0.6671879  
   0.336983200    -0.0372613   -0.6849420  
   0.338983100    -0.1252086   -0.6945648  
   0.340983000    -0.2203162   -0.6904716  
   0.342982900    -0.3193739   -0.6696992  
   0.344982800    -0.4175459   -0.6298958  
   0.346982700    -0.5107119   -0.5713852  
   0.348982600    -0.5927095   -0.4952800  
   0.350982500    -0.6622554   -0.4063781  
   0.352982400    -0.7167838   -0.3058398  
   0.354982300    -0.7556416   -0.1923186  
   0.356982200    -0.7762196   -0.0595798  
   0.358982100    -0.7723804    0.0745341  
   0.360982000    -0.7445576    0.2052539  
   0.362981900    -0.6939665    0.3294050  
   0.364981800    -0.6220351    0.4431333  
   0.366981700    -0.5310238    0.5427807  
   0.368981600    -0.4232129    0.6252188  
   0.370981500    -0.3017108    0.6874532  
   0.372981400    -0.1701077    0.7276496  
   0.374981300    -0.0314824    0.7436919  
   0.376981200    -0.1332582    0.7388846  
   0.378981100     0.0112116    0.7480904  
   0.380981000     0.1559635    0.7300605  
   0.382980900     0.2847114    0.6892719  
   0.384980800     0.4003850    0.6295398  
   0.386980700     0.5051803    0.5500727  
   0.388980600     0.5948946    0.4534110  
   0.390980500     0.6665640    0.3430877  
   0.392980400     0.7180390    0.2225523  
   0.394980300     0.7478469    0.0955946  
   0.396980200     0.7556863   -0.0340710  
   0.398980100     0.7415269   -0.1621065  
   0.400980000     0.7060405   -0.2848258  
   0.402979900     0.6509092   -0.3989810  
   0.404979800     0.5787494   -0.5011784  
   0.406979700     0.4916809   -0.5887849  
   0.408979600     0.3931283   -0.6601976  
   0.410979500     0.2847966   -0.7143248  
   0.412979400     0.1704003   -0.7501977  
   0.414979300     0.0530753   -0.7659992  
   0.416979200    -0.0640329   -0.7645301  
   0.418979100    -0.1778069   -0.7451579  
   0.420979000    -0.2865065   -0.7088448  
   0.422978900    -0.3876249   -0.6568785  
   0.424978800    -0.4795403   -0.5909129  
   0.426978700    -0.5597641   -0.5119939  
   0.428978600    -0.6265333   -0.4225768  
   0.430978500    -0.6795719   -0.3245426  
   0.432978400    -0.7170222   -0.2203889  
   0.434978300    -0.7398611   -0.1126492  
   0.436978200    -0.7455859   -0.0021571  
   0.438978100    -0.7346781    0.1084916  
   0.440978000    -0.7075368    0.2167996  
   0.442977900    -0.6642755    0.3205111  
   0.444977800    -0.6054575    0.4174601  
   0.446977700    -0.5320867    0.5043145  
   0.448977600    -0.4456207    0.5802985  
   0.450977500    -0.3475228    0.6424583  
   0.452977400    -0.2393703    0.6894734  
   0.454977300    -0.1236199    0.7187409  
   0.456977200    -0.0030615    0.7295616  
   0.458977100     0.1188603    0.7204192  
   0.460977000     0.2385516    0.6912914  
   0.462976900     0.3523483    0.6424295  
   0.464976800     0.4568835    0.5750385  
   0.466976700     0.5494193    0.4907655  
   0.468976600     0.6264518    0.3919569  
   0.470976500     0.6858560    0.2811608  
   0.472976400     0.7255704    0.1625893  
   0.474976300     0.7450880    0.0391934  
   0.476976200     0.7434943   -0.0847744  
   0.478976100     0.7213985   -0.2057267  
   0.480976000     0.6806125   -0.3198729  
   0.482975900     0.6224549   -0.4243798  
   0.484975800     0.5493229   -0.5169709  
   0.486975700     0.4631495   -0.5957869  
   0.488975600     0.3672776   -0.6595128  
   0.490975500     0.2639143   -0.7066621  
   0.492975400     0.1556628   -0.7374890  
   0.494975300     0.0454001   -0.7515200  
   0.496975200    -0.0645341   -0.7486161  
   0.498975100    -0.1711583   -0.7301139  
   0.500975000    -0.2730277   -0.6963643  
   0.502974900    -0.3680766   -0.6489689  
   0.504974800    -0.4550319   -0.5884593  
   0.506974700    -0.5327069   -0.5165856  
   0.508974600    -0.5995883   -0.4334647  
   0.510974500    -0.6538659   -0.3416043  
   0.512974400    -0.6945857   -0.2425928  
   0.514974300    -0.7189392   -0.1382082  
   0.516974200    -0.7287672   -0.0311172  
   0.518974100    -0.7225032    0.0770283  
   0.520974000    -0.6995730    0.1838094  
   0.522973900    -0.6602522    0.2865055  
   0.524973800    -0.6043772    0.3823186  
   0.526973700    -0.5336227    0.4687857  
   0.528973600    -0.4495418    0.5428230  
   0.530973500    -0.3544342    0.6027301  
   0.532973400    -0.2508836    0.6461520  
   0.534973300    -0.1419680    0.6725862  
   0.536973200    -0.0303583    0.6812904  
   0.538973100     0.0806356    0.6725385  
   0.540973000     0.1881384    0.6466107  
   0.542972900     0.2901320    0.6045384  
   0.544972800     0.3844114    0.5472828  
   0.546972700     0.4692139    0.4758022  
   0.548972600     0.5415361    0.3918240  
   0.550972500     0.6002167    0.2973091  
   0.552972400     0.6438011    0.1940641  
   0.554972300     0.6704926    0.0850081  
   0.556972200     0.6789824   -0.0270762  
   0.558972100     0.6697448   -0.1392282  
   0.560972000     0.6425467   -0.2487292  
   0.562971900     0.5985970   -0.3515767  
   0.564971800     0.5387514   -0.4464425  
   0.566971700     0.4651876   -0.5297440  
   0.568971600     0.3795196   -0.6003872  
   0.570971500     0.2840733   -0.6563850  
   0.572971400     0.1817231   -0.6963814  
   0.574971300     0.0736851   -0.7199723  
   0.576971200    -0.0362081   -0.7265324  
   0.578971100    -0.1455723   -0.7161713  
   0.580971000    -0.2515983   -0.6890271  
   0.582970900    -0.3514644   -0.6463475  
   0.584970800    -0.4431447   -0.5890922  
   0.586970700    -0.5244447   -0.5194764  
   0.588970600    -0.5938833   -0.4387864  
   0.590970500    -0.6505638   -0.3490142  
   0.592970400    -0.6933604   -0.2520163  
   0.594970300    -0.7211323   -0.1500906  
   0.596970200    -0.7337521   -0.0452386  
   0.598970100    -0.7307718    0.0605912  
   0.600970000    -0.7123643    0.1651981  
   0.602969900    -0.6785783    0.2658589  
   0.604969800    -0.6300380    0.3611988  
   0.606969700    -0.5676051    0.4486785  
   0.608969600    -0.4916655    0.5266395  
   0.610969500    -0.4050005    0.5923502  
   0.612969400    -0.3083460    0.6446360  
   0.614969300    -0.2041122    0.6819379  
   0.616969200    -0.0947678    0.7027035  
   0.618969100     0.0163120    0.7063492  
   0.620969000     0.1273089    0.6927029  
   0.622968900     0.2358259    0.6613621  
   0.624968800     0.3386724    0.6128204  
   0.626968700     0.4336068    0.5478780  
   0.628968600     0.5172144    0.4679162  
   0.630968500     0.5870371    0.3746762  
   0.632968400     0.6408805    0.2710448  
   0.634968300     0.6771029    0.1589380  
   0.636968200     0.6940498    0.0432039  
   0.638968100     0.6916891   -0.0744661  
   0.640968000     0.6696179   -0.1898685  
   0.642967900     0.6288876   -0.2991131  
   0.644967800     0.5707533   -0.3999799  
   0.646967700     0.4973881   -0.4889915  
   0.648967600     0.4112901   -0.5640544  
   0.650967500     0.3151301   -0.6234292  
   0.652967400     0.2114153   -0.6656302  
   0.654967300     0.1038380   -0.6910625  
   0.656967200    -0.0052296   -0.6987196  
   0.658967100    -0.1131745   -0.6891450  
   0.660967000    -0.2173249   -0.6629564  
   0.662966900    -0.3158458   -0.6213049  
   0.664966800    -0.4062392   -0.5652905  
   0.666966700    -0.4864776   -0.4962030  
   0.668966600    -0.5548329   -0.4161486  
   0.670966500    -0.6097173   -0.3272319  
   0.672966400    -0.6509879   -0.2315003  
   0.674966300    -0.6765193   -0.1313202  
   0.676966200    -0.6865565   -0.0287137  
   0.678966100    -0.6809745    0.0736017  
   0.680966000    -0.6600465    0.1745122  
   0.682965900    -0.6243580    0.2708873  
   0.684965800    -0.5744126    0.3609865  
   0.686965700    -0.5107974    0.4428584  
   0.688965600    -0.4351450    0.5143691  
   0.690965500    -0.3487066    0.5733171  
   0.692965400    -0.2537760    0.6187524  
   0.694965300    -0.1525509    0.6494694  
   0.696965200    -0.0469095    0.6637056  
   0.698965100     0.0608135    0.6609218  
   0.700965000     0.1674722    0.6408554  
   0.702964900     0.2703588    0.6037178  
   0.704964800     0.3660917    0.5495219  
   0.706964700     0.4524627    0.4799536  
   0.708964600     0.5262880    0.3961720  
   0.710964500     0.5863765    0.3019872  
   0.712964400     0.6290830    0.1980822  
   0.714964300     0.6535225    0.0888003  
   0.716964200     0.6594215   -0.0223221  
   0.718964100     0.6464080   -0.1319333  
   0.720964000     0.6160390   -0.2363561  
   0.722963900     0.5694512   -0.3335090  
   0.724963800     0.5086641   -0.4207463  
   0.726963700     0.4355142   -0.4963666  
   0.728963600     0.3525758   -0.5589545  
   0.730963500     0.2612555   -0.6066359  
   0.732963400     0.1654791   -0.6400135  
   0.734963300     0.0664705   -0.6583202  
   0.736963200    -0.0475982   -0.6609963  
   0.738963100    -0.1596926   -0.6435535  
   0.740963000    -0.2663340   -0.6075517  
   0.742962900    -0.3647224   -0.5540078  
   0.744962800    -0.4522853   -0.4848077  
   0.746962700    -0.5267644   -0.4017525  
   0.748962600    -0.5857962   -0.3066587  
   0.750962500    -0.5476848   -0.3921328  
   0.752962400    -0.6053582   -0.2952018  
   0.754962300    -0.6452561   -0.1894500  
   0.756962200    -0.6665229   -0.0779481  
   0.758962100    -0.6678751    0.0359970  
   0.760962000    -0.6490914    0.1490245  
   0.762961900    -0.6130824    0.2523697  
   0.764961800    -0.5659607    0.3405708  
   0.766961700    -0.5053215    0.4204473  
   0.768961600    -0.4325783    0.4899844  
   0.770961500    -0.3498390    0.5472342  
   0.772961400    -0.2590065    0.5909766  
   0.774961300    -0.1627219    0.6194572  
   0.776961200    -0.0629169    0.6328502  
   0.778961100     0.0382333    0.6302966  
   0.780961000     0.1378765    0.6121503  
   0.782960900     0.2338752    0.5783267  
   0.784960800     0.3238403    0.5292872  
   0.786960700     0.4055040    0.4666388  
   0.788960600     0.4764266    0.3914120  
   0.790960500     0.5342833    0.3059956  
   0.792960400     0.5779281    0.2121570  
   0.794960300     0.6060123    0.1126970  
   0.796960200     0.6177509    0.0096641  
   0.798960100     0.6125966   -0.0936008  
   0.800960000     0.5911695   -0.1944591  
   0.802959900     0.5538648   -0.2908544  
   0.804959800     0.5014427   -0.3798309  
   0.806959700     0.4358912   -0.4589609  
   0.808959600     0.3585420   -0.5269077  
   0.810959500     0.2712285   -0.5813177  
   0.812959400     0.1767492   -0.6214079  
   0.814959300     0.0772575   -0.6456586  
   0.816959200    -0.0245436   -0.6538758  
   0.818959100    -0.1261145   -0.6460482  
   0.820959000    -0.2246550   -0.6223958  
   0.822958900    -0.3184134   -0.5837042  
   0.824958800    -0.4043207   -0.5308974  
   0.826958700    -0.4808722   -0.4657050  
   0.828958600    -0.5462283   -0.3898452  
   0.830958500    -0.5986547   -0.3051589  
   0.832958400    -0.6374488   -0.2136033  
   0.834958300    -0.6617427   -0.1179355  
   0.836958200    -0.6714722   -0.0198579  
   0.838958100    -0.6661054    0.0783015  
   0.840958000    -0.6458936    0.1745177  
   0.842957900    -0.6112598    0.2663873  
   0.844957800    -0.5632111    0.3524634  
   0.846957700    -0.5024203    0.4304920  
   0.848957600    -0.4306611    0.4984806  
   0.850957500    -0.3489332    0.5550296  
   0.852957400    -0.2591543    0.5983967  
   0.854957300    -0.1633678    0.6277643  
   0.856957200    -0.0638369    0.6419165  
   0.858957100     0.0372837    0.6405323  
   0.860957000     0.1368583    0.6232577  
   0.862956900     0.2324714    0.5902249  
   0.864956800     0.3217804    0.5427339  
   0.866956700     0.4024670    0.4815199  
   0.868956600     0.4723720    0.4076972  
   0.870956500     0.5303233    0.3234614  
   0.872956400     0.5746653    0.2306072  
   0.874956300     0.6029730    0.1310201  
   0.876956200     0.6150076    0.0274359  
   0.878956100     0.6099867   -0.0769964  
   0.880956000     0.5872437   -0.1793967  
   0.882955900     0.5479180   -0.2766415  
   0.884955800     0.4927095   -0.3659358  
   0.886955700     0.4236589   -0.4446273  
   0.888955600     0.3426912   -0.5105743  
   0.890955500     0.2523024   -0.5616023  
   0.892955400     0.1553979   -0.5969849  
   0.894955300     0.0545232   -0.6158922  
