! MS46122B
! 2250307/22442219
! 7/28/2025 8:00:41 AM
! C:\USERS\SPARKY\DOCUMENTS\VNA_DATA\JULY28_2025\295K\PORT3_MOS4.S1P
! CHANNEL.1
! TR.MEASUREMENT
! RAW.DATA
# GHZ S RI R 50.0
! FREQ.GHZ         S11RE         S11IM         
!; PortSelection: Port_1
   0.001000000     1.0467000   -0.0720326  
   0.002999900     0.9645967   -0.1944359  
   0.004999800     0.9036466   -0.2990429  
   0.006999700     0.8359737   -0.3963949  
   0.008999600     0.7557755   -0.4908579  
   0.010999500     0.6610464   -0.5797641  
   0.012999400     0.5459558   -0.6599286  
   0.014999300     0.4052939   -0.7245035  
   0.016999200     0.2339614   -0.7596328  
   0.018999100     0.0307110   -0.7454808  
   0.020999000    -0.1910297   -0.6493723  
   0.022998900    -0.3874989   -0.4401264  
   0.024998800    -0.4621114   -0.1256754  
   0.026998700    -0.3889175    0.2252567  
   0.028998600    -0.1362422    0.4735057  
   0.030998500     0.1746070    0.5576360  
   0.032998400     0.4208342    0.4978785  
   0.034998300     0.6428462    0.3819590  
   0.036998200     0.7665544    0.2303470  
   0.038998100     0.8341454    0.0765225  
   0.040998000     0.8607025   -0.0674857  
   0.042997900     0.8577075   -0.1985448  
   0.044997800     0.8095925   -0.2897560  
   0.046997700     0.7933092   -0.4180680  
   0.048997600     0.7420817   -0.5081841  
   0.050997500     0.6823498   -0.5861545  
   0.052997400     0.6159592   -0.6531123  
   0.054997300     0.5443230   -0.7101036  
   0.056997200     0.4674473   -0.7585297  
   0.058997100     0.3876133   -0.7973392  
   0.060997000     0.3043933   -0.8274197  
   0.062996900     0.2183570   -0.8484161  
   0.064996800     0.1300978   -0.8600074  
   0.066996700     0.0395293   -0.8622681  
   0.068996600    -0.0520046   -0.8540813  
   0.070996500    -0.1446558   -0.8359517  
   0.072996400    -0.2367945   -0.8049329  
   0.074996300    -0.3273678   -0.7618237  
   0.076996200    -0.4150990   -0.7053571  
   0.078996100    -0.4977109   -0.6353055  
   0.080996000    -0.5732877   -0.5504795  
   0.082995900    -0.6385301   -0.4510687  
   0.084995800    -0.6896765   -0.3375724  
   0.086995700    -0.7246342   -0.2116375  
   0.088995600    -0.7382907   -0.0747738  
   0.090995500    -0.7269555    0.0689980  
   0.092995400    -0.6879309    0.2150515  
   0.094995300    -0.6173108    0.3564569  
   0.096995200    -0.5156811    0.4851423  
   0.098995100    -0.3846354    0.5921485  
   0.100995000    -0.2292445    0.6708791  
   0.102994900    -0.0594325    0.7123164  
   0.104994800     0.1155342    0.7143468  
   0.106994700     0.2846722    0.6764818  
   0.108994600     0.4390463    0.6043632  
   0.110994500     0.5706206    0.5031289  
   0.112994400     0.6742584    0.3802453  
   0.114994300     0.7478645    0.2440705  
   0.116994200     0.7915572    0.1022554  
   0.118994100     0.8068777   -0.0390623  
   0.120994000     0.7986382   -0.1749113  
   0.122993900     0.7668206   -0.3016622  
   0.124993800     0.7168531   -0.4163989  
   0.126993700     0.6517816   -0.5177869  
   0.128993600     0.5741624   -0.6042256  
   0.130993500     0.4880658   -0.6763639  
   0.132993400     0.3950531   -0.7343754  
   0.134993300     0.2976780   -0.7774855  
   0.136993200     0.1971095   -0.8066537  
   0.138993100     0.0948829   -0.8218688  
   0.140993000    -0.0069366   -0.8235065  
   0.142992900    -0.1078103   -0.8118598  
   0.144992800    -0.2061479   -0.7888940  
   0.146992700    -0.3007748   -0.7516429  
   0.148992600    -0.3902777   -0.7025169  
   0.150992500    -0.4722817   -0.6403702  
   0.152992400    -0.5474817   -0.5681678  
   0.154992300    -0.6131396   -0.4853666  
   0.156992200    -0.6678647   -0.3922185  
   0.158992100    -0.7103417   -0.2904499  
   0.160992000    -0.7381523   -0.1807008  
   0.162991900    -0.7503429   -0.0654358  
   0.164991800    -0.7447455    0.0533752  
   0.166991700    -0.7198108    0.1735488  
   0.168991600    -0.6751285    0.2911501  
   0.170991500    -0.6098579    0.4032845  
   0.172991400    -0.5245849    0.5052011  
   0.174991300    -0.4203691    0.5928356  
   0.176991200    -0.2996785    0.6624752  
   0.178991100    -0.1658003    0.7098720  
   0.180991000    -0.0235436    0.7330453  
   0.182990900     0.1220691    0.7282756  
   0.184990800     0.2655583    0.6958399  
   0.186990700     0.4002776    0.6367283  
   0.188990600     0.5039930    0.5679873  
   0.190990500     0.6199374    0.4525370  
   0.192990400     0.7016954    0.3308910  
   0.194990300     0.7574168    0.2012518  
   0.196990200     0.7883094    0.0668852  
   0.198990100     0.7945434   -0.0681853  
   0.200990000     0.7779248   -0.1994243  
   0.202989900     0.7400663   -0.3229857  
   0.204989800     0.6838312   -0.4355404  
   0.206989700     0.6129807   -0.5354002  
   0.208989600     0.5284731   -0.6201566  
   0.210989500     0.4340475   -0.6898319  
   0.212989400     0.3316526   -0.7431499  
   0.214989300     0.2248009   -0.7801188  
   0.216989200     0.1155509   -0.8006393  
   0.218989100     0.0068229   -0.8053801  
   0.220989000    -0.1012473   -0.7945598  
   0.222988900    -0.2060111   -0.7683759  
   0.224988800    -0.3058709   -0.7279780  
   0.226988700    -0.3987412   -0.6741558  
   0.228988600    -0.4828225   -0.6081063  
   0.230988500    -0.5572455   -0.5303099  
   0.232988400    -0.6192378   -0.4408707  
   0.234988300    -0.6692729   -0.3431421  
   0.236988200    -0.7052112   -0.2373842  
   0.238988100    -0.7251396   -0.1261149  
   0.240988000    -0.7277473   -0.0115208  
   0.242987900    -0.7124552    0.1041662  
   0.244987800    -0.6785904    0.2180319  
   0.246987700    -0.6256060    0.3275572  
   0.248987600    -0.5535150    0.4292370  
   0.250987500    -0.4630006    0.5192212  
   0.252987400    -0.3570061    0.5932029  
   0.254987300    -0.2379578    0.6486564  
   0.256987200    -0.1090459    0.6822881  
   0.258987100     0.0260091    0.6934497  
   0.260987000     0.1622038    0.6781875  
   0.262986900     0.2942183    0.6378606  
   0.264986800     0.4171545    0.5729536  
   0.266986700     0.5256267    0.4866027  
   0.268986600     0.6155579    0.3821734  
   0.270986500     0.6840057    0.2643966  
   0.272986400     0.7292413    0.1377571  
   0.274986300     0.7507576    0.0069893  
   0.276986200     0.7491258   -0.1230435  
   0.278986100     0.7249586   -0.2490999  
   0.280986000     0.6806508   -0.3665600  
   0.282985900     0.6186479   -0.4733073  
   0.284985800     0.5420395   -0.5662946  
   0.286985700     0.4534295   -0.6440453  
   0.288985600     0.3564472   -0.7054085  
   0.290985500     0.2541990   -0.7502216  
   0.292985400     0.1483932   -0.7792492  
   0.294985300     0.0413213   -0.7922755  
   0.296985200    -0.0651539   -0.7899959  
   0.298985100    -0.1698923   -0.7726538  
   0.300985000    -0.2704052   -0.7413318  
   0.302984900    -0.3645306   -0.6966239  
   0.304984800    -0.4511455   -0.6399942  
   0.306984700    -0.5287787   -0.5721443  
   0.308984600    -0.5962191   -0.4947707  
   0.310984500    -0.6523469   -0.4096016  
   0.312984400    -0.6969550   -0.3160858  
   0.314984300    -0.7284011   -0.2168750  
   0.316984200    -0.7454861   -0.1125012  
   0.318984100    -0.7471621   -0.0038776  
   0.320984000    -0.7320513    0.1057222  
   0.322983900    -0.6985626    0.2138669  
   0.324983800    -0.6471469    0.3161532  
   0.326983700    -0.5783029    0.4078751  
   0.328983600    -0.4950611    0.4860854  
   0.330983500    -0.4013300    0.5478765  
   0.332983400    -0.3021174    0.5924323  
   0.334983300    -0.1996787    0.6219299  
   0.336983200    -0.0956809    0.6371157  
   0.338983100     0.0098841    0.6384470  
   0.340983000     0.1155639    0.6251516  
   0.342982900     0.2204046    0.5960373  
   0.344982800     0.3215075    0.5502468  
   0.346982700     0.4166422    0.4873928  
   0.348982600     0.5004529    0.4073926  
   0.350982500     0.5715318    0.3137114  
   0.352982400     0.6259068    0.2075746  
   0.354982300     0.6616228    0.0880068  
   0.356982200     0.6744165   -0.0485224  
   0.358982100     0.6596707   -0.1847558  
   0.360982000     0.6183487   -0.3151422  
   0.362981900     0.5521278   -0.4347863  
   0.364981800     0.4639180   -0.5387033  
   0.366981700     0.3573395   -0.6231300  
   0.368981600     0.2373770   -0.6848395  
   0.370981500     0.1083464   -0.7223451  
   0.372981400    -0.0244359   -0.7344099  
   0.374981300    -0.1561960   -0.7213231  
   0.376981200    -0.0446152   -0.7364517  
   0.378981100    -0.1744535   -0.7191405  
   0.380981000    -0.2985476   -0.6791217  
   0.382980900    -0.4021094   -0.6239911  
   0.384980800    -0.4905610   -0.5564696  
   0.386980700    -0.5673440   -0.4768137  
   0.388980600    -0.6309773   -0.3861466  
   0.390980500    -0.6797009   -0.2880440  
   0.392980400    -0.7126215   -0.1840226  
   0.394980300    -0.7295500   -0.0765858  
   0.396980200    -0.7303571    0.0323374  
   0.398980100    -0.7148671    0.1406969  
   0.400980000    -0.6827753    0.2461136  
   0.402979900    -0.6351658    0.3462685  
   0.404979800    -0.5723740    0.4386168  
   0.406979700    -0.4952354    0.5208139  
   0.408979600    -0.4053863    0.5909614  
   0.410979500    -0.3043293    0.6474240  
   0.412979400    -0.1937498    0.6876261  
   0.414979300    -0.0766491    0.7082998  
   0.416979200     0.0435141    0.7111681  
   0.418979100     0.1636623    0.6938075  
   0.420979000     0.2803680    0.6565558  
   0.422978900     0.3903524    0.5997227  
   0.424978800     0.4897533    0.5243075  
   0.426978700     0.5752189    0.4323480  
   0.428978600     0.6437995    0.3268481  
   0.430978500     0.6932655    0.2112251  
   0.432978400     0.7219707    0.0892855  
   0.434978300     0.7303588   -0.0355087  
   0.436978200     0.7162997   -0.1587032  
   0.438978100     0.6818910   -0.2774750  
   0.440978000     0.6281137   -0.3876547  
   0.442977900     0.5571333   -0.4864112  
   0.444977800     0.4715756   -0.5710959  
   0.446977700     0.3744014   -0.6398275  
   0.448977600     0.2687104   -0.6911951  
   0.450977500     0.1568862   -0.7239920  
   0.452977400     0.0423509   -0.7385980  
   0.454977300    -0.0722829   -0.7345670  
   0.456977200    -0.1844163   -0.7126569  
   0.458977100    -0.2910574   -0.6735965  
   0.460977000    -0.3891663   -0.6187778  
   0.462976900    -0.4767279   -0.5500459  
   0.464976800    -0.5523264   -0.4687307  
   0.466976700    -0.6140224   -0.3772266  
   0.468976600    -0.6609094   -0.2775444  
   0.470976500    -0.6919217   -0.1717383  
   0.472976400    -0.7060981   -0.0624205  
   0.474976300    -0.7029369    0.0479406  
   0.476976200    -0.6823207    0.1569809  
   0.478976100    -0.6452240    0.2615358  
   0.480976000    -0.5918328    0.3593167  
   0.482975900    -0.5230633    0.4477670  
   0.484975800    -0.4401916    0.5246228  
   0.486975700    -0.3453882    0.5876588  
   0.488975600    -0.2402614    0.6347222  
   0.490975500    -0.1278803    0.6638931  
   0.492975400    -0.0110681    0.6735642  
   0.494975300     0.1063270    0.6631854  
   0.496975200     0.2208293    0.6321166  
   0.498975100     0.3278996    0.5817353  
   0.500975000     0.4246319    0.5132863  
   0.502974900     0.5070935    0.4294371  
   0.504974800     0.5730850    0.3330112  
   0.506974700     0.6206250    0.2271091  
   0.508974600     0.6491007    0.1157962  
   0.510974500     0.6573666    0.0033320  
   0.512974400     0.6469217   -0.1068215  
   0.514974300     0.6183324   -0.2098891  
   0.516974200     0.5758916   -0.3057489  
   0.518974100     0.5212715   -0.3913198  
   0.520974000     0.4562798   -0.4667152  
   0.522973900     0.3827836   -0.5307933  
   0.524973800     0.3022903   -0.5832221  
   0.526973700     0.2161060   -0.6250589  
   0.528973600     0.1252744   -0.6544305  
   0.530973500     0.0302839   -0.6718958  
   0.532973400    -0.0671990   -0.6759353  
   0.534973300    -0.1655146   -0.6653776  
   0.536973200    -0.2632436   -0.6407660  
   0.538973100    -0.3569691   -0.6007195  
   0.540973000    -0.4444331   -0.5462390  
   0.542972900    -0.5236031   -0.4776334  
   0.544972800    -0.5918206   -0.3964343  
   0.546972700    -0.6466511   -0.3039530  
   0.548972600    -0.6864074   -0.2028321  
   0.550972500    -0.7094016   -0.0955020  
   0.552972400    -0.7146261    0.0146349  
   0.554972300    -0.7019501    0.1253312  
   0.556972200    -0.6712242    0.2329439  
   0.558972100    -0.6231344    0.3346214  
   0.560972000    -0.5591298    0.4274530  
   0.562971900    -0.4805777    0.5087557  
   0.564971800    -0.3896856    0.5766329  
   0.566971700    -0.2886730    0.6290035  
   0.568971600    -0.1800169    0.6647223  
   0.570971500    -0.0666831    0.6818704  
   0.572971400     0.0490042    0.6805285  
   0.574971300     0.1638555    0.6598198  
   0.576971200     0.2748288    0.6197935  
   0.578971100     0.3779767    0.5613654  
   0.580971000     0.4704759    0.4861980  
   0.582970900     0.5488624    0.3959160  
   0.584970800     0.6110139    0.2933809  
   0.586970700     0.6544535    0.1823789  
   0.588970600     0.6785260    0.0652032  
   0.590970500     0.6822120   -0.0545638  
   0.592970400     0.6655788   -0.1726552  
   0.594970300     0.6289347   -0.2860735  
   0.596970200     0.5741276   -0.3909674  
   0.598970100     0.5023577   -0.4848816  
   0.600970000     0.4165601   -0.5649756  
   0.602969900     0.3189049   -0.6295179  
   0.604969800     0.2129163   -0.6763416  
   0.606969700     0.1010441   -0.7047871  
   0.608969600    -0.0133046   -0.7147850  
   0.610969500    -0.1269660   -0.7057881  
   0.612969400    -0.2365793   -0.6795430  
   0.614969300    -0.3396672   -0.6360621  
   0.616969200    -0.4336245   -0.5776157  
   0.618969100    -0.5161365   -0.5060568  
   0.620969000    -0.5863217   -0.4235269  
   0.622968900    -0.6429776   -0.3317759  
   0.624968800    -0.6848962   -0.2327006  
   0.626968700    -0.7115816   -0.1283500  
   0.628968600    -0.7221032   -0.0211282  
   0.630968500    -0.7164418    0.0861621  
   0.632968400    -0.6945781    0.1920662  
   0.634968300    -0.6566941    0.2935085  
   0.636968200    -0.6040596    0.3887072  
   0.638968100    -0.5372627    0.4752364  
   0.640968000    -0.4571303    0.5508803  
   0.642967900    -0.3662536    0.6138740  
   0.644967800    -0.2655109    0.6626592  
   0.646967700    -0.1577216    0.6952466  
   0.648967600    -0.0456595    0.7106401  
   0.650967500     0.0682634    0.7082177  
   0.652967400     0.1810700    0.6876870  
   0.654967300     0.2899322    0.6490434  
   0.656967200     0.3919567    0.5930594  
   0.658967100     0.4840599    0.5205860  
   0.660967000     0.5639293    0.4336247  
   0.662966900     0.6286961    0.3333013  
   0.664966800     0.6766042    0.2227732  
   0.666966700     0.7053076    0.1052650  
   0.668966600     0.7138384   -0.0158995  
   0.670966500     0.7019018   -0.1367109  
   0.672966400     0.6707745   -0.2537902  
   0.674966300     0.6199055   -0.3629926  
   0.676966200     0.5516856   -0.4614053  
   0.678966100     0.4692996   -0.5461990  
   0.680966000     0.3740688   -0.6158412  
   0.682965900     0.2703955   -0.6681409  
   0.684965800     0.1602442   -0.7028163  
   0.686965700     0.0473500   -0.7190638  
   0.688965600    -0.0656321   -0.7169139  
   0.690965500    -0.1753735   -0.6966130  
   0.692965400    -0.2798926   -0.6605563  
   0.694965300    -0.3762094   -0.6091328  
   0.696965200    -0.4628119   -0.5445245  
   0.698965100    -0.5379075   -0.4676072  
   0.700965000    -0.6004431   -0.3805535  
   0.702964900    -0.6486390   -0.2858077  
   0.704964800    -0.6820933   -0.1850737  
   0.706964700    -0.6997167   -0.0804135  
   0.708964600    -0.7013870    0.0257803  
   0.710964500    -0.6873338    0.1315609  
   0.712964400    -0.6566471    0.2339194  
   0.714964300    -0.6102601    0.3306906  
   0.716964200    -0.5495055    0.4191680  
   0.718964100    -0.4755450    0.4974810  
   0.720964000    -0.3899429    0.5634378  
   0.722963900    -0.2947902    0.6152725  
   0.724963800    -0.1919905    0.6515147  
   0.726963700    -0.0842235    0.6708986  
   0.728963600     0.0260149    0.6725535  
   0.730963500     0.1353633    0.6557338  
   0.732963400     0.2407640    0.6214988  
   0.734963300     0.3395877    0.5700541  
   0.736963200     0.4412553    0.4923037  
   0.738963100     0.5270528    0.3964813  
   0.740963000     0.5925925    0.2863385  
   0.742962900     0.6363624    0.1667337  
   0.744962800     0.6566604    0.0418009  
   0.746962700     0.6534722   -0.0834855  
   0.748962600     0.6276113   -0.2054292  
   0.750962500     0.6383786   -0.1069937  
   0.752962400     0.6095726   -0.2263259  
   0.754962300     0.5599352   -0.3373831  
   0.756962200     0.4915448   -0.4373528  
   0.758962100     0.4071346   -0.5227459  
   0.760962000     0.3091298   -0.5916353  
   0.762961900     0.2063199   -0.6401488  
   0.764961800     0.1060329   -0.6691858  
   0.766961700     0.0029698   -0.6826949  
   0.768961600    -0.1015123   -0.6800717  
   0.770961500    -0.2043379   -0.6617427  
   0.772961400    -0.3034076   -0.6276878  
   0.774961300    -0.3962582   -0.5790048  
   0.776961200    -0.4807575   -0.5160055  
   0.778961100    -0.5548047   -0.4405223  
   0.780961000    -0.6162866   -0.3539326  
   0.782960900    -0.6636849   -0.2582880  
   0.784960800    -0.6955871   -0.1557895  
   0.786960700    -0.7109846   -0.0492856  
   0.788960600    -0.7090601    0.0587617  
   0.790960500    -0.6905403    0.1652589  
   0.792960400    -0.6552677    0.2675214  
   0.794960300    -0.6040842    0.3632780  
   0.796960200    -0.5388830    0.4497009  
   0.798960100    -0.4606141    0.5245617  
   0.800960000    -0.3714828    0.5863895  
   0.802959900    -0.2735518    0.6336862  
   0.804959800    -0.1693803    0.6650690  
   0.806959700    -0.0617282    0.6797409  
   0.808959600     0.0476803    0.6770812  
   0.810959500     0.1554205    0.6572627  
   0.812959400     0.2592813    0.6201648  
   0.814959300     0.3563183    0.5668966  
   0.816959200     0.4438885    0.4987243  
   0.818959100     0.5197695    0.4166943  
   0.820959000     0.5817528    0.3228925  
   0.822958900     0.6276397    0.2199137  
   0.824958800     0.6565165    0.1104114  
   0.826958700     0.6666222   -0.0028020  
   0.828958600     0.6581505   -0.1163184  
   0.830958500     0.6309719   -0.2271102  
   0.832958400     0.5861136   -0.3319170  
   0.834958300     0.5243003   -0.4273604  
   0.836958200     0.4477211   -0.5116168  
   0.838958100     0.3588285   -0.5816317  
   0.840958000     0.2596591   -0.6362118  
   0.842957900     0.1534631   -0.6734436  
   0.844957800     0.0426988   -0.6929193  
   0.846957700    -0.0689898   -0.6941308  
   0.848957600    -0.1788577   -0.6775144  
   0.850957500    -0.2842897   -0.6435164  
   0.852957400    -0.3820505   -0.5935161  
   0.854957300    -0.4703064   -0.5292727  
   0.856957200    -0.5470001   -0.4522608  
   0.858957100    -0.6102766   -0.3649538  
   0.860957000    -0.6588305   -0.2698025  
   0.862956900    -0.6920995   -0.1693903  
   0.864956800    -0.7096953   -0.0660442  
   0.866956700    -0.7112675    0.0380414  
   0.868956600    -0.6976104    0.1409375  
   0.870956500    -0.6691687    0.2400551  
   0.872956400    -0.6258464    0.3341156  
   0.874956300    -0.5693169    0.4210134  
   0.876956200    -0.5002554    0.4988709  
   0.878956100    -0.4193022    0.5660999  
   0.880956000    -0.3291978    0.6205247  
   0.882955900    -0.2310631    0.6612403  
   0.884955800    -0.1274848    0.6866567  
   0.886955700    -0.0201445    0.6960418  
   0.888955600     0.0879653    0.6884558  
   0.890955500     0.1945323    0.6643949  
   0.892955400     0.2968707    0.6233307  
   0.894955300     0.3917421    0.5661680  
