! MS46122B
! 2250307/22442219
! 7/23/2025 1:08:13 PM
! C:\USERS\SPARKY\DOCUMENTS\VNA_DATA\JULY23_2025\295K\PORT2_MOS6.S1P
! CHANNEL.1
! TR.MEASUREMENT
! RAW.DATA
# GHZ S RI R 50.0
! FREQ.GHZ         S11RE         S11IM         
!; PortSelection: Port_1
   0.001000000     1.0458210   -0.0720483  
   0.002999900     0.9474357   -0.2219938  
   0.004999800     0.8219153   -0.0986900  
   0.006999700     0.5180060   -0.3807364  
   0.008999600     0.9293488   -0.0399859  
   0.010999500     0.9136175   -0.2441877  
   0.012999400     0.8742424   -0.3489266  
   0.014999300     0.8339152   -0.4295297  
   0.016999200     0.7922844   -0.5000743  
   0.018999100     0.7477723   -0.5652432  
   0.020999000     0.6985834   -0.6258893  
   0.022998900     0.6439950   -0.6815023  
   0.024998800     0.5757958   -0.6969426  
   0.026998700     0.5172572   -0.7778344  
   0.028998600     0.4433002   -0.8175130  
   0.030998500     0.3619331   -0.8500529  
   0.032998400     0.2776768   -0.8401085  
   0.034998300     0.1766903   -0.8879181  
   0.036998200     0.0735041   -0.8904454  
   0.038998100    -0.0353681   -0.8787653  
   0.040998000    -0.1488493   -0.8500454  
   0.042997900    -0.2649276   -0.8026416  
   0.044997800    -0.3563091   -0.7155295  
   0.046997700    -0.4900934   -0.6383619  
   0.048997600    -0.5886154   -0.5173766  
   0.050997500    -0.6679515   -0.3687876  
   0.052997400    -0.7177817   -0.1948783  
   0.054997300    -0.7272226    0.0002462  
   0.056997200    -0.6855357    0.2049098  
   0.058997100    -0.5861669    0.4004369  
   0.060997000    -0.4314942    0.5666574  
   0.062996900    -0.2329597    0.6838197  
   0.064996800    -0.0103203    0.7394641  
   0.066996700     0.2131640    0.7300571  
   0.068996600     0.4170707    0.6630580  
   0.070996500     0.5870749    0.5529640  
   0.072996400     0.7160923    0.4134076  
   0.074996300     0.8035180    0.2601026  
   0.076996200     0.8528340    0.1032633  
   0.078996100     0.8691584   -0.0483850  
   0.080996000     0.8585920   -0.1912264  
   0.082995900     0.8257034   -0.3212757  
   0.084995800     0.7744755   -0.4368468  
   0.086995700     0.7108316   -0.5382793  
   0.088995600     0.6366096   -0.6254454  
   0.090995500     0.5543703   -0.6991876  
   0.092995400     0.4666040   -0.7597839  
   0.094995300     0.3730754   -0.8070776  
   0.096995200     0.2770128   -0.8414381  
   0.098995100     0.1786703   -0.8635333  
   0.100995000     0.0777381   -0.8737285  
   0.102994900    -0.0223068   -0.8717443  
   0.104994800    -0.1218144   -0.8577747  
   0.106994700    -0.2199328   -0.8308503  
   0.108994600    -0.3150013   -0.7927415  
   0.110994500    -0.4067125   -0.7424427  
   0.112994400    -0.4930877   -0.6795741  
   0.114994300    -0.5724692   -0.6041545  
   0.116994200    -0.6429304   -0.5160537  
   0.118994100    -0.7028631   -0.4161851  
   0.120994000    -0.7508318   -0.3059233  
   0.122993900    -0.7819877   -0.1841551  
   0.124993800    -0.7946797   -0.0545318  
   0.126993700    -0.7859605    0.0806597  
   0.128993600    -0.7526589    0.2172246  
   0.130993500    -0.6954392    0.3515998  
   0.132993400    -0.6118120    0.4780760  
   0.134993300    -0.5029612    0.5907208  
   0.136993200    -0.3705026    0.6825627  
   0.138993100    -0.2192479    0.7484597  
   0.140993000    -0.0548758    0.7828642  
   0.142992900     0.1147279    0.7829732  
   0.144992800     0.2819485    0.7494011  
   0.146992700     0.4376676    0.6807628  
   0.148992600     0.5743670    0.5830112  
   0.150992500     0.6853585    0.4609430  
   0.152992400     0.7691607    0.3231116  
   0.154992300     0.8232825    0.1761765  
   0.156992200     0.8478865    0.0258444  
   0.158992100     0.8448117   -0.1212745  
   0.160992000     0.8171850   -0.2608888  
   0.162991900     0.7674919   -0.3888940  
   0.164991800     0.6999512   -0.5033262  
   0.166991700     0.6173593   -0.6022757  
   0.168991600     0.5237686   -0.6843534  
   0.170991500     0.4211366   -0.7501162  
   0.172991400     0.3131045   -0.7987325  
   0.174991300     0.2018284   -0.8306944  
   0.176991200     0.0884913   -0.8464610  
   0.178991100    -0.0241106   -0.8461099  
   0.180991000    -0.1342186   -0.8313581  
   0.182990900    -0.2408502   -0.8013080  
   0.184990800    -0.3423842   -0.7572491  
   0.186990700    -0.4368770   -0.6995707  
   0.188990600    -0.5048039   -0.6431440  
   0.190990500    -0.5962065   -0.5491934  
   0.192990400    -0.6632710   -0.4537015  
   0.194990300    -0.7150823   -0.3513325  
   0.196990200    -0.7520147   -0.2413208  
   0.198990100    -0.7734652   -0.1247773  
   0.200990000    -0.7774615   -0.0037243  
   0.202989900    -0.7624911    0.1194443  
   0.204989800    -0.7280364    0.2417102  
   0.206989700    -0.6747404    0.3597758  
   0.208989600    -0.6001633    0.4695468  
   0.210989500    -0.5059027    0.5680304  
   0.212989400    -0.3939193    0.6509166  
   0.214989300    -0.2665535    0.7142742  
   0.216989200    -0.1280677    0.7550192  
   0.218989100     0.0173303    0.7701916  
   0.220989000     0.1647506    0.7586576  
   0.222988900     0.3088863    0.7197735  
   0.224988800     0.4438670    0.6546685  
   0.226988700     0.5641531    0.5664944  
   0.228988600     0.6653371    0.4586130  
   0.230988500     0.7444175    0.3351712  
   0.232988400     0.7984243    0.2009180  
   0.234988300     0.8285045    0.0617974  
   0.236988200     0.8336626   -0.0779298  
   0.238988100     0.8153572   -0.2137162  
   0.240988000     0.7759069   -0.3412260  
   0.242987900     0.7174193   -0.4574071  
   0.244987800     0.6433111   -0.5602748  
   0.246987700     0.5558078   -0.6492375  
   0.248987600     0.4578460   -0.7222443  
   0.250987500     0.3515613   -0.7784111  
   0.252987400     0.2411323   -0.8178140  
   0.254987300     0.1285937   -0.8406126  
   0.256987200     0.0158426   -0.8469107  
   0.258987100    -0.0956174   -0.8391406  
   0.260987000    -0.2040718   -0.8147017  
   0.262986900    -0.3079620   -0.7758539  
   0.264986800    -0.4051753   -0.7235229  
   0.266986700    -0.4941653   -0.6579722  
   0.268986600    -0.5733861   -0.5810879  
   0.270986500    -0.6409172   -0.4937907  
   0.272986400    -0.6964267   -0.3973566  
   0.274986300    -0.7383939   -0.2933125  
   0.276986200    -0.7651610   -0.1823834  
   0.278986100    -0.7758909   -0.0666054  
   0.280986000    -0.7689990    0.0517986  
   0.282985900    -0.7435298    0.1703962  
   0.284985800    -0.6988346    0.2858153  
   0.286985700    -0.6349608    0.3948622  
   0.288985600    -0.5528803    0.4937414  
   0.290985500    -0.4531253    0.5786184  
   0.292985400    -0.3379882    0.6460525  
   0.294985300    -0.2099643    0.6932804  
   0.296985200    -0.0725818    0.7166109  
   0.298985100     0.0696609    0.7138405  
   0.300985000     0.2100594    0.6834221  
   0.302984900     0.3425336    0.6256807  
   0.304984800     0.4606279    0.5426338  
   0.306984700     0.5592796    0.4387262  
   0.308984600     0.6337293    0.3186683  
   0.310984500     0.6812945    0.1893468  
   0.312984400     0.7019770    0.0561148  
   0.314984300     0.6960984   -0.0735919  
   0.316984200     0.6663787   -0.1946584  
   0.318984100     0.6163476   -0.3027730  
   0.320984000     0.5519065   -0.3944240  
   0.322983900     0.4776637   -0.4682767  
   0.324983800     0.3997710   -0.5245180  
   0.326983700     0.3226847   -0.5658414  
   0.328983600     0.2492605   -0.5969554  
   0.330983500     0.1796526   -0.6222712  
   0.332983400     0.1112454   -0.6452197  
   0.334983300     0.0390709   -0.6665033  
   0.336983200    -0.0399584   -0.6838272  
   0.338983100    -0.1281173   -0.6926423  
   0.340983000    -0.2232697   -0.6874667  
   0.342982900    -0.3219156   -0.6656803  
   0.344982800    -0.4191327   -0.6249965  
   0.346982700    -0.5116123   -0.5656469  
   0.348982600    -0.5922280   -0.4891492  
   0.350982500    -0.6605427   -0.3999137  
   0.352982400    -0.7137693   -0.2994851  
   0.354982300    -0.7512725   -0.1863474  
   0.356982200    -0.7707323   -0.0542110  
   0.358982100    -0.7656876    0.0788785  
   0.360982000    -0.7369891    0.2085011  
   0.362981900    -0.6859662    0.3311359  
   0.364981800    -0.6138325    0.4434709  
   0.366981700    -0.5227151    0.5419482  
   0.368981600    -0.4151030    0.6231297  
   0.370981500    -0.2940008    0.6841357  
   0.372981400    -0.1628733    0.7233205  
   0.374981300    -0.0251783    0.7384019  
   0.376981200    -0.1259747    0.7346799  
   0.378981100     0.0176838    0.7430142  
   0.380981000     0.1614838    0.7242342  
   0.382980900     0.2892648    0.6829701  
   0.384980800     0.4041845    0.6228017  
   0.386980700     0.5079109    0.5432250  
   0.388980600     0.5967437    0.4463874  
   0.390980500     0.6676798    0.3359992  
   0.392980400     0.7180662    0.2157469  
   0.394980300     0.7470501    0.0889496  
   0.396980200     0.7539421   -0.0402713  
   0.398980100     0.7389730   -0.1677557  
   0.400980000     0.7028681   -0.2897944  
   0.402979900     0.6469571   -0.4032241  
   0.404979800     0.5742275   -0.5045146  
   0.406979700     0.4868279   -0.5910873  
   0.408979600     0.3880177   -0.6614608  
   0.410979500     0.2795469   -0.7146197  
   0.412979400     0.1653231   -0.7491421  
   0.414979300     0.0483225   -0.7639349  
   0.416979200    -0.0682477   -0.7613987  
   0.418979100    -0.1813301   -0.7411326  
   0.420979000    -0.2891348   -0.7039358  
   0.422978900    -0.3892652   -0.6512287  
   0.424978800    -0.4799919   -0.5848758  
   0.426978700    -0.5587813   -0.5058628  
   0.428978600    -0.6248897   -0.4161209  
   0.430978500    -0.6765373   -0.3184367  
   0.432978400    -0.7128270   -0.2147396  
   0.434978300    -0.7345507   -0.1077938  
   0.436978200    -0.7393761    0.0022347  
   0.438978100    -0.7277175    0.1120705  
   0.440978000    -0.6999352    0.2192299  
   0.442977900    -0.6562868    0.3219188  
   0.444977800    -0.5972646    0.4175178  
   0.446977700    -0.5237957    0.5036771  
   0.448977600    -0.4374590    0.5783942  
   0.450977500    -0.3396216    0.6396371  
   0.452977400    -0.2318246    0.6856965  
   0.454977300    -0.1167038    0.7141443  
   0.456977200     0.0030277    0.7242074  
   0.458977100     0.1242539    0.7144060  
   0.460977000     0.2431315    0.6848449  
   0.462976900     0.3561352    0.6356235  
   0.464976800     0.4596810    0.5680848  
   0.466976700     0.5512499    0.4837428  
   0.468976600     0.6274887    0.3848550  
   0.470976500     0.6859686    0.2743490  
   0.472976400     0.7248192    0.1560740  
   0.474976300     0.7435617    0.0331196  
   0.476976200     0.7411647   -0.0904366  
   0.478976100     0.7183347   -0.2107317  
   0.480976000     0.6770458   -0.3241025  
   0.482975900     0.6185141   -0.4278451  
   0.484975800     0.5448961   -0.5194751  
   0.486975700     0.4586483   -0.5972527  
   0.488975600     0.3625577   -0.6601462  
   0.490975500     0.2592393   -0.7063403  
   0.492975400     0.1512722   -0.7361836  
   0.494975300     0.0412775   -0.7492170  
   0.496975200    -0.0679891   -0.7454692  
   0.498975100    -0.1739562   -0.7261865  
   0.500975000    -0.2750863   -0.6916945  
   0.502974900    -0.3692984   -0.6437842  
   0.504974800    -0.4552584   -0.5827609  
   0.506974700    -0.5319718   -0.5105984  
   0.508974600    -0.5976539   -0.4275730  
   0.510974500    -0.6507717   -0.3357764  
   0.512974400    -0.6903857   -0.2370795  
   0.514974300    -0.7136005   -0.1330749  
   0.516974200    -0.7226251   -0.0267224  
   0.518974100    -0.7155476    0.0806431  
   0.520974000    -0.6919055    0.1864818  
   0.522973900    -0.6519997    0.2883500  
   0.524973800    -0.5958732    0.3828321  
   0.526973700    -0.5250235    0.4680789  
   0.528973600    -0.4410339    0.5410290  
   0.530973500    -0.3461871    0.5998483  
   0.532973400    -0.2432967    0.6421838  
   0.534973300    -0.1350147    0.6677507  
   0.536973200    -0.0241574    0.6757994  
   0.538973100     0.0859469    0.6664780  
   0.540973000     0.1925296    0.6402041  
   0.542972900     0.2936270    0.5980021  
   0.544972800     0.3870550    0.5406613  
   0.546972700     0.4711110    0.4691132  
   0.548972600     0.5426619    0.3852024  
   0.550972500     0.6005238    0.2909618  
   0.552972400     0.6433572    0.1880618  
   0.554972300     0.6693202    0.0793590  
   0.556972200     0.6772565   -0.0322683  
   0.558972100     0.6673955   -0.1439950  
   0.560972000     0.6397574   -0.2527277  
   0.562971900     0.5952945   -0.3550683  
   0.564971800     0.5351800   -0.4490912  
   0.566971700     0.4614460   -0.5314417  
   0.568971600     0.3756387   -0.6013365  
   0.570971500     0.2801960   -0.6564338  
   0.572971400     0.1778677   -0.6955635  
   0.574971300     0.0702136   -0.7182226  
   0.576971200    -0.0392372   -0.7241030  
   0.578971100    -0.1480993   -0.7128335  
   0.580971000    -0.2534733   -0.6849016  
   0.582970900    -0.3523579   -0.6418518  
   0.584970800    -0.4430352   -0.5842187  
   0.586970700    -0.5232955   -0.5143800  
   0.588970600    -0.5917317   -0.4336678  
   0.590970500    -0.6473935   -0.3440800  
   0.592970400    -0.6891160   -0.2474054  
   0.594970300    -0.7160289   -0.1460288  
   0.596970200    -0.7278120   -0.0419072  
   0.598970100    -0.7241508    0.0631542  
   0.600970000    -0.7051560    0.1668102  
   0.602969900    -0.6711228    0.2664771  
   0.604969800    -0.6223882    0.3607981  
   0.606969700    -0.5596947    0.4473152  
   0.608969600    -0.4843837    0.5241747  
   0.610969500    -0.3978801    0.5890368  
   0.612969400    -0.3017749    0.6402652  
   0.614969300    -0.1983413    0.6768397  
   0.616969200    -0.0897445    0.6969034  
   0.618969100     0.0204496    0.7001985  
   0.620969000     0.1305785    0.6862745  
   0.622968900     0.2382111    0.6548235  
   0.624968800     0.3401893    0.6061532  
   0.626968700     0.4342616    0.5413657  
   0.628968600     0.5172307    0.4616743  
   0.630968500     0.5863484    0.3688980  
   0.632968400     0.6394427    0.2657137  
   0.634968300     0.6751338    0.1542023  
   0.636968200     0.6916169    0.0387995  
   0.638968100     0.6888635   -0.0778682  
   0.640968000     0.6663768   -0.1927781  
   0.642967900     0.6255544   -0.3013846  
   0.644967800     0.5672516   -0.4014865  
   0.646967700     0.4938964   -0.4897944  
   0.648967600     0.4079496   -0.5641163  
   0.650967500     0.3118071   -0.6227523  
   0.652967400     0.2084921   -0.6642442  
   0.654967300     0.1013167   -0.6890184  
   0.656967200    -0.0072331   -0.6960599  
   0.658967100    -0.1144684   -0.6858873  
   0.660967000    -0.2180485   -0.6592883  
   0.662966900    -0.3157887   -0.6173625  
   0.664966800    -0.4052794   -0.5609944  
   0.666966700    -0.4847109   -0.4920218  
   0.668966600    -0.5521126   -0.4121143  
   0.670966500    -0.6061227   -0.3234603  
   0.672966400    -0.6465834   -0.2282182  
   0.674966300    -0.6714547   -0.1286324  
   0.676966200    -0.6807227   -0.0268740  
   0.678966100    -0.6748034    0.0746709  
   0.680966000    -0.6535998    0.1746134  
   0.682965900    -0.6177214    0.2701567  
   0.684965800    -0.5678706    0.3591523  
   0.686965700    -0.5045391    0.4401212  
   0.688965600    -0.4291631    0.5108215  
   0.690965500    -0.3434553    0.5688634  
   0.692965400    -0.2492639    0.6136761  
   0.694965300    -0.1486694    0.6439502  
   0.696965200    -0.0441109    0.6578154  
   0.698965100     0.0627352    0.6548681  
   0.700965000     0.1684864    0.6348578  
   0.702964900     0.2705287    0.5978501  
   0.704964800     0.3654745    0.5439783  
   0.706964700     0.4511359    0.4748782  
   0.708964600     0.5243016    0.3917855  
   0.710964500     0.5840650    0.2978451  
   0.712964400     0.6262715    0.1948373  
   0.714964300     0.6505883    0.0861884  
   0.716964200     0.6563796   -0.0242739  
   0.718964100     0.6433126   -0.1331293  
   0.720964000     0.6129260   -0.2367887  
   0.722963900     0.5666713   -0.3333172  
   0.724963800     0.5062206   -0.4200833  
   0.726963700     0.4334607   -0.4953223  
   0.728963600     0.3508623   -0.5574673  
   0.730963500     0.2599292   -0.6048305  
   0.732963400     0.1646737   -0.6379176  
   0.734963300     0.0660724   -0.6560372  
   0.736963200    -0.0474372   -0.6585003  
   0.738963100    -0.1589257   -0.6409889  
   0.740963000    -0.2650035   -0.6048792  
   0.742962900    -0.3627451   -0.5514829  
   0.744962800    -0.4496589   -0.4823970  
   0.746962700    -0.5235903   -0.3997410  
   0.748962600    -0.5820901   -0.3052027  
   0.750962500    -0.5437930   -0.3898971  
   0.752962400    -0.6009673   -0.2935168  
   0.754962300    -0.6402982   -0.1884295  
   0.756962200    -0.6611664   -0.0776389  
   0.758962100    -0.6623790    0.0352948  
   0.760962000    -0.6435399    0.1473513  
   0.762961900    -0.6076418    0.2497696  
   0.764961800    -0.5606832    0.3371104  
   0.766961700    -0.5006317    0.4162717  
   0.768961600    -0.4283964    0.4851982  
   0.770961500    -0.3465420    0.5417895  
   0.772961400    -0.2565982    0.5851688  
   0.774961300    -0.1612995    0.6133107  
   0.776961200    -0.0623855    0.6268004  
   0.778961100     0.0378982    0.6244631  
   0.780961000     0.1367300    0.6066632  
   0.782960900     0.2320553    0.5731951  
   0.784960800     0.3213925    0.5248885  
   0.786960700     0.4025179    0.4629045  
   0.788960600     0.4731484    0.3884325  
   0.790960500     0.5308405    0.3038073  
   0.792960400     0.5745360    0.2107856  
   0.794960300     0.6026910    0.1120399  
   0.796960200     0.6147257    0.0097087  
   0.798960100     0.6099294   -0.0929727  
   0.800960000     0.5889370   -0.1933011  
   0.802959900     0.5521614   -0.2893319  
   0.804959800     0.5002990   -0.3780368  
   0.806959700     0.4352541   -0.4569108  
   0.808959600     0.3584219   -0.5247360  
   0.810959500     0.2716446   -0.5791476  
   0.812959400     0.1777035   -0.6191536  
   0.814959300     0.0785977   -0.6435397  
   0.816959200    -0.0226432   -0.6518732  
   0.818959100    -0.1237671   -0.6442259  
   0.820959000    -0.2217397   -0.6207728  
   0.822958900    -0.3151177   -0.5823385  
   0.824958800    -0.4006518   -0.5299451  
   0.826958700    -0.4767075   -0.4652932  
   0.828958600    -0.5417681   -0.3898454  
   0.830958500    -0.5938799   -0.3058029  
   0.832958400    -0.6325460   -0.2149441  
   0.834958300    -0.6567371   -0.1199077  
   0.836958200    -0.6665412   -0.0226747  
   0.838958100    -0.6613449    0.0747533  
   0.840958000    -0.6414703    0.1704222  
   0.842957900    -0.6073760    0.2614100  
   0.844957800    -0.5599591    0.3467775  
   0.846957700    -0.4999997    0.4242636  
   0.848957600    -0.4290586    0.4919391  
   0.850957500    -0.3482351    0.5482602  
   0.852957400    -0.2594229    0.5915859  
   0.854957300    -0.1647012    0.6211303  
   0.856957200    -0.0662462    0.6356745  
   0.858957100     0.0339761    0.6348820  
   0.860957000     0.1327271    0.6183361  
   0.862956900     0.2275670    0.5863212  
   0.864956800     0.3163642    0.5399005  
   0.866956700     0.3967890    0.4798723  
   0.868956600     0.4667700    0.4072670  
   0.870956500     0.5249966    0.3241765  
   0.872956400     0.5697988    0.2324125  
   0.874956300     0.5988158    0.1337592  
   0.876956200     0.6117637    0.0310439  
   0.878956100     0.6075142   -0.0728078  
   0.880956000     0.5859249   -0.1747403  
   0.882955900     0.5478044   -0.2720366  
   0.884955800     0.4936099   -0.3614254  
   0.886955700     0.4257363   -0.4401270  
   0.888955600     0.3456951   -0.5065057  
   0.890955500     0.2562222   -0.5580889  
   0.892955400     0.1599258   -0.5940889  
   0.894955300     0.0596705   -0.6135655  
