! MS46122B
! 2250307/22442219
! 7/26/2025 10:31:44 AM
! C:\USERS\SPARKY\DOCUMENTS\VNA_DATA\JULY26_2025\295K\PORT3_MOS5_REPEAT1.S1P
! CHANNEL.1
! TR.MEASUREMENT
! RAW.DATA
# GHZ S RI R 50.0
! FREQ.GHZ         S11RE         S11IM         
!; PortSelection: Port_1
   0.001000000     1.0458120   -0.0716264  
   0.002999900     0.9642163   -0.1940760  
   0.004999800     0.9032999   -0.2988006  
   0.006999700     0.8356027   -0.3961351  
   0.008999600     0.7554221   -0.4907948  
   0.010999500     0.6605821   -0.5799596  
   0.012999400     0.5451089   -0.6605744  
   0.014999300     0.4035825   -0.7255852  
   0.016999200     0.2306948   -0.7609301  
   0.018999100     0.0250890   -0.7458068  
   0.020999000    -0.1996979   -0.6463852  
   0.022998900    -0.3972441   -0.4306382  
   0.024998800    -0.4672471   -0.1080252  
   0.026998700    -0.3818162    0.2476569  
   0.028998600    -0.1165018    0.4904440  
   0.030998500     0.2001846    0.5629277  
   0.032998400     0.4438564    0.4929462  
   0.034998300     0.6616443    0.3693830  
   0.036998200     0.7795808    0.2143953  
   0.038998100     0.8421341    0.0591824  
   0.040998000     0.8646778   -0.0851391  
   0.042997900     0.8582134   -0.2152627  
   0.044997800     0.8077670   -0.3050825  
   0.046997700     0.7889612   -0.4329337  
   0.048997600     0.7358553   -0.5217682  
   0.050997500     0.6745166   -0.5985559  
   0.052997400     0.6076561   -0.6634463  
   0.054997300     0.5334035   -0.7207243  
   0.056997200     0.4558969   -0.7675694  
   0.058997100     0.3748906   -0.8052554  
   0.060997000     0.2906311   -0.8340924  
   0.062996900     0.2035030   -0.8536057  
   0.064996800     0.1140518   -0.8638599  
   0.066996700     0.0226381   -0.8643712  
   0.068996600    -0.0699344   -0.8542404  
   0.070996500    -0.1635972   -0.8338830  
   0.072996400    -0.2563792   -0.8003517  
   0.074996300    -0.3474320   -0.7543307  
   0.076996200    -0.4355543   -0.6945707  
   0.078996100    -0.5177050   -0.6207113  
   0.080996000    -0.5924309   -0.5316783  
   0.082995900    -0.6558194   -0.4277638  
   0.084995800    -0.7039444   -0.3096057  
   0.086995700    -0.7346237   -0.1786938  
   0.088995600    -0.7426435   -0.0377950  
   0.090995500    -0.7238725    0.1092170  
   0.092995400    -0.6759144    0.2574655  
   0.094995300    -0.5950912    0.3982574  
   0.096995200    -0.4828618    0.5232625  
   0.098995100    -0.3417324    0.6239853  
   0.100995000    -0.1775269    0.6926425  
   0.102994900    -0.0021602    0.7217878  
   0.104994800     0.1748853    0.7103809  
   0.106994700     0.3423854    0.6588650  
   0.108994600     0.4913714    0.5740916  
   0.110994500     0.6148536    0.4623659  
   0.112994400     0.7085714    0.3316154  
   0.114994300     0.7710883    0.1907432  
   0.116994200     0.8038152    0.0467200  
   0.118994100     0.8087325   -0.0945585  
   0.120994000     0.7909147   -0.2285377  
   0.122993900     0.7505959   -0.3520707  
   0.124993800     0.6936913   -0.4622292  
   0.126993700     0.6223577   -0.5587135  
   0.128993600     0.5397163   -0.6397008  
   0.130993500     0.4495652   -0.7064329  
   0.132993400     0.3536277   -0.7582231  
   0.134993300     0.2536329   -0.7956289  
   0.136993200     0.1512637   -0.8187169  
   0.138993100     0.0480686   -0.8279291  
   0.140993000    -0.0545182   -0.8235509  
   0.142992900    -0.1548394   -0.8056981  
   0.144992800    -0.2527401   -0.7767459  
   0.146992700    -0.3462425   -0.7333380  
   0.148992600    -0.4338923   -0.6780113  
   0.150992500    -0.5130591   -0.6097869  
   0.152992400    -0.5849683   -0.5314136  
   0.154992300    -0.6462293   -0.4426144  
   0.156992200    -0.6958082   -0.3433538  
   0.158992100    -0.7315921   -0.2362875  
   0.160992000    -0.7519452   -0.1218145  
   0.162991900    -0.7549729   -0.0025524  
   0.164991800    -0.7390370    0.1192791  
   0.166991700    -0.7030774    0.2400951  
   0.168991600    -0.6463912    0.3569383  
   0.170991500    -0.5686696    0.4656497  
   0.172991400    -0.4709049    0.5615335  
   0.174991300    -0.3549572    0.6403261  
   0.176991200    -0.2237632    0.6983362  
   0.178991100    -0.0819952    0.7315134  
   0.180991000     0.0653972    0.7384112  
   0.182990900     0.2124989    0.7161173  
   0.184990800     0.3533652    0.6659074  
   0.186990700     0.4818171    0.5900099  
   0.188990600     0.5770917    0.5079697  
   0.190990500     0.6789346    0.3781306  
   0.192990400     0.7452537    0.2466446  
   0.194990300     0.7845643    0.1109565  
   0.196990200     0.7987518   -0.0261352  
   0.198990100     0.7888771   -0.1606698  
   0.200990000     0.7566331   -0.2880916  
   0.202989900     0.7047055   -0.4058954  
   0.204989800     0.6356968   -0.5106654  
   0.206989700     0.5542397   -0.6017156  
   0.208989600     0.4613715   -0.6760672  
   0.210989500     0.3597078   -0.7342608  
   0.212989400     0.2524650   -0.7760569  
   0.214989300     0.1421695   -0.8009582  
   0.216989200     0.0310160   -0.8094175  
   0.218989100    -0.0786795   -0.8022634  
   0.220989000    -0.1853869   -0.7792221  
   0.222988900    -0.2875907   -0.7413542  
   0.224988800    -0.3837717   -0.6893907  
   0.226988700    -0.4712886   -0.6246459  
   0.228988600    -0.5487857   -0.5478370  
   0.230988500    -0.6148664   -0.4601141  
   0.232988400    -0.6670761   -0.3617081  
   0.234988300    -0.7061083   -0.2554928  
   0.236988200    -0.7291009   -0.1430401  
   0.238988100    -0.7344440   -0.0266072  
   0.240988000    -0.7213668    0.0914610  
   0.242987900    -0.6893062    0.2075680  
   0.244987800    -0.6379005    0.3196250  
   0.246987700    -0.5668660    0.4239100  
   0.248987600    -0.4768850    0.5167771  
   0.250987500    -0.3699068    0.5940222  
   0.252987400    -0.2492326    0.6523393  
   0.254987300    -0.1183545    0.6882122  
   0.256987200     0.0186569    0.6996519  
   0.258987100     0.1570602    0.6868135  
   0.260987000     0.2913696    0.6471341  
   0.262986900     0.4169239    0.5820863  
   0.264986800     0.5276498    0.4950590  
   0.266986700     0.6198079    0.3890494  
   0.268986600     0.6899353    0.2691184  
   0.270986500     0.7360187    0.1405593  
   0.272986400     0.7578769    0.0077097  
   0.274986300     0.7561445   -0.1244141  
   0.276986200     0.7315197   -0.2518370  
   0.278986100     0.6864415   -0.3708312  
   0.280986000     0.6234055   -0.4786703  
   0.282985900     0.5454220   -0.5726844  
   0.284985800     0.4551523   -0.6514066  
   0.286985700     0.3558463   -0.7135343  
   0.288985600     0.2514486   -0.7585142  
   0.290985500     0.1436748   -0.7872296  
   0.292985400     0.0352617   -0.7996379  
   0.294985300    -0.0724165   -0.7963005  
   0.296985200    -0.1780409   -0.7779847  
   0.298985100    -0.2793584   -0.7452569  
   0.300985000    -0.3751481   -0.6988806  
   0.302984900    -0.4627872   -0.6401985  
   0.304984800    -0.5412331   -0.5698992  
   0.306984700    -0.6093479   -0.4893346  
   0.308984600    -0.6653668   -0.4005972  
   0.310984500    -0.7091690   -0.3044933  
   0.312984400    -0.7390789   -0.2021177  
   0.314984300    -0.7540503   -0.0948751  
   0.316984200    -0.7525734    0.0153867  
   0.318984100    -0.7341201    0.1269065  
   0.320984000    -0.6966936    0.2366295  
   0.322983900    -0.6400731    0.3398448  
   0.324983800    -0.5653481    0.4318926  
   0.326983700    -0.4756986    0.5087676  
   0.328983600    -0.3752183    0.5672168  
   0.330983500    -0.2697455    0.6061389  
   0.332983400    -0.1637992    0.6278830  
   0.334983300    -0.0587875    0.6348204  
   0.336983200     0.0452689    0.6287392  
   0.338983100     0.1483629    0.6091424  
   0.340983000     0.2491914    0.5752862  
   0.342982900     0.3466104    0.5255380  
   0.344982800     0.4374317    0.4598284  
   0.346982700     0.5183550    0.3777564  
   0.348982600     0.5844347    0.2806231  
   0.350982500     0.6343014    0.1721492  
   0.352982400     0.6645547    0.0552330  
   0.354982300     0.6730668   -0.0708456  
   0.356982200     0.6546209   -0.2083456  
   0.358982100     0.6087478   -0.3392935  
   0.360982000     0.5381746   -0.4579161  
   0.362981900     0.4455217   -0.5600544  
   0.364981800     0.3348128   -0.6415903  
   0.366981700     0.2110356   -0.6996835  
   0.368981600     0.0791307   -0.7326310  
   0.370981500    -0.0556700   -0.7397005  
   0.372981400    -0.1883882   -0.7212057  
   0.374981300    -0.3145259   -0.6783676  
   0.376981200    -0.2066009   -0.7191451  
   0.378981100    -0.3308326   -0.6734217  
   0.380981000    -0.4437221   -0.6057467  
   0.382980900    -0.5338121   -0.5278981  
   0.384980800    -0.6060505   -0.4416781  
   0.386980700    -0.6643818   -0.3450203  
   0.388980600    -0.7074193   -0.2406150  
   0.390980500    -0.7333225   -0.1317147  
   0.392980400    -0.7425719   -0.0201410  
   0.394980300    -0.7347278    0.0914104  
   0.396980200    -0.7099995    0.2010189  
   0.398980100    -0.6685959    0.3064468  
   0.400980000    -0.6110548    0.4047512  
   0.402979900    -0.5383153    0.4942306  
   0.404979800    -0.4516643    0.5717874  
   0.406979700    -0.3527339    0.6354678  
   0.408979600    -0.2441747    0.6833085  
   0.410979500    -0.1272190    0.7132566  
   0.412979400    -0.0050320    0.7240139  
   0.414979300     0.1186318    0.7133671  
   0.416979200     0.2400794    0.6828243  
   0.418979100     0.3553169    0.6318293  
   0.420979000     0.4612816    0.5613695  
   0.422978900     0.5541366    0.4731185  
   0.424978800     0.6305665    0.3693592  
   0.426978700     0.6881422    0.2535894  
   0.428978600     0.7244426    0.1295353  
   0.430978500     0.7383993    0.0017466  
   0.432978400     0.7301548   -0.1257039  
   0.434978300     0.7011879   -0.2495241  
   0.436978200     0.6511604   -0.3648413  
   0.438978100     0.5826228   -0.4691141  
   0.440978000     0.4981176   -0.5595143  
   0.442977900     0.4008182   -0.6338916  
   0.444977800     0.2939280   -0.6905582  
   0.446977700     0.1804933   -0.7282308  
   0.448977600     0.0639629   -0.7464681  
   0.450977500    -0.0528888   -0.7461764  
   0.452977400    -0.1672680   -0.7272851  
   0.454977300    -0.2771010   -0.6907818  
   0.456977200    -0.3792836   -0.6373844  
   0.458977100    -0.4711624   -0.5689528  
   0.460977000    -0.5509036   -0.4875019  
   0.462976900    -0.6164486   -0.3954411  
   0.464976800    -0.6667176   -0.2941530  
   0.466976700    -0.7007862   -0.1867383  
   0.468976600    -0.7177033   -0.0750674  
   0.470976500    -0.7167804    0.0384470  
   0.472976400    -0.6977593    0.1504952  
   0.474976300    -0.6612113    0.2588623  
   0.476976200    -0.6076313    0.3605808  
   0.478976100    -0.5378017    0.4529057  
   0.480976000    -0.4536241    0.5326911  
   0.482975900    -0.3568873    0.5985854  
   0.484975800    -0.2497519    0.6478366  
   0.486975700    -0.1347346    0.6787577  
   0.488975600    -0.0151009    0.6900824  
   0.490975500     0.1054041    0.6803508  
   0.492975400     0.2235371    0.6496471  
   0.494975300     0.3345937    0.5990625  
   0.496975200     0.4352710    0.5288182  
   0.498975100     0.5215120    0.4427387  
   0.500975000     0.5907975    0.3429287  
   0.502974900     0.6408214    0.2339600  
   0.504974800     0.6705647    0.1186477  
   0.506974700     0.6797837    0.0016757  
   0.508974600     0.6687132   -0.1140124  
   0.510974500     0.6391093   -0.2237401  
   0.512974400     0.5927230   -0.3251059  
   0.514974300     0.5315839   -0.4138399  
   0.516974200     0.4606495   -0.4917655  
   0.518974100     0.3806854   -0.5564665  
   0.520974000     0.2943667   -0.6078952  
   0.522973900     0.2027982   -0.6467304  
   0.524973800     0.1079675   -0.6723105  
   0.526973700     0.0103731   -0.6855412  
   0.528973600    -0.0884020   -0.6850145  
   0.530973500    -0.1875649   -0.6709635  
   0.532973400    -0.2850780   -0.6422432  
   0.534973300    -0.3786730   -0.5989131  
   0.536973200    -0.4665162   -0.5410233  
   0.538973100    -0.5450321   -0.4692506  
   0.540973000    -0.6123290   -0.3847675  
   0.542972900    -0.6655159   -0.2895274  
   0.544972800    -0.7033313   -0.1857086  
   0.546972700    -0.7239568   -0.0756960  
   0.548972600    -0.7265091    0.0370279  
   0.550972500    -0.7101272    0.1498029  
   0.552972400    -0.6754231    0.2590977  
   0.554972300    -0.6228255    0.3618566  
   0.556972200    -0.5539980    0.4550335  
   0.558972100    -0.4699289    0.5360788  
   0.560972000    -0.3736368    0.6024602  
   0.562971900    -0.2674263    0.6522466  
   0.564971800    -0.1540285    0.6842804  
   0.566971700    -0.0368133    0.6968734  
   0.568971600     0.0815099    0.6901954  
   0.570971500     0.1976056    0.6639422  
   0.572971400     0.3085441    0.6184527  
   0.574971300     0.4107892    0.5541048  
   0.576971200     0.5018067    0.4732174  
   0.578971100     0.5778329    0.3771156  
   0.580971000     0.6366779    0.2692699  
   0.582970900     0.6756518    0.1532287  
   0.584970800     0.6945244    0.0320343  
   0.586970700     0.6923062   -0.0902054  
   0.588970600     0.6695645   -0.2098553  
   0.590970500     0.6265725   -0.3235611  
   0.592970400     0.5654494   -0.4277425  
   0.594970300     0.4880018   -0.5197041  
   0.596970200     0.3968440   -0.5968183  
   0.598970100     0.2946424   -0.6575792  
   0.600970000     0.1848449   -0.6998881  
   0.602969900     0.0702260   -0.7236904  
   0.604969800    -0.0460900   -0.7286394  
   0.606969700    -0.1608852   -0.7149818  
   0.608969600    -0.2713827   -0.6831256  
   0.610969500    -0.3748078   -0.6343932  
   0.612969400    -0.4684799   -0.5704268  
   0.614969300    -0.5500377   -0.4934956  
   0.616969200    -0.6184759   -0.4054111  
   0.618969100    -0.6719433   -0.3088956  
   0.620969000    -0.7101483   -0.2060498  
   0.622968900    -0.7323781   -0.0988121  
   0.624968800    -0.7382923    0.0106540  
   0.626968700    -0.7278976    0.1200343  
   0.628968600    -0.7007325    0.2272278  
   0.630968500    -0.6579797    0.3288470  
   0.632968400    -0.5996904    0.4239373  
   0.634968300    -0.5272867    0.5093569  
   0.636968200    -0.4420578    0.5835140  
   0.638968100    -0.3460218    0.6436456  
   0.640968000    -0.2405201    0.6889055  
   0.642967900    -0.1283136    0.7171890  
   0.644967800    -0.0124291    0.7274148  
   0.646967700     0.1048341    0.7191772  
   0.648967600     0.2200867    0.6920326  
   0.650967500     0.3296037    0.6463525  
   0.652967400     0.4312995    0.5832355  
   0.654967300     0.5217129    0.5039956  
   0.656967200     0.5979883    0.4106758  
   0.658967100     0.6581628    0.3054498  
   0.660967000     0.7002817    0.1907772  
   0.662966900     0.7227730    0.0702396  
   0.664966800     0.7247461   -0.0531439  
   0.666966700     0.7060475   -0.1754607  
   0.668966600     0.6666505   -0.2923294  
   0.670966500     0.6087201   -0.4009138  
   0.672966400     0.5347183   -0.4983011  
   0.674966300     0.4454231   -0.5803264  
   0.676966200     0.3446650   -0.6455669  
   0.678966100     0.2357708   -0.6928838  
   0.680966000     0.1218472   -0.7215703  
   0.682965900     0.0062536   -0.7314197  
   0.684965800    -0.1083775   -0.7226360  
   0.686965700    -0.2189395   -0.6961423  
   0.688965600    -0.3233488   -0.6529893  
   0.690965500    -0.4179206   -0.5941527  
   0.692965400    -0.5021780   -0.5228000  
   0.694965300    -0.5739846   -0.4399848  
   0.696965200    -0.6319161   -0.3481225  
   0.698965100    -0.6752254   -0.2486413  
   0.700965000    -0.7027972   -0.1439133  
   0.702964900    -0.7142772   -0.0365177  
   0.704964800    -0.7094637    0.0716856  
   0.706964700    -0.6877851    0.1780395  
   0.708964600    -0.6498302    0.2802927  
   0.710964500    -0.5968433    0.3763500  
   0.712964400    -0.5285282    0.4632947  
   0.714964300    -0.4469732    0.5387189  
   0.716964200    -0.3541914    0.6004156  
   0.718964100    -0.2522974    0.6469403  
   0.720964000    -0.1440871    0.6763968  
   0.722963900    -0.0318893    0.6878696  
   0.724963800     0.0809089    0.6809129  
   0.726963700     0.1917592    0.6557051  
   0.728963600     0.2969208    0.6121435  
   0.730963500     0.3934093    0.5509337  
   0.732963400     0.4783549    0.4750204  
   0.734963300     0.5501099    0.3860777  
   0.736963200     0.6128377    0.2718563  
   0.738963100     0.6533362    0.1480252  
   0.740963000     0.6695122    0.0195087  
   0.742962900     0.6614438   -0.1081877  
   0.744962800     0.6301479   -0.2314098  
   0.746962700     0.5771745   -0.3451613  
   0.748962600     0.5051383   -0.4468514  
   0.750962500     0.5551087   -0.3646929  
   0.752962400     0.4812355   -0.4632178  
   0.754962300     0.3918615   -0.5463719  
   0.756962200     0.2895831   -0.6119440  
   0.758962100     0.1781586   -0.6584681  
   0.760962000     0.0602396   -0.6842693  
   0.762961900    -0.0545793   -0.6896003  
   0.764961800    -0.1592370   -0.6778866  
   0.766961700    -0.2611543   -0.6505796  
   0.768961600    -0.3579510   -0.6076095  
   0.770961500    -0.4475708   -0.5505410  
   0.772961400    -0.5272374   -0.4797734  
   0.774961300    -0.5952311   -0.3976963  
   0.776961200    -0.6499975   -0.3052853  
   0.778961100    -0.6894429   -0.2053654  
   0.780961000    -0.7131738   -0.0997163  
   0.782960900    -0.7196985    0.0085904  
   0.784960800    -0.7090176    0.1176245  
   0.786960700    -0.6809546    0.2235075  
   0.788960600    -0.6363018    0.3242373  
   0.790960500    -0.5760315    0.4168154  
   0.792960400    -0.5021372    0.4986291  
   0.794960300    -0.4157249    0.5679095  
   0.796960200    -0.3193178    0.6224611  
   0.798960100    -0.2155673    0.6610934  
   0.800960000    -0.1070138    0.6832587  
   0.802959900     0.0041905    0.6877015  
   0.804959800     0.1145917    0.6742896  
   0.806959700     0.2219536    0.6434248  
   0.808959600     0.3229713    0.5957866  
   0.810959500     0.4156575    0.5324055  
   0.812959400     0.4970565    0.4545880  
   0.814959300     0.5652577    0.3639644  
   0.816959200     0.6180836    0.2633999  
   0.818959100     0.6537026    0.1551648  
   0.820959000     0.6714795    0.0421611  
   0.822958900     0.6702121   -0.0726571  
   0.824958800     0.6500599   -0.1859044  
   0.826958700     0.6115427   -0.2942147  
   0.828958600     0.5558066   -0.3947825  
   0.830958500     0.4839680   -0.4845977  
   0.832958400     0.3986208   -0.5614643  
   0.834958300     0.3023472   -0.6227059  
   0.836958200     0.1975527   -0.6675245  
   0.838958100     0.0873360   -0.6942158  
   0.840958000    -0.0250924   -0.7028642  
   0.842957900    -0.1370941   -0.6933230  
   0.844957800    -0.2454655   -0.6658751  
   0.846957700    -0.3477720   -0.6217442  
   0.848957600    -0.4409576   -0.5627076  
   0.850957500    -0.5235118   -0.4897019  
   0.852957400    -0.5931686   -0.4051992  
   0.854957300    -0.6486425   -0.3114320  
   0.856957200    -0.6886632   -0.2106555  
   0.858957100    -0.7127305   -0.1055100  
   0.860957000    -0.7203096    0.0012992  
   0.862956900    -0.7115942    0.1069755  
   0.864956800    -0.6875755    0.2097716  
   0.866956700    -0.6484964    0.3073832  
   0.868956600    -0.5955021    0.3977319  
   0.870956500    -0.5295210    0.4793852  
   0.872956400    -0.4520382    0.5505656  
   0.874956300    -0.3643117    0.6097119  
   0.876956200    -0.2676618    0.6552639  
   0.878956100    -0.1644904    0.6862707  
   0.880956000    -0.0571071    0.7010536  
   0.882955900     0.0522065    0.6990606  
   0.884955800     0.1610924    0.6798955  
   0.886955700     0.2659039    0.6435721  
   0.888955600     0.3649407    0.5905772  
   0.890955500     0.4545919    0.5215721  
   0.892955400     0.5323544    0.4388398  
   0.894955300     0.5964223    0.3438191  
