! MS46122B
! 2250307/22442219
! 7/21/2025 12:08:19 PM
! C:\USERS\SPARKY\DOCUMENTS\VNA_DATA\JULY21_2025\295K\PORT4_MOS4.S1P
! CHANNEL.1
! TR.MEASUREMENT
! RAW.DATA
# GHZ S RI R 50.0
! FREQ.GHZ         S11RE         S11IM         
!; PortSelection: Port_1
   0.001000000     1.0452130   -0.0710899  
   0.002999900     0.9635854   -0.1936820  
   0.004999800     0.9029662   -0.2984599  
   0.006999700     0.8351578   -0.3957391  
   0.008999600     0.7550735   -0.4902277  
   0.010999500     0.6603093   -0.5792491  
   0.012999400     0.5452076   -0.6595503  
   0.014999300     0.4044074   -0.7243145  
   0.016999200     0.2327794   -0.7597233  
   0.018999100     0.0290181   -0.7456520  
   0.020999000    -0.1935793   -0.6494316  
   0.022998900    -0.3910893   -0.4394034  
   0.024998800    -0.4661848   -0.1232828  
   0.026998700    -0.3921912    0.2299199  
   0.028998600    -0.1373389    0.4792919  
   0.030998500     0.1756852    0.5629694  
   0.032998400     0.4230412    0.5019869  
   0.034998300     0.6457452    0.3845873  
   0.036998200     0.7693189    0.2321149  
   0.038998100     0.8366507    0.0776967  
   0.040998000     0.8628855   -0.0670305  
   0.042997900     0.8595231   -0.1984066  
   0.044997800     0.8110013   -0.2898552  
   0.046997700     0.7945213   -0.4183230  
   0.048997600     0.7429656   -0.5084901  
   0.050997500     0.6829026   -0.5863988  
   0.052997400     0.6163126   -0.6535124  
   0.054997300     0.5446907   -0.7102147  
   0.056997200     0.4675133   -0.7587613  
   0.058997100     0.3875467   -0.7975554  
   0.060997000     0.3042261   -0.8274631  
   0.062996900     0.2181013   -0.8485049  
   0.064996800     0.1297607   -0.8599464  
   0.066996700     0.0391648   -0.8621238  
   0.068996600    -0.0524638   -0.8538454  
   0.070996500    -0.1451734   -0.8356068  
   0.072996400    -0.2372619   -0.8045385  
   0.074996300    -0.3278421   -0.7613084  
   0.076996200    -0.4157392   -0.7048139  
   0.078996100    -0.4981852   -0.6346352  
   0.080996000    -0.5738394   -0.5496895  
   0.082995900    -0.6390165   -0.4502170  
   0.084995800    -0.6901644   -0.3366716  
   0.086995700    -0.7250950   -0.2105640  
   0.088995600    -0.7387661   -0.0736139  
   0.090995500    -0.7273728    0.0702394  
   0.092995400    -0.6883182    0.2164640  
   0.094995300    -0.6175885    0.3580641  
   0.096995200    -0.5158176    0.4869149  
   0.098995100    -0.3845968    0.5940835  
   0.100995000    -0.2285202    0.6731412  
   0.102994900    -0.0583788    0.7145343  
   0.104994800     0.1169919    0.7164376  
   0.106994700     0.2866168    0.6783891  
   0.108994600     0.4412485    0.6058693  
   0.110994500     0.5730645    0.5041909  
   0.112994400     0.6767759    0.3807598  
   0.114994300     0.7504326    0.2440591  
   0.116994200     0.7938926    0.1017623  
   0.118994100     0.8089703   -0.0399275  
   0.120994000     0.8003775   -0.1759600  
   0.122993900     0.7682076   -0.3030194  
   0.124993800     0.7179362   -0.4178436  
   0.126993700     0.6524144   -0.5192725  
   0.128993600     0.5743825   -0.6057619  
   0.130993500     0.4879925   -0.6778840  
   0.132993400     0.3946081   -0.7356980  
   0.134993300     0.2969886   -0.7787685  
   0.136993200     0.1961925   -0.8075445  
   0.138993100     0.0938160   -0.8224975  
   0.140993000    -0.0079772   -0.8237399  
   0.142992900    -0.1091675   -0.8119912  
   0.144992800    -0.2076372   -0.7886690  
   0.146992700    -0.3018320   -0.7512576  
   0.148992600    -0.3915044   -0.7018177  
   0.150992500    -0.4733511   -0.6394452  
   0.152992400    -0.5484480   -0.5670394  
   0.154992300    -0.6139464   -0.4840314  
   0.156992200    -0.6684932   -0.3907572  
   0.158992100    -0.7107631   -0.2888054  
   0.160992000    -0.7386062   -0.1790830  
   0.162991900    -0.7503062   -0.0637196  
   0.164991800    -0.7444400    0.0553927  
   0.166991700    -0.7194043    0.1753079  
   0.168991600    -0.6745099    0.2929570  
   0.170991500    -0.6090050    0.4050281  
   0.172991400    -0.5235969    0.5068741  
   0.174991300    -0.4191631    0.5944455  
   0.176991200    -0.2982512    0.6641343  
   0.178991100    -0.1641500    0.7112851  
   0.180991000    -0.0216963    0.7343630  
   0.182990900     0.1241241    0.7293338  
   0.184990800     0.2678094    0.6966309  
   0.186990700     0.4027128    0.6372309  
   0.188990600     0.5064819    0.5681058  
   0.190990500     0.6224459    0.4522517  
   0.192990400     0.7042785    0.3301516  
   0.194990300     0.7597126    0.2000810  
   0.196990200     0.7903014    0.0653928  
   0.198990100     0.7961426   -0.0698700  
   0.200990000     0.7791342   -0.2013342  
   0.202989900     0.7408859   -0.3251335  
   0.204989800     0.6841026   -0.4377183  
   0.206989700     0.6128031   -0.5377762  
   0.208989600     0.5278645   -0.6223602  
   0.210989500     0.4331212   -0.6917346  
   0.212989400     0.3304163   -0.7447510  
   0.214989300     0.2231528   -0.7814261  
   0.216989200     0.1137788   -0.8015654  
   0.218989100     0.0047030   -0.8059395  
   0.220989000    -0.1032493   -0.7947223  
   0.222988900    -0.2080995   -0.7680324  
   0.224988800    -0.3078169   -0.7273375  
   0.226988700    -0.4005899   -0.6731294  
   0.228988600    -0.4845256   -0.6067928  
   0.230988500    -0.5586173   -0.5286903  
   0.232988400    -0.6203843   -0.4389670  
   0.234988300    -0.6701533   -0.3409783  
   0.236988200    -0.7057601   -0.2350393  
   0.238988100    -0.7253169   -0.1237610  
   0.240988000    -0.7275805   -0.0090178  
   0.242987900    -0.7119184    0.1066734  
   0.244987800    -0.6777625    0.2206251  
   0.246987700    -0.6243018    0.3300202  
   0.248987600    -0.5519287    0.4315175  
   0.250987500    -0.4610373    0.5213737  
   0.252987400    -0.3546804    0.5951391  
   0.254987300    -0.2354091    0.6502456  
   0.256987200    -0.1061203    0.6835824  
   0.258987100     0.0289903    0.6942738  
   0.260987000     0.1655940    0.6785550  
   0.262986900     0.2977497    0.6376656  
   0.264986800     0.4205071    0.5723840  
   0.266986700     0.5289193    0.4854231  
   0.268986600     0.6186946    0.3804064  
   0.270986500     0.6868014    0.2620506  
   0.272986400     0.7316872    0.1348252  
   0.274986300     0.7525784    0.0036574  
   0.276986200     0.7502623   -0.1264065  
   0.278986100     0.7254055   -0.2527104  
   0.280986000     0.6804463   -0.3701667  
   0.282985900     0.6177412   -0.4768462  
   0.284985800     0.5405687   -0.5695707  
   0.286985700     0.4514244   -0.6468027  
   0.288985600     0.3540613   -0.7077001  
   0.290985500     0.2514822   -0.7520319  
   0.292985400     0.1454430   -0.7804521  
   0.294985300     0.0382882   -0.7929111  
   0.296985200    -0.0683017   -0.7901046  
   0.298985100    -0.1729013   -0.7721447  
   0.300985000    -0.2732941   -0.7402646  
   0.302984900    -0.3671598   -0.6951181  
   0.304984800    -0.4534724   -0.6380830  
   0.306984700    -0.5307236   -0.5698922  
   0.308984600    -0.5977460   -0.4922313  
   0.310984500    -0.6534656   -0.4067914  
   0.312984400    -0.6976376   -0.3130633  
   0.314984300    -0.7286556   -0.2137737  
   0.316984200    -0.7452494   -0.1093538  
   0.318984100    -0.7465065   -0.0006157  
   0.320984000    -0.7308832    0.1090147  
   0.322983900    -0.6969124    0.2169225  
   0.324983800    -0.6449896    0.3188487  
   0.326983700    -0.5756572    0.4103714  
   0.328983600    -0.4921106    0.4881479  
   0.330983500    -0.3981142    0.5494835  
   0.332983400    -0.2987477    0.5937285  
   0.334983300    -0.1960399    0.6229329  
   0.336983200    -0.0918335    0.6376696  
   0.338983100     0.0139194    0.6385816  
   0.340983000     0.1197847    0.6247563  
   0.342982900     0.2245615    0.5951256  
   0.344982800     0.3258515    0.5485612  
   0.346982700     0.4207295    0.4850698  
   0.348982600     0.5043749    0.4042090  
   0.350982500     0.5749696    0.3098508  
   0.352982400     0.6287401    0.2032162  
   0.354982300     0.6636719    0.0831391  
   0.356982200     0.6755562   -0.0537472  
   0.358982100     0.6598083   -0.1902258  
   0.360982000     0.6172338   -0.3205137  
   0.362981900     0.5501308   -0.4396991  
   0.364981800     0.4609097   -0.5431479  
   0.366981700     0.3534855   -0.6268439  
   0.368981600     0.2328648   -0.6876096  
   0.370981500     0.1033617   -0.7240949  
   0.372981400    -0.0295432   -0.7350916  
   0.374981300    -0.1614342   -0.7209090  
   0.376981200    -0.0497230   -0.7366671  
   0.378981100    -0.1796206   -0.7182484  
   0.380981000    -0.3032370   -0.6772488  
   0.382980900    -0.4063640   -0.6212575  
   0.384980800    -0.4943462   -0.5529938  
   0.386980700    -0.5703004   -0.4727695  
   0.388980600    -0.6331589   -0.3816163  
   0.390980500    -0.6810362   -0.2833110  
   0.392980400    -0.7131707   -0.1790166  
   0.394980300    -0.7292652   -0.0715181  
   0.396980200    -0.7292520    0.0373901  
   0.398980100    -0.7129216    0.1456837  
   0.400980000    -0.6802178    0.2507659  
   0.402979900    -0.6317531    0.3504896  
   0.404979800    -0.5682943    0.4423431  
   0.406979700    -0.4905210    0.5241659  
   0.408979600    -0.4001902    0.5934945  
   0.410979500    -0.2987789    0.6492178  
   0.412979400    -0.1877543    0.6886253  
   0.414979300    -0.0703937    0.7084757  
   0.416979200     0.0498922    0.7104012  
   0.418979100     0.1700166    0.6921379  
   0.420979000     0.2865176    0.6538918  
   0.422978900     0.3961635    0.5960191  
   0.424978800     0.4950862    0.5196816  
   0.426978700     0.5798689    0.4268595  
   0.428978600     0.6475505    0.3206142  
   0.430978500     0.6960291    0.2044167  
   0.432978400     0.7235695    0.0820893  
   0.434978300     0.7307557   -0.0429170  
   0.436978200     0.7155536   -0.1660977  
   0.438978100     0.6797839   -0.2847010  
   0.440978000     0.6248217   -0.3944580  
   0.442977900     0.5526859   -0.4925263  
   0.444977800     0.4662249   -0.5763073  
   0.446977700     0.3681888   -0.6440607  
   0.448977600     0.2617610   -0.6942381  
   0.450977500     0.1497400   -0.7257738  
   0.452977400     0.0352030   -0.7389900  
   0.454977300    -0.0797923   -0.7336978  
   0.456977200    -0.1914977   -0.7105860  
   0.458977100    -0.2976618   -0.6702976  
   0.460977000    -0.3950919   -0.6143755  
   0.462976900    -0.4818785   -0.5446994  
   0.464976800    -0.5565194   -0.4625674  
   0.466976700    -0.6170685   -0.3703228  
   0.468976600    -0.6628732   -0.2702234  
   0.470976500    -0.6926274   -0.1640897  
   0.472976400    -0.7054874   -0.0546682  
   0.474976300    -0.7012174    0.0557403  
   0.476976200    -0.6793560    0.1642164  
   0.478976100    -0.6410646    0.2683312  
   0.480976000    -0.5864915    0.3654452  
   0.482975900    -0.5168669    0.4530682  
   0.484975800    -0.4333179    0.5289242  
   0.486975700    -0.3375858    0.5909649  
   0.488975600    -0.2320677    0.6367562  
   0.490975500    -0.1193656    0.6646760  
   0.492975400    -0.0024825    0.6729566  
   0.494975300     0.1147354    0.6612062  
   0.496975200     0.2289857    0.6288191  
   0.498975100     0.3353751    0.5771176  
   0.500975000     0.4311447    0.5076078  
   0.502974900     0.5126030    0.4229309  
   0.504974800     0.5773715    0.3256378  
   0.506974700     0.6237054    0.2192812  
   0.508974600     0.6507261    0.1077086  
   0.510974500     0.6576661   -0.0047613  
   0.512974400     0.6459461   -0.1147163  
   0.514974300     0.6162196   -0.2174996  
   0.516974200     0.5727829   -0.3127082  
   0.518974100     0.5171686   -0.3976680  
   0.520974000     0.4513817   -0.4722473  
   0.522973900     0.3772089   -0.5355591  
   0.524973800     0.2959250   -0.5873292  
   0.526973700     0.2093556   -0.6280489  
   0.528973600     0.1181043   -0.6563494  
   0.530973500     0.0226222   -0.6727517  
   0.532973400    -0.0750948   -0.6755552  
   0.534973300    -0.1734687   -0.6636412  
   0.536973200    -0.2709729   -0.6376557  
   0.538973100    -0.3641747   -0.5962687  
   0.540973000    -0.4509591   -0.5404909  
   0.542972900    -0.5291732   -0.4706617  
   0.544972800    -0.5962226   -0.3884668  
   0.546972700    -0.6496676   -0.2951822  
   0.548972600    -0.6878873   -0.1934516  
   0.550972500    -0.7092426   -0.0860172  
   0.552972400    -0.7129816    0.0242631  
   0.554972300    -0.6985745    0.1346408  
   0.556972200    -0.6663312    0.2416507  
   0.558972100    -0.6168293    0.3425476  
   0.560972000    -0.5515542    0.4344192  
   0.562971900    -0.4720218    0.5143173  
   0.564971800    -0.3802572    0.5808081  
   0.566971700    -0.2785901    0.6317022  
   0.568971600    -0.1696117    0.6658310  
   0.570971500    -0.0560106    0.6814220  
   0.572971400     0.0593569    0.6783844  
   0.574971300     0.1738569    0.6561282  
   0.576971200     0.2841082    0.6146060  
   0.578971100     0.3864560    0.5548551  
   0.580971000     0.4777457    0.4781321  
   0.582970900     0.5548282    0.3868499  
   0.584970800     0.6153511    0.2836074  
   0.586970700     0.6571850    0.1719729  
   0.588970600     0.6795186    0.0545217  
   0.590970500     0.6814051   -0.0651564  
   0.592970400     0.6630281   -0.1832057  
   0.594970300     0.6247612   -0.2956773  
   0.596970200     0.5682636   -0.3999598  
   0.598970100     0.4951291   -0.4926282  
   0.600970000     0.4081559   -0.5713469  
   0.602969900     0.3096050   -0.6342768  
   0.604969800     0.2029320   -0.6794069  
   0.606969700     0.0906157   -0.7059411  
   0.608969600    -0.0238014   -0.7142653  
   0.610969500    -0.1371500   -0.7034900  
   0.612969400    -0.2462645   -0.6754633  
   0.614969300    -0.3485253   -0.6304771  
   0.616969200    -0.4413368   -0.5705640  
   0.618969100    -0.5225825   -0.4978343  
   0.620969000    -0.5913681   -0.4143298  
   0.622968900    -0.6464671   -0.3218619  
   0.624968800    -0.6867587   -0.2222933  
   0.626968700    -0.7118031   -0.1176518  
   0.628968600    -0.7206511   -0.0104428  
   0.630968500    -0.7132186    0.0967395  
   0.632968400    -0.6897910    0.2019316  
   0.634968300    -0.6503964    0.3025595  
   0.636968200    -0.5965264    0.3966575  
   0.638968100    -0.5284501    0.4821613  
   0.640968000    -0.4472833    0.5564037  
   0.642967900    -0.3556010    0.6179541  
   0.644967800    -0.2542596    0.6650149  
   0.646967700    -0.1462150    0.6958823  
   0.648967600    -0.0340275    0.7094935  
   0.650967500     0.0795546    0.7052808  
   0.652967400     0.1917459    0.6831062  
   0.654967300     0.2998720    0.6428756  
   0.656967200     0.4006606    0.5855332  
   0.658967100     0.4916147    0.5116458  
   0.660967000     0.5700585    0.4236090  
   0.662966900     0.6331090    0.3223998  
   0.664966800     0.6791952    0.2114342  
   0.666966700     0.7060267    0.0934933  
   0.668966600     0.7126876   -0.0276025  
   0.670966500     0.6988686   -0.1482610  
   0.672966400     0.6658762   -0.2644180  
   0.674966300     0.6133505   -0.3726260  
   0.676966200     0.5435961   -0.4698583  
   0.678966100     0.4600553   -0.5531568  
   0.680966000     0.3638493   -0.6210305  
   0.682965900     0.2593586   -0.6715712  
   0.684965800     0.1490598   -0.7042781  
   0.686965700     0.0359790   -0.7186093  
   0.688965600    -0.0768689   -0.7148119  
   0.690965500    -0.1860465   -0.6925378  
   0.692965400    -0.2895686   -0.6547985  
   0.694965300    -0.3848322   -0.6019194  
   0.696965200    -0.4701964   -0.5359529  
   0.698965100    -0.5439270   -0.4578698  
   0.700965000    -0.6047525   -0.3700221  
   0.702964900    -0.6513264   -0.2746226  
   0.704964800    -0.6828781   -0.1734290  
   0.706964700    -0.6987382   -0.0687231  
   0.708964600    -0.6985728    0.0373055  
   0.710964500    -0.6825794    0.1427735  
   0.712964400    -0.6502056    0.2442082  
   0.714964300    -0.6021238    0.3399572  
   0.716964200    -0.5400017    0.4271736  
   0.718964100    -0.4646140    0.5041037  
   0.720964000    -0.3781670    0.5682550  
   0.722963900    -0.2823414    0.6181890  
   0.724963800    -0.1790166    0.6525069  
   0.726963700    -0.0711936    0.6698344  
   0.728963600     0.0388993    0.6694540  
   0.730963500     0.1475206    0.6506070  
   0.732963400     0.2521280    0.6144845  
   0.734963300     0.3497307    0.5612327  
   0.736963200     0.4496831    0.4819308  
   0.738963100     0.5333613    0.3848158  
   0.740963000     0.5966386    0.2738259  
   0.742962900     0.6380408    0.1537567  
   0.744962800     0.6560228    0.0288476  
   0.746962700     0.6505892   -0.0959034  
   0.748962600     0.6225290   -0.2171342  
   0.750962500     0.6353136   -0.1192414  
   0.752962400     0.6044782   -0.2377791  
   0.754962300     0.5529367   -0.3478700  
   0.756962200     0.4828377   -0.4462423  
   0.758962100     0.3971516   -0.5298312  
   0.760962000     0.2980024   -0.5968729  
   0.762961900     0.1944424   -0.6434861  
   0.764961800     0.0937893   -0.6705370  
   0.766961700    -0.0093849   -0.6821614  
   0.768961600    -0.1136811   -0.6775482  
   0.770961500    -0.2162038   -0.6572828  
   0.772961400    -0.3143944   -0.6213090  
   0.774961300    -0.4061151   -0.5708082  
   0.776961200    -0.4891363   -0.5062670  
   0.778961100    -0.5616217   -0.4293593  
   0.780961000    -0.6212225   -0.3416325  
   0.782960900    -0.6665108   -0.2452181  
   0.784960800    -0.6962472   -0.1422044  
   0.786960700    -0.7093343   -0.0355762  
   0.788960600    -0.7053063    0.0722119  
   0.790960500    -0.6844175    0.1779501  
   0.792960400    -0.6470619    0.2791490  
   0.794960300    -0.5939602    0.3736001  
   0.796960200    -0.5272327    0.4581836  
   0.798960100    -0.4475473    0.5313281  
   0.800960000    -0.3574355    0.5910704  
   0.802959900    -0.2587886    0.6360819  
   0.804959800    -0.1542495    0.6652666  
   0.806959700    -0.0466566    0.6776264  
   0.808959600     0.0621784    0.6727228  
   0.810959500     0.1692245    0.6506220  
   0.812959400     0.2720045    0.6114594  
   0.814959300     0.3676649    0.5563570  
   0.816959200     0.4535159    0.4864843  
   0.818959100     0.5275165    0.4028480  
   0.820959000     0.5873154    0.3080974  
   0.822958900     0.6308863    0.2044142  
   0.824958800     0.6572744    0.0946040  
   0.826958700     0.6649504   -0.0185965  
   0.828958600     0.6539497   -0.1315965  
   0.830958500     0.6243892   -0.2415251  
   0.832958400     0.5772703   -0.3450618  
   0.834958300     0.5134676   -0.4389400  
   0.836958200     0.4352157   -0.5211985  
   0.838958100     0.3449344   -0.5890415  
   0.840958000     0.2447346   -0.6412811  
   0.842957900     0.1376772   -0.6760015  
   0.844957800     0.0270138   -0.6928341  
   0.846957700    -0.0844474   -0.6916170  
   0.848957600    -0.1936072   -0.6723000  
   0.850957500    -0.2978455   -0.6359172  
   0.852957400    -0.3941378   -0.5839595  
   0.854957300    -0.4807264   -0.5177125  
   0.856957200    -0.5553337   -0.4390960  
   0.858957100    -0.6162770   -0.3507863  
   0.860957000    -0.6624796   -0.2547104  
   0.862956900    -0.6933043   -0.1539274  
   0.864956800    -0.7082821   -0.0506453  
   0.866956700    -0.7076078    0.0529983  
   0.868956600    -0.6916413    0.1551345  
   0.870956500    -0.6610740    0.2533508  
   0.872956400    -0.6156361    0.3461775  
   0.874956300    -0.5574429    0.4314169  
   0.876956200    -0.4867864    0.5074638  
   0.878956100    -0.4047067    0.5725535  
   0.880956000    -0.3135291    0.6247787  
   0.882955900    -0.2147616    0.6632499  
   0.884955800    -0.1107538    0.6862495  
   0.886955700    -0.0036379    0.6930632  
   0.888955600     0.1041760    0.6830663  
   0.890955500     0.2097537    0.6564175  
   0.892955400     0.3107402    0.6130126  
   0.894955300     0.4040772    0.5534832  
