! MS46122B
! 2250307/22442219
! 7/23/2025 1:21:36 PM
! C:\USERS\SPARKY\DOCUMENTS\VNA_DATA\JULY23_2025\295K\PORT6_MOS4_REPEAT1.S1P
! CHANNEL.1
! TR.MEASUREMENT
! RAW.DATA
# GHZ S RI R 50.0
! FREQ.GHZ         S11RE         S11IM         
!; PortSelection: Port_1
   0.001000000     1.0461020   -0.0713111  
   0.002999900     0.9643694   -0.1938633  
   0.004999800     0.9032966   -0.2987028  
   0.006999700     0.8354554   -0.3961283  
   0.008999600     0.7551168   -0.4906958  
   0.010999500     0.6600671   -0.5796261  
   0.012999400     0.5446624   -0.6598089  
   0.014999300     0.4036425   -0.7241576  
   0.016999200     0.2318855   -0.7590193  
   0.018999100     0.0284554   -0.7439741  
   0.020999000    -0.1933716   -0.6465636  
   0.022998900    -0.3886683   -0.4364622  
   0.024998800    -0.4615651   -0.1218700  
   0.026998700    -0.3866608    0.2281644  
   0.028998600    -0.1335359    0.4746428  
   0.030998500     0.1766298    0.5574463  
   0.032998400     0.4218246    0.4973741  
   0.034998300     0.6433380    0.3811389  
   0.036998200     0.7665614    0.2298678  
   0.038998100     0.8338985    0.0763046  
   0.040998000     0.8602100   -0.0679923  
   0.042997900     0.8572384   -0.1986685  
   0.044997800     0.8090943   -0.2896474  
   0.046997700     0.7926995   -0.4179167  
   0.048997600     0.7413383   -0.5080763  
   0.050997500     0.6814643   -0.5858842  
   0.052997400     0.6165056   -0.6514985  
   0.054997300     0.5427792   -0.7101179  
   0.056997200     0.4663783   -0.7579997  
   0.058997100     0.3864850   -0.7966400  
   0.060997000     0.3031986   -0.8265157  
   0.062996900     0.2171979   -0.8472636  
   0.064996800     0.1288538   -0.8587132  
   0.066996700     0.0384899   -0.8607265  
   0.068996600    -0.0529847   -0.8522718  
   0.070996500    -0.1453956   -0.8339316  
   0.072996400    -0.2374134   -0.8026966  
   0.074996300    -0.3277174   -0.7593895  
   0.076996200    -0.4151960   -0.7027519  
   0.078996100    -0.4973876   -0.6325698  
   0.080996000    -0.5726822   -0.5476355  
   0.082995900    -0.6373771   -0.4482853  
   0.084995800    -0.6880306   -0.3348953  
   0.086995700    -0.7225652   -0.2091767  
   0.088995600    -0.7358010   -0.0726258  
   0.090995500    -0.7240588    0.0707281  
   0.092995400    -0.6847590    0.2162973  
   0.094995300    -0.6139445    0.3571247  
   0.096995200    -0.5123567    0.4851489  
   0.098995100    -0.3814583    0.5915807  
   0.100995000    -0.2260526    0.6698493  
   0.102994900    -0.0566789    0.7107452  
   0.104994800     0.1179029    0.7123408  
   0.106994700     0.2865303    0.6743177  
   0.108994600     0.4404050    0.6020672  
   0.110994500     0.5715401    0.5006801  
   0.112994400     0.6747335    0.3778753  
   0.114994300     0.7479890    0.2417966  
   0.116994200     0.7912004    0.1000975  
   0.118994100     0.8062284   -0.0410647  
   0.120994000     0.7976173   -0.1767254  
   0.122993900     0.7655413   -0.3031374  
   0.124993800     0.7154650   -0.4175350  
   0.126993700     0.6501788   -0.5185569  
   0.128993600     0.5723247   -0.6047757  
   0.130993500     0.4860860   -0.6766300  
   0.132993400     0.3930811   -0.7341979  
   0.134993300     0.2956717   -0.7771507  
   0.136993200     0.1952031   -0.8057388  
   0.138993100     0.0932150   -0.8204867  
   0.140993000    -0.0085260   -0.8217316  
   0.142992900    -0.1091005   -0.8097966  
   0.144992800    -0.2074348   -0.7865708  
   0.146992700    -0.3014661   -0.7491370  
   0.148992600    -0.3907150   -0.6997350  
   0.150992500    -0.4722582   -0.6375498  
   0.152992400    -0.5470411   -0.5651640  
   0.154992300    -0.6122764   -0.4822360  
   0.156992200    -0.6665130   -0.3891148  
   0.158992100    -0.7084969   -0.2874822  
   0.160992000    -0.7358857   -0.1779538  
   0.162991900    -0.7475970   -0.0629576  
   0.164991800    -0.7414653    0.0558414  
   0.166991700    -0.7163435    0.1752954  
   0.168991600    -0.6713802    0.2924349  
   0.170991500    -0.6059182    0.4040442  
   0.172991400    -0.5205806    0.5054141  
   0.174991300    -0.4163498    0.5924910  
   0.176991200    -0.2955990    0.6615158  
   0.178991100    -0.1621447    0.7084258  
   0.180991000    -0.0201502    0.7311670  
   0.182990900     0.1250892    0.7259821  
   0.184990800     0.2681416    0.6932466  
   0.186990700     0.4023963    0.6339101  
   0.188990600     0.5057130    0.5649469  
   0.190990500     0.6210882    0.4494977  
   0.192990400     0.7024262    0.3279583  
   0.194990300     0.7575870    0.1983282  
   0.196990200     0.7880837    0.0638654  
   0.198990100     0.7938288   -0.0707687  
   0.200990000     0.7768477   -0.2018088  
   0.202989900     0.7386218   -0.3249564  
   0.204989800     0.6819878   -0.4371293  
   0.206989700     0.6110131   -0.5367906  
   0.208989600     0.5265044   -0.6211075  
   0.210989500     0.4317796   -0.6903068  
   0.212989400     0.3294006   -0.7430912  
   0.214989300     0.2225650   -0.7795710  
   0.216989200     0.1134468   -0.7996509  
   0.218989100     0.0046079   -0.8039830  
   0.220989000    -0.1030842   -0.7927411  
   0.222988900    -0.2075108   -0.7659678  
   0.224988800    -0.3069516   -0.7254297  
   0.226988700    -0.3996535   -0.6712345  
   0.228988600    -0.4832551   -0.6049353  
   0.230988500    -0.5570689   -0.5268572  
   0.232988400    -0.6186118   -0.4372514  
   0.234988300    -0.6680549   -0.3394817  
   0.236988200    -0.7034163   -0.2337700  
   0.238988100    -0.7227041   -0.1227190  
   0.240988000    -0.7247666   -0.0082554  
   0.242987900    -0.7089348    0.1071762  
   0.244987800    -0.6745242    0.2206130  
   0.246987700    -0.6211277    0.3296738  
   0.248987600    -0.5486491    0.4307387  
   0.250987500    -0.4579198    0.5200572  
   0.252987400    -0.3517070    0.5934913  
   0.254987300    -0.2327009    0.6480582  
   0.256987200    -0.1038793    0.6809992  
   0.258987100     0.0309652    0.6914139  
   0.260987000     0.1667780    0.6754978  
   0.262986900     0.2983845    0.6345192  
   0.264986800     0.4205223    0.5692883  
   0.266986700     0.5284978    0.4824635  
   0.268986600     0.6177473    0.3777580  
   0.270986500     0.6854700    0.2598138  
   0.272986400     0.7300359    0.1331656  
   0.274986300     0.7507607    0.0024701  
   0.276986200     0.7484105   -0.1273700  
   0.278986100     0.7234743   -0.2530330  
   0.280986000     0.6786678   -0.3701770  
   0.282985900     0.6162125   -0.4762658  
   0.284985800     0.5391814   -0.5687983  
   0.286985700     0.4502826   -0.6458462  
   0.288985600     0.3531208   -0.7065389  
   0.290985500     0.2506604   -0.7507688  
   0.292985400     0.1449148   -0.7790422  
   0.294985300     0.0379932   -0.7914351  
   0.296985200    -0.0683101   -0.7884424  
   0.298985100    -0.1727845   -0.7705724  
   0.300985000    -0.2729244   -0.7386473  
   0.302984900    -0.3665688   -0.6935309  
   0.304984800    -0.4526676   -0.6365041  
   0.306984700    -0.5297414   -0.5683188  
   0.308984600    -0.5966120   -0.4906965  
   0.310984500    -0.6521982   -0.4050999  
   0.312984400    -0.6960880   -0.3116878  
   0.314984300    -0.7269040   -0.2124200  
   0.316984200    -0.7432657   -0.1083022  
   0.318984100    -0.7443895    0.0001794  
   0.320984000    -0.7284780    0.1091903  
   0.322983900    -0.6944283    0.2170692  
   0.324983800    -0.6425261    0.3186970  
   0.326983700    -0.5732372    0.4098324  
   0.328983600    -0.4900104    0.4871837  
   0.330983500    -0.3964055    0.5483306  
   0.332983400    -0.2972755    0.5924322  
   0.334983300    -0.1950130    0.6215708  
   0.336983200    -0.0907543    0.6364767  
   0.338983100     0.0148017    0.6373814  
   0.340983000     0.1205867    0.6235451  
   0.342982900     0.2252275    0.5938380  
   0.344982800     0.3262726    0.5472482  
   0.346982700     0.4210801    0.4836831  
   0.348982600     0.5043442    0.4029153  
   0.350982500     0.5747696    0.3086312  
   0.352982400     0.6282631    0.2021184  
   0.354982300     0.6630198    0.0822061  
   0.356982200     0.6747074   -0.0544365  
   0.358982100     0.6588588   -0.1907180  
   0.360982000     0.6161803   -0.3208147  
   0.362981900     0.5490265   -0.4397937  
   0.364981800     0.4598796   -0.5428726  
   0.366981700     0.3524968   -0.6263238  
   0.368981600     0.2320090   -0.6869358  
   0.370981500     0.1027256   -0.7232322  
   0.372981400    -0.0300555   -0.7339892  
   0.374981300    -0.1616544   -0.7196267  
   0.376981200    -0.0501190   -0.7354127  
   0.378981100    -0.1798030   -0.7169264  
   0.380981000    -0.3031055   -0.6757546  
   0.382980900    -0.4060477   -0.6198129  
   0.384980800    -0.4938405   -0.5517343  
   0.386980700    -0.5696170   -0.4713048  
   0.388980600    -0.6322184   -0.3802946  
   0.390980500    -0.6799434   -0.2819687  
   0.392980400    -0.7118132   -0.1778625  
   0.394980300    -0.7278010   -0.0704259  
   0.396980200    -0.7276646    0.0382152  
   0.398980100    -0.7112983    0.1459420  
   0.400980000    -0.6784871    0.2509837  
   0.402979900    -0.6300772    0.3504534  
   0.404979800    -0.5666685    0.4420158  
   0.406979700    -0.4890178    0.5236433  
   0.408979600    -0.3988659    0.5927615  
   0.410979500    -0.2975290    0.6483567  
   0.412979400    -0.1869431    0.6875752  
   0.414979300    -0.0697096    0.7073354  
   0.416979200     0.0501859    0.7093097  
   0.418979100     0.1700825    0.6910862  
   0.420979000     0.2863687    0.6529452  
   0.422978900     0.3957899    0.5952680  
   0.424978800     0.4945430    0.5190837  
   0.426978700     0.5792484    0.4265213  
   0.428978600     0.6468914    0.3204431  
   0.430978500     0.6954001    0.2043876  
   0.432978400     0.7229843    0.0821747  
   0.434978300     0.7301903   -0.0427856  
   0.436978200     0.7149525   -0.1659374  
   0.438978100     0.6792956   -0.2844171  
   0.440978000     0.6244254   -0.3941093  
   0.442977900     0.5523778   -0.4920908  
   0.444977800     0.4659494   -0.5757512  
   0.446977700     0.3679625   -0.6435727  
   0.448977600     0.2615805   -0.6937096  
   0.450977500     0.1498157   -0.7251272  
   0.452977400     0.0351066   -0.7384277  
   0.454977300    -0.0797179   -0.7330747  
   0.456977200    -0.1912665   -0.7099091  
   0.458977100    -0.2974890   -0.6695990  
   0.460977000    -0.3946375   -0.6137855  
   0.462976900    -0.4813378   -0.5442258  
   0.464976800    -0.5558696   -0.4621339  
   0.466976700    -0.6163254   -0.3701069  
   0.468976600    -0.6621261   -0.2701279  
   0.470976500    -0.6917648   -0.1643236  
   0.472976400    -0.7047470   -0.0549093  
   0.474976300    -0.7005174    0.0553140  
   0.476976200    -0.6787130    0.1636514  
   0.478976100    -0.6405428    0.2676771  
   0.480976000    -0.5861221    0.3647080  
   0.482975900    -0.5165359    0.4522549  
   0.484975800    -0.4332725    0.5280676  
   0.486975700    -0.3378353    0.5900904  
   0.488975600    -0.2324284    0.6359673  
   0.490975500    -0.1199672    0.6638721  
   0.492975400    -0.0031861    0.6723831  
   0.494975300     0.1138845    0.6607580  
   0.496975200     0.2278998    0.6285698  
   0.498975100     0.3343616    0.5770558  
   0.500975000     0.4301203    0.5077766  
   0.502974900     0.5115732    0.4231922  
   0.504974800     0.5764214    0.3261675  
   0.506974700     0.6228788    0.2200710  
   0.508974600     0.6500261    0.1087262  
   0.510974500     0.6572092   -0.0035873  
   0.512974400     0.6457261   -0.1134321  
   0.514974300     0.6163138   -0.2160692  
   0.516974200     0.5730013   -0.3113024  
   0.518974100     0.5176793   -0.3965470  
   0.520974000     0.4520838   -0.4711925  
   0.522973900     0.3782194   -0.5346721  
   0.524973800     0.2972525   -0.5863780  
   0.526973700     0.2106327   -0.6276501  
   0.528973600     0.1193515   -0.6562129  
   0.530973500     0.0239151   -0.6728866  
   0.532973400    -0.0739052   -0.6758620  
   0.534973300    -0.1724412   -0.6639680  
   0.536973200    -0.2700839   -0.6382759  
   0.538973100    -0.3633796   -0.5969638  
   0.540973000    -0.4503230   -0.5412155  
   0.542972900    -0.5286990   -0.4713898  
   0.544972800    -0.5958650   -0.3892199  
   0.546972700    -0.6494072   -0.2959376  
   0.548972600    -0.6877121   -0.1942261  
   0.550972500    -0.7091904   -0.0867878  
   0.552972400    -0.7129812    0.0234365  
   0.554972300    -0.6987165    0.1338002  
   0.556972200    -0.6665993    0.2408294  
   0.558972100    -0.6171917    0.3417561  
   0.560972000    -0.5520555    0.4335960  
   0.562971900    -0.4725815    0.5137339  
   0.564971800    -0.3809188    0.5803073  
   0.566971700    -0.2793173    0.6313012  
   0.568971600    -0.1702644    0.6654046  
   0.570971500    -0.0568681    0.6813040  
   0.572971400     0.0586154    0.6784501  
   0.574971300     0.1731319    0.6563185  
   0.576971200     0.2833974    0.6149552  
   0.578971100     0.3857908    0.5552336  
   0.580971000     0.4772955    0.4788270  
   0.582970900     0.5545748    0.3875314  
   0.584970800     0.6152585    0.2843067  
   0.586970700     0.6572749    0.1726349  
   0.588970600     0.6798253    0.0551160  
   0.590970500     0.6818391   -0.0645474  
   0.592970400     0.6637529   -0.1827378  
   0.594970300     0.6255684   -0.2951852  
   0.596970200     0.5691570   -0.3996817  
   0.598970100     0.4962141   -0.4925954  
   0.600970000     0.4092195   -0.5713706  
   0.602969900     0.3106055   -0.6345813  
   0.604969800     0.2038877   -0.6798646  
   0.606969700     0.0915677   -0.7066177  
   0.608969600    -0.0228858   -0.7150783  
   0.610969500    -0.1363778   -0.7044264  
   0.612969400    -0.2456584   -0.6764177  
   0.614969300    -0.3480986   -0.6316482  
   0.616969200    -0.4410028   -0.5717626  
   0.618969100    -0.5224823   -0.4989730  
   0.620969000    -0.5914578   -0.4154995  
   0.622968900    -0.6466683   -0.3228843  
   0.624968800    -0.6870883   -0.2232525  
   0.626968700    -0.7121655   -0.1185217  
   0.628968600    -0.7210920   -0.0112447  
   0.630968500    -0.7137313    0.0960432  
   0.632968400    -0.6903794    0.2013167  
   0.634968300    -0.6510611    0.3020574  
   0.636968200    -0.5970429    0.3963954  
   0.638968100    -0.5290262    0.4818463  
   0.640968000    -0.4478885    0.5562372  
   0.642967900    -0.3561074    0.6178873  
   0.644967800    -0.2547545    0.6651106  
   0.646967700    -0.1468105    0.6960599  
   0.648967600    -0.0342500    0.7097945  
   0.650967500     0.0791764    0.7058262  
   0.652967400     0.1917784    0.6835480  
   0.654967300     0.3001557    0.6434009  
   0.656967200     0.4010571    0.5859263  
   0.658967100     0.4918645    0.5124035  
   0.660967000     0.5704762    0.4240977  
   0.662966900     0.6338429    0.3228607  
   0.664966800     0.6801148    0.2118282  
   0.666966700     0.7070838    0.0939807  
   0.668966600     0.7139399   -0.0273170  
   0.670966500     0.7000411   -0.1480117  
   0.672966400     0.6674123   -0.2644638  
   0.674966300     0.6149471   -0.3728881  
   0.676966200     0.5450963   -0.4703661  
   0.678966100     0.4615031   -0.5539826  
   0.680966000     0.3652855   -0.6220406  
   0.682965900     0.2607842   -0.6727813  
   0.684965800     0.1502503   -0.7056736  
   0.686965700     0.0370118   -0.7202637  
   0.688965600    -0.0761680   -0.7164624  
   0.690965500    -0.1855066   -0.6942214  
   0.692965400    -0.2893397   -0.6564897  
   0.694965300    -0.3848066   -0.6035930  
   0.696965200    -0.4703930   -0.5374880  
   0.698965100    -0.5441459   -0.4593820  
   0.700965000    -0.6052479   -0.3713161  
   0.702964900    -0.6519145   -0.2757384  
   0.704964800    -0.6835796   -0.1744349  
   0.706964700    -0.6993379   -0.0696582  
   0.708964600    -0.6993461    0.0366812  
   0.710964500    -0.6833991    0.1420921  
   0.712964400    -0.6509636    0.2438426  
   0.714964300    -0.6028107    0.3397336  
   0.716964200    -0.5405605    0.4272061  
   0.718964100    -0.4653223    0.5040902  
   0.720964000    -0.3784949    0.5685649  
   0.722963900    -0.2825473    0.6185309  
   0.724963800    -0.1790758    0.6529368  
   0.726963700    -0.0711929    0.6702943  
   0.728963600     0.0388927    0.6699501  
   0.730963500     0.1478061    0.6511676  
   0.732963400     0.2523776    0.6150360  
   0.734963300     0.3502744    0.5619572  
   0.736963200     0.4504255    0.4825521  
   0.738963100     0.5342922    0.3853024  
   0.740963000     0.5978011    0.2743912  
   0.742962900     0.6394629    0.1542008  
   0.744962800     0.6576991    0.0289732  
   0.746962700     0.6523183   -0.0959910  
   0.748962600     0.6244897   -0.2173783  
   0.750962500     0.6373628   -0.1191387  
   0.752962400     0.6066489   -0.2380647  
   0.754962300     0.5551388   -0.3485000  
   0.756962200     0.4849510   -0.4472387  
   0.758962100     0.3991195   -0.5312566  
   0.760962000     0.2997372   -0.5986083  
   0.762961900     0.1959184   -0.6454903  
   0.764961800     0.0950047   -0.6727396  
   0.766961700    -0.0084750   -0.6844432  
   0.768961600    -0.1131336   -0.6798819  
   0.770961500    -0.2159695   -0.6595322  
   0.772961400    -0.3143623   -0.6234886  
   0.774961300    -0.4064624   -0.5728413  
   0.776961200    -0.4898329   -0.5080919  
   0.778961100    -0.5623575   -0.4310389  
   0.780961000    -0.6220983   -0.3431438  
   0.782960900    -0.6675028   -0.2464462  
   0.784960800    -0.6974189   -0.1432818  
   0.786960700    -0.7104738   -0.0364433  
   0.788960600    -0.7064422    0.0715633  
   0.790960500    -0.6855775    0.1774381  
   0.792960400    -0.6481311    0.2787970  
   0.794960300    -0.5949897    0.3735274  
   0.796960200    -0.5281386    0.4584220  
   0.798960100    -0.4483876    0.5315859  
   0.800960000    -0.3581812    0.5915062  
   0.802959900    -0.2593986    0.6366227  
   0.804959800    -0.1547266    0.6659805  
   0.806959700    -0.0468728    0.6785034  
   0.808959600     0.0622464    0.6736497  
   0.810959500     0.1694597    0.6515988  
   0.812959400     0.2725015    0.6125672  
   0.814959300     0.3684468    0.5574690  
   0.816959200     0.4544830    0.4874692  
   0.818959100     0.5287658    0.4037280  
   0.820959000     0.5887836    0.3088557  
   0.822958900     0.6325788    0.2049080  
   0.824958800     0.6591760    0.0948660  
   0.826958700     0.6670246   -0.0187600  
   0.828958600     0.6560653   -0.1320539  
   0.830958500     0.6263904   -0.2423334  
   0.832958400     0.5792558   -0.3461511  
   0.834958300     0.5152518   -0.4404020  
   0.836958200     0.4366725   -0.5229903  
   0.838958100     0.3462003   -0.5910223  
   0.840958000     0.2456789   -0.6433890  
   0.842957900     0.1383553   -0.6781873  
   0.844957800     0.0272176   -0.6950126  
   0.846957700    -0.0845898   -0.6937085  
   0.848957600    -0.1939905   -0.6742615  
   0.850957500    -0.2985623   -0.6376786  
   0.852957400    -0.3950406   -0.5855805  
   0.854957300    -0.4817479   -0.5191335  
   0.856957200    -0.5565031   -0.4402466  
   0.858957100    -0.6176159   -0.3514805  
   0.860957000    -0.6638570   -0.2551933  
   0.862956900    -0.6946381   -0.1540364  
   0.864956800    -0.7095283   -0.0503966  
   0.866956700    -0.7087701    0.0535393  
   0.868956600    -0.6926113    0.1559484  
   0.870956500    -0.6614898    0.2542177  
   0.872956400    -0.6161510    0.3473049  
   0.874956300    -0.5577057    0.4326617  
   0.876956200    -0.4867689    0.5088309  
   0.878956100    -0.4044426    0.5739647  
   0.880956000    -0.3131830    0.6261618  
   0.882955900    -0.2142232    0.6646385  
   0.884955800    -0.1101409    0.6874710  
   0.886955700    -0.0026578    0.6943622  
   0.888955600     0.1054497    0.6842912  
   0.890955500     0.2112508    0.6574976  
   0.892955400     0.3124942    0.6140326  
   0.894955300     0.4059311    0.5543275  
