! Created with skrf 1.8.0 (http://scikit-rf.org).
# GHz S RI R 50.0 
!freq ReS11 ImS11
0.001 -0.7474631634133403 0.2562896828369793
0.0029999 -0.9786748356065075 0.03717102512447146
0.0049998 -0.9779317510871681 0.027421511892278982
0.0069997 -0.9654937186234707 0.030705918302526503
0.0089996 -0.9654117393406915 0.03129153429470383
0.0109995 -0.9640630256063961 0.036539747874092865
0.0129994 -0.9631318106720541 0.041755585125168304
0.0149993 -0.963282409838815 0.04778453667588145
0.0169992 -0.9629176909591977 0.05182638098265546
0.0189991 -0.9628085167487515 0.05697686378853073
0.020999 -0.9620430571430365 0.06264900696633952
0.0229989 -0.961432567046617 0.06820289178138406
0.0249988 -0.9604758193323308 0.07331725088843191
0.0269987 -0.9601151650463904 0.07905417939371664
0.0289986 -0.9593937009545558 0.08435689465386191
0.0309985 -0.9583985406420169 0.0897320739886239
0.0329984 -0.9578074502868755 0.09546899798249864
0.0349983 -0.9571958924337169 0.10116435398197082
0.0369982 -0.9560565927150547 0.10669089494323275
0.0389981 -0.9550649852201833 0.11222971189086384
0.040998 -0.9546510611368323 0.11782016248279531
0.0429979 -0.9530943290508476 0.12333424001971344
0.0449978 -0.9522592451929937 0.12883754169569417
0.0469977 -0.9515794371206834 0.1344559236046327
0.0489976 -0.9500614098189355 0.14001378328910957
0.0509975 -0.9487566886355747 0.14602281670376532
0.0529974 -0.9480780427020322 0.15188500973371483
0.0549973 -0.9460438805659244 0.15869678891870465
0.0569972 -0.9456513338495174 0.16343413123571107
0.0589971 -0.9442029568577042 0.1693057007034687
0.060997 -0.9435372563693958 0.1755153643468102
0.0629969 -0.9425733970026552 0.1806420732354876
0.0649968 -0.9406736644473036 0.18677297275418828
0.0669967 -0.9405711020643779 0.19296944902902166
0.0689966 -0.9391566753998427 0.1979092388188914
0.0709965 -0.9382511253512102 0.20333679573806102
0.0729964 -0.9370518680157693 0.20965569193359268
0.0749963 -0.9357741766665484 0.21514331855033067
0.0769962 -0.9351774817174769 0.22049101115280165
0.0789961 -0.9337012519489495 0.22576759083357553
0.080996 -0.9322648541136292 0.23157851409805436
0.0829959 -0.9307615402604674 0.23723397170426952
0.0849958 -0.9301500795456136 0.24170619696310985
0.0869957 -0.9288249634097064 0.24758145856186403
0.0889956 -0.9270881807417202 0.2524046060534631
0.0909955 -0.9257949750460447 0.25801313613715515
0.0929954 -0.9240139970324881 0.26299428038660616
0.0949953 -0.9226351755399949 0.26826180404791133
0.0969952 -0.9208340910523437 0.27331345187283124
0.0989951 -0.9187240338263907 0.27848893478669456
0.100995 -0.9184415667250567 0.28410856613328345
0.1029949 -0.9165157124692123 0.2891960246520889
0.1049948 -0.9149975809509578 0.29438099541774454
0.1069947 -0.9129723462029766 0.29921654692274835
0.1089946 -0.9108707145787648 0.30425157759283916
0.1109945 -0.9086804375144932 0.3094496291046724
0.1129944 -0.9065969097034151 0.3145388759042749
0.1149943 -0.9041836749412954 0.31945696812516466
0.1169942 -0.9017895355630303 0.3249358290857053
0.1189941 -0.8996636111203857 0.33018664537831255
0.120994 -0.8972371218131324 0.3355058840854763
0.1229939 -0.8948606555960095 0.34096337518729125
0.1249938 -0.8926689916404896 0.34639945452444487
0.1269937 -0.8903520940446483 0.35144425447395455
0.1289936 -0.8882337795676098 0.35735760211559864
0.1309935 -0.8858404517393198 0.3627173362821292
0.1329934 -0.8836149234630664 0.36809979057573555
0.1349933 -0.8808078759619685 0.3738119541895675
0.1369932 -0.8787195103160623 0.37869447622028035
0.1389931 -0.8768318229288979 0.38404887160738665
0.140993 -0.8742056145108226 0.38951267636210934
0.1429929 -0.8716063051992016 0.394502291339757
0.1449928 -0.869527341804454 0.4005454996723701
0.1469927 -0.8673196130632497 0.4056329918442212
0.1489926 -0.8648154812933957 0.41111446116654177
0.1509925 -0.8624298166388638 0.41616547146198885
0.1529924 -0.8596504513709258 0.421725452908138
0.1549923 -0.8579516013266185 0.4271355332785982
0.1569922 -0.855360865665978 0.4315796002171477
0.1589921 -0.8528658247411791 0.43710469008379177
0.160992 -0.8504671219696625 0.4417123066305413
0.1629919 -0.8476069209330049 0.44708613836721034
0.1649918 -0.8452546561466645 0.45182633229312097
0.1669917 -0.8426727283316416 0.45647102376569104
0.1689916 -0.8404248854808309 0.4617160117575545
0.1709915 -0.8378325086561781 0.46654277544199363
0.1729914 -0.8345235330832759 0.47120170441066656
0.1749913 -0.8320689755029528 0.47598286907097265
0.1769912 -0.8293905458022203 0.4807341633970124
0.1789911 -0.8266798687399192 0.48552352437402746
0.180991 -0.8236122816683191 0.4903270021142093
0.1829909 -0.820516167346472 0.4948258593436909
0.1849908 -0.8176561264574268 0.4997733285008017
0.1869907 -0.8144338404622973 0.5042635675337244
0.1889906 -0.8113649004718948 0.5091159853810928
0.1909905 -0.8083141580156606 0.5139287074509007
0.1929904 -0.8052154840357697 0.5186592008215677
0.1949903 -0.8017617666718083 0.5232361215349782
0.1969902 -0.7983871405013655 0.5283408243547071
0.1989901 -0.7953349378901716 0.5330651968630956
0.20099 -0.7922107869004847 0.5378201678032555
0.2029899 -0.7887853282090285 0.5421600063629141
0.2049898 -0.7852662420464896 0.5467089477894927
0.2069897 -0.7819254438166994 0.5516187084078393
0.2089896 -0.7784454912935114 0.5560822301249383
0.2109895 -0.77538752619424 0.5609831987616481
0.2129894 -0.7719352781409434 0.5658722173261524
0.2149893 -0.7682921911694809 0.570526560118252
0.2169892 -0.7651400452945771 0.5750235548204999
0.2189891 -0.7611990401804172 0.5801279241581709
0.220989 -0.7580588051211641 0.5846030732591212
0.2229889 -0.7546125148183908 0.5892664129196622
0.2249888 -0.7504135609694622 0.5937290649970632
0.2269887 -0.7470278476473244 0.5982061764993578
0.2289886 -0.743131984075876 0.6028247831529461
0.2309885 -0.7398318089691754 0.6076279298591999
0.2329884 -0.7359731757175997 0.6117863946785832
0.2349883 -0.7324424940549049 0.6164844899175783
0.2369882 -0.7285189053853001 0.620957871488392
0.2389881 -0.7247580511097892 0.625518228322083
0.240988 -0.7208724956190541 0.6299480377094908
0.2429879 -0.7173167737558401 0.6345536325854363
0.2449878 -0.7136129673368095 0.638747788511334
0.2469877 -0.7095885846132772 0.6432462860912692
0.2489876 -0.7057999221528214 0.6474280285689871
0.2509875 -0.7021950999200939 0.6523318873304342
0.2529874 -0.6985762264398225 0.6564102437440763
0.2549873 -0.6947749835197315 0.6608862395342905
0.2569872 -0.691073383157303 0.6652789062320639
0.2589871 -0.6873310659093999 0.6697471681678097
0.260987 -0.6835443300036268 0.6736879570098229
0.2629869 -0.6797600336751919 0.6778593449594628
0.2649868 -0.6759538901300116 0.6815232702645669
0.2669867 -0.672418944231137 0.6856092925172669
0.2689866 -0.668256371592556 0.6896774742678118
0.2709865 -0.6644738074049434 0.6936249696710519
0.2729864 -0.6605098540199363 0.6975199306255881
0.2749863 -0.6566936094017783 0.7011396700382388
0.2769862 -0.6530616585490792 0.7048464370763287
0.2789861 -0.6489991659273804 0.7086942955217554
0.280986 -0.6450120233913844 0.7118083442717692
0.2829859 -0.64038494394471 0.7151348235665322
0.2849858 -0.6363431893990127 0.7183853179308656
0.2869857 -0.6319164043797669 0.7219641165001174
0.2889856 -0.6274234887461625 0.725316939937157
0.2909855 -0.6231555702477933 0.7287482762108647
0.2929854 -0.6185204321427118 0.7322265586399641
0.2949853 -0.6136081008565898 0.7354341957056065
0.2969852 -0.6087354679379045 0.738689245174587
0.2989851 -0.6041513035721604 0.7420682282083417
0.300985 -0.599205678326335 0.7449650703786261
0.3029849 -0.5941074209478567 0.7482749905577081
0.3049848 -0.5890167584910053 0.7512710877617498
0.3069847 -0.5833252231688184 0.7548615644027541
0.3089846 -0.5780009615386869 0.7580383971582842
0.3109845 -0.5728258162041175 0.7614080891920998
0.3129844 -0.567124730612506 0.7646987726680281
0.3149843 -0.5617100829620476 0.7684927503466235
0.3169842 -0.5562134073884998 0.7720417505999928
0.3189841 -0.5508438149119481 0.7750670282565699
0.320984 -0.5450991116313669 0.7786119167009793
0.3229839 -0.5396134161289514 0.7826351597736573
0.3249838 -0.5345288379653099 0.7856604479242072
0.3269837 -0.5287740088544381 0.7891640600687478
0.3289836 -0.523609597950116 0.792854394349402
0.3309835 -0.5180217445031889 0.7962740851142788
0.3329834 -0.5132404777701323 0.8000916577754296
0.3349833 -0.508214113342696 0.804042417690124
0.3369832 -0.503873750529408 0.8087874065257549
0.3389831 -0.498910759995633 0.8126853383723198
0.340983 -0.4943951512088724 0.8169688282412704
0.3429829 -0.4902379655062653 0.8211274010492643
0.3449828 -0.4849540336479005 0.8248847083343803
0.3469827 -0.48113139840797214 0.828746261462045
0.3489826 -0.4762748871353302 0.8321948507147956
0.3509825 -0.47173091843012877 0.8355869158079947
0.3529824 -0.4673009828427125 0.8391702112163093
0.3549823 -0.4627658054198386 0.8424012608991998
0.3569822 -0.45845962679131913 0.8452773661768834
0.3589821 -0.45386250783595117 0.84814138001522
0.360982 -0.44951996967948543 0.8513594028926023
0.3629819 -0.4450385730491773 0.8536862475790182
0.3649818 -0.4402177768205429 0.8558623916347066
0.3669817 -0.4353534329983676 0.8578750033727318
0.3689816 -0.43058070190906134 0.8602715846381055
0.3709815 -0.4254294092127484 0.862415965703145
0.3729814 -0.4201600565966032 0.8645113338626761
0.3749813 -0.415127928980281 0.8663228715791809
0.3769812 -0.4101284250540501 0.8681671908148698
0.3789811 -0.4049837308080376 0.8702058012386844
0.380981 -0.3990788810020026 0.8718216303262908
0.3829809 -0.39318211549642496 0.873640674421114
0.3849808 -0.38770868597315505 0.8762727486238729
0.3869807 -0.381693969525811 0.8775540050161041
0.3889806 -0.37544697648903547 0.8798890800935543
0.3909805 -0.36928056644053786 0.8815143889364493
0.3929804 -0.36310770241886364 0.8838830943004938
0.3949803 -0.3568869508884853 0.8861321111666772
0.3969802 -0.35038831901182244 0.8882382419251184
0.3989801 -0.34409800050802003 0.8905753056672887
0.40098 -0.3381416317570092 0.8928372646424011
0.4029799 -0.33211238366199186 0.8953090057119262
0.4049798 -0.32576021598929045 0.8982708052365244
0.4069797 -0.31983025219562994 0.9003577742404018
0.4089796 -0.31351024075732614 0.9027964898934695
0.4109795 -0.30780953141468725 0.9054496695100194
0.4129794 -0.30180013515046467 0.9082806441073209
0.4149793 -0.29567514437357395 0.9111588375996286
0.4169792 -0.290047371383163 0.9133378650891557
0.4189791 -0.2843774321446289 0.915840293970855
0.420979 -0.2788436727535319 0.9182425105666034
0.4229789 -0.27364388798623557 0.9205596030357791
0.4249788 -0.26819085110332386 0.9230869130991683
0.4269787 -0.2629989636170162 0.9253475401082709
0.4289786 -0.25780495331833725 0.9270992795051324
0.4309785 -0.25254536467289695 0.9291619920511264
0.4329784 -0.24696956016941893 0.9306332879314541
0.4349783 -0.24139746337752532 0.931600075956132
0.4369782 -0.2363909667492033 0.932937319896154
0.4389781 -0.231141603127284 0.9343767863674052
0.440978 -0.22557101836945048 0.9352856904071082
0.4429779 -0.21999008223950065 0.9361615723963056
0.4449778 -0.21471835120934163 0.9372247862389166
0.4469777 -0.2089597028117215 0.9375364366673882
0.4489776 -0.20299165067051603 0.9381807642528397
0.4509775 -0.1968965084605621 0.9392782761058862
0.4529774 -0.19075281439280856 0.9395331664193912
0.4549773 -0.1844142698690004 0.9401096717055674
0.4569772 -0.17758195414781341 0.9404485875162051
0.4589771 -0.17150968615989443 0.9410055951145337
0.460977 -0.16429000572184108 0.9415975470488706
0.4629769 -0.1578472950140228 0.9426542232367348
0.4649768 -0.15085303844259798 0.9431558951794653
0.4669767 -0.14438198544711664 0.9440684522692377
0.4689766 -0.13765861695865378 0.9447674328390241
0.4709765 -0.13069015161621728 0.9456160942325618
0.4729764 -0.1236284548195879 0.9472373031143663
0.4749763 -0.11680735607782308 0.9482278371856746
0.4769762 -0.1102193986540899 0.9494173689649521
0.4789761 -0.10277111257425289 0.9507370188374531
0.480976 -0.09621400473639857 0.9522264453038107
0.4829759 -0.08946573650698783 0.9532084936204899
0.4849758 -0.08317826746080054 0.9547063416794129
0.4869757 -0.07665128766437831 0.9560372903759344
0.4889756 -0.07004429615454119 0.95752023788755
0.4909755 -0.06358805687865525 0.9591904391346954
0.4929754 -0.05760192780467195 0.9602706880321661
0.4949753 -0.05191390370927655 0.9613964063555964
0.4969752 -0.046201424699928086 0.9624236924969451
0.4989751 -0.040452232121230086 0.9632359313837656
0.500975 -0.034917296219662004 0.9636940946565214
0.5029749 -0.02940170103807843 0.9644465732497882
0.5049748 -0.0238199001687397 0.965059282075599
0.5069747 -0.01903615257523815 0.965358866979205
0.5089746 -0.013219402584402073 0.9654691018520526
0.5109745 -0.007256332178965777 0.9658241785217856
0.5129744 -0.0016804502570157906 0.9659394530685073
0.5149743 0.003511416142282932 0.9657891308346553
0.5169742 0.008922674673484551 0.9649878297084993
0.5189741 0.014758639161407447 0.9642590065233174
0.520974 0.021059084497861924 0.9637222127489561
0.5229739 0.027667049327239596 0.9632752239614679
0.5249738 0.03338046150259008 0.9626727773916153
0.5269737 0.03937714734470514 0.9616443698028602
0.5289736 0.045543571618650275 0.9606782345197907
0.5309735 0.051647854076038544 0.9599145959244473
0.5329734 0.058722322217367645 0.9584433305594355
0.5349733 0.0655176561846575 0.9572676079926309
0.5369732 0.0718003897422499 0.9560590055868728
0.5389731 0.07895145691358191 0.9551778476005712
0.540973 0.08586878255812078 0.953919645977201
0.5429729 0.09301435421425529 0.9528654042619359
0.5449728 0.09986753845921306 0.9518911360128934
0.5469727 0.10682053232969158 0.9511148732423115
0.5489726 0.11388781869976326 0.9503010395947192
0.5509725 0.12078578973481396 0.9496447932729115
0.5529724 0.12813115821887217 0.948786337878467
0.5549723 0.1351369694817431 0.9483802067733516
0.5569722 0.14204179714600965 0.9477559491746012
0.5589721 0.14907904285832185 0.9475425908885426
0.560972 0.15574476944875423 0.9475204595675865
0.5629719 0.16282783148539437 0.9467516630199373
0.5649718 0.16936754630912562 0.9470421120807971
0.5669717 0.17602426402819044 0.9467043714999629
0.5689716 0.18169687201387352 0.9461624400193466
0.5709715 0.18765252956507317 0.9453120681420665
0.5729714 0.19388206247503958 0.9445757462815593
0.5749713 0.2000001212090496 0.9437328429471298
0.5769712 0.20591558600037216 0.9426197699229791
0.5789711 0.21128820267120746 0.9420569445610185
0.580971 0.21711553247876442 0.9411108477990632
0.5829709 0.22267893656004292 0.9399085069709091
0.5849708 0.22827961524282542 0.9388069030079073
0.5869707 0.2340586017250767 0.9372052161766036
0.5889706 0.2397265972470666 0.9351284036774576
0.5909705 0.24571069668178155 0.9329872692316761
0.5929704 0.25130059337859595 0.9306868416544873
0.5949703 0.2571990089916786 0.9284755594091479
0.5969702 0.2630430051146011 0.9261429045643716
0.5989701 0.26889801398889024 0.9242412713627348
0.60097 0.2754025002235939 0.9212692882532927
0.6029699 0.28139251211201805 0.9188442467955497
0.6049698 0.287492201714644 0.9162751921265642
0.6069697 0.2940279839939557 0.9137527207740361
0.6089696 0.3009218012522387 0.911406997150362
0.6109695 0.30747214052685123 0.908498595242157
0.6129694 0.3142546430236896 0.9061146293896842
0.6149693 0.3209189586272957 0.9033789944399919
0.6169692 0.3278210197869552 0.9013441309958274
0.6189691 0.33470465531544785 0.8988838031045004
0.620969 0.34157853734639165 0.8964488699747406
0.6229689 0.34870850959055255 0.893802367430275
0.6249688 0.35531335687080695 0.891874741677021
0.6269687 0.3624744134175243 0.8898752645597329
0.6289686 0.3691916883903299 0.8874914852090845
0.6309685 0.37569632838044503 0.8859947166472938
0.6329684 0.3817752611408833 0.8842065437578538
0.6349683 0.3882153063561472 0.8816697934317171
0.6369682 0.3941861712344527 0.8795812948021473
0.6389681 0.4005207890288659 0.8776701805382109
0.640968 0.4068449563227329 0.875978903437885
0.6429679 0.41226647476170625 0.8742600183339198
0.6449678 0.4179721218822926 0.8721165345868775
0.6469677 0.4229500976988508 0.8699916742395185
0.6489676 0.4291580768669174 0.8679759034639257
0.6509675 0.43407760006629187 0.8655556630721307
0.6529674 0.43912680312346564 0.8627850955878416
0.6549673 0.44428012439988196 0.8603643750405828
0.6569672 0.4492836275375346 0.8577937920611939
0.6589671 0.4544794075844647 0.8544580632606704
0.660967 0.45930809057281075 0.8511714097432843
0.6629669 0.46403764545499776 0.8476843169540574
0.6649668 0.46948342934787274 0.8438183658371285
0.6669667 0.4741773472659325 0.8401554876546321
0.6689666 0.47989280910684123 0.8361809611236745
0.6709665 0.48552296333027123 0.8318178662298782
0.6729664 0.49027012036799444 0.827748614740191
0.6749663 0.49567167458600236 0.8233127419907792
0.6769662 0.5015297037114679 0.818954821341541
0.6789661 0.5064803257474723 0.8142023565487295
0.680966 0.5127780268669438 0.8095032290460769
0.6829659 0.5186618220071949 0.8052666715127672
0.6849658 0.5246667701979815 0.800704514872913
0.6869657 0.5315358011065826 0.7964652473135074
0.6889656 0.5375339102177499 0.7919429593766973
0.6909655 0.5438824829974026 0.7880530691009516
0.6929654 0.5504533126855852 0.7835215410633768
0.6949653 0.5563012098138088 0.7801971110850837
0.6969652 0.5628852859633368 0.7757490656790168
0.6989651 0.5689955951941064 0.7719048748883023
0.700965 0.575574125802822 0.7676048324257534
0.7029649 0.5810977258634721 0.7643380513020372
0.7049648 0.5873027798272205 0.7604591150190929
0.7069647 0.5932022179217178 0.7570261665480932
0.7089646 0.5994804856559981 0.7533475314055115
0.7109645 0.6048745654773037 0.7501283578353074
0.7129644 0.6097597444296348 0.7465895416735244
0.7149643 0.6151109627711595 0.7429122577247065
0.7169642 0.6205375136876659 0.7395095806803957
0.7189641 0.6250563413166801 0.7358672271404143
0.720964 0.6299299197943784 0.7321719125140815
0.7229639 0.6350523719838697 0.7279711931695779
0.7249638 0.6398468278657473 0.7242755240025808
0.7269637 0.6444854503991619 0.7204829170842236
0.7289636 0.6481257047025708 0.7166971524267036
0.7309635 0.6532024766855349 0.7123587118615433
0.7329634 0.657401718520441 0.7077772599805267
0.7349633 0.6611739035065993 0.7029743483946354
0.7369632 0.6656829104939457 0.6988706116077772
0.7389631 0.6698738939481382 0.6937474467632169
0.740963 0.6733482234849786 0.6887571026322227
0.7429629 0.6781922236803352 0.6831100587634332
0.7449628 0.6818479847431971 0.6775056528480584
0.7469627 0.6864230581448134 0.6717775945914369
0.7489626 0.6908674862813343 0.6660802629644256
0.7509625 0.6947843511326691 0.6605241421811165
0.7529624 0.69973261893123 0.6547300834994769
0.7549623 0.704352203646623 0.6493562457331228
0.7569622 0.7089509681532314 0.6433149766856752
0.7589621 0.7143196156956265 0.6375242915753704
0.760962 0.7190076147703998 0.6317537793261837
0.7629619 0.7242025864614331 0.6262005249090713
0.7649618 0.7291697700623961 0.6204374862206989
0.7669617 0.7343678072466167 0.6144870703321466
0.7689616 0.7396605757350916 0.6088946689647882
0.7709615 0.7440274112794032 0.603340225239862
0.7729614 0.7489865593781007 0.5982725890946845
0.7749613 0.7539132210391726 0.5928122795548069
0.7769612 0.7588082927690395 0.5874738431819144
0.7789611 0.763521351255406 0.582529064517809
0.780961 0.7685648608013111 0.5776177042757563
0.7829609 0.7726060510143722 0.5725591038995859
0.7849608 0.7771907836579597 0.5674278368048352
0.7869607 0.7814092949276248 0.5627147301394491
0.7889606 0.7857482903801503 0.5572987706553084
0.7909605 0.7899656557735714 0.5526032488207747
0.7929604 0.7940443288191874 0.5477051976638533
0.7949603 0.7978284348218869 0.5427120620966738
0.7969602 0.8013010702996248 0.5379394742981936
0.7989601 0.8051537528163397 0.5322543947313918
0.80096 0.8083587716257483 0.5274133309847066
0.8029599 0.8120255253198302 0.5220182730728788
0.8049598 0.8153282479940807 0.5168014537773391
0.8069597 0.8181089888760852 0.5112645249254929
0.8089596 0.8210683064388998 0.5053300814166055
0.8109595 0.8232811136726551 0.49917070919642753
0.8129594 0.8265503870857821 0.4929381566543199
