! Created with skrf 1.8.0 (http://scikit-rf.org).
# GHz S RI R 50.0 
!freq ReS11 ImS11
0.001 -0.7277025396112189 0.1726914060776663
0.0029999 -0.890279119532712 0.04933636624427229
0.0049998 -0.9333904179736094 -0.005031290859915272
0.0069997 -0.9654095131444336 0.02158846339750542
0.0089996 -0.9554483176185892 0.030515459254566946
0.0109995 -0.954948180915337 0.03563229142481272
0.0129994 -0.955082607848934 0.041235871049806194
0.0149993 -0.9538259285933606 0.04834738878783962
0.0169992 -0.9537683119161224 0.05154686458553115
0.0189991 -0.953753086681381 0.05655462575786707
0.020999 -0.9533912326460641 0.062212128420172486
0.0229989 -0.952897873193502 0.06765947575018111
0.0249988 -0.9519421991478947 0.07262304005747516
0.0269987 -0.9516533605690483 0.07828530210315482
0.0289986 -0.9509659870912287 0.08347324344765188
0.0309985 -0.950029049759268 0.08875475248182435
0.0329984 -0.9494314811801026 0.09432901361228124
0.0349983 -0.9488322515117649 0.09985950795840415
0.0369982 -0.947641576446293 0.10533910024395299
0.0389981 -0.9466693448290475 0.11077976523405914
0.040998 -0.9462497512450325 0.11624139681229939
0.0429979 -0.9446194607789024 0.12165026082712338
0.0449978 -0.9438047555612284 0.12701314732056973
0.0469977 -0.9432668995690707 0.1324440369443906
0.0489976 -0.9417271228528696 0.13805413789759552
0.0509975 -0.9403628053894126 0.1439663994535349
0.0529974 -0.9396313818371351 0.14998407525359764
0.0549973 -0.9377734441943291 0.15612524257378507
0.0569972 -0.9370790996590417 0.16113407196371846
0.0589971 -0.9358427814570677 0.16703258448188868
0.060997 -0.9351376733659631 0.17335078318146285
0.0629969 -0.9341253178139712 0.17828885562495594
0.0649968 -0.9322237271776131 0.18415420261436075
0.0669967 -0.932131829985611 0.19010354756417888
0.0689966 -0.9307601985432183 0.19538632717450527
0.0709965 -0.9298564996596483 0.20076541529561648
0.0729964 -0.9286063690567701 0.20709201258138057
0.0749963 -0.9272679009831539 0.21245908126135343
0.0769962 -0.9268019981300806 0.21788758295681943
0.0789961 -0.9252084084088733 0.22311083156704953
0.080996 -0.9238253750158498 0.22859796416990172
0.0829959 -0.9225107119183769 0.234273297136871
0.0849958 -0.9219738826693306 0.23885336884133127
0.0869957 -0.9206482849095536 0.24466470513342461
0.0889956 -0.9189432744839714 0.24936194381332596
0.0909955 -0.917774145769835 0.2548394516302909
0.0929954 -0.9160149154327009 0.25984254156510334
0.0949953 -0.9146747615710573 0.2650384742184151
0.0969952 -0.9128752271066108 0.2700473780770122
0.0989951 -0.9112164680265511 0.27487819495202637
0.100995 -0.910506150457047 0.2808165831312969
0.1029949 -0.9086504227182777 0.28587349517318594
0.1049948 -0.9069151160534763 0.29085425058389397
0.1069947 -0.9050495743082951 0.29551374279605946
0.1089946 -0.9030603092199657 0.3007554597485409
0.1109945 -0.9009155290363599 0.30587273793696734
0.1129944 -0.8988836100350202 0.3108782649422925
0.1149943 -0.8965076352422278 0.3157234231642401
0.1169942 -0.8941285120582654 0.3210302328921043
0.1189941 -0.8921129184951275 0.32631584386331786
0.120994 -0.8896176001673415 0.33142564723957857
0.1229939 -0.8873588785589441 0.33692033884776584
0.1249938 -0.8852069819289542 0.342220600803729
0.1269937 -0.8828097969573614 0.3472172246462844
0.1289936 -0.8807890423043806 0.353003741516128
0.1309935 -0.8783882776017667 0.3581158906020382
0.1329934 -0.876128558507954 0.3634375678094084
0.1349933 -0.873493976515477 0.3691231914744894
0.1369932 -0.871348411391723 0.37413282556441707
0.1389931 -0.869123861306296 0.379398765105394
0.140993 -0.8666023475819831 0.38472620006831443
0.1429929 -0.8643934766233983 0.39001842634117756
0.1449928 -0.8623984231360408 0.3953754190177888
0.1469927 -0.8600666467429184 0.40066677928207783
0.1489926 -0.8575867474948127 0.4063843950701811
0.1509925 -0.8549939233065644 0.4105889536494235
0.1529924 -0.8526073349374295 0.41627331294787023
0.1549923 -0.851003932622507 0.42199396579677384
0.1569922 -0.8482784463297206 0.4263501213983666
0.1589921 -0.8458885810956518 0.43186713227567186
0.160992 -0.8436228528704578 0.4364162651698129
0.1629919 -0.8408409073794972 0.44178622110572874
0.1649918 -0.8385635244365508 0.4462710915691799
0.1669917 -0.8357511343443058 0.4509378942601734
0.1689916 -0.8335438044835434 0.45634560535755775
0.1709915 -0.8311278576581578 0.46095402737095037
0.1729914 -0.8279288382974468 0.4656063449437909
0.1749913 -0.8255677043503835 0.47037831060887686
0.1769912 -0.8227092710276896 0.4750489650580325
0.1789911 -0.8202362385923516 0.4797147475212207
0.180991 -0.8171691060712879 0.48450127363729845
0.1829909 -0.814119133862897 0.48899130362675625
0.1849908 -0.8113944725000725 0.49378862246055205
0.1869907 -0.8081604479392149 0.4982380739950421
0.1889906 -0.8050714475163945 0.5030551600559917
0.1909905 -0.8020860031048594 0.5077017673433601
0.1929904 -0.7990247923879932 0.5124053469147108
0.1949903 -0.7956617737957368 0.5169693352699646
0.1969902 -0.7925119034447942 0.5216761188048741
0.1989901 -0.7894534012496663 0.5265635898425873
0.20099 -0.7862491805828381 0.5312434046890153
0.2029899 -0.782961777562487 0.5359206176239298
0.2049898 -0.7795300286465284 0.5401277505449534
0.2069897 -0.7762511244631757 0.5448422786140791
0.2089896 -0.7726180253692421 0.549607055269352
0.2109895 -0.7698085542099112 0.5541231747469231
0.2129894 -0.7662368173041912 0.5592133478964233
0.2149893 -0.7628685034026257 0.5634897026040784
0.2169892 -0.7594082134338304 0.5681384650478557
0.2189891 -0.7557965268960141 0.573206265434766
0.220989 -0.7527360686218417 0.5775995623807592
0.2229889 -0.7491985692092556 0.5824256797674856
0.2249888 -0.7452096526623829 0.5865877345412492
0.2269887 -0.7417634347735435 0.5909254520599537
0.2289886 -0.7380089562065846 0.5956695842481102
0.2309885 -0.7346717025332923 0.600432047439103
0.2329884 -0.7310118938635894 0.6045248725247158
0.2349883 -0.7275274563019316 0.6091864456289032
0.2369882 -0.7236556984071766 0.6134866830133163
0.2389881 -0.7199213641182657 0.6181756296282617
0.240988 -0.716212499577795 0.6225103600454284
0.2429879 -0.7126632511356243 0.6269830570794286
0.2449878 -0.7091179670281709 0.6312305946627127
0.2469877 -0.7052341387523031 0.6355885638387406
0.2489876 -0.7012690076145354 0.6397149946798372
0.2509875 -0.6976956518637286 0.6444080605679277
0.2529874 -0.6944698063022696 0.6487341151416243
0.2549873 -0.6905537495125282 0.6529506485161327
0.2569872 -0.6868057212241682 0.6573546302021731
0.2589871 -0.68337112552734 0.6616731101553253
0.260987 -0.6794705307944725 0.6657779311251686
0.2629869 -0.6759712498891843 0.6696946733085144
0.2649868 -0.6719081933638068 0.6736105735929048
0.2669867 -0.6685413147829905 0.6776182794178042
0.2689866 -0.664562712844607 0.6815156233116095
0.2709865 -0.6608921200023699 0.6854509599734173
0.2729864 -0.6569393081171394 0.6893068485307635
0.2749863 -0.65338086495931 0.6927359505381069
0.2769862 -0.6493603696270867 0.6967274053727625
0.2789861 -0.6456498650568518 0.7003541986145225
0.280986 -0.6416813097671785 0.7033767333663017
0.2829859 -0.6370784843488804 0.706985390826987
0.2849858 -0.6330983620401262 0.7099453000948036
0.2869857 -0.6288082152728593 0.7135770691625274
0.2889856 -0.6244933479207561 0.7168852595004807
0.2909855 -0.62014890024169 0.720426813251783
0.2929854 -0.6156612347959728 0.7237298276202762
0.2949853 -0.6108402175413825 0.7268045608509944
0.2969852 -0.6062272927163848 0.7303193347057438
0.2989851 -0.6016541764771931 0.7333801954955987
0.300985 -0.5966334611672692 0.7364296429726117
0.3029849 -0.5916387089703723 0.7397361277267043
0.3049848 -0.5866503631710352 0.7427472686019929
0.3069847 -0.581132790081428 0.7461925198349666
0.3089846 -0.5757471491435514 0.7490184090725526
0.3109845 -0.5708014071384165 0.752766837454715
0.3129844 -0.5653823563324629 0.7559689055947014
0.3149843 -0.5599807588095104 0.7597725143990127
0.3169842 -0.554545057262372 0.7633098576754103
0.3189841 -0.5491780694327035 0.766309473181201
0.320984 -0.5435540214788355 0.7698249518837389
0.3229839 -0.5383014581024588 0.7738370585356599
0.3249838 -0.5332737804370127 0.7768430843089253
0.3269837 -0.5276980794225125 0.7804698481243928
0.3289836 -0.5224942192124031 0.7840423059047534
0.3309835 -0.5171119581599514 0.7874566501874873
0.3329834 -0.5123389993996104 0.7912235977584612
0.3349833 -0.5072876516601809 0.7952593057626983
0.3369832 -0.503293879015156 0.7997790203320951
0.3389831 -0.49822308298904394 0.8036482326752841
0.340983 -0.49407439519864615 0.807738932063103
0.3429829 -0.4894856556838221 0.8119535504790265
0.3449828 -0.4848213604278614 0.815567612082769
0.3469827 -0.4805983764009376 0.8193938993060008
0.3489826 -0.4760905603984834 0.8227583545640975
0.3509825 -0.47161328224963256 0.8261177585070478
0.3529824 -0.46718375859436917 0.8298914980196382
0.3549823 -0.46282214245570025 0.8329897897209745
0.3569822 -0.45855449783242075 0.8359107717507478
0.3589821 -0.4542040879697557 0.8386731510454316
0.360982 -0.44998212718118547 0.8417480922857967
0.3629819 -0.4455740475420813 0.8441765035219949
0.3649818 -0.4406192559208922 0.846222275766054
0.3669817 -0.43576847148440434 0.8484218129307438
0.3689816 -0.43129311566199036 0.8508739712013194
0.3709815 -0.426244501555661 0.8530981068035711
0.3729814 -0.42105959769966744 0.8550940147709318
0.3749813 -0.41618699587669766 0.8567474030514802
0.3769812 -0.4109651368835463 0.858682674460649
0.3789811 -0.40612035219873377 0.8606797571477707
0.380981 -0.40025502457408685 0.8624424141161168
0.3829809 -0.3945125222460374 0.8642183168939602
0.3849808 -0.3890597153475824 0.8666963414744397
0.3869807 -0.38338656998805887 0.868040881959091
0.3889806 -0.37704572932261793 0.8704544472861505
0.3909805 -0.37106125949012075 0.8721978392278756
0.3929804 -0.3651054584513525 0.8744834606179307
0.3949803 -0.3587428094523204 0.8765746905289616
0.3969802 -0.3524746957168882 0.8787993486437946
0.3989801 -0.34638493358894507 0.8811152670410085
0.40098 -0.3405893697209431 0.8835330333222828
0.4029799 -0.3344643345023986 0.8859432976270475
0.4049798 -0.32830078651376915 0.8888386373910862
0.4069797 -0.32249741916235863 0.8909989452674977
0.4089796 -0.31647715808670174 0.8934767350177696
0.4109795 -0.3103627947680803 0.8961925183751355
0.4129794 -0.3051248091067923 0.8990049028345701
0.4149793 -0.29888413138986364 0.9019358252281803
0.4169792 -0.2932395297507553 0.9041229029731128
0.4189791 -0.28750054923505824 0.9064211095293085
0.420979 -0.28219284713150755 0.9090139037513466
0.4229789 -0.2771404291972226 0.9113082621615901
0.4249788 -0.27168101248476745 0.9138856522135548
0.4269787 -0.2665960949440558 0.9161389959928566
0.4289786 -0.2616124865611925 0.9180626799100093
0.4309785 -0.256342554691711 0.9201274254459856
0.4329784 -0.2511066609144997 0.9216378497422342
0.4349783 -0.2454647056270812 0.9225175554752066
0.4369782 -0.24067226831242539 0.9240133108453388
0.4389781 -0.23539304452486245 0.9253343421168411
0.440978 -0.23002644866823066 0.9262583956692291
0.4429779 -0.22473288281607534 0.9272131508998271
0.4449778 -0.21953892111854506 0.9282783157505181
0.4469777 -0.21387214298506002 0.928515411635439
0.4489776 -0.20796415036166005 0.9291844239227902
0.4509775 -0.2020345349726083 0.9302740698001198
0.4529774 -0.1960737392571309 0.9306766385132624
0.4549773 -0.189783322272917 0.9312904298262363
0.4569772 -0.18326982958929416 0.9318518141883849
0.4589771 -0.17670655275701005 0.9322351408086017
0.460977 -0.16996919946862626 0.9330910449521589
0.4629769 -0.16359358443267713 0.9340233256537015
0.4649768 -0.15696505461331114 0.9345406194431617
0.4669767 -0.15022824540155202 0.9353867122113432
0.4689766 -0.1436047025066915 0.9363509806367881
0.4709765 -0.1370082341655563 0.9372117394047687
0.4729764 -0.13009978192080685 0.9386428258776044
0.4749763 -0.12329358243612798 0.9399619214182734
0.4769762 -0.11680455442574866 0.940945828711104
0.4789761 -0.10924936887406439 0.9426585218899063
0.480976 -0.10286907498581149 0.9439836550560484
0.4829759 -0.09626341013827844 0.9451109080702231
0.4849758 -0.09001327293573125 0.9466307561991435
0.4869757 -0.08376247759401116 0.9481548202714238
0.4889756 -0.07705749488501099 0.9494255343355321
0.4909755 -0.07071705991585966 0.9513173238901196
0.4929754 -0.06483843459940165 0.952441059574267
0.4949753 -0.05909609560648822 0.9536562664638156
0.4969752 -0.05363093856543024 0.9546984903242496
0.4989751 -0.047753281103121374 0.9554954863512248
0.500975 -0.04252356520075509 0.9561419850101222
0.5029749 -0.03720089423182826 0.9568594157158197
0.5049748 -0.03183866087079556 0.9577259479127744
0.5069747 -0.026858374704273463 0.9576278712536113
0.5089746 -0.021147661496151868 0.9580879254004229
0.5109745 -0.015677904761055177 0.9584580671231181
0.5129744 -0.009949967237427089 0.9586677678198834
0.5149743 -0.005028123950533252 0.9586949531534698
0.5169742 0.00038688366285533765 0.957860470526344
0.5189741 0.006275561073548597 0.9572255721084185
0.520974 0.012549297078134514 0.9568154220635854
0.5229739 0.01869664019469805 0.9563206186161489
0.5249738 0.024748395544984786 0.9559157778923358
0.5269737 0.03038334268274659 0.9547122551650487
0.5289736 0.03637392059680593 0.9536302022365827
0.5309735 0.04259603512009541 0.9529118767591149
0.5329734 0.04934916615557895 0.951681928464529
0.5349733 0.05591177631594456 0.9506224908568618
0.5369732 0.062315662055994064 0.9494818807699255
0.5389731 0.06939356491742868 0.9487907615052017
0.540973 0.07613392777557276 0.9475065847188217
0.5429729 0.08309299820603774 0.9464287088284342
0.5449728 0.0898884398533295 0.9456683769942894
0.5469727 0.09696821813102338 0.9449732719813873
0.5489726 0.10370396689493744 0.9443447121203362
0.5509725 0.11073872909521623 0.9436931948932107
0.5529724 0.11799131817825768 0.9429494577527716
0.5549723 0.1247357357906391 0.9426785903850344
0.5569722 0.13173316422049272 0.9421354176152159
0.5589721 0.13867168253973022 0.9421364764617077
0.560972 0.14539637181414952 0.9421388077994363
0.5629719 0.15219210244146722 0.9418453198185838
0.5649718 0.15870161854104423 0.9418071696686664
0.5669717 0.165123689572846 0.9415560668821372
0.5689716 0.17088771943513636 0.9410437838835111
0.5709715 0.1767795362777105 0.9404555420444275
0.5729714 0.18263402733525283 0.9395531964971566
0.5749713 0.18877737031995379 0.9390234115902358
0.5769712 0.19458948161167014 0.9380178601363002
0.5789711 0.20008582711078796 0.9375915395469808
0.580971 0.20560763085857986 0.9369948516430234
0.5829709 0.21120320741392906 0.9357738270218388
0.5849708 0.2162014216619505 0.9345946673649411
0.5869707 0.2221562810110464 0.933163703839611
0.5889706 0.2279449745461634 0.9310278711715366
0.5909705 0.2338820653693774 0.9292211800032899
0.5929704 0.23927149361706035 0.9269214225348968
0.5949703 0.24521824379984275 0.9249984075637017
0.5969702 0.2509555404415773 0.9230439076999231
0.5989701 0.25686830896085133 0.9207576666914999
0.60097 0.2628235285461128 0.91805389395861
0.6029699 0.26933265151711494 0.9156958064403962
0.6049698 0.27503086022456047 0.913124483203367
0.6069697 0.28125617891539434 0.9104463376110492
0.6089696 0.2882451371478024 0.9086906047510526
0.6109695 0.2947780437077977 0.9057353984716222
0.6129694 0.3014836916449055 0.9035765815319806
0.6149693 0.30834071625568454 0.90087063623052
0.6169692 0.3148314929402033 0.8987860041581043
0.6189691 0.32192588394394067 0.8964312976117113
0.620969 0.3286862300253643 0.894067151621218
0.6229689 0.33542656445411356 0.8918654403821589
0.6249688 0.34198991960485325 0.8898251516642629
0.6269687 0.34903995100268764 0.8879905045264116
0.6289686 0.3553444430304805 0.885955477832409
0.6309685 0.3620498798403271 0.8845639607733867
0.6329684 0.36810798908844816 0.8827605971610475
0.6349683 0.3748026014234714 0.8808027107752994
0.6369682 0.38058004272033447 0.8788473594277708
0.6389681 0.38712854303995686 0.8771052040956614
0.640968 0.3930487092425615 0.8754189894513561
0.6429679 0.3988486925352723 0.8738470522068282
0.6449678 0.40372208952081834 0.8717513084129475
0.6469677 0.4095344292582538 0.8696663657726814
0.6489676 0.41522307490863763 0.8676846138516308
0.6509675 0.4201083472750624 0.8655280412157798
0.6529674 0.4249595123984563 0.8628738870146191
0.6549673 0.43032514533180655 0.8606010403339969
0.6569672 0.43516221115575254 0.8582569334962986
0.6589671 0.4406245686207897 0.8550948210212803
0.660967 0.44547790860193004 0.8519026727509712
0.6629669 0.4500513749935263 0.8485668292578957
0.6649668 0.45534957803362586 0.845057987497736
0.6669667 0.4600152373643818 0.841160900302199
0.6689666 0.46590320270481106 0.837463660307084
0.6709665 0.4711472634324372 0.8333511953268649
0.6729664 0.4761030132838963 0.8292325570048695
0.6749663 0.4815674354912492 0.8249270808501306
0.6769662 0.4869518910957652 0.820732702668741
0.6789661 0.4921832459634514 0.8161800166029798
0.680966 0.4986633901565775 0.8116461546585234
0.6829659 0.5042331600073447 0.8073436965173285
0.6849658 0.5102713975205121 0.803048739300775
0.6869657 0.5171587702482182 0.7989361345692244
0.6889656 0.5231815879544571 0.7945629462734555
0.6909655 0.5294962625431119 0.7908503284740664
0.6929654 0.5360696362159486 0.7865095185907525
0.6949653 0.5419889687245029 0.7832362393676465
0.6969652 0.5485316919456464 0.7789870809644949
0.6989651 0.5544621227626181 0.7752540489142696
0.700965 0.561166633644267 0.7712310910974705
0.7029649 0.5667832329887145 0.7680970250699091
0.7049648 0.5730460685334866 0.7644287142920505
0.7069647 0.5784361974442384 0.7609566105840914
0.7089646 0.5848735486791234 0.7575022372748108
0.7109645 0.5900847378997105 0.7545581793554994
0.7129644 0.5951770736845532 0.7511560428633317
0.7149643 0.6004763068520275 0.7476896848259768
0.7169642 0.6059809087181438 0.7445204703103737
0.7189641 0.6105570362058867 0.7410059312009392
0.720964 0.6152592097129325 0.7375992428575686
0.7229639 0.6205185723506934 0.7333695721042572
0.7249638 0.625412124792297 0.7298963654950226
0.7269637 0.6296286097934961 0.7262644506429421
0.7289636 0.6338730304168256 0.7223592322272185
0.7309635 0.638778925372983 0.7183604596747084
0.7329634 0.6430242660393346 0.7139532160306753
0.7349633 0.6464906707533407 0.7091824810276846
0.7369632 0.6511067950244445 0.7051905068921037
0.7389631 0.6553913631673565 0.7003255418820766
0.740963 0.6593199966568122 0.6953426190665839
0.7429629 0.6634819335571778 0.6897736177409654
0.7449628 0.6675739031551647 0.6845167836170873
0.7469627 0.6721523822387685 0.6789862985866714
0.7489626 0.6767585431708839 0.673393246861101
0.7509625 0.6806365717168052 0.6679080286411563
0.7529624 0.6856035461421683 0.6621569641333199
0.7549623 0.6903351193158308 0.6569406538628694
0.7569622 0.6948208031465711 0.6510726537484919
0.7589621 0.7004547116417817 0.645438604220816
0.760962 0.7051326264829356 0.6398084359770502
0.7629619 0.7102437651106905 0.634361537464709
0.7649618 0.7153881757535479 0.628737591481574
0.7669617 0.7204948661588216 0.6231316440129739
0.7689616 0.7256021024543762 0.6177557775403926
0.7709615 0.7303829073846847 0.6120948980175741
0.7729614 0.735493095912233 0.6072587921623391
0.7749613 0.7401419332800335 0.6018797593938908
0.7769612 0.74517896233366 0.596590675622476
0.7789611 0.749945870808774 0.5917096961453024
0.780961 0.7547274109824355 0.5870655445131561
0.7829609 0.7588995877654735 0.582309206858482
0.7849608 0.7635186656886813 0.5773992447911795
0.7869607 0.7677454354425922 0.5728593305757459
0.7889606 0.7720612503537972 0.5679269451958959
0.7909605 0.7764294062056994 0.5631629192039332
0.7929604 0.780551546923399 0.5585341027229795
0.7949603 0.784473558776872 0.5537144036998795
0.7969602 0.7880923798702746 0.5488977138967982
0.7989601 0.792095324014755 0.5435466202653633
0.80096 0.7950856484098565 0.5388026758921396
0.8029599 0.7988160575153382 0.5334276761383
0.8049598 0.8018958974525827 0.528265743767456
0.8069597 0.8049627845108897 0.5230664011861159
0.8089596 0.8080320629725007 0.5172024809342923
0.8109595 0.8102680972487496 0.5109548772907055
0.8129594 0.8135811857038997 0.5049340636152744
0.8149593 0.8162508883121825 0.4993670274042138
