! Created with skrf 1.8.0 (http://scikit-rf.org).
# GHz S RI R 50.0 
!freq ReS11 ImS11
0.001 -0.8237332383574281 -0.019831612635663465
0.0029999 -0.9682762573686318 0.02449436606156974
0.0049998 -0.9666564582819164 0.02279659919697069
0.0069997 -0.9688577402686811 0.023911024598696207
0.0089996 -0.9639358328213168 0.03590827307378036
0.0109995 -0.9633267854757079 0.04314613849920268
0.0129994 -0.9632769325691597 0.04999077877907132
0.0149993 -0.9629796195522743 0.05841414963082259
0.0169992 -0.9624426409519418 0.06368294483093273
0.0189991 -0.9619778158979574 0.07065047553687576
0.020999 -0.9613560275939573 0.07769481043010934
0.0229989 -0.9606472921691236 0.08474522328623757
0.0249988 -0.959383283695951 0.09133404852774676
0.0269987 -0.9587550079554282 0.09850561389942761
0.0289986 -0.9578799880557958 0.10532308653963744
0.0309985 -0.956655511978651 0.11199925308519765
0.0329984 -0.9556027106572542 0.11911145043750487
0.0349983 -0.9545832510422014 0.12615070935556189
0.0369982 -0.9530284790216329 0.13313796932299737
0.0389981 -0.9515743095556535 0.1399478418751437
0.040998 -0.9507430331341968 0.1469480347312524
0.0429979 -0.94871717839322 0.15376337639779902
0.0449978 -0.9473641135219725 0.16075212163368974
0.0469977 -0.9466159873375322 0.16775607122342368
0.0489976 -0.9442494046724998 0.1746815848022067
0.0509975 -0.9423492143249146 0.18192517153553178
0.0529974 -0.9411662159318016 0.18920737420289402
0.0549973 -0.9386219445444762 0.19703754463337614
0.0569972 -0.9374465496607488 0.20343481258362034
0.0589971 -0.9357039483638258 0.21088548069954371
0.060997 -0.9345351369069556 0.21844912569296712
0.0629969 -0.9326080226748608 0.2249282064637195
0.0649968 -0.9303454436205388 0.23238879274425936
0.0669967 -0.9294899099724108 0.23979856831619278
0.0689966 -0.927564086755463 0.246225615637638
0.0709965 -0.925886920711827 0.2532572671609902
0.0729964 -0.9239866747011735 0.26048909623040206
0.0749963 -0.9223688266182652 0.2674083024719943
0.0769962 -0.9209836637913056 0.27436486689934847
0.0789961 -0.9187340708074706 0.2807863739668182
0.080996 -0.9164985162356734 0.28794759939974096
0.0829959 -0.9143107862099443 0.2947499109921127
0.0849958 -0.912850178356005 0.30089621752656476
0.0869957 -0.9107887513609677 0.3077860509638761
0.0889956 -0.9085237600874814 0.3139777868399845
0.0909955 -0.9062717629058777 0.3205793172601622
0.0929954 -0.9039133649581278 0.32699694080157515
0.0949953 -0.9012690632994153 0.3333656687073237
0.0969952 -0.8985950148349934 0.33945934944281
0.0989951 -0.8960216404491967 0.3462851229379008
0.100995 -0.8947171074311011 0.3526584662020453
0.1029949 -0.892016600384704 0.35912772264776754
0.1049948 -0.889461629098063 0.3653307618695735
0.1069947 -0.8864002167491962 0.37117490941797376
0.1089946 -0.8832177023010814 0.3774511362940204
0.1109945 -0.8798492360113183 0.38388656992740533
0.1129944 -0.8768737987093098 0.39001300411083023
0.1149943 -0.8733108266591258 0.396018866692807
0.1169942 -0.8699031000811748 0.40250609683177396
0.1189941 -0.8665844333766491 0.408774002906406
0.120994 -0.8628632098688855 0.41507727592403065
0.1229939 -0.8594088289801268 0.4218778124104548
0.1249938 -0.8558217897655513 0.4283240000666264
0.1269937 -0.8525059555530496 0.43471774862397294
0.1289936 -0.8491198574466923 0.4415798474919709
0.1309935 -0.8456655531006128 0.4480211390725565
0.1329934 -0.8419456156525137 0.45437171249172736
0.1349933 -0.8380433605257203 0.46056873235431406
0.1369932 -0.8345504320804977 0.4669125474200123
0.1389931 -0.8311340743906432 0.47382430587556
0.140993 -0.827435991602258 0.4801755272053534
0.1429929 -0.8235541899993873 0.4864464221898114
0.1449928 -0.8204663770560069 0.493059109947803
0.1469927 -0.8165703311814904 0.4992235036337713
0.1489926 -0.8128074887055943 0.5058602493780365
0.1509925 -0.809168148562464 0.5111094102747681
0.1529924 -0.8053411787600729 0.5177122260992869
0.1549923 -0.8018312790107716 0.5246322431649723
0.1569922 -0.7982109594517359 0.5300234752681533
0.1589921 -0.7942677531242444 0.5362954353244589
0.160992 -0.7906128657509703 0.5422188297026599
0.1629919 -0.786337189492843 0.5481340204598332
0.1649918 -0.7824927361434648 0.5536135542287289
0.1669917 -0.7787366569010152 0.5595815996753589
0.1689916 -0.7747089626986774 0.5655722523393691
0.1709915 -0.7701941772139791 0.570876417201684
0.1729914 -0.7660052057671486 0.5765400142038292
0.1749913 -0.7619247609763747 0.5822126052392609
0.1769912 -0.7576428115191657 0.5874793243248208
0.1789911 -0.7535365996209502 0.5930613391722758
0.180991 -0.7488446992102276 0.5985693958736227
0.1829909 -0.7443131853811983 0.6038493380133518
0.1849908 -0.7397217883418447 0.609603062942561
0.1869907 -0.7351344665504153 0.614852492462677
0.1889906 -0.7301461614262053 0.620338295762361
0.1909905 -0.7255713281319697 0.6258272231644165
0.1929904 -0.7206242953948641 0.6311224443681995
0.1949903 -0.7157947887232688 0.6364706807948125
0.1969902 -0.7106709459140378 0.6419742054432122
0.1989901 -0.70575211955123 0.6473585574117794
0.20099 -0.7008252657324392 0.6527651311927463
0.2029899 -0.6956305928698173 0.6577207543492471
0.2049898 -0.6908653425994463 0.6628081589958409
0.2069897 -0.6852995204703912 0.6681810408500063
0.2089896 -0.6801632790539144 0.6734271861544707
0.2109895 -0.6753661348713645 0.6784343384481368
0.2129894 -0.669935528763751 0.6839605149467513
0.2149893 -0.6645717735623673 0.6891077320105741
0.2169892 -0.6594884579812935 0.6941650093431245
0.2189891 -0.6538343838390099 0.69975112655787
0.220989 -0.6487573146052836 0.7046308673669077
0.2229889 -0.6431318330963168 0.7091628501040091
0.2249888 -0.6376623031454555 0.7140958083150134
0.2269887 -0.632078901913623 0.7193142914414828
0.2289886 -0.6262629041565767 0.7242470273468677
0.2309885 -0.6207688139428436 0.7292755104901337
0.2329884 -0.615482160150709 0.7339258159580759
0.2349883 -0.6095595408154835 0.7387764815094783
0.2369882 -0.6039427351273494 0.7434974844398743
0.2389881 -0.5979579147903236 0.7480754187183267
0.240988 -0.5924997851858188 0.7531244490712872
0.2429879 -0.5867374634218905 0.7576231467200368
0.2449878 -0.580868438536468 0.7622949834545306
0.2469877 -0.5749599593433508 0.766812346311147
0.2489876 -0.5692922992013997 0.7714462204890548
0.2509875 -0.5635159505307656 0.7763143429115047
0.2529874 -0.5578675049537611 0.7808049367222274
0.2549873 -0.5520321785070276 0.7851161168216046
0.2569872 -0.546389544197992 0.7898548267072347
0.2589871 -0.5404039131881 0.7943490362382348
0.260987 -0.5345913220382565 0.7985136214616825
0.2629869 -0.5286627312821089 0.802988985160191
0.2649868 -0.52269749597286 0.8065383755086658
0.2669867 -0.5172606494351247 0.8106662712624547
0.2689866 -0.5112706607202022 0.8149079880248248
0.2709865 -0.5053619383747157 0.8188374470556797
0.2729864 -0.49938152748758285 0.8224987611976282
0.2749863 -0.49339359553363227 0.8262107424452898
0.2769862 -0.4876982234634535 0.8299246995845118
0.2789861 -0.4817770355221684 0.8332823168558864
0.280986 -0.4754566384899812 0.836112391322895
0.2829859 -0.4692178189891731 0.8396378615155032
0.2849858 -0.4628278388800685 0.8427675851377141
0.2869857 -0.4562314403080645 0.8456139400581705
0.2889856 -0.44991724737108685 0.8489961870043705
0.2909855 -0.4432730342817619 0.8519890795089896
0.2929854 -0.4365892892263653 0.8550006871878315
0.2949853 -0.4298136486174322 0.8574159629784723
0.2969852 -0.4228960713955765 0.8605476314749176
0.2989851 -0.4158985267092224 0.8631208441866935
0.300985 -0.4087778523832426 0.8655191326979217
0.3029849 -0.4014130962299333 0.8680454962018236
0.3049848 -0.39399824128178074 0.8703718089472586
0.3069847 -0.38660202934563626 0.8735708245660315
0.3089846 -0.37899872583490357 0.8756012478038413
0.3109845 -0.37151293531284535 0.878474588727032
0.3129844 -0.36381160627875153 0.881047803845662
0.3149843 -0.35569985424954725 0.8837627834027386
0.3169842 -0.3478260178378796 0.886631345914204
0.3189841 -0.34013068124201273 0.8890178901676419
0.320984 -0.3321372917015472 0.8912230508261497
0.3229839 -0.32394225819504074 0.8943376126964948
0.3249838 -0.31650385837398526 0.8966577496004388
0.3269837 -0.30868346453969076 0.8991933891556166
0.3289836 -0.30081305863802693 0.9019875226082436
0.3309835 -0.2931008614168731 0.9045798462473134
0.3329834 -0.2860088325499167 0.9076377262433731
0.3349833 -0.2782948360883141 0.9109828237286393
0.3369832 -0.27147900347339465 0.9146165482991631
0.3389831 -0.2637739210636931 0.9179958096827159
0.340983 -0.256419275260574 0.9212364003559648
0.3429829 -0.24950118880977085 0.9248585278458847
0.3449828 -0.24245849852125434 0.927878237388712
0.3469827 -0.23549534499099353 0.930968497263524
0.3489826 -0.22850379033317547 0.9334593933858533
0.3509825 -0.22104025993139373 0.9359272814068978
0.3529824 -0.21439847990263372 0.9386374843614863
0.3549823 -0.207623273321677 0.9410661447033616
0.3569822 -0.20086959315599434 0.9431008877085698
0.3589821 -0.19424555992676357 0.9448204894637269
0.360982 -0.18751856781012569 0.9467252712468538
0.3629819 -0.1808632820536811 0.9484752269888922
0.3649818 -0.1738810287658501 0.9493067184624078
0.3669817 -0.16686734517037793 0.949971590452783
0.3689816 -0.15978533764122255 0.9512919938871589
0.3709815 -0.15267059474015632 0.95215815806512
0.3729814 -0.14546517780954776 0.9529610406828449
0.3749813 -0.1384358294172516 0.9535046748090814
0.3769812 -0.13121901729541977 0.9538077587606849
0.3789811 -0.12372786952936618 0.9545045781647628
0.380981 -0.11601719172051826 0.9548036120994621
0.3829809 -0.10808246368299873 0.9549073762763736
0.3849808 -0.10003932580375101 0.9550761375444583
0.3869807 -0.0921506687572539 0.9549937864086089
0.3889806 -0.08382503369472188 0.9552482009221441
0.3909805 -0.0755064411922957 0.9552841141261995
0.3929804 -0.06728745946282452 0.9557539156506183
0.3949803 -0.058472971946040446 0.9557748260212694
0.3969802 -0.050443895830558985 0.9562337133731215
0.3989801 -0.04171216628478914 0.9562287698347355
0.40098 -0.03295547084977228 0.9570225579853217
0.4029799 -0.024449490532175135 0.9572283692795893
0.4049798 -0.015982884920974362 0.9576624621714925
0.4069797 -0.007700078220415248 0.9580827387904044
0.4089796 0.0008451916241147273 0.9585887598465768
0.4109795 0.009139372452172733 0.9593432353571315
0.4129794 0.017708891189541692 0.9598150690538082
0.4149793 0.02622220699697648 0.9604555297118451
0.4169792 0.03396317299224063 0.960771441718526
0.4189791 0.04204251168674682 0.961042649595152
0.420979 0.05003917036904268 0.9615542683873801
0.4229789 0.057806434744217226 0.9618694901636482
0.4249788 0.06535775469897687 0.9621390843623722
0.4269787 0.0728995093891889 0.9624821370957494
0.4289786 0.080341231007626 0.9622547725907888
0.4309785 0.0878929674071307 0.9619314847600922
0.4329784 0.0953543393927072 0.9614058856976023
0.4349783 0.10272452998342581 0.9603613262907945
0.4369782 0.10994730824205247 0.9595530274160473
0.4389781 0.1172986706901086 0.9583348569751438
0.440978 0.12449853917516787 0.9574338086947676
0.4429779 0.13172314797474313 0.956175708240537
0.4449778 0.1391554858279553 0.9546872207833315
0.4469777 0.14696808365958647 0.9530722461099488
0.4489776 0.15469346384591248 0.9514695752871409
0.4509775 0.162138356632263 0.9491976773799837
0.4529774 0.17025635941716113 0.9470206234167268
0.4549773 0.17789099316832904 0.9448547607856946
0.4569772 0.18611281366223953 0.942608778434631
0.4589771 0.1941472475505736 0.9403655873103527
0.460977 0.20302649277967744 0.9377752678303954
0.4629769 0.21116057830023374 0.935998768203546
0.4649768 0.21973652727233436 0.9333292465059965
0.4669767 0.22771459422636497 0.9313863087382588
0.4689766 0.2365314017462625 0.9290706108066928
0.4709765 0.24472298171430742 0.9268556913509256
0.4729764 0.25370131240660654 0.9248451274102197
0.4749763 0.2623190899303995 0.9228613349968988
0.4769762 0.2709334367357454 0.9208381187716677
0.4789761 0.27968541332556557 0.9183027356417771
0.480976 0.288322696126356 0.9163596216829085
0.4829759 0.2967734751906264 0.9142325197748005
0.4849758 0.3051485760157114 0.9128065063131966
0.4869757 0.3135677499704248 0.9103968027429274
0.4889756 0.3218994193247364 0.9084445213347925
0.4909755 0.33006320839160125 0.9065561122340479
0.4929754 0.33785564724446526 0.9047122667603318
0.4949753 0.3455720558335548 0.9026196576098958
0.4969752 0.35289562403014896 0.9003150353971755
0.4989751 0.3602486082303488 0.8980103710637402
0.500975 0.3673081282986819 0.8955081004447282
0.5029749 0.37456126838161186 0.8931463634732405
0.5049748 0.38167463661110784 0.8903940572388847
0.5069747 0.3884081498375301 0.8877955337098511
0.5089746 0.39601602683579995 0.8849030770116597
0.5109745 0.4028007032143238 0.8818346952071574
0.5129744 0.4100337249705331 0.8783088280441649
0.5149743 0.41654646281257673 0.8752806938951667
0.5169742 0.4232516458416679 0.8716172354511462
0.5189741 0.430312845623015 0.8676023827132462
0.520974 0.43769154035932845 0.8632035587078918
0.5229739 0.4448524451663651 0.8589761959108071
0.5249738 0.4516861054340154 0.8555093262242935
0.5269737 0.45870152730954056 0.85048548016171
0.5289736 0.46565337933928697 0.8462501234231382
0.5309735 0.4726494480438843 0.8415777168969335
0.5329734 0.47956128310373536 0.8367770866287945
0.5349733 0.48654318323918183 0.8320225821176652
0.5369732 0.49404984149747266 0.8270222322017198
0.5389731 0.5017819881727175 0.8218037979399543
0.540973 0.5087327894849619 0.8167515643901098
0.5429729 0.5163849363543713 0.8114539034270007
0.5449728 0.524106620729432 0.8069011283852027
0.5469727 0.531571706839 0.8018318605633596
0.5489726 0.5390054609371377 0.7969652501200849
0.5509725 0.546635629646103 0.7917259128269816
0.5529724 0.5539738792733854 0.7869520307966925
0.5549723 0.5615982608327016 0.7823018669797438
0.5569722 0.5689107983569517 0.7772911552169575
0.5589721 0.5765351966898897 0.7725916552909368
0.560972 0.583959998877683 0.7678652956801199
0.5629719 0.5911859145244028 0.7629715889317724
0.5649718 0.5984892941223604 0.7585533965125969
0.5669717 0.6056651376117612 0.7535656903608549
0.5689716 0.6120054863852831 0.7490532459130106
0.5709715 0.6183379148725987 0.7441895054401991
0.5729714 0.6247361797323288 0.7388612248769354
0.5749713 0.6314343898700188 0.7338884957722669
0.5769712 0.6378365427847418 0.7288815650946634
0.5789711 0.6439910673865383 0.7241057701630729
0.580971 0.6502513370965834 0.718920935902006
0.5829709 0.6561866392344623 0.7136797938963373
0.5849708 0.6620809031800563 0.7079863541363067
0.5869707 0.6675724909290753 0.7021892771907962
0.5889706 0.6733475796951701 0.6962640522629326
0.5909705 0.6789274223699292 0.6899708864909238
0.5929704 0.6846513355213443 0.6840764052110657
0.5949703 0.6901603262347523 0.6776430354500547
0.5969702 0.6959399864486072 0.6718050461294764
0.5989701 0.7013365719982311 0.6650608521639871
0.60097 0.7071111276507261 0.6582870745158672
0.6029699 0.7129055735913272 0.6517140648989244
0.6049698 0.7180371841521349 0.6449227363090553
0.6069697 0.7231257152749367 0.6381116715307392
0.6089696 0.7293219132485179 0.6309505610237551
0.6109695 0.735098233889329 0.62416273840492
0.6129694 0.7407230890349953 0.6169819599370396
0.6149693 0.7469178788592669 0.6099613041904753
0.6169692 0.7525598097895211 0.6027224938453493
0.6189691 0.7583221141271663 0.5959971188476793
0.620969 0.763772003155702 0.5885795442502104
0.6229689 0.7697295398551695 0.5814620604602639
0.6249688 0.7750544302501449 0.5748280345730292
0.6269687 0.7807932616704752 0.5674465980686937
0.6289686 0.7863919752074776 0.5609066217465196
0.6309685 0.7919820559593699 0.5538071714609023
0.6329684 0.7969980408827779 0.5471068793903171
0.6349683 0.8018400160384205 0.5403666088584176
0.6369682 0.8067005732910812 0.5334484517226961
0.6389681 0.8124593398825692 0.5263028679628239
0.640968 0.8169175675292206 0.519682009519346
0.6429679 0.8224464141840938 0.5130868469863025
0.6449678 0.8266894011896382 0.5063596670267778
0.6469677 0.8311545561295228 0.4989012571977714
0.6489676 0.8354453204548447 0.4921639721246612
0.6509675 0.8394175480497439 0.48533208378977144
0.6529674 0.8433580297014709 0.478101438641103
0.6549673 0.8474793642180485 0.47114471220978116
0.6569672 0.8512019450656748 0.4637316353100297
0.6589671 0.8550593278297859 0.45581340540555243
0.660967 0.8585734900400436 0.4487045666301556
0.6629669 0.8617502715894377 0.44120597927530625
0.6649668 0.8656477241098915 0.432761369056804
0.6669667 0.8686050311848481 0.4251500563685297
0.6689666 0.8722927387452551 0.4169614982528057
0.6709665 0.875739555496299 0.40894134122972786
0.6729664 0.8783500179952687 0.40082512649485663
0.6749663 0.8818108803496548 0.3924303928866504
0.6769662 0.8847337233897609 0.38385741627036013
0.6789661 0.8879155486943809 0.37601304278078884
0.680966 0.8913430382617974 0.36718628512265467
0.6829659 0.8945329591996444 0.3586153518271946
0.6849658 0.8975709243876026 0.3502556423156639
0.6869657 0.9010825593374381 0.3415798532618687
0.6889656 0.9045862907934075 0.3329473651545624
0.6909655 0.9074091116934838 0.3248056734332672
0.6929654 0.9105724661075484 0.3159064930225604
0.6949653 0.9135990067956857 0.3078093567468625
0.6969652 0.9167106224430437 0.29911829910769644
0.6989651 0.9191955196043914 0.2910147123173609
0.700965 0.9222146303502339 0.28195523183107574
0.7029649 0.9251554535698343 0.2739909515123776
0.7049648 0.9278965853005553 0.2654341144258431
0.7069647 0.930218700707525 0.257433288667333
0.7089646 0.9329341057652262 0.24892012022359833
0.7109645 0.9353646229208038 0.24085572473320055
0.7129644 0.9374326869082005 0.2324933641775798
0.7149643 0.9399875647593713 0.2242585432519726
0.7169642 0.9419464140151041 0.2160683111175573
0.7189641 0.943491246627807 0.20783251702021077
0.720964 0.9456402286393284 0.19943884619069538
0.7229639 0.947391215551069 0.1906771975265386
0.7249638 0.9489752653615686 0.18251077429225607
0.7269637 0.9501770679572127 0.17434984512963708
0.7289636 0.951317415163969 0.1657052445823887
0.7309635 0.9532681601430546 0.15733486564397253
0.7329634 0.9544678508252858 0.14862312262976207
0.7349633 0.954908952746955 0.14047388696977237
0.7369632 0.9561388287073959 0.13165566510085205
0.7389631 0.9573135191448249 0.1229912561410618
0.740963 0.957917197322261 0.11473657135901155
0.7429629 0.9589839322991235 0.10555810419565981
0.7449628 0.9595924003189262 0.09689597558505592
0.7469627 0.9603397395268445 0.08790615646145011
0.7489626 0.9611471606383176 0.0790640245604588
0.7509625 0.9612875262185464 0.07049807064521464
0.7529624 0.9619493067859677 0.06144971194106101
0.7549623 0.9626564350895338 0.05256206414367954
0.7569622 0.9625149799268427 0.0443954966418037
0.7589621 0.9634216145274779 0.034966909124312495
0.760962 0.963464074184018 0.026407031892502153
0.7629619 0.9637834954769415 0.017793984381439573
0.7649618 0.9640068771109611 0.008780405616068465
0.7669617 0.9637078187563295 0.00017236208414375676
0.7689616 0.9634662491575458 -0.008525793044431143
0.7709615 0.9634866529391004 -0.01733252284025673
0.7729614 0.9634981879568353 -0.02550426192717163
0.7749613 0.9627882998739354 -0.034216922317758
0.7769612 0.9623515730384264 -0.043101546809917735
0.7789611 0.9619486798108992 -0.05146180911718695
0.780961 0.9613261263700985 -0.060349411524154295
0.7829609 0.9606285947261681 -0.06847739208157923
0.7849608 0.9599835702875165 -0.07676525480723237
0.7869607 0.9591437167961634 -0.08527818869826764
0.7889606 0.9581685977241672 -0.09426829225967906
0.7909605 0.9567386661305749 -0.10259060771343363
0.7929604 0.955682414277078 -0.11109580414806237
0.7949603 0.9547544180611152 -0.120107530457753
0.7969602 0.953473017094187 -0.12859914822053028
0.7989601 0.9512992278401444 -0.1367529347308141
0.80096 0.9503290103957125 -0.14602567487147602
0.8029599 0.9487283149798045 -0.15432708692900135
0.8049598 0.9473490857235803 -0.16342714224753238
0.8069597 0.945869590869942 -0.17204583975510135
0.8089596 0.9441062942991447 -0.18091061997305166
0.8109595 0.9425007780828114 -0.18964968041465605
0.8129594 0.9409123185147927 -0.19833795936828302
0.8149593 0.9391481395944339 -0.2072165706543844
