! Created with skrf 1.8.0 (http://scikit-rf.org).
# GHz S RI R 50.0 
!freq ReS11 ImS11
0.001 -0.6442107835343779 0.26896462155851486
0.0029999 -0.8991222859605108 0.06735112456877007
0.0049998 -0.931894551615996 -0.0003774653936444161
0.0069997 -0.9670461253784197 0.02928694736995563
0.0089996 -0.9602089395983645 0.035004079827162304
0.0109995 -0.9599351626684279 0.04115508793205247
0.0129994 -0.9595694358652588 0.04772020521699538
0.0149993 -0.9586330647791574 0.055873266607141425
0.0169992 -0.9583434681047376 0.05958918496288479
0.0189991 -0.9581302760650439 0.06578155367639371
0.020999 -0.9575589372470044 0.07209981803654941
0.0229989 -0.9568705711301968 0.07835924300764019
0.0249988 -0.9557577577624103 0.08423653278705526
0.0269987 -0.9552828837679994 0.09069434336106269
0.0289986 -0.9543816026477717 0.09674724936485082
0.0309985 -0.9533071885087818 0.10287068390329399
0.0329984 -0.9524909225314775 0.10932627147623958
0.0349983 -0.9516700122701407 0.11571636364533139
0.0369982 -0.9501892714250838 0.12216941104627138
0.0389981 -0.9490203456811357 0.12842825409206576
0.040998 -0.9483092657472925 0.13480045845481026
0.0429979 -0.9463989840323714 0.14112112241379748
0.0449978 -0.9452040305727278 0.14741238377049487
0.0469977 -0.9445489479110295 0.15384421008677812
0.0489976 -0.9425839473698998 0.16036470649965723
0.0509975 -0.9409369689821219 0.1670700108936362
0.0529974 -0.9399081692796236 0.1739283882339761
0.0549973 -0.937725946125044 0.18112811042004362
0.0569972 -0.9368034422460978 0.1871336297552896
0.0589971 -0.935229508874679 0.1939019535922769
0.060997 -0.9342380695210788 0.20108397522341626
0.0629969 -0.9327697323205932 0.20692358908434028
0.0649968 -0.9305943474439885 0.21372639030442905
0.0669967 -0.9300869730536963 0.22052945043836897
0.0689966 -0.9284853500422723 0.22672192307822042
0.0709965 -0.9270625671845498 0.23342053723983153
0.0729964 -0.9254497267487174 0.24020143387484688
0.0749963 -0.9240463547322197 0.24644220956654378
0.0769962 -0.9230245798794641 0.2527003990165158
0.0789961 -0.9208929830991731 0.25884734533981313
0.080996 -0.9191498653643932 0.2653088673438754
0.0829959 -0.9174210071398246 0.271694989647026
0.0849958 -0.9162085442764386 0.2773193651395308
0.0869957 -0.9145888491915865 0.2836909176935679
0.0889956 -0.9124411987129419 0.28910931089916586
0.0909955 -0.9107874512030066 0.2953731040744074
0.0929954 -0.9085636212634405 0.3012012420642478
0.0949953 -0.906369685993523 0.3073201240674903
0.0969952 -0.9042720812367313 0.3128659730444925
0.0989951 -0.9018114430207385 0.3188253331017461
0.100995 -0.9009223095533354 0.3251379258177083
0.1029949 -0.8986167905519096 0.3309001914773103
0.1049948 -0.8964720842421632 0.3368201023503617
0.1069947 -0.8937752851663006 0.3422147362674977
0.1089946 -0.8911743489332975 0.3480295359481129
0.1109945 -0.8882634981694352 0.3537437250365326
0.1129944 -0.8855553940447853 0.35958977961763067
0.1149943 -0.8824521074853046 0.3652778323623822
0.1169942 -0.8794068520864249 0.3713287943512197
0.1189941 -0.8766733533331106 0.3771804538624395
0.120994 -0.8735756946794043 0.3831034700251306
0.1229939 -0.8705205117613899 0.3894422022744669
0.1249938 -0.8675832145504149 0.39532348396841716
0.1269937 -0.8644809192602974 0.4012952663211448
0.1289936 -0.8617306820839565 0.40730907109330905
0.1309935 -0.8588002273582278 0.4138139376998553
0.1329934 -0.8556269206987962 0.41955023037295536
0.1349933 -0.8521580628613563 0.4260083987457633
0.1369932 -0.8493071759758156 0.43156632496838643
0.1389931 -0.8462046076411398 0.4381352639362889
0.140993 -0.8428710558495698 0.44330500723018984
0.1429929 -0.8396156426849599 0.449772324812285
0.1449928 -0.8373080876617265 0.4564036051268228
0.1469927 -0.8342197206013884 0.4619507437224557
0.1489926 -0.8308885567336444 0.4682057353902154
0.1509925 -0.8274860836724669 0.4732624610888251
0.1529924 -0.8243622296463113 0.47955981875707226
0.1549923 -0.8219008690461835 0.4858410338524411
0.1569922 -0.8185386423229624 0.4908372271078662
0.1589921 -0.8151781198164288 0.4971226834651348
0.160992 -0.811899480814284 0.5026884606466225
0.1629919 -0.8084637720622554 0.5080268423882379
0.1649918 -0.8049841257545838 0.5135687928008463
0.1669917 -0.8018679483285502 0.5187162922661286
0.1689916 -0.7984896354536953 0.5244423780340217
0.1709915 -0.7950016977154433 0.5297802815298568
0.1729914 -0.791209974382849 0.5347376225036401
0.1749913 -0.7878697831522969 0.5403639052561473
0.1769912 -0.7839113504969296 0.5453535969235636
0.1789911 -0.7806606691483756 0.5506602826042615
0.180991 -0.7767143373090866 0.5558098205288079
0.1829909 -0.7727071242432851 0.5608230807483026
0.1849908 -0.7688149864025978 0.5661957534554201
0.1869907 -0.7648060135793991 0.571053470475281
0.1889906 -0.7606707091979789 0.5762435601981771
0.1909905 -0.7566011064013972 0.581634406126875
0.1929904 -0.7524642639220225 0.5866805515470772
0.1949903 -0.7480948635027903 0.5918656240872314
0.1969902 -0.7441203497594605 0.5969698841143846
0.1989901 -0.7397865329287598 0.6021739055144202
0.20099 -0.7354691222684442 0.607521732965285
0.2029899 -0.7310772839244277 0.6123323472534012
0.2049898 -0.7268879383076963 0.6171453322698248
0.2069897 -0.7221801518083495 0.6223973329460529
0.2089896 -0.7177847011956431 0.6275617744010605
0.2109895 -0.7135209574131692 0.6323639029046126
0.2129894 -0.7091563663014294 0.6377162664741772
0.2149893 -0.7044795767117612 0.6426826248668254
0.2169892 -0.6998080041851268 0.6476403338974465
0.2189891 -0.695402426183785 0.6529086400724311
0.220989 -0.6909410099338235 0.6578019520269612
0.2229889 -0.6862031570933683 0.6624838168340665
0.2249888 -0.6810449479483309 0.667466570189202
0.2269887 -0.6764932197852098 0.6720015360642001
0.2289886 -0.6715748130836403 0.6770658502513717
0.2309885 -0.666858378216379 0.6822784389505046
0.2329884 -0.662395360351033 0.686814875528988
0.2349883 -0.657203407658586 0.6914974092787822
0.2369882 -0.6524499616612689 0.6962996083656219
0.2389881 -0.6473643086311874 0.700923111503942
0.240988 -0.6426191744533564 0.7056445805245888
0.2429879 -0.6378767145847186 0.7101928446146297
0.2449878 -0.6329213487035102 0.7147822978841111
0.2469877 -0.6278431418831611 0.7193590575349512
0.2489876 -0.622818691869461 0.7237365570079679
0.2509875 -0.618072674175558 0.7287598493780066
0.2529874 -0.6132263853568564 0.7331602113061509
0.2549873 -0.6083579717728846 0.7376980558054839
0.2569872 -0.6035572009530434 0.7421147116882857
0.2589871 -0.5984197833726754 0.7465645319644176
0.260987 -0.5935610170117426 0.7506762418829807
0.2629869 -0.5885883042515676 0.7552836552818669
0.2649868 -0.583357626416085 0.7590034544559979
0.2669867 -0.5785682706064817 0.7632365884457534
0.2689866 -0.5733370713573772 0.7671724011565776
0.2709865 -0.5686591101360181 0.7712024707564795
0.2729864 -0.5632169769024797 0.7748955705797852
0.2749863 -0.5583916985100179 0.7788210524562548
0.2769862 -0.553142739009655 0.7827371649141673
0.2789861 -0.5481446829657999 0.7862765531985276
0.280986 -0.5427345195104079 0.7890031154022825
0.2829859 -0.5373299214930296 0.7923944665100278
0.2849858 -0.5318969504104875 0.7958077756481443
0.2869857 -0.5264679551798632 0.7991816332371976
0.2889856 -0.5207465989745359 0.8024445229041881
0.2909855 -0.5148561184802329 0.8058021103359472
0.2929854 -0.5093405664994284 0.8090711086646268
0.2949853 -0.5029879708895318 0.8118849234350817
0.2969852 -0.49726996707688415 0.8152768561137691
0.2989851 -0.49134991033603115 0.8180547942236228
0.300985 -0.48485249159565835 0.8205533003303955
0.3029849 -0.47844379987609204 0.8237537403934809
0.3049848 -0.47163930691439676 0.8265451965286663
0.3069847 -0.4652421226031523 0.8297868472034073
0.3089846 -0.45859396885386344 0.8323538843316084
0.3109845 -0.45164808841402115 0.8355122883796624
0.3129844 -0.4453144829236711 0.8388180659663277
0.3149843 -0.4381017987036939 0.8416867017745742
0.3169842 -0.43128186563950505 0.8450483751270433
0.3189841 -0.4244870250238979 0.8477625779115362
0.320984 -0.41713631066661794 0.851195899827706
0.3229839 -0.4103518026976197 0.8545175037128041
0.3249838 -0.4038736787201612 0.8570673356667543
0.3269837 -0.39717409678977245 0.860168270239027
0.3289836 -0.39008274675663246 0.8632074010593256
0.3309835 -0.3833622665880988 0.8665477241170146
0.3329834 -0.37689473698301906 0.8699755469536437
0.3349833 -0.37077462708092024 0.8738313723254028
0.3369832 -0.36466146311581293 0.8778838023925126
0.3389831 -0.35831581304805116 0.8815674429463761
0.340983 -0.35242458375695496 0.8853387191694285
0.3429829 -0.34599356047059215 0.888886721222856
0.3449828 -0.34031578174522825 0.8926634181389578
0.3469827 -0.33428937531603115 0.8959648521939286
0.3489826 -0.32833144952132076 0.8988089974636593
0.3509825 -0.32209148541273924 0.9021261558076309
0.3529824 -0.31635314143999627 0.904920359951511
0.3549823 -0.31073971032288344 0.907711424209875
0.3569822 -0.3046559600731208 0.9104266243082998
0.3589821 -0.2991805084071259 0.9126864688685451
0.360982 -0.2932550601799886 0.9151298115870298
0.3629819 -0.2875018789767533 0.9173776510543364
0.3649818 -0.28128305227638856 0.9187880086118452
0.3669817 -0.2752975900379775 0.9198933959061827
0.3689816 -0.26905807831453243 0.9219860177521287
0.3709815 -0.26284491213847583 0.9236861071549629
0.3729814 -0.25641291135694017 0.9246767022875992
0.3749813 -0.250408082095355 0.9258705393315817
0.3769812 -0.24372568179507065 0.9269380554374067
0.3789811 -0.23725160694654038 0.9282608341470485
0.380981 -0.23002276738545688 0.9292424628468928
0.3829809 -0.22327102504928759 0.9305214963937938
0.3849808 -0.21631095603092043 0.9314702578767085
0.3869807 -0.2089004274139957 0.9322017012162661
0.3889806 -0.20160912325293281 0.9333211564519796
0.3909805 -0.1937695853195887 0.9344265661774994
0.3929804 -0.18636396523515472 0.9355561535404422
0.3949803 -0.17876505889574465 0.9362499022944141
0.3969802 -0.1709353795868639 0.9380101260161958
0.3989801 -0.16384198608306338 0.9387283552414437
0.40098 -0.15579073411165817 0.9403375558776469
0.4029799 -0.1482599932092586 0.9421070932719109
0.4049798 -0.14078454850189875 0.9432099425404801
0.4069797 -0.133416139754579 0.9447818383830643
0.4089796 -0.12574185363593315 0.94605924930546
0.4109795 -0.11826540794501608 0.947833778734262
0.4129794 -0.11086761777507037 0.9494005106233111
0.4149793 -0.10324641407998064 0.9512126826019858
0.4169792 -0.09628715642475816 0.9526012975564268
0.4189791 -0.08902413603736711 0.9538059603372151
0.420979 -0.08211672772955363 0.9552208144781577
0.4229789 -0.07558568371226196 0.9565595133766246
0.4249788 -0.06863153417846701 0.9579557695574854
0.4269787 -0.06208449889228357 0.9589468457495981
0.4289786 -0.05581148624367276 0.9601190376445639
0.4309785 -0.048973653823371 0.9608320499092229
0.4329784 -0.042339259943726656 0.9613668076947625
0.4349783 -0.035556221909746145 0.9609542305045448
0.4369782 -0.029289292311547095 0.9615673723927916
0.4389781 -0.022708804344413976 0.9615528679492719
0.440978 -0.016118139041090697 0.961095875940723
0.4429779 -0.009712379360438679 0.9610747503540956
0.4449778 -0.003143711998436185 0.9608144457098784
0.4469777 0.0036082511383265306 0.9595752934072008
0.4489776 0.01099175853318455 0.9594466147009251
0.4509775 0.01786292966056801 0.9587018793421833
0.4529774 0.025199171616345543 0.9576286887852826
0.4549773 0.03260172668255325 0.9566332234893014
0.4569772 0.04002884405737549 0.9557114061447058
0.4589771 0.04772098512615992 0.954595855272684
0.460977 0.05591173660030406 0.9538567125898889
0.4629769 0.06341928259223409 0.9527114811439186
0.4649768 0.0709070680668589 0.9519830781452693
0.4669767 0.07926648339463008 0.9510382744673509
0.4689766 0.08709274668071994 0.9504849298897458
0.4709765 0.09526738776364697 0.9495185438762503
0.4729764 0.10309967084284191 0.9488264224734546
0.4749763 0.11108988883256689 0.9486168772803973
0.4769762 0.1189129257526179 0.9476609151255947
0.4789761 0.12770521745025407 0.9474753263808248
0.480976 0.13565432953659007 0.9468862964973236
0.4829759 0.14336203613001752 0.9463516337157603
0.4849758 0.1510270203150755 0.9460283882630391
0.4869757 0.15905597986399522 0.9459190020792346
0.4889756 0.16662014007907022 0.9451237387754188
0.4909755 0.1742073840763752 0.9449844223330559
0.4929754 0.18161705883729412 0.9445322404282406
0.4949753 0.18837111996291972 0.9442352908045785
0.4969752 0.19530504551719172 0.9432770675346787
0.4989751 0.20209954152402473 0.9424708933525188
0.500975 0.20859890862350602 0.9413578779851529
0.5029749 0.21513818933276657 0.940595319097767
0.5049748 0.2217189426600593 0.9393472154703486
0.5069747 0.22792018559386773 0.9378186160858515
0.5089746 0.23446130128398007 0.9365978733233138
0.5109745 0.24118675852138483 0.934955663269161
0.5129744 0.2478604032653436 0.9334250301303411
0.5149743 0.254112158491374 0.93163202730236
0.5169742 0.2600697646590971 0.9292480460694864
0.5189741 0.2669070950957242 0.9270923622833412
0.520974 0.2738625151148406 0.9242500868214274
0.5229739 0.2807952329585216 0.9217631989611739
0.5249738 0.2873985374464935 0.9192589121048038
0.5269737 0.2941433753212175 0.9164540757452275
0.5289736 0.30090155726102924 0.9133811328452346
0.5309735 0.30771696265450765 0.9103695558331028
0.5329734 0.31508451116842534 0.9072107803959029
0.5349733 0.3221130651822607 0.9038180733186765
0.5369732 0.32927565978630047 0.9006471001796912
0.5389731 0.33700237521068016 0.8972911886315219
0.540973 0.3440319677400784 0.8935963702088088
0.5429729 0.35151937944769984 0.890597502081045
0.5449728 0.3593226547680982 0.8874977389812286
0.5469727 0.3668150261671538 0.8845377919574245
0.5489726 0.37449930091258843 0.8813584163131659
0.5509725 0.38185868947211904 0.8781357695588963
0.5529724 0.3897161602874491 0.8752025143155459
0.5549723 0.397284847371751 0.8723508439148137
0.5569722 0.40474494046658527 0.869537413714098
0.5589721 0.4125295373160379 0.8665593228913259
0.560972 0.4199683004442554 0.8639438097277643
0.5629719 0.4273540647337815 0.8612402563970608
0.5649718 0.4344884348490609 0.8589050492865169
0.5669717 0.44170324541793643 0.8557632430543661
0.5689716 0.44811185449879287 0.8528688097957836
0.5709715 0.4546438254924362 0.8501438618214439
0.5729714 0.460995990201086 0.847047076956441
0.5749713 0.46777813048731115 0.8438292046508045
0.5769712 0.474377889401303 0.8406551190623613
0.5789711 0.48047604676777955 0.8378984244330866
0.580971 0.48659556884999333 0.8346485082660253
0.5829709 0.49292111284347984 0.8311700054533508
0.5849708 0.4986349710529551 0.8276041028934155
0.5869707 0.504524257746162 0.8240146120884954
0.5889706 0.510694271955388 0.8193711440851639
0.5909705 0.5164450494155123 0.8150633154775001
0.5929704 0.5225438013463933 0.8103912011705321
0.5949703 0.5282240794150187 0.8063717989330846
0.5969702 0.5344230068104378 0.802193191962819
0.5989701 0.5404347167472224 0.7972638371031576
0.60097 0.5462633816562422 0.7922394786655822
0.6029699 0.5522671956286582 0.7873114774642651
0.6049698 0.5586460313634873 0.7824535469425279
0.6069697 0.5641105367284533 0.7772749270504649
0.6089696 0.5707325753888188 0.7723222692442497
0.6109695 0.5774893689903209 0.7667322965625126
0.6129694 0.5838363605665129 0.7621061296544928
0.6149693 0.5905668685320178 0.7568729383043842
0.6169692 0.5972013840443958 0.7516104689936699
0.6189691 0.6035524789314219 0.7467668862178816
0.620969 0.6100244233277934 0.7414988875070663
0.6229689 0.6168434033857882 0.7364945616743594
0.6249688 0.6229253550221728 0.7316512266833897
0.6269687 0.6298938936062981 0.7265079868574549
0.6289686 0.6360613247495426 0.7217100513206691
0.6309685 0.642783622942824 0.7171967798965604
0.6329684 0.6487620790778884 0.7124135056717065
0.6349683 0.6546256518138942 0.7075709089518558
0.6369682 0.6602524025000676 0.7028117399018681
0.6389681 0.6667326535381274 0.697711584701949
0.640968 0.6722201993499397 0.6934678696727445
0.6429679 0.6780259716922831 0.6888712362859784
0.6449678 0.6835723563824091 0.6841376852472365
0.6469677 0.6888861231732808 0.679222913539074
0.6489676 0.6939763291684705 0.674229681083498
0.6509675 0.6986217737766661 0.6695383974020696
0.6529674 0.7035906882796962 0.6639796383685443
0.6549673 0.7084657193690567 0.6594228981577899
0.6569672 0.7129665205714384 0.6542411205038369
0.6589671 0.7180006063536128 0.6481193766819131
0.660967 0.7223401894236816 0.642517940898797
0.6629669 0.7268751390492608 0.6366571867318822
0.6649668 0.7314821521705563 0.6308374893909912
0.6669667 0.7355086433386212 0.6244049143894947
0.6689666 0.7403594156863899 0.6179720782904593
0.6709665 0.7451279845846972 0.6115434098531167
0.6729664 0.7489966874040627 0.6052057311002654
0.6749663 0.7530988450798476 0.5984679705351135
0.6769662 0.757695315978243 0.5914469447284879
0.6789661 0.7619820028513842 0.584874278029768
0.680966 0.7670536729322543 0.5777540236093909
0.6829659 0.7718392012797118 0.5706530101940452
0.6849658 0.7760030103627741 0.5641158635753701
0.6869657 0.7814367907691141 0.5569533623764993
0.6889656 0.786377999626679 0.5498121501755374
0.6909655 0.7913648356581007 0.54355675797932
0.6929654 0.7960160377651507 0.5361324724132011
0.6949653 0.8008058591025656 0.5297213640835342
0.6969652 0.8056928753110885 0.522738443843531
0.6989651 0.8099341677825549 0.5161602002588094
0.700965 0.8150745677731451 0.5091133253725866
0.7029649 0.8197345992253058 0.5029195958423317
0.7049648 0.8242798997109638 0.49606663823583885
0.7069647 0.8281827672442315 0.48974215375124774
0.7089646 0.833193216186461 0.48311752501551725
0.7109645 0.8373835113205991 0.4767003643531224
0.7129644 0.8412881584898813 0.4705292128530021
0.7149643 0.8454290353999734 0.4642309525414329
0.7169642 0.8492544334000779 0.45787787167777727
0.7189641 0.8530727868454286 0.45128416336021837
0.720964 0.8565457882740876 0.4448912846487216
0.7229639 0.8600493819135023 0.43804222474137994
0.7249638 0.8637536144844216 0.43183216789961215
0.7269637 0.8667957730353751 0.4252493349611796
0.7289636 0.8699446324981864 0.41877518269058206
0.7309635 0.8732560928606564 0.4118219962221733
0.7329634 0.8762714267588783 0.4050370101464642
0.7349633 0.8782378215430772 0.39799136945131774
0.7369632 0.8810425453407722 0.3909941417815462
0.7389631 0.8841182647829768 0.38368823235095484
0.740963 0.8866578197471288 0.37675933393958516
0.7429629 0.889469944112902 0.3693196067509096
0.7449628 0.8918014089589014 0.3613732514966643
0.7469627 0.8942982512036379 0.35398333808147475
0.7489626 0.897224179884228 0.3460054331806265
0.7509625 0.8992929197615666 0.3388126346286451
0.7529624 0.9019437129045877 0.33068548070376386
0.7549623 0.9047878536681072 0.32301857294697783
0.7569622 0.9067416263475899 0.31522193639420953
0.7589621 0.9097406650929808 0.30749712201247853
0.760962 0.9124273031319339 0.29937474215183485
0.7629619 0.9148112493999648 0.2919150728573734
0.7649618 0.9176502464028956 0.28408225091080186
0.7669617 0.9197405253284371 0.27599549801778417
0.7689616 0.9221522860733076 0.26812010643304846
0.7709615 0.9242548922113601 0.26061795610055705
0.7729614 0.9270406618737063 0.2532072727885029
0.7749613 0.9289653603842917 0.24543920967618932
0.7769612 0.9316185150476222 0.23756760044460903
0.7789611 0.9334666846000679 0.23020900009062406
0.780961 0.9356761805115709 0.2227516419379149
0.7829609 0.9373668514000074 0.21516942905981407
0.7849608 0.9396075165595152 0.2077378466396927
0.7869607 0.941230773273826 0.2005821004732714
0.7889606 0.9429771273076211 0.19263086753207626
0.7909605 0.9447187696446848 0.1855335365263914
0.7929604 0.9461670292341436 0.17790884120899725
0.7949603 0.9478354684416492 0.17028522266468357
0.7969602 0.9487409563271414 0.16326380266962517
0.7989601 0.9502318071892601 0.15523986050445665
0.80096 0.9508666029092216 0.1477851840783169
0.8029599 0.9518864211479755 0.14057910929418702
0.8049598 0.9531923210345825 0.13291887359246235
0.8069597 0.9540607500904947 0.12508074838304686
0.8089596 0.9546937076232641 0.11734383275450312
0.8109595 0.9549964541373213 0.10943208483036075
0.8129594 0.9559619438833518 0.10132811436127018
0.8149593 0.9567608799766966 0.09358473938298989
