! Created with skrf 1.8.0 (http://scikit-rf.org).
# GHz S RI R 50.0 
!freq ReS11 ImS11
0.001 -0.7803370951898896 0.2909753060730923
0.0029999 -0.9793857837553036 0.04199771265279528
0.0049998 -0.9658757529879531 0.035914440810079745
0.0069997 -0.9648163707117134 0.03865270916984964
0.0089996 -0.9623434019700955 0.044013000039507866
0.0109995 -0.960093784340274 0.05101105220863089
0.0129994 -0.9595805961231969 0.05830723911616431
0.0149993 -0.959412985613299 0.06731022805085907
0.0169992 -0.9583028907010882 0.0732169100446387
0.0189991 -0.9579628029416112 0.08112778568862955
0.020999 -0.9569774011292272 0.08884307942973829
0.0229989 -0.9557826938292004 0.09664271095335725
0.0249988 -0.9543634824261676 0.10428462462461824
0.0269987 -0.9536164963595937 0.11222280812839025
0.0289986 -0.9522683175942351 0.12006910132211786
0.0309985 -0.9509103302176998 0.12781736869801597
0.0329984 -0.9496497329325638 0.13586755075354373
0.0349983 -0.9482693160022003 0.14359517820401746
0.0369982 -0.946475927273177 0.15169941915563445
0.0389981 -0.9446444876301693 0.15935361937220088
0.040998 -0.9434951009741779 0.16765846761974573
0.0429979 -0.9409546049536331 0.175666612318727
0.0449978 -0.9393226384081981 0.1830454379066343
0.0469977 -0.9379226169848922 0.19146389977425243
0.0489976 -0.935087540184476 0.19919778893793255
0.0509975 -0.9329508593925551 0.20718114176316965
0.0529974 -0.9313552203718659 0.21543123562076594
0.0549973 -0.928434901416735 0.22451245507388534
0.0569972 -0.9266768688629297 0.23176153475902042
0.0589971 -0.9244597025830563 0.24024452560773477
0.060997 -0.9228711407984551 0.24875766310961617
0.0629969 -0.9204903609725182 0.2560774998621112
0.0649968 -0.9178091128824625 0.26463116646324025
0.0669967 -0.9163538374913482 0.2729135900276052
0.0689966 -0.9139939829029909 0.2802460915742191
0.0709965 -0.9116657980459111 0.28868158845373115
0.0729964 -0.9089512466423402 0.2966679648213528
0.0749963 -0.9072309080858636 0.30407756600668684
0.0769962 -0.9052543798880541 0.31203989618969585
0.0789961 -0.9022027969060894 0.319200258527159
0.080996 -0.8996304056842049 0.3272794076223182
0.0829959 -0.8966818034815902 0.33512141123292327
0.0849958 -0.8947078689883206 0.3419353575550115
0.0869957 -0.8919764229407129 0.3496324259872915
0.0889956 -0.8891822125983273 0.35658663352066616
0.0909955 -0.8860821596960036 0.3638760371396846
0.0929954 -0.8831378218298105 0.37106701408117915
0.0949953 -0.8797695283298854 0.37858698373267935
0.0969952 -0.8764746754121543 0.3851696312726725
0.0989951 -0.8730684285128404 0.39262589576432694
0.100995 -0.8712841735343626 0.40015490472228443
0.1029949 -0.8677512027888672 0.4068567015351642
0.1049948 -0.8644255311894592 0.4140547347371811
0.1069947 -0.8605993989227123 0.42073056872931397
0.1089946 -0.856700848750549 0.4276029255816109
0.1109945 -0.852322683202861 0.43441493660604014
0.1129944 -0.8483829398702961 0.44126533747003893
0.1149943 -0.843937722683099 0.4480344494819752
0.1169942 -0.8395366041166297 0.45507454649245893
0.1189941 -0.8350274559907446 0.46202855903817075
0.120994 -0.8307347295060296 0.46933969226277555
0.1229939 -0.8263010680117675 0.4765389674638889
0.1249938 -0.8217416578207886 0.48359659632114926
0.1269937 -0.8174158335790019 0.4909687150745239
0.1289936 -0.8126545400115844 0.49827855862846293
0.1309935 -0.8084073458855838 0.5055787254362768
0.1329934 -0.8034609758138294 0.5123988936485948
0.1349933 -0.7986950094263603 0.5195842830991831
0.1369932 -0.7945108563747428 0.5264300348928175
0.1389931 -0.7896770002843062 0.5338502079914093
0.140993 -0.7850761840474083 0.5407942518210516
0.1429929 -0.7800163968008496 0.54754276739514
0.1449928 -0.7757533402391511 0.5553051349992215
0.1469927 -0.7708344488061705 0.5619274800383727
0.1489926 -0.7660519074030803 0.568879641612768
0.1509925 -0.7611943436310713 0.575338566809497
0.1529924 -0.7562507600475641 0.5824654739666808
0.1549923 -0.7519858040595518 0.5891489045202694
0.1569922 -0.7467255481163059 0.5954390222244557
0.1589921 -0.7420007555524775 0.6019814809313185
0.160992 -0.7368063068118547 0.6086286142934154
0.1629919 -0.731920922028504 0.6147247506158267
0.1649918 -0.7266896778449423 0.6210358081218399
0.1669917 -0.7217136874337599 0.6270577141934426
0.1689916 -0.7168217571734196 0.6334181440568407
0.1709915 -0.7112062564573071 0.6393242279153207
0.1729914 -0.7057245848196587 0.645229591959258
0.1749913 -0.7001994591394519 0.6511160074367184
0.1769912 -0.6948067395101781 0.6569603074699846
0.1789911 -0.6895651165379123 0.6627872041870063
0.180991 -0.6835122090315029 0.6684929265354046
0.1829909 -0.677918122194249 0.6740001159684402
0.1849908 -0.67192858774097 0.6798900357554505
0.1869907 -0.6661846095988342 0.6854120228262109
0.1889906 -0.6599353787094522 0.691103282642396
0.1909905 -0.6536570977196375 0.6969126152896632
0.1929904 -0.6474843319733644 0.7024537096736939
0.1949903 -0.641512960741411 0.7080420006791169
0.1969902 -0.634901204677298 0.7132784557859579
0.1989901 -0.6286183899283464 0.7191544538611598
0.20099 -0.6222028442271155 0.7245281645134926
0.2029899 -0.6159420718237553 0.7299806123913284
0.2049898 -0.6093506869117681 0.7352667892466213
0.2069897 -0.6025808515353311 0.740813250696986
0.2089896 -0.5961102701761489 0.7458013963979893
0.2109895 -0.5899839432107804 0.7510475763666337
0.2129894 -0.5828345201589599 0.7567408757870968
0.2149893 -0.5761781545348 0.7616534199799128
0.2169892 -0.5694767040414481 0.76725366197551
0.2189891 -0.5623180083214424 0.7724573227825794
0.220989 -0.5559411722170174 0.7772710863355721
0.2229889 -0.5487701324259628 0.7819125822917794
0.2249888 -0.5415837557813011 0.7869456286723767
0.2269887 -0.5347941982779831 0.7917279645649107
0.2289886 -0.5274765569626237 0.7966287564174813
0.2309885 -0.5205221049038151 0.8017352372825505
0.2329884 -0.5133738315926402 0.806164330270575
0.2349883 -0.506262424544857 0.8110308695562957
0.2369882 -0.49873280277426113 0.8154452981441277
0.2389881 -0.49170106732091323 0.8201502645862233
0.240988 -0.4844516585648594 0.8247743648902496
0.2429879 -0.477051501304514 0.8291524820985482
0.2449878 -0.46988480319710363 0.8334430655190264
0.2469877 -0.46232659765124556 0.8376450113317189
0.2489876 -0.45537332722556784 0.8421811666178867
0.2509875 -0.44779004303138686 0.8468137830744131
0.2529874 -0.44038606351779347 0.8508753798221746
0.2549873 -0.43329831933902646 0.8550091950070698
0.2569872 -0.42600183046577345 0.8595463712089904
0.2589871 -0.4185748440227946 0.863444388491308
0.260987 -0.4111490752779569 0.8674262362022507
0.2629869 -0.40371359436007626 0.8713581869443487
0.2649868 -0.3963888590247002 0.8746099934756789
0.2669867 -0.3890915101603271 0.8784234245785404
0.2689866 -0.3816030726715277 0.8819352165851773
0.2709865 -0.3740913003743311 0.8855618208457646
0.2729864 -0.36669872933297065 0.8884980486037861
0.2749863 -0.3591360757334917 0.8920169015732521
0.2769862 -0.35204445913917193 0.8949867118160252
0.2789861 -0.34413539384057423 0.8976466732512973
0.280986 -0.3368377542202255 0.9002984700517295
0.2829859 -0.3290059089853957 0.9028035444253288
0.2849858 -0.3212947077270545 0.9052551418555123
0.2869857 -0.31309895381849373 0.9079007840441409
0.2889856 -0.3051838649694735 0.9100776428173649
0.2909855 -0.2969415332125075 0.912312711140906
0.2929854 -0.28866292481111694 0.9144292352122686
0.2949853 -0.28037484623809455 0.9165155492019099
0.2969852 -0.27206849319858667 0.9183666530750131
0.2989851 -0.2634537695798522 0.9201232674883553
0.300985 -0.25498002013485976 0.921456690003097
0.3029849 -0.24609252130345177 0.9229753680251467
0.3049848 -0.23732656726544282 0.9247097924906579
0.3069847 -0.22806987667538928 0.9265737587058123
0.3089846 -0.21895467090283263 0.927438592452626
0.3109845 -0.20989361107288232 0.9293728669310066
0.3129844 -0.20036277923931844 0.9307699137019608
0.3149843 -0.19099083030160013 0.9323687575577474
0.3169842 -0.18133433260260548 0.9340040531806363
0.3189841 -0.17217817431431948 0.9352519856678915
0.320984 -0.16240504359814953 0.9366544251983968
0.3229839 -0.15318798730056182 0.9381365719737638
0.3249838 -0.14416829810521953 0.9390788128533082
0.3269837 -0.1346376007031531 0.940439138728723
0.3289836 -0.12512136607854552 0.9419888555012803
0.3309835 -0.11614404558843361 0.9434547653506856
0.3329834 -0.10715749853401266 0.9453661328637338
0.3349833 -0.09787452614100178 0.9472471628644333
0.3369832 -0.08919322295060529 0.949922984994641
0.3389831 -0.07992516304619918 0.9516153765790525
0.340983 -0.07089930318679263 0.9537280259549819
0.3429829 -0.06236223481729375 0.9561573108122722
0.3449828 -0.05346169584067137 0.9577493943283215
0.3469827 -0.04492425528437949 0.9592271508219634
0.3489826 -0.03602222401083214 0.9604884730989659
0.3509825 -0.027536720216236425 0.9618401651681525
0.3529824 -0.01909614106079239 0.9630751135303022
0.3549823 -0.01083946928757027 0.9639336107678531
0.3569822 -0.0023694921050066847 0.9646259444385196
0.3589821 0.005559845746317765 0.964851282786064
0.360982 0.013981433446178027 0.9656056612132303
0.3629819 0.0216633748359705 0.9657488956800013
0.3649818 0.03005816305299816 0.9650489239817598
0.3669817 0.03822457450709277 0.9644438217795733
0.3689816 0.046681012956669876 0.9639743336783226
0.3709815 0.05509495429286179 0.9633784156711648
0.3729814 0.06323336067995544 0.9623846336653401
0.3749813 0.07173452696392182 0.961032545073544
0.3769812 0.08040249842823183 0.9601059077571563
0.3789811 0.08903383606726198 0.9593757385652762
0.380981 0.09782987799939999 0.9573762015781991
0.3829809 0.10705109699496707 0.9555444128838667
0.3849808 0.11588166768241094 0.954067041231533
0.3869807 0.12510080048342656 0.9521386889856044
0.3889806 0.13440525094824948 0.9505047856059885
0.3909805 0.1437290984419368 0.9480925845508106
0.3929804 0.1533443964502048 0.9463667512545244
0.3949803 0.16273675928849152 0.944547634018953
0.3969802 0.17276021525809387 0.9428487821591294
0.3989801 0.1820055205494137 0.9409833160966594
0.40098 0.19168495183712492 0.9390788970263887
0.4029799 0.20129334015062134 0.9374583572365017
0.4049798 0.2111496510145951 0.9355251222309576
0.4069797 0.2204182941726025 0.9341649600983148
0.4089796 0.22998716990040344 0.9317348259147151
0.4109795 0.2395006467618674 0.9303622341190768
0.4129794 0.24892349003338998 0.9282486513139429
0.4149793 0.25882600938698735 0.9266662036354743
0.4169792 0.26764143145606334 0.9251300319199081
0.4189791 0.2767034282859715 0.9231118007066886
0.420979 0.2856640485489492 0.9211113529647521
0.4229789 0.294407328159187 0.9191660225396251
0.4249788 0.30302512736990395 0.9171281860879329
0.4269787 0.31161513887157616 0.9149111910618675
0.4289786 0.3198975012853 0.9126746847026237
0.4309785 0.3284106455399234 0.9100540391911857
0.4329784 0.336698749538292 0.907156825933373
0.4349783 0.3446755766877953 0.9040248605296712
0.4369782 0.3527718100626649 0.9006165866489748
0.4389781 0.36057035172650886 0.8973179176156961
0.440978 0.3690534202802927 0.8937749418173616
0.4429779 0.3771076409219595 0.8903763771636917
0.4449778 0.3850469016808287 0.8866564222473727
0.4469777 0.39294919335301354 0.8822714160148103
0.4489776 0.4010944353192745 0.8781005419979071
0.4509775 0.4092661181435699 0.8734069155318618
0.4529774 0.41725035739371086 0.8687747373646012
0.4549773 0.42561669073562625 0.8642395286730039
0.4569772 0.4339683799371191 0.8593214713101357
0.4589771 0.4426037299271574 0.8545324960363347
0.460977 0.4511491686264912 0.849277156543191
0.4629769 0.45984532821120927 0.8443247853107391
0.4649768 0.4685027574264577 0.8397698486755578
0.4669767 0.4770168463452399 0.8346641003306691
0.4689766 0.4855948853576263 0.8295572607167555
0.4709765 0.49447948639340467 0.8243232582195095
0.4729764 0.5031310426158666 0.8196776107858043
0.4749763 0.5117989621166029 0.8142459770287815
0.4769762 0.520576250613994 0.8091530461935637
0.4789761 0.5294168196253038 0.8039441180061628
0.480976 0.5381735169795699 0.7989468482618253
0.4829759 0.546541522289867 0.7939025995246658
0.4849758 0.5549115080224807 0.7890618811362967
0.4869757 0.563368836098896 0.7838324893786686
0.4889756 0.5716578127531641 0.7788814355277147
0.4909755 0.5799409240977005 0.7739779873453375
0.4929754 0.5875824555741391 0.7688178573981412
0.4949753 0.5955123838302122 0.7640158782551827
0.4969752 0.6029312198737444 0.7585584130859284
0.4989751 0.610474915938586 0.7534390561117522
0.500975 0.6168365742190048 0.7482010876507033
0.5029749 0.6242843382151491 0.7426880216148319
0.5049748 0.6315196758640249 0.7371298299475418
0.5069747 0.6381893573025037 0.7316301693703373
0.5089746 0.6451352783357404 0.7258377114027713
0.5109745 0.6521171748625074 0.7197137908690884
0.5129744 0.6588286966843782 0.7135433799509764
0.5149743 0.6651216205805113 0.707342939045641
0.5169742 0.6713219449693328 0.7008790715744104
0.5189741 0.6777405467925484 0.6941277061978023
0.520974 0.6843030006721058 0.6870955286782916
0.5229739 0.6911398789972772 0.6800026600298439
0.5249738 0.6972997810576786 0.6730929946464078
0.5269737 0.7034767242063267 0.6658144192138844
0.5289736 0.7098928179170706 0.65849204612792
0.5309735 0.7161641124990835 0.6514145934470976
0.5329734 0.7222760292118915 0.6435808925583506
0.5349733 0.7281212791104736 0.6354818054268473
0.5369732 0.7341050299290863 0.6279503248519168
0.5389731 0.7407147062705208 0.6199333016603673
0.540973 0.7468576215072193 0.6122750316129459
0.5429729 0.7532350548139686 0.6039901137210336
0.5449728 0.7595332954261272 0.595985229308462
0.5469727 0.76557941731259 0.5879828602700831
0.5489726 0.7717792399110278 0.5802912168744836
0.5509725 0.7779071809519013 0.5722957934931008
0.5529724 0.7841470982520736 0.5639829377576012
0.5549723 0.790159372913302 0.5561165334725577
0.5569722 0.7960542406293746 0.5484078679730038
0.5589721 0.8020141506184034 0.5403197328796008
0.560972 0.8079488239531337 0.532325131704884
0.5629719 0.8137287076672395 0.524060757657087
0.5649718 0.8196426614767921 0.5167931744356801
0.5669717 0.8248327088667199 0.5085491184608611
0.5689716 0.8299994415436096 0.5006444698194662
0.5709715 0.835020065005648 0.49293204267314106
0.5729714 0.8399500895705763 0.4848874218103475
0.5749713 0.8448205075868235 0.4764314820449611
0.5769712 0.8499394876532709 0.46843062957197795
0.5789711 0.854656752023553 0.46059394192660763
0.580971 0.859160544028107 0.4523734378850822
0.5829709 0.8632222625096448 0.44387046162098326
0.5849708 0.8674942024143 0.43562417771775785
0.5869707 0.8716953003104465 0.4270461245608236
0.5889706 0.8756540151731044 0.4182529374958248
0.5909705 0.8795466265717271 0.4095425914762783
0.5929704 0.8830657919743186 0.4006692781617081
0.5949703 0.8866148266995881 0.39172821171688654
0.5969702 0.8905045620292302 0.38275582207389225
0.5989701 0.8945971024870583 0.37376872442452624
0.60097 0.8971587304643377 0.36492754901634494
0.6029699 0.9005658039630855 0.3551743104026537
0.6049698 0.9040687586539383 0.3460320845497676
0.6069697 0.9076468607685292 0.33689867261272155
0.6089696 0.9109327339336307 0.32730003096927973
0.6109695 0.9140951211500858 0.3178583378568682
0.6129694 0.9172994381782392 0.308328486656156
0.6149693 0.9207897719509766 0.2989104204143921
0.6169692 0.9238171053230929 0.2894752690648783
0.6189691 0.9268857866368161 0.27980853145645435
0.620969 0.9292078360229088 0.27032621228113374
0.6229689 0.9323824080057926 0.2607507670526159
0.6249688 0.9351946233511178 0.2513976743331119
0.6269687 0.9377367052080421 0.24177103943264944
0.6289686 0.9401479973652507 0.2322503646792316
0.6309685 0.942836919122108 0.22301608993822244
0.6329684 0.9450467454511964 0.2136364015131929
0.6349683 0.947086998204109 0.20405847148626197
0.6369682 0.9493524486856407 0.19495650584068633
0.6389681 0.9514360498701536 0.18530783396010347
0.640968 0.9535807313694086 0.1760355882520473
0.6429679 0.9553631057629448 0.16637888460539435
0.6449678 0.9567017448615339 0.15750354766320956
0.6469677 0.9583272349913712 0.14787106313866089
0.6489676 0.9598870603380204 0.13806877829356307
0.6509675 0.9610337575757958 0.12864992398513325
0.6529674 0.9619963845854541 0.11921955578092007
0.6549673 0.9632275855992679 0.10962767056634323
0.6569672 0.9641391210822051 0.10038213037626408
0.6589671 0.9646518235956476 0.09058582461962855
0.660967 0.9652187482119376 0.08088159931293565
0.6629669 0.9657642683703972 0.07123219003463324
0.6649668 0.9665169739161518 0.06156620814175447
0.6669667 0.9672347036973842 0.05179513355101327
0.6689666 0.9675600077385116 0.041935434248478266
0.6709665 0.9678085462463 0.032197628388300446
0.6729664 0.9679228907654573 0.022159918680094814
0.6749663 0.9680490238705188 0.012593554038631521
0.6769662 0.9683045939462364 0.002663891585599168
0.6789661 0.9682946360369749 -0.0072679289086481635
0.680966 0.9681372788727501 -0.01685778705218463
0.6829659 0.9678091134112609 -0.026638128859844637
0.6849658 0.9676472508987182 -0.03635728500139471
0.6869657 0.9672049943435537 -0.045819722891234746
0.6889656 0.9667422684228013 -0.05553474060893594
0.6909655 0.9661755389012159 -0.06501357104705152
0.6929654 0.9652280447860869 -0.07524415697227788
0.6949653 0.9645659267935596 -0.08434543297074153
0.6969652 0.9635610082526892 -0.09378232467048044
0.6989651 0.9626483370368069 -0.10308765518238919
0.700965 0.961301131542101 -0.11291508079655667
0.7029649 0.9600923803798427 -0.12195046557048728
0.7049648 0.958770604312621 -0.13158928799250244
0.7069647 0.9573526246600614 -0.14063085054863023
0.7089646 0.9555340150000469 -0.15019906365083588
0.7109645 0.9537834138296267 -0.15980821591519329
0.7129644 0.9519171886195755 -0.16930330814386124
0.7149643 0.9500870081635411 -0.17872479111227385
0.7169642 0.9479612055023007 -0.1883562776094455
0.7189641 0.9456541765941073 -0.1975642813520408
0.720964 0.9434754309890387 -0.20709267534121534
0.7229639 0.941096309147471 -0.21658791927212245
0.7249638 0.9388119617011441 -0.2261542889651194
0.7269637 0.9358888171788874 -0.2355673023668339
0.7289636 0.9337932941346506 -0.2447632045891313
0.7309635 0.9310262811003919 -0.2543879897657483
0.7329634 0.9282587157121962 -0.2640771401459747
0.7349633 0.9256439761558023 -0.27333411694088955
0.7369632 0.9232074325616157 -0.28284686299653483
0.7389631 0.9204358675656115 -0.29244295242686064
0.740963 0.9177804849280486 -0.301383781863585
0.7429629 0.9150545894967579 -0.3107408428960079
0.7449628 0.9122321669615588 -0.3195003090467723
0.7469627 0.9090658898549879 -0.3288191784369048
0.7489626 0.9061367664628905 -0.3379769755977508
0.7509625 0.903005536917523 -0.3464770667748496
0.7529624 0.8998557719557424 -0.35599643371913925
0.7549623 0.896833197077604 -0.3643173511420328
0.7569622 0.8934753174063687 -0.3726598512596656
0.7589621 0.8897383592815405 -0.3814011208221749
0.760962 0.8860188643238148 -0.38946422869455566
0.7629619 0.882485007250963 -0.3976312874846324
0.7649618 0.8789715329893243 -0.40585299709342826
0.7669617 0.8749082711441901 -0.4139312883392855
0.7689616 0.8707862374838384 -0.421897324424443
0.7709615 0.8669075749214654 -0.43001264643292464
0.7729614 0.8628547584599149 -0.43834705438616856
0.7749613 0.8578623801671302 -0.4458933935785899
0.7769612 0.8530728513545417 -0.4532164095250653
0.7789611 0.8484273260551967 -0.46095144552159584
0.780961 0.8432442968114081 -0.469065698565613
0.7829609 0.8379845641418656 -0.47667198247230813
0.7849608 0.8328688588043671 -0.48464932705871555
0.7869607 0.8274767488790933 -0.4924309349788235
0.7889606 0.8215864701827308 -0.5005593045028102
0.7909605 0.8158242835306683 -0.5084013131082578
0.7929604 0.8106260198750029 -0.5158182497182722
0.7949603 0.8048010972074553 -0.5240707140645187
0.7969602 0.7989861008057018 -0.5319420529111777
0.7989601 0.7932493321341652 -0.5400048767040274
0.80096 0.7874698280522698 -0.5481595799490446
0.8029599 0.7816620171111942 -0.5561986398257608
0.8049598 0.7760587519669906 -0.5649892958409477
0.8069597 0.770444882256331 -0.5733666670132832
0.8089596 0.7645273817580688 -0.581212498971264
0.8109595 0.7586500176295548 -0.5889824360569397
0.8129594 0.7534139567195226 -0.5972396777250677
0.8149593 0.747966826421996 -0.6048540909100183
