! Created with skrf 1.8.0 (http://scikit-rf.org).
# GHz S RI R 50.0 
!freq ReS11 ImS11
0.001 -1.022901131196236 0.25937382902744666
0.0029999 -0.9402440507809382 0.026439362119348386
0.0049998 -0.9526633719126851 0.018011768234975745
0.0069997 -0.9525388116435034 0.019697005784962973
0.0089996 -0.9563239146132255 0.024616932753082132
0.0109995 -0.9575297324308987 0.030886725311864538
0.0129994 -0.9585399468306846 0.03739042344525023
0.0149993 -0.9597279351971326 0.045623260527652976
0.0169992 -0.9602324006369499 0.05061248472908486
0.0189991 -0.9604540919414993 0.05704419923193271
0.020999 -0.9606678175465744 0.06358790481471538
0.0229989 -0.9603828106943746 0.07038471185249451
0.0249988 -0.9598256936324592 0.07651820562298786
0.0269987 -0.959706469230347 0.08311603534803132
0.0289986 -0.9591895455474189 0.08926507382372979
0.0309985 -0.9586628738336431 0.09547532580621657
0.0329984 -0.9578249886178705 0.10177610776203838
0.0349983 -0.9571854551186014 0.10803828614968825
0.0369982 -0.9560828101063314 0.11422448458353973
0.0389981 -0.955014000379309 0.12024204393596549
0.040998 -0.954102325805809 0.12613316723961715
0.0429979 -0.9530104410681225 0.1321587603230691
0.0449978 -0.951814065996598 0.1379940296783176
0.0469977 -0.9509490421239212 0.1441390435278352
0.0489976 -0.9494791293516861 0.1496496736495581
0.0509975 -0.9478556948477983 0.15589625761511378
0.0529974 -0.947044775849639 0.16247808123748214
0.0549973 -0.9449431649223037 0.16890571618618927
0.0569972 -0.9441822920585429 0.17409359920355755
0.0589971 -0.9426365293607044 0.18008036861127227
0.060997 -0.9417959214681848 0.18684377943173164
0.0629969 -0.9405183263948993 0.19189637021320458
0.0649968 -0.9384610463260634 0.19812163334181984
0.0669967 -0.9380423258894262 0.2045302625429139
0.0689966 -0.9365039690080701 0.2098691660625182
0.0709965 -0.9354897541771094 0.21563674555031148
0.0729964 -0.934003760947649 0.2222059250995983
0.0749963 -0.9326637039147192 0.2279881697039038
0.0769962 -0.9319146286853394 0.23378628769107077
0.0789961 -0.9301929082297176 0.23934868953861016
0.080996 -0.9286168412641238 0.24533412437014943
0.0829959 -0.9269242945130602 0.2515806037028773
0.0849958 -0.9258804863690759 0.25690124342490434
0.0869957 -0.9245041950328453 0.2630415565222042
0.0889956 -0.9226647546437869 0.26821758562041664
0.0909955 -0.9211748434775535 0.2744087887527023
0.0929954 -0.919231721878719 0.27987440136572594
0.0949953 -0.9177215539875049 0.2857569093026023
0.0969952 -0.915572169877823 0.2913337391834807
0.0989951 -0.9135233277342989 0.2970176774992146
0.100995 -0.9128129914694063 0.30330964531734583
0.1029949 -0.9107439724240156 0.30910798541501283
0.1049948 -0.9089076637644369 0.31458039567955354
0.1069947 -0.9065885752032397 0.31995182540992656
0.1089946 -0.9043714247755148 0.3255081387568506
0.1109945 -0.9019565952782889 0.33107783497616994
0.1129944 -0.8995878386324572 0.33667201270253727
0.1149943 -0.8967869372656077 0.3422438806923511
0.1169942 -0.894152208935221 0.34797467867228443
0.1189941 -0.891754134193712 0.353577348632655
0.120994 -0.8888855502954737 0.3593272135572928
0.1229939 -0.8863581856154962 0.36506747929120126
0.1249938 -0.8838410680237558 0.3706814278062014
0.1269937 -0.8811286364987488 0.37626856800852726
0.1289936 -0.8786753861260164 0.3820334052922666
0.1309935 -0.8759878319819804 0.38811863280225384
0.1329934 -0.8737104471670517 0.3937159556319274
0.1349933 -0.8704089122478516 0.39901626158348386
0.1369932 -0.8678737839555888 0.40463519953843036
0.1389931 -0.8655403071625086 0.4103207416076593
0.140993 -0.8626313723690704 0.4158903205004205
0.1429929 -0.8596071924438389 0.4214792810063768
0.1449928 -0.8574553322416509 0.42751059352167436
0.1469927 -0.8546365199411229 0.4328383278790269
0.1489926 -0.8519769781248387 0.4385659231148754
0.1509925 -0.8489148537609719 0.4431901283311031
0.1529924 -0.846245300582134 0.44893536350934515
0.1549923 -0.8442523402143023 0.45483384267756605
0.1569922 -0.841185393323179 0.4596231366445299
0.1589921 -0.8382688850703388 0.4654934720045884
0.160992 -0.8352780981897919 0.47043998312142377
0.1629919 -0.8323483169358341 0.4759479418451205
0.1649918 -0.8293168730356427 0.481230081076067
0.1669917 -0.8266285445875058 0.48624673230120485
0.1689916 -0.8238963000256246 0.4916119338763971
0.1709915 -0.8210269057778008 0.49670446206397867
0.1729914 -0.8173320807972149 0.5017005731428115
0.1749913 -0.8145990423084446 0.5071540629632814
0.1769912 -0.8108495342858026 0.5119307858823943
0.1789911 -0.8083524907070225 0.5171126912806313
0.180991 -0.8046910468216416 0.522214648257661
0.1829909 -0.8011432030712093 0.5271448619461119
0.1849908 -0.7978254414321004 0.5324690401125085
0.1869907 -0.7941751860495542 0.5373410175205106
0.1889906 -0.7905309539722345 0.5425109694397191
0.1909905 -0.7871683404070966 0.5475688101391121
0.1929904 -0.783398446789006 0.5526282308206948
0.1949903 -0.7795468715520242 0.557509470737881
0.1969902 -0.7755044678463742 0.5626577273308726
0.1989901 -0.7722272152126255 0.5679476512576256
0.20099 -0.7684065303299858 0.5732067065608379
0.2029899 -0.7647492978045571 0.5777657490193865
0.2049898 -0.7606865900332037 0.5827975601304607
0.2069897 -0.7565561094011223 0.5876942434718448
0.2089896 -0.7528693211680456 0.591969270239985
0.2109895 -0.7492174953045028 0.5972290718720088
0.2129894 -0.7453490190938665 0.6022204041789526
0.2149893 -0.7413201745189751 0.6070733270463149
0.2169892 -0.7374440156769214 0.6116397447201825
0.2189891 -0.733233627351936 0.6171028573376754
0.220989 -0.7296862426552279 0.6215701300463788
0.2229889 -0.7256509320539394 0.6259329805766636
0.2249888 -0.721019232752197 0.6308572776441942
0.2269887 -0.7169891502092619 0.6349132681648947
0.2289886 -0.7126240099043668 0.6401199959620605
0.2309885 -0.7087686051433928 0.6450684865849716
0.2329884 -0.7047836683840741 0.6491209940947109
0.2349883 -0.7003254601047636 0.6539688839348788
0.2369882 -0.6961321016659991 0.6584866341322564
0.2389881 -0.6918307224372503 0.6630946808365684
0.240988 -0.6874551933496398 0.6674822065342029
0.2429879 -0.6832972198976182 0.6722916113498664
0.2449878 -0.678919134799073 0.6765897981393247
0.2469877 -0.6745644109686827 0.6813139541968745
0.2489876 -0.6700909475256018 0.6855929408026753
0.2509875 -0.6662060339700425 0.6904364218623767
0.2529874 -0.6619133643483249 0.695030518271109
0.2549873 -0.6574632984579488 0.6996363403958572
0.2569872 -0.6533276103860641 0.7038772622707963
0.2589871 -0.6488287419494472 0.7085883036962294
0.260987 -0.6445535651341763 0.7126645527001098
0.2629869 -0.639944428094404 0.7171763513597692
0.2649868 -0.6357834704987925 0.7210849426092099
0.2669867 -0.6314057136179091 0.7251393524624714
0.2689866 -0.6270037264085742 0.7293564966237286
0.2709865 -0.6226068400376783 0.7335261783878021
0.2729864 -0.6182468845191156 0.7374004713917207
0.2749863 -0.6135298197849923 0.7413316874835133
0.2769862 -0.6090041492307638 0.7451752957489917
0.2789861 -0.6048813441548514 0.7487511646887011
0.280986 -0.6002041245035279 0.7520764910455915
0.2829859 -0.5952506454639539 0.7553833961838146
0.2849858 -0.5905087792632584 0.7588682656509146
0.2869857 -0.5855441369864696 0.7623936838501972
0.2889856 -0.5805305910753289 0.7653932217534716
0.2909855 -0.575388426799152 0.7692430136108558
0.2929854 -0.5704475992692339 0.772477002978359
0.2949853 -0.5652421925045537 0.7754849932030329
0.2969852 -0.5598201880568535 0.7785516213356832
0.2989851 -0.5544220690176247 0.782019621211688
0.300985 -0.5490156126136208 0.7845142875014732
0.3029849 -0.5429745988617845 0.7878620966410754
0.3049848 -0.5373062708830354 0.7908489202950498
0.3069847 -0.5312771224888134 0.7939255925308549
0.3089846 -0.5254115877576562 0.7971605602615057
0.3109845 -0.5193063938863369 0.8005174469736908
0.3129844 -0.5135921442591813 0.803623986371691
0.3149843 -0.5074994408050658 0.8067687613048475
0.3169842 -0.5011422097631264 0.810117135567019
0.3189841 -0.4950427367848568 0.8129907891852597
0.320984 -0.4886700690791278 0.816550078712849
0.3229839 -0.48239078064151714 0.8198606245777463
0.3249838 -0.47646709039187857 0.823253693385271
0.3269837 -0.4703888371335117 0.8262354811336339
0.3289836 -0.4642279011025504 0.829740712945759
0.3309835 -0.4579762139625457 0.8332617211785952
0.3329834 -0.4521588233785871 0.8365834815192661
0.3349833 -0.44680991588485475 0.8404500879418008
0.3369832 -0.4414601130471684 0.8448493789155461
0.3389831 -0.43589992705501374 0.8486187859733979
0.340983 -0.4306802450136967 0.852675155945818
0.3429829 -0.42577619316794246 0.8568789045697444
0.3449828 -0.4201802726476422 0.8607386106166834
0.3469827 -0.41514467108368003 0.8642761892663084
0.3489826 -0.40986255379207104 0.8675179669197088
0.3509825 -0.4047755043412259 0.8711518504761269
0.3529824 -0.3994426565085486 0.8745515117458861
0.3549823 -0.39442714573993537 0.8775576523256133
0.3569822 -0.38928642647349954 0.8807588090813784
0.3589821 -0.3842512854461358 0.8834787794138756
0.360982 -0.3790243190764579 0.8864920199490692
0.3629819 -0.3739759272496 0.8887371916526613
0.3649818 -0.36842233092321036 0.8906850945180517
0.3669817 -0.3632626971562355 0.8928396160831512
0.3689816 -0.3576294038153761 0.8949758015980569
0.3709815 -0.3521808069201191 0.8968780672229193
0.3729814 -0.3459741089930285 0.8986570965632298
0.3749813 -0.3404041615225639 0.9003081171049789
0.3769812 -0.33506689711927584 0.901744416044912
0.3789811 -0.3289339026783242 0.9035511137097827
0.380981 -0.3227589832934623 0.9047611857097054
0.3829809 -0.31637347097007107 0.906379372192839
0.3849808 -0.3099321983055989 0.9083576971800211
0.3869807 -0.3035947217302854 0.9093724697011691
0.3889806 -0.29690117362104373 0.9113108566756349
0.3909805 -0.29000820893123835 0.9124801981560918
0.3929804 -0.282979137381441 0.914514507082954
0.3949803 -0.2763981155233178 0.9161990225880474
0.3969802 -0.269509017842197 0.918221281195766
0.3989801 -0.2627482400969082 0.919609657266104
0.40098 -0.25557536414381193 0.9216924844310497
0.4029799 -0.24901098188121337 0.9239479785511702
0.4049798 -0.24189029649632418 0.925801159112034
0.4069797 -0.23533607935984419 0.9277945662022542
0.4089796 -0.2286925048933381 0.9299142284841552
0.4109795 -0.22201381881293497 0.9320129953047602
0.4129794 -0.21502927497958818 0.9346887429011899
0.4149793 -0.2082442611476675 0.9367538816995195
0.4169792 -0.20200150339135253 0.9387078116221306
0.4189791 -0.19544899275492478 0.9408428144246606
0.420979 -0.18933100143886905 0.9429289003488419
0.4229789 -0.1833686938860858 0.9449789187149586
0.4249788 -0.17717494601091108 0.9470297477780046
0.4269787 -0.17124093124575623 0.9487567801473876
0.4289786 -0.1652863910021214 0.9503247111482167
0.4309785 -0.15923975822156783 0.951790283835989
0.4329784 -0.15305762218758576 0.9528975935400668
0.4349783 -0.14689836060455996 0.9533283239215263
0.4369782 -0.14135642061248585 0.9543834964985614
0.4389781 -0.1351531912291198 0.9552642871669854
0.440978 -0.12933226367497982 0.9557703930452618
0.4429779 -0.12332340810862112 0.9563862993982234
0.4449778 -0.11738766938801933 0.9565508915101221
0.4469777 -0.11092595861107545 0.9565214656774123
0.4489776 -0.10462018914129784 0.9569267680395152
0.4509775 -0.09790205791062731 0.9569646874757435
0.4529774 -0.09122841405799453 0.9568668773075077
0.4549773 -0.0846065478779437 0.9566145339374654
0.4569772 -0.07741735103347977 0.9564894777663955
0.4589771 -0.0703020719832051 0.9561119650343877
0.460977 -0.06267944308074354 0.9565130734972426
0.4629769 -0.055872208105971426 0.9564539329535078
0.4649768 -0.04876809254730641 0.9563933609866924
0.4669767 -0.04144112562160988 0.9563671354817643
0.4689766 -0.0337581596211998 0.9565399740522018
0.4709765 -0.026705907103521675 0.9568511835918382
0.4729764 -0.01887333117559644 0.9570667192583547
0.4749763 -0.011434362481442861 0.9574997375954433
0.4769762 -0.00437827634419187 0.9577727675010562
0.4789761 0.0033236695152376663 0.9584528997810036
0.480976 0.011150849891680106 0.9592820428283249
0.4829759 0.01797170196415761 0.9592446339275712
0.4849758 0.024917151151412804 0.9601176654509189
0.4869757 0.03247742416240091 0.9605616084920269
0.4889756 0.03982947270237379 0.9614697160905123
0.4909755 0.046728232586579835 0.9619871169861022
0.4929754 0.05336790675205469 0.9626692228069977
0.4949753 0.05966927704768829 0.9633192687807136
0.4969752 0.06626353084310062 0.9634505254310002
0.4989751 0.07261420894388766 0.9637512441744307
0.500975 0.0786160908911234 0.963567743097381
0.5029749 0.0847630546439392 0.9637251010236424
0.5049748 0.09095235286670673 0.9636488657092561
0.5069747 0.09675145834105164 0.9632278667016022
0.5089746 0.10330449365902321 0.9628072237803271
0.5109745 0.10957684205468153 0.9625626310917929
0.5129744 0.11599757834535782 0.9616824827874918
0.5149743 0.12188845616079749 0.960948033949084
0.5169742 0.1279257762282866 0.9591933878878633
0.5189741 0.13448421983877804 0.9578310502692421
0.520974 0.14151657444860058 0.9561140854746873
0.5229739 0.14780103858549204 0.9546420064660657
0.5249738 0.1539192053354073 0.9531004125169394
0.5269737 0.1607882870858307 0.9511761276472692
0.5289736 0.16681818438186308 0.9493308835694604
0.5309735 0.17351719851301473 0.9470269368002513
0.5329734 0.18018594988707365 0.9450215032252968
0.5349733 0.18667913114147575 0.9428092490252219
0.5369732 0.19386463905170154 0.9407657483997509
0.5389731 0.20110123688168763 0.9393911785947412
0.540973 0.2078848709427198 0.9364194250783769
0.5429729 0.21487552453799866 0.934750377936722
0.5449728 0.22222208529137547 0.9332602223093253
0.5469727 0.22981211735737844 0.9311518880549496
0.5489726 0.23703945808264448 0.9299216869082013
0.5509725 0.24437140446995256 0.927827103323471
0.5529724 0.25183334135792373 0.926270646525487
0.5549723 0.25932899256766156 0.9246221929578985
0.5569722 0.2662775902541391 0.9233306111312404
0.5589721 0.27382621345688013 0.9221164791767023
0.560972 0.28100998283759776 0.9206665115988425
0.5629719 0.28824008679220764 0.9193501373858513
0.5649718 0.2952587824614228 0.9183248928608971
0.5669717 0.30218524034415506 0.9167683123892337
0.5689716 0.3084475107885618 0.9152206678820212
0.5709715 0.3145905987680366 0.9134251415985521
0.5729714 0.3210835952924643 0.911615284657564
0.5749713 0.3276503889991456 0.909855151453224
0.5769712 0.33406259005191746 0.9079037227326262
0.5789711 0.34000169716423756 0.9064745674487369
0.580971 0.3458137110475822 0.9044754451755909
0.5829709 0.35180710660261605 0.9024455928562369
0.5849708 0.35744235800460933 0.9000435177291689
0.5869707 0.36368310201601284 0.8972909755473315
0.5889706 0.36977349691899875 0.8944472602801032
0.5909705 0.37566670095236004 0.8910937540468039
0.5929704 0.3818401140416924 0.888154806572599
0.5949703 0.3877653795706176 0.8847077737544295
0.5969702 0.39359804654336894 0.8821012143720963
0.5989701 0.39976734713421685 0.8784666328774915
0.60097 0.4060884241448787 0.8746478125219221
0.6029699 0.41220015496248014 0.8712167613006679
0.6049698 0.41836708165484593 0.8672826237834433
0.6069697 0.42463154882259946 0.8639152296350341
0.6089696 0.43172520948778736 0.8601163396323549
0.6109695 0.43832147195456383 0.856142021235976
0.6129694 0.4450399718679451 0.8522473075682284
0.6149693 0.4519065300759503 0.8492200224173774
0.6169692 0.4586441190244821 0.8452865482947144
0.6189691 0.46533367212123755 0.8417133237656146
0.620969 0.47223915388730087 0.8382001069634858
0.6229689 0.4791500011561999 0.8344658922978556
0.6249688 0.48606770729112103 0.8312157585593729
0.6269687 0.4930364359065462 0.8275092967028248
0.6289686 0.49946394828321394 0.8244991089446089
0.6309685 0.5062951388892035 0.8213748498469116
0.6329684 0.5125612532440333 0.8181485037294762
0.6349683 0.5187141919874778 0.8145468641352536
0.6369682 0.5248000550870545 0.8113897090678822
0.6389681 0.5310716844551489 0.8083338432800313
0.640968 0.5376039591389492 0.8050391242913657
0.6429679 0.5430345376187253 0.8023579598643945
0.6449678 0.5484012315694992 0.7988053825068199
0.6469677 0.554264525379385 0.795612613292928
0.6489676 0.5599941371538395 0.7922815987598659
0.6509675 0.5643014506467048 0.7889414351373062
0.6529674 0.5700599049574215 0.7848724043301682
0.6549673 0.575323324762451 0.7815563415692894
0.6569672 0.5802337383831844 0.7776636042317894
0.6589671 0.5855047289648678 0.7733020035615322
0.660967 0.5902484128870562 0.7688345253825979
0.6629669 0.5950452724193257 0.7641130835287241
0.6649668 0.6001999935833195 0.7600145141417891
0.6669667 0.6052568004014505 0.754575969409511
0.6689666 0.6106757280999908 0.7493259567288764
0.6709665 0.6154258590038217 0.7443316309592637
0.6729664 0.6205103473382888 0.7390774644874077
0.6749663 0.6254233573394147 0.7337379978372781
0.6769662 0.6303976547523464 0.7280518108491157
0.6789661 0.6356098788836391 0.72236121208474
0.680966 0.6409268830966875 0.716714070471282
0.6829659 0.6467936861447875 0.7109409331336345
0.6849658 0.6520269919620079 0.7055615685770167
0.6869657 0.6582426699490799 0.6997427845392148
0.6889656 0.6640974006827066 0.69430512427895
0.6909655 0.6699010512033544 0.6890714508218041
0.6929654 0.6757690066351972 0.6835361288344914
0.6949653 0.6813644258005029 0.678120986534787
0.6969652 0.6872757154949409 0.6727717390644055
0.6989651 0.6927390744106964 0.6676565772928686
0.700965 0.6983697300793991 0.6621981563329545
0.7029649 0.704238093774687 0.6573256315118069
0.7049648 0.7097324560451338 0.6524156928520742
0.7069647 0.7148655395491976 0.6474272578853724
0.7089646 0.7206417562178151 0.6424396560192966
0.7109645 0.7253918755827842 0.6375017413276182
0.7129644 0.7301504442091027 0.6324489750906398
0.7149643 0.7352428570652976 0.6278235995398673
0.7169642 0.7399810996970494 0.6230445245892946
0.7189641 0.7439877334578734 0.6180894239161078
0.720964 0.7488090714889608 0.6129371528510735
0.7229639 0.7535112224894952 0.6074365172699736
0.7249638 0.7575233255401149 0.6026401180045087
0.7269637 0.7613650151033848 0.5975643998005216
0.7289636 0.7654117383956588 0.5927823870151976
0.7309635 0.7695830831337068 0.5868934544874497
0.7329634 0.7735942023481788 0.5815757090587957
0.7349633 0.7767346624830728 0.5755019030718604
0.7369632 0.7809297841112086 0.569857520276498
0.7389631 0.7843434360623573 0.563698939831945
0.740963 0.7877162562740218 0.5576599936874238
0.7429629 0.7913935545624369 0.5512876527712627
0.7449628 0.7951272486498818 0.5446848637034397
0.7469627 0.7989802808939865 0.5376311616272766
0.7489626 0.8024460471081564 0.5310224431303144
0.7509625 0.8061884806340132 0.5243793869664041
0.7529624 0.8097716484479487 0.5177229487182006
0.7549623 0.8137319912563344 0.5111140547020083
0.7569622 0.8174154391187343 0.5038289819629758
0.7589621 0.8215232074054167 0.4970084938642291
0.760962 0.8253626819118105 0.4901424089611926
0.7629619 0.8290964425069212 0.48331912501823465
0.7649618 0.833648497444065 0.4770878770470289
0.7669617 0.8375042829085798 0.46958439849134503
0.7689616 0.8413243880341068 0.46297753861323143
0.7709615 0.8449181671985131 0.4565665122584108
0.7729614 0.848908756896913 0.4504820295000369
0.7749613 0.8527341588492261 0.4437570861190034
0.7769612 0.8566294169242364 0.4373662755772729
0.7789611 0.8605018244468555 0.4312356235638153
0.780961 0.8643899180337044 0.424841423384862
0.7829609 0.8673971160943239 0.4188781826175135
0.7849608 0.8711557941163897 0.41249983951886005
0.7869607 0.8745106581873094 0.40661076412792135
0.7889606 0.8777877348003188 0.40023081222321155
0.7909605 0.8809530584165799 0.3941007072855383
0.7929604 0.8844677686967566 0.3882957083042951
0.7949603 0.8873711575001159 0.38191190985347956
0.7969602 0.8900581710142347 0.37538872155663344
0.7989601 0.8926268954455946 0.3691025822171796
0.80096 0.8952454184050513 0.3628868041149726
0.8029599 0.8977952213773814 0.3567043360653096
0.8049598 0.8995275519825767 0.3500586436543201
0.8069597 0.9020325150082451 0.3436374128752141
0.8089596 0.9039553429523194 0.3367317118558482
0.8109595 0.9055929477884244 0.32971675522804467
0.8129594 0.9078581973232132 0.32272915957725207
0.8149593 0.9099677289529069 0.31561676109939785
