! Created with skrf 1.8.0 (http://scikit-rf.org).
# GHz S RI R 50.0 
!freq ReS11 ImS11
0.001 -0.9917517558178511 0.01824941659225571
0.0029999 -0.9728097072449089 0.016073132712270843
0.0049998 -0.9613255304836257 0.01967379139895098
0.0069997 -0.9590303208537672 0.029017832717568248
0.0089996 -0.9601013344426235 0.030965464195554904
0.0109995 -0.9592142595900777 0.037923120749182915
0.0129994 -0.9592343558634775 0.04402231604657891
0.0149993 -0.9592535286389396 0.05248611812421655
0.0169992 -0.9588533502204207 0.05710677102286155
0.0189991 -0.9584419499913291 0.06357040871389885
0.020999 -0.9580389242353964 0.0699644592550569
0.0229989 -0.9573505775181781 0.07634375524047748
0.0249988 -0.9563128074629239 0.08247243415828151
0.0269987 -0.955894899578043 0.08904190316099359
0.0289986 -0.9550946171214035 0.09516394141214969
0.0309985 -0.9540737514687989 0.10137236777128061
0.0329984 -0.9532404971263169 0.10783334297364622
0.0349983 -0.9524340535940112 0.11427307270695125
0.0369982 -0.9511128186861106 0.12070979642226004
0.0389981 -0.9499683392829504 0.1269188697165119
0.040998 -0.9492833719750463 0.13329036808248979
0.0429979 -0.9476348380422983 0.13948402799729265
0.0449978 -0.9464169438648028 0.14571438696835048
0.0469977 -0.9458427471034071 0.15192078785477003
0.0489976 -0.9438464208068665 0.1584614929368912
0.0509975 -0.9421491888246272 0.164977479121667
0.0529974 -0.9411388271652402 0.17161389448832887
0.0549973 -0.9391917120390523 0.17874617025727652
0.0569972 -0.9382504100351259 0.18450040653271502
0.0589971 -0.9365961976372748 0.19122549227976463
0.060997 -0.9356527680453648 0.19801537668932756
0.0629969 -0.9342103415866403 0.2038430734466723
0.0649968 -0.9322645225124857 0.21061342601124555
0.0669967 -0.9316203882317969 0.2172917346681777
0.0689966 -0.9300219994240252 0.22323982105643397
0.0709965 -0.9286782013165318 0.2295656167461385
0.0729964 -0.9270723365254887 0.23645183986434457
0.0749963 -0.9255153257162372 0.2426770175477639
0.0769962 -0.9246924943832071 0.24883320918477358
0.0789961 -0.9226848983350725 0.25477149066544424
0.080996 -0.9208278221198508 0.26135344640017627
0.0829959 -0.9190010492358844 0.26754071101845883
0.0849958 -0.9179756634190916 0.27303486831617835
0.0869957 -0.9163807284389398 0.27939178361829653
0.0889956 -0.9142582157289334 0.2848535627729509
0.0909955 -0.9125259725628899 0.29111943749817537
0.0929954 -0.9103936899544451 0.2968187968175109
0.0949953 -0.9084063540175825 0.30297883814170923
0.0969952 -0.9061723989131125 0.3086357112065728
0.0989951 -0.903784093425841 0.3145895048938854
0.100995 -0.9030014776986921 0.3207677086804665
0.1029949 -0.9007326713727533 0.32643264613699746
0.1049948 -0.8986152911092471 0.33232680708190737
0.1069947 -0.8959726758565042 0.3377475677456807
0.1089946 -0.893566681521452 0.3435381031211703
0.1109945 -0.8908155977376309 0.3492441414981527
0.1129944 -0.8881169643960211 0.35510412786970097
0.1149943 -0.8850524825239852 0.36087669967313596
0.1169942 -0.8820840524929112 0.3667897081008976
0.1189941 -0.8794402520955364 0.3726647603752624
0.120994 -0.8762980266661073 0.37854056885843923
0.1229939 -0.873504434222501 0.38472026950832827
0.1249938 -0.8706048977092796 0.3907619755436499
0.1269937 -0.8676036814257103 0.39646031942383064
0.1289936 -0.8648846599019487 0.4027357913085293
0.1309935 -0.8621105057166661 0.40895150201031794
0.1329934 -0.8591457940540702 0.4145459966782843
0.1349933 -0.8556375378635658 0.4206496757636201
0.1369932 -0.8528567049888371 0.42635632532944867
0.1389931 -0.8500001282431673 0.4327730288862492
0.140993 -0.8468197851027568 0.43849005880863223
0.1429929 -0.8434214391708318 0.444475343482153
0.1449928 -0.8414081414307888 0.45039700724569187
0.1469927 -0.8381129278555528 0.4561743918203455
0.1489926 -0.8348615977988868 0.4625438514503628
0.1509925 -0.8316540583063543 0.46738058075189665
0.1529924 -0.8286186613878149 0.4735646468578939
0.1549923 -0.8262327794551232 0.47948167861242585
0.1569922 -0.8227214913212114 0.4847819077013654
0.1589921 -0.819621882917014 0.49092952657752403
0.160992 -0.8163399537258408 0.49668974027289564
0.1629919 -0.8130717214639867 0.5017925214554229
0.1649918 -0.8096288791242638 0.5073550239552773
0.1669917 -0.8067497778260208 0.5123997423763628
0.1689916 -0.8034801146174126 0.5180526697941663
0.1709915 -0.7994751251964659 0.5235652121482911
0.1729914 -0.7961242197691081 0.5284029910505722
0.1749913 -0.7928857738831528 0.5339557922680729
0.1769912 -0.7891409958598612 0.5390614977292123
0.1789911 -0.7859088644744143 0.5442537918954635
0.180991 -0.7819806391267907 0.5494781741749677
0.1829909 -0.7780396650084572 0.5544195979095373
0.1849908 -0.7740433691540435 0.5598253607392627
0.1869907 -0.7701919526536811 0.5646294884551668
0.1889906 -0.7662604544003571 0.5699358460535994
0.1909905 -0.7622739931526704 0.5751985375724268
0.1929904 -0.7581432564755282 0.58042971108687
0.1949903 -0.7538851699264602 0.5854570654258626
0.1969902 -0.7497800278172891 0.5908376624932762
0.1989901 -0.7455960698112241 0.5960139398071979
0.20099 -0.7415414517469164 0.601111790099326
0.2029899 -0.7371943775281861 0.6057498091353455
0.2049898 -0.7329011385263694 0.6111607279852875
0.2069897 -0.7285852971577504 0.6159274063447516
0.2089896 -0.7242116249974955 0.6210929055670487
0.2109895 -0.7201218846677415 0.625845267094038
0.2129894 -0.7158329780364583 0.6311787996035705
0.2149893 -0.7109958701142023 0.6365097550379429
0.2169892 -0.7066154734318902 0.6411834517943762
0.2189891 -0.7022637709467267 0.6465767478816054
0.220989 -0.6979935345064954 0.6513372401430326
0.2229889 -0.6934631304405932 0.6561507750522156
0.2249888 -0.6885244914572579 0.6608871681208033
0.2269887 -0.6838861732310197 0.665435856968044
0.2289886 -0.6791505079734512 0.6704619522756696
0.2309885 -0.6745567711938026 0.6755763327025857
0.2329884 -0.6700213007338917 0.6802279517387952
0.2349883 -0.6650508745306536 0.6848388445927758
0.2369882 -0.6602955237988338 0.6896761548262815
0.2389881 -0.6552976816989275 0.6942640718978265
0.240988 -0.6506117146657425 0.698883913757607
0.2429879 -0.6462457014104813 0.7033905984130308
0.2449878 -0.6411901040751177 0.7078929657035329
0.2469877 -0.6362330567914743 0.7127034639172934
0.2489876 -0.6312687361058291 0.7170872418273344
0.2509875 -0.6266010847734897 0.7220798436782558
0.2529874 -0.6217390078559127 0.7265139276680457
0.2549873 -0.6173025689187931 0.7310638685187735
0.2569872 -0.6122813224626317 0.7355966014156216
0.2589871 -0.60734351057674 0.7399496157608907
0.260987 -0.6026278614359655 0.7442572309943758
0.2629869 -0.5975841708609346 0.7486628679061386
0.2649868 -0.5924203548851306 0.7527973915587893
0.2669867 -0.5875931625330229 0.7568951672714184
0.2689866 -0.5825153587842542 0.7607494076618458
0.2709865 -0.5778551468197317 0.7650044176285037
0.2729864 -0.5725419801904577 0.7686759840435042
0.2749863 -0.5677279123644965 0.7725174352224737
0.2769862 -0.5627180827295547 0.7765193952616354
0.2789861 -0.5575852763587333 0.7801043598499465
0.280986 -0.5525070549836366 0.7829309999204715
0.2829859 -0.5468790505432083 0.7864506409175396
0.2849858 -0.5417482580097519 0.7898991789088058
0.2869857 -0.536360243776876 0.7932947691721819
0.2889856 -0.5307140800160929 0.796528357362555
0.2909855 -0.5248872441152843 0.8000411063700997
0.2929854 -0.5193465386640146 0.8032451384215773
0.2949853 -0.5132555725621062 0.8060846126681886
0.2969852 -0.5075078297042594 0.8095258172377441
0.2989851 -0.5016745416415219 0.8123669679639018
0.300985 -0.4952887144937863 0.8149887098912579
0.3029849 -0.4891599497905968 0.8182626142457948
0.3049848 -0.4824858146857237 0.8211442096986785
0.3069847 -0.4761276145612709 0.8245182462099859
0.3089846 -0.46974344143283897 0.8270820595746382
0.3109845 -0.4628506805069159 0.8302079939629927
0.3129844 -0.4562232478037624 0.83360881170799
0.3149843 -0.4493832183422519 0.8365426082377633
0.3169842 -0.44266962455740033 0.8399711066175908
0.3189841 -0.4360234452197952 0.8427821061594426
0.320984 -0.42876895103313745 0.8457035476560667
0.3229839 -0.42202658940994664 0.8491266680880751
0.3249838 -0.4158037977801352 0.8519166698543996
0.3269837 -0.40887471296921296 0.8552539430210154
0.3289836 -0.40209075091037505 0.8584888218125154
0.3309835 -0.3954304547676214 0.8618673933138171
0.3329834 -0.3891931623177575 0.8649895985454029
0.3349833 -0.38261664801539863 0.8691231654236755
0.3369832 -0.3770763992760564 0.8730429305941373
0.3389831 -0.3705809595863159 0.8768648659090615
0.340983 -0.3646130233986873 0.880724271313238
0.3429829 -0.3584615932504397 0.8843423278724216
0.3449828 -0.35265808919754177 0.8881342267962234
0.3469827 -0.3471456363504257 0.8914696544304427
0.3489826 -0.34091564124264045 0.8945392119450274
0.3509825 -0.3350801030475344 0.8976496503084408
0.3529824 -0.32905270949063536 0.900577705975297
0.3549823 -0.3232024332295862 0.9033953634022592
0.3569822 -0.3174615030450518 0.9062481093694743
0.3589821 -0.3115875758806552 0.9088085497234969
0.360982 -0.3057232359191425 0.9112907668314498
0.3629819 -0.30023292986461564 0.9135792411467618
0.3649818 -0.2940543015611911 0.9150655810615421
0.3669817 -0.28826482160487604 0.9166679997005702
0.3689816 -0.28196745118412886 0.9183354122119797
0.3709815 -0.2756927100202462 0.9201312411542857
0.3729814 -0.2692283243814972 0.9215598615589217
0.3749813 -0.2629825814152035 0.9228047910861925
0.3769812 -0.2570331978079624 0.9239291755965016
0.3789811 -0.25013632828548216 0.925203222358503
0.380981 -0.24301734387919782 0.926249901710234
0.3829809 -0.23632752567918167 0.927771763656414
0.3849808 -0.22944581667528183 0.9289820368207058
0.3869807 -0.222082221740864 0.9297881021090291
0.3889806 -0.21481502076197304 0.9308718733110355
0.3909805 -0.2070088973845633 0.9321594652402516
0.3929804 -0.19991304250224956 0.9332318395262732
0.3949803 -0.19215866155664238 0.9343507584016707
0.3969802 -0.184544094861062 0.936125603990801
0.3989801 -0.1773384119065166 0.93681428051139
0.40098 -0.16943300654707294 0.9386208439117827
0.4029799 -0.1619786783846119 0.9404541589709466
0.4049798 -0.1543079367220008 0.9416110585229626
0.4069797 -0.14715676370360214 0.9432709500049723
0.4089796 -0.13949442106078752 0.9447223339768881
0.4109795 -0.13221126003039274 0.9464277110945508
0.4129794 -0.12482428813988092 0.9480448637375198
0.4149793 -0.11712816156265211 0.9499704227283696
0.4169792 -0.11033463161666412 0.9513696967907727
0.4189791 -0.10309770204761966 0.9528879850662308
0.420979 -0.09627745868594605 0.9541871142072593
0.4229789 -0.08930940525522563 0.9557097421018045
0.4249788 -0.08260432641991118 0.957156195537646
0.4269787 -0.07604466236276995 0.958127800608559
0.4289786 -0.06973746887433133 0.9594522368095815
0.4309785 -0.06300383856002156 0.9602965239635559
0.4329784 -0.05626353227398848 0.9606942446907125
0.4349783 -0.049438939807304585 0.9605558622251555
0.4369782 -0.04306833110594661 0.96135205554686
0.4389781 -0.03661399483277996 0.9612338378545504
0.440978 -0.029960208994385194 0.9610462350299307
0.4429779 -0.023414589906146123 0.9610882896022531
0.4449778 -0.016934323266229578 0.9608389709745498
0.4469777 -0.010113913934039147 0.9598157602014508
0.4489776 -0.0027186097268802126 0.9598966943973261
0.4509775 0.004141351492626566 0.9593115132724654
0.4529774 0.011433956480773971 0.9582359909391235
0.4549773 0.01909896590714059 0.9573457937537209
0.4569772 0.02625933069177602 0.9565906409041806
0.4589771 0.03391006157348453 0.9554998748554733
0.460977 0.04218825205154797 0.9549578229225303
0.4629769 0.04977222517324572 0.9539402115423923
0.4649768 0.057814726972948156 0.953353397753484
0.4669767 0.06542522316778364 0.9524717349807803
0.4689766 0.0734594820653108 0.9520585304217216
0.4709765 0.08151006548590009 0.9512615999351296
0.4729764 0.08929974962148682 0.9506726563698465
0.4749763 0.09744066102280938 0.9505371706733471
0.4769762 0.10526796916012277 0.9496943500382405
0.4789761 0.11390842653122739 0.9496421454558743
0.480976 0.12183558261732583 0.9488661009242035
0.4829759 0.12973556409479986 0.9487394228511586
0.4849758 0.13726114420300123 0.9484238827194784
0.4869757 0.1451001211866611 0.9482658542442006
0.4889756 0.15300130768420137 0.9475397280070915
0.4909755 0.1606403790421825 0.9474863909084081
0.4929754 0.16805556921889905 0.9472476838489615
0.4949753 0.17494970297836707 0.9468924350614775
0.4969752 0.18194095051127956 0.946079570948136
0.4989751 0.18884997067634432 0.9455492448171193
0.500975 0.19538175529671178 0.9444098581772706
0.5029749 0.20193510764635325 0.9436665647416984
0.5049748 0.2086953291086534 0.9424805376775994
0.5069747 0.21494206458282838 0.9409822643194827
0.5089746 0.2216045156701872 0.940000590385466
0.5109745 0.22848354283302486 0.9382804007039655
0.5129744 0.2352367117814384 0.9370203252815947
0.5149743 0.24145687108459604 0.9351174402980396
0.5169742 0.24765769755146455 0.9327933286671299
0.5189741 0.2543806311820184 0.9306074067653836
0.520974 0.2611720726770259 0.9280577283975773
0.5229739 0.26876680681398346 0.9255788851063013
0.5249738 0.27529648018704084 0.9230461643200465
0.5269737 0.2821719377786427 0.9203702146841544
0.5289736 0.289117912801695 0.9174776503135014
0.5309735 0.2956425395412815 0.9145519836637848
0.5329734 0.30278121085062093 0.9114241881902747
0.5349733 0.31052549793729756 0.9081280208517611
0.5369732 0.3174161370245506 0.9052381748858566
0.5389731 0.3251134042111816 0.9017493305236639
0.540973 0.3324753872182843 0.8983597045447214
0.5429729 0.3398516057823005 0.8953354526819444
0.5449728 0.3475569656928703 0.892368404861163
0.5469727 0.35525433593246747 0.8894174266050383
0.5489726 0.36288580978910034 0.8864592120843374
0.5509725 0.37047358126220764 0.8833761000049734
0.5529724 0.37811023935836907 0.8804942758604718
0.5549723 0.38596448907068864 0.8775465323176623
0.5569722 0.39350736501167705 0.874950524100126
0.5589721 0.4011474350550089 0.8721180487693093
0.560972 0.40855846816108693 0.869593161924167
0.5629719 0.41615609363613315 0.866828089180904
0.5649718 0.42354773264052037 0.8646008766688975
0.5669717 0.43085782497005354 0.8614762631522421
0.5689716 0.4372441229183686 0.858699588667644
0.5709715 0.44385318511376015 0.855899793133141
0.5729714 0.4503945743340442 0.8529552601831538
0.5749713 0.45721789531194124 0.8496195704252923
0.5769712 0.4640502374559703 0.8466137575198475
0.5789711 0.47010410440253314 0.8436677895696906
0.580971 0.4764233486469245 0.8406070507403739
0.5829709 0.4825456145132564 0.8372719067820513
0.5849708 0.48856837442608164 0.8337124833952118
0.5869707 0.49482896656902137 0.8299907864402383
0.5889706 0.5008379117149111 0.8255893528903503
0.5909705 0.5068167545721292 0.8213560133171213
0.5929704 0.5130300805846439 0.816769700905801
0.5949703 0.5190966782869104 0.8124195336297473
0.5969702 0.5251765151879247 0.8084875777273944
0.5989701 0.5312892472902954 0.8036235466370307
0.60097 0.5371816117981463 0.7987101280799246
0.6029699 0.543383624799986 0.7936601053482873
0.6049698 0.5497895076588679 0.7890326077533849
0.6069697 0.5555749590612895 0.7838432195289596
0.6089696 0.56262522430049 0.778850266596987
0.6109695 0.568951879200052 0.7733613108269745
0.6129694 0.5755939916668593 0.7687884456888026
0.6149693 0.5823865242991135 0.7635699166220967
0.6169692 0.589081686999883 0.7582891419293727
0.6189691 0.5956329279312329 0.753607657053084
0.620969 0.6021984553338082 0.748179317793087
0.6229689 0.6091480403443466 0.743289558902517
0.6249688 0.6155001201637822 0.7384071866069413
0.6269687 0.6224042385324385 0.7332288413886876
0.6289686 0.628748439261825 0.728527657141658
0.6309685 0.6355829004412058 0.7239663187897214
0.6329684 0.6415359106808265 0.7192761197231986
0.6349683 0.6473399955032468 0.7141711641367737
0.6369682 0.6532956251687805 0.7095185033088969
0.6389681 0.6598282383562887 0.7044963704194316
0.640968 0.6655600879121853 0.7002438395772221
0.6429679 0.67130938222351 0.6956209542543793
0.6449678 0.677246498295768 0.6907258827406983
0.6469677 0.6825813295863064 0.6857171722082095
0.6489676 0.687755039635584 0.6809324940788997
0.6509675 0.6925954373600826 0.6760161192435815
0.6529674 0.6976532682877389 0.6707119093392082
0.6549673 0.7028803662691196 0.6656928107010773
0.6569672 0.7073420527790704 0.6605499900934643
0.6589671 0.7124213560797507 0.6544815859463881
0.660967 0.7168356915411077 0.6488818036168074
0.6629669 0.721209480035888 0.6431094188052537
0.6649668 0.7260652365471305 0.6370175116227802
0.6669667 0.7305523487188653 0.630798713154587
0.6689666 0.7353367628425722 0.6243182571676069
0.6709665 0.7401901186309361 0.617949470167413
0.6729664 0.744091389907082 0.6114120923473898
0.6749663 0.7487576095371118 0.6047327549012049
0.6769662 0.753381397035671 0.5976425896705895
0.6789661 0.7576908134493604 0.5911696217866861
0.680966 0.762945717900764 0.584082143624685
0.6829659 0.7677216771964892 0.5768422708402509
0.6849658 0.7723038974545372 0.5700995570547182
0.6869657 0.7777423858365233 0.5629623651397031
0.6889656 0.7827556558764306 0.5558022063924083
0.6909655 0.7877343835922296 0.5494402455062583
0.6929654 0.7927089112684469 0.5419246093851443
0.6949653 0.7975387423366346 0.5354366892600345
0.6969652 0.8025306214172834 0.5283919717378492
0.6989651 0.8068416487747339 0.521812404297292
0.700965 0.8121439617679147 0.5144701503066719
0.7029649 0.8169305184609932 0.5083708647772435
0.7049648 0.8216508043523667 0.5015863399720347
0.7069647 0.825453722374755 0.49501805545798344
0.7089646 0.8305752541147405 0.4884280764712136
0.7109645 0.8348498818601753 0.48193038396046245
0.7129644 0.8388136022383661 0.4756566616004211
0.7149643 0.8430255098011468 0.4692325429998242
0.7169642 0.8470011684422355 0.46257569200231574
0.7189641 0.8508974389058005 0.45618147862081854
0.720964 0.8542665608503958 0.4497412425918267
0.7229639 0.8580364914080337 0.442751523409208
0.7249638 0.862086366158964 0.43607905443470146
0.7269637 0.8654310128285816 0.4295725199681031
0.7289636 0.8683688256357881 0.4229142797040677
0.7309635 0.8714299443730135 0.4162626717482032
0.7329634 0.874740352293738 0.4090291692884827
0.7349633 0.8769059624913998 0.4018110683944239
0.7369632 0.8798379610969013 0.3947674396419665
0.7389631 0.8829416387644405 0.3872831555831661
0.740963 0.8854631253903787 0.3803473609593369
0.7429629 0.8883686870757243 0.3726776278340619
0.7449628 0.890858816986472 0.36469264582896
0.7469627 0.8933435635159955 0.35693971503457594
0.7489626 0.8963168236825095 0.34906877831505123
0.7509625 0.8985873371676394 0.34175343878020903
0.7529624 0.9012595105542236 0.3334439723981278
0.7549623 0.904217465865938 0.32579688102919463
0.7569622 0.9062067599871652 0.3177368682957755
0.7589621 0.9092586083455702 0.30997880654293286
0.760962 0.9119963121016276 0.301729902422992
0.7629619 0.9144925125707318 0.2941836440056379
0.7649618 0.9173788418232836 0.28615484308031475
0.7669617 0.9194506994054963 0.2780381556184385
0.7689616 0.9220885234986427 0.269981339874207
0.7709615 0.9241394168141539 0.26248415125763036
0.7729614 0.9269116574477076 0.2548160883243231
0.7749613 0.9288234727910306 0.2468891894109605
0.7769612 0.9313827421394466 0.23898709879306212
0.7789611 0.9334162370793335 0.23158907885679336
0.780961 0.9357657072619168 0.22395171961618543
0.7829609 0.9374801245741444 0.21637108032291602
0.7849608 0.9397457421794388 0.20894192065284437
0.7869607 0.9414794414676031 0.20148358964747726
0.7889606 0.9432322193534013 0.19347181542967576
0.7909605 0.9450291368170217 0.1861740183305847
0.7929604 0.9464202258153291 0.1785284020233034
0.7949603 0.9481536277921708 0.17070186993534106
0.7969602 0.9491493095129895 0.1635843241788701
0.7989601 0.9507600048423297 0.15527502476882432
0.80096 0.9513670552177992 0.14765551093990692
0.8029599 0.952624892346239 0.14033934567370346
0.8049598 0.9536904110920001 0.13237260461949318
0.8069597 0.9546795356021447 0.12461736261781353
0.8089596 0.9553417119697668 0.11689212287493668
0.8109595 0.9556964300355887 0.1085897618952307
0.8129594 0.9565290780629566 0.10049855563981686
0.8149593 0.9573362853299666 0.09251587828731228
