! Created with skrf 1.8.0 (http://scikit-rf.org).
# GHz S RI R 50.0 
!freq ReS11 ImS11
0.001 -1.1528838364358913 0.2682957301209554
0.0029999 -0.936165693282597 0.04307443477894701
0.0049998 -0.9503428566590626 0.02839001147372891
0.0069997 -0.9517565409003261 0.028220685943685153
0.0089996 -0.9564544039270989 0.03466303531028264
0.0109995 -0.9571734235937304 0.04297557821411502
0.0129994 -0.9579658187738265 0.05134377393894174
0.0149993 -0.9587786642463956 0.06168770398613255
0.0169992 -0.9592845733143178 0.0686764636815328
0.0189991 -0.9592664078685694 0.07728707963829673
0.020999 -0.9590844084242897 0.08586995839884759
0.0229989 -0.958417461391651 0.0947606067251413
0.0249988 -0.9574166112457194 0.10328450629521141
0.0269987 -0.9568565836092389 0.1117775274589227
0.0289986 -0.9558621435737349 0.12015826114994228
0.0309985 -0.9547754361674252 0.12852144356217465
0.0329984 -0.9534110867760781 0.13691007693058904
0.0349983 -0.9521032823312273 0.14487318359674284
0.0369982 -0.9504775345249277 0.15340005832470438
0.0389981 -0.94862484717782 0.16129390340219218
0.040998 -0.9470441395798737 0.1695221463835433
0.0429979 -0.9450708277134395 0.1775326211650627
0.0449978 -0.9430164450933574 0.1851268686011885
0.0469977 -0.9416616260823151 0.19342634810437204
0.0489976 -0.9389372808738253 0.201162367187755
0.0509975 -0.9365538310766477 0.20910634073577533
0.0529974 -0.9347295390081976 0.21806025301865478
0.0549973 -0.931999368688891 0.22591578391549033
0.0569972 -0.9300671578759349 0.23320988035228668
0.0589971 -0.9278037673065245 0.2414594568643875
0.060997 -0.9260579269323674 0.24994501970751037
0.0629969 -0.9236577938713961 0.2569822876126169
0.0649968 -0.9208889853754185 0.2653933947312647
0.0669967 -0.9193239870667558 0.2735378147605699
0.0689966 -0.9170597124694468 0.2809048850880704
0.0709965 -0.914657899514498 0.2892109455982252
0.0729964 -0.9119822658044487 0.29713733810259035
0.0749963 -0.9101170008716399 0.3047331144066618
0.0769962 -0.9080723479786524 0.3126017140311186
0.0789961 -0.9050126416891335 0.3198001322389338
0.080996 -0.9023733905241713 0.32802072896634754
0.0829959 -0.8995902836703942 0.33594262605949887
0.0849958 -0.8973738027908705 0.34306522018251645
0.0869957 -0.8945907011894365 0.3509342259663577
0.0889956 -0.8918811992523463 0.35820510008681083
0.0909955 -0.8886774999234037 0.36567499688306826
0.0929954 -0.8857695500693828 0.373061116706227
0.0949953 -0.8823465595100818 0.38105605306305124
0.0969952 -0.8789442934364355 0.38777684229021847
0.0989951 -0.8757399872964622 0.3955313658578271
0.100995 -0.8737041594481736 0.4033004054246452
0.1029949 -0.8701490604721771 0.4104856097311346
0.1049948 -0.8667219096234076 0.4176551660939335
0.1069947 -0.8628103585238163 0.424601888587206
0.1089946 -0.8589436381994848 0.43172530711527457
0.1109945 -0.8544597367759594 0.4386833663363797
0.1129944 -0.8505505308288707 0.4457454016651129
0.1149943 -0.8460361469010014 0.4527529946927943
0.1169942 -0.8415071619498882 0.4597827258834142
0.1189941 -0.8371372856379115 0.4669929480573669
0.120994 -0.8324891059175497 0.4741824485960563
0.1229939 -0.8281008443933561 0.4815859482589268
0.1249938 -0.8233913721211011 0.4886185218646115
0.1269937 -0.819256698160283 0.49589473650272364
0.1289936 -0.8143817902156648 0.5031902374087488
0.1309935 -0.8098874119224628 0.5105385585079683
0.1329934 -0.8051829046102075 0.5174551764286747
0.1349933 -0.8001379723497538 0.5243604345698076
0.1369932 -0.7959315848694668 0.5313363585120177
0.1389931 -0.7910996102695181 0.5385477691103393
0.140993 -0.7862434649220524 0.5453512731508638
0.1429929 -0.7811224506835486 0.5518991310107711
0.1449928 -0.7770957998197632 0.5594271821493617
0.1469927 -0.7718451289980848 0.566387791797972
0.1489926 -0.7672640275584385 0.5732287285437814
0.1509925 -0.7622504160803689 0.5796001083366774
0.1529924 -0.7574690852622568 0.5863332739221477
0.1549923 -0.75301915344435 0.5933755644177309
0.1569922 -0.747542944130815 0.5997610048361977
0.1589921 -0.7428464357888843 0.6064386626913438
0.160992 -0.7376367391420301 0.6129690331956374
0.1629919 -0.732671590808238 0.6190924514093185
0.1649918 -0.7274232825026421 0.6255362394592493
0.1669917 -0.7221517976044318 0.6315732657045421
0.1689916 -0.7172613815286374 0.6380469761519982
0.1709915 -0.7116585430003435 0.6440959695498669
0.1729914 -0.7060750013401456 0.6501916995206628
0.1749913 -0.700647777201939 0.656191197755335
0.1769912 -0.6948999822966767 0.6620591703187064
0.1789911 -0.6897509781560507 0.6682864077032041
0.180991 -0.6833920275100689 0.6740213558989686
0.1829909 -0.6776080626099281 0.6796313031574348
0.1849908 -0.6716564256614485 0.6857866488524658
0.1869907 -0.6657490420304929 0.6913429250195003
0.1889906 -0.6592088215724976 0.6971221031052227
0.1909905 -0.6529757787378672 0.7029520839849668
0.1929904 -0.646604910408994 0.7086058547656761
0.1949903 -0.6403802912397294 0.7143791020464947
0.1969902 -0.6337728506061288 0.719948633482666
0.1989901 -0.6273657257329225 0.7256426075693733
0.20099 -0.6206801741105974 0.7308197223886767
0.2029899 -0.6145440121756476 0.7364171263443438
0.2049898 -0.6075097868641988 0.7416874579635206
0.2069897 -0.6009303179251645 0.7472495195650746
0.2089896 -0.5943387506388843 0.7521708694610684
0.2109895 -0.5880338020078227 0.7574750718410252
0.2129894 -0.580719113156771 0.7631619346035728
0.2149893 -0.5740297480414893 0.768122434285107
0.2169892 -0.5673704351035578 0.7733861853145307
0.2189891 -0.5602535564083485 0.7787553897815268
0.220989 -0.5537998587096581 0.7833834371374682
0.2229889 -0.5464407893622806 0.788121203577747
0.2249888 -0.5394351823001161 0.7930248172110033
0.2269887 -0.5325005194658148 0.797585016478746
0.2289886 -0.525045225707856 0.8025701200571497
0.2309885 -0.5181810683300883 0.8075172256889686
0.2329884 -0.5111361054445953 0.8118953379597853
0.2349883 -0.5038415671311999 0.816650858127143
0.2369882 -0.49617988271152597 0.8211363302588243
0.2389881 -0.4892784449979264 0.8257711509773845
0.240988 -0.4818688116984006 0.8304168087854088
0.2429879 -0.47459649783128266 0.8347970617417968
0.2449878 -0.46718908670460274 0.8391263424149684
0.2469877 -0.45961481000001647 0.8434447745803049
0.2489876 -0.4523980483860892 0.8480093756637557
0.2509875 -0.44495068250616043 0.8524598614059616
0.2529874 -0.4375292847413498 0.8568150510087753
0.2549873 -0.4299526541338045 0.8609873742808222
0.2569872 -0.4227297875221292 0.8654724535171249
0.2589871 -0.4148323712822622 0.8693858144199759
0.260987 -0.4076053973747653 0.8733267971673024
0.2629869 -0.3998877684470594 0.8773636487608338
0.2649868 -0.39235800785721414 0.880747236201908
0.2669867 -0.384961217906985 0.8846833600187226
0.2689866 -0.3771419137059937 0.8882083051197404
0.2709865 -0.36951049133754377 0.8917054222453121
0.2729864 -0.3623021014995341 0.8947434095035002
0.2749863 -0.35453641672722536 0.898125375470066
0.2769862 -0.34683139863705637 0.9013662223623965
0.2789861 -0.3394013659431776 0.9035983180206815
0.280986 -0.33180741020653826 0.9065411803556214
0.2829859 -0.3241152356802858 0.9090132603065708
0.2849858 -0.31594901221191474 0.9113325146283444
0.2869857 -0.307961182067409 0.9140129400187852
0.2889856 -0.3001582437863263 0.9162702941561722
0.2909855 -0.29174128823645545 0.9185162930985507
0.2929854 -0.2835279317416671 0.9202239963720034
0.2949853 -0.2753718997634949 0.9224778990052583
0.2969852 -0.2669088580375991 0.9242190901910018
0.2989851 -0.2583409912427657 0.9258646621903872
0.300985 -0.24988824882079594 0.9272239253450576
0.3029849 -0.2406135194384722 0.928382631271822
0.3049848 -0.23190855459280865 0.9302092871755075
0.3069847 -0.22262574931520965 0.9318111691270978
0.3089846 -0.21356842968919637 0.9328631086279675
0.3109845 -0.2044428357769774 0.9346177675240332
0.3129844 -0.19519496236990805 0.9358982546076344
0.3149843 -0.18583358079791262 0.9372428879904174
0.3169842 -0.1759609294289843 0.9387892751859133
0.3189841 -0.16672139388781318 0.9398493305739015
0.320984 -0.15671745588547845 0.9412639300814469
0.3229839 -0.1473344231190135 0.9426658469810434
0.3249838 -0.13835668465336592 0.9436187573070648
0.3269837 -0.12868488886773327 0.9447023630932059
0.3289836 -0.11891161299167094 0.9461597823688805
0.3309835 -0.10976609453527653 0.9475347732076337
0.3329834 -0.10052149958747619 0.948979588233016
0.3349833 -0.09133307852777878 0.9507481248922522
0.3369832 -0.08233074070209344 0.953188145393577
0.3389831 -0.07350771059817443 0.9547144843077608
0.340983 -0.0643651924922975 0.9567221828395334
0.3429829 -0.056057824374341515 0.9590892168316495
0.3449828 -0.04690924913906185 0.9606153972830073
0.3469827 -0.03814020120651308 0.9622000073273218
0.3489826 -0.02941271987846466 0.9634534690848628
0.3509825 -0.020591158686797752 0.964892576862473
0.3529824 -0.012140477313959506 0.9664105597074457
0.3549823 -0.00373481480978545 0.9671434808315467
0.3569822 0.0047484933413893815 0.9679207221460744
0.3589821 0.012925214379146503 0.9682736911232971
0.360982 0.021437150697866836 0.9689960930812725
0.3629819 0.02939466670444965 0.9691134619564524
0.3649818 0.037726118556850374 0.9684473948345937
0.3669817 0.046121009203572316 0.9682325357031574
0.3689816 0.05454426876959112 0.9673659676499883
0.3709815 0.06285888048481952 0.9666438026681641
0.3729814 0.07114687835640177 0.9658125850384368
0.3749813 0.07957655733024621 0.9643171418779285
0.3769812 0.08832555145147584 0.9632394612343854
0.3789811 0.09726689569847434 0.9626026852975641
0.380981 0.10571315587673216 0.9604837800981209
0.3829809 0.11499113125139225 0.9586546841618876
0.3849808 0.12357776690862968 0.9568311182916976
0.3869807 0.13289068972294688 0.9550282431397933
0.3889806 0.1422697561461861 0.9532450758703525
0.3909805 0.15147622943697847 0.9507523250117309
0.3929804 0.1612629383267492 0.9490462079076639
0.3949803 0.1707275610598726 0.9470037078999576
0.3969802 0.18059378471813023 0.9455315049662808
0.3989801 0.18987164478902813 0.9433216997923185
0.40098 0.19938192141233968 0.9412807924937214
0.4029799 0.2090962134469733 0.9396329075515732
0.4049798 0.2188041198650292 0.9375615465480771
0.4069797 0.2283365510174068 0.9360786535386497
0.4089796 0.23789703498198256 0.9337873160224267
0.4109795 0.24746356456474264 0.9320413119213117
0.4129794 0.25704646217149674 0.9300304689023581
0.4149793 0.2668245050510986 0.9281625691738316
0.4169792 0.27589136818227733 0.9266157728066401
0.4189791 0.2850766053287756 0.9244897071130991
0.420979 0.29397852285047293 0.922483947924791
0.4229789 0.30291562257242954 0.9203000998619968
0.4249788 0.31168757903864364 0.9182169883884231
0.4269787 0.3203845195473855 0.9159963116031441
0.4289786 0.32876973987574015 0.9135743312804079
0.4309785 0.3373552425917754 0.9108093224656291
0.4329784 0.345564849512449 0.9078404808538201
0.4349783 0.35374285589371235 0.9043374572312186
0.4369782 0.3617563128645731 0.9012523946446002
0.4389781 0.3697259973447618 0.8978774973353579
0.440978 0.3778846294380238 0.8943487026443847
0.4429779 0.3857751134876867 0.8908478548081176
0.4449778 0.3939778813307904 0.8869359675174232
0.4469777 0.40187508719975534 0.8826511714031631
0.4489776 0.4101495151839708 0.8783780676933624
0.4509775 0.41795950586346947 0.8736494952434827
0.4529774 0.42641887265332173 0.8686712445292016
0.4549773 0.4344283559743304 0.8642658701143345
0.4569772 0.4427091286343956 0.8593194411093956
0.4589771 0.4511455821881108 0.8542481891082911
0.460977 0.4599575825565734 0.8490235902045558
0.4629769 0.46832284149915243 0.8441036928960532
0.4649768 0.4772028141290583 0.8392593474772215
0.4669767 0.48539627506597915 0.8340546516026247
0.4689766 0.4941374047838029 0.8287396702279669
0.4709765 0.5027379261681202 0.8235570894681847
0.4729764 0.5114735062121799 0.8187076709737482
0.4749763 0.5199419058328693 0.8129716597869764
0.4769762 0.5284947572414479 0.8080430559077242
0.4789761 0.5377158994301187 0.8027311843831337
0.480976 0.5462797763747642 0.7975364761907152
0.4829759 0.5546314058863607 0.7922824218683967
0.4849758 0.5630154704825933 0.7873947905580161
0.4869757 0.5715259192364239 0.782051696845888
0.4889756 0.5799098620954503 0.7770179458178572
0.4909755 0.5880032698522208 0.7719595980888385
0.4929754 0.5960565572541313 0.766741353221506
0.4949753 0.6037737594302244 0.7619648809919959
0.4969752 0.6113534006988004 0.7563225825030229
0.4989751 0.6188138870296465 0.7512642844043211
0.500975 0.6256199773657186 0.7458473111259654
0.5029749 0.6331469583616883 0.7402670899559682
0.5049748 0.640466290324082 0.7346674373453018
0.5069747 0.6472236324925417 0.7289437110050385
0.5089746 0.654505870047254 0.7229674437213516
0.5109745 0.661640673744705 0.7167032906690173
0.5129744 0.6681974827960662 0.7103666121108454
0.5149743 0.6749798524886063 0.7039099157959299
0.5169742 0.6808830730148456 0.6972664610586933
0.5189741 0.6875176396940106 0.6899570025723347
0.520974 0.6937591041528509 0.6828676761836681
0.5229739 0.7002229988019891 0.675741337039207
0.5249738 0.7061291779844833 0.6685857003316219
0.5269737 0.7123213744866439 0.661356027316557
0.5289736 0.7180914326732085 0.6538309977911504
0.5309735 0.7240776860110664 0.6468023769141359
0.5329734 0.7298745749457449 0.6389241884723087
0.5349733 0.7358072248220928 0.6309963270424026
0.5369732 0.7417377532069965 0.6234571304623995
0.5389731 0.7481297606810151 0.6156468527814908
0.540973 0.7542221860110166 0.6077818729641026
0.5429729 0.7601540974037735 0.5999028605468306
0.5449728 0.7665862397874071 0.5917832560069577
0.5469727 0.7725727385921763 0.5837910472857359
0.5489726 0.778685300840461 0.5761620661259933
0.5509725 0.784739615136874 0.5680133514447133
0.5529724 0.7907599189078451 0.5596749661765071
0.5549723 0.7967260549579482 0.5517270054107785
0.5569722 0.8027732252071084 0.5439337483745615
0.5589721 0.8086382966285399 0.5358332707838155
0.560972 0.8144007115846922 0.527787394568782
0.5629719 0.8202331926459016 0.51961554801753
0.5649718 0.8259295552384239 0.5119620311028246
0.5669717 0.8311396322488961 0.5038045184906657
0.5689716 0.8362266034407919 0.49577440455293736
0.5709715 0.8411467368730509 0.48799443704433826
0.5729714 0.8460041886159774 0.4797854991942418
0.5749713 0.8508455658152324 0.4714461937840958
0.5769712 0.8559459408026646 0.4633148798667738
0.5789711 0.8609482794299953 0.45511609412834375
0.580971 0.8652706537639797 0.44686683739520106
0.5829709 0.8692332268294599 0.438568197985098
0.5849708 0.8733329451732027 0.4301844708360142
0.5869707 0.8775421091592686 0.4213477295818906
0.5889706 0.8816650785551616 0.41268353991542034
0.5909705 0.885081445478204 0.4041666121835116
0.5929704 0.8890835181134653 0.39460157021025666
0.5949703 0.8922534294811392 0.3859629599316191
0.5969702 0.8966043508859308 0.37715714918701193
0.5989701 0.8997662918810683 0.36817707587505166
0.60097 0.9027698299912832 0.3587238389322234
0.6029699 0.906069785139762 0.3492693494410183
0.6049698 0.9092907435647911 0.3400009986654221
0.6069697 0.9127357761080854 0.3311810879926367
0.6089696 0.9159554117865915 0.321164964591509
0.6109695 0.9190839732710078 0.31173029658267337
0.6129694 0.9221611930851198 0.3019874941705945
0.6149693 0.9255142990393086 0.29271092597686565
0.6169692 0.9283352877186287 0.28339317933291414
0.6189691 0.9311197003103591 0.273810494338645
0.620969 0.9337423451019125 0.2638415559473146
0.6229689 0.9366959823237225 0.25461786047965373
0.6249688 0.9392366349337573 0.2452869137194347
0.6269687 0.9417086776810123 0.23550541946368483
0.6289686 0.944147944188251 0.2262836984678982
0.6309685 0.9466513858696344 0.21669132609944722
0.6329684 0.9487146164130311 0.20727941199029545
0.6349683 0.9505643283204808 0.19782181099351223
0.6369682 0.9528158846482273 0.18883761751952483
0.6389681 0.9549386441507224 0.17955219875580275
0.640968 0.9569980071119591 0.16966067458982753
0.6429679 0.9588617722385185 0.1601810435751721
0.6449678 0.960071269259994 0.151169635514693
0.6469677 0.961607771605947 0.14121712514152412
0.6489676 0.963215318581672 0.13157943239063
0.6509675 0.9643034465198587 0.12236789643578179
0.6529674 0.9650830470364338 0.11271898706147648
0.6549673 0.9663558851435509 0.10313286535659663
0.6569672 0.9672586458483529 0.09390197317933842
0.6589671 0.967708769259597 0.08405106748704241
0.660967 0.9683280496567443 0.07377142244856034
0.6629669 0.9686927408588794 0.06439203957940189
0.6649668 0.9699102456766305 0.054498513170320374
0.6669667 0.9701296145884852 0.044504171174328894
0.6689666 0.970355062994986 0.03470175321194556
0.6709665 0.9704866511151711 0.024944403518085384
0.6729664 0.9706301488829413 0.015018741740887055
0.6749663 0.9705681852572867 0.005348535497960355
0.6769662 0.9706315009125344 -0.004476390303950986
0.6789661 0.970651043588361 -0.014505337877840613
0.680966 0.9703109405383467 -0.02401723963169075
0.6829659 0.9697734968609122 -0.033740938702981255
0.6849658 0.9695467686156276 -0.04323817005474111
0.6869657 0.9690707823515625 -0.052962844393576694
0.6889656 0.9684901848962741 -0.06263715866701232
0.6909655 0.9677961499745561 -0.072359595649412
0.6929654 0.9667595672477255 -0.08213799924516514
0.6949653 0.9659791898425446 -0.09128437479590151
0.6969652 0.9648506468852666 -0.1008458587729105
0.6989651 0.9640248664611676 -0.1101047951582702
0.700965 0.9624348360420628 -0.11983165383851375
0.7029649 0.9612508052953415 -0.1291311681920132
0.7049648 0.9599889152987325 -0.13869953405146276
0.7069647 0.9581842591090842 -0.14726121608641862
0.7089646 0.956068776124259 -0.15717952380023695
0.7109645 0.9543456627948339 -0.1663691446381957
0.7129644 0.9523211468846996 -0.1761558472518281
0.7149643 0.9504773198025259 -0.18554231479333877
0.7169642 0.9481671503867581 -0.19525816039512106
0.7189641 0.9458755290344789 -0.2043162536207608
0.720964 0.9435921281232174 -0.2139364555176228
0.7229639 0.941110645974929 -0.22350540965468657
0.7249638 0.9386086632594814 -0.23318579595098282
0.7269637 0.9359419565453913 -0.2423581685814278
0.7289636 0.9335597301272126 -0.2518500861711469
0.7309635 0.9309769306090151 -0.26130437404924595
0.7329634 0.9279774889929531 -0.2712532653604625
0.7349633 0.92523961244806 -0.2805862740998769
0.7369632 0.9225579831596815 -0.2903623292708773
0.7389631 0.9197587178091045 -0.30007640274881753
0.740963 0.9170044105258687 -0.3093516273447826
0.7429629 0.914097714281408 -0.31848174187880707
0.7449628 0.9109541439756272 -0.3273526739812638
0.7469627 0.9076976038322215 -0.3367768132646952
0.7489626 0.9045123830016083 -0.3458274433362626
0.7509625 0.9011233649679461 -0.3547025196622812
0.7529624 0.8980431693011295 -0.36383693490211055
0.7549623 0.8947170122163287 -0.37215087999191937
0.7569622 0.8912222210291342 -0.38036523916870846
0.7589621 0.8875232914060225 -0.3889241126997681
0.760962 0.883661600866814 -0.3967644277373282
0.7629619 0.880123411565829 -0.40469004565075983
0.7649618 0.8762109047433476 -0.41312380439378993
0.7669617 0.8722927575536952 -0.42087868650467497
0.7689616 0.8683576158997528 -0.42875862813445137
0.7709615 0.8644536262797529 -0.43672833731746974
0.7729614 0.8607561816238214 -0.4447747734958292
0.7749613 0.855371511452036 -0.4521678748448865
0.7769612 0.8507456879052955 -0.4598591816190864
0.7789611 0.8460020886956722 -0.4674200601526318
0.780961 0.8407152426365079 -0.47542323901822536
0.7829609 0.8357619323786564 -0.4830511972535818
0.7849608 0.8303731565138257 -0.49077318782817647
0.7869607 0.8249840519015519 -0.4984566711559898
0.7889606 0.8191346583239719 -0.5063197785008253
0.7909605 0.8133781183595223 -0.5141633077137341
0.7929604 0.8078478053203424 -0.5219126576263633
0.7949603 0.8019009019042046 -0.5298654646166512
0.7969602 0.7960988524621754 -0.5378674651348994
0.7989601 0.7900369212786329 -0.5459240546305243
0.80096 0.7842240383680811 -0.5537830274333418
0.8029599 0.7784923779403325 -0.5617519517643522
0.8049598 0.7727507030661852 -0.570223371335024
0.8069597 0.7671243429679352 -0.578771895712147
0.8089596 0.7611012974989677 -0.587028091961392
0.8109595 0.7551779120883115 -0.5945920073891434
0.8129594 0.7497809782810374 -0.6026374087675119
0.8149593 0.7442202737975293 -0.610321390234785
