! Created with skrf 1.8.0 (http://scikit-rf.org).
# GHz S RI R 50.0 
!freq ReS11 ImS11
0.001 -1.3340748925180304 0.722276960833024
0.0029999 1.00035598339628 -0.018171389136910743
0.0049998 0.9899936035209376 -0.02505849307865554
0.0069997 0.996348300651852 -0.02895163296201425
0.0089996 0.9927129415541778 -0.03468448743614794
0.0109995 0.992287237523087 -0.04133341206466756
0.0129994 0.9911697907998205 -0.04875860497555162
0.0149993 0.9908964077118615 -0.05597233284823355
0.0169992 0.9900835837748662 -0.06427486016681794
0.0189991 0.9899678428659991 -0.07047186795504856
0.020999 0.9881625912251585 -0.07812985811483486
0.0229989 0.9877155693084697 -0.08572130657243632
0.0249988 0.9871754857426073 -0.09292790207123963
0.0269987 0.9864474977776962 -0.10031660797751299
0.0289986 0.9857510713679684 -0.10820097526125282
0.0309985 0.9850504647155505 -0.11624055977482806
0.0329984 0.9834443556704298 -0.12284847471363222
0.0349983 0.9824797197656975 -0.1303521889722715
0.0369982 0.9823193763263516 -0.13765670647233139
0.0389981 0.9818312918839689 -0.1442453796475872
0.040998 0.9807335183153372 -0.15115968168311184
0.0429979 0.9796795856310003 -0.1583604155632028
0.0449978 0.9787930500386866 -0.1656582520229571
0.0469977 0.9777234928586651 -0.1729790668389941
0.0489976 0.9763463648475825 -0.18049302658388758
0.0509975 0.9752850871469696 -0.18736836799398557
0.0529974 0.9742094111779486 -0.1942781514486819
0.0549973 0.9724922830405711 -0.2012626955344335
0.0569972 0.9709362735652456 -0.20818578598451423
0.0589971 0.969288685831438 -0.2148201501572241
0.060997 0.9678269343337621 -0.2219592990702834
0.0629969 0.9656979112514026 -0.22891181268597707
0.0649968 0.9640408877699476 -0.23569196423930402
0.0669967 0.962103469173348 -0.2424081121374081
0.0689966 0.9600191789744292 -0.24932400717971176
0.0709965 0.9579121975536862 -0.2562641862170919
0.0729964 0.9556854570985941 -0.2629513907679463
0.0749963 0.953176295227455 -0.2700493759257918
0.0769962 0.9505958972346819 -0.27706522285852053
0.0789961 0.94798521147794 -0.28386949537339945
0.080996 0.9460159860928314 -0.29111018562785174
0.0829959 0.9433421162194007 -0.2980913144536431
0.0849958 0.9405865996202893 -0.30542901756918545
0.0869957 0.9382017314209704 -0.31226390173703283
0.0889956 0.9355873073828295 -0.31886974432926196
0.0909955 0.9333440947635592 -0.3266735344235526
0.0929954 0.9304458268098522 -0.33302639302379816
0.0949953 0.9278862176409562 -0.34055578831790745
0.0969952 0.9253175401916951 -0.3478800814884092
0.0989951 0.9229053789977864 -0.3539975303881168
0.100995 0.9186205033983814 -0.36143259171943587
0.1029949 0.9162786104241273 -0.3688106657951271
0.1049948 0.9133031069016286 -0.3761663010108644
0.1069947 0.9110668586999566 -0.38315111695913223
0.1089946 0.9078187877800055 -0.3896048359032377
0.1109945 0.9051173499242751 -0.39694821933925206
0.1129944 0.9027980151854792 -0.4036689765632947
0.1149943 0.9004108388964664 -0.41008029785617733
0.1169942 0.8970898081071246 -0.41700491519317223
0.1189941 0.8949047979436475 -0.42416419764909413
0.120994 0.8921058515359301 -0.4298056306599364
0.1229939 0.8891752825003028 -0.436465042286975
0.1249938 0.8861828529975133 -0.44303774223824804
0.1269937 0.8830108476035533 -0.448468245293976
0.1289936 0.8797908751737941 -0.454758425709998
0.1309935 0.8769415061443749 -0.46127693906884926
0.1329934 0.8734833453762427 -0.4672493161432127
0.1349933 0.8699682740391537 -0.47347484933828665
0.1369932 0.8664597640273775 -0.4791845544350991
0.1389931 0.8629797973706803 -0.4851587192121621
0.140993 0.859439286849006 -0.4908657711446167
0.1429929 0.855554147506071 -0.49675484775257983
0.1449928 0.8516283547367627 -0.5025335969525871
0.1469927 0.847468206413757 -0.5082799086461466
0.1489926 0.8437739793647832 -0.5144153248072318
0.1509925 0.8395189925212347 -0.520127556498212
0.1529924 0.8354089889678584 -0.5260357052940585
0.1549923 0.8312720190946936 -0.5319284140818378
0.1569922 0.8270396092390165 -0.5379901788069731
0.1589921 0.8227394555339235 -0.5438107464566988
0.160992 0.8185856192860572 -0.5501626524733986
0.1629919 0.8143447369249392 -0.5558582137217765
0.1649918 0.8098640761596025 -0.5614665170850786
0.1669917 0.8049756803776988 -0.5675796446531327
0.1689916 0.8009667835336093 -0.573120798133324
0.1709915 0.7966475165708675 -0.5792250948823248
0.1729914 0.7922215278253618 -0.5847138101055472
0.1749913 0.7878564419093378 -0.5907063411679269
0.1769912 0.7831492601330559 -0.5968326631517418
0.1789911 0.7791778495897475 -0.6023228926930236
0.180991 0.7741443351153152 -0.6074870437721589
0.1829909 0.7699814002738793 -0.6137102344949675
0.1849908 0.7652387417346898 -0.6193467565986801
0.1869907 0.760539615598901 -0.6247918943018693
0.1889906 0.7563823221188367 -0.6302788619873336
0.1909905 0.7516121179057634 -0.6357182322581834
0.1929904 0.7476705346249407 -0.6411943753951642
0.1949903 0.7423321096804283 -0.6464118038308578
0.1969902 0.7380255305044998 -0.6515878147630586
0.1989901 0.7332483767955642 -0.6569111221051489
0.20099 0.7285369678547023 -0.6618985742451117
0.2029899 0.7238651609147525 -0.667176867476878
0.2049898 0.7188619553055611 -0.6720242951367986
0.2069897 0.7141598378261012 -0.6770511098718957
0.2089896 0.7093986922863239 -0.6818516222041571
0.2109895 0.7048063181579367 -0.6868737507338847
0.2129894 0.6994707091477445 -0.6916937765243126
0.2149893 0.6946682233787518 -0.6962791530170273
0.2169892 0.6897039340853758 -0.7010859070148424
0.2189891 0.6848015467198773 -0.7058157634766665
0.220989 0.6793265446598165 -0.7104171263823543
0.2229889 0.6743106015624794 -0.7150498961623293
0.2249888 0.6690689759549662 -0.7194222204806318
0.2269887 0.6633713035524869 -0.7235371292150476
0.2289886 0.6580566113357774 -0.7282152890096701
0.2309885 0.653462727803789 -0.7323984609692807
0.2329884 0.6478936360025631 -0.7372487195421589
0.2349883 0.6423296988366177 -0.741117007875978
0.2369882 0.6368660799883414 -0.7456773758599746
0.2389881 0.6317371586779768 -0.7499999444643626
0.240988 0.6259748715212089 -0.7543888042553499
0.2429879 0.6201942937101421 -0.7578410396480775
0.2449878 0.6148698787289506 -0.7621599920260224
0.2469877 0.6093016591533672 -0.7660448588701082
0.2489876 0.6036137464955137 -0.7705823207735835
0.2509875 0.5977230020894265 -0.7740686357853037
0.2529874 0.5920262829413018 -0.7782757505335044
0.2549873 0.5859969028754153 -0.7820696969849011
0.2569872 0.5802983264860917 -0.7858266001885219
0.2589871 0.5742513452500966 -0.7899143630969836
0.260987 0.5679450837707973 -0.7935826050747996
0.2629869 0.5620929121838711 -0.797174139918891
0.2649868 0.5561210097420631 -0.8011942674158536
0.2669867 0.5501296207882258 -0.8048652510819857
0.2689866 0.543900326872416 -0.8087643346995813
0.2709865 0.5378427164257569 -0.8122306199135001
0.2729864 0.531550020760527 -0.8158863822689334
0.2749863 0.5251682429212312 -0.8198505229196584
0.2769862 0.5187687468651052 -0.8235601815386577
0.2789861 0.5127947517845007 -0.8274083983688653
0.280986 0.5066673760129232 -0.8311979065444177
0.2829859 0.5001928985025373 -0.8346741457002387
0.2849858 0.49447888165679554 -0.8388046282090089
0.2869857 0.48832947729346154 -0.8426109161256505
0.2889856 0.481971014878234 -0.8467629666373321
0.2909855 0.4763309183054035 -0.8504337207867538
0.2929854 0.4701639647097581 -0.8539146509862112
0.2949853 0.4638820789613925 -0.8577165518684884
0.2969852 0.4582374740360335 -0.8613580044950707
0.2989851 0.45261433236496046 -0.8647339672358029
0.300985 0.4469183034087751 -0.8684846452320653
0.3029849 0.4411762764712746 -0.871636546780891
0.3049848 0.43612068822016237 -0.8749861265926744
0.3069847 0.4303411295479644 -0.8784918055859778
0.3089846 0.42501632429807806 -0.8815465856527835
0.3109845 0.4194343250891222 -0.8845908960651041
0.3129844 0.413944431296347 -0.8875004707152304
0.3149843 0.40823427129211676 -0.8903396006020262
0.3169842 0.40287527807548634 -0.8926249728482961
0.3189841 0.3975377617974164 -0.8954237709855832
0.320984 0.3917358579652636 -0.898077752163445
0.3229839 0.38637210557310964 -0.9003892950152551
0.3249838 0.38015155072275064 -0.9034828563596156
0.3269837 0.3746577894618309 -0.90569068775462
0.3289836 0.3686065915875749 -0.9079551551689269
0.3309835 0.3631296707906968 -0.9095158017826672
0.3329834 0.3567708062859763 -0.9109043094524538
0.3349833 0.35092257627938583 -0.9122244025950446
0.3369832 0.34486151582980373 -0.9130859825294355
0.3389831 0.3387581506948927 -0.9141986219958115
0.340983 0.3324672146289671 -0.9154322904268946
0.3429829 0.3256081610046363 -0.9161951154595604
0.3449828 0.3193023000843867 -0.9170655035454855
0.3469827 0.31214536790876346 -0.9182882763528539
0.3489826 0.3051829951513289 -0.9190525171955808
0.3509825 0.2986371026489457 -0.9205675088561571
0.3529824 0.29154048152281364 -0.9219238945247363
0.3549823 0.28439534470237116 -0.9226628650802888
0.3569822 0.27647971978046143 -0.9246387963133945
0.3589821 0.2695294597797935 -0.9261617734055985
0.360982 0.26268677323941647 -0.9274824314700348
0.3629819 0.25482853171057546 -0.9290902569645975
0.3649818 0.24805097093893907 -0.9308535004811019
0.3669817 0.24093086080061127 -0.9328994032691927
0.3689816 0.2343134091244521 -0.9347037184465945
0.3709815 0.2276877826627841 -0.9361007257400505
0.3729814 0.22106915600473173 -0.938047321551901
0.3749813 0.21388947151885163 -0.9399630578298865
0.3769812 0.2072179062146682 -0.9424311035470345
0.3789811 0.20035255877872243 -0.9438453781745094
0.380981 0.19436938620702734 -0.9460448710534867
0.3829809 0.18770765380788368 -0.9476549160768101
0.3849808 0.18173600295062167 -0.949384256360385
0.3869807 0.1753934608115974 -0.9509826517352739
0.3889806 0.16981637761792678 -0.9524079867739716
0.3909805 0.16370153639801455 -0.9538202271677655
0.3929804 0.15796839851961858 -0.955006531142792
0.3949803 0.15200455183219744 -0.9562025627823342
0.3969802 0.14649795653456435 -0.9571979981963497
0.3989801 0.1404637979529984 -0.9577457612441596
0.40098 0.13459148851529973 -0.9586403014398976
0.4029799 0.12929740958839417 -0.9587888700114422
0.4049798 0.12329253059828646 -0.9592881143127566
0.4069797 0.11736355706321777 -0.9590499438410465
0.4089796 0.1116070543675494 -0.9592499740831298
0.4109795 0.10527196842512002 -0.959464299227626
0.4129794 0.09941061175869788 -0.9584980058394227
0.4149793 0.09336815638828874 -0.9585685289399606
0.4169792 0.08697304456737863 -0.9577758018384065
0.4189791 0.08034656323588489 -0.9574707636701677
0.420979 0.07358736983026688 -0.9572553123314335
0.4229789 0.0668967611968325 -0.9569331997071053
0.4249788 0.06035074426321797 -0.9573690011929051
0.4269787 0.053173959789292964 -0.957091068636287
0.4289786 0.04639674064722011 -0.9563388448515466
0.4309785 0.03964625304459744 -0.956307421926673
0.4329784 0.03247742946762003 -0.9562591064916516
0.4349783 0.026026824609698462 -0.9563826561518585
0.4369782 0.019036614374585994 -0.9563176967008851
0.4389781 0.012158095261025771 -0.956372465356655
0.440978 0.005436164948933946 -0.9564474827373544
0.4429779 -0.0012600417119683002 -0.9567352999060018
0.4449778 -0.008807121492684068 -0.9575500160482081
0.4469777 -0.015331116940657287 -0.9569388454916534
0.4489776 -0.02185973485650889 -0.9572794593591352
0.4509775 -0.028274318236099286 -0.9577166682388004
0.4529774 -0.03484732826060117 -0.9580564936437735
0.4549773 -0.04095177151096304 -0.9585511113976415
0.4569772 -0.047289427804853804 -0.9586380714279304
0.4589771 -0.05311501366036684 -0.9589763475007844
0.460977 -0.05836677312932356 -0.95901371788196
0.4629769 -0.06441266320646329 -0.9587485937618268
0.4649768 -0.06971759049881025 -0.9589857736500048
0.4669767 -0.0756662911303208 -0.9578607391487065
0.4689766 -0.08078226700872919 -0.957506581296003
0.4709765 -0.08576039243545619 -0.9573306666821625
0.4729764 -0.09128854929790445 -0.9563961444224276
0.4749763 -0.0967001203767156 -0.9553876327463529
0.4769762 -0.10195106305127999 -0.9542574316078203
0.4789761 -0.10713762376959166 -0.9528558687004767
0.480976 -0.11249951769670738 -0.9512883826909938
0.4829759 -0.11848838692790567 -0.9498981852311138
0.4849758 -0.12407098698817187 -0.9484389131443957
0.4869757 -0.12961603717613698 -0.9464229318595715
0.4889756 -0.13562589289064358 -0.9440409686565248
0.4909755 -0.14128478444648096 -0.941761752018932
0.4929754 -0.14769677256340527 -0.9402969902884942
0.4949753 -0.15418894302794203 -0.9381525188738671
0.4969752 -0.16011701282894192 -0.9355996587555817
0.4989751 -0.16680386663073582 -0.9343849438503883
0.500975 -0.17297322981405666 -0.9322112610937234
0.5029749 -0.17955604144869866 -0.9301026030865934
0.5049748 -0.18613798937080434 -0.9288794570460239
0.5069747 -0.19310002035973137 -0.9268617940995101
0.5089746 -0.19993287117730926 -0.9254536262490931
0.5109745 -0.20555308878348064 -0.923442845743448
0.5129744 -0.21234810186391906 -0.9220405188262836
0.5149743 -0.21927324447260743 -0.9200332739529918
0.5169742 -0.22574467017041236 -0.9186332832302878
0.5189741 -0.23253025639707153 -0.9175031597325768
0.520974 -0.23852750087246316 -0.9168179741404392
0.5229739 -0.24425105552200377 -0.9153925862827783
0.5249738 -0.2507452856888789 -0.9139860883457501
0.5269737 -0.25712629817171945 -0.9131284383274648
0.5289736 -0.2634390595074946 -0.912272023448342
0.5309735 -0.2689224277161588 -0.9108673456994983
0.5329734 -0.27465054792351556 -0.9093916531209802
0.5349733 -0.280362131351464 -0.9083172721893328
0.5369732 -0.2859910929886927 -0.9074386237046632
0.5389731 -0.29113054742155803 -0.9058265438913989
0.540973 -0.2963816825705897 -0.9040066740594781
0.5429729 -0.30126685384644286 -0.9022843944151423
0.5449728 -0.306076200367197 -0.9008217497495482
0.5469727 -0.311237687666247 -0.8988121945974774
0.5489726 -0.3159121288672771 -0.8970326061214228
0.5509725 -0.32086243181503427 -0.8946698022292229
0.5529724 -0.32608522722334604 -0.8924675728910137
0.5549723 -0.3307547926875341 -0.8905152443734937
0.5569722 -0.33590003185635975 -0.8878813857951415
0.5589721 -0.34034492143245504 -0.884972607976867
0.560972 -0.3454057589638348 -0.8816670737912633
0.5629719 -0.350765088935863 -0.8788386066887128
0.5649718 -0.3555865493058905 -0.8759697650341559
0.5669717 -0.3608321362463456 -0.8724920324201304
0.5689716 -0.3661053523431763 -0.8694305067451051
0.5709715 -0.37194501921626233 -0.8661738092485206
0.5729714 -0.37688794886226074 -0.8633153592138442
0.5749713 -0.3825525319913464 -0.8602516923624547
0.5769712 -0.3880740592648623 -0.8573064615277376
0.5789711 -0.3937310090889451 -0.8538942156339006
0.580971 -0.39963708138308646 -0.8506366505149303
0.5829709 -0.405609283203964 -0.8475804232216276
0.5849708 -0.41160652760767025 -0.8447986299145154
0.5869707 -0.4176654790542119 -0.8419385743543563
0.5889706 -0.4229182898060982 -0.8394383539355353
0.5909705 -0.42904797626490426 -0.8371308856318659
0.5929704 -0.43446440993527974 -0.834493596029132
0.5949703 -0.4397714732113854 -0.8318178750654928
0.5969702 -0.44567204861431126 -0.8291156998789588
0.5989701 -0.4514413834003724 -0.826638172107961
0.60097 -0.4565346904274224 -0.8244266848174481
0.6029699 -0.461523664833175 -0.8217051161930583
0.6049698 -0.46647929567233554 -0.8190288867842354
0.6069697 -0.471199816354235 -0.8167637849529404
0.6089696 -0.47619436479567445 -0.81426399772722
0.6109695 -0.48040218165308446 -0.8116783914834607
0.6129694 -0.484743146399466 -0.8091887808334292
0.6149693 -0.4894380103207609 -0.8064955594652505
0.6169692 -0.49413765166283774 -0.8037650896852251
0.6189691 -0.49801236477677924 -0.8006567549045991
0.620969 -0.5020423923703988 -0.7976074887980086
0.6229689 -0.5064043067777118 -0.7943580084332234
0.6249688 -0.510412008659317 -0.7912146653868974
0.6269687 -0.5146592969545242 -0.7878019764254764
0.6289686 -0.5189705111039684 -0.7838824548492473
0.6309685 -0.5225632245471734 -0.7794896544101861
0.6329684 -0.5270614755067428 -0.7757636396851765
0.6349683 -0.5318378152517266 -0.771801527181705
0.6369682 -0.5356180862151061 -0.767839837894724
0.6389681 -0.5398632817369149 -0.7637669549706765
0.640968 -0.5441907559224793 -0.7595535681498109
0.6429679 -0.5488609077197414 -0.7550201269441897
0.6449678 -0.5537949219001608 -0.7511937611926657
0.6469677 -0.5586971366986987 -0.7468809917847157
0.6489676 -0.5635951851992835 -0.7427312407468001
0.6509675 -0.5687118011909407 -0.7384519757500865
0.6529674 -0.5740814413922171 -0.7348639145739381
0.6549673 -0.5788351225210364 -0.7306400834582754
0.6569672 -0.5839962096759725 -0.726612201505063
0.6589671 -0.5890644425306445 -0.7225855321482244
0.660967 -0.5938914765489803 -0.7192295163866814
0.6629669 -0.598892395171086 -0.7153777450962564
0.6649668 -0.6040000885476687 -0.7118480360569168
0.6669667 -0.6090135268575838 -0.7083590557423454
0.6689666 -0.6134908803283864 -0.7047524767022089
0.6709665 -0.6177096677992063 -0.7013866286037942
0.6729664 -0.6221794737887192 -0.6979467064820041
0.6749663 -0.6267598545899763 -0.6947190009945651
0.6769662 -0.630686998913557 -0.6913141069114235
0.6789661 -0.634980934704286 -0.6883574147803357
0.680966 -0.6395999229482784 -0.6851422402843578
0.6829659 -0.6433508974660023 -0.6820420910959685
0.6849658 -0.6467389326852637 -0.678417695815378
0.6869657 -0.6505612983226712 -0.6753613454081998
0.6889656 -0.6540323471301759 -0.6721196247953088
0.6909655 -0.6574329467563601 -0.668192787825131
0.6929654 -0.6605864819284831 -0.664534685521237
0.6949653 -0.663821252116347 -0.6607712688523764
0.6969652 -0.6671403407876224 -0.6567097932818583
0.6989651 -0.6702715760743169 -0.652828337745121
0.700965 -0.6738424663212821 -0.648699182938473
0.7029649 -0.6768361161464048 -0.6441793834263485
0.7049648 -0.679771380921092 -0.6396797882465779
0.7069647 -0.683002361966778 -0.6351454615194435
0.7089646 -0.6858225100476724 -0.6298197915274274
0.7109645 -0.6893098086700654 -0.6254171377772562
0.7129644 -0.6927684682332009 -0.6202693939428949
0.7149643 -0.6963555259613026 -0.6152574510640932
0.7169642 -0.6999401052264298 -0.6103533633320926
0.7189641 -0.7041022224065633 -0.6054682821204653
0.720964 -0.7072575044623856 -0.6006755612051888
0.7229639 -0.7110472172119374 -0.5959917735663842
0.7249638 -0.714539304259874 -0.5908391051536951
0.7269637 -0.7187475368683619 -0.5859870354341228
0.7289636 -0.7221425092127846 -0.5812394339395116
0.7309635 -0.7263310996346775 -0.5764377538550878
0.7329634 -0.730469068294956 -0.5716100367065465
0.7349633 -0.7339708920848841 -0.5669746233494818
0.7369632 -0.7380527556083849 -0.562313506995776
0.7389631 -0.7421800979170644 -0.5581181258806636
0.740963 -0.7453757691587293 -0.5536274124007242
0.7429629 -0.748732852456126 -0.5492539308880643
0.7449628 -0.7520583328304354 -0.5453707829497758
0.7469627 -0.7556578447238136 -0.5416985063017086
0.7489626 -0.7587046474413107 -0.5370634443421448
0.7509625 -0.7625208489241397 -0.5326784679461025
0.7529624 -0.7658273085694509 -0.5289652492164957
0.7549623 -0.7690916277884725 -0.5247775158557422
0.7569622 -0.7719555902437335 -0.5208007861278017
0.7589621 -0.7748924287430681 -0.5166736451619207
0.760962 -0.7776874585037068 -0.5126273337997836
0.7629619 -0.7798349671149405 -0.5085455465032324
0.7649618 -0.7828479529333524 -0.5039689732489233
0.7669617 -0.7855416344611371 -0.4996173124547909
0.7689616 -0.7876516052745979 -0.4954117613721753
0.7709615 -0.7902734898475626 -0.49055253545041044
0.7729614 -0.7925885595918476 -0.486202641704798
0.7749613 -0.7941677771615215 -0.4806944147729779
0.7769612 -0.7958821786087001 -0.47601099961041177
0.7789611 -0.7979595246301211 -0.47056251503755775
0.780961 -0.8002227304667746 -0.465502128631554
0.7829609 -0.8024747704168983 -0.46068670545681534
0.7849608 -0.8048821372754267 -0.4550133235626266
0.7869607 -0.8071969386339007 -0.4498316219270782
0.7889606 -0.8097795925878822 -0.44426801608992356
0.7909605 -0.8120068034008596 -0.4390768519616512
0.7929604 -0.8146376714403213 -0.4336337692298218
0.7949603 -0.8171253675960541 -0.428110105859178
0.7969602 -0.8198237572797177 -0.42297629911304885
0.7989601 -0.8222843893425107 -0.4175145078119266
0.80096 -0.825013412104961 -0.4119683393124525
