! Created with skrf 1.8.0 (http://scikit-rf.org).
# GHz S RI R 50.0 
!freq ReS11 ImS11
0.001 -0.8794135711886215 0.22071790386614754
0.0029999 -0.9470743046076469 0.027058493662557304
0.0049998 -0.9579453534307103 0.018629753472028665
0.0069997 -0.9577147591877979 0.01832928203153361
0.0089996 -0.9597026097263045 0.024080904119915703
0.0109995 -0.9604112149161745 0.029893114121824604
0.0129994 -0.961678897435092 0.035846304776437354
0.0149993 -0.9621072429365343 0.04250796106484134
0.0169992 -0.9627292151665549 0.047850392176891576
0.0189991 -0.9629827314367274 0.05382019320647802
0.020999 -0.962928339076585 0.05986869996974009
0.0229989 -0.9627262168225198 0.06593754225185655
0.0249988 -0.9621257137714675 0.07156741024742766
0.0269987 -0.9620464420676579 0.07766155204312084
0.0289986 -0.9615685562136916 0.08330260199839801
0.0309985 -0.9610039763883831 0.0890165674592368
0.0329984 -0.9603095454638082 0.09486881938236175
0.0349983 -0.9597722974837934 0.10067242376850621
0.0369982 -0.9587625100053976 0.10638293139076732
0.0389981 -0.9577466308413244 0.11199226258966793
0.040998 -0.9569962711009647 0.11750600892715862
0.0429979 -0.9560440813706534 0.12303345436770313
0.0449978 -0.955076353721768 0.12845030530740226
0.0469977 -0.954509698761202 0.13397859018670527
0.0489976 -0.953009229087432 0.13937736987098331
0.0509975 -0.9514594732126989 0.14525438650688388
0.0529974 -0.950799938908474 0.15132848824560097
0.0549973 -0.9488824329420888 0.15732694485860538
0.0569972 -0.9481517273643708 0.16221791392253604
0.0589971 -0.9467775608689142 0.16788554966343136
0.060997 -0.9462108704579966 0.17403993954422414
0.0629969 -0.9450358720810295 0.17887526453400085
0.0649968 -0.9430959390665556 0.18459096188562632
0.0669967 -0.9429317624010207 0.19077087436220777
0.0689966 -0.9415338846913628 0.19565074834283203
0.0709965 -0.9405460800425429 0.20098017152827563
0.0729964 -0.9393323129762052 0.20720244501495894
0.0749963 -0.9381559943322089 0.21262857768974264
0.0769962 -0.9374563439060245 0.21771798926655625
0.0789961 -0.9362447665739251 0.22309501864947504
0.080996 -0.9348652794828065 0.22847035259546133
0.0829959 -0.9331738064212856 0.23449303771363264
0.0849958 -0.9324633241539226 0.23915125678785248
0.0869957 -0.9311333193722834 0.24520749388878946
0.0889956 -0.9295270100206522 0.2500057243557501
0.0909955 -0.9281984238784351 0.25578092649991974
0.0929954 -0.9265180348813264 0.26087442245767944
0.0949953 -0.92522774076733 0.2662939753342294
0.0969952 -0.9233135316621062 0.27146911832173776
0.0989951 -0.9217047693375662 0.2766057289169751
0.100995 -0.9210338218409753 0.282509672189336
0.1029949 -0.9191454908346891 0.287999577913932
0.1049948 -0.9176023372320974 0.2931445206843342
0.1069947 -0.9156863032545646 0.2980424378759665
0.1089946 -0.9136186501084065 0.3032359196038167
0.1109945 -0.9114459821402158 0.30856477901661034
0.1129944 -0.909452683783225 0.31374819979722635
0.1149943 -0.9070872762076032 0.3187765746443596
0.1169942 -0.9046457112236754 0.32420892165194076
0.1189941 -0.9026008973499778 0.32956360861691314
0.120994 -0.9000610216882753 0.3347833997626235
0.1229939 -0.8978566726166392 0.34034428132919475
0.1249938 -0.8956079816839438 0.34580474470055145
0.1269937 -0.893286750173932 0.35081897402534756
0.1289936 -0.8912288120459247 0.3565117091957236
0.1309935 -0.888808749608064 0.3619041403818361
0.1329934 -0.8869277485137135 0.36731862109434255
0.1349933 -0.8839812288179397 0.37227432487093076
0.1369932 -0.881728399409995 0.3776065658839211
0.1389931 -0.879810958843389 0.3829454266570813
0.140993 -0.877281569856988 0.38814355659091926
0.1429929 -0.8747744763677554 0.3932988920656598
0.1449928 -0.8728852842864332 0.3987163400140286
0.1469927 -0.8702677660007484 0.4042139147866495
0.1489926 -0.868076230242514 0.40926517471581875
0.1509925 -0.8655263237325825 0.4141227588110633
0.1529924 -0.862984177897689 0.41933153826856034
0.1549923 -0.8613182912750279 0.4248220391081214
0.1569922 -0.8585563029481207 0.4294495379430736
0.1589921 -0.8561389928755858 0.4348856695466698
0.160992 -0.8535744578508556 0.43965132263508344
0.1629919 -0.8510027360911581 0.4448415238513182
0.1649918 -0.8485598402234822 0.44962411784307843
0.1669917 -0.8459005187921949 0.45436052580040986
0.1689916 -0.8437928740396811 0.4595501256613954
0.1709915 -0.8412509986633862 0.46441354882820784
0.1729914 -0.8380097830830023 0.4691602178695199
0.1749913 -0.8359650859638992 0.47390531636963495
0.1769912 -0.8326147346101826 0.47877875383726204
0.1789911 -0.830059213035196 0.4837718888706868
0.180991 -0.8270619856640338 0.48855991717538133
0.1829909 -0.8241996088528099 0.4932281635848867
0.1849908 -0.8211191109278994 0.4982122369395704
0.1869907 -0.8179839769925754 0.5028191596184574
0.1889906 -0.8148131182284465 0.5077709938542174
0.1909905 -0.8118077550050744 0.5125443746614063
0.1929904 -0.8087713434791536 0.5173982608829634
0.1949903 -0.805356418261421 0.5221273598665399
0.1969902 -0.8019218368966661 0.5267478153043694
0.1989901 -0.7989614858574633 0.5319389625524495
0.20099 -0.7956048569642798 0.5369641049098605
0.2029899 -0.7924255030808063 0.5415015899524219
0.2049898 -0.78873101424922 0.5457726840265662
0.2069897 -0.7855498100493754 0.5507615855897456
0.2089896 -0.7819948025475707 0.5551855471327983
0.2109895 -0.7789747363540794 0.5599349774524754
0.2129894 -0.7755917916798573 0.5647859787985644
0.2149893 -0.7721057712675645 0.5695149460759714
0.2169892 -0.7687005543652884 0.5738945967225653
0.2189891 -0.7650702330117448 0.5787661318810917
0.220989 -0.7618744363205961 0.5833731233407267
0.2229889 -0.7583662424306052 0.5879667936545306
0.2249888 -0.7545685859228537 0.592429960616031
0.2269887 -0.7508711812426192 0.5964798521904969
0.2289886 -0.7470134952755039 0.6014776063501378
0.2309885 -0.7437175718765449 0.6062778847365061
0.2329884 -0.7400662826484316 0.6101684121662412
0.2349883 -0.7364478691258822 0.6148986574542263
0.2369882 -0.7325696027618993 0.6191562888185242
0.2389881 -0.7290404594164083 0.6237136320917177
0.240988 -0.7250684652667923 0.6281147822556122
0.2429879 -0.7216053344472823 0.6325786185903859
0.2449878 -0.7178977636187267 0.6370119796756539
0.2469877 -0.7140720281938384 0.6414302670586776
0.2489876 -0.7102346968917929 0.645721120726457
0.2509875 -0.706707851603429 0.650248431659614
0.2529874 -0.7030753116935248 0.6547061314632318
0.2549873 -0.6992066027936601 0.6592128111536886
0.2569872 -0.6955963118646183 0.6635901644728667
0.2589871 -0.6916462206618235 0.6681242953261111
0.260987 -0.6879307428284649 0.6722030261761363
0.2629869 -0.6841675956206928 0.6763581830913117
0.2649868 -0.68039834687826 0.6801728045230268
0.2669867 -0.676946739441189 0.6842339752967531
0.2689866 -0.6727539751541496 0.6884916775037906
0.2709865 -0.6688956669327781 0.6923276404188817
0.2729864 -0.6651777938884885 0.6963044118978702
0.2749863 -0.6611539595957522 0.7000146440963965
0.2769862 -0.6571185297054483 0.7040035560483254
0.2789861 -0.6534984018725856 0.7075766667450313
0.280986 -0.6495036397492907 0.7110463698321257
0.2829859 -0.6450029847086477 0.7142259415238592
0.2849858 -0.6409191936209535 0.7173913412692501
0.2869857 -0.6366235640064688 0.7211153304091551
0.2889856 -0.632092237688713 0.724475808078017
0.2909855 -0.6279828441260432 0.7280294519238302
0.2929854 -0.623291913853937 0.7312409797595251
0.2949853 -0.6188423139793858 0.7344539676451726
0.2969852 -0.6137480833553189 0.7377809971751556
0.2989851 -0.6092041729851275 0.7411416231723311
0.300985 -0.6044686625110414 0.7440193045147451
0.3029849 -0.5990541643942887 0.74731777130897
0.3049848 -0.5940564425072344 0.7504378444858014
0.3069847 -0.5884435118442194 0.7538579943941068
0.3089846 -0.5831668384032352 0.7569503292884215
0.3109845 -0.5779419211543034 0.7604996675331446
0.3129844 -0.5725841115393845 0.7636992585289432
0.3149843 -0.5671677628175714 0.7672422743716161
0.3169842 -0.5616141201284701 0.7707791884479428
0.3189841 -0.5563832931922847 0.7736584256992749
0.320984 -0.550535178853078 0.7774416148274167
0.3229839 -0.5452464859297359 0.7808266126581211
0.3249838 -0.5398843393011337 0.7845859552436074
0.3269837 -0.5343457868215911 0.7876149297147153
0.3289836 -0.5288621800254256 0.7914672415718255
0.3309835 -0.5234571583431695 0.7949889105732634
0.3329834 -0.5185458171574067 0.7984783885426138
0.3349833 -0.513460930170129 0.802528924224758
0.3369832 -0.5093353056388106 0.8071334360537218
0.3389831 -0.5043892475024301 0.8110024813498868
0.340983 -0.4999235409881355 0.8152488064418565
0.3429829 -0.4956504571168647 0.8194547457873032
0.3449828 -0.4905245377049668 0.8231359094530626
0.3469827 -0.48651963922535724 0.8271325882871281
0.3489826 -0.48192916565465166 0.8304114769312188
0.3509825 -0.477192760708059 0.8341474933264164
0.3529824 -0.4728608246531468 0.8379074473702398
0.3549823 -0.46845397601524214 0.8407855242217653
0.3569822 -0.4641280004389309 0.8441258513350762
0.3589821 -0.45950830964528394 0.8470920410564331
0.360982 -0.455123712420025 0.8503426650311222
0.3629819 -0.45061109285966106 0.8528440731387991
0.3649818 -0.44571727662280247 0.8550660108387512
0.3669817 -0.44092374984260674 0.8575177578416456
0.3689816 -0.4361042199972731 0.8597019263755628
0.3709815 -0.4311358697686692 0.861907714074984
0.3729814 -0.4258096994574503 0.8641248418065504
0.3749813 -0.4210598384223908 0.8658659326823802
0.3769812 -0.41569637366119067 0.8677894837625755
0.3789811 -0.4108038548321631 0.8698925120845198
0.380981 -0.4048880674195476 0.8713992235746439
0.3829809 -0.3990355105353078 0.8733406415355969
0.3849808 -0.3935959311685421 0.8756082940617113
0.3869807 -0.38780952770719074 0.8771020495493166
0.3889806 -0.38146285481297065 0.8796290711402466
0.3909805 -0.3755215040526133 0.881178444574921
0.3929804 -0.36898332681317364 0.8837183917510254
0.3949803 -0.36308690561662715 0.8858826452184239
0.3969802 -0.356926808452102 0.8884536170440552
0.3989801 -0.35059608767418815 0.8903132100464396
0.40098 -0.3445718282515725 0.8926973600845158
0.4029799 -0.33843611782718486 0.8951396197695658
0.4049798 -0.3321255536969424 0.8980069689994018
0.4069797 -0.3261812172577186 0.9001906722783177
0.4089796 -0.3202373954291192 0.9026435787297061
0.4109795 -0.3141835833968177 0.9053641699755881
0.4129794 -0.3085841937245247 0.9081615303439874
0.4149793 -0.3023186022435902 0.9109282164819039
0.4169792 -0.29655435428531424 0.9133094270650942
0.4189791 -0.2908727250815628 0.9157481993450446
0.420979 -0.28547708112451825 0.9182752789953252
0.4229789 -0.28003613640146685 0.9206827675154416
0.4249788 -0.2745755600370142 0.9233426785211807
0.4269787 -0.26943527872969036 0.9256238089221267
0.4289786 -0.26408751910081246 0.9274071624899906
0.4309785 -0.2588024695286035 0.9294962273225319
0.4329784 -0.2532946890505199 0.9309899349126559
0.4349783 -0.24776198336649918 0.932058595795251
0.4369782 -0.24273816064247805 0.9335979428032423
0.4389781 -0.2373301993155901 0.9350851466475838
0.440978 -0.2319544536148611 0.9358255660376346
0.4429779 -0.2265581328458306 0.9371320523840527
0.4449778 -0.22113049480280283 0.9378922420354675
0.4469777 -0.21536427625848714 0.9382694096332855
0.4489776 -0.20936831685599225 0.9393345194541176
0.4509775 -0.20358260222577831 0.939917203606603
0.4529774 -0.19726734482716374 0.9404612347462453
0.4549773 -0.19086474382968133 0.9411071936597383
0.4569772 -0.18428131557743638 0.941541793146152
0.4589771 -0.17780182335111738 0.941957541728727
0.460977 -0.17075313909630474 0.9428781832283948
0.4629769 -0.16445203718394003 0.9438264687614988
0.4649768 -0.1576758855259905 0.9445248580266893
0.4669767 -0.15103143372813901 0.9451194943280047
0.4689766 -0.14425301937184562 0.9460216370906968
0.4709765 -0.13745362748626475 0.9468045651106579
0.4729764 -0.13042401425992733 0.9483520158091924
0.4749763 -0.1235391085040066 0.9492439688563811
0.4769762 -0.11714508993631711 0.9505035467754097
0.4789761 -0.10954515168348597 0.9521576285533494
0.480976 -0.103068199496686 0.9534048292063588
0.4829759 -0.09645433849914374 0.9542581490963795
0.4849758 -0.09009029667834371 0.9559522860127374
0.4869757 -0.08358282836017428 0.9571969347496254
0.4889756 -0.07697049996249869 0.9585814143476299
0.4909755 -0.07050182523192686 0.9603879391110305
0.4929754 -0.06430190588646922 0.9617141843365282
0.4949753 -0.058700014038049114 0.9628073372886152
0.4969752 -0.05290745548312626 0.9638452156417525
0.4989751 -0.04706604985071054 0.9647622651458558
0.500975 -0.04169453754632379 0.96531632353418
0.5029749 -0.0360550395216263 0.9661799790942174
0.5049748 -0.030522919315208764 0.9669511289248806
0.5069747 -0.02525147866870806 0.9670505961159828
0.5089746 -0.01929750892472918 0.9674838911827
0.5109745 -0.013751730742606098 0.9678520918884461
0.5129744 -0.0077080108100405845 0.9680276874064262
0.5149743 -0.0023770141959120403 0.9679729361704555
0.5169742 0.0031410444102506416 0.9671253315155237
0.5189741 0.009512972607386774 0.966493641182959
0.520974 0.015872900969583492 0.9657334437855004
0.5229739 0.0221123963502058 0.9652948850071775
0.5249738 0.027786274572580552 0.9645418083139476
0.5269737 0.03399615740048134 0.9635380015407861
0.5289736 0.04005963116048876 0.9622955348488305
0.5309735 0.046081086608436184 0.9613205678215598
0.5329734 0.05287724068211386 0.9599825397940134
0.5349733 0.05935026074883917 0.9587507756826814
0.5369732 0.0657325599639631 0.9576602215822893
0.5389731 0.07292064981857345 0.9570063565537931
0.540973 0.07925951805647848 0.9557683806725814
0.5429729 0.08642095202213693 0.9545846945628477
0.5449728 0.09343372243566009 0.9540497713972826
0.5469727 0.10015260075080318 0.9533416251366356
0.5489726 0.10713250512867784 0.9525885448257568
0.5509725 0.11419023626656706 0.9520373862881403
0.5529724 0.12145399150721835 0.9512150434755655
0.5549723 0.12840964854051007 0.9508941192930472
0.5569722 0.13528060746836923 0.9503803765864318
0.5589721 0.14224222557136307 0.9504149457087172
0.560972 0.1489768692228526 0.9502539902071643
0.5629719 0.1559732707767176 0.9500087259745037
0.5649718 0.16266966295493204 0.9499338494160295
0.5669717 0.16909156748543575 0.9496105525421551
0.5689716 0.1749418532374352 0.9492308963068445
0.5709715 0.18082228295349567 0.948374001010407
0.5729714 0.18708565036782027 0.947513285386861
0.5749713 0.19330100179522636 0.9469094110157815
0.5769712 0.1991734603296677 0.9459858419029796
0.5789711 0.20473225973144005 0.945482234525663
0.580971 0.21036840878324095 0.9444756898768144
0.5829709 0.21600154699432622 0.9433847921704066
0.5849708 0.2212777904083205 0.9420124039819302
0.5869707 0.22738256056618644 0.9405420464645946
0.5889706 0.23328997400818635 0.9384018743424821
0.5909705 0.2389638849771203 0.9364649533327568
0.5929704 0.24518267100545796 0.93430726869201
0.5949703 0.25063614888416696 0.9321571895080953
0.5969702 0.25671249482287894 0.930198667722966
0.5989701 0.26245175063618326 0.9278211759592155
0.60097 0.2687336519782498 0.9250602571733362
0.6029699 0.2750404163579003 0.9227372713524039
0.6049698 0.2812223826791526 0.9200770265861269
0.6069697 0.28753340657305515 0.9174119415168258
0.6089696 0.2944333132170986 0.9152745777963615
0.6109695 0.3013191168625977 0.912428928352547
0.6129694 0.3078278086191331 0.9095987973929559
0.6149693 0.31510062047956944 0.9075505212705275
0.6169692 0.32152871893146195 0.9052645845066509
0.6189691 0.3286212008837917 0.9027810899710005
0.620969 0.33553451317458566 0.9006038138941911
0.6229689 0.34234050479703504 0.8980810563130324
0.6249688 0.3491040118636506 0.8960149997029492
0.6269687 0.3562790430671176 0.8939977759349996
0.6289686 0.36267210664731664 0.8920307205104545
0.6309685 0.3694581144141729 0.8903716301466987
0.6329684 0.37579436121891713 0.8884804820303496
0.6349683 0.3823774916048387 0.8859319682317135
0.6369682 0.3880802630859014 0.8840077873228382
0.6389681 0.39423106056554036 0.8825526039829488
0.640968 0.40073265719184326 0.8803833798937534
0.6429679 0.4062923154959128 0.8788766580664688
0.6449678 0.41148157327191903 0.8765621348427891
0.6469677 0.4170027320512419 0.8745975418172974
0.6489676 0.4228360708799299 0.8725842792182023
0.6509675 0.42764176599522324 0.8703326852413731
0.6529674 0.4330983023973731 0.8675023370281724
0.6549673 0.43843562373736833 0.8651573838406954
0.6569672 0.4433123937197958 0.8626849315347566
0.6589671 0.44890624012652075 0.8594104316798633
0.660967 0.4535941969458522 0.8561204003964056
0.6629669 0.45845920735191525 0.8524546834478127
0.6649668 0.4637958525173058 0.8492352742499114
0.6669667 0.46905686856160683 0.8450514872502563
0.6689666 0.4747275934948058 0.8411855345547984
0.6709665 0.47998860385174413 0.8369313294067415
0.6729664 0.485112112407331 0.8327067962077225
0.6749663 0.49068257414672334 0.8283755090578505
0.6769662 0.4962717221147642 0.8240710031342766
0.6789661 0.5013920114066622 0.8193635637592538
0.680966 0.5076638734226843 0.8146149866918274
0.6829659 0.513697966952244 0.8102134234303279
0.6849658 0.5194364737396757 0.805970318362594
0.6869657 0.5263966578366024 0.8018032403102935
0.6889656 0.5325786409085892 0.7972846237106996
0.6909655 0.5390057575194485 0.7935587123493075
0.6929654 0.5455935322200017 0.7890554208545774
0.6949653 0.551538768716557 0.7855400668294622
0.6969652 0.5582427920742122 0.7812270431708583
0.6989651 0.5643280952138597 0.7774611293189181
0.700965 0.5707728789766178 0.7731899632738186
0.7029649 0.5766137095959032 0.7700435151832313
0.7049648 0.5828902126420937 0.7663984105261011
0.7069647 0.5886146308634231 0.7627245745190083
0.7089646 0.5948966250908374 0.7590067749324184
0.7109645 0.6002082454129439 0.7556739295764353
0.7129644 0.6051618867214621 0.7522462031162547
0.7149643 0.610489659990956 0.748659426739067
0.7169642 0.6159657493781854 0.7453409580385065
0.7189641 0.6203700777463144 0.7416492282318977
0.720964 0.6253487007510097 0.7380801991773758
0.7229639 0.6306356672484816 0.7336529036240943
0.7249638 0.6353567994524546 0.7301510495405698
0.7269637 0.6398369675021571 0.7260972206965632
0.7289636 0.6438950483622876 0.7224095506638105
0.7309635 0.6487310964728318 0.7180786466328891
0.7329634 0.653155746175603 0.7136250842666308
0.7349633 0.6568994686781342 0.7088605472668418
0.7369632 0.6615717267911909 0.7045619627915128
0.7389631 0.6657695775081498 0.6995214680023096
0.740963 0.6695907991857921 0.6943919837222233
0.7429629 0.6738740483974207 0.6886039279644668
0.7449628 0.6781173313959125 0.6831777058435594
0.7469627 0.6826674748585397 0.6775422400185198
0.7489626 0.6871974583308158 0.6717038216886477
0.7509625 0.6914892478762171 0.6660135482928939
0.7529624 0.6963291907695908 0.6601492686898709
0.7549623 0.7009357747709808 0.6546553911264259
0.7569622 0.7055087314081641 0.6486406943733114
0.7589621 0.7109944476935264 0.6427867273507125
0.760962 0.715670816816391 0.6369189965304647
0.7629619 0.7206797979262265 0.6313906959035417
0.7649618 0.7259244032419169 0.625558656130113
0.7669617 0.7310257972043896 0.6197289952612083
0.7689616 0.7363773704896948 0.6143763805880865
0.7709615 0.7408172594614563 0.6086156951846236
0.7729614 0.7458253061848161 0.6036907753747371
0.7749613 0.7506623685754282 0.5982772778456147
0.7769612 0.7556335619298035 0.5927972123802712
0.7789611 0.760541009881736 0.5879540797001809
0.780961 0.7651845334850539 0.5830100222066021
0.7829609 0.7695347203217053 0.5781232948557249
0.7849608 0.7741755703750735 0.5731458456498286
0.7869607 0.7784439763101103 0.5684378891035989
0.7889606 0.7827311779841594 0.5632627375496966
0.7909605 0.7870492167842535 0.5585031482519128
0.7929604 0.7913659687596063 0.5536488141401678
0.7949603 0.7950452510014662 0.5486894798431391
0.7969602 0.7988013903305344 0.5437426553274607
0.7989601 0.8027612862081703 0.5380617137388124
0.80096 0.8058207458888927 0.5333658135219679
0.8029599 0.8093771147109844 0.5279953946283505
0.8049598 0.812194665989529 0.5226650610014716
0.8069597 0.8154468334000144 0.5173898102341742
0.8089596 0.8186784369917424 0.5114210831099623
0.8109595 0.8209818434796288 0.5051451428844467
0.8129594 0.8242200977222216 0.49886224799301226
0.8149593 0.8268916607765017 0.493114597179632
