! Created with skrf 1.8.0 (http://scikit-rf.org).
# GHz S RI R 50.0 
!freq ReS11 ImS11
0.001 -1.1294826803477056 0.11255606439611532
0.0029999 -0.9404693756768787 0.03375392831915025
0.0049998 -0.9541946869207869 0.022186494065848494
0.0069997 -0.9562743225365036 0.022252082293442776
0.0089996 -0.9593832941933799 0.02674875311097963
0.0109995 -0.9610370863842721 0.0340696462538671
0.0129994 -0.9622160136564899 0.04079400106708475
0.0149993 -0.9629787050923282 0.04844936778199782
0.0169992 -0.963551176596995 0.05494592894443562
0.0189991 -0.9637670658599529 0.06198240390663001
0.020999 -0.963897469756152 0.06898325123924443
0.0229989 -0.963522127706377 0.07626772464823695
0.0249988 -0.9628397844464383 0.08299655651891572
0.0269987 -0.962633514181352 0.0901036043079968
0.0289986 -0.9620366826020189 0.09685364932024629
0.0309985 -0.961329766473508 0.10350442948998198
0.0329984 -0.9603951835019457 0.11037146473322418
0.0349983 -0.9596120516751743 0.11710345706278408
0.0369982 -0.9583269600371624 0.12387390285537053
0.0389981 -0.9571096683510265 0.13035105901379773
0.040998 -0.956101347838989 0.13678765056940195
0.0429979 -0.9547927112620126 0.1432830784862144
0.0449978 -0.9534023608594864 0.1496853890193342
0.0469977 -0.9523667152721362 0.15637311952534133
0.0489976 -0.9507115526491942 0.16240457552874937
0.0509975 -0.9488853857800463 0.16906751801823067
0.0529974 -0.9479210592915588 0.17623695427810665
0.0549973 -0.9456945856942769 0.1830335676212086
0.0569972 -0.9446825820780075 0.18873665646603344
0.0589971 -0.942819563411244 0.19547320055142983
0.060997 -0.9418887845829622 0.20251591914508382
0.0629969 -0.9403469341011788 0.20801826843090607
0.0649968 -0.9382126881268125 0.2147876266657681
0.0669967 -0.937548442226319 0.22160997869323873
0.0689966 -0.935875485502375 0.22750535156381563
0.0709965 -0.9343836307902935 0.2339536148678007
0.0729964 -0.9327926845219934 0.2407035465766722
0.0749963 -0.93139890642239 0.2470355846821729
0.0769962 -0.9303478470519676 0.25332170407917387
0.0789961 -0.9283940556929362 0.2593010207030498
0.080996 -0.9264654087722577 0.26597774586321393
0.0829959 -0.9245276160166023 0.27249749171346693
0.0849958 -0.9232608767233255 0.27821249126619907
0.0869957 -0.9214880934235855 0.28486992125991684
0.0889956 -0.9195293161438756 0.290585210317463
0.0909955 -0.9176435622986517 0.2971296725573796
0.0929954 -0.9155788153344436 0.30314373870622874
0.0949953 -0.9135211299018998 0.30935361966039515
0.0969952 -0.9111578594361822 0.3152612781066394
0.0989951 -0.9090191565728697 0.3215656639431966
0.100995 -0.9078490464676476 0.3280824989894704
0.1029949 -0.9055041674180624 0.33424319948627557
0.1049948 -0.903411640772483 0.34030278103661715
0.1069947 -0.9005730551151352 0.34587872254504537
0.1089946 -0.8980469136673006 0.35188862113524977
0.1109945 -0.8951154688039036 0.3578525954963818
0.1129944 -0.8924123132845871 0.36389123072657337
0.1149943 -0.8892196471476566 0.3698661232980358
0.1169942 -0.8861649450763578 0.37605489822727173
0.1189941 -0.8833529231890428 0.3820383511405997
0.120994 -0.8801042039952747 0.38806638582687747
0.1229939 -0.877168012515665 0.3943969438928833
0.1249938 -0.8743011712652183 0.40044655079911906
0.1269937 -0.8711885339931593 0.4064933959947912
0.1289936 -0.868270537714756 0.41273385151217956
0.1309935 -0.8652935688402826 0.41884613713122637
0.1329934 -0.8623833339083734 0.4248783573347683
0.1349933 -0.8585802306911202 0.4303822075775124
0.1369932 -0.8556136419248959 0.4365278389549348
0.1389931 -0.8527583946171586 0.4429614917369684
0.140993 -0.8494652674429146 0.44857186836680696
0.1429929 -0.8457964325074531 0.45450739974262844
0.1449928 -0.8435171587599408 0.4609833852324268
0.1469927 -0.8401292768894597 0.4666663454665287
0.1489926 -0.8371494128797694 0.47231313558294163
0.1509925 -0.8337363283902893 0.47792336870187296
0.1529924 -0.8304923520252463 0.4839108469104163
0.1549923 -0.8279316349451655 0.49003242345250736
0.1569922 -0.8243867282380606 0.4952698364052902
0.1589921 -0.821116048884503 0.50142279578346
0.160992 -0.8177495888784256 0.5071738533726711
0.1629919 -0.814235362825276 0.5124511410837089
0.1649918 -0.810683110316461 0.5181371111822045
0.1669917 -0.8076702684981254 0.5234408872469369
0.1689916 -0.8042790787560307 0.5290579974212952
0.1709915 -0.8006999344067206 0.5346975711645751
0.1729914 -0.7967267885323663 0.5397652128064713
0.1749913 -0.7934259289369952 0.5454783867106785
0.1769912 -0.7892274674082747 0.5507839770261722
0.1789911 -0.7861087336530206 0.5561411504366696
0.180991 -0.7819113427496112 0.5614355156011264
0.1829909 -0.7778223950455638 0.5666581717509306
0.1849908 -0.7738154867108665 0.572155048651416
0.1869907 -0.7697655267832624 0.5774362206235134
0.1889906 -0.7657139333991859 0.5826605238031485
0.1909905 -0.7614780525125229 0.5880226114160291
0.1929904 -0.757191542030564 0.5934778504800673
0.1949903 -0.7528882656563745 0.5987381327136292
0.1969902 -0.748465277585966 0.6039188887031919
0.1989901 -0.7442784019409757 0.60895249365635
0.20099 -0.7397504875925575 0.6147218858374258
0.2029899 -0.7353067488100253 0.6196967431038359
0.2049898 -0.7308689751810262 0.624790303481368
0.2069897 -0.7263403817328344 0.6296573650149333
0.2089896 -0.7219100418180319 0.6347628044718235
0.2109895 -0.717528703661427 0.6396661913712847
0.2129894 -0.7129801766899908 0.645073865231029
0.2149893 -0.7082597118465799 0.6501386598157269
0.2169892 -0.7037353446936235 0.6548650734973311
0.2189891 -0.699040705612459 0.6603190004701941
0.220989 -0.6947743404063687 0.6650569534074872
0.2229889 -0.6898083928091742 0.6695636643055426
0.2249888 -0.6848680624184766 0.674499591856227
0.2269887 -0.680080639271475 0.6790060277777755
0.2289886 -0.6752874933016251 0.6838785413425178
0.2309885 -0.6702992914715021 0.6893114325770263
0.2329884 -0.6659075317084934 0.6936841373229571
0.2349883 -0.6607052233216257 0.6982911550144281
0.2369882 -0.655808370716819 0.7031695196638924
0.2389881 -0.6508427898098564 0.707820781022253
0.240988 -0.6459485712856952 0.712594844376962
0.2429879 -0.6411346457169799 0.7171015880887837
0.2449878 -0.6361200872522498 0.7217697122882067
0.2469877 -0.6310110200462159 0.7263873092249247
0.2489876 -0.6258635933121387 0.7308091747033079
0.2509875 -0.6211258898169995 0.7358656529216393
0.2529874 -0.6160157801360663 0.7403368825839475
0.2549873 -0.6112807072774364 0.7449468854132795
0.2569872 -0.6060910486966682 0.7495002590494454
0.2589871 -0.600979468096526 0.7542326278311825
0.260987 -0.5958766576612484 0.7584611875297514
0.2629869 -0.5907580151923747 0.7630154574475417
0.2649868 -0.585688145025734 0.7668712676554789
0.2669867 -0.5807882620259983 0.7710611339150608
0.2689866 -0.575422338561193 0.7751405576070612
0.2709865 -0.5704203580523665 0.7793421855488937
0.2729864 -0.5653150279251301 0.7829696772848522
0.2749863 -0.560038771017829 0.7869641744403506
0.2769862 -0.5547208654301935 0.791019564712944
0.2789861 -0.5497322957634704 0.7945031543111587
0.280986 -0.544407421245581 0.7973841600022412
0.2829859 -0.538883858973221 0.8008355784925483
0.2849858 -0.5332724359460653 0.8043318869406426
0.2869857 -0.5276704447190401 0.8076516029106489
0.2889856 -0.522157158923674 0.8110576025550033
0.2909855 -0.5161960767948869 0.8142322463178668
0.2929854 -0.5104546674106606 0.8173960859518136
0.2949853 -0.5042655779423322 0.8202814168310733
0.2969852 -0.4983432133326823 0.8234807181350491
0.2989851 -0.49230598818700105 0.8264048815157019
0.300985 -0.4860724131515593 0.8291047302380442
0.3029849 -0.47936674560380205 0.8318278332640743
0.3049848 -0.47279941661140223 0.8348578320717219
0.3069847 -0.46594888617042607 0.8379650751898345
0.3089846 -0.459357268777005 0.8404320657910902
0.3109845 -0.4525712596139977 0.8435099210482696
0.3129844 -0.4457841614219581 0.8466338849225244
0.3149843 -0.43889033083320983 0.8495189979595951
0.3169842 -0.4317441679298337 0.8526180497497075
0.3189841 -0.4249401050199533 0.8554579068431507
0.320984 -0.41769224759060797 0.858341767640878
0.3229839 -0.41074654055931087 0.8618532593626596
0.3249838 -0.4041071510650534 0.8644996301581408
0.3269837 -0.39681517138619044 0.8674709592832968
0.3289836 -0.38989547534885927 0.8706238614944409
0.3309835 -0.38294281078374676 0.8736855546406171
0.3329834 -0.37665908379040497 0.8766785323458408
0.3349833 -0.36989934285933745 0.8807987795386749
0.3369832 -0.36405811139489447 0.8845151186501712
0.3389831 -0.3576060267587637 0.8882487086734179
0.340983 -0.3512221299414747 0.8921535617878005
0.3429829 -0.3452282552781925 0.895763901150244
0.3449828 -0.33916412416962793 0.8994378166949315
0.3469827 -0.333321378462709 0.902995973516423
0.3489826 -0.32713190201022735 0.9058559513005986
0.3509825 -0.32106294480231573 0.909261889041111
0.3529824 -0.3150335826892817 0.9124127206620913
0.3549823 -0.30922430755085645 0.914998632212449
0.3569822 -0.3032737394317192 0.9179518191318796
0.3589821 -0.2973618170327078 0.9202966860257378
0.360982 -0.29126148620383296 0.9229407851161285
0.3629819 -0.2855420628355225 0.9251412253001616
0.3649818 -0.27931882878484326 0.9265546578080426
0.3669817 -0.27326986329799585 0.9281212680741033
0.3689816 -0.2668368991493616 0.9300860527643946
0.3709815 -0.26063668277245694 0.9315797293287704
0.3729814 -0.25409966246063076 0.9327065471416621
0.3749813 -0.2477584997632916 0.933893303885071
0.3769812 -0.2416284605506166 0.9350082404726783
0.3789811 -0.23468024771755935 0.9361689083832683
0.380981 -0.2275148534874614 0.9370959904094661
0.3829809 -0.22066553654675064 0.9385189799353617
0.3849808 -0.21366406432081345 0.9393383844810521
0.3869807 -0.20636953925029422 0.9397407843012313
0.3889806 -0.19895495344032726 0.9410759098573099
0.3909805 -0.19142369243892962 0.9419921178587185
0.3929804 -0.18362288844624236 0.9431836978496034
0.3949803 -0.17577430263131727 0.9441120812650259
0.3969802 -0.16847228025881378 0.9457404112650859
0.3989801 -0.16102685800020128 0.9463891215840401
0.40098 -0.15305581919631858 0.9480174220368108
0.4029799 -0.14541399979935535 0.9494715315936838
0.4049798 -0.13784942239544387 0.9504669332198308
0.4069797 -0.13034262722061574 0.9519822669507115
0.4089796 -0.12253633101026414 0.9533416967515177
0.4109795 -0.11532667547334374 0.9549866615502728
0.4129794 -0.10743553836243745 0.9564926061149327
0.4149793 -0.09990725482380008 0.9580871579007555
0.4169792 -0.09277275806258442 0.9595943134661434
0.4189791 -0.08551942447761542 0.9609025826457605
0.420979 -0.07847827171132114 0.9623144111516422
0.4229789 -0.07155281173941008 0.9635482460331817
0.4249788 -0.0646389759266531 0.964983040797539
0.4269787 -0.05793043842312803 0.9660300165681894
0.4289786 -0.05136115849863049 0.966981103222022
0.4309785 -0.04448715832627709 0.9676595229821944
0.4329784 -0.037688777575184546 0.9680385366682682
0.4349783 -0.0308698239472426 0.9677841162728836
0.4369782 -0.024450658664602786 0.9683510984434515
0.4389781 -0.017785425664534102 0.9684068473182831
0.440978 -0.011295120266026606 0.9679628121114713
0.4429779 -0.004564066609647723 0.9679014476122606
0.4449778 0.001967386572271891 0.9676577840746159
0.4469777 0.008935909207155888 0.9665525373434213
0.4489776 0.016107005030523924 0.9662337076529538
0.4509775 0.023353644715131933 0.9654549234342488
0.4529774 0.030641871370450727 0.9642838796648853
0.4549773 0.03810166781934437 0.9632115267043276
0.4569772 0.045461898991408345 0.9621564106553644
0.4589771 0.053210225405776725 0.9610963144556843
0.460977 0.061570923338588275 0.9602317684109464
0.4629769 0.06881368397155203 0.9590660901089498
0.4649768 0.07693267970314825 0.9583760187600506
0.4669767 0.08468077874075222 0.9572097671199963
0.4689766 0.09258270619989012 0.9565371079955188
0.4709765 0.1004261633076527 0.9554289418922475
0.4729764 0.10860457736793422 0.9547153517030603
0.4749763 0.11651967554754941 0.9540741511411728
0.4769762 0.12470219395885437 0.9534705008694183
0.4789761 0.1332894664654544 0.952961359757731
0.480976 0.14131284322657675 0.9523162426899692
0.4829759 0.14894404626737373 0.9515638817911628
0.4849758 0.15650822057128416 0.9512746922885973
0.4869757 0.16488521203281936 0.9507883273817265
0.4889756 0.17251519873490148 0.9501819744163029
0.4909755 0.18020618460954382 0.9498653639422545
0.4929754 0.18760212624017972 0.9494557224633138
0.4949753 0.19459564155725095 0.9489938425277622
0.4969752 0.20180452622359868 0.9480249670452054
0.4989751 0.20868583033509114 0.9473162298074467
0.500975 0.2151661974471852 0.9461801420843576
0.5029749 0.22203056370703783 0.9453871631335928
0.5049748 0.22881147211616204 0.9440530333233672
0.5069747 0.23510477343282143 0.9426730867157843
0.5089746 0.2420685564704238 0.9413904610908459
0.5109745 0.24893090250178324 0.9395955273676413
0.5129744 0.2559470374417342 0.9380001761157576
0.5149743 0.26243141478092374 0.9359669137748708
0.5169742 0.26853156541923406 0.9334451328503515
0.5189741 0.2755532582701784 0.9307661179553721
0.520974 0.28283873167434115 0.9279261903054193
0.5229739 0.28976185188490067 0.9253494139324572
0.5249738 0.2962816551451116 0.9226301884902878
0.5269737 0.3030438931031501 0.9197976116570972
0.5289736 0.3098463867458468 0.9163620060935439
0.5309735 0.3160529583932065 0.9132043492978156
0.5329734 0.32331727692930173 0.9099791855129069
0.5349733 0.3300502552784871 0.9064514357705558
0.5369732 0.33718459846747423 0.9035987768862408
0.5389731 0.3446918240203979 0.9002237406444026
0.540973 0.3518333369866895 0.8965622483550618
0.5429729 0.35907187150373177 0.8934289147295883
0.5449728 0.3664863556810044 0.8903899221601888
0.5469727 0.37415229590201815 0.8872929799678346
0.5489726 0.3817501693785284 0.8843906380107981
0.5509725 0.38939646220777396 0.8810304141848658
0.5529724 0.39697699586745216 0.877967880579775
0.5549723 0.4045904962414846 0.8751199458689333
0.5569722 0.4119611862583761 0.8723178146653566
0.5589721 0.4197642123790823 0.8692718398902928
0.560972 0.42705848358593385 0.866536102362622
0.5629719 0.434542163380139 0.8637762908998338
0.5649718 0.44185027614761857 0.8612493235995978
0.5669717 0.44903240014556756 0.8580131614376991
0.5689716 0.45543252346636426 0.8552601448766296
0.5709715 0.4619976552489206 0.852260762684257
0.5729714 0.46839258359493907 0.8489849458030017
0.5749713 0.47539903351879287 0.8456256385114505
0.5769712 0.48193604673668433 0.8423357460074253
0.5789711 0.48799617310170346 0.8396440040797589
0.580971 0.49423732783590757 0.8364938160463429
0.5829709 0.5003365145755791 0.8329643278311154
0.5849708 0.506276970389666 0.8291599245694724
0.5869707 0.5124209983224611 0.8252423491576211
0.5889706 0.5184511549660044 0.8207535438810085
0.5909705 0.5243073545519955 0.8162853227811636
0.5929704 0.5304291839076254 0.8118163107331815
0.5949703 0.5361595779723362 0.8073790772996323
0.5969702 0.5423006319976875 0.8032228304070194
0.5989701 0.5484249592043241 0.7981703627799309
0.60097 0.5541370387287855 0.7931387613645994
0.6029699 0.5603816247374176 0.7880535645798229
0.6049698 0.5666655286755287 0.7832440030656252
0.6069697 0.5723718189062448 0.7780554785194116
0.6089696 0.5787612017284043 0.7728357625078
0.6109695 0.5855039914411814 0.767339439590694
0.6129694 0.5918456750165381 0.7624768244858906
0.6149693 0.5986228865541954 0.7573621388632248
0.6169692 0.6052176633549644 0.7519480839356577
0.6189691 0.6114618215925126 0.7470845796980797
0.620969 0.618168618221206 0.7415347055238846
0.6229689 0.6247710231135819 0.7366133489562627
0.6249688 0.6308332646883256 0.7315875062825683
0.6269687 0.6377406204633006 0.7262965284173344
0.6289686 0.6438421330512049 0.7215263047878099
0.6309685 0.6504691858222068 0.7168533047791813
0.6329684 0.6564367133413023 0.7119599857912101
0.6349683 0.6621300783540989 0.7067645986056282
0.6369682 0.6678732063860745 0.7019905831287506
0.6389681 0.6740663016285356 0.6974383409623713
0.640968 0.68002197750587 0.6925226592437056
0.6429679 0.6854404095556337 0.688102166426383
0.6449678 0.6910370934007665 0.683128726951195
0.6469677 0.6963859481471563 0.6780803879122056
0.6489676 0.7014935965419041 0.6731811443295425
0.6509675 0.7061787867630823 0.6683238025505029
0.6529674 0.7113076799435191 0.6629038572425408
0.6549673 0.7162788767086599 0.6579155030969122
0.6569672 0.7205171137518835 0.6528083575456581
0.6589671 0.7256099509722727 0.6464626069720435
0.660967 0.7301692815508981 0.6407281791880732
0.6629669 0.734120796435379 0.6349481010561991
0.6649668 0.7393360597817901 0.629095868499669
0.6669667 0.7434500736321049 0.6222530770684771
0.6689666 0.7481715833080935 0.615850115115525
0.6709665 0.7527662143619197 0.609490178930654
0.6729664 0.7567263660894831 0.6028769929119489
0.6749663 0.7607786145762765 0.5962012304385245
0.6769662 0.7655913173199425 0.5889977042760312
0.6789661 0.7697584454141287 0.5826078836922657
0.680966 0.7747680162054577 0.5753076311977088
0.6829659 0.7793181419140583 0.5683414512832665
0.6849658 0.7837150978184144 0.5612156438213478
0.6869657 0.7891515065932526 0.5543573059942318
0.6889656 0.7939322648367849 0.5471994602860589
0.6909655 0.7989917489408173 0.5407462080102976
0.6929654 0.8035461847716416 0.533234351847817
0.6949653 0.8082088916297705 0.5267466871071518
0.6969652 0.8129659187959054 0.519653629512336
0.6989651 0.8172660588161227 0.5131440846497858
0.700965 0.8221773057044205 0.5059279935038621
0.7029649 0.8269097906747416 0.49961134800609575
0.7049648 0.8314176658587156 0.49305543025457027
0.7069647 0.8350852355290639 0.48633491165655074
0.7089646 0.8400684145572452 0.4795604427696259
0.7109645 0.8441009113054461 0.4730868807785132
0.7129644 0.8479681774860813 0.46687375320850005
0.7149643 0.8520234220581341 0.46041293619641865
0.7169642 0.8558218728641894 0.45396637329203476
0.7189641 0.8593824352107956 0.44769818778655246
0.720964 0.8629813738848051 0.4409008852046132
0.7229639 0.8664089563999484 0.4339055598363536
0.7249638 0.8701352529408134 0.42749375427894076
0.7269637 0.873225171762111 0.42106591551472794
0.7289636 0.8763122354905828 0.41417208539041234
0.7309635 0.879173977899385 0.40760591624860987
0.7329634 0.8825694023296515 0.40028391686513864
0.7349633 0.8845767808642359 0.3930389744301478
0.7369632 0.8874112593704303 0.3857797297171741
0.7389631 0.8902432974819497 0.3785417147693538
0.740963 0.892779027088534 0.37153231878641013
0.7429629 0.8954861448618502 0.3638771079066451
0.7449628 0.8978259220965688 0.35558184648884417
0.7469627 0.900221404850533 0.34798320641842034
0.7489626 0.9030663970846851 0.34009632949751356
0.7509625 0.9052253998842728 0.33272308682735163
0.7529624 0.907682321607473 0.3245759197940338
0.7549623 0.9104667996672058 0.31684559089624753
0.7569622 0.9122622693724995 0.3088501323781919
0.7589621 0.9151245520006427 0.30103881259054865
0.760962 0.9176300621877045 0.2928746973439289
0.7629619 0.9198789650305708 0.2855526559468094
0.7649618 0.9227828826211509 0.2775262684897773
0.7669617 0.9246329912480014 0.26942497259857306
0.7689616 0.927209006996878 0.26163263992833
0.7709615 0.9290678450275535 0.2542091517254412
0.7729614 0.9317580595671255 0.24682958991864307
0.7749613 0.9336393006019658 0.23889490626445908
0.7769612 0.9362246910625698 0.23123018079029362
0.7789611 0.9381642069061166 0.2239178366458926
0.780961 0.9403606851368763 0.21634115461618592
0.7829609 0.9418072948873406 0.20895939496739943
0.7849608 0.9441167408526168 0.20149466552747436
0.7869607 0.9459564381381915 0.19419464330613773
0.7889606 0.947384993094238 0.18628162416667593
0.7909605 0.9490470244530769 0.17914568982312518
0.7929604 0.9504682503305839 0.17149663415961858
0.7949603 0.9520725311226559 0.16377015130639605
0.7969602 0.9530283302273925 0.15663497647693045
0.7989601 0.9543641535888996 0.14862528372990208
0.80096 0.9549793913657524 0.14110729894323704
0.8029599 0.9560688640760596 0.1337177497247466
0.8049598 0.9569886379701327 0.12605530793369546
0.8069597 0.9577771566516982 0.11822619255681305
0.8089596 0.9584568498951105 0.11046664680230614
0.8109595 0.9586149114977778 0.10244622535177306
0.8129594 0.9594700194956252 0.0943788574678288
0.8149593 0.9601941925527618 0.08656132958154367
