! Created with skrf 1.8.0 (http://scikit-rf.org).
# GHz S RI R 50.0 
!freq ReS11 ImS11
0.001 -1.0153773991664443 0.01562033329415732
0.0029999 -0.9665830246345997 0.01639802458773232
0.0049998 -0.9578722590001958 0.017365073002064912
0.0069997 -0.961867900950234 0.0223162632730165
0.0089996 -0.9618338609502728 0.027617670361139435
0.0109995 -0.9602220611655004 0.03333273734874076
0.0129994 -0.9603485376350052 0.03878384350428221
0.0149993 -0.9603707949745539 0.04607921583447283
0.0169992 -0.9601694783536567 0.04984270345138597
0.0189991 -0.9600598730800091 0.055507735103531686
0.020999 -0.9596027936137254 0.06107782496553049
0.0229989 -0.959109284740804 0.06673927630745191
0.0249988 -0.95822788349397 0.072013048598382
0.0269987 -0.9579423419097967 0.07779633584244577
0.0289986 -0.9573076098048088 0.08312989922119225
0.0309985 -0.9563816960040885 0.08851912418462538
0.0329984 -0.9558127386481301 0.09422471928122728
0.0349983 -0.9552333140211846 0.09988228233502472
0.0369982 -0.9541814577050216 0.10542947461693397
0.0389981 -0.9531300696257731 0.11092121826200019
0.040998 -0.9526016474111563 0.11645845529144844
0.0429979 -0.9513935304506878 0.12180204190239474
0.0449978 -0.9504416452209747 0.12729631916292916
0.0469977 -0.9500340953103623 0.13266995359353229
0.0489976 -0.9484719832529694 0.13814839704613552
0.0509975 -0.9469867326979227 0.14414007765661935
0.0529974 -0.9462743187895489 0.14989955189694143
0.0549973 -0.9444259524467857 0.15619306016289175
0.0569972 -0.9439620407592217 0.16116551021377704
0.0589971 -0.9426210686458345 0.16685395707103054
0.060997 -0.9418731309326793 0.1730717408963776
0.0629969 -0.9409067019775679 0.17808089169073976
0.0649968 -0.9390699491324914 0.18394904331651393
0.0669967 -0.9389338215272772 0.18992818308885648
0.0689966 -0.9375997880256152 0.19507147071574402
0.0709965 -0.9366613087146565 0.2005098177747064
0.0729964 -0.9354307286708512 0.20676232713768916
0.0749963 -0.9342105663253069 0.21223463286283634
0.0769962 -0.9335880644789272 0.21738597603265178
0.0789961 -0.9322584041489984 0.22270318850997284
0.080996 -0.9307170112078939 0.22817231830984058
0.0829959 -0.929327565117094 0.23393302017469148
0.0849958 -0.9287150440309682 0.23855206581531907
0.0869957 -0.9273943905716633 0.24440486848169968
0.0889956 -0.9257080170741611 0.2491734375126296
0.0909955 -0.9243890145071375 0.25474630628124556
0.0929954 -0.9227235643174175 0.25975353244092997
0.0949953 -0.9214088851017207 0.2650816178363866
0.0969952 -0.9195703397181483 0.2701372220884415
0.0989951 -0.9179625521063011 0.27500619032573204
0.100995 -0.9172602725731446 0.2808553732755692
0.1029949 -0.9153609806401233 0.2859334931430067
0.1049948 -0.9138865515051232 0.29106726833227226
0.1069947 -0.9118946455155322 0.29598072362756994
0.1089946 -0.9098872629012892 0.3010144117325353
0.1109945 -0.9077934480306049 0.30617580458386706
0.1129944 -0.9057072100312062 0.3112264867680037
0.1149943 -0.9033592951691598 0.3162046209304362
0.1169942 -0.9009339441833271 0.32149793775539975
0.1189941 -0.8989500463456321 0.32684243931238854
0.120994 -0.8964061853279897 0.33196702588027893
0.1229939 -0.8942259306093524 0.33751781923728885
0.1249938 -0.8920286144090994 0.3428581063348285
0.1269937 -0.8897602874443369 0.3477599338900462
0.1289936 -0.8876976453593303 0.3537152349899182
0.1309935 -0.8853234200019426 0.35901459243032596
0.1329934 -0.8831765937184836 0.3642163408337056
0.1349933 -0.8805318758619725 0.3693535298259063
0.1369932 -0.8783336295264165 0.37476050262375005
0.1389931 -0.876475977805332 0.38000002360739704
0.140993 -0.8739974008980461 0.3855494585982263
0.1429929 -0.8710761195871368 0.39024320981826777
0.1449928 -0.8695701507683953 0.39576893768059695
0.1469927 -0.8672882978923436 0.40098177692767584
0.1489926 -0.8646359394646032 0.40694907640706485
0.1509925 -0.862142690976843 0.4114825014984516
0.1529924 -0.8597740518316802 0.4168166442360023
0.1549923 -0.8580729815771772 0.422371757727167
0.1569922 -0.8556229018163585 0.42688138453645263
0.1589921 -0.8529955289581393 0.432423676510102
0.160992 -0.8504184501693751 0.437211527825868
0.1629919 -0.8479629700637439 0.442342028767869
0.1649918 -0.8455113929897665 0.4470318051364402
0.1669917 -0.8430565642024721 0.45181432790241904
0.1689916 -0.8407985625113965 0.4569329558254553
0.1709915 -0.837940053054849 0.4618284135936471
0.1729914 -0.8349932711128722 0.4663677650108089
0.1749913 -0.8326945837985211 0.47111727419915456
0.1769912 -0.8298112851052828 0.4758739969608698
0.1789911 -0.8271930416017073 0.4806162618125319
0.180991 -0.8242249962023263 0.4854003173206281
0.1829909 -0.8212295916090163 0.48990432856319027
0.1849908 -0.8182610181027696 0.4948638578398663
0.1869907 -0.8153639922156133 0.49916756247946736
0.1889906 -0.8121007720766935 0.5041440345073207
0.1909905 -0.8090918951997308 0.5089267439411003
0.1929904 -0.8059872377179531 0.5135522844137452
0.1949903 -0.8026202440828244 0.5182098427062758
0.1969902 -0.7992891569731804 0.5229091142488436
0.1989901 -0.7962420866912501 0.5280738736708309
0.20099 -0.7931196667825247 0.5328185394579927
0.2029899 -0.789901196751105 0.5371467354185293
0.2049898 -0.7861838276311237 0.541751360996976
0.2069897 -0.7832747745522515 0.5463105212999793
0.2089896 -0.7794628012200132 0.5511458929962406
0.2109895 -0.7765892810987842 0.5558177291672329
0.2129894 -0.7731837425199832 0.5606498464930503
0.2149893 -0.7697762129128518 0.5652051226296692
0.2169892 -0.7662513589856708 0.5699096328596597
0.2189891 -0.7627659090204665 0.5746701000086832
0.220989 -0.7595775391080094 0.579255169603483
0.2229889 -0.756277583007801 0.5836054909755297
0.2249888 -0.752313411728715 0.5883913269788075
0.2269887 -0.7487085912922987 0.5925552996790543
0.2289886 -0.7448519682210011 0.5975601235909657
0.2309885 -0.7416074889913032 0.6022836341240195
0.2329884 -0.7378934540186403 0.6062995659972282
0.2349883 -0.734474589957073 0.6109129885320377
0.2369882 -0.7306245975857428 0.6152516873094784
0.2389881 -0.7268906232079071 0.6198891401692324
0.240988 -0.7231349498883424 0.6242254329687257
0.2429879 -0.7198261888943355 0.6286493471971851
0.2449878 -0.7160421590275415 0.632959183330216
0.2469877 -0.7121572533013497 0.6373848961755129
0.2489876 -0.7082910159373265 0.6416989640833162
0.2509875 -0.7046663095366603 0.6461667906642404
0.2529874 -0.7012789099745972 0.6505402337684211
0.2549873 -0.6975154117312764 0.65495566460565
0.2569872 -0.6936957003959872 0.6592952207965211
0.2589871 -0.6900300824179072 0.663786039326106
0.260987 -0.6865002006671121 0.6677515805134813
0.2629869 -0.682699726105103 0.6717164153284968
0.2649868 -0.6786677018966303 0.675936496821556
0.2669867 -0.6751182617301621 0.6798463526981701
0.2689866 -0.6710958181928024 0.6838215382322745
0.2709865 -0.6675400986075268 0.6877470579846929
0.2729864 -0.6634780621228794 0.6916492047229109
0.2749863 -0.6598286777439915 0.6952982960789813
0.2769862 -0.6559040280310973 0.6991101999071339
0.2789861 -0.6520908692730786 0.7026882868565338
0.280986 -0.6481565971089907 0.7061159341480416
0.2829859 -0.643438321395463 0.7093976707578052
0.2849858 -0.639662513265005 0.7124458313537984
0.2869857 -0.6354089911569025 0.7160961380335766
0.2889856 -0.630720946315209 0.7194507195544807
0.2909855 -0.6266628021320769 0.7231982939084168
0.2929854 -0.6220296774672592 0.7263207492610393
0.2949853 -0.6173590005514465 0.7295845959980034
0.2969852 -0.6126561305148188 0.7330819433980887
0.2989851 -0.6080686313254348 0.7362198146396879
0.300985 -0.6031310702202312 0.739190687571835
0.3029849 -0.5980987547832506 0.7426066852559357
0.3049848 -0.5930159993673657 0.7457902626995369
0.3069847 -0.5875967695161533 0.7491404089545485
0.3089846 -0.5824744824551422 0.7521961946922525
0.3109845 -0.577432776983114 0.7556156378282914
0.3129844 -0.5717451409499645 0.7590561310433717
0.3149843 -0.5663497193519816 0.7630341587862852
0.3169842 -0.560994119174876 0.7663796894241346
0.3189841 -0.555910303739291 0.7695492700594453
0.320984 -0.5498968398403126 0.7729195121391275
0.3229839 -0.544567265708457 0.7765724170063202
0.3249838 -0.5394965715327881 0.7799829729634795
0.3269837 -0.5340416522461636 0.7833879324306977
0.3289836 -0.5287254491903044 0.7871749507096617
0.3309835 -0.5234914268361328 0.7908233643526659
0.3329834 -0.5186407371454502 0.7942053302045601
0.3349833 -0.5134966925686703 0.7983519506141767
0.3369832 -0.5094340535311742 0.8029490846334223
0.3389831 -0.5043885783554419 0.8068243254657622
0.340983 -0.4999732503080731 0.8110783339423215
0.3429829 -0.49550795531287867 0.8152774490376259
0.3449828 -0.4905805637618756 0.818937628272746
0.3469827 -0.4868818991310987 0.8226038504374491
0.3489826 -0.482136346404374 0.8261011257503894
0.3509825 -0.47767855185613856 0.8293338847107055
0.3529824 -0.4730502223817399 0.8331430741934559
0.3549823 -0.46848030356457754 0.8363193384778363
0.3569822 -0.4643998117833634 0.8392141781217877
0.3589821 -0.4596656939783859 0.8423494755008769
0.360982 -0.4554210090324256 0.8454082937433324
0.3629819 -0.45100025513821584 0.8478649085506981
0.3649818 -0.446125771783339 0.8500747022615368
0.3669817 -0.44150437711521817 0.852364229480217
0.3689816 -0.4367946708032151 0.8544485618698536
0.3709815 -0.43161350845569224 0.8566915367721636
0.3729814 -0.4263363653350759 0.8591034643546615
0.3749813 -0.42144216421894587 0.8607129303198735
0.3769812 -0.41642986240288277 0.8627071712011691
0.3789811 -0.41133058789462373 0.8647344978966647
0.380981 -0.405426301619396 0.8663399421655288
0.3829809 -0.39968792642762485 0.8682792863818062
0.3849808 -0.39429441578655083 0.8708712339754431
0.3869807 -0.3885609980545926 0.8722758249136342
0.3889806 -0.38212921588961807 0.8747087465892934
0.3909805 -0.3760960655361456 0.8765056528244727
0.3929804 -0.37015312970956166 0.878713123277038
0.3949803 -0.364140743760697 0.8809514707625348
0.3969802 -0.35749191534716007 0.8834179160943314
0.3989801 -0.35121427120688414 0.885549553298939
0.40098 -0.34555858673429585 0.8879236321478132
0.4029799 -0.3394321904957547 0.8904456642577451
0.4049798 -0.3329405404097548 0.8933542878657226
0.4069797 -0.32733975432345774 0.8954691725501681
0.4089796 -0.3212644096770346 0.8980326931865422
0.4109795 -0.31507083956410215 0.900692358644129
0.4129794 -0.3097933454557935 0.9034240505339526
0.4149793 -0.30351980456660654 0.90638504909467
0.4169792 -0.2979590898921502 0.908613424972934
0.4189791 -0.2922977341833028 0.911040976399194
0.420979 -0.2868277078476099 0.913587310402924
0.4229789 -0.28143180659939865 0.9158919960316497
0.4249788 -0.2760785619216245 0.91854322931528
0.4269787 -0.2709664864567722 0.9206643621718321
0.4289786 -0.2658834759630978 0.9225517560816174
0.4309785 -0.26057469643869524 0.9246796432958888
0.4329784 -0.2551852392574195 0.926061432515123
0.4349783 -0.24948461447570236 0.9270336380286074
0.4369782 -0.24463791370448582 0.9287602603429439
0.4389781 -0.23927043818617677 0.9300254840607559
0.440978 -0.23382810853818004 0.930894173981587
0.4429779 -0.22845479254621487 0.9320094527271315
0.4449778 -0.22308925415603573 0.9329684752118854
0.4469777 -0.21725306453491505 0.9334687172005177
0.4489776 -0.21152847754476578 0.9340314492070572
0.4509775 -0.205630731469799 0.9350959260881337
0.4529774 -0.19941027609215103 0.9355274469627919
0.4549773 -0.192991058978465 0.9362311004340176
0.4569772 -0.1865193408252757 0.9368922203585629
0.4589771 -0.1802314381571645 0.9370015888761815
0.460977 -0.17313053111398835 0.9380284459767384
0.4629769 -0.1667506138512174 0.939057023789871
0.4649768 -0.15996315629263802 0.9396393392452339
0.4669767 -0.1534270802547179 0.9404669067360678
0.4689766 -0.14661469758122925 0.9414116918170302
0.4709765 -0.13997521589865244 0.9423372108688935
0.4729764 -0.1328982802980361 0.9439011808884016
0.4749763 -0.1263577111420505 0.9450210661325574
0.4769762 -0.11963026348255075 0.9461413346553496
0.4789761 -0.11234979584981203 0.9477186524954894
0.480976 -0.1057790021954142 0.9489848674589718
0.4829759 -0.09906703261230447 0.9502863564621229
0.4849758 -0.0927311483483519 0.9517773109908987
0.4869757 -0.0863533125868794 0.9531523497904181
0.4889756 -0.07975845236640547 0.9543180615404269
0.4909755 -0.07343290272013193 0.956157730429057
0.4929754 -0.06730126010983538 0.9575549199942263
0.4949753 -0.061638390059996793 0.9586736890979832
0.4969752 -0.05589608982254078 0.9597857940856575
0.4989751 -0.050047099005142655 0.9606584594006675
0.500975 -0.04477019653751063 0.9611892279035887
0.5029749 -0.03933868955090508 0.9619396088127823
0.5049748 -0.03381595571417695 0.9627552234924525
0.5069747 -0.028720591017534523 0.9626488117147477
0.5089746 -0.023036497411065924 0.9631022155271582
0.5109745 -0.01715726100410801 0.9635052290549749
0.5129744 -0.011597083947561773 0.9636922213984498
0.5149743 -0.006400106537851599 0.9637192420425855
0.5169742 -0.0008883533290089257 0.9629090526111441
0.5189741 0.004979495181793164 0.9623111537235971
0.520974 0.011014689811522746 0.9618191437885261
0.5229739 0.01774186229303082 0.9614010396281168
0.5249738 0.023539902632921203 0.9607088130789831
0.5269737 0.029551070462281614 0.9597148122276004
0.5289736 0.03569084718036743 0.9588090622277272
0.5309735 0.041645131112034314 0.9580328110070153
0.5329734 0.04835804627941648 0.9566579951481096
0.5349733 0.055152585044804706 0.9556319643636093
0.5369732 0.06142407245465287 0.9544206440842337
0.5389731 0.06862107222392093 0.9536614257021017
0.540973 0.07562136244889192 0.9526222872575953
0.5429729 0.0826234900938066 0.9513291680199851
0.5449728 0.08948850704486888 0.9507109124365437
0.5469727 0.09622872829883573 0.9500685448178359
0.5489726 0.10332262972601788 0.9491413939802078
0.5509725 0.11031013328774236 0.9488324743977726
0.5529724 0.11746532178447736 0.9480113211141769
0.5549723 0.12455958033950976 0.9475828124602691
0.5569722 0.13145487238601222 0.9471293163716593
0.5589721 0.13828935209433535 0.9471743972138175
0.560972 0.14508942634508912 0.9470511097277343
0.5629719 0.15193550249620777 0.9467045292140048
0.5649718 0.15858903529152182 0.9467557805153769
0.5669717 0.16516168297455452 0.9464664369709072
0.5689716 0.17094819621452273 0.9459102693582669
0.5709715 0.17694729169991544 0.9452414411847986
0.5729714 0.1828887353859313 0.9444919905534568
0.5749713 0.18900104715266489 0.9438930513910747
0.5769712 0.1950966372334608 0.942926822894719
0.5789711 0.2005124431771654 0.9420744073172078
0.580971 0.20620842076746215 0.9414554856716343
0.5829709 0.21158249534615667 0.9403089643581197
0.5849708 0.21703154684743306 0.9391520141831939
0.5869707 0.22281439822963844 0.9378435399921772
0.5889706 0.22890615879466453 0.9356230770771997
0.5909705 0.23481147572420372 0.9337802906972411
0.5929704 0.2406552868379952 0.9314796876837723
0.5949703 0.24633481791080045 0.9294301127820115
0.5969702 0.2523130703073641 0.9275504784327957
0.5989701 0.2579200103487455 0.9252453340023479
0.60097 0.2643870435890219 0.9224539048375698
0.6029699 0.27059228515376427 0.9201197545068709
0.6049698 0.2765017829502864 0.9175383548701161
0.6069697 0.28298391687389945 0.9150389901650458
0.6089696 0.28995096308922935 0.9129826715130608
0.6109695 0.2964486868839486 0.9100008262260854
0.6129694 0.30318941542111866 0.9076966326321274
0.6149693 0.3100800804314651 0.9051183833565174
0.6169692 0.3167324826665011 0.9031157978144927
0.6189691 0.3238149698319249 0.900667926461655
0.620969 0.3305321105486024 0.8983661290802809
0.6229689 0.33736808319976613 0.895933547087252
0.6249688 0.34424496456169673 0.8939460677797967
0.6269687 0.3511845882818321 0.8921161802429827
0.6289686 0.3577459934112053 0.8900461458815088
0.6309685 0.36451452833143916 0.8885854280161158
0.6329684 0.3705851926855041 0.8867145897848046
0.6349683 0.377150699193319 0.8843191663491876
0.6369682 0.3831810114809141 0.8823548428119636
0.6389681 0.3896315640449999 0.8803753529081173
0.640968 0.3956144205167904 0.8788573138280974
0.6429679 0.4013198322173139 0.8772318001386913
0.6449678 0.4069194244603099 0.8750652976028627
0.6469677 0.4120362377032097 0.8729308895012462
0.6489676 0.4181664209315969 0.8710693604973303
0.6509675 0.4229140235068808 0.8686992908078844
0.6529674 0.4280925872831307 0.8659273739889021
0.6549673 0.4332425146677752 0.8638341732501167
0.6569672 0.43853454695892896 0.8611084267990845
0.6589671 0.44380168042532403 0.8580744379866894
0.660967 0.44860179442207365 0.854810715671286
0.6629669 0.453297823646898 0.851371726214735
0.6649668 0.45849370275295903 0.8475753186674669
0.6669667 0.4636178436386524 0.8440419999036397
0.6689666 0.46923256597913043 0.8402202711369979
0.6709665 0.47481830270030784 0.8359488546336293
0.6729664 0.479701071457176 0.831859856734567
0.6749663 0.485490091753215 0.8277923057792442
0.6769662 0.4909472336485687 0.8233541646530983
0.6789661 0.4960662090708608 0.818734135838108
0.680966 0.5021531056720524 0.8141024794388861
0.6829659 0.5082296871665894 0.8097012977970854
0.6849658 0.5142591066702918 0.8055486515086768
0.6869657 0.5208905853655103 0.8014856063014042
0.6889656 0.5270250916552957 0.7970510098580422
0.6909655 0.5334347715341069 0.7931890167718623
0.6929654 0.5400339904679788 0.7888307387067607
0.6949653 0.5459267954152506 0.7853251569860645
0.6969652 0.5525014767402037 0.7811870397750197
0.6989651 0.5586250811913814 0.7773990825256045
0.700965 0.5653179992040487 0.7731574760155864
0.7029649 0.5709828085291211 0.7700507400129509
0.7049648 0.577334189118035 0.7665387373034808
0.7069647 0.5830073396336111 0.7628564333018211
0.7089646 0.5892039862801951 0.7592442401474883
0.7109645 0.594592126381067 0.7560621573368956
0.7129644 0.5995969419185787 0.752587178869965
0.7149643 0.6049446567697266 0.7489663003529695
0.7169642 0.6104519225796977 0.745590783877397
0.7189641 0.6150537878609512 0.7421325383887211
0.720964 0.6194993378617585 0.7386976138695673
0.7229639 0.6250441102360182 0.7344192338406119
0.7249638 0.6300568365817681 0.7307645653702428
0.7269637 0.6346038865042046 0.7269111402315203
0.7289636 0.6384795845194007 0.723143587744549
0.7309635 0.6431777580625082 0.7191232776473535
0.7329634 0.6476355549885741 0.7144673440704612
0.7349633 0.6514091039700248 0.7097837856363008
0.7369632 0.6559808881846507 0.7058280364432459
0.7389631 0.6602850312576346 0.7007624619294214
0.740963 0.6637343960614615 0.6957865808246948
0.7429629 0.6685134611713004 0.6901096486784792
0.7449628 0.6724060944474798 0.6847205512727891
0.7469627 0.6770817545284294 0.6791048695956342
0.7489626 0.6816534632315644 0.6734155962685182
0.7509625 0.6855783046580476 0.6680128190596825
0.7529624 0.690621076514044 0.6622699292680456
0.7549623 0.6952592334412281 0.656955855877569
0.7569622 0.6998306818365734 0.6510182149603434
0.7589621 0.7053205458206008 0.6453883870436434
0.760962 0.7100254474140523 0.6396971093943845
0.7629619 0.7151773129829542 0.6342749457228928
0.7649618 0.7203656378192554 0.6284221326438971
0.7669617 0.7254235752111124 0.6227029809925924
0.7689616 0.7308815527117201 0.6170971189582022
0.7709615 0.7353384685009675 0.611798028953407
0.7729614 0.740426805885258 0.606812222113485
0.7749613 0.7450904257877238 0.6013428292607279
0.7769612 0.7501063926761962 0.5960480704344616
0.7789611 0.7549365902610592 0.5912433102590301
0.780961 0.7598043512054574 0.5863847024297919
0.7829609 0.7641122887920117 0.581470835971232
0.7849608 0.7686172576697132 0.5764820107734645
0.7869607 0.7730230617947664 0.5717904879276741
0.7889606 0.7772738027624786 0.566630396724596
0.7909605 0.7815987043947311 0.5619213245938728
0.7929604 0.7857448826191181 0.5571918290920826
0.7949603 0.7895498096269227 0.5522638933691687
0.7969602 0.7932646099698807 0.5474426003570372
0.7989601 0.7973928151786395 0.5417375410521155
0.80096 0.8003642312592681 0.5369654818153966
0.8029599 0.8040967452952921 0.5316561761707648
0.8049598 0.8069942367004102 0.5264284410193879
0.8069597 0.8101793653407937 0.5210514323957249
0.8089596 0.8133043136125276 0.5153215775559579
0.8109595 0.815764727428266 0.5089492358796783
0.8129594 0.818719124263183 0.5030461751757497
0.8149593 0.8214370247479534 0.4972975726988431
