! Created with skrf 1.8.0 (http://scikit-rf.org).
# GHz S RI R 50.0 
!freq ReS11 ImS11
0.001 -1.0682936761196034 0.3445388811398129
0.0029999 -0.9339980109051091 0.03803271992726864
0.0049998 -0.9495155570410672 0.02414785197486219
0.0069997 -0.9518658222212741 0.02455682619486471
0.0089996 -0.9553534219294838 0.030078531719177903
0.0109995 -0.9566911604002009 0.03702874842562365
0.0129994 -0.9582939144547626 0.04436085089054076
0.0149993 -0.9591023418465132 0.05339358604798705
0.0169992 -0.959551880093477 0.05945214268922394
0.0189991 -0.9598344701550527 0.0669578581452488
0.020999 -0.9598584829318998 0.07442893960768959
0.0229989 -0.9593684641367544 0.08216169282811675
0.0249988 -0.958554234037087 0.08937519967943608
0.0269987 -0.958275997452549 0.09701149149396722
0.0289986 -0.9576258359692292 0.1042501717006787
0.0309985 -0.9567407536129475 0.11132132116722024
0.0329984 -0.9556603958367147 0.1187129481825645
0.0349983 -0.9547357140850893 0.12589488517297515
0.0369982 -0.953272400856696 0.1331403814466317
0.0389981 -0.9518805926982885 0.14010865967047503
0.040998 -0.9506685734675258 0.14702915287335222
0.0429979 -0.9492461574550631 0.15403122581612122
0.0449978 -0.9476582922497814 0.16091249147807246
0.0469977 -0.9467832173479875 0.16797671254998342
0.0489976 -0.9446423266575118 0.17482169379105988
0.0509975 -0.9425635921461675 0.18182377724628912
0.0529974 -0.9413857645950872 0.18952021108376432
0.0549973 -0.9389966069447644 0.1966419714164343
0.0569972 -0.9376047307417975 0.20292871192094775
0.0589971 -0.9357476212753046 0.21006883069619656
0.060997 -0.9346049473315068 0.21758839744578623
0.0629969 -0.9328200252625864 0.22371268181281087
0.0649968 -0.9304012677455189 0.23087619314196717
0.0669967 -0.9294947040550168 0.23820365181433237
0.0689966 -0.9275506084656042 0.24462012122414317
0.0709965 -0.9258831039791422 0.25161130036226653
0.0729964 -0.9240065322513449 0.2587469414318883
0.0749963 -0.9223949201186599 0.2655449833232316
0.0769962 -0.9210888260394482 0.2723348751030345
0.0789961 -0.918842036380686 0.278754717531833
0.080996 -0.9165446757673923 0.2859712064389947
0.0829959 -0.9145492394951259 0.29281081746236515
0.0849958 -0.9128429410863577 0.29915945746940853
0.0869957 -0.9109191501634505 0.30611265567795304
0.0889956 -0.9087215697983515 0.3124756722003211
0.0909955 -0.9064803933425485 0.3191863154214058
0.0929954 -0.9041609197705298 0.32574194092362285
0.0949953 -0.901539553538845 0.3323899100867732
0.0969952 -0.8989451264181008 0.3386115491767211
0.0989951 -0.8965569995945802 0.3456646921895387
0.100995 -0.8950273036077683 0.3522218367430333
0.1029949 -0.892342522547282 0.358960798646065
0.1049948 -0.8898065455922355 0.3652671579577766
0.1069947 -0.8868756909067266 0.3714089044093898
0.1089946 -0.8836818576208583 0.377632572410322
0.1109945 -0.8803613735899465 0.38417338992454414
0.1129944 -0.877364693108864 0.39046468739167484
0.1149943 -0.8737536720343155 0.3965676396770924
0.1169942 -0.8702817753646022 0.403139807705844
0.1189941 -0.8670202187918769 0.409492476436362
0.120994 -0.8633126930504916 0.41585394668077436
0.1229939 -0.8598545498145606 0.42265523241831876
0.1249938 -0.8562842994979779 0.42911212086216466
0.1269937 -0.85327087339477 0.4352200624186078
0.1289936 -0.8495283638298136 0.4423325633962786
0.1309935 -0.8461159401693761 0.44869857538453434
0.1329934 -0.8426581201424488 0.455225361847591
0.1349933 -0.8385377863014463 0.46116361175043225
0.1369932 -0.8350280772737116 0.46736912894867627
0.1389931 -0.8315963992329626 0.4742738157170162
0.140993 -0.8278003202983235 0.48022216291642494
0.1429929 -0.8239068856492447 0.48657339096433005
0.1449928 -0.8207484619659469 0.49345134335245294
0.1469927 -0.8170458492001325 0.4992724260388515
0.1489926 -0.8135476107924128 0.5055883383118824
0.1509925 -0.8097351942953888 0.5112887656539011
0.1529924 -0.8059581721197941 0.5174676481874579
0.1549923 -0.8026000554046449 0.5241979604530576
0.1569922 -0.798896658181226 0.5297647587500282
0.1589921 -0.7949505801451057 0.536023002981788
0.160992 -0.791092546584325 0.5420526996650411
0.1629919 -0.7870359308700976 0.5479004805981409
0.1649918 -0.7829219192083463 0.5535061665214744
0.1669917 -0.7790896444580386 0.5594275740444797
0.1689916 -0.7754825593593359 0.5652727867293269
0.1709915 -0.7712561989814248 0.5707655101894988
0.1729914 -0.7667797463144767 0.576586586786167
0.1749913 -0.7629238525338994 0.5822404526389383
0.1769912 -0.7581745719668451 0.5876999875844967
0.1789911 -0.754355772838001 0.5934223520276865
0.180991 -0.7495568873639031 0.5988837522444891
0.1829909 -0.7448856237918982 0.6043103011879198
0.1849908 -0.7402596685917644 0.6101834955553891
0.1869907 -0.7357209261279717 0.6156466950580283
0.1889906 -0.7305423664965337 0.6211734104861709
0.1909905 -0.7261136392206884 0.626664250141168
0.1929904 -0.7210582362452355 0.6320382645123326
0.1949903 -0.7161951554136337 0.637523046912662
0.1969902 -0.7110615414459011 0.6430774915332425
0.1989901 -0.7061649300626295 0.6483655814775201
0.20099 -0.7010305248635993 0.6540936000205466
0.2029899 -0.6960512317074117 0.6589775483532584
0.2049898 -0.6908733879956805 0.6640955036797538
0.2069897 -0.6854139497900198 0.6696261899485387
0.2089896 -0.6803347971524358 0.6747878958574749
0.2109895 -0.675467999753722 0.6799049973047763
0.2129894 -0.6702999478901317 0.6850677115337502
0.2149893 -0.6646415052665228 0.6905462657385104
0.2169892 -0.6594926149035322 0.6954531683214498
0.2189891 -0.6540259464896706 0.7008663255727804
0.220989 -0.6489946939524553 0.7058311125237193
0.2229889 -0.6433495048626471 0.7102620684632405
0.2249888 -0.6377806263711435 0.7152822527859658
0.2269887 -0.6323552552438724 0.7201130224025719
0.2289886 -0.6266278783257262 0.7251417421338237
0.2309885 -0.621106599225497 0.7303117200946514
0.2329884 -0.6160266743276233 0.7346856703343448
0.2349883 -0.6101718947229678 0.7395854703523602
0.2369882 -0.6044059934961605 0.744291693877797
0.2389881 -0.5985893833348159 0.7489016066322484
0.240988 -0.5930482811250313 0.753734549885121
0.2429879 -0.5872078693046346 0.7584170187963797
0.2449878 -0.5814601364695026 0.7631901426030279
0.2469877 -0.575639398066043 0.7677065257471751
0.2489876 -0.5698257934773884 0.7723655700193626
0.2509875 -0.5642344022914172 0.7772773149252028
0.2529874 -0.5584403313056177 0.7818441796308832
0.2549873 -0.5526026771397496 0.7862454932073882
0.2569872 -0.5469096759179252 0.7909216798249441
0.2589871 -0.5407265181700925 0.7954993658526319
0.260987 -0.5351122841584575 0.799669165900449
0.2629869 -0.5291480010355795 0.8041530146895854
0.2649868 -0.523262239308473 0.8079164390464082
0.2669867 -0.5174902462053608 0.8121681484316935
0.2689866 -0.5113810829690648 0.8164335414412902
0.2709865 -0.5055371976824449 0.8203068068621056
0.2729864 -0.49952672299970646 0.8241270901370326
0.2749863 -0.49368804131587146 0.8277040812874558
0.2769862 -0.4875906274402803 0.8315576869336853
0.2789861 -0.4818351347238497 0.834966562572353
0.280986 -0.47565173144664263 0.8378594372025051
0.2829859 -0.4693439199915907 0.8413059488752997
0.2849858 -0.4629284900354065 0.8443132117678155
0.2869857 -0.456464585347052 0.8473933808495442
0.2889856 -0.4502365973200608 0.8506549840726773
0.2909855 -0.44355376196954205 0.8537709347563475
0.2929854 -0.43676955799112505 0.8566049009896877
0.2949853 -0.43009871715801634 0.859056776540626
0.2969852 -0.42314463221201465 0.8622073877264357
0.2989851 -0.4162911678470874 0.8647783169010188
0.300985 -0.4091989899758828 0.8672236177542256
0.3029849 -0.4016797004214968 0.8695890705389633
0.3049848 -0.3943212670361744 0.8718698095330679
0.3069847 -0.3868912187714556 0.8749909851954024
0.3089846 -0.3792728974039346 0.8771122420760229
0.3109845 -0.37169480007496314 0.879949158980357
0.3129844 -0.3645250140493249 0.8825149633989663
0.3149843 -0.3561093159843046 0.8850611124187665
0.3169842 -0.34837344329036757 0.8876507727404813
0.3189841 -0.3407959383309028 0.8902506390748535
0.320984 -0.33243655595107147 0.8925703184652232
0.3229839 -0.324500782746671 0.8955383650042937
0.3249838 -0.3170384575997975 0.897949629846162
0.3269837 -0.3092363186886416 0.9001450902137291
0.3289836 -0.30107007911413664 0.9030729356389707
0.3309835 -0.29306789833469066 0.9056893899434093
0.3329834 -0.2863131779430359 0.9084110856865606
0.3349833 -0.2784889774576512 0.9117105413470785
0.3369832 -0.27141774940907054 0.9152956279487783
0.3389831 -0.2642649928691214 0.9184157928478198
0.340983 -0.2568645438536434 0.9218894911549068
0.3429829 -0.25013528722456013 0.9254750835108169
0.3449828 -0.24259628395720073 0.9284743084824808
0.3469827 -0.23590274034923453 0.9315957134144619
0.3489826 -0.22904426767884015 0.9342123971404017
0.3509825 -0.22164173150436162 0.9367361458535437
0.3529824 -0.21489184807528505 0.9396210313392851
0.3549823 -0.2079922561663068 0.941965589109562
0.3569822 -0.20123738799390936 0.944320582416324
0.3589821 -0.19443722418243803 0.9460191668607506
0.360982 -0.18767218731638377 0.948079937627595
0.3629819 -0.18102338765215104 0.9498395205677415
0.3649818 -0.17402860845898133 0.9506815530443559
0.3669817 -0.16725421607893087 0.9519956582631257
0.3689816 -0.16010748066196304 0.95297716930473
0.3709815 -0.15287744498364317 0.9537649051636454
0.3729814 -0.14569670371556065 0.9545572209706876
0.3749813 -0.1387037468566243 0.9551490883420615
0.3769812 -0.13149103788433464 0.955447360419678
0.3789811 -0.12398298192188036 0.9562384848173333
0.380981 -0.11623139834904453 0.9563776536081647
0.3829809 -0.10829779559522133 0.9568098675889737
0.3849808 -0.10048567574443773 0.9568321024193293
0.3869807 -0.09240846021684311 0.9567379615675786
0.3889806 -0.08418620951448412 0.9570287559696877
0.3909805 -0.07598900439834354 0.9570396864039512
0.3929804 -0.0677712592815362 0.9574089968578312
0.3949803 -0.05879392406599842 0.9577143487195585
0.3969802 -0.05078520462237098 0.9582290008272567
0.3989801 -0.04231633720655838 0.9579350726566845
0.40098 -0.033703770848686525 0.9588501356621731
0.4029799 -0.025196627587600967 0.9590480300896743
0.4049798 -0.01671046573966499 0.9595432674786839
0.4069797 -0.008439435643044411 0.9599301079519847
0.4089796 4.28012689059204e-05 0.960539327199315
0.4109795 0.008311433536762704 0.961185571288472
0.4129794 0.016964293680983004 0.9618101148251622
0.4149793 0.02557039862843497 0.9622473323796715
0.4169792 0.03325068181859038 0.9627458138998877
0.4189791 0.0413246490355731 0.963063458403505
0.420979 0.04931216116480161 0.9636779100769707
0.4229789 0.05698756023112529 0.9639986768451327
0.4249788 0.06476861296103605 0.9641700266364952
0.4269787 0.07236595226978498 0.9645784911703984
0.4289786 0.07988252522795425 0.96446595174434
0.4309785 0.08725261062182176 0.964227983231769
0.4329784 0.09488805993490108 0.9636246990619332
0.4349783 0.10216635349830513 0.9625692496829379
0.4369782 0.10933521754045862 0.9618591347002644
0.4389781 0.11684016331436424 0.9609584664821716
0.440978 0.12375068109598891 0.9596746566416702
0.4429779 0.13120599513517586 0.9586930583301816
0.4449778 0.13867236441553193 0.957137587047053
0.4469777 0.14623532822680918 0.9554324482858215
0.4489776 0.15386202787493847 0.9538496478437632
0.4509775 0.1613373094668236 0.9516726974413167
0.4529774 0.16952641199533183 0.9493983852374628
0.4549773 0.17713440283274864 0.9471930151562052
0.4569772 0.18527552694389213 0.9451685676269443
0.4589771 0.19331787439679043 0.9426847290992659
0.460977 0.20223895708549117 0.9401993445907187
0.4629769 0.21022922167015062 0.9382980261469873
0.4649768 0.21872018072416843 0.9360329894972347
0.4669767 0.22669109098511822 0.9337550552457288
0.4689766 0.23552342746619012 0.9315515802935116
0.4709765 0.24352546021444726 0.929245288826257
0.4729764 0.25249710675037923 0.9272274161786933
0.4749763 0.261073081608463 0.9251039995446614
0.4769762 0.26946253044707724 0.9230119589817949
0.4789761 0.27852458042696987 0.9209430141698306
0.480976 0.28706116869148346 0.918925231942332
0.4829759 0.2954291413107365 0.9166051823895385
0.4849758 0.3037221838726304 0.9152830005261992
0.4869757 0.31216015137286257 0.9129309936289753
0.4889756 0.3205271897266404 0.9110278590095175
0.4909755 0.3286911529650117 0.9090899620030035
0.4929754 0.3366717117777234 0.9073991112381425
0.4949753 0.34423804878019115 0.9055102356484428
0.4969752 0.3516950361479318 0.903110446883854
0.4989751 0.35919554305270585 0.901089319191938
0.500975 0.36620913221830986 0.8986234707229965
0.5029749 0.37366592542769983 0.8961093931059239
0.5049748 0.38077673995079275 0.8935285099405408
0.5069747 0.38766686265171435 0.8910212355629915
0.5089746 0.39525548805602895 0.8881218033859288
0.5109745 0.4022911602648087 0.8851339856030533
0.5129744 0.40948933037612756 0.8815746697589288
0.5149743 0.4163445394623097 0.8784406740446823
0.5169742 0.42275812297946325 0.8745576132684812
0.5189741 0.43012225133447 0.8705404047417588
0.520974 0.4375871521353998 0.866043159652323
0.5229739 0.44451842859115864 0.8617510505276159
0.5249738 0.45082357118588845 0.8580981358309621
0.5269737 0.45811188191037444 0.8534863389677353
0.5289736 0.46457005913111804 0.8486925390207164
0.5309735 0.47126291763523037 0.8442595141823072
0.5329734 0.47854353331628047 0.8393995534630936
0.5349733 0.48509636590190797 0.8347601630007964
0.5369732 0.49227487049961105 0.8298920391027235
0.5389731 0.5000023826184699 0.8248913701725556
0.540973 0.5067684619485934 0.8199930377149559
0.5429729 0.5141184744122106 0.8149041057587835
0.5449728 0.5219540226059015 0.8105451220954958
0.5469727 0.5293301198164647 0.8055609050223735
0.5489726 0.5367194306745667 0.8008313294356108
0.5509725 0.544102459201167 0.7957490957071318
0.5529724 0.5517548447352582 0.7910540944086489
0.5549723 0.5592322305325688 0.7863672838703076
0.5569722 0.5666141078689195 0.7816527144025215
0.5589721 0.5741449488515419 0.7768933735902431
0.560972 0.5815552373414431 0.7723777905125411
0.5629719 0.5888150437250016 0.7676775962845874
0.5649718 0.5961371984865717 0.763139958100902
0.5669717 0.6032712125448728 0.7581934303304532
0.5689716 0.6096231153159402 0.7537989961668202
0.5709715 0.6157715756367642 0.7490485789171654
0.5729714 0.6222982022992749 0.7437907266103745
0.5749713 0.6291469682297921 0.7389217247765462
0.5769712 0.6355253902025754 0.733893320594602
0.5789711 0.6417028763141757 0.7292920547022256
0.580971 0.6478723300886888 0.7241742153405356
0.5829709 0.6539154191673296 0.7189886071477938
0.5849708 0.6593182900253994 0.7136680345716472
0.5869707 0.6649737435152226 0.7079237286789708
0.5889706 0.6710325118942163 0.7017835237335339
0.5909705 0.6764595849111454 0.6956507585508365
0.5929704 0.6823399661058495 0.6896985015763758
0.5949703 0.6877507150084264 0.6835432642034643
0.5969702 0.6936710180457419 0.6776126405891413
0.5989701 0.6986706379401952 0.6713419949117511
0.60097 0.7045417095930592 0.6644196442430805
0.6029699 0.7102556295558781 0.6578587235388793
0.6049698 0.7154768160200036 0.6511463318635755
0.6069697 0.7205736339778819 0.644467436858418
0.6089696 0.7266980523592282 0.6373668687804506
0.6109695 0.7323720482848051 0.6307751746134859
0.6129694 0.738168699619426 0.6234488825507972
0.6149693 0.7443904921464152 0.616683250377378
0.6169692 0.7497933277355738 0.60953600055497
0.6189691 0.7555331060522892 0.6029134656902168
0.620969 0.7612099694869982 0.5956534743876533
0.6229689 0.7669332728326973 0.5887786989855702
0.6249688 0.7722007330874533 0.5821668910920281
0.6269687 0.7779688618152959 0.5748138063611
0.6289686 0.7836054605461923 0.56835213686801
0.6309685 0.7893287603266513 0.5613185723013886
0.6329684 0.7942504974487212 0.5547606251668711
0.6349683 0.7993240969350404 0.548010341041245
0.6369682 0.8041607440729643 0.5415039390581896
0.6389681 0.8097832925382109 0.5346559717740723
0.640968 0.8142811589405277 0.5279484483126422
0.6429679 0.8195636057067107 0.5214479997339515
0.6449678 0.8240400966380114 0.5147456898747446
0.6469677 0.8284783369895524 0.5076957337179336
0.6489676 0.8328925770077668 0.5010042178505324
0.6509675 0.8370665645713465 0.49429287851699905
0.6529674 0.8410386140536061 0.4868749168611374
0.6549673 0.8451284112951135 0.4803991656795534
0.6569672 0.8488190129943174 0.47297903044527273
0.6589671 0.8527394459837948 0.4654052602359662
0.660967 0.8562904994570654 0.4579490913242372
0.6629669 0.8596405981898892 0.45051230356429545
0.6649668 0.8637804071320412 0.44275954898513625
0.6669667 0.8667809938193622 0.4348281059613481
0.6689666 0.8703880533175442 0.4268762349585703
0.6709665 0.8740324681039915 0.4191852130265633
0.6729664 0.8764992689587154 0.41112093841093433
0.6749663 0.8798220473919465 0.40288751878981416
0.6769662 0.8830226938544091 0.39439689789785
0.6789661 0.8864473499186204 0.38671821175239074
0.680966 0.8898752689741838 0.3778315945760967
0.6829659 0.8927780907089322 0.36944934829597903
0.6849658 0.8959328249218723 0.36128530755136806
0.6869657 0.8996169538665559 0.3525728856764796
0.6889656 0.9031890711336211 0.3440949298842035
0.6909655 0.9061593428169775 0.3358142812587174
0.6929654 0.9091848277930045 0.3271977741084736
0.6949653 0.9122170004317891 0.31922449631061256
0.6969652 0.9153659350585085 0.31053558202435216
0.6989651 0.9180940718352238 0.3025982182242911
0.700965 0.9209753271877091 0.2940326658645702
0.7029649 0.9238512173644999 0.285930071520571
0.7049648 0.9268507036607782 0.2777254751343021
0.7069647 0.9288695983774545 0.26988783087772966
0.7089646 0.9319537419192372 0.2613489816633831
0.7109645 0.934240204630783 0.25340607402255005
0.7129644 0.9364401104757277 0.2451152989375091
0.7149643 0.9391060680792193 0.23699877407263287
0.7169642 0.9412392882662209 0.2287005589737744
0.7189641 0.9426456319569629 0.22107839371984359
0.720964 0.9449638071873976 0.21234721275863738
0.7229639 0.9468240166513451 0.2040272810886215
0.7249638 0.9485351806578823 0.1960951948885723
0.7269637 0.9499624247007766 0.1879538639893518
0.7289636 0.9510826135783962 0.1795950463650201
0.7309635 0.9529503452633635 0.1717157208461939
0.7329634 0.9543128299021996 0.16278624177917958
0.7349633 0.955063613994752 0.15456902183596227
0.7369632 0.9564547488579586 0.14579361960050602
0.7389631 0.9575807810393685 0.13716024306375374
0.740963 0.9584056668604136 0.12885660256811388
0.7429629 0.9594547567179341 0.11976526369716714
0.7449628 0.960081533588466 0.11109581816301871
0.7469627 0.9608772142790526 0.10218955572147666
0.7489626 0.961677909659096 0.09343411333205072
0.7509625 0.9619747245886892 0.08495161933783946
0.7529624 0.9627504037503314 0.07606423573601517
0.7549623 0.963451975851197 0.06728993042971268
0.7569622 0.963409327188748 0.05918048391077127
0.7589621 0.9643100564032602 0.049959477405044805
0.760962 0.9644191788721909 0.04156937625999115
0.7629619 0.9648334977515336 0.03321969992039345
0.7649618 0.9652093292056597 0.02439845276582199
0.7669617 0.96497569390216 0.015867787149917142
0.7689616 0.9651190380333682 0.007471538018341994
0.7709615 0.965147795281358 -0.0011543395925038141
0.7729614 0.9654122907181366 -0.009504491538244272
0.7749613 0.9649211895782849 -0.017772749860914747
0.7769612 0.9647884248064249 -0.026405321408291757
0.7789611 0.9646558251081908 -0.03463328276706272
0.780961 0.9639547794885476 -0.04314617081524784
0.7829609 0.9636424293745314 -0.051094588151582035
0.7849608 0.9630508119060974 -0.05969518282862474
0.7869607 0.9625207135273535 -0.06788305680728818
0.7889606 0.9617297932561437 -0.07662520959762978
0.7909605 0.960568043946249 -0.08490264649069568
0.7929604 0.9597455860636397 -0.09318712646541083
0.7949603 0.9589237505020181 -0.10179127754449252
0.7969602 0.9578172515883134 -0.11027782791924962
0.7989601 0.9561854023908192 -0.11882817984931177
0.80096 0.9551810755645253 -0.12750456550914163
0.8029599 0.9537811637684167 -0.13560741325399955
0.8049598 0.952507754996319 -0.14455786972340082
0.8069597 0.9513412219505579 -0.1532566975010543
0.8089596 0.9497354155611502 -0.1620184180609021
0.8109595 0.9481662756343052 -0.17077901295019315
0.8129594 0.9467717499435759 -0.17924290124991013
0.8149593 0.9450783803196763 -0.18805342661094449
