! Created with skrf 1.8.0 (http://scikit-rf.org).
# GHz S RI R 50.0 
!freq ReS11 ImS11
0.001 -1.0231379212641887 0.006087469652735211
0.0029999 -0.9819525810165586 0.01921053740096723
0.0049998 -0.9604920909089139 0.017921068998144496
0.0069997 -0.9632469641244437 0.023568262111397897
0.0089996 -0.9628279776122923 0.02932178949794423
0.0109995 -0.9611503668600387 0.03470558241024724
0.0129994 -0.9606545020451003 0.04134201909969781
0.0149993 -0.9604837381684179 0.04882846186777967
0.0169992 -0.9602164019331715 0.05306617124094237
0.0189991 -0.9599280140258829 0.05892574087191982
0.020999 -0.9592556873495848 0.06513674076288661
0.0229989 -0.9586378936299873 0.07111534174820011
0.0249988 -0.9576844956006669 0.07673988548464072
0.0269987 -0.9573136856270985 0.08285544374772005
0.0289986 -0.9566003247395878 0.08857300877574553
0.0309985 -0.955595626045282 0.09427217488192452
0.0329984 -0.9549516230407562 0.10036709385627807
0.0349983 -0.9542978337860144 0.10634812514341258
0.0369982 -0.953086114230664 0.11234526843647763
0.0389981 -0.9520579917117264 0.11810038975013581
0.040998 -0.9515159250512155 0.12404597410369145
0.0429979 -0.9499126176218811 0.12979596746832572
0.0449978 -0.9488990608350274 0.13566900110647961
0.0469977 -0.9483335832433716 0.14154576611924574
0.0489976 -0.946756506345079 0.14732165564103183
0.0509975 -0.9452129973207254 0.15357691025045095
0.0529974 -0.9443986850380127 0.15982282233097195
0.0549973 -0.9426269627331458 0.16661435197346353
0.0569972 -0.9417931211289388 0.17174601586159635
0.0589971 -0.9402997599407545 0.1780300112769099
0.060997 -0.9395267366940101 0.18457527510228994
0.0629969 -0.9383361155883922 0.18990061707489936
0.0649968 -0.9364156120043614 0.19620767403561667
0.0669967 -0.936100921928572 0.20266077817210637
0.0689966 -0.93457259133136 0.20806373763474634
0.0709965 -0.9336654288481597 0.2137261850028938
0.0729964 -0.9320102357407796 0.22027791371115307
0.0749963 -0.9306912375939578 0.22604355201343831
0.0769962 -0.930054533146351 0.23179064140303648
0.0789961 -0.928210826059936 0.23736006513645394
0.080996 -0.9266235399537619 0.24331323712534028
0.0829959 -0.9251713425251031 0.24923548317630462
0.0849958 -0.9244604209485278 0.25417673139748226
0.0869957 -0.9228632781680166 0.26030732102858767
0.0889956 -0.9210092533034719 0.26534991750014286
0.0909955 -0.919582522062461 0.27118226745732277
0.0929954 -0.9176429826439593 0.2765572024482872
0.0949953 -0.9161417518096393 0.2821018431372119
0.0969952 -0.914159310165344 0.2875341134375189
0.0989951 -0.9119504259277436 0.2929566777381829
0.100995 -0.9112728870016982 0.2989057043685879
0.1029949 -0.9091818858076574 0.30420521341917633
0.1049948 -0.9074189113524079 0.3097107801754659
0.1069947 -0.905190195497619 0.3148712589679039
0.1089946 -0.9029409122009464 0.32023169965663384
0.1109945 -0.9005200602716323 0.32565134254094125
0.1129944 -0.8982450400545949 0.33108099343855035
0.1149943 -0.8956262092331821 0.3363433555311957
0.1169942 -0.892991111381108 0.3419987808163621
0.1189941 -0.8906435611288964 0.34754038220209615
0.120994 -0.88779776003218 0.35316956655703513
0.1229939 -0.8853367311368783 0.3587993957643294
0.1249938 -0.8829891561096598 0.36430364888034766
0.1269937 -0.8802360152026948 0.36995475626029445
0.1289936 -0.8778178989975323 0.3760902826159581
0.1309935 -0.8752524493488604 0.3815992205672722
0.1329934 -0.8728933392691256 0.38707769386171914
0.1349933 -0.8698279393357514 0.39317860668353666
0.1369932 -0.8674415625515184 0.3982688051387614
0.1389931 -0.8651250354310673 0.40389000559859417
0.140993 -0.8623497985878668 0.4095694028851708
0.1429929 -0.8592132681015969 0.4152943359519645
0.1449928 -0.8574404450424447 0.42094579629397566
0.1469927 -0.8547324743074489 0.42645466010007704
0.1489926 -0.8519858752463565 0.43232622701989704
0.1509925 -0.8491222165064007 0.43719112964649626
0.1529924 -0.8464083454271062 0.44282069847260375
0.1549923 -0.8443127801530275 0.4487602598600945
0.1569922 -0.8414790628779774 0.453378270182787
0.1589921 -0.8387119282657232 0.4591291073336328
0.160992 -0.8360557870151557 0.46403484300614434
0.1629919 -0.8329954005495586 0.4695326103796554
0.1649918 -0.8300752257787004 0.47472446995157164
0.1669917 -0.8272441116305065 0.47956011125123144
0.1689916 -0.8247561564139632 0.4848450001442215
0.1709915 -0.8215943612801353 0.48990630618409386
0.1729914 -0.8182604085308991 0.494706306691305
0.1749913 -0.8157427941429818 0.49990773591741955
0.1769912 -0.8122118244629108 0.5046875912790607
0.1789911 -0.8094776370987238 0.509580767708554
0.180991 -0.8059792172613669 0.5145627158418615
0.1829909 -0.8025908696548456 0.519292856381433
0.1849908 -0.7993848907356044 0.5245118147351173
0.1869907 -0.7957551257694289 0.5291148626564129
0.1889906 -0.7924031585594565 0.534166509393862
0.1909905 -0.7889595028626329 0.5391461517727603
0.1929904 -0.7853266601392418 0.5440635478025724
0.1949903 -0.7815727684073974 0.5488700600978236
0.1969902 -0.7776696618482327 0.5536962740894872
0.1989901 -0.7744664082744999 0.5589746945022029
0.20099 -0.7707885046906967 0.5640785415931061
0.2029899 -0.767129445355304 0.5686058013594212
0.2049898 -0.763271030197681 0.5733167680570225
0.2069897 -0.7594723243903948 0.57821154005188
0.2089896 -0.75548355332529 0.5829235310986023
0.2109895 -0.7522366583158165 0.5878879954918521
0.2129894 -0.748112877946407 0.5932288453761345
0.2149893 -0.7441977679152991 0.5979908502829845
0.2169892 -0.7404140100901677 0.6027687874343473
0.2189891 -0.7364721556526923 0.6081141499016679
0.220989 -0.7327643319848101 0.6125204460757618
0.2229889 -0.7291267980060235 0.6169428715219286
0.2249888 -0.7244734286625768 0.622178384022132
0.2269887 -0.7206175014883629 0.6260979775343152
0.2289886 -0.7165224212209275 0.6310692178629266
0.2309885 -0.7125522816396325 0.636230543426454
0.2329884 -0.7082882088702672 0.6404177894876113
0.2349883 -0.7042463687857129 0.6451744999677934
0.2369882 -0.7002546782037242 0.6497958803107172
0.2389881 -0.6959517322432269 0.6543938514737644
0.240988 -0.6918419544623957 0.6586718173845421
0.2429879 -0.6877939671197901 0.6635106910358317
0.2449878 -0.6834663823736872 0.6677769930496508
0.2469877 -0.6791512613701852 0.6724137116083674
0.2489876 -0.6747543918639163 0.676702670714223
0.2509875 -0.6709216711194841 0.6814289424593395
0.2529874 -0.6668017050753174 0.6859968466155262
0.2549873 -0.6626733237988431 0.6904888960484439
0.2569872 -0.6585422429185097 0.6945650249193276
0.2589871 -0.6541980174433909 0.6992101115477558
0.260987 -0.6500103698840302 0.7033071912343428
0.2629869 -0.6453949075344463 0.707717863034216
0.2649868 -0.6411994692706782 0.7117619343168795
0.2669867 -0.6373169384537523 0.7152214836025533
0.2689866 -0.6327494896861531 0.7195646908863432
0.2709865 -0.6286556232477694 0.7237239248372495
0.2729864 -0.6240928098014742 0.7274684839107682
0.2749863 -0.6195124039683285 0.7314147106193377
0.2769862 -0.6153221108662086 0.7351512335500485
0.2789861 -0.6112073410645082 0.7387013101878931
0.280986 -0.6066222626539912 0.7416825264648639
0.2829859 -0.6015315048121759 0.745380801341074
0.2849858 -0.5971124757989987 0.7487767030064434
0.2869857 -0.5919362410263527 0.7523755390894263
0.2889856 -0.5870176657294323 0.7554340592755989
0.2909855 -0.582010340752273 0.7595303380821021
0.2929854 -0.5772133860919143 0.762658146733443
0.2949853 -0.5718178358678045 0.7655872905897744
0.2969852 -0.566626016027438 0.7690362245248711
0.2989851 -0.5614544653800851 0.7724505368976934
0.300985 -0.5558657320573899 0.7751130041021691
0.3029849 -0.5503171173272281 0.7785834890036923
0.3049848 -0.5446588716511295 0.7816106734840544
0.3069847 -0.5388052911102408 0.7848081860458316
0.3089846 -0.5329625820833679 0.7880815505246395
0.3109845 -0.5272398248938257 0.7914515750956236
0.3129844 -0.5212515244948086 0.794612829497732
0.3149843 -0.515276966991564 0.7980881430879584
0.3169842 -0.5092966617404109 0.8016401919463761
0.3189841 -0.5033684695160602 0.8046024210882425
0.320984 -0.4969664023301835 0.807956486740399
0.3229839 -0.4911799343102836 0.8113255499189754
0.3249838 -0.485143188004974 0.814778528134452
0.3269837 -0.4791324715290495 0.8183953207028456
0.3289836 -0.47314896392183625 0.821828707133257
0.3309835 -0.46722149308230826 0.825463553644724
0.3329834 -0.4617363635808166 0.8288969618662682
0.3349833 -0.45624736034524904 0.8326555151408764
0.3369832 -0.4514043467351181 0.8370658347805668
0.3389831 -0.4457007209319703 0.8409434941436706
0.340983 -0.44078949083446983 0.8448784181962781
0.3429829 -0.43555191747741573 0.8491699274433426
0.3449828 -0.43028015909378386 0.8528527753812577
0.3469827 -0.4252940510626568 0.8563036395953569
0.3489826 -0.420259109195694 0.8595742575981382
0.3509825 -0.4150996942766695 0.8630408247868129
0.3529824 -0.4098041085904972 0.8662694742890925
0.3549823 -0.40481134947102965 0.8692243994819562
0.3569822 -0.399536911739159 0.872173165289316
0.3589821 -0.3948670709752364 0.874933623480825
0.360982 -0.3897750100717285 0.8779112668237432
0.3629819 -0.38492446847398626 0.8801850936619481
0.3649818 -0.37913954226046637 0.8822099344573926
0.3669817 -0.3739281791953803 0.8845019321830071
0.3689816 -0.36876734726159455 0.8865617465319087
0.3709815 -0.362934497269945 0.8884578090329596
0.3729814 -0.35712184051562995 0.8901687397946041
0.3749813 -0.35183002357586385 0.8919409510511822
0.3769812 -0.3461301255837232 0.8934239846707285
0.3789811 -0.3402073558166624 0.8952203015296246
0.380981 -0.33397538780543834 0.8965098261613798
0.3829809 -0.3276274132033308 0.8982381879711033
0.3849808 -0.3215369552971493 0.9001188683355797
0.3869807 -0.3148788567323104 0.9015341423685378
0.3889806 -0.30823116118690963 0.9036073571927253
0.3909805 -0.30125944166670515 0.9049522135290505
0.3929804 -0.2946030913314822 0.9070014720999069
0.3949803 -0.28779742272025455 0.9089018002561403
0.3969802 -0.2811163305747053 0.9106742868183252
0.3989801 -0.2744271119409953 0.9124425230951306
0.40098 -0.26729798740133753 0.9148323973487595
0.4029799 -0.2609070028904002 0.9170709237919384
0.4049798 -0.2537646853004356 0.9191149501308873
0.4069797 -0.24752964025819418 0.9210796031631839
0.4089796 -0.2406099058701814 0.9231528958092612
0.4109795 -0.23396953499612294 0.9255115624195892
0.4129794 -0.22787670002875576 0.9281030858773895
0.4149793 -0.22075668895295253 0.9305043976875444
0.4169792 -0.21468260403488884 0.9322962014518339
0.4189791 -0.2081695756858417 0.9344692891953987
0.420979 -0.20209900063502728 0.9365436241991913
0.4229789 -0.19641124317259673 0.9384947147293752
0.4249788 -0.19031893404133635 0.9406977298743971
0.4269787 -0.18428235958352104 0.942122052018032
0.4289786 -0.17872858125702235 0.9440974101016598
0.4309785 -0.17269714187817778 0.945565244227103
0.4329784 -0.1667864045527767 0.9470199578061683
0.4349783 -0.1604747617302395 0.9472807410102752
0.4369782 -0.1551575267894402 0.9481918808969644
0.4389781 -0.1490229203193844 0.9491990670015662
0.440978 -0.14305663888802705 0.949853578902566
0.4429779 -0.13727282399632224 0.9503680853395878
0.4449778 -0.13121036511421189 0.95061752250087
0.4469777 -0.12497746549319796 0.9506139975982646
0.4489776 -0.11882457392888604 0.9508098180295126
0.4509775 -0.11178159853325408 0.9512782140696888
0.4529774 -0.10519315035510314 0.9512504306947976
0.4549773 -0.09861485825421835 0.9511956303257758
0.4569772 -0.091368927779693 0.95105631590733
0.4589771 -0.0842345750104933 0.9507920948504125
0.460977 -0.07664098976549114 0.9512424447389911
0.4629769 -0.06980107507708311 0.9515685718944372
0.4649768 -0.0625198521799425 0.9513655314541061
0.4669767 -0.05550520275802604 0.9516285994305221
0.4689766 -0.04778872975291941 0.9520517883268109
0.4709765 -0.04095482227929378 0.9524450965779672
0.4729764 -0.03305237965639728 0.9527981942516462
0.4749763 -0.025769200766313886 0.9535270251601891
0.4769762 -0.018367812283922744 0.9538875093103982
0.4789761 -0.010899685325637051 0.9546489827436333
0.480976 -0.0029998066911881074 0.9556025765703237
0.4829759 0.0036416202782355925 0.9557705072391554
0.4849758 0.010871592866775658 0.9568232695222267
0.4869757 0.018134170521245368 0.9573977247148676
0.4889756 0.025351568824530744 0.9583118450940998
0.4909755 0.032196395729350145 0.9590838808074489
0.4929754 0.038675759215110454 0.9596606404940368
0.4949753 0.045145723462157936 0.9604137202237211
0.4969752 0.051497335001798115 0.9606581095244014
0.4989751 0.057897030976723544 0.9608337993149402
0.500975 0.06380764647965356 0.9607720654864793
0.5029749 0.06974489133290364 0.9609881453983314
0.5049748 0.0758107540027152 0.9608123490134777
0.5069747 0.0813616925914614 0.9604857061984308
0.5089746 0.08746949179456934 0.9600453131327656
0.5109745 0.09392535755053413 0.9598885911562166
0.5129744 0.10024734153935046 0.959228306785685
0.5149743 0.10593383172392293 0.9584072760568924
0.5169742 0.11192414736509149 0.9570776563643686
0.5189741 0.11792971835336716 0.955823495742202
0.520974 0.12471016250183078 0.9542926236235678
0.5229739 0.1313700329407806 0.9530353264242607
0.5249738 0.13755522113027985 0.9517860846151823
0.5269737 0.14433924139112708 0.9499385991721184
0.5289736 0.15070077119506153 0.9483849403990948
0.5309735 0.15758421288627789 0.9463874268622713
0.5329734 0.164260365594731 0.9442973258567902
0.5349733 0.1712288074161441 0.94228588888739
0.5369732 0.1785058276452875 0.9403108635316
0.5389731 0.18574563914721456 0.9389509225915378
0.540973 0.19286302710594264 0.9360438693866848
0.5429729 0.1998560401631165 0.9341965490931667
0.5449728 0.20729669507907794 0.9329613700739077
0.5469727 0.21500231911893897 0.9309661135462316
0.5489726 0.2224658038546371 0.929592680739452
0.5509725 0.22986503677416134 0.9274880768252872
0.5529724 0.2373788358155455 0.9261971941107863
0.5549723 0.24479722323930042 0.9246592020395219
0.5569722 0.2519988546059271 0.9232956573883848
0.5589721 0.2594671414959062 0.9222757483860377
0.560972 0.2667842881290958 0.9209681316386664
0.5629719 0.27399254958107805 0.9197764884696883
0.5649718 0.2811552678748275 0.9187000707299883
0.5669717 0.28803571164645786 0.9173226276182495
0.5689716 0.2943041056127875 0.9158016223749464
0.5709715 0.300613554357013 0.9141029233899294
0.5729714 0.3067614261845465 0.9126230904991336
0.5749713 0.31340900787406245 0.9108781907613951
0.5769712 0.31976189400224475 0.9089888711509172
0.5789711 0.3256426423098265 0.9074044541677431
0.580971 0.33177541402038574 0.905795126592511
0.5829709 0.33752951837553874 0.9034702213547537
0.5849708 0.34364191839805214 0.9014941030221889
0.5869707 0.34924699751990795 0.8989638113679586
0.5889706 0.35565116416641557 0.8961114008064895
0.5909705 0.3616146246545076 0.8929031611367182
0.5929704 0.36796915648062317 0.8898145421031318
0.5949703 0.3737275219897903 0.8866114571162296
0.5969702 0.37995597739884474 0.8841013662464663
0.5989701 0.3857689010591134 0.8806066317851957
0.60097 0.39212378720894575 0.876849589061499
0.6029699 0.39830096160903566 0.8734685936068411
0.6049698 0.40458579703482006 0.8694750611087912
0.6069697 0.4111316781090565 0.8662234113347074
0.6089696 0.41786190196086537 0.8626057230591914
0.6109695 0.4246801023382307 0.8586970727608239
0.6129694 0.4315296450118277 0.8548777002649119
0.6149693 0.43834430430778204 0.8517106693106499
0.6169692 0.4453195555546442 0.847990251365218
0.6189691 0.4520547147724877 0.8445315904813548
0.620969 0.45915950861188143 0.8409647928628616
0.6229689 0.46614445861648246 0.8375062088852054
0.6249688 0.47327470376090586 0.8340749372183464
0.6269687 0.48035651576802496 0.8305918384994289
0.6289686 0.4868832381580334 0.8275206781964002
0.6309685 0.49368331151664635 0.8244866250780283
0.6329684 0.5000012471848314 0.8214804178797682
0.6349683 0.5064776626121978 0.8179476954098841
0.6369682 0.5124940522735197 0.8148495689971553
0.6389681 0.519142023207322 0.8114343633028934
0.640968 0.5252875073733778 0.8087332558114317
0.6429679 0.5310265894437447 0.805781521551689
0.6449678 0.536917733563976 0.8023644222266282
0.6469677 0.5424777558022023 0.7990794273578538
0.6489676 0.5485241658730646 0.7958285554189563
0.6509675 0.5527872591310449 0.7924639643325658
0.6529674 0.5583329041158857 0.7887968488252316
0.6549673 0.5639848723412277 0.785176715845576
0.6569672 0.5686145991907863 0.7815576752863624
0.6589671 0.5738914761083908 0.7772317846809172
0.660967 0.5791081654165637 0.7728561953138765
0.6629669 0.5838597248294871 0.7680533622177329
0.6649668 0.588868954107668 0.7639894124784742
0.6669667 0.5937765739900476 0.7586894636226631
0.6689666 0.5993277898033649 0.7535946933788582
0.6709665 0.6044954739515647 0.7484169797834428
0.6729664 0.6096469066587807 0.7433257182675082
0.6749663 0.6147938438352623 0.7381279202888091
0.6769662 0.61965848352335 0.7323606043053452
0.6789661 0.6248043569453153 0.7267460301291842
0.680966 0.630283257551754 0.7210771427619591
0.6829659 0.6362948301208862 0.7155239512651784
0.6849658 0.6415635737423303 0.7100218823684254
0.6869657 0.6478442975986402 0.704226741524546
0.6889656 0.6538372645570686 0.698719718908351
0.6909655 0.6597878613321567 0.6935657045402246
0.6929654 0.6657089846449343 0.6881469745747641
0.6949653 0.6714390727786356 0.6828163889910972
0.6969652 0.6776100650711474 0.6773663848544635
0.6989651 0.6827637315430178 0.6722902286059727
0.700965 0.6888409037488433 0.6667297252513614
0.7029649 0.6946952396610133 0.6620051645194927
0.7049648 0.7003067517637784 0.6569821967829145
0.7069647 0.705485489823822 0.652012598076602
0.7089646 0.7115071142967709 0.6468809778510508
0.7109645 0.716299024285083 0.6423238400012002
0.7129644 0.7212983596141339 0.637176478292801
0.7149643 0.7264876250799501 0.6324602969918341
0.7169642 0.7313112090235758 0.6276935470082939
0.7189641 0.7355986556272268 0.6226880368377805
0.720964 0.7402909547502471 0.6176111091341123
0.7229639 0.7451702655564595 0.6122163282592191
0.7249638 0.7494377076133589 0.607287642444663
0.7269637 0.753706205113607 0.6020861075849225
0.7289636 0.7574954145572923 0.5974803095064855
0.7309635 0.761852058906177 0.591514033269604
0.7329634 0.7660479662908439 0.5861998673074208
0.7349633 0.7692874030232631 0.5801256210143416
0.7369632 0.7733531829961645 0.57461257317996
0.7389631 0.7767942295412747 0.5681983560774208
0.740963 0.7802204995105819 0.5622303833844312
0.7429629 0.7839789723622795 0.5561898033363013
0.7449628 0.787859914543614 0.5494904301337586
0.7469627 0.7917150563874774 0.5427551836413698
0.7489626 0.7955280344682466 0.5360157201892557
0.7509625 0.7992318162486693 0.5295107408434566
0.7529624 0.8031182915502175 0.5229819419043386
0.7549623 0.8071030461062565 0.5163516818365985
0.7569622 0.8109007481695263 0.5090932604719721
0.7589621 0.8151771135469476 0.5023016023708351
0.760962 0.8191903148733775 0.4954441102048685
0.7629619 0.8231725269126751 0.48850890236535516
0.7649618 0.8276490849812038 0.48238664389085073
0.7669617 0.8316996407997677 0.47482914538986576
0.7689616 0.835620020226892 0.46799287394027417
0.7709615 0.8393540775708631 0.4614509804587078
0.7729614 0.8434518249619096 0.4553642200567725
0.7749613 0.847268124260996 0.44836783833530564
0.7769612 0.8511169199942921 0.4418861799588299
0.7789611 0.8552699175834769 0.4357297896483687
0.780961 0.8591579386559904 0.42932910625422765
0.7829609 0.8622580126524131 0.4231509911045412
0.7849608 0.8659351408266169 0.41698095866906887
0.7869607 0.8693344826863886 0.41069843436994125
0.7889606 0.8727254674835 0.4041246864798054
0.7909605 0.8760127634196517 0.3979676842077874
0.7929604 0.8792954195852145 0.3920314150194877
0.7949603 0.882587819195703 0.3855617410665291
0.7969602 0.8852890127389897 0.3790949046289592
0.7989601 0.8878203109334923 0.3727301802613516
0.80096 0.8906972727677638 0.36626650093771557
0.8029599 0.8933555479592049 0.35989165906808096
0.8049598 0.8951779382195689 0.3532246545682362
0.8069597 0.8981709664475126 0.3465026990004535
0.8089596 0.8998441432429748 0.3396267324129812
0.8109595 0.9016399122209386 0.33253481361339654
0.8129594 0.9040664492013519 0.32544905533981067
0.8149593 0.9061502152176615 0.3183583030576949
