! Created with skrf 1.8.0 (http://scikit-rf.org).
# GHz S RI R 50.0 
!freq ReS11 ImS11
0.001 -0.9760165447291044 -0.0376533902493493
0.0029999 -0.9881037183044898 0.012934477320485582
0.0049998 -0.9658821391518877 0.020707752665851842
0.0069997 -0.9649578898189735 0.02708534992243694
0.0089996 -0.9633056228529009 0.034117946347344774
0.0109995 -0.9623980651496409 0.04116754070093931
0.0129994 -0.9621059128234835 0.048246041395613726
0.0149993 -0.9619582057778109 0.05740444246826859
0.0169992 -0.9614185833864488 0.06279132028004564
0.0189991 -0.9611496417802342 0.06987206499790743
0.020999 -0.9603714908756309 0.07703773640224831
0.0229989 -0.9595375677516741 0.08407890922488431
0.0249988 -0.9584125000610711 0.09093735409336215
0.0269987 -0.9578576401276995 0.09817701999953608
0.0289986 -0.9570013049138608 0.10506359804503944
0.0309985 -0.9558321881730902 0.11178333387843364
0.0329984 -0.9547263471210303 0.11896252050596196
0.0349983 -0.9537569190637445 0.12593554230030912
0.0369982 -0.9522561940418188 0.13305169221612595
0.0389981 -0.9508291266408888 0.1399165131037463
0.040998 -0.9499896051230449 0.14686580650341247
0.0429979 -0.9481330525830489 0.15377012800747947
0.0449978 -0.9466121784066928 0.16072064686612664
0.0469977 -0.9458316280656772 0.16758989170591887
0.0489976 -0.94357280624253 0.17452391023777708
0.0509975 -0.9417440658516887 0.1817616959047857
0.0529974 -0.9403878014465784 0.18904910299539535
0.0549973 -0.9379930724979324 0.19678886962335684
0.0569972 -0.9368864966452453 0.20324090621684152
0.0589971 -0.9350042921230437 0.21047647177500453
0.060997 -0.9338415085825447 0.2180367505961603
0.0629969 -0.9320389411038188 0.22447937974350296
0.0649968 -0.9298430938081141 0.23183391186292715
0.0669967 -0.928878582166694 0.23911930759606587
0.0689966 -0.927005200009651 0.24568187205911549
0.0709965 -0.9252553762663822 0.253062034068405
0.0729964 -0.9232653266997475 0.2601756011005871
0.0749963 -0.9217994072146545 0.2670333563313196
0.0769962 -0.9204550141721932 0.273896627183972
0.0789961 -0.9179595888133295 0.28026122513914015
0.080996 -0.9158565274766258 0.28749162923652266
0.0829959 -0.9136986763450714 0.294335365693441
0.0849958 -0.9121969031814953 0.3004332529489461
0.0869957 -0.910248149189242 0.30719927080886444
0.0889956 -0.9078621158542983 0.31360513514822874
0.0909955 -0.9056705979857893 0.320107115907447
0.0929954 -0.9032623592687634 0.32660798411017483
0.0949953 -0.9006214212556083 0.3330571036314486
0.0969952 -0.8979691309589966 0.33925973181791014
0.0989951 -0.8955837089722325 0.3459748451909491
0.100995 -0.8941509222719385 0.3525647072956848
0.1029949 -0.8913977964770778 0.3587465427560925
0.1049948 -0.8887798414980054 0.3650669758636578
0.1069947 -0.8858546824207011 0.371058963977288
0.1089946 -0.8826812263173723 0.37724219003635084
0.1109945 -0.8792693120508841 0.38367316552984765
0.1129944 -0.8763027045012328 0.3898750878621188
0.1149943 -0.8727197243636867 0.3958784440729113
0.1169942 -0.8692559679782048 0.40239630922128533
0.1189941 -0.8659853673182403 0.4086960429767469
0.120994 -0.8622064437225161 0.4150694962717265
0.1229939 -0.8589067123412876 0.421785792063759
0.1249938 -0.8552590529543516 0.4283137017304294
0.1269937 -0.8521088943470416 0.43452903851311797
0.1289936 -0.8485025241257962 0.4411296026692417
0.1309935 -0.8451602767312479 0.44793301686255793
0.1329934 -0.8414777660526722 0.45434394667471434
0.1349933 -0.837605658755059 0.4604708511130363
0.1369932 -0.8341564013475671 0.467054041126837
0.1389931 -0.8307045476378094 0.473766532674983
0.140993 -0.8269936543556123 0.48027386443626385
0.1429929 -0.8228316620397087 0.48600729593556813
0.1449928 -0.8199461950860948 0.49306686549913487
0.1469927 -0.8161980895147579 0.4986761660455716
0.1489926 -0.812466857575167 0.5054757775072133
0.1509925 -0.8086189087254609 0.511177421810062
0.1529924 -0.8049970665326178 0.517541074596004
0.1549923 -0.8016719646518519 0.5243624972076153
0.1569922 -0.7977977319092648 0.5298721031272053
0.1589921 -0.7938998629616211 0.5362182266534584
0.160992 -0.7900836587071055 0.5422231012388207
0.1629919 -0.786103058258078 0.5481005378363698
0.1649918 -0.7819682600651463 0.5535905183444148
0.1669917 -0.7781592490415836 0.559437693716715
0.1689916 -0.7744926134986237 0.56532830504695
0.1709915 -0.7697035795349177 0.5708872419444003
0.1729914 -0.7658788963182134 0.5763386257394754
0.1749913 -0.7616727505084628 0.5821654288490742
0.1769912 -0.7572833217424257 0.5875072638124147
0.1789911 -0.7532391576225939 0.5929850570800053
0.180991 -0.7484653658801272 0.5984892827143435
0.1829909 -0.7439423938971931 0.6037494208255458
0.1849908 -0.7392157536712818 0.6095132616807415
0.1869907 -0.7347944185700948 0.6148104899709166
0.1889906 -0.7297633257983863 0.6202124000376286
0.1909905 -0.7251441113329516 0.6257572408612815
0.1929904 -0.7201624109664704 0.6309787462180988
0.1949903 -0.7153212528785151 0.6363777538777167
0.1969902 -0.7101582888017844 0.6420208461222485
0.1989901 -0.7051493068886429 0.6473261910145168
0.20099 -0.7002155127497334 0.6527404122340772
0.2029899 -0.6951920878946254 0.6577491754800107
0.2049898 -0.6900572389236961 0.6632251040008469
0.2069897 -0.6848940491453669 0.6681282332378763
0.2089896 -0.6794183623280302 0.6736068042503177
0.2109895 -0.6747889997066544 0.6786181958389218
0.2129894 -0.6694489482704078 0.6837945579838408
0.2149893 -0.6641449350879958 0.6889870774288277
0.2169892 -0.6586327602651164 0.6941556801275035
0.2189891 -0.6535524220871574 0.6994737678570543
0.220989 -0.6481583878753265 0.7047765801325033
0.2229889 -0.6425583012317836 0.7092318983358953
0.2249888 -0.6370066135880673 0.714507964805043
0.2269887 -0.6314800653241356 0.7193521144808508
0.2289886 -0.6257141300827451 0.7244283460333604
0.2309885 -0.6204502094755345 0.7293342920139836
0.2329884 -0.6150637487787818 0.7340216489807322
0.2349883 -0.6091973099632318 0.7389342354652804
0.2369882 -0.6034631854368947 0.743648018912224
0.2389881 -0.5975703107212698 0.748243705800932
0.240988 -0.5920700840651053 0.7532878347202058
0.2429879 -0.5862677179096359 0.7577418541951266
0.2449878 -0.5805699241024267 0.7624037670639084
0.2469877 -0.5746732986733551 0.7669304954131114
0.2489876 -0.5691074459360215 0.7715256198734575
0.2509875 -0.5631513885182499 0.7763763433498729
0.2529874 -0.5573936926471986 0.780984865715271
0.2549873 -0.5516450659732423 0.7853282264602035
0.2569872 -0.5459265354885106 0.7899228080728652
0.2589871 -0.539850152558997 0.794421345244362
0.260987 -0.5343528368470244 0.7986512415279297
0.2629869 -0.5284153817565237 0.8027977556077628
0.2649868 -0.5222239747848967 0.8068441247589868
0.2669867 -0.516520884928657 0.8109205736321977
0.2689866 -0.5105605257383996 0.8149509395698437
0.2709865 -0.5048870080182495 0.8189834528091278
0.2729864 -0.49861903150662346 0.8226240205004769
0.2749863 -0.49297851232442746 0.8261828059041246
0.2769862 -0.4869806193136462 0.830028409914168
0.2789861 -0.4811142581442357 0.8331662199894689
0.280986 -0.4748137497739892 0.836232832414976
0.2829859 -0.46839942459881473 0.8397135769237118
0.2849858 -0.4621907828534182 0.8428171378982838
0.2869857 -0.45561950152380953 0.8457700169644166
0.2889856 -0.4492507948550123 0.8489245272781221
0.2909855 -0.442581597115626 0.8522857822016651
0.2929854 -0.4359441860057621 0.8550436900165499
0.2949853 -0.42915181631557026 0.8574216702824635
0.2969852 -0.4222839092207918 0.8609107817723006
0.2989851 -0.41540881170366273 0.8632468055630558
0.300985 -0.40823045171815864 0.8655610229385403
0.3029849 -0.4008549469548623 0.868328354841859
0.3049848 -0.3935226160150021 0.8706158822391014
0.3069847 -0.3861204534613145 0.8738630284148619
0.3089846 -0.3785639362376737 0.8759345810875144
0.3109845 -0.37083825820839267 0.8787456058996378
0.3129844 -0.36344831960435786 0.8815042168644103
0.3149843 -0.35520189645920497 0.884004864303251
0.3169842 -0.34739853268737764 0.8869830596227911
0.3189841 -0.3397443061548755 0.8893264763487486
0.320984 -0.3313111958119126 0.8918477240730034
0.3229839 -0.32360293516766503 0.8946703620923919
0.3249838 -0.31626112896926295 0.8969591431791091
0.3269837 -0.30823322872650194 0.8993829237177726
0.3289836 -0.30032091424944796 0.9023991779616194
0.3309835 -0.29253686940403334 0.9052557216926415
0.3329834 -0.2854700091077622 0.9079496496119858
0.3349833 -0.2776963324669138 0.9113181601897581
0.3369832 -0.27092782647117086 0.9149458606036516
0.3389831 -0.26337726721656085 0.9181101994246408
0.340983 -0.2561551503461312 0.9214514187282652
0.3429829 -0.24902456895520936 0.9250650019296676
0.3449828 -0.24219767592954758 0.9279144276719321
0.3469827 -0.23538864112187213 0.9308519722715131
0.3489826 -0.2283952024079176 0.933560908770501
0.3509825 -0.22103771160273913 0.9357768244136668
0.3529824 -0.21413132106128308 0.9384818375789931
0.3549823 -0.2072312146738073 0.940741990678135
0.3569822 -0.2005507847463059 0.9429869275809426
0.3589821 -0.19349363860381721 0.9447886845120369
0.360982 -0.18697794479458085 0.9465982401253409
0.3629819 -0.18042032806509561 0.9483474207082258
0.3649818 -0.17335939381487106 0.9491883643402147
0.3669817 -0.16658674587063274 0.9503661032677077
0.3689816 -0.15965405963828727 0.9511958072904704
0.3709815 -0.152207784904486 0.9521757991638451
0.3729814 -0.14476027757534313 0.953003598278734
0.3749813 -0.13807401788061652 0.9534669048591475
0.3769812 -0.1307174900486602 0.9537585552463583
0.3789811 -0.12299171418092124 0.954627436319624
0.380981 -0.11526400754903335 0.9547935515863671
0.3829809 -0.10745585360574074 0.9550919822146501
0.3849808 -0.0996505554642972 0.9553501865401046
0.3869807 -0.09161029453045119 0.9552429588487965
0.3889806 -0.08316663567301526 0.9553929501469877
0.3909805 -0.07486281351612192 0.9556100813823174
0.3929804 -0.066559476760898 0.9558060855831803
0.3949803 -0.058072390102161295 0.9560647404547019
0.3969802 -0.049453877560811876 0.9565992320885122
0.3989801 -0.04119650797540661 0.9562774803586205
0.40098 -0.03233782386019442 0.957365941661112
0.4029799 -0.023998733911352592 0.9575595257397741
0.4049798 -0.015336998770789603 0.9579923817864838
0.4069797 -0.007099562481701932 0.9585613056252645
0.4089796 0.0011093051307718982 0.9590521490683676
0.4109795 0.009794130891276186 0.959459757667762
0.4129794 0.01759154930926043 0.9600481270393659
0.4149793 0.026675432297022066 0.9608678225258168
0.4169792 0.034304033001148995 0.9611572310343447
0.4189791 0.042347938505308644 0.9613974605481216
0.420979 0.05033856672474866 0.9619614150380478
0.4229789 0.0580736880635295 0.9622813443185576
0.4249788 0.0657381000032103 0.9623701163224346
0.4269787 0.07329017825509188 0.962618129254444
0.4289786 0.08058892361951907 0.962703914431166
0.4309785 0.08813970368014384 0.9622668909844712
0.4329784 0.09556602943475079 0.9617623581645939
0.4349783 0.10292435136729221 0.9605932930614121
0.4369782 0.11029299399874673 0.9600739003859287
0.4389781 0.11762715371024879 0.9586621490210949
0.440978 0.12469849521861114 0.9575294439680735
0.4429779 0.13195075911965098 0.9564913738568573
0.4449778 0.13965619033101592 0.9549348853087782
0.4469777 0.1473140699120849 0.953185502626836
0.4489776 0.1549333461522506 0.9516363042364445
0.4509775 0.1624391694765988 0.9495115241375092
0.4529774 0.17038218616895118 0.9471907101076333
0.4549773 0.17815096835662297 0.9450091205125238
0.4569772 0.18639966788669482 0.9430265094267297
0.4589771 0.19445042154591435 0.9404173670716781
0.460977 0.20320485868262375 0.9380415620506206
0.4629769 0.21140000131991302 0.9360874588091793
0.4649768 0.21978978128489146 0.9337863262345899
0.4669767 0.22793428706272947 0.9316513752384027
0.4689766 0.2367918065725099 0.9293586724740633
0.4709765 0.24497729257048492 0.9271998327470067
0.4729764 0.2537473635278392 0.9251943425492999
0.4749763 0.2624295045166981 0.923298663055128
0.4769762 0.2708760194967565 0.9209154953511757
0.4789761 0.27966633672168884 0.91878346634335
0.480976 0.28842913246685925 0.9167030909056688
0.4829759 0.29693003578142785 0.9148621144068215
0.4849758 0.3054071233028038 0.9130924858203255
0.4869757 0.3135950273683722 0.9109679549417379
0.4889756 0.32188353820476745 0.9088207539325707
0.4909755 0.33024229660790255 0.9069723515617566
0.4929754 0.33808737964743085 0.9051462962269955
0.4949753 0.34561107696880816 0.9031863063975957
0.4969752 0.35304951553492453 0.9008268861098184
0.4989751 0.3606035609865548 0.8987204332137124
0.500975 0.3674942255260883 0.8961582497849383
0.5029749 0.37457831849539786 0.8937314209973816
0.5049748 0.38187379774381314 0.8908900965662151
0.5069747 0.38853764697906457 0.8882131329813874
0.5089746 0.39588103276671827 0.8851729148201084
0.5109745 0.40318236751860737 0.8823802275861551
0.5129744 0.410193036258015 0.8789711823292936
0.5149743 0.41653606536100396 0.8758602898380897
0.5169742 0.42293005804493716 0.8719911360416112
0.5189741 0.43040136937053225 0.8682869414183398
0.520974 0.4375184970627415 0.8640770782735921
0.5229739 0.4449217037703018 0.859509575958669
0.5249738 0.45150877690588553 0.8559114482645276
0.5269737 0.45858974561685506 0.8511607658982295
0.5289736 0.4656521296438436 0.8467194795063844
0.5309735 0.47226852791105145 0.8422343875198529
0.5329734 0.4793382080094393 0.8372769730215405
0.5349733 0.4863714296473589 0.8325623158494108
0.5369732 0.49369384949102163 0.8275894937093806
0.5389731 0.501449766777378 0.8222832395718926
0.540973 0.5084435703909519 0.8174379071808899
0.5429729 0.5159015078637993 0.8120360423324091
0.5449728 0.5238663922741172 0.8075647685838845
0.5469727 0.5312272010292944 0.802442122486765
0.5489726 0.538577686568242 0.797705936328911
0.5509725 0.5460653527169064 0.7926337921404909
0.5529724 0.5536576648896967 0.7879315838415367
0.5549723 0.5611897463487766 0.7830439021017369
0.5569722 0.5685559558480218 0.7782470916036053
0.5589721 0.5760260096370698 0.7734779682334385
0.560972 0.5836517875896178 0.7689452391820667
0.5629719 0.5907464142645097 0.7641507153110086
0.5649718 0.5980710517324132 0.7597027714192971
0.5669717 0.6052885215652846 0.7545900764897407
0.5689716 0.6115606833300524 0.7500518248865163
0.5709715 0.6178660608285956 0.7452709794749522
0.5729714 0.6243247112330809 0.7401939800054562
0.5749713 0.6310297384736718 0.7352088613119879
0.5769712 0.6376186989515014 0.7300533533342313
0.5789711 0.6437651283976527 0.7252708486284021
0.580971 0.6497606015685407 0.7202208168147188
0.5829709 0.6556816639368814 0.7150620880678737
0.5849708 0.6615112867570495 0.7095640651106359
0.5869707 0.6669942938874389 0.7039119100383596
0.5889706 0.672789972510951 0.6977656677882638
0.5909705 0.6784013997140877 0.6917383678693082
0.5929704 0.6842656221626319 0.6854430722652642
0.5949703 0.68973917576089 0.6791263290038309
0.5969702 0.6956364922377202 0.6733227505172025
0.5989701 0.7008891047801628 0.6668561393524769
0.60097 0.7065721244726643 0.6600180794678969
0.6029699 0.7122664445877402 0.653289807787089
0.6049698 0.7174139885447018 0.6466768707801489
0.6069697 0.7226731663684778 0.6398718490770948
0.6089696 0.7286910816115383 0.6328163080780024
0.6109695 0.7342010315100903 0.6261019194558596
0.6129694 0.7401858080233699 0.6189564281117701
0.6149693 0.7462682545501058 0.6118280283125537
0.6169692 0.7520015731178908 0.6046507760720058
0.6189691 0.7577118033232002 0.598065185436935
0.620969 0.7630220781754881 0.5907170604603051
0.6229689 0.7689806787370697 0.5836898233535102
0.6249688 0.7743722650887156 0.5769146623741317
0.6269687 0.780108090705971 0.5696257611943145
0.6289686 0.7857025874983189 0.5630253405505113
0.6309685 0.7914625213154728 0.5559120432841995
0.6329684 0.7962991817464847 0.54944218764125
0.6349683 0.801228336759955 0.5427955735030663
0.6369682 0.8061654335517991 0.5357059900160628
0.6389681 0.8118566438653821 0.5286456201494562
0.640968 0.8163158729121318 0.5223702003912148
0.6429679 0.821439410762047 0.5156330612128449
0.6449678 0.8262304285100863 0.5086741084147121
0.6469677 0.8304106351954536 0.50170254971777
0.6489676 0.8349116582535842 0.49488143779874033
0.6509675 0.8389300117748616 0.4882725338331304
0.6529674 0.842906624766263 0.4806105903378007
0.6549673 0.8471845144520606 0.47388607010181066
0.6569672 0.8508309641336746 0.4664139903803594
0.6589671 0.8546870907814897 0.45884759880402304
0.660967 0.8583678624314308 0.4514041726437482
0.6629669 0.8615644192469297 0.4438732980596327
0.6649668 0.8651662189273147 0.4358319424957986
0.6669667 0.8683921641683384 0.42836585737680927
0.6689666 0.8720340777477984 0.4202096614839129
0.6709665 0.8755907425680485 0.4121883951492056
0.6729664 0.8782153922701086 0.4041374793362753
0.6749663 0.8816765534826861 0.39591679834864896
0.6769662 0.8847249270574016 0.3873292756665647
0.6789661 0.8881833104195224 0.3791804937619702
0.680966 0.8914588421807741 0.3706961081912542
0.6829659 0.8943362090805327 0.36218947367426346
0.6849658 0.8977122854816179 0.3537425323036735
0.6869657 0.9011028304626442 0.34519015963311694
0.6889656 0.9045413856083938 0.3364629745092005
0.6909655 0.9073212957290898 0.3285811010272483
0.6929654 0.9105946628899859 0.31961616812836996
0.6949653 0.913579149199404 0.31148994656366524
0.6969652 0.9167749944078492 0.30279661958036364
0.6989651 0.919294312053425 0.2947094070566307
0.700965 0.922287767073549 0.2858780084544195
0.7029649 0.9251939428191416 0.2778180337459059
0.7049648 0.9281122298754081 0.2695258705725968
0.7069647 0.9303101728755333 0.26126962522425096
0.7089646 0.9331294866941436 0.25315698543190535
0.7109645 0.935491120408105 0.2448844965982256
0.7129644 0.9375960954084739 0.236561553078283
0.7149643 0.9402040357914361 0.2284070205595293
0.7169642 0.9421706580094893 0.22022667999584247
0.7189641 0.9437999468162483 0.21202368788651443
0.720964 0.9458367266051414 0.2039744155289921
0.7229639 0.9477355506979073 0.19501514254308688
0.7249638 0.9493878869724789 0.18684870702858006
0.7269637 0.9509015233810715 0.17842204896456687
0.7289636 0.951787150150895 0.17029217312488795
0.7309635 0.9536488186262795 0.1622481510259184
0.7329634 0.9548839338208237 0.153341648055837
0.7349633 0.9555298061056443 0.14518755487387014
0.7369632 0.9568994305996299 0.13653630692916108
0.7389631 0.9578656943919626 0.1277530369171737
0.740963 0.9586685256642588 0.11955855884408426
0.7429629 0.9596880333702631 0.1104090282075737
0.7449628 0.960299579862598 0.10177850877940832
0.7469627 0.9611261217921289 0.09288308057370939
0.7489626 0.9619769133045851 0.08406540143640502
0.7509625 0.9621080150075515 0.07576499454468157
0.7529624 0.962943948957296 0.06651641683608434
0.7549623 0.9635856911956143 0.057705928569724875
0.7569622 0.9634723597651103 0.049535301952642136
0.7589621 0.96442294602479 0.04027595466261109
0.760962 0.9644470521523884 0.03182690742178973
0.7629619 0.9648964622456738 0.023210620860881007
0.7649618 0.9652025026276118 0.014377244637762021
0.7669617 0.9648929164256407 0.005793556573314679
0.7689616 0.9648907135719216 -0.0029137290586504078
0.7709615 0.965077196094845 -0.01157941031352877
0.7729614 0.9652131980897924 -0.02009686612924262
0.7749613 0.9644418273377332 -0.028535763508983264
0.7769612 0.9642831017553556 -0.03731532287426316
0.7789611 0.9638394018452532 -0.04558305931869443
0.780961 0.9634026590516744 -0.05445323074867102
0.7829609 0.9627454373214743 -0.06251889292997491
0.7849608 0.9621281100345453 -0.07095542479763703
0.7869607 0.9613208035456868 -0.07957063017215776
0.7889606 0.9604024579814412 -0.08846229584571583
0.7909605 0.9589915329683073 -0.09663368964167598
0.7929604 0.9580917043283081 -0.1052292585960668
0.7949603 0.9571036464818096 -0.11392874036216098
0.7969602 0.9559246245873958 -0.12243839455651705
0.7989601 0.9540641786957453 -0.13122354331929345
0.80096 0.9528349970947781 -0.13986164701649198
0.8029599 0.9514042779613607 -0.1481264592196184
0.8049598 0.9501835416600772 -0.15716136209456186
0.8069597 0.9489665884558826 -0.16553340632261312
0.8089596 0.9471112616142779 -0.17438648247491945
0.8109595 0.9452957312757044 -0.18347350645774627
0.8129594 0.9438265963140422 -0.19182072906513067
0.8149593 0.94196424637218 -0.20066990010894042
