! Created with skrf 1.8.0 (http://scikit-rf.org).
# GHz S RI R 50.0 
!freq ReS11 ImS11
0.001 -0.9478090537516018 0.03274167136978712
0.0029999 -0.9617428894882111 0.02358229146135382
0.0049998 -0.9576881008472324 0.024277877338086812
0.0069997 -0.9595540621078664 0.028907788581230387
0.0089996 -0.9545870614489493 0.040394685002541675
0.0109995 -0.9537597870795664 0.04834090936418356
0.0129994 -0.9538769099562383 0.056757105903230354
0.0149993 -0.9529421832465127 0.06614167957390205
0.0169992 -0.95238000907148 0.07204268961732241
0.0189991 -0.9517445926508588 0.08012197636748442
0.020999 -0.9510137508318424 0.08810366281405263
0.0229989 -0.9499500154536024 0.09598199431531551
0.0249988 -0.9485079756213957 0.10364451968427954
0.0269987 -0.9477782358928913 0.11156741759108091
0.0289986 -0.9464969947889412 0.11943974465893906
0.0309985 -0.9451736576539371 0.12717909594692742
0.0329984 -0.9439290326998326 0.13516658435899437
0.0349983 -0.9426155018120983 0.14284649155875923
0.0369982 -0.9407761128031383 0.1507570357492014
0.0389981 -0.9389738981447104 0.15849411419657772
0.040998 -0.9379103877474764 0.16669622640926818
0.0429979 -0.9354058291795827 0.17463343753462646
0.0449978 -0.9337640417458161 0.18201966568305955
0.0469977 -0.9326234215685616 0.1902232460916769
0.0489976 -0.9295861634670874 0.1980898024066428
0.0509975 -0.9274605374909233 0.20598928872957212
0.0529974 -0.9256461958230483 0.21429864213772498
0.0549973 -0.9229955221521137 0.2228541453466384
0.0569972 -0.9211446227285124 0.23032269653905535
0.0589971 -0.9191432839784089 0.23873815528768416
0.060997 -0.917416026849229 0.24715130995629056
0.0629969 -0.9149936299254737 0.2544688739584605
0.0649968 -0.9123135307153075 0.263013548655895
0.0669967 -0.9108928804886502 0.2711773794153633
0.0689966 -0.9085769938450824 0.27850989736420545
0.0709965 -0.9062186980555897 0.2869156923264803
0.0729964 -0.9034766681431307 0.2947802416454116
0.0749963 -0.9016696479001058 0.30226983348820025
0.0769962 -0.8996908204705085 0.31014278625314856
0.0789961 -0.8967712909069828 0.3174394545441038
0.080996 -0.8941808390157231 0.32541372100312704
0.0829959 -0.8913623372444733 0.3331032279227426
0.0849958 -0.889282439546409 0.3400151757445596
0.0869957 -0.8865826495568784 0.34774359486613565
0.0889956 -0.8837844451039718 0.35471392274964836
0.0909955 -0.8807071049007349 0.3620437221301917
0.0929954 -0.8777714783895174 0.36926515313085817
0.0949953 -0.8745282073029846 0.3767587275717711
0.0969952 -0.8709104545591311 0.3833290640642555
0.0989951 -0.867798159475494 0.39059098595655806
0.100995 -0.8659870627714067 0.39830413281748717
0.1029949 -0.8624725948002634 0.4051168433392875
0.1049948 -0.8591193432893721 0.41220558781041655
0.1069947 -0.8552325301264148 0.4187807754150389
0.1089946 -0.8513586496301375 0.4256631050330771
0.1109945 -0.8471925264007839 0.4325504577125898
0.1129944 -0.8432875665017294 0.4393444180286595
0.1149943 -0.8389382611533043 0.4461516112339311
0.1169942 -0.8344981765553411 0.45306104038228323
0.1189941 -0.8301467657114552 0.46006641943859927
0.120994 -0.8256862833955152 0.46734609079194633
0.1229939 -0.8213269392287108 0.4744460277715909
0.1249938 -0.8169120340707544 0.4812877550836945
0.1269937 -0.8125466934572317 0.4887104883177733
0.1289936 -0.8078984942250381 0.49587533950109997
0.1309935 -0.8035811564453945 0.5032907025239569
0.1329934 -0.7986747689319866 0.5099259502551211
0.1349933 -0.7940327986691236 0.5169282263765397
0.1369932 -0.7896792675547241 0.5239564976158383
0.1389931 -0.7848510197430236 0.5311676992995796
0.140993 -0.7804379567160342 0.5382012554625257
0.1429929 -0.775238433352867 0.5447196543291631
0.1449928 -0.7714594415230778 0.5521107373265578
0.1469927 -0.7662997511153015 0.5590131848245847
0.1489926 -0.7614087012306874 0.5663060386204188
0.1509925 -0.7567585107638222 0.5726033279977617
0.1529924 -0.7518725398865164 0.5792770030363439
0.1549923 -0.747286078296004 0.5864424201601274
0.1569922 -0.7421787397740911 0.5925717080398029
0.1589921 -0.737499172597233 0.5994230689314528
0.160992 -0.7324352641642204 0.605679602484158
0.1629919 -0.7274879716022825 0.6116768811343228
0.1649918 -0.7222792337854328 0.6180326883701495
0.1669917 -0.7173239393318936 0.6241696937386189
0.1689916 -0.7123677877005568 0.6304385229676623
0.1709915 -0.7066461338493529 0.6362423478765811
0.1729914 -0.7013518037600638 0.6422806201521633
0.1749913 -0.6958697116572097 0.6481123407514953
0.1769912 -0.6905425155041124 0.6538821502224067
0.1789911 -0.6850978686274523 0.6597251131014508
0.180991 -0.67921819938461 0.6655284000596341
0.1829909 -0.6736832241065859 0.6710522045334213
0.1849908 -0.6678190461057034 0.6768595485325604
0.1869907 -0.6620174617922384 0.6823592198076219
0.1889906 -0.6557262446465555 0.6881082052555081
0.1909905 -0.6495450986623913 0.6938723674571229
0.1929904 -0.6434685799663888 0.6994576245797137
0.1949903 -0.6374833905570089 0.7049746597321059
0.1969902 -0.630974512737934 0.7104549667874365
0.1989901 -0.6247571814490571 0.715878571758328
0.20099 -0.6181572876465622 0.7215912357358893
0.2029899 -0.6119510447360114 0.7268207811324142
0.2049898 -0.6056359445099282 0.7319606868150536
0.2069897 -0.5988468962743556 0.7373137573839511
0.2089896 -0.5926363700993476 0.7423161937910687
0.2109895 -0.5861094072290609 0.7478796640786548
0.2129894 -0.579290944967869 0.753293987466687
0.2149893 -0.572514875333767 0.7583897401263333
0.2169892 -0.5660181054164075 0.7637517759111871
0.2189891 -0.5588579153192945 0.7691118855110002
0.220989 -0.5525529544465639 0.7737724973762536
0.2229889 -0.5454975467305918 0.7783592276186052
0.2249888 -0.5384585669927644 0.7834130298209292
0.2269887 -0.5314956450021848 0.7881208785815582
0.2289886 -0.5240706357556102 0.7931256914596363
0.2309885 -0.5173172904174952 0.798065199664281
0.2329884 -0.5102525925163205 0.802499924177849
0.2349883 -0.5032282190100728 0.807135801881412
0.2369882 -0.4956553667827188 0.8117451239070921
0.2389881 -0.48879171461745274 0.8162222538485644
0.240988 -0.4814490819396259 0.8209453079138623
0.2429879 -0.4743338426215535 0.8253723714525213
0.2449878 -0.46698936182981776 0.8296094587650434
0.2469877 -0.4594461868454789 0.83382927903791
0.2489876 -0.45246272818219296 0.8384076892289376
0.2509875 -0.4449682302599829 0.8428406697145164
0.2529874 -0.43772634938404487 0.8470961635491152
0.2549873 -0.4304194340029459 0.8512020102398336
0.2569872 -0.42334185093804483 0.8556508061231892
0.2589871 -0.41579056406823844 0.8595838393843439
0.260987 -0.4086353866656374 0.8634500183529591
0.2629869 -0.4010456215509368 0.8674299915532088
0.2649868 -0.3936350254562284 0.8707779375633153
0.2669867 -0.3865150470729447 0.8744698919294941
0.2689866 -0.37889840712481193 0.8782350756556772
0.2709865 -0.3715575928392031 0.8817317512031052
0.2729864 -0.36437357664733033 0.8847232728832471
0.2749863 -0.3568705603040163 0.8881228031918235
0.2769862 -0.3494619413180718 0.8913719560027701
0.2789861 -0.34205565388974557 0.8936071001988991
0.280986 -0.33436667231020945 0.8965629191524274
0.2829859 -0.3268552287557849 0.8990720570302431
0.2849858 -0.31888894380979527 0.9013818246259462
0.2869857 -0.31103766049300613 0.9041252162097424
0.2889856 -0.3030943234319726 0.9064198926923769
0.2909855 -0.2949169143808704 0.90861279645934
0.2929854 -0.2867969942975059 0.9106277269372702
0.2949853 -0.2786174926130875 0.9128230663409274
0.2969852 -0.27038563622808726 0.9146509432976784
0.2989851 -0.261829077887945 0.9163314785715724
0.300985 -0.25336565258308746 0.9177874241068698
0.3029849 -0.24451377137724134 0.9191524582707071
0.3049848 -0.23576585940759276 0.9210625242964534
0.3069847 -0.22676171306986936 0.9227611097354121
0.3089846 -0.21768577781998735 0.9239392591399949
0.3109845 -0.2087243211580086 0.9256611945391554
0.3129844 -0.19940764347404338 0.927119212598021
0.3149843 -0.19002493602311843 0.9286930500130929
0.3169842 -0.1804260022113101 0.9302305009779933
0.3189841 -0.17124320911976795 0.9315114973960382
0.320984 -0.1614833258069206 0.9330146266254645
0.3229839 -0.15252665015393588 0.9342414983145848
0.3249838 -0.14351246414082203 0.9353185081158465
0.3269837 -0.13417600137470673 0.9366779250257413
0.3289836 -0.12467896331911482 0.9382760780367446
0.3309835 -0.11595258280690168 0.9396144072501408
0.3329834 -0.10668169591887286 0.9416736627630609
0.3349833 -0.09784269373699432 0.9435884436051853
0.3369832 -0.08897770651270241 0.9462514350009227
0.3389831 -0.07990700200520649 0.9480437466841063
0.340983 -0.07068126316287747 0.9501275627244867
0.3429829 -0.06224689965514768 0.9525309689387301
0.3449828 -0.0532345684169159 0.954203568593881
0.3469827 -0.04473292649843435 0.9555291425561047
0.3489826 -0.03602790196153087 0.956752825378765
0.3509825 -0.02737180582767501 0.95811826520527
0.3529824 -0.01897052074002704 0.9594952195097284
0.3549823 -0.010839244630287063 0.9604036344910927
0.3569822 -0.0025026710995596016 0.9610413333837091
0.3589821 0.005226408781851093 0.961399046786564
0.360982 0.013584642596313888 0.9620542695541495
0.3629819 0.02156641766016576 0.9623251269619164
0.3649818 0.02981819466021006 0.9615106809735099
0.3669817 0.03791466050235964 0.9609343704558385
0.3689816 0.04639290201435839 0.9605879220421671
0.3709815 0.054584488052166216 0.9600060348954232
0.3729814 0.06281271145085221 0.9592615391686347
0.3749813 0.07110147885501601 0.9578601553197933
0.3769812 0.07955482991092458 0.9567427152236917
0.3789811 0.08856913343417586 0.9562716442484859
0.380981 0.09696914763926973 0.9543689433549062
0.3829809 0.10603316056377612 0.9524633027786139
0.3849808 0.11457302299337302 0.9509085893731501
0.3869807 0.12396892064951603 0.9492624367727485
0.3889806 0.13320017788713162 0.9475844596300143
0.3909805 0.14256756890518837 0.9452964719454576
0.3929804 0.1521085064872258 0.9436966005875409
0.3949803 0.16124889460838912 0.9416834496076143
0.3969802 0.17103301194143578 0.940142494487224
0.3989801 0.1802979055072201 0.9383397977967396
0.40098 0.18994788278371355 0.9364347905682725
0.4029799 0.19966425240117927 0.9348007812500903
0.4049798 0.2091760252510635 0.9328553552136021
0.4069797 0.2186730589444549 0.9315348503590598
0.4089796 0.22802923110063053 0.9292491541220773
0.4109795 0.23755270920360463 0.9278911908082477
0.4129794 0.2469265906789362 0.9258167930431853
0.4149793 0.25667415936311155 0.9242010595588428
0.4169792 0.265528356778587 0.9227555740495609
0.4189791 0.27446322074051194 0.920665795337446
0.420979 0.2833942565062271 0.9188282019477214
0.4229789 0.29228241168998614 0.9167441656889509
0.4249788 0.3007099724601069 0.9150130797888131
0.4269787 0.3092976635981747 0.912873521337145
0.4289786 0.3175810110369435 0.9106109371026196
0.4309785 0.32610834689533214 0.907928252560501
0.4329784 0.3341757347387934 0.9051356145361851
0.4349783 0.34242880608988385 0.9017629322796825
0.4369782 0.35042134543625897 0.8988499154258853
0.4389781 0.35802947977746763 0.8955470657124052
0.440978 0.3665047801539639 0.8920963246988617
0.4429779 0.3743799248037343 0.8887825979845105
0.4449778 0.38243754677092134 0.8851875093044792
0.4469777 0.3903264315395021 0.8809402830216362
0.4489776 0.3982992520235602 0.8767619744116116
0.4509775 0.40613912639117994 0.8722624699922628
0.4529774 0.4145688584640097 0.8675737659782488
0.4549773 0.42265932141778995 0.8633076508941088
0.4569772 0.4309163074806709 0.8585045219154177
0.4589771 0.4393533338640356 0.8536758888026904
0.460977 0.44805598127285273 0.8485364704338958
0.4629769 0.45656538859004386 0.8438510101460268
0.4649768 0.46515975309191154 0.8390854529600389
0.4669767 0.47362023978926215 0.8342206718034421
0.4689766 0.48229632878011713 0.8291096947551192
0.4709765 0.4909859322230193 0.8240526136404938
0.4729764 0.4997427143123551 0.8194126555748258
0.4749763 0.5083445978011928 0.8141808857086013
0.4769762 0.5166292472410018 0.8091822719135838
0.4789761 0.5257896391700141 0.8039769767966415
0.480976 0.5343397577866981 0.7990307940158866
0.4829759 0.5426877255072478 0.794101689937665
0.4849758 0.5510945494676327 0.7893295173839942
0.4869757 0.5594905966907633 0.7840606353291151
0.4889756 0.5677018078184045 0.7792765082535682
0.4909755 0.5759549302055438 0.7745140716684525
0.4929754 0.5836952022807336 0.7693484970987042
0.4949753 0.5914173542786992 0.7647247581599963
0.4969752 0.5988648462638837 0.7592671646630134
0.4989751 0.6059588707818954 0.7543276968635138
0.500975 0.6126886274703571 0.7490588939564703
0.5029749 0.6201593082947979 0.7436412116194226
0.5049748 0.6273260391254143 0.7382718716254747
0.5069747 0.6339680705187976 0.732761306984524
0.5089746 0.6410557389713788 0.7270175961439624
0.5109745 0.647893871843798 0.7211408572080749
0.5129744 0.6545687269370482 0.7149452696759777
0.5149743 0.6608167698137126 0.7090203680781224
0.5169742 0.6669839105695995 0.7027143389976505
0.5189741 0.6736243964109454 0.6957355795400174
0.520974 0.6800032632721758 0.6890438724452512
0.5229739 0.6868306282603379 0.682063042029985
0.5249738 0.6928994680709868 0.6753315488703117
0.5269737 0.6991851242687331 0.6681253378834683
0.5289736 0.7054320299234299 0.6609914201708472
0.5309735 0.7118405111927909 0.6537873212942358
0.5329734 0.7176530801140395 0.6462038753618918
0.5349733 0.7236742506939126 0.6383415791888906
0.5369732 0.7298879553727039 0.6309481252481945
0.5389731 0.7364897520920812 0.6230257001007308
0.540973 0.7427687822364064 0.615261097090285
0.5429729 0.7488506559510368 0.6074163772046364
0.5449728 0.755273134188935 0.599289690779333
0.5469727 0.7611500923150389 0.591610325907567
0.5489726 0.7675285091782403 0.583965006110845
0.5509725 0.7735837275975121 0.5761246230046109
0.5529724 0.779701261071402 0.5678513740110126
0.5549723 0.7857890744879746 0.5601574740102112
0.5569722 0.791695180786012 0.5525374607038415
0.5589721 0.7978850803273977 0.5446289065279271
0.560972 0.8036184368805889 0.5366158966972588
0.5629719 0.8094864142948713 0.5287016895966364
0.5649718 0.8153010247661583 0.5213155812179853
0.5669717 0.8206017737009534 0.5133385756358136
0.5689716 0.825746210610291 0.5055649182159422
0.5709715 0.8307878513229261 0.4978258875911116
0.5729714 0.8356496435608489 0.4900084521054275
0.5749713 0.8405450394817895 0.4816331033424419
0.5769712 0.8457438648437531 0.4737534467254378
0.5789711 0.8504658339776163 0.4660534126617226
0.580971 0.8550802577628711 0.458009073529939
0.5829709 0.8590847894764861 0.4497318383774331
0.5849708 0.8634438244475684 0.44138915993635514
0.5869707 0.8673864148741266 0.43305108433323647
0.5889706 0.8716021940578962 0.42443569868292963
0.5909705 0.8755487412154056 0.41574693684064057
0.5929704 0.8792727588835241 0.4067716601815695
0.5949703 0.8825854789690344 0.39844551464192923
0.5969702 0.8871012874073321 0.3895664079452166
0.5989701 0.890487203018799 0.38069752807951684
0.60097 0.8937844670165357 0.3715264117588277
0.6029699 0.8970281991779928 0.3624355559356224
0.6049698 0.9004448605237878 0.3531206973810841
0.6069697 0.9038979334827044 0.3444742196315469
0.6089696 0.9074137881993315 0.33458992495501366
0.6109695 0.9106174857502478 0.3252658122785516
0.6129694 0.913888429819046 0.31577253308219805
0.6149693 0.9174269322551728 0.3066562738392269
0.6169692 0.9203605419524343 0.29742726620879634
0.6189691 0.9232771910654798 0.2879707435928827
0.620969 0.9259029459179213 0.2784782775401381
0.6229689 0.9290534952733874 0.269002852234604
0.6249688 0.9320293832961118 0.25990029735606784
0.6269687 0.9346943815390756 0.25039767196139956
0.6289686 0.9373238803714291 0.24136321869295396
0.6309685 0.9399895996265009 0.23194135388140202
0.6329684 0.9423780198585836 0.22275053187190746
0.6349683 0.9443285100787608 0.21358382651349486
0.6369682 0.946806355268297 0.20446041388409347
0.6389681 0.9489869376686457 0.19466030741208157
0.640968 0.9511483083998536 0.18549672820556753
0.6429679 0.9531605974199052 0.17627332034419785
0.6449678 0.9545356607543611 0.16741360292431073
0.6469677 0.9562493960588166 0.15789845482280473
0.6489676 0.957964389688492 0.148052437348052
0.6509675 0.9590665494799355 0.13926613518484243
0.6529674 0.9601199734268944 0.1294045278451117
0.6549673 0.9614229270003387 0.12037635609540523
0.6569672 0.9626172113291188 0.1105097488092392
0.6589671 0.9632001504899257 0.10128930336473094
0.660967 0.963877034624243 0.09153798741107087
0.6629669 0.9646020816366424 0.08225572054784616
0.6649668 0.9657903092292367 0.07228001578559759
0.6669667 0.9661675470744205 0.06302355992555182
0.6689666 0.9665963996152973 0.05323303569049069
0.6709665 0.9668870418468689 0.04350674833321233
0.6729664 0.967102282343534 0.033764611515174986
0.6749663 0.9674383518058101 0.024099330873550207
0.6769662 0.9675492197956694 0.014507067620009695
0.6789661 0.9677157966162119 0.004706963931752295
0.680966 0.9677083765168266 -0.004737079554067117
0.6829659 0.9674553247418876 -0.014321187651430686
0.6849658 0.9674563638964964 -0.023704945234940294
0.6869657 0.9672191208016211 -0.033354705165676554
0.6889656 0.966861675039444 -0.04299799213643753
0.6909655 0.9664217277370318 -0.05253269158635078
0.6929654 0.9658792674916321 -0.06234674722622578
0.6949653 0.965224542583289 -0.07116962149426509
0.6969652 0.9643149375973604 -0.08084622334185097
0.6989651 0.9636674191998414 -0.08994063929610858
0.700965 0.9625377781025135 -0.0997255638457151
0.7029649 0.9613463071398928 -0.1088029699066439
0.7049648 0.9602337988784908 -0.11851655224792185
0.7069647 0.958850312474178 -0.12729014286171927
0.7089646 0.9573568994554166 -0.1367534761308348
0.7109645 0.9557231796552967 -0.14589578798802
0.7129644 0.9539310174358385 -0.1556067708868932
0.7149643 0.9523536588908057 -0.16491452023718414
0.7169642 0.9503391271855739 -0.1744976464588111
0.7189641 0.948223703690994 -0.1836535666582706
0.720964 0.9462156644248021 -0.19294947540038757
0.7229639 0.9440017111077703 -0.20255628935661885
0.7249638 0.9419524448414031 -0.2119122793313324
0.7269637 0.9392809568294254 -0.22098472366897304
0.7289636 0.9372199924855976 -0.23019441290649964
0.7309635 0.9348016953245472 -0.2397698148559408
0.7329634 0.9321658109617783 -0.2492566480955946
0.7349633 0.9296130973870228 -0.25839496094712877
0.7369632 0.9274595322629764 -0.2679712576358683
0.7389631 0.92485896299146 -0.27736027731983565
0.740963 0.9223427913732537 -0.2864634399443375
0.7429629 0.9197981638781888 -0.29563388759799303
0.7449628 0.9170434162063062 -0.30431774583025706
0.7469627 0.9140436237024158 -0.31314361410191005
0.7489626 0.9113191135634447 -0.3224873002803392
0.7509625 0.9082882019616068 -0.3312617576004856
0.7529624 0.9055154479158455 -0.340097812497375
0.7549623 0.9025960864232108 -0.348719531048136
0.7569622 0.8994662471112123 -0.35688065508998695
0.7589621 0.8960122933454315 -0.3656984877681921
0.760962 0.8924091917535864 -0.37383499389256003
0.7629619 0.8891372167342024 -0.381900832637166
0.7649618 0.8857175355214872 -0.38994397873368447
0.7669617 0.8817149032963982 -0.39820416645679835
0.7689616 0.8779194326272852 -0.4062154712054774
0.7709615 0.8741738748313185 -0.4141683691177348
0.7729614 0.8705554001935274 -0.42252348851095567
0.7749613 0.8654254482858482 -0.4298308575466442
0.7769612 0.8604400332642506 -0.43744626799870345
0.7789611 0.8564478223537164 -0.44518014619840907
0.780961 0.8517103882471413 -0.45300333724924224
0.7829609 0.8465105306692269 -0.4606968929423724
0.7849608 0.8416075663458509 -0.468706675666303
0.7869607 0.8365137213987329 -0.4763291341693119
0.7889606 0.8308003369702921 -0.48436048481181143
0.7909605 0.8255929048725685 -0.4921770787069222
0.7929604 0.8204352452510387 -0.49972935360888027
0.7949603 0.8147108455146608 -0.5079283571845405
0.7969602 0.809273040898396 -0.5158750137854851
0.7989601 0.803792578135407 -0.5237891369847401
0.80096 0.7982611933663826 -0.5320231657493264
0.8029599 0.7925826532307664 -0.5400630838687394
0.8049598 0.7874318900415939 -0.548634710335675
0.8069597 0.7818082605167332 -0.5571345381718833
0.8089596 0.7763453289739772 -0.5651730135548609
0.8109595 0.7705422762312397 -0.5730350977355847
0.8129594 0.7654758122616513 -0.5811520036098287
0.8149593 0.7603507476881644 -0.5887222415068345
