! Created with skrf 1.8.0 (http://scikit-rf.org).
# GHz S RI R 50.0 
!freq ReS11 ImS11
0.001 2.0254194723305137 -1.4754312995055754
0.0029999 0.9980529258966808 -0.018696513191423847
0.0049998 0.9912782704950569 -0.023868364916804607
0.0069997 0.9961443238057349 -0.0284696152807232
0.0089996 0.9927456241965481 -0.034854760681966634
0.0109995 0.9923423132855069 -0.04146607563262794
0.0129994 0.9912484635531761 -0.04918611237098702
0.0149993 0.9908475953770325 -0.05625049359613299
0.0169992 0.9902527164984143 -0.06479666843651077
0.0189991 0.9903779447959004 -0.07127685985589005
0.020999 0.9882444275799188 -0.0787869736776502
0.0229989 0.9880319494663552 -0.08656321896473146
0.0249988 0.98737175427343 -0.09374186205582258
0.0269987 0.9869002714791049 -0.10113975425585264
0.0289986 0.9860751976543972 -0.10901210053951972
0.0309985 0.9853268598141325 -0.11730373687168778
0.0329984 0.9833141174232263 -0.12363364542713974
0.0349983 0.9829934965027526 -0.1310775488246111
0.0369982 0.9828283399922212 -0.13893264779187983
0.0389981 0.9819474754558202 -0.14579679178419913
0.040998 0.9808064093820688 -0.15259698605814936
0.0429979 0.9797062545581554 -0.1597473271163754
0.0449978 0.9789278244384734 -0.16708749679022283
0.0469977 0.9777312854667864 -0.17443406242972714
0.0489976 0.9763163876756712 -0.18198700679080093
0.0509975 0.975190368415811 -0.18884628933382247
0.0529974 0.9741966002318918 -0.1957998494015994
0.0549973 0.9724550054785898 -0.2027816552993713
0.0569972 0.9708130480081735 -0.20972160456229427
0.0589971 0.9692544171900391 -0.2163917347633441
0.060997 0.967803043396252 -0.22355135878317434
0.0629969 0.9655527353543811 -0.2305392999558871
0.0649968 0.9638285904780918 -0.23735034843532415
0.0669967 0.9619676995425945 -0.24398204537333823
0.0689966 0.959857725586982 -0.25097039434244534
0.0709965 0.9577204783828328 -0.25792775396329737
0.0729964 0.9554718492898275 -0.26460410755949115
0.0749963 0.9529222925561378 -0.27172688345309853
0.0769962 0.9503635677025731 -0.27882840932801245
0.0789961 0.9477333501394923 -0.2856839382556904
0.080996 0.9457227485344731 -0.29288168841157014
0.0829959 0.9430663718712554 -0.29990273243334414
0.0849958 0.9402475667465753 -0.3072904740832485
0.0869957 0.9378253376875697 -0.31399706809708955
0.0889956 0.9352513798844279 -0.3209311128576592
0.0909955 0.9327961835802898 -0.3286994805616622
0.0929954 0.9298929624896555 -0.33518347269308124
0.0949953 0.9273634090869274 -0.3428132762570345
0.0969952 0.9248342409999756 -0.35006847013796627
0.0989951 0.9224553641148758 -0.35633389261553766
0.100995 0.9180692494129603 -0.3638156065720305
0.1029949 0.9157074425252363 -0.3712151034151054
0.1049948 0.9126008359299483 -0.378646275775008
0.1069947 0.9102028047517605 -0.38571667857684794
0.1089946 0.9072902471808281 -0.3921683312285638
0.1109945 0.9044864231563227 -0.3993687482030528
0.1129944 0.9021038987707939 -0.40644932528574457
0.1149943 0.8992901755072685 -0.41310973750374064
0.1169942 0.8963728534153022 -0.4200305137400665
0.1189941 0.8940475705279665 -0.42712468809802395
0.120994 0.891359365651565 -0.4328803215895429
0.1229939 0.8881819204719249 -0.4395099087989179
0.1249938 0.8851232594852548 -0.44578890855105824
0.1269937 0.8819267917788974 -0.4518145507414145
0.1289936 0.8788172655915673 -0.4581198474972512
0.1309935 0.8757668250838737 -0.4644208141683868
0.1329934 0.8723617522783308 -0.4704215230924557
0.1349933 0.8692084580667934 -0.4765187231341414
0.1369932 0.8655153574711458 -0.48253580433256876
0.1389931 0.8619357164238466 -0.48846461773155614
0.140993 0.858306684735181 -0.4942298437535343
0.1429929 0.8544149686666406 -0.5002161545695666
0.1449928 0.8505033188217886 -0.5059624983033726
0.1469927 0.8463562338344852 -0.5117955090072059
0.1489926 0.8427084669181528 -0.5179129026113346
0.1509925 0.8381242279572931 -0.5238763984582135
0.1529924 0.8341560690475007 -0.5295879186000894
0.1549923 0.8300552123475249 -0.5355512600708564
0.1569922 0.8257212436876308 -0.5416007229647828
0.1589921 0.8215397526381677 -0.5475646056105739
0.160992 0.8172990590725706 -0.5537941273560972
0.1629919 0.8129558489166954 -0.5596095471712889
0.1649918 0.8084587901636873 -0.5651972380494166
0.1669917 0.8035820081075636 -0.5712804720691067
0.1689916 0.7995123455763155 -0.5768679730748822
0.1709915 0.7953094809681224 -0.5828447425929572
0.1729914 0.7907262334563129 -0.5886547574090347
0.1749913 0.7861522335245109 -0.5948174104309063
0.1769912 0.7816365995259639 -0.6005653041970656
0.1789911 0.7774600628006841 -0.606267490999373
0.180991 0.7725329298797861 -0.6113909099600624
0.1829909 0.7682985261521894 -0.6177357024188495
0.1849908 0.763321849339528 -0.6234533487169365
0.1869907 0.758732089575493 -0.6286897434078772
0.1889906 0.7543327379994291 -0.6342365344114045
0.1909905 0.7493864896067643 -0.6397780247780983
0.1929904 0.7452241788514105 -0.6454036033044637
0.1949903 0.7400116559731238 -0.6505715902597481
0.1969902 0.7356819307126213 -0.6557902586180759
0.1989901 0.7308614081144346 -0.6610764104010987
0.20099 0.7261184870416588 -0.6662665037066704
0.2029899 0.7212381409794595 -0.6714924030213918
0.2049898 0.7165121308045048 -0.6764634828630566
0.2069897 0.7114405790129459 -0.6814072900466486
0.2089896 0.7063876530058626 -0.6863817298283554
0.2109895 0.7020387094727705 -0.6914146102973127
0.2129894 0.6965684096206401 -0.6963140387795637
0.2149893 0.691655692451132 -0.7009539354935181
0.2169892 0.6866764282733235 -0.7059133303399151
0.2189891 0.6817409598500098 -0.7106360334652919
0.220989 0.6761378488228613 -0.7151018105986149
0.2229889 0.6712123574289102 -0.7199062865814095
0.2249888 0.6657006432132107 -0.7244012005364865
0.2269887 0.6600540429709556 -0.7285909457855619
0.2289886 0.6549734863090595 -0.7332164843464551
0.2309885 0.6500005788057975 -0.7375705525675805
0.2329884 0.6445274847308275 -0.7422966278608623
0.2349883 0.6389985346986866 -0.7461701269631492
0.2369882 0.6336370011869876 -0.7508028367158455
0.2389881 0.6280358098484122 -0.755165040382991
0.240988 0.622583295821674 -0.7594344537791181
0.2429879 0.6166697516703843 -0.7628999955278952
0.2449878 0.611516306918117 -0.7673817794728762
0.2469877 0.6058935114671693 -0.7712834501888033
0.2489876 0.6000084485505527 -0.7756927884301772
0.2509875 0.5940403433436174 -0.779117238595949
0.2529874 0.5882808914520833 -0.7834697568543252
0.2549873 0.5823465885711303 -0.7871535973337052
0.2569872 0.5764120964513901 -0.7908330993959704
0.2589871 0.5707187407205503 -0.7949141064653271
0.260987 0.5641528547471837 -0.7985243126506376
0.2629869 0.558215896351617 -0.8024501639430618
0.2649868 0.5517580372604856 -0.8062572008552715
0.2669867 0.5456036817002305 -0.8098641682650622
0.2689866 0.5396373837643385 -0.813710381699415
0.2709865 0.533285632289413 -0.817341123305679
0.2729864 0.5269974912153015 -0.8210740647359298
0.2749863 0.5204828174266292 -0.8248407471084712
0.2769862 0.5137587600229057 -0.828600756246901
0.2789861 0.5077336440563345 -0.8324835530459305
0.280986 0.5016387503076074 -0.8363705847746655
0.2829859 0.49500093780013876 -0.8397128109868065
0.2849858 0.48923898392496634 -0.8440727749042644
0.2869857 0.48280120062089815 -0.8481290420995007
0.2889856 0.47643885944830233 -0.8516268618329714
0.2909855 0.47024613468163917 -0.8556874083381206
0.2929854 0.4645830901034508 -0.8593327586462363
0.2949853 0.4579012302811991 -0.8630541366646394
0.2969852 0.4525224881027558 -0.8667392383278871
0.2989851 0.44678812532835493 -0.8699964645914342
0.300985 0.4409336233324957 -0.8740149898185859
0.3029849 0.43498814568150695 -0.8773675197112472
0.3049848 0.4298759236482593 -0.8806499805819056
0.3069847 0.4244688563454748 -0.8839397457731727
0.3089846 0.41890632722326293 -0.8871920328887893
0.3109845 0.41335784568033196 -0.8902427929461979
0.3129844 0.4075592370630852 -0.8932386120131436
0.3149843 0.40192115861580713 -0.8959790470907879
0.3169842 0.3964996615377434 -0.8985112294304883
0.3189841 0.3911533091647439 -0.9014070089386754
0.320984 0.3854200097484841 -0.9036399058990389
0.3229839 0.3797483281216837 -0.9060729616081429
0.3249838 0.37373648737426596 -0.9090447078020313
0.3269837 0.36813575418714817 -0.9112493413375614
0.3289836 0.3623640764252457 -0.9136078088708448
0.3309835 0.35670960891753567 -0.9152303693618374
0.3329834 0.3506300353703904 -0.9168974436495073
0.3349833 0.34438558305127526 -0.9182164700124241
0.3369832 0.3381327056773284 -0.9195727926251551
0.3389831 0.33188075223688807 -0.9204114424473523
0.340983 0.3257230203776267 -0.9216834786370252
0.3429829 0.31858439064246175 -0.9220112414114027
0.3449828 0.3121715373934314 -0.922900074617706
0.3469827 0.3049862574067972 -0.9238829959677266
0.3489826 0.2977311432940601 -0.9247813971805723
0.3509825 0.2913987793646568 -0.925995203035965
0.3529824 0.2839045403765973 -0.9273322943739982
0.3549823 0.2767062267097395 -0.9277599324652082
0.3569822 0.2685448051582685 -0.9296781884789302
0.3589821 0.2617970704940109 -0.9310627736125635
0.360982 0.2542505715333681 -0.9326982487125427
0.3629819 0.24649400616694772 -0.934199741230893
0.3649818 0.23949727267856522 -0.9358520669021944
0.3669817 0.23286179303734567 -0.9378002925456325
0.3689816 0.22569317457191967 -0.9396601247930918
0.3709815 0.21914510634081852 -0.941341867565602
0.3729814 0.21189302187513312 -0.9430452465635344
0.3749813 0.2046754403840589 -0.9453439886576952
0.3769812 0.19794545137055508 -0.9475067602981958
0.3789811 0.19104591706917334 -0.9488905044284951
0.380981 0.18485454731501136 -0.9510828017708879
0.3829809 0.17847785546672268 -0.9525829300834259
0.3849808 0.17203432155120357 -0.9545002512486238
0.3869807 0.16575229533718275 -0.9559909442441856
0.3889806 0.15998348157494213 -0.9575427125735511
0.3909805 0.15355615366261136 -0.9588495771381536
0.3929804 0.14785528346529103 -0.9600164880588854
0.3949803 0.14192578806292877 -0.9614676242815666
0.3969802 0.13618395233914304 -0.9622228827525027
0.3989801 0.13014949258897418 -0.962830449088095
0.40098 0.12431706651944881 -0.9636426652830081
0.4029799 0.11880295441940199 -0.9638742038028317
0.4049798 0.11321754442418974 -0.9644031755805957
0.4069797 0.10675031417191203 -0.9641728966463862
0.4089796 0.10099142999473631 -0.9641645097247882
0.4109795 0.09453999237490139 -0.9644273262553066
0.4129794 0.08862089661280359 -0.9639230835362987
0.4149793 0.08265474705617384 -0.9635109961831195
0.4169792 0.07619463223028504 -0.962660506409517
0.4189791 0.06944643367475309 -0.9625367297604575
0.420979 0.06268216303943168 -0.9623045895456729
0.4229789 0.055712757052495177 -0.9623903468198467
0.4249788 0.049278242604930904 -0.961776069085561
0.4269787 0.04227803976479219 -0.9613265762466561
0.4289786 0.03497090846958029 -0.9610969568449373
0.4309785 0.028090657493142143 -0.9607220839787928
0.4329784 0.020942424954619343 -0.9606502372562536
0.4349783 0.01442333371104329 -0.9606593814205961
0.4369782 0.007385889264526258 -0.9604562430699766
0.4389781 9.741911815301305e-05 -0.9607132053007628
0.440978 -0.006818748598896494 -0.9605282695657635
0.4429779 -0.01351857245843308 -0.9606150108578868
0.4449778 -0.02081651747595415 -0.9612792463505909
0.4469777 -0.027623914667379304 -0.961051237964621
0.4489776 -0.0343831620459698 -0.9609559343264646
0.4509775 -0.04069222126830804 -0.9613886288407543
0.4529774 -0.04729858697371794 -0.9617350995581534
0.4549773 -0.05364972249231932 -0.9620871862125854
0.4569772 -0.06008431773686096 -0.9620094323234919
0.4589771 -0.06608561137011834 -0.9623735937421647
0.460977 -0.07149958617477727 -0.9623942182965635
0.4629769 -0.07748224022066615 -0.9621464953745703
0.4649768 -0.08303192336648167 -0.9622659339683656
0.4669767 -0.08910543488505318 -0.9610780924476768
0.4689766 -0.09430408064282529 -0.9607015105971545
0.4709765 -0.09983017948485363 -0.9605023799640742
0.4729764 -0.1050613202828524 -0.9593368972235226
0.4749763 -0.11082408366707905 -0.9585450912412516
0.4769762 -0.11597368972282979 -0.9571426286305665
0.4789761 -0.12126618621349211 -0.9559690426327329
0.480976 -0.12673150244966588 -0.95429152732699
0.4829759 -0.13284316075750877 -0.9527575271874562
0.4849758 -0.1383936504498552 -0.9511532099174916
0.4869757 -0.14401736379592572 -0.9490924499797468
0.4889756 -0.15003579325699412 -0.9467388432552585
0.4909755 -0.15582369045337952 -0.9443454885969896
0.4929754 -0.1624017957843113 -0.9428677248087549
0.4949753 -0.16895843109625314 -0.9406435986415471
0.4969752 -0.17486483352761786 -0.9379419461328753
0.4989751 -0.18165779808351315 -0.9363869830184046
0.500975 -0.18794685317799173 -0.9347491873266129
0.5029749 -0.19450006271783862 -0.9322381204181642
0.5049748 -0.20158628590083266 -0.931031826010717
0.5069747 -0.20807486845452497 -0.9288038447395313
0.5089746 -0.21469729452053568 -0.9272025324514392
0.5109745 -0.22091084025833416 -0.92503346265255
0.5129744 -0.22768488473348494 -0.9236400459544183
0.5149743 -0.23455794942704208 -0.921654330588852
0.5169742 -0.24125362934395422 -0.920142912009422
0.5189741 -0.2481497276225126 -0.9188040368661602
0.520974 -0.2537941222312006 -0.9179227477171594
0.5229739 -0.2600762447306789 -0.9164841356507485
0.5249738 -0.26655979107694927 -0.9150366297877204
0.5269737 -0.27290727012589044 -0.9139602471561693
0.5289736 -0.27930272112420157 -0.9127375233138973
0.5309735 -0.28500091168283254 -0.911423633647607
0.5329734 -0.2909349869050815 -0.9100260509464356
0.5349733 -0.29666939146178434 -0.9087569671191598
0.5369732 -0.3024274931171961 -0.9075816665256164
0.5389731 -0.3077309938939795 -0.9061979094515636
0.540973 -0.31311324393515666 -0.9041484825645519
0.5429729 -0.31798828302162224 -0.9022268119000459
0.5449728 -0.3228680102401722 -0.9005742905417917
0.5469727 -0.32828920633163305 -0.8985090135154677
0.5489726 -0.33313002397336006 -0.8966639582136267
0.5509725 -0.3380411518712165 -0.894083661156822
0.5529724 -0.3435021977533449 -0.8920808439011012
0.5549723 -0.3482836272359952 -0.8897682137501284
0.5569722 -0.3532755818294332 -0.8871131062675678
0.5589721 -0.35823013579897545 -0.8840048776490493
0.560972 -0.36346695099741705 -0.8806689762848171
0.5629719 -0.3686173322271997 -0.8781394747000266
0.5649718 -0.3733360482542905 -0.8747617900175444
0.5669717 -0.37879616889585693 -0.8712715550466269
0.5689716 -0.3844024647891541 -0.8680281302423207
0.5709715 -0.38986149306862605 -0.8647807681293168
0.5729714 -0.3954441977624354 -0.8619985009950917
0.5749713 -0.40036435324115005 -0.8586125457445611
0.5769712 -0.40667768968405105 -0.8554676257983043
0.5789711 -0.4121264282002627 -0.8521786482152103
0.580971 -0.4183043116753499 -0.8488748550169652
0.5829709 -0.4242081010654667 -0.8454170010866849
0.5849708 -0.43009140149912733 -0.8426345049224175
0.5869707 -0.4358775036287859 -0.8397838331550054
0.5889706 -0.4416674170753515 -0.83701673395831
0.5909705 -0.44756477199545946 -0.8347194441794806
0.5929704 -0.453133345588357 -0.8318708132216428
0.5949703 -0.45872234800520645 -0.828855986625963
0.5969702 -0.46438483399831004 -0.8261373209602344
0.5989701 -0.47021147474871394 -0.8236076416511318
0.60097 -0.475413766849975 -0.8210390432271012
0.6029699 -0.4803986299707614 -0.8181584189213784
0.6049698 -0.4855430666444569 -0.8154203197630979
0.6069697 -0.49046105785665006 -0.8132018278941694
0.6089696 -0.49518515773860877 -0.8103950530497905
0.6109695 -0.4994664757306483 -0.8077871437044963
0.6129694 -0.5041799071905169 -0.8052165923414701
0.6149693 -0.5089871757299783 -0.802187587284418
0.6169692 -0.5134762779772251 -0.7991919980197335
0.6189691 -0.5174073601973179 -0.7960717994770337
0.620969 -0.521592512089468 -0.7929458916281643
0.6229689 -0.5258034695639616 -0.7894898262138078
0.6249688 -0.5301770455957786 -0.7860747146053004
0.6269687 -0.5343574254875401 -0.7824869903230083
0.6289686 -0.5386962971222987 -0.7783338175452776
0.6309685 -0.5426055152302202 -0.7736309517283989
0.6329684 -0.5471401244116022 -0.7699392631468387
0.6349683 -0.5515338135123233 -0.7660732020020954
0.6369682 -0.5553891248774695 -0.7618026084068534
0.6389681 -0.5599570790297946 -0.7575600656259293
0.640968 -0.5644858349980187 -0.753115336323803
0.6429679 -0.5691703408790857 -0.7484929123615806
0.6449678 -0.5738414576128044 -0.744534638063264
0.6469677 -0.5790166002369299 -0.7399262705254536
0.6489676 -0.5838506918727895 -0.7357622175256666
0.6509675 -0.5894265392551955 -0.7315154118626984
0.6529674 -0.5945097228591684 -0.7275091839469654
0.6549673 -0.5993020891719991 -0.7231663880007644
0.6569672 -0.6044557471435391 -0.7188812676554402
0.6589671 -0.6093878083868922 -0.714789201120527
0.660967 -0.614414675627089 -0.7112246376892816
0.6629669 -0.6196018458004539 -0.7071267555820223
0.6649668 -0.6246543345055232 -0.7035352402941468
0.6669667 -0.6297715984769228 -0.6999413218417494
0.6689666 -0.6340024391065524 -0.6964094871790258
0.6709665 -0.6383733325553473 -0.6926191095822813
0.6729664 -0.643179241903414 -0.6891210792948046
0.6749663 -0.6475726810268742 -0.6855841010386636
0.6769662 -0.6516844536320145 -0.6820623918394659
0.6789661 -0.656044578662352 -0.6791515806741976
0.680966 -0.6605602709823989 -0.6757133584213115
0.6829659 -0.664487508672529 -0.6723303792833644
0.6849658 -0.6676121191138158 -0.6686592000496945
0.6869657 -0.6716193867017106 -0.6655241992248028
0.6889656 -0.6750513322914661 -0.6619892144676998
0.6909655 -0.6783997490147687 -0.6578361576567382
0.6929654 -0.6817691142650527 -0.6542088353859853
0.6949653 -0.68522359913023 -0.6498118868218327
0.6969652 -0.6882247123912435 -0.6458601992696621
0.6989651 -0.6913009010530121 -0.6417409933753508
0.700965 -0.6948802194410173 -0.6376610388653692
0.7029649 -0.6978590648548618 -0.6327103289503574
0.7049648 -0.7007665467739116 -0.6277473543360648
0.7069647 -0.7039948167088811 -0.6232657901906088
0.7089646 -0.706653713612307 -0.6179385599707391
0.7109645 -0.7103206669490496 -0.6131789500358786
0.7129644 -0.7137886730870495 -0.6077934210443545
0.7149643 -0.7171056096178043 -0.6028301656406568
0.7169642 -0.7207699825514458 -0.5977672475000746
0.7189641 -0.724994525383943 -0.5925966342257094
0.720964 -0.7282498480894903 -0.5875556593185823
0.7229639 -0.7318723679798123 -0.5826802138230173
0.7249638 -0.735749295379181 -0.5772763085861703
0.7269637 -0.7397356665851184 -0.5723967621989071
0.7289636 -0.7434052458443786 -0.5673254029580584
0.7309635 -0.747620343971441 -0.5626103205273856
0.7329634 -0.7514936483433295 -0.5572831283862398
0.7349633 -0.7555411225680246 -0.5524621748420533
0.7369632 -0.7590504922316789 -0.5476453496687832
0.7389631 -0.7629661554411963 -0.5433868399423926
0.740963 -0.7659624441975971 -0.5385564689312885
0.7429629 -0.769490924206508 -0.5341130055655515
0.7449628 -0.7730577632731644 -0.5300641638030199
0.7469627 -0.7767510410104767 -0.5260054290241702
0.7489626 -0.779788938580519 -0.5210750667371515
0.7509625 -0.7835884256691377 -0.516887265031337
0.7529624 -0.7868510292193694 -0.5127965701086915
0.7549623 -0.7899979350778497 -0.5085080978654439
0.7569622 -0.7930641494677114 -0.5041969206909722
0.7589621 -0.7957284008460139 -0.5001503766212201
0.760962 -0.7986312068607595 -0.49580678384424226
0.7629619 -0.8012855116135583 -0.49144295646963665
0.7649618 -0.803468972087939 -0.48704713516821657
0.7669617 -0.806340318080598 -0.4822318289050083
0.7689616 -0.8085130021644117 -0.47776089762453877
0.7709615 -0.8107742669741209 -0.47282802165084925
0.7729614 -0.8132373886524308 -0.46827233014569936
0.7749613 -0.8145375939065165 -0.462583219831173
0.7769612 -0.8163041733438883 -0.4577625726587329
0.7789611 -0.818839719288787 -0.45209367716445803
0.780961 -0.820880916895842 -0.44682961402905086
0.7829609 -0.8229742084572572 -0.4417129775961402
0.7849608 -0.8252353410257733 -0.43586416469127276
0.7869607 -0.8276151707947432 -0.43057629944316356
0.7889606 -0.8299927514739043 -0.42491505449065053
0.7909605 -0.8322672191163475 -0.41958323240139334
0.7929604 -0.8347182910827592 -0.41389794687244147
0.7949603 -0.8373197810505749 -0.40803574875620907
0.7969602 -0.8398453950472472 -0.40285842439744046
0.7989601 -0.8421560942534507 -0.3971338937210886
0.80096 -0.8448809905406695 -0.391455015069039
