! Created with skrf 1.8.0 (http://scikit-rf.org).
# GHz S RI R 50.0 
!freq ReS11 ImS11
0.001 -0.922819743838506 0.006246906818164311
0.0029999 -0.9505102746437503 0.025508079845886544
0.0049998 -0.9557855740623551 0.01791315215959996
0.0069997 -0.9612761582114511 0.025257128611510304
0.0089996 -0.9596978481910277 0.03272637004753759
0.0109995 -0.9590652430870372 0.03893286305465782
0.0129994 -0.9584431567536815 0.04552555085448895
0.0149993 -0.9580888221705622 0.053035931585401874
0.0169992 -0.9579524630320648 0.058093078393240294
0.0189991 -0.9576251113483164 0.0645452332817017
0.020999 -0.957015398649458 0.0710826523113422
0.0229989 -0.9564224639756489 0.07760191697847041
0.0249988 -0.9552704833628456 0.08365565677030287
0.0269987 -0.9547932897160779 0.09023133231519773
0.0289986 -0.9539248723586864 0.09638776381111618
0.0309985 -0.9528685772224783 0.10262267703901684
0.0329984 -0.9520494333024225 0.10915827737187045
0.0349983 -0.9512114389270793 0.1156677057203983
0.0369982 -0.9498576051563911 0.12210697040022689
0.0389981 -0.9486083850661311 0.1283389961946801
0.040998 -0.9478534038896089 0.13464533523239175
0.0429979 -0.9461849644166237 0.1410367491127934
0.0449978 -0.9450257875799163 0.14734495110144213
0.0469977 -0.9443038760354014 0.15359146418236452
0.0489976 -0.9422615382133106 0.16011330779128347
0.0509975 -0.9406655348677717 0.1666831280297536
0.0529974 -0.9396039048041332 0.17341576817377735
0.0549973 -0.9373874629903755 0.18069057629043844
0.0569972 -0.9365309275485231 0.18649463509969394
0.0589971 -0.9349672256180351 0.19317905721750583
0.060997 -0.9339868662223457 0.20030055652983617
0.0629969 -0.9325234983897401 0.20604985718689492
0.0649968 -0.9303445151648743 0.21287474780042223
0.0669967 -0.9297667972759955 0.21985483871659794
0.0689966 -0.9281033797268657 0.2256903657887967
0.0709965 -0.9267865196914835 0.23200862032890096
0.0729964 -0.925167156536509 0.2389000817875725
0.0749963 -0.9237226214015415 0.24525875586381163
0.0769962 -0.9226203665818009 0.25143849955087094
0.0789961 -0.9207998742016207 0.2575399733608737
0.080996 -0.9187481130760005 0.2640961910165349
0.0829959 -0.9169183206112632 0.2703938719987479
0.0849958 -0.9158207697075565 0.27587276522750825
0.0869957 -0.9141382438013107 0.28239022900552746
0.0889956 -0.9120494432591985 0.2879116569196118
0.0909955 -0.9102641829779045 0.2941429906274473
0.0929954 -0.9081384310993073 0.2999163583641485
0.0949953 -0.906017232593522 0.3060680611628593
0.0969952 -0.9037650693561282 0.3115980733237669
0.0989951 -0.9013249979618612 0.31751712911408003
0.100995 -0.9005034825504523 0.32396202767730126
0.1029949 -0.8982019607288019 0.3297822257349206
0.1049948 -0.8961376752447967 0.335685154512355
0.1069947 -0.893282624938297 0.3410305665943608
0.1089946 -0.8908375774579821 0.346898154179893
0.1109945 -0.8880770448769117 0.3526379838366247
0.1129944 -0.8852953871955853 0.35847993583110577
0.1149943 -0.8822139321223872 0.3642431389884126
0.1169942 -0.8792685112491758 0.37020032908542866
0.1189941 -0.8764903357587117 0.3760197778862492
0.120994 -0.8733450442602309 0.3820366222881657
0.1229939 -0.8704219984407399 0.3882120071227732
0.1249938 -0.8675299651052718 0.3939964769406007
0.1269937 -0.8644214034940345 0.4001282747128668
0.1289936 -0.8617711460625191 0.40626673654970435
0.1309935 -0.8587818035066337 0.41256850363389086
0.1329934 -0.855738672900658 0.41815793436337245
0.1349933 -0.8522456924036854 0.42430619546144266
0.1369932 -0.8493510263440368 0.43004264725047503
0.1389931 -0.8462973828442847 0.4364363557826456
0.140993 -0.8431576417759226 0.4417672709730952
0.1429929 -0.8398729508696651 0.4481476550267567
0.1449928 -0.8376213971220068 0.4543627306211526
0.1469927 -0.8342523099073997 0.4601880380780307
0.1489926 -0.8310124707954927 0.4665352016185012
0.1509925 -0.8278003999612924 0.47125793469393973
0.1529924 -0.8246014193199174 0.4775910238957851
0.1549923 -0.8220622939844604 0.48356128723863295
0.1569922 -0.8186341308031031 0.48881077985048765
0.1589921 -0.8154911749226306 0.4949167759258466
0.160992 -0.8124662209819695 0.5005179472699777
0.1629919 -0.8088321866249398 0.5057405124212767
0.1649918 -0.8053353944000831 0.5114083662996125
0.1669917 -0.8024605958509726 0.5167004906517781
0.1689916 -0.7989271626069214 0.5221920444937975
0.1709915 -0.7950775464463822 0.5275791437108039
0.1729914 -0.791537721003796 0.5326067018806306
0.1749913 -0.7881634874648894 0.5381743349814996
0.1769912 -0.784387554692659 0.5431650588932195
0.1789911 -0.7811247655156214 0.5484868813427151
0.180991 -0.7770900415828439 0.5537342006888359
0.1829909 -0.7731814083584315 0.5587116799997257
0.1849908 -0.7692401070627434 0.5641264839418882
0.1869907 -0.7652052425267786 0.5689410362767957
0.1889906 -0.7612289104907364 0.5742839607328476
0.1909905 -0.7571842908056512 0.5795866555149771
0.1929904 -0.7530830347399587 0.5848032301265371
0.1949903 -0.7488911728734277 0.5899737452903119
0.1969902 -0.7446070081860338 0.5949741006615484
0.1989901 -0.7404947636002137 0.5999108344607224
0.20099 -0.7362859175319629 0.6055488248427505
0.2029899 -0.7317169948272949 0.6102025531109603
0.2049898 -0.7277738506916033 0.615155282631681
0.2069897 -0.7230000331557396 0.6204461005035642
0.2089896 -0.7188840512151132 0.6253091725717637
0.2109895 -0.7146712827590996 0.6300010983651099
0.2129894 -0.710203457398436 0.6356429879740969
0.2149893 -0.7055331588607273 0.64055209188307
0.2169892 -0.701181324690635 0.6453099920516042
0.2189891 -0.696576901111698 0.6507330328607225
0.220989 -0.6921811438206917 0.6554458550682781
0.2229889 -0.6876549608950364 0.6600632493377395
0.2249888 -0.6826152405837415 0.6649277265810777
0.2269887 -0.6778987610156593 0.6695735350693645
0.2289886 -0.6730349114534155 0.6744817253135217
0.2309885 -0.6682883097784933 0.6797145243296189
0.2329884 -0.6638201059993348 0.6842755285140877
0.2349883 -0.6587195845650764 0.6888603218383116
0.2369882 -0.6539782199724355 0.69369280184051
0.2389881 -0.6489115698344895 0.6981143095325828
0.240988 -0.6441805311567382 0.7030023341230753
0.2429879 -0.6395861510652145 0.707493252042351
0.2449878 -0.6345101727554283 0.7121630053755548
0.2469877 -0.629485779740498 0.7166270189433916
0.2489876 -0.6244992716238765 0.7210921508259632
0.2509875 -0.6197159980560678 0.7261753739940339
0.2529874 -0.6148396427532525 0.7305232014470611
0.2549873 -0.6102053920526862 0.7349723829265133
0.2569872 -0.6052968799038808 0.739565538906215
0.2589871 -0.6002406866621305 0.7440632812025038
0.260987 -0.5952661650113413 0.7482928831772843
0.2629869 -0.5902762416247693 0.7527814340667165
0.2649868 -0.5853021438434186 0.7564970495071158
0.2669867 -0.5806173252459563 0.7605798465808417
0.2689866 -0.5752879751601551 0.7647908319973296
0.2709865 -0.5706437838141626 0.7687699577857167
0.2729864 -0.5652766444653061 0.7725607786283569
0.2749863 -0.5603724185817728 0.7763297481007545
0.2769862 -0.5554451631430098 0.7803110809507774
0.2789861 -0.5504697523791268 0.7835782842089575
0.280986 -0.5450518610573746 0.7866152588297142
0.2829859 -0.5396578573470412 0.7901065071453084
0.2849858 -0.5341937684825205 0.7935241949128559
0.2869857 -0.5287604856058015 0.7967980472003036
0.2889856 -0.5233353151331782 0.8002593253166183
0.2909855 -0.5174108548772237 0.8034363723875652
0.2929854 -0.5117761823816134 0.8067564554456587
0.2949853 -0.5056222583732639 0.8095522898358682
0.2969852 -0.4998076541072065 0.8128022498381349
0.2989851 -0.4938535677331219 0.8157587055679651
0.300985 -0.48763519757787427 0.8182272376128988
0.3029849 -0.4812706206062647 0.8213001352271623
0.3049848 -0.47470802221567454 0.8242306837115835
0.3069847 -0.46818547988356657 0.8274578122762105
0.3089846 -0.46153060316136185 0.8300717777057229
0.3109845 -0.45500549525976586 0.8330493033154657
0.3129844 -0.4481160444923285 0.83632873802127
0.3149843 -0.4413759478686799 0.8392944401080451
0.3169842 -0.4343253709400775 0.8424841399290467
0.3189841 -0.4275938261761427 0.8452542953536092
0.320984 -0.42044691218912145 0.8488128302416472
0.3229839 -0.41352745112913236 0.8519585295334587
0.3249838 -0.4072815086400529 0.8543772403101078
0.3269837 -0.40027239799020575 0.8575574430280637
0.3289836 -0.39345860913737735 0.8607809721510407
0.3309835 -0.3867987698156232 0.8638471750232007
0.3329834 -0.38041643364164546 0.8671968686898407
0.3349833 -0.3740326054835129 0.8711682172105438
0.3369832 -0.3683108188089119 0.875106540013552
0.3389831 -0.36172911885381914 0.8789341559964912
0.340983 -0.35554197878779104 0.8828006856554976
0.3429829 -0.3496820111142696 0.886507946128969
0.3449828 -0.34370073514410365 0.8902152083955917
0.3469827 -0.33801326250674446 0.8935861572573731
0.3489826 -0.33177157173326327 0.8965254540004126
0.3509825 -0.3258253563963812 0.8998453064416903
0.3529824 -0.31998083049242454 0.9026728891589784
0.3549823 -0.3142776897836339 0.9055946301467266
0.3569822 -0.3084020424633182 0.9082690002626032
0.3589821 -0.30278552454020946 0.9106498762663447
0.360982 -0.29683313529433647 0.9131604951957573
0.3629819 -0.29126280831057677 0.9154457504913811
0.3649818 -0.2851600927929183 0.9167773866202074
0.3669817 -0.27920938251905764 0.9180521428091781
0.3689816 -0.2726746996268463 0.9200740009138373
0.3709815 -0.2666733698086964 0.9217398846641749
0.3729814 -0.26035553159342134 0.9230204788519923
0.3749813 -0.2541868807285681 0.9242310033079119
0.3769812 -0.2481214558350965 0.9252972088581605
0.3789811 -0.24139896507411135 0.9264457422160283
0.380981 -0.23422119441881073 0.927673324415975
0.3829809 -0.22770714838362818 0.9286357755728557
0.3849808 -0.22044943892933605 0.9299215167087389
0.3869807 -0.21312189724761038 0.9306021600714213
0.3889806 -0.20590437985053478 0.9317675509610762
0.3909805 -0.19833702671471104 0.9327665787702802
0.3929804 -0.19079091018401428 0.93415809686855
0.3949803 -0.18327269095761253 0.9347915613925379
0.3969802 -0.17596340178049402 0.9364800367468352
0.3989801 -0.16837339668294596 0.9374619815499562
0.40098 -0.16050844605912137 0.9390024085603854
0.4029799 -0.15294463771343894 0.9407517985011029
0.4049798 -0.1454814630556915 0.9417371366910222
0.4069797 -0.1380259859913714 0.9433643113074663
0.4089796 -0.1304909129553577 0.9446126758976978
0.4109795 -0.12326032881769305 0.9465064510547188
0.4129794 -0.11547116587870872 0.9479786905762312
0.4149793 -0.10794210344850796 0.9497413390358576
0.4169792 -0.10109935444914184 0.9512734990187229
0.4189791 -0.09392504566463296 0.9526030251391372
0.420979 -0.08705880923956093 0.9538967981300416
0.4229789 -0.08012399105336863 0.9553095240789667
0.4249788 -0.07362718975897094 0.9567873247625195
0.4269787 -0.06697015547248225 0.9578603872771524
0.4289786 -0.06053583805474035 0.9589423551599553
0.4309785 -0.05373463911686107 0.9596269048039984
0.4329784 -0.047121907225156724 0.9601106540778339
0.4349783 -0.040338448157868106 0.959998838340107
0.4369782 -0.034172257711384275 0.9605964955763763
0.4389781 -0.02764319147885985 0.960530064631035
0.440978 -0.02091257395997852 0.9604747171645046
0.4429779 -0.014548477907743423 0.9602713739478159
0.4449778 -0.007952037241454633 0.9600295301817672
0.4469777 -0.000979338258707066 0.9592084902387881
0.4489776 0.006222028391237887 0.959039862810615
0.4509775 0.01310051193878994 0.958181771082738
0.4529774 0.020103892719617218 0.9573065908357337
0.4549773 0.02774478043526322 0.9563425238133422
0.4569772 0.034974034383676716 0.9552321339955758
0.4589771 0.042738812466217226 0.9544721913060953
0.460977 0.050968568736799044 0.9536317299467295
0.4629769 0.05827003376152972 0.9527052951879884
0.4649768 0.0662233806092789 0.9518104439449323
0.4669767 0.07397371359602752 0.9510864076511236
0.4689766 0.0818401782316386 0.9505056517608638
0.4709765 0.08992774899361786 0.9495310985346944
0.4729764 0.09778147902210886 0.9490449942794793
0.4749763 0.10590156451027968 0.9486418305741295
0.4769762 0.1134293957071891 0.9478577882019197
0.4789761 0.12237284475369911 0.947735242680349
0.480976 0.1302158706704511 0.9470415845084775
0.4829759 0.13792953826433424 0.9465050816148581
0.4849758 0.1454006807475776 0.9463802311676438
0.4869757 0.1536406421491403 0.9459901602529726
0.4889756 0.16117504212287725 0.9453570321598666
0.4909755 0.16873566820605249 0.9453158984439204
0.4929754 0.1760016728956179 0.9448992018595824
0.4949753 0.18287944227724662 0.9444526178242975
0.4969752 0.19005316305565895 0.943647918974721
0.4989751 0.19643307446417776 0.9427726003205817
0.500975 0.20316886159387487 0.9417427213549755
0.5029749 0.20986617691835563 0.9410041239346945
0.5049748 0.21648190168593318 0.93985833198171
0.5069747 0.22274662868677234 0.9384472763466823
0.5089746 0.2295743753722601 0.9373831357846487
0.5109745 0.23608202666225017 0.9356169547730009
0.5129744 0.24289865190147747 0.9341643551711372
0.5149743 0.24915236735526708 0.9322842797047208
0.5169742 0.25522912362427075 0.9300271383207827
0.5189741 0.26181507844549967 0.9275936661750884
0.520974 0.2690078381209717 0.9249286828198188
0.5229739 0.27616287278952295 0.9225987379189837
0.5249738 0.28278396005900663 0.9203007799405417
0.5269737 0.28947462726496 0.9173604040579866
0.5289736 0.29647594673931965 0.914614171166585
0.5309735 0.3030823594581317 0.9114937326867046
0.5329734 0.31022043977658076 0.9083298807397701
0.5349733 0.3171611994869848 0.904965271422039
0.5369732 0.32436664480009403 0.9020219985555356
0.5389731 0.33202334990401505 0.8988257880066589
0.540973 0.3393206514542999 0.8951432619287784
0.5429729 0.3468574716028951 0.8922404284037361
0.5449728 0.35422912662932976 0.8890941710258172
0.5469727 0.3619230956347397 0.8860701915342009
0.5489726 0.3694876738882841 0.8832660738315024
0.5509725 0.3771203753577681 0.8800486139088494
0.5529724 0.3844480533736404 0.8770071950239163
0.5549723 0.3923095312671448 0.874294550938059
0.5569722 0.3997514257339738 0.8714484004525195
0.5589721 0.40757077520406343 0.8685959805746155
0.560972 0.41483539670176894 0.8658293587497056
0.5629719 0.4222957881563665 0.8630401211585651
0.5649718 0.4295822887500028 0.860872920869754
0.5669717 0.43670129035106175 0.8577684122630126
0.5689716 0.4430670128704911 0.8550672929366233
0.5709715 0.4496603490869411 0.8521478392959835
0.5729714 0.456077655997184 0.8489480794622307
0.5749713 0.4628326768850429 0.8456192158042557
0.5769712 0.4692668095044941 0.8424103370986017
0.5789711 0.47523472756501217 0.8398993573083912
0.580971 0.4818395212350162 0.8369684188588421
0.5829709 0.4879485065206276 0.8333845057823602
0.5849708 0.49390388812448927 0.8296690399039119
0.5869707 0.499875401391572 0.8260372627584547
0.5889706 0.5059376405360309 0.8215851276391676
0.5909705 0.5121012023413548 0.8172564088284076
0.5929704 0.5179847117114368 0.8128991304623523
0.5949703 0.5238166111328898 0.808646095004506
0.5969702 0.5298738447618438 0.8046214000409535
0.5989701 0.5361749497714994 0.7995787429350367
0.60097 0.5418215725749215 0.7948904684097439
0.6029699 0.5483388295793906 0.7898434425161416
0.6049698 0.5544981820742259 0.7851662220131164
0.6069697 0.5601411699006633 0.7799641771947227
0.6089696 0.5671003296049097 0.7748042030264157
0.6109695 0.5735506461332656 0.7694216651181711
0.6129694 0.5799520929024059 0.7647704256872733
0.6149693 0.5867715918625153 0.7597578527704818
0.6169692 0.5934922029597622 0.7546345220922446
0.6189691 0.5998422023103596 0.7495974956411048
0.620969 0.6063462315529539 0.7443041210646556
0.6229689 0.6133505627284174 0.7392235442132289
0.6249688 0.6194683858822844 0.7344662015280039
0.6269687 0.6263643665667257 0.7293249955281093
0.6289686 0.6325375601111015 0.7246702083080668
0.6309685 0.6392207277189004 0.7200407039554341
0.6329684 0.645199525779332 0.7153823026454086
0.6349683 0.650814046359981 0.7101947210548685
0.6369682 0.6565188379562342 0.7057202352027644
0.6389681 0.6629849522290002 0.700856672650211
0.640968 0.6687875309550166 0.6963495134843389
0.6429679 0.674511655345859 0.6919835780508271
0.6449678 0.679804400731563 0.6874177810428196
0.6469677 0.6855196709289788 0.6823063349399132
0.6489676 0.6907176282454677 0.6773464621159911
0.6509675 0.6954168221721231 0.6725315643611283
0.6529674 0.7005153500109266 0.6671027746899036
0.6549673 0.7055402572177912 0.662258639731189
0.6569672 0.7103136168818529 0.6569395670257835
0.6589671 0.7149783669777369 0.6510469743301864
0.660967 0.7193841700574249 0.6455050090428908
0.6629669 0.7240027727038565 0.6395655665057967
0.6649668 0.728674152084886 0.6337212077831373
0.6669667 0.7329830871828455 0.6272462882036381
0.6689666 0.7378341989361552 0.6207028228568081
0.6709665 0.742516933577755 0.6143924580461901
0.6729664 0.7469573688595151 0.6079027506800072
0.6749663 0.7508691801593362 0.6011324495458591
0.6769662 0.7554723341560889 0.594015175064033
0.6789661 0.7596870701824302 0.5876046112613802
0.680966 0.7649474539722954 0.5804933482083805
0.6829659 0.7698026931623897 0.5733876960609793
0.6849658 0.7741092716697509 0.5665065195024033
0.6869657 0.7796313135126555 0.5595647490326198
0.6889656 0.7846256063164795 0.5524841675471407
0.6909655 0.7896908401799736 0.5460971145831958
0.6929654 0.794372219286638 0.5386802054936549
0.6949653 0.7991946576349909 0.532203598275146
0.6969652 0.8040811904023724 0.5252368639569291
0.6989651 0.8083785705007565 0.5187114671473433
0.700965 0.813650938853691 0.5115131872063039
0.7029649 0.8184534401695013 0.5052389040581625
0.7049648 0.8230328652280016 0.49856986552996413
0.7069647 0.8267410778139107 0.49199303114542076
0.7089646 0.8319651569129872 0.48550793475049586
0.7109645 0.8359739334861642 0.479083998912865
0.7129644 0.8400375042177112 0.4727848511779946
0.7149643 0.8441751959546728 0.4663787713056012
0.7169642 0.8479837757488524 0.460043284367787
0.7189641 0.8520817541199062 0.45325932531972724
0.720964 0.8553776041997398 0.44698393354796184
0.7229639 0.8591081267271727 0.43985634224061565
0.7249638 0.8628189434625917 0.4336959769914506
0.7269637 0.8659246447949409 0.4271620381112451
0.7289636 0.8691047045579504 0.4204123604989734
0.7309635 0.8723447586708976 0.41347914324102114
0.7329634 0.8754193366299914 0.4064288426699932
0.7349633 0.8774253680359757 0.39918367194779425
0.7369632 0.8803509129874283 0.3921730200725896
0.7389631 0.8832134540583476 0.3847573317379028
0.740963 0.8856858980648104 0.3779620691609082
0.7429629 0.8885343502363093 0.3702955726079191
0.7449628 0.8909447380889902 0.36227698187168494
0.7469627 0.8933973159215174 0.35500907984194785
0.7489626 0.8963423600690185 0.34709435008782663
0.7509625 0.8987089607385194 0.33973257881308455
0.7529624 0.9013465156620106 0.3317486717781333
0.7549623 0.9042256440891873 0.32391579621811484
0.7569622 0.9062472883027375 0.3160666455180785
0.7589621 0.9093526055234056 0.30818888765102886
0.760962 0.912034197000663 0.2999723122673081
0.7629619 0.9145808230053383 0.2924870856288567
0.7649618 0.9174874597145799 0.2845683072897175
0.7669617 0.9196016861048264 0.276127989672013
0.7689616 0.9220304041539896 0.2683620694634246
0.7709615 0.9240727156861819 0.2608084107481999
0.7729614 0.9269013450737366 0.2532805253988212
0.7749613 0.9288799781175257 0.2453236599074078
0.7769612 0.9314342780422984 0.2373299904955292
0.7789611 0.9334411227033192 0.22998006813643232
0.780961 0.9356834592003278 0.2223601737860939
0.7829609 0.9373507288746477 0.21476620569171262
0.7849608 0.9395641139134675 0.20752531793186993
0.7869607 0.9412498666878388 0.20013502341667866
0.7889606 0.9430545940775716 0.19199948462000765
0.7909605 0.94474698184239 0.18493126863552534
0.7929604 0.9461712245658213 0.17726130942840712
0.7949603 0.94794332417988 0.1694658137926396
0.7969602 0.9488801283329786 0.16236273110156327
0.7989601 0.9500901242887454 0.15460304916558376
0.80096 0.9510884579070691 0.14648755923242077
0.8029599 0.9521612881807708 0.1389955994853131
0.8049598 0.9534078437921524 0.13132983539441453
0.8069597 0.954112355553549 0.1233449957746841
0.8089596 0.9549905363737494 0.11554164902309176
0.8109595 0.9551530740745285 0.10741618259399496
0.8129594 0.9559985669424079 0.09932014367057201
0.8149593 0.9566703391385499 0.09145012074481539
