! Created with skrf 1.8.0 (http://scikit-rf.org).
# GHz S RI R 50.0 
!freq ReS11 ImS11
0.001 -0.7884283554191321 -0.030751850077473775
0.0029999 -0.9700881759064862 0.022838501975564807
0.0049998 -0.9681332291874192 0.01984591106145525
0.0069997 -0.9663016308383796 0.02580785387129836
0.0089996 -0.9659425327038875 0.03006460481763168
0.0109995 -0.9648385170368357 0.03493355706182821
0.0129994 -0.9650715111989738 0.04036110636638124
0.0149993 -0.9646293464962589 0.046855017785439435
0.0169992 -0.9643305259330284 0.05092322731203125
0.0189991 -0.9640635156101287 0.056531892423167696
0.020999 -0.9635977562532667 0.06201619896703697
0.0229989 -0.9630675105188966 0.06754144378812288
0.0249988 -0.9621207540061597 0.07262113980550808
0.0269987 -0.9617690624680609 0.07830945057050132
0.0289986 -0.9610818878335796 0.08356532565391017
0.0309985 -0.9601317573100544 0.08889309406635645
0.0329984 -0.9595921499029916 0.09454928241546323
0.0349983 -0.9589590900896621 0.10020142488698836
0.0369982 -0.9578402921329398 0.10567007498863551
0.0389981 -0.9568539065048096 0.1111647655288936
0.040998 -0.9563404168999206 0.1166858433130733
0.0429979 -0.9549141346136393 0.1221505106838564
0.0449978 -0.9541536106148303 0.1275384235515275
0.0469977 -0.9537379579941834 0.13305236899383882
0.0489976 -0.9520441171349894 0.1386172514947706
0.0509975 -0.9506886570238229 0.14461835229922615
0.0529974 -0.9499252757739666 0.15044228785019204
0.0549973 -0.9482077880354517 0.15702506621164392
0.0569972 -0.9475731600568263 0.16186712199789016
0.0589971 -0.9463791595790504 0.16762738021826468
0.060997 -0.9456634696795899 0.17404847447562175
0.0629969 -0.9445852051381243 0.17895118939911545
0.0649968 -0.9426941484158139 0.18503990254174257
0.0669967 -0.9426238639235929 0.1911460229803918
0.0689966 -0.941312802471809 0.19610218222975673
0.0709965 -0.9403344588319655 0.20161006888766064
0.0729964 -0.9391910008254823 0.20780696032645293
0.0749963 -0.9380446254705161 0.21327271970654033
0.0769962 -0.9373270839957135 0.21853705403512702
0.0789961 -0.936191647083718 0.2239180507539433
0.080996 -0.9347679427473283 0.2292104014318577
0.0829959 -0.9330559628249815 0.2351512129940153
0.0849958 -0.932465475707763 0.2397091489909165
0.0869957 -0.9310819044130413 0.24569423466436852
0.0889956 -0.9294071993012776 0.2503564385384456
0.0909955 -0.9281527269192283 0.256000334232661
0.0929954 -0.9264723957013997 0.2609643209104958
0.0949953 -0.9251068446307257 0.2662271295644719
0.0969952 -0.9231549898886278 0.27121898878824136
0.0989951 -0.9211103037212351 0.27632289727394466
0.100995 -0.9209380558180034 0.2818310065884392
0.1029949 -0.9190332901545658 0.28709410579216577
0.1049948 -0.9175087216946978 0.2921564439321987
0.1069947 -0.9155468319295288 0.29696926995930206
0.1089946 -0.9134711506733334 0.3020388961071273
0.1109945 -0.911339602730174 0.3072084201539893
0.1129944 -0.9092812970392166 0.3122382247929373
0.1149943 -0.9069500327271494 0.31719523105467745
0.1169942 -0.9045766759166036 0.32253834563118067
0.1189941 -0.902501105802819 0.32778345508521545
0.120994 -0.9000354714081735 0.33304884889964237
0.1229939 -0.8977410725065751 0.3385220359735036
0.1249938 -0.8956164164932432 0.3437550130729493
0.1269937 -0.8932105763175099 0.34903147605598894
0.1289936 -0.8912161341396238 0.35461529559752814
0.1309935 -0.8887889064561993 0.35997487594244293
0.1329934 -0.8865766947896151 0.3653611039920689
0.1349933 -0.8838594218879688 0.37071173987247485
0.1369932 -0.8817567363105424 0.3760177331822686
0.1389931 -0.8798569020559233 0.38136987319869686
0.140993 -0.8774619563527999 0.3866928906397009
0.1429929 -0.8749096879033715 0.39211675120182077
0.1449928 -0.8730029110090566 0.39720091762203774
0.1469927 -0.8704312034470792 0.40303235768340606
0.1489926 -0.8680356975131537 0.40841149841350993
0.1509925 -0.865885405498424 0.41315485862559787
0.1529924 -0.8631532547341325 0.41828137525803893
0.1549923 -0.8613214766828063 0.42414675675892105
0.1569922 -0.858751870680546 0.42856672133820506
0.1589921 -0.8563446333091659 0.43397863859248104
0.160992 -0.8538187117730687 0.43869273638747464
0.1629919 -0.8511914861269012 0.4439140317750262
0.1649918 -0.8489066037304726 0.4487048989435944
0.1669917 -0.8463907061901307 0.45352662212677786
0.1689916 -0.8440585897292617 0.4585926959937299
0.1709915 -0.841321694199637 0.4633733776778679
0.1729914 -0.8383223666602622 0.46807500411837344
0.1749913 -0.835874545496942 0.47289883470399263
0.1769912 -0.832888133816132 0.4775446487387625
0.1789911 -0.8305367059833081 0.4823851576072601
0.180991 -0.8274770993652945 0.48718473872219337
0.1829909 -0.8247019639160575 0.49170714054427894
0.1849908 -0.8216558862307247 0.49662210267595025
0.1869907 -0.8184553570414266 0.5010993351185427
0.1889906 -0.815432438598235 0.5059444672239316
0.1909905 -0.8123942645469462 0.5106770118223498
0.1929904 -0.8094601875495836 0.5154815246667368
0.1949903 -0.8060633517373618 0.5200808917618396
0.1969902 -0.8026827244173539 0.524904299476396
0.1989901 -0.7996846160557722 0.5296033474765904
0.20099 -0.7965606106549249 0.5343178407902666
0.2029899 -0.7930497362118187 0.5393479618199977
0.2049898 -0.7897325633753363 0.5431700876533347
0.2069897 -0.7865012778934268 0.5484267295399248
0.2089896 -0.7829850035757158 0.5528490802997392
0.2109895 -0.7799373614353872 0.5575612334854859
0.2129894 -0.7765972298672581 0.5625154495920971
0.2149893 -0.7731529298072581 0.5670018098403975
0.2169892 -0.769888514731149 0.5715762937204107
0.2189891 -0.7661373438872688 0.5766396107832159
0.220989 -0.7629646565592336 0.5811302450613234
0.2229889 -0.7595943246255761 0.5855238657900794
0.2249888 -0.7556985053618344 0.5904229339858197
0.2269887 -0.7519356904657934 0.5945530314345048
0.2289886 -0.7480326309583574 0.5995772489429574
0.2309885 -0.7447571152409865 0.6043275036850276
0.2329884 -0.7411608583612064 0.608402283400035
0.2349883 -0.7375184869692706 0.6130614047046736
0.2369882 -0.733728989275084 0.6173405444724871
0.2389881 -0.7301691843731818 0.6219000769564633
0.240988 -0.7262333555012623 0.626343588929114
0.2429879 -0.722835469911822 0.6308297331552664
0.2449878 -0.719069014957356 0.6352341888589651
0.2469877 -0.715151021313478 0.6396577179664001
0.2489876 -0.71140595828646 0.6439988250175354
0.2509875 -0.7078198839403635 0.6486251402498246
0.2529874 -0.704303739064946 0.6528958701303902
0.2549873 -0.7004236502197105 0.6572835496058603
0.2569872 -0.6969383508302849 0.6617680674860065
0.2589871 -0.6930698937024936 0.66630972201883
0.260987 -0.6893143950225391 0.6701812108321609
0.2629869 -0.6855023547650597 0.6744165491045295
0.2649868 -0.6817321944871011 0.6781892171964297
0.2669867 -0.6783435117967654 0.6822092279179237
0.2689866 -0.6743396492837607 0.6862903079416011
0.2709865 -0.6705503702199374 0.6901735271718467
0.2729864 -0.6667975061816889 0.6940664439041756
0.2749863 -0.6628754347778559 0.6976434099590616
0.2769862 -0.6589989219829971 0.7016891948133536
0.2789861 -0.6553153425657512 0.7051355218278875
0.280986 -0.6511635828434583 0.7087293640836373
0.2829859 -0.6467543150007313 0.7118430949096818
0.2849858 -0.642717497012958 0.7149778876054586
0.2869857 -0.6383555259610733 0.7186646043800466
0.2889856 -0.6339922486808409 0.7222077494109452
0.2909855 -0.6297026200781787 0.7256679633734413
0.2929854 -0.6251221751078742 0.7289604627450643
0.2949853 -0.6205382225951176 0.7322172969312943
0.2969852 -0.6154967566952927 0.7355091594835443
0.2989851 -0.6109400018804471 0.7388922162122817
0.300985 -0.6059646234712264 0.7419432686865294
0.3029849 -0.600927496464895 0.7450889351514056
0.3049848 -0.5959202272364149 0.7483430927923198
0.3069847 -0.5904364427347314 0.751720572525947
0.3089846 -0.5850982212056051 0.7549278645965719
0.3109845 -0.5799019738787161 0.7583896401071385
0.3129844 -0.5744843511047706 0.761730918370959
0.3149843 -0.5690611303455333 0.7654049167674369
0.3169842 -0.5635556446738158 0.7690246078554654
0.3189841 -0.5582898787299418 0.7720679803027181
0.320984 -0.5526675088651338 0.7757949431814102
0.3229839 -0.547362964701812 0.7793438799754996
0.3249838 -0.5418888027288871 0.7828296963695891
0.3269837 -0.5366094662818773 0.7860981600183831
0.3289836 -0.5310901104947943 0.7900667248345068
0.3309835 -0.5258865942654417 0.7933671037653697
0.3329834 -0.5208455995487519 0.7972709536877938
0.3349833 -0.5161184518545671 0.8011317093425251
0.3369832 -0.5119159430602548 0.8058919645458473
0.3389831 -0.5069663164565383 0.8098124850900609
0.340983 -0.5022248004995329 0.8142025887620431
0.3429829 -0.49818364633594925 0.818382120416677
0.3449828 -0.49312719706540814 0.8220351347934889
0.3469827 -0.4891402512254083 0.8259010760601753
0.3489826 -0.4843789045096117 0.8293819766629292
0.3509825 -0.47977865658104707 0.8328920571247469
0.3529824 -0.47557801704433916 0.8366166305140103
0.3549823 -0.47120442871052803 0.8395620746479988
0.3569822 -0.46681162275602683 0.8426957387648505
0.3589821 -0.46234314079121813 0.845642554006736
0.360982 -0.4579813450778445 0.8487745407221801
0.3629819 -0.4535171147718446 0.851298867205533
0.3649818 -0.4486703229924087 0.8534003352716559
0.3669817 -0.44382264676828687 0.8555486980487206
0.3689816 -0.4390404141149734 0.8580233767069015
0.3709815 -0.4341134147839544 0.8601160266289932
0.3729814 -0.4288478252652729 0.8624444560305152
0.3749813 -0.42416585738515533 0.8640928180214027
0.3769812 -0.41894424335095903 0.8660509091013466
0.3789811 -0.41388995750089824 0.8681269895990124
0.380981 -0.4080036144504049 0.8697346625364609
0.3829809 -0.40214348918945364 0.8715227291893064
0.3849808 -0.39659667779340896 0.8741309485148658
0.3869807 -0.3908859715263387 0.8754653546275584
0.3889806 -0.3846926060077424 0.8779374746175408
0.3909805 -0.3783611177755482 0.8796439600774199
0.3929804 -0.37229835813379364 0.8822600268619883
0.3949803 -0.36631875111474904 0.8841854061007136
0.3969802 -0.36019472654704254 0.8866515436282079
0.3989801 -0.35384078495846877 0.8887953156122377
0.40098 -0.3477478742075626 0.8912695757542166
0.4029799 -0.3415545965058134 0.8937488129346789
0.4049798 -0.3352406634568151 0.8965429493124824
0.4069797 -0.3292810448104915 0.8988512071321751
0.4089796 -0.3233537492839895 0.9012815554374558
0.4109795 -0.31734561465071365 0.904057989967757
0.4129794 -0.31175143705400904 0.9068033507433432
0.4149793 -0.3053905052951416 0.9097338003900934
0.4169792 -0.2997852971397543 0.9120406938438818
0.4189791 -0.2941146340642096 0.9144490338119801
0.420979 -0.288654270171053 0.916999115213966
0.4229789 -0.2831845915300583 0.9194021198086894
0.4249788 -0.2780894048434527 0.9220332148989103
0.4269787 -0.2729315169106286 0.9243461623994763
0.4289786 -0.2676900725408307 0.9261368592377787
0.4309785 -0.26227706056305305 0.9281577409431045
0.4329784 -0.25695913286522465 0.9296140753085097
0.4349783 -0.2514273400713988 0.9308091914268051
0.4369782 -0.24635990165038832 0.932278037291088
0.4389781 -0.2411637685344346 0.9336711494554166
0.440978 -0.23563716441983287 0.9347167487564549
0.4429779 -0.23041651437236757 0.935711925689248
0.4449778 -0.224911450389911 0.936713629397739
0.4469777 -0.21920014963319095 0.9371630695685718
0.4489776 -0.21320046452473912 0.9381233870875298
0.4509775 -0.2075326411350521 0.9386034075663999
0.4529774 -0.20130417827503147 0.9393078897569013
0.4549773 -0.1948637457415195 0.9399470585571668
0.4569772 -0.18813469933999272 0.9403437880873051
0.4589771 -0.1819164143585701 0.9408886031858644
0.460977 -0.17476465611465156 0.9417248203062281
0.4629769 -0.16851418431496537 0.9427944436936663
0.4649768 -0.16155294034978918 0.9431904178563679
0.4669767 -0.15513981793550857 0.9441724320468975
0.4689766 -0.1483455816682768 0.94509744885682
0.4709765 -0.14134729371860985 0.94599013737067
0.4729764 -0.1344712413403477 0.9476818438447854
0.4749763 -0.1275854954945747 0.9487003882906695
0.4769762 -0.12124782206143156 0.9498496598760101
0.4789761 -0.11356620664336756 0.9514046248187101
0.480976 -0.10721742701583648 0.9527607059699033
0.4829759 -0.10047193055860223 0.95379557576807
0.4849758 -0.09417818682026426 0.9556015752014677
0.4869757 -0.08771668853205063 0.956913052065266
0.4889756 -0.08113425925777377 0.9582283357500051
0.4909755 -0.07474969885874536 0.9601393942747108
0.4929754 -0.06860509369746519 0.9614127322882297
0.4949753 -0.06308245873926333 0.9625023087213042
0.4969752 -0.05728868439777479 0.9635589725617101
0.4989751 -0.05161460201623137 0.9642665920465718
0.500975 -0.04606899418408842 0.9648580053501498
0.5029749 -0.04058354001864077 0.9657554474476945
0.5049748 -0.03515239708459357 0.9665745954985717
0.5069747 -0.03014310865727555 0.9666400718553031
0.5089746 -0.02411620789241812 0.96703232046175
0.5109745 -0.01874467608547654 0.9673348468076912
0.5129744 -0.012846006535573051 0.9675463440502465
0.5149743 -0.007619779493306347 0.9674775677034655
0.5169742 -0.0022601949110866854 0.9667877930414502
0.5189741 0.003699337623506757 0.9660930547568775
0.520974 0.00990004256207501 0.9655896155816959
0.5229739 0.016399516486013815 0.9652841372360335
0.5249738 0.02212104365613883 0.9648738390601921
0.5269737 0.028240484386816617 0.9637646561187889
0.5289736 0.03432313135092159 0.9630428034290341
0.5309735 0.04061571473453317 0.9621761080292488
0.5329734 0.0474125370454601 0.9607850432501849
0.5349733 0.054051457567467945 0.9597662360869619
0.5369732 0.06038665144177316 0.9585870779838057
0.5389731 0.06744854374722267 0.9579665363598611
0.540973 0.07432007352731577 0.9567416057393009
0.5429729 0.0814957466265824 0.9556672252462755
0.5449728 0.08844241872060178 0.9548127819100285
0.5469727 0.09541112771182984 0.9541807086248014
0.5489726 0.10228287558370668 0.9534655282326422
0.5509725 0.10943534492662153 0.9529673601278458
0.5529724 0.11661657183057447 0.9520120774133564
0.5549723 0.12354725289203726 0.9517848092807328
0.5569722 0.1305598582314334 0.951179826337351
0.5589721 0.13745941720599963 0.9512626609339998
0.560972 0.14427686132673256 0.9510409045585336
0.5629719 0.1512853767336884 0.9506464713936962
0.5649718 0.15781577508182834 0.9508727867748626
0.5669717 0.16421633402742045 0.9505372503388517
0.5689716 0.17009002279797517 0.9500894557396551
0.5709715 0.17608173334684304 0.9493625726113665
0.5729714 0.18234391643063277 0.9484838808417605
0.5749713 0.18840118507423848 0.9478185242637924
0.5769712 0.19423907188695239 0.9469803168030144
0.5789711 0.19958391975463954 0.9463163740775312
0.580971 0.20554251609033017 0.9455186700782556
0.5829709 0.21100459685910822 0.9444376949112507
0.5849708 0.2166920054143732 0.9432000139644761
0.5869707 0.22243279776268296 0.9415529857617827
0.5889706 0.22841090298730501 0.9394859759820107
0.5909705 0.23412052599460803 0.9376590983204164
0.5929704 0.24006954709085926 0.9353818879453615
0.5949703 0.24582737006530408 0.9332910933398437
0.5969702 0.2514917545439785 0.9314700811371114
0.5989701 0.25742789856854303 0.9291000105427105
0.60097 0.2636362490544483 0.9265262389277231
0.6029699 0.2701054799036888 0.9243185194146872
0.6049698 0.2761768186147812 0.9215910961695496
0.6069697 0.28245123049631765 0.919018099015213
0.6089696 0.28959518362744985 0.9169920993750824
0.6109695 0.29613242865290573 0.9141028294468612
0.6129694 0.3027924941482365 0.9116717515539108
0.6149693 0.30984717589496896 0.9094267055002463
0.6169692 0.3163634378038691 0.9072367217269109
0.6189691 0.32355212109157666 0.9047474983941559
0.620969 0.330280796211768 0.902553788489103
0.6229689 0.33725491733167157 0.9002422940002411
0.6249688 0.3441389752628245 0.8981566321412073
0.6269687 0.3511086095211043 0.8963011742576319
0.6289686 0.35763545200120783 0.8944286990626062
0.6309685 0.3644183351845741 0.8927355654466115
0.6329684 0.37063290744567096 0.8909662525059132
0.6349683 0.3772398981949343 0.8885174140027834
0.6369682 0.3828764208610713 0.8866405134108059
0.6389681 0.38942022443266916 0.8848664930648105
0.640968 0.3958602189268233 0.8830091815065861
0.6429679 0.4013475977843332 0.8815948452805592
0.6449678 0.40639805731653234 0.879318360149594
0.6469677 0.4121155709977322 0.8771599136787225
0.6489676 0.41788007122767834 0.875228687110417
0.6509675 0.42288259451675586 0.8727877744836694
0.6529674 0.42772280132769286 0.8702341709836358
0.6549673 0.43309740862115814 0.8678332357778543
0.6569672 0.43845783076912637 0.8653867425196528
0.6589671 0.44362500334616856 0.8621259782086593
0.660967 0.4483186656562986 0.8589957442782111
0.6629669 0.4532748164859358 0.8553784220313141
0.6649668 0.45852034739053726 0.8519438947595586
0.6669667 0.46343027467128173 0.8479828917489521
0.6689666 0.46926653857117595 0.8441398608347969
0.6709665 0.47455781751517584 0.8400073738288619
0.6729664 0.47960730214342406 0.8358259865083835
0.6749663 0.485395122236712 0.8316762428649002
0.6769662 0.49072299512005746 0.8272344567537709
0.6789661 0.4958798371243234 0.8225898888502418
0.680966 0.5022071933252422 0.8180394254313212
0.6829659 0.5083314622505919 0.8138348847891863
0.6849658 0.5141190567331727 0.8094040275502286
0.6869657 0.5211165239646619 0.8052682294690551
0.6889656 0.5272865716482702 0.8009667049421996
0.6909655 0.5337484070134887 0.7970630480120505
0.6929654 0.5403696131233895 0.7926698016201849
0.6949653 0.5461725418904732 0.7892223626478219
0.6969652 0.5529407607359824 0.7850076000162812
0.6989651 0.5589841665579999 0.7813600467227405
0.700965 0.5656546880478575 0.7771704137910558
0.7029649 0.5714695971945648 0.7740347949534157
0.7049648 0.5778774653316887 0.77023425311246
0.7069647 0.5834514200396951 0.7667812691563324
0.7089646 0.5897049699770307 0.7632768579050005
0.7109645 0.5950820542542206 0.7600123168760631
0.7129644 0.6001331084152036 0.7566310860075366
0.7149643 0.6054485734332677 0.7530816003394616
0.7169642 0.6107679687382781 0.7498451916518114
0.7189641 0.6155931688329059 0.7461389188822677
0.720964 0.6202456932235672 0.7427938934952112
0.7229639 0.6256749280716295 0.7383601389503478
0.7249638 0.6304514120402962 0.7348828742690364
0.7269637 0.6348541801778649 0.7309260267138119
0.7289636 0.6389389718636289 0.7275070847700631
0.7309635 0.6440936900336091 0.7230601964207366
0.7329634 0.6482378115940665 0.7186084672321432
0.7349633 0.6520074710177036 0.7138516369644395
0.7369632 0.6564985775974599 0.7097806253672131
0.7389631 0.6604482458746564 0.7048403832709327
0.740963 0.6645369597454868 0.6997514561050018
0.7429629 0.6689465897792533 0.6940277202128782
0.7449628 0.6730888402515265 0.6886847811434673
0.7469627 0.6775258236547371 0.6831272628314312
0.7489626 0.681968297464513 0.6775568996865431
0.7509625 0.6862124739385828 0.6718934224617827
0.7529624 0.6910313568906197 0.6662281462209749
0.7549623 0.6957948764117644 0.6609106605488958
0.7569622 0.7002990853630688 0.6550060171167105
0.7589621 0.7058790214042949 0.6493574849969835
0.760962 0.7106220450999362 0.6434936779387918
0.7629619 0.7158340246311505 0.6381187644713673
0.7649618 0.7209616963438136 0.632366435252464
0.7669617 0.7262745935809494 0.6266740493770886
0.7689616 0.731661140123598 0.6212125885102368
0.7709615 0.7360955866408776 0.6154435753453877
0.7729614 0.7411563670990067 0.6106168569173103
0.7749613 0.7460135261421817 0.6052692458087082
0.7769612 0.7510284341802744 0.5997321734476472
0.7789611 0.755971861908926 0.5949895153847311
0.780961 0.7606816750362094 0.5901139320076841
0.7829609 0.765132084760904 0.585225019537031
0.7849608 0.769650861195211 0.5804218452024559
0.7869607 0.773937004260125 0.5756659041050679
0.7889606 0.7785738778155311 0.5704347548688986
0.7909605 0.7826373761055246 0.565843879726798
0.7929604 0.7868524913843055 0.5609673422605251
0.7949603 0.7907880861033518 0.5560530347008492
0.7969602 0.7943397389309942 0.5513454032780949
0.7989601 0.7981552990561355 0.545816957191791
0.80096 0.8014576494507277 0.5409564571722311
0.8029599 0.8051633299689184 0.5356050251485589
0.8049598 0.8084722000451121 0.5304651570207383
0.8069597 0.8112807945215323 0.52495812067444
0.8089596 0.8144394600196585 0.5192470794002275
0.8109595 0.8167759883547896 0.5129076722466818
0.8129594 0.8201572658651703 0.5067922521855397
0.8149593 0.8226496415498268 0.5012543882491926
