! Created with skrf 1.8.0 (http://scikit-rf.org).
# GHz S RI R 50.0 
!freq ReS11 ImS11
0.001 -0.9511155593765499 -0.01086243740270075
0.0029999 -0.9730042591277468 0.02750993082273323
0.0049998 -0.9570665678375947 0.02721207080743232
0.0069997 -0.9566447509651843 0.03144739454517842
0.0089996 -0.9556521112076095 0.03938585114637788
0.0109995 -0.9546708067785472 0.047414765153410476
0.0129994 -0.9544616670860311 0.05527716852275477
0.0149993 -0.9540306598822981 0.06484570196973427
0.0169992 -0.9536506226043122 0.07111555830423022
0.0189991 -0.9531663533496957 0.07910292124481655
0.020999 -0.9523667851176181 0.08696943447454536
0.0229989 -0.9514024665041515 0.0948908796396834
0.0249988 -0.950025190954871 0.1027008097622451
0.0269987 -0.9493420774080933 0.110662827505366
0.0289986 -0.948130137236038 0.11853737743224509
0.0309985 -0.9468111029960793 0.1262729068022518
0.0329984 -0.9455310712662235 0.1342529791966196
0.0349983 -0.9442469055435072 0.14187659823294202
0.0369982 -0.9425538665877162 0.14994802188521184
0.0389981 -0.9407627658558297 0.1575683554712387
0.040998 -0.9396588320717568 0.1657787309663203
0.0429979 -0.937248472595736 0.17331781352580722
0.0449978 -0.935432710088626 0.18090904629766502
0.0469977 -0.9343095528199168 0.18908575254117377
0.0489976 -0.9315040277301087 0.19675595908789506
0.0509975 -0.9292583111194641 0.20466761969489194
0.0529974 -0.9274731534732267 0.2128213503930565
0.0549973 -0.9248732010582243 0.2214012122263999
0.0569972 -0.9231080710578712 0.22860995402011977
0.0589971 -0.9209059343026897 0.2369927555586042
0.060997 -0.9193393779113659 0.24526691667312933
0.0629969 -0.9169840625964591 0.25255926950584945
0.0649968 -0.9143444007389836 0.26086916718871944
0.0669967 -0.9128765010065817 0.2688746498867969
0.0689966 -0.9106226041342772 0.27628368739627296
0.0709965 -0.9083161882045241 0.28463417192537405
0.0729964 -0.9054624445350434 0.29260924672668687
0.0749963 -0.9038022353860453 0.2999829533469343
0.0769962 -0.9018846246004126 0.3077170287336649
0.0789961 -0.8989014706885955 0.3147449973129002
0.080996 -0.8964039207088915 0.32285548954372445
0.0829959 -0.8935585199057395 0.330515693048811
0.0849958 -0.8915546009289613 0.3373008618821052
0.0869957 -0.8888084337390906 0.34501324027107927
0.0889956 -0.8861403958492193 0.35196821394853184
0.0909955 -0.8831321208436599 0.3591969804498235
0.0929954 -0.8801756134265626 0.36638141364711996
0.0949953 -0.8769590173444846 0.3739109439535515
0.0969952 -0.8735424243602441 0.38052537083641635
0.0989951 -0.870521119080937 0.387848462016858
0.100995 -0.8685537852742109 0.3954318445272299
0.1029949 -0.8651432978452909 0.40204077532211363
0.1049948 -0.8618849322195075 0.4091448106213766
0.1069947 -0.8579976931733846 0.4157735203246567
0.1089946 -0.8542287711023935 0.42270448693918794
0.1109945 -0.8499217807701558 0.429552208614331
0.1129944 -0.8462130545082647 0.43634873340505675
0.1149943 -0.841881190863166 0.44317374264694986
0.1169942 -0.8374532084086883 0.4500078076031987
0.1189941 -0.8331728560765441 0.4570160071317658
0.120994 -0.8287506452484277 0.4642092959047035
0.1229939 -0.8245840785731187 0.4713380548612943
0.1249938 -0.8199957233011466 0.4783649600349804
0.1269937 -0.8158195771915432 0.4855265275441051
0.1289936 -0.8112122432706265 0.49276739962408056
0.1309935 -0.807106790372988 0.4998857407758227
0.1329934 -0.802305690424367 0.5066648330279742
0.1349933 -0.7975997244005107 0.5136906886994043
0.1369932 -0.7933951250327969 0.5205592837565105
0.1389931 -0.7886494478108552 0.5277602832159997
0.140993 -0.784200595642554 0.5344938749349422
0.1429929 -0.7791101782148055 0.5410583844888845
0.1449928 -0.7753605001003727 0.5486439970949807
0.1469927 -0.770415836296119 0.555423412545391
0.1489926 -0.7655733234726628 0.5622759280165186
0.1509925 -0.7608575329013232 0.5689666699398274
0.1529924 -0.7562445562902199 0.5755517313319841
0.1549923 -0.7518455947248135 0.5825824073501013
0.1569922 -0.7466054763335405 0.5886579685824294
0.1589921 -0.7419531225598109 0.5953981578451963
0.160992 -0.7369062305810766 0.6019230184078099
0.1629919 -0.7321730815511933 0.6079560480460858
0.1649918 -0.726941238681742 0.6141658233576638
0.1669917 -0.7221037568007911 0.6201994987610475
0.1689916 -0.7172278061709972 0.6265858227331493
0.1709915 -0.7114193777166443 0.63249624642634
0.1729914 -0.7063366882751161 0.6383806676066845
0.1749913 -0.7010182065064471 0.644259684791169
0.1769912 -0.6955752043067186 0.6500316991779971
0.1789911 -0.6904559568931015 0.6558524748175503
0.180991 -0.684502914138519 0.6616464854877999
0.1829909 -0.6788894596019036 0.6671219028083514
0.1849908 -0.6729416790738896 0.6729636670111172
0.1869907 -0.66742513974471 0.6785244682183242
0.1889906 -0.6611842676785424 0.6841811012365805
0.1909905 -0.655051959488675 0.6899229905366744
0.1929904 -0.6489641785062281 0.69546370968366
0.1949903 -0.6428846238538188 0.7010015384077986
0.1969902 -0.636587019660771 0.7066143324332127
0.1989901 -0.6302039604522214 0.7122696409347118
0.20099 -0.6238402184547476 0.7177353270905302
0.2029899 -0.6178807148342877 0.7229478611968656
0.2049898 -0.6111825315860601 0.7282340825291675
0.2069897 -0.6051387605331369 0.7334966753676421
0.2089896 -0.598248545420487 0.7387249634037057
0.2109895 -0.5922892226725123 0.744076699008929
0.2129894 -0.5851229730333397 0.749727940515091
0.2149893 -0.5788726109124369 0.7544556645430652
0.2169892 -0.57191748241856 0.7600769381105346
0.2189891 -0.5652515090404107 0.7653110867359371
0.220989 -0.5587931474401377 0.7698679681413912
0.2229889 -0.5517387068127133 0.7747813180405776
0.2249888 -0.5449022300020857 0.7798963322277501
0.2269887 -0.5380827846015677 0.7846747022992612
0.2289886 -0.5308408439460552 0.7896125868996909
0.2309885 -0.5240607194645525 0.7946328287653998
0.2329884 -0.517030636746353 0.7991382895742241
0.2349883 -0.5099916332089846 0.8038715616297865
0.2369882 -0.5025616420362147 0.8084241212401957
0.2389881 -0.4956894301131383 0.8130437359779771
0.240988 -0.48854117831792404 0.8176206871467442
0.2429879 -0.4815167691516282 0.8220643983328477
0.2449878 -0.4742882114563456 0.8263583215131008
0.2469877 -0.4667780265225879 0.8306471352156968
0.2489876 -0.4598973042606443 0.8352009629523975
0.2509875 -0.45242022509944146 0.8396434801673288
0.2529874 -0.44511156321181666 0.8438767625871522
0.2549873 -0.4379799202170196 0.8482500838680568
0.2569872 -0.430928460109067 0.8526043133406301
0.2589871 -0.4235119582694662 0.8564265971823017
0.260987 -0.41637445571095877 0.8605729513519975
0.2629869 -0.40910892872759735 0.8643302120445279
0.2649868 -0.4013117238767324 0.8680307237881708
0.2669867 -0.3941625759538825 0.8717210136841826
0.2689866 -0.3866491989588656 0.87525708891257
0.2709865 -0.3794312459487942 0.878996589342438
0.2729864 -0.3721922412041987 0.8818652438880594
0.2749863 -0.36463887281035967 0.8854101391644955
0.2769862 -0.35745662263929706 0.8885299588827718
0.2789861 -0.34973069261483924 0.8910788904924799
0.280986 -0.3425093710450953 0.8939090542137896
0.2829859 -0.334513484856696 0.8964366696917804
0.2849858 -0.3271408647662854 0.8990445103420619
0.2869857 -0.31899235491947225 0.9017282634963141
0.2889856 -0.3113029037040212 0.9039127933596334
0.2909855 -0.3029023069414509 0.906386956665042
0.2929854 -0.29490523294755216 0.9083328802361756
0.2949853 -0.2869852048222026 0.9103956586034193
0.2969852 -0.2785289850280287 0.9127563381765026
0.2989851 -0.27011239737771964 0.9143220257629698
0.300985 -0.2614643623316878 0.9158284992936458
0.3029849 -0.25275938780680324 0.9174416116622693
0.3049848 -0.2441352173894613 0.9193821804700526
0.3069847 -0.23510847929416534 0.921202000542428
0.3089846 -0.22628668145970618 0.9222035549186461
0.3109845 -0.2172262486543228 0.9241086479464728
0.3129844 -0.2077871465379813 0.9257158296441783
0.3149843 -0.19840993035217505 0.9274313941374791
0.3169842 -0.18896820316672727 0.9290542036568263
0.3189841 -0.1798722040426473 0.9304897693770594
0.320984 -0.1699501137450341 0.9318865726123056
0.3229839 -0.16102380919340872 0.9332632142640985
0.3249838 -0.1521008278418042 0.9343038426052821
0.3269837 -0.14252091571212613 0.9359375923440055
0.3289836 -0.13308059859538454 0.9375789882258195
0.3309835 -0.12427792261590745 0.9391124537060587
0.3329834 -0.11538556713885989 0.9409108355915443
0.3349833 -0.10604089714304114 0.9429087078063054
0.3369832 -0.09760953383142795 0.9456642558586256
0.3389831 -0.08833805355274688 0.9472984387509511
0.340983 -0.07953764822841662 0.9495071290115499
0.3429829 -0.07080863846151017 0.9518334132139643
0.3449828 -0.06208059598657845 0.9536245991854327
0.3469827 -0.05389242336597662 0.9549807458333167
0.3489826 -0.044994369750304644 0.9564111849631736
0.3509825 -0.03652324291462168 0.9576611213133466
0.3529824 -0.027919928037826024 0.9590336027091297
0.3549823 -0.01963969190932658 0.9599027054788363
0.3569822 -0.011338346825023889 0.9607511194347234
0.3589821 -0.003194202349215275 0.9611883405625555
0.360982 0.005014540764105818 0.9618692796891672
0.3629819 0.012715827448607261 0.9622097257950187
0.3649818 0.02119005803140933 0.9615075809179802
0.3669817 0.029435025997899475 0.961399065759058
0.3689816 0.03751190424064196 0.9607442155246325
0.3709815 0.046038696742263435 0.9602442406633358
0.3729814 0.054582010627562086 0.9594072150569829
0.3749813 0.0627310013178506 0.9582142857798766
0.3769812 0.07129244759420154 0.9573102719207166
0.3789811 0.08023628026266891 0.9566709302271871
0.380981 0.08886226628207908 0.9548770720013211
0.3829809 0.09800492137874872 0.9532188299670773
0.3849808 0.10671082406496095 0.9518655326591376
0.3869807 0.11599386101994114 0.950194503283372
0.3889806 0.12517144819934448 0.9483933897825396
0.3909805 0.13476386430450293 0.9462837587725602
0.3929804 0.14396103326137405 0.944674620417116
0.3949803 0.15328095061160038 0.9428778345469787
0.3969802 0.16348789046045573 0.941529170515683
0.3989801 0.17286743127772225 0.9395048215323621
0.40098 0.18230259319715647 0.9378500861611875
0.4029799 0.1919530204619413 0.9362764449264179
0.4049798 0.20181358061761634 0.9344183173287403
0.4069797 0.21088689420910442 0.933181814120961
0.4089796 0.2205929207858115 0.9310658572933529
0.4109795 0.230109067329561 0.9294544491598027
0.4129794 0.23938786877869217 0.9276856828722366
0.4149793 0.24935565176417426 0.9261363913410436
0.4169792 0.2581561441291641 0.9245927316740888
0.4189791 0.2672715169824371 0.922688337454738
0.420979 0.2762211859763202 0.9208811294684514
0.4229789 0.2851462035740618 0.9188489369964309
0.4249788 0.29381305192533974 0.9169529898439066
0.4269787 0.30231191533769924 0.9147990785045912
0.4289786 0.31062887348436397 0.9127579183882866
0.4309785 0.3191464551772743 0.910184431870871
0.4329784 0.3273480615600112 0.9073288464807147
0.4349783 0.3356455243629026 0.9039264294594335
0.4369782 0.3438090700127079 0.9009539410967058
0.4389781 0.35139498785804113 0.8977761185220244
0.440978 0.35963958922299416 0.8943476374665726
0.4429779 0.367910812255803 0.8910388185164533
0.4449778 0.3761039072823693 0.8874098093800268
0.4469777 0.3839953197372078 0.8832040119532091
0.4489776 0.39213119708567223 0.8790476519365709
0.4509775 0.4003575027393484 0.874625872383076
0.4529774 0.408300094624903 0.869966007997232
0.4549773 0.41688314179115554 0.8655279031723677
0.4569772 0.42527542230444254 0.8610516979353191
0.4589771 0.4339197272164656 0.8558168358889761
0.460977 0.442560323989276 0.8508360020306961
0.4629769 0.45124795286277347 0.8461458155011607
0.4649768 0.4601012305578117 0.8415394402733954
0.4669767 0.4684236937288553 0.8366054466355193
0.4689766 0.47728076791222984 0.8314865644099138
0.4709765 0.486026548746486 0.8265654125253223
0.4729764 0.49471817780039334 0.8218084122441899
0.4749763 0.5035116151119801 0.8165614174392257
0.4769762 0.5121268749781883 0.8114842829544631
0.4789761 0.5212333056146006 0.8064088849987818
0.480976 0.5299163264769081 0.8013730374657345
0.4829759 0.5385683035244186 0.7963349152735804
0.4849758 0.5468899544387411 0.7916318326635796
0.4869757 0.5554301622802796 0.7864693617334354
0.4889756 0.5638009794934944 0.7815241042719113
0.4909755 0.5721017970891026 0.7766930552123631
0.4929754 0.580037301845978 0.7716323781784402
0.4949753 0.5878602448409336 0.7669187795574668
0.4969752 0.5954766141167459 0.7614767353680821
0.4989751 0.6031827496361365 0.7563045538345213
0.500975 0.6096503152099837 0.7511700181656137
0.5029749 0.6170474453052446 0.7458024020033198
0.5049748 0.6244513459126015 0.7402922682649563
0.5069747 0.6314397277857229 0.7344960493916377
0.5089746 0.6382486584009437 0.7289318576929964
0.5109745 0.6454518503677712 0.7228937448124664
0.5129744 0.6522230061379387 0.7166981204754466
0.5149743 0.6586098121051196 0.7106421706883883
0.5169742 0.6649612395233859 0.7040326800723951
0.5189741 0.6714354947835014 0.6973530696905781
0.520974 0.6781733780531278 0.6904246912364972
0.5229739 0.6849723937977654 0.6832558219915372
0.5249738 0.6912022577491328 0.6762923033502186
0.5269737 0.697377060754358 0.669020966247989
0.5289736 0.7040759468773427 0.6616124949137218
0.5309735 0.7100367260771816 0.6548026498250922
0.5329734 0.7161951891655134 0.6469656181674533
0.5349733 0.722191503477012 0.6389341335709391
0.5369732 0.7282161842673887 0.6314473228672522
0.5389731 0.7350297996677967 0.6233449495668612
0.540973 0.7413738907382774 0.6157266366044716
0.5429729 0.7476379700500042 0.6076545474935544
0.5449728 0.7540917249838928 0.5995879697956729
0.5469727 0.7602154890670476 0.5917707778775618
0.5489726 0.7666204617207801 0.5839075644093421
0.5509725 0.7728744082093791 0.575992619031538
0.5529724 0.7791240681796188 0.5677414917917166
0.5549723 0.7851605608769235 0.5597515849084065
0.5569722 0.7912576144855598 0.552034449310152
0.5589721 0.7973227284910405 0.5440304555197281
0.560972 0.8034238505468314 0.5359585251317189
0.5629719 0.8093196511418148 0.5278413790802884
0.5649718 0.815188137819866 0.5203286742135916
0.5669717 0.8205582499265919 0.5121112259347075
0.5689716 0.8256611638121072 0.5041265565840436
0.5709715 0.8308840783208828 0.4963633234633509
0.5729714 0.8358028908363484 0.48842484017486043
0.5749713 0.8407554266725638 0.47982106568862515
0.5769712 0.8461737114797097 0.4717063900302394
0.5789711 0.8508694618689573 0.46375439980672534
0.580971 0.8554182411338322 0.45571368673400936
0.5829709 0.8594085922827793 0.4475587220246261
0.5849708 0.8639997007079271 0.4387799000942081
0.5869707 0.8681036843657607 0.4303326194886088
0.5889706 0.8722800001569416 0.4216415419331935
0.5909705 0.8763705918281148 0.4127038764031108
0.5929704 0.8800708282938235 0.40362992393930686
0.5949703 0.8836000918360263 0.3947072005206817
0.5969702 0.8879827430963898 0.3860173605323481
0.5989701 0.8917101320089186 0.37666046194873454
0.60097 0.8946211276090182 0.3674856161245474
0.6029699 0.8981596930051263 0.35783923043035804
0.6049698 0.9014623452711625 0.3487248732753835
0.6069697 0.905068223825782 0.3396657641853243
0.6089696 0.9084731688756889 0.3296635684211331
0.6109695 0.9117200186258911 0.3203362293385813
0.6129694 0.9149918925300189 0.3107372460910063
0.6149693 0.9185340254788721 0.30122257352172865
0.6169692 0.9216093366760261 0.2917246168523154
0.6189691 0.9246724274066777 0.2819945724898635
0.620969 0.9270790248992741 0.2723814383402862
0.6229689 0.9302024356393441 0.2628690386469793
0.6249688 0.9331553685890066 0.2533354272510141
0.6269687 0.9357414558883086 0.24362552638528856
0.6289686 0.9383245376805818 0.23428513492662334
0.6309685 0.9409369643675137 0.2247752180374368
0.6329684 0.9431671707382595 0.21534813547952675
0.6349683 0.9452061513321424 0.2057050985307162
0.6369682 0.9475290510929937 0.1965870218841791
0.6389681 0.9497630222485645 0.18684217841549233
0.640968 0.9520541647573628 0.17776539549129128
0.6429679 0.9539507302675774 0.16798399758687335
0.6449678 0.9554047859626271 0.15857965368960583
0.6469677 0.9569879525074397 0.1487612640392163
0.6489676 0.9586631812948755 0.13909192330518966
0.6509675 0.9597571914810763 0.12971076384514915
0.6529674 0.9606774323721745 0.12006025892571241
0.6549673 0.9620470868741663 0.11019588045056844
0.6569672 0.9631683190728336 0.1005192000870322
0.6589671 0.9637276273124767 0.09073039820774892
0.660967 0.9643028694195064 0.08113252474255733
0.6629669 0.9648464846351594 0.07136094943463762
0.6649668 0.965865613639789 0.06131068334996833
0.6669667 0.9664698969514682 0.051543187518526955
0.6689666 0.9667611471824479 0.041426553885829144
0.6709665 0.9670627529665721 0.03159512277016499
0.6729664 0.9672013732922515 0.02150679283453813
0.6749663 0.9673859247513004 0.011573491892839391
0.6769662 0.9674331431378512 0.001742990821399712
0.6789661 0.9674991468712085 -0.008297577439126153
0.680966 0.9673240821629432 -0.018023243663956176
0.6829659 0.966850035752165 -0.02784822916428145
0.6849658 0.9667761007795268 -0.03788876759771535
0.6869657 0.9663297104800351 -0.04739025264363314
0.6889656 0.9658109248535315 -0.05729378544975952
0.6909655 0.9651700941325512 -0.06684372401954806
0.6929654 0.9644008168275031 -0.07704822805742641
0.6949653 0.963526433720909 -0.0863706317859991
0.6969652 0.9625542741893321 -0.09591437840406908
0.6989651 0.9616541974393087 -0.10540876148628457
0.700965 0.9601846730831406 -0.1154002789833971
0.7029649 0.9590467408645027 -0.12466321974086214
0.7049648 0.957937278064768 -0.13465038693216266
0.7069647 0.9560973122250175 -0.14343608862470023
0.7089646 0.9542179188650965 -0.1530953685268254
0.7109645 0.9524466114102833 -0.162654902972787
0.7129644 0.9505010718208058 -0.1724088918736629
0.7149643 0.9486736432146808 -0.18190883910287411
0.7169642 0.9464454418967456 -0.19174469939941904
0.7189641 0.9441189425748374 -0.20136765975429086
0.720964 0.9419508780708796 -0.2104332367752803
0.7229639 0.9394601023658764 -0.2203850972878587
0.7249638 0.936992623531708 -0.2302765196369595
0.7269637 0.9341923707903637 -0.23961477641250462
0.7289636 0.9317924842703881 -0.24912409215978723
0.7309635 0.9291937822611148 -0.25849598306478305
0.7329634 0.9260850715970411 -0.2684089127469036
0.7349633 0.9234551249997879 -0.2779549077341263
0.7369632 0.9208519246349236 -0.28762500615533504
0.7389631 0.9179124616901907 -0.2974521190769
0.740963 0.9150645802535747 -0.3064532643410779
0.7429629 0.9121515381778835 -0.3158850450159611
0.7449628 0.9091923462023673 -0.32458212113516294
0.7469627 0.9059534379836951 -0.3338557492873857
0.7489626 0.9030011548287258 -0.3431697625379563
0.7509625 0.8997912387402328 -0.3516646338182442
0.7529624 0.8966282463543673 -0.3614074033770372
0.7549623 0.8935341429575777 -0.3699130349521846
0.7569622 0.8901319168974197 -0.37833785691797295
0.7589621 0.8863562283579709 -0.3872323502391676
0.760962 0.8825624091539283 -0.39544478909574954
0.7629619 0.8789225326733708 -0.4035866243037944
0.7649618 0.875168656305839 -0.4121580830101321
0.7669617 0.8710141963005628 -0.4202030898402776
0.7689616 0.8669232341426014 -0.42844545729643396
0.7709615 0.8629739965153418 -0.43660307616070226
0.7729614 0.8588339611294084 -0.44515056004432757
0.7749613 0.8534683522548717 -0.4524575338300974
0.7769612 0.8485335661865514 -0.4602954484341976
0.7789611 0.8437340865653109 -0.4679415908929731
0.780961 0.8384650113908013 -0.4761051410755007
0.7829609 0.8332587568066644 -0.48374993269425254
0.7849608 0.8281890802402768 -0.4915461204574563
0.7869607 0.822445044710604 -0.49948823680944643
0.7889606 0.8164264923452471 -0.5075468297628148
0.7909605 0.810637903292003 -0.5154531304237869
0.7929604 0.8053188917759064 -0.5231318259141179
0.7949603 0.7992629940009423 -0.5312676786553001
0.7969602 0.7934281114294585 -0.5394210814297515
0.7989601 0.7873132244663463 -0.5479420872458338
0.80096 0.7813087772068216 -0.5555635414600263
0.8029599 0.7754738138818866 -0.5636934228908573
0.8049598 0.7697320408993726 -0.57243356254161
0.8069597 0.7640600141983179 -0.5810051683466035
0.8089596 0.7579860252586385 -0.5892214482065297
0.8109595 0.7518476206019501 -0.5967100839496622
0.8129594 0.746341327719817 -0.6048753506009047
0.8149593 0.7407077909933184 -0.612560463054338
