! Created with skrf 1.8.0 (http://scikit-rf.org).
# GHz S RI R 50.0 
!freq ReS11 ImS11
0.001 -0.8422590330997857 0.3654144904419672
0.0029999 1.0007016505820132 -0.02846031066936905
0.0049998 0.988390167143199 -0.028029530003377545
0.0069997 0.9981972536097856 -0.030321660534638473
0.0089996 0.992812213968154 -0.03558313733528662
0.0109995 0.9922810370880011 -0.042120000422552706
0.0129994 0.9912541683764295 -0.04990989600801854
0.0149993 0.9906245565953888 -0.056926619979349
0.0169992 0.9902571621105299 -0.06553854153127447
0.0189991 0.9897400362649184 -0.07185939188432255
0.020999 0.9879850741783675 -0.07972344171501133
0.0229989 0.9878505878146047 -0.08757210365547774
0.0249988 0.9869989788436826 -0.09481533942595666
0.0269987 0.986300408786811 -0.10231026196540194
0.0289986 0.9855590664493958 -0.11012054988602588
0.0309985 0.9849935508396154 -0.11845017233499605
0.0329984 0.9829689613710899 -0.12492050119815272
0.0349983 0.9831608442842288 -0.13177099610084525
0.0369982 0.9821928506725419 -0.1404463734604374
0.0389981 0.9812640872639791 -0.14741522842692428
0.040998 0.980262164466366 -0.15427047518377035
0.0429979 0.9790839138517866 -0.161844518969246
0.0449978 0.9785710111231789 -0.16930543882733728
0.0469977 0.9771362084374495 -0.17664632818968623
0.0489976 0.9757009119810011 -0.1843287807442657
0.0509975 0.9746116162401668 -0.19139998124031915
0.0529974 0.9735046184203001 -0.19849455486833026
0.0549973 0.9717812581232632 -0.20563159061946015
0.0569972 0.9700502249867105 -0.21274542943473881
0.0589971 0.9682942531306651 -0.21956325786026384
0.060997 0.9668804516560074 -0.22685340724308278
0.0629969 0.9646605230066854 -0.2339141483290874
0.0649968 0.9628877190333336 -0.24090098469709845
0.0669967 0.9608847642319729 -0.24765257415205524
0.0689966 0.958721382044984 -0.25475244669340263
0.0709965 0.9565861283461343 -0.2618502939940268
0.0729964 0.9542519518596111 -0.2687086219421729
0.0749963 0.9516981841857782 -0.2759335192032635
0.0769962 0.949088617644904 -0.28308710360422007
0.0789961 0.946299477890711 -0.29013165685575537
0.080996 0.9442304989612554 -0.29748576667267446
0.0829959 0.9414499621489385 -0.3045736307219316
0.0849958 0.9385569354190882 -0.3120604181776548
0.0869957 0.936134638151359 -0.3190483531702744
0.0889956 0.9335142773365184 -0.32579752606318013
0.0909955 0.930891050222995 -0.3336416943564172
0.0929954 0.9280687691449528 -0.3402001263794022
0.0949953 0.9254633565178778 -0.34776505058029206
0.0969952 0.9227385938892669 -0.3552680777141016
0.0989951 0.9202025472004316 -0.3615051703659375
0.100995 0.9158012207607857 -0.3690581069455134
0.1029949 0.9133349116824432 -0.3765231371926601
0.1049948 0.9102430391708538 -0.3840882637559611
0.1069947 0.907761197874528 -0.39115242743782364
0.1089946 0.9046671379557962 -0.39785693079574946
0.1109945 0.9017515762738969 -0.4051833540706694
0.1129944 0.8993128640634214 -0.4120858000094963
0.1149943 0.8965102836987618 -0.41881358534082935
0.1169942 0.893332603884246 -0.42561658796858687
0.1189941 0.8910908273140628 -0.4329180266983911
0.120994 0.8882307160737155 -0.43874868081134377
0.1229939 0.8848535394446462 -0.44561872432829985
0.1249938 0.8819910722524239 -0.45208916630327
0.1269937 0.8785738911736818 -0.4578552788571513
0.1289936 0.8753031389843083 -0.4641574398306474
0.1309935 0.8721647908668391 -0.4707694600184463
0.1329934 0.8686208618473348 -0.4768014779535774
0.1349933 0.8652796928909291 -0.48290237087180476
0.1369932 0.861573672451104 -0.4890875844196429
0.1389931 0.8578645501038767 -0.49508327177592465
0.140993 0.8541953303914731 -0.5008390052350351
0.1429929 0.8501313591334148 -0.5068650783461288
0.1449928 0.8461678711250643 -0.5127148283262501
0.1469927 0.8419989899429906 -0.5185692926420027
0.1489926 0.83790659368279 -0.5248360906301176
0.1509925 0.8334781868449375 -0.5306971369109008
0.1529924 0.8293112305947866 -0.5365983677837675
0.1549923 0.8250256408919283 -0.5425433563367242
0.1569922 0.8206597460745015 -0.5486653608477261
0.1589921 0.8163238855882109 -0.5546947827421287
0.160992 0.8119147580731663 -0.5610591593575865
0.1629919 0.8074820064058376 -0.5667437494320848
0.1649918 0.8028454608587547 -0.5725293999270427
0.1669917 0.798112694181069 -0.578511251194846
0.1689916 0.7935883695841491 -0.5843558615577122
0.1709915 0.7893160688540187 -0.590425583830514
0.1729914 0.7846994514943575 -0.5962386174500725
0.1749913 0.7800445104233825 -0.6021328899362417
0.1769912 0.7755761827511118 -0.6076871215289079
0.1789911 0.7709664114055665 -0.6137262072020383
0.180991 0.765829825510516 -0.6191929140932291
0.1829909 0.7615568898878123 -0.6252955166509007
0.1849908 0.7565395202316926 -0.6309498513474598
0.1869907 0.7517269221472549 -0.6364578442229307
0.1889906 0.7474916797510031 -0.6420530914866741
0.1909905 0.7424455095417076 -0.6473175569006088
0.1929904 0.738421112759998 -0.6529196061521336
0.1949903 0.7329214339119237 -0.6581625521574279
0.1969902 0.7282792067045072 -0.6636382325850554
0.1989901 0.7235394356427568 -0.6687543175936578
0.20099 0.7185696644115429 -0.6738659343042092
0.2029899 0.7136114355861314 -0.679079133492495
0.2049898 0.7087919893300687 -0.68424305897546
0.2069897 0.7036751582997798 -0.6890638005646532
0.2089896 0.6984552775923152 -0.6940628675771745
0.2109895 0.6939138220958315 -0.699047599680744
0.2129894 0.6884435384327332 -0.7038041035199845
0.2149893 0.6834123704014778 -0.7084764370975413
0.2169892 0.6783674839659694 -0.7136397981826041
0.2189891 0.6732726792130117 -0.7181810604353125
0.220989 0.6675556949462195 -0.7226272336148832
0.2229889 0.6625264093355238 -0.7274228327803622
0.2249888 0.656889554704493 -0.7318460516137237
0.2269887 0.6510780178021153 -0.7359728869546048
0.2289886 0.6458240733565874 -0.740670717794991
0.2309885 0.6407097237670165 -0.7450234948194618
0.2329884 0.6349700471322155 -0.750006570593848
0.2349883 0.6293360771202838 -0.7537487053951601
0.2369882 0.6239848998331545 -0.7581853244661783
0.2389881 0.6183059935045909 -0.762305068940075
0.240988 0.612615294010716 -0.7668135479998477
0.2429879 0.606645788007164 -0.7702726473780835
0.2449878 0.601259885355588 -0.7745656239197325
0.2469877 0.5955300375425783 -0.7784479644654854
0.2489876 0.5896545658907023 -0.7828978522418679
0.2509875 0.5834619958562699 -0.7863719052709729
0.2529874 0.5777421262763003 -0.7904342001149633
0.2549873 0.5715256742690513 -0.7942273517191453
0.2569872 0.565497209589291 -0.7978090268418178
0.2589871 0.5597866015869029 -0.8020502588903795
0.260987 0.5528381557145938 -0.8055796087759544
0.2629869 0.5469558454818139 -0.809368401950439
0.2649868 0.540526531742167 -0.8132656513757043
0.2669867 0.5342710829115028 -0.8167969827248539
0.2689866 0.5282692688988141 -0.8206989088961952
0.2709865 0.5220000599277692 -0.8240039871819486
0.2729864 0.5155067233754901 -0.8279569499809153
0.2749863 0.5088579447997509 -0.8315147109856159
0.2769862 0.5019690011718619 -0.8352438155784702
0.2789861 0.49599631027833 -0.8390851694369769
0.280986 0.4897157780087982 -0.84286748329835
0.2829859 0.48314010074978375 -0.8462661386396554
0.2849858 0.47718291931352164 -0.8503170619180911
0.2869857 0.4706289256909453 -0.8543762168380837
0.2889856 0.4641192743522118 -0.858395063322084
0.2909855 0.458105616452289 -0.8618378148866326
0.2929854 0.4521743813001827 -0.8653732731517476
0.2949853 0.4456472263748638 -0.8690966032081117
0.2969852 0.4400477572014899 -0.8726435020147022
0.2989851 0.4341735518416924 -0.8759420562434295
0.300985 0.4283550429047983 -0.8796426109200938
0.3029849 0.42203602219884123 -0.8829379836701932
0.3049848 0.41680155774948335 -0.8863369237632883
0.3069847 0.41109265382910065 -0.889661595194333
0.3089846 0.40545062248645847 -0.8927186382450542
0.3109845 0.39991304940587047 -0.8956328577730926
0.3129844 0.3940264794937173 -0.8986200967862767
0.3149843 0.38844446970818125 -0.9012750078988291
0.3169842 0.38276429327718586 -0.9038395856389391
0.3189841 0.37709003550677833 -0.9067778998028752
0.320984 0.3713754331533982 -0.9090205463674461
0.3229839 0.3657604101059595 -0.9113953593322182
0.3249838 0.35945132346311004 -0.9142741270550474
0.3269837 0.35392007608951437 -0.9163342208262496
0.3289836 0.34774420198893174 -0.9185148251074851
0.3309835 0.3419315813870589 -0.9199621982077448
0.3329834 0.3357891658312404 -0.9212874435026008
0.3349833 0.32974751025602206 -0.9225469167847827
0.3369832 0.3232847079460684 -0.9238553193340362
0.3389831 0.3172713251991277 -0.9244440447048066
0.340983 0.31101753609083765 -0.9254936698539822
0.3429829 0.3037781007377762 -0.9258217354194164
0.3449828 0.2972205489089661 -0.926796880287605
0.3469827 0.29012215180828993 -0.9277731407355801
0.3489826 0.28309484308714516 -0.9284710541873739
0.3509825 0.2762826302566378 -0.9299749059162781
0.3529824 0.2690608841246103 -0.9310539352623293
0.3549823 0.2619420931040344 -0.9316813022301413
0.3569822 0.25377911083857674 -0.9331775650709608
0.3589821 0.2468991555990739 -0.9347376575057562
0.360982 0.23937279918813542 -0.9359454588332998
0.3629819 0.2316821324182219 -0.9375001201731843
0.3649818 0.22463741378423807 -0.938886929207034
0.3669817 0.21761682039473973 -0.9408011722669775
0.3689816 0.21042087235541704 -0.9427048354248015
0.3709815 0.20405121134413845 -0.9442535857116245
0.3729814 0.19686362158375945 -0.9457261989748545
0.3749813 0.1895725549620007 -0.9477972983041866
0.3769812 0.1828550565636178 -0.9498213792325988
0.3789811 0.1760343075492333 -0.9513728163341693
0.380981 0.16967349377141372 -0.9531818485085803
0.3829809 0.16296653634941421 -0.95468572200821
0.3849808 0.1564941628979734 -0.956395517419304
0.3869807 0.15048153041777587 -0.9577618643774635
0.3889806 0.14429588412421043 -0.9595794432498659
0.3909805 0.1380642548214352 -0.9606583286059336
0.3929804 0.13241761872911958 -0.961641864732166
0.3949803 0.12649997448754782 -0.9627224450725004
0.3969802 0.12056993098757719 -0.9637872927321085
0.3989801 0.11448321032957098 -0.9641549416472367
0.40098 0.10863288836467147 -0.964718277776366
0.4029799 0.1031688869445 -0.964868789367913
0.4049798 0.09737205948213998 -0.9652358645239537
0.4069797 0.09108066251156856 -0.9649186212735374
0.4089796 0.08532739484107725 -0.9646839910802849
0.4109795 0.07860688504962729 -0.9652651669946599
0.4129794 0.07279612960325182 -0.9641765033081775
0.4149793 0.06677084307046771 -0.9637361819641539
0.4169792 0.060418580237624246 -0.9628092417982008
0.4189791 0.05366486930760647 -0.962706424239326
0.420979 0.04686393997719207 -0.9622459028211985
0.4229789 0.04036317242923057 -0.961743281122692
0.4249788 0.0335994885078321 -0.9616893346549742
0.4269787 0.02652734012169633 -0.9611980953852892
0.4289786 0.01904610215651625 -0.9605289101216425
0.4309785 0.012497867845171873 -0.9601347663415148
0.4329784 0.005251037707206883 -0.9598834622639011
0.4349783 -0.0009047095251490285 -0.9600311552146097
0.4369782 -0.008443856936139034 -0.9595781796470636
0.4389781 -0.015679217579250004 -0.9596679000447977
0.440978 -0.022349199617581687 -0.9595724800010914
0.4429779 -0.029171902012847004 -0.9595478227747605
0.4449778 -0.036730471513777105 -0.9600378998788782
0.4469777 -0.04320433215802427 -0.9594807109811223
0.4489776 -0.049985201866842806 -0.9595145773384501
0.4509775 -0.056567287092178245 -0.9596259822185382
0.4529774 -0.06300158898240746 -0.9600678191033727
0.4549773 -0.06924759244848236 -0.9602311067130738
0.4569772 -0.07540792823298362 -0.9600011716913456
0.4589771 -0.08184766393802431 -0.9603124419769516
0.460977 -0.08706907369545679 -0.9603200421507978
0.4629769 -0.09329184042882191 -0.9599248096079734
0.4649768 -0.0985335349699456 -0.9598266172816678
0.4669767 -0.10460007862299664 -0.9587706426543273
0.4689766 -0.10977216997132513 -0.9583573026586502
0.4709765 -0.11513193931687796 -0.9578253389518633
0.4729764 -0.12048404686827732 -0.9567715603886783
0.4749763 -0.12598442793099743 -0.9556672134765503
0.4769762 -0.1312929057755623 -0.9542575867499865
0.4789761 -0.13629290913413994 -0.9530199455866964
0.480976 -0.1419518842836327 -0.9512942354787861
0.4829759 -0.14791178041839637 -0.9496698148566496
0.4849758 -0.15349147487647802 -0.9479010949529658
0.4869757 -0.1589108942235345 -0.9456854953250868
0.4889756 -0.16508473708253532 -0.9434072228333249
0.4909755 -0.17074346580760208 -0.940857538222525
0.4929754 -0.17731286614635608 -0.9391437789505178
0.4949753 -0.18380227552187606 -0.9369827702816473
0.4969752 -0.18967735890651422 -0.934058973511032
0.4989751 -0.19661997622465 -0.9325784346665393
0.500975 -0.20270012778721982 -0.9304341774852815
0.5029749 -0.20927571772226836 -0.928163272248329
0.5049748 -0.21621459404309212 -0.9267508005386073
0.5069747 -0.22275195512177715 -0.9245848912702687
0.5089746 -0.22956567470500247 -0.9228565097112877
0.5109745 -0.23536553299464752 -0.9206448613581453
0.5129744 -0.24204205758276165 -0.9190316178609437
0.5149743 -0.24875734926940127 -0.9169514684700477
0.5169742 -0.25556686196940637 -0.9154213141329609
0.5189741 -0.26231682223887776 -0.9138149144550398
0.520974 -0.2683771543599318 -0.9128904117282514
0.5229739 -0.27415814957576 -0.9113723272629847
0.5249738 -0.2809368734534561 -0.9098616114251283
0.5269737 -0.28693430922024243 -0.9086322332754367
0.5289736 -0.2934338179060683 -0.907345400182438
0.5309735 -0.29900780300281915 -0.9061567867317597
0.5329734 -0.304743232250019 -0.9044872037360432
0.5349733 -0.31047650633802315 -0.9030968667083961
0.5369732 -0.3160964283180131 -0.9018011240911541
0.5389731 -0.32147597719593474 -0.9004229561676292
0.540973 -0.32661630958982746 -0.8982470402146961
0.5429729 -0.3314001917173422 -0.8962327934132607
0.5449728 -0.33636828972315286 -0.89467243936181
0.5469727 -0.3415543938322 -0.8924385762695582
0.5489726 -0.34640164447282773 -0.8905127185792192
0.5509725 -0.35127294695619027 -0.8879545100178683
0.5529724 -0.3565505725632262 -0.8859548625258671
0.5549723 -0.361401170835054 -0.8834202234029296
0.5569722 -0.3661981863650745 -0.8806285552453353
0.5589721 -0.3708809615639851 -0.8775539277554966
0.560972 -0.37603710053122674 -0.8740645658400581
0.5629719 -0.3808346944089202 -0.8716423805272037
0.5649718 -0.3855905449448594 -0.8683747150617318
0.5669717 -0.3910662803969895 -0.8647207420632013
0.5689716 -0.3963988272077715 -0.8613613065796938
0.5709715 -0.4019792119515316 -0.8580856554671727
0.5729714 -0.4074203106723879 -0.8551378982389175
0.5749713 -0.412335605366443 -0.8516159765627163
0.5769712 -0.4184370102848487 -0.8485514558196654
0.5789711 -0.42366136331053206 -0.8451852644140343
0.580971 -0.42967070497024856 -0.8419835472334335
0.5829709 -0.43557926977448663 -0.8384455390861211
0.5849708 -0.441349579902549 -0.835498231392874
0.5869707 -0.4471708011385099 -0.8323191186353004
0.5889706 -0.4527525641792701 -0.8296768485574655
0.5909705 -0.4586767293715083 -0.8271917478464814
0.5929704 -0.46397273055491733 -0.824505415053451
0.5949703 -0.46947531422817124 -0.8214365888500169
0.5969702 -0.4750777246005379 -0.8186610370190179
0.5989701 -0.4809895194188511 -0.8159680062426035
0.60097 -0.48592224128287664 -0.8134130544377982
0.6029699 -0.4908438328406678 -0.8104150516963446
0.6049698 -0.4958488338644259 -0.8077504050821651
0.6069697 -0.5009810668747725 -0.8051370371345178
0.6089696 -0.5052500598788754 -0.8025843830603508
0.6109695 -0.5097064015960296 -0.7999648065277943
0.6129694 -0.5140376611298557 -0.7973168528780219
0.6149693 -0.5189414561225605 -0.7943895639155372
0.6169692 -0.5234198244250339 -0.7913619465813873
0.6189691 -0.5271464065158508 -0.7882375778048484
0.620969 -0.5312494238481438 -0.7851839966776796
0.6229689 -0.535450904314597 -0.7815516406086241
0.6249688 -0.5395692475117705 -0.7782273718591746
0.6269687 -0.543651817843946 -0.7746732576617943
0.6289686 -0.547920610064842 -0.7705294207807539
0.6309685 -0.5514506868671178 -0.7658674400845942
0.6329684 -0.556111705298408 -0.7622146320439922
0.6349683 -0.5600547801714711 -0.7579231097346532
0.6369682 -0.5642329618600624 -0.7538977545430336
0.6389681 -0.5685933150030192 -0.75000723300068
0.640968 -0.573059320416521 -0.7454928860781922
0.6429679 -0.5774485234747617 -0.7408222457108367
0.6449678 -0.581984791269351 -0.736727718315134
0.6469677 -0.5868714729701299 -0.732269478865222
0.6489676 -0.5916199501701322 -0.7279979340925483
0.6509675 -0.5970483605103454 -0.7236673225286786
0.6529674 -0.6019682586555303 -0.7197449211569186
0.6549673 -0.6066313619481128 -0.7152951159724639
0.6569672 -0.6117623482941434 -0.7111320535436214
0.6589671 -0.6166353528232428 -0.706954427934253
0.660967 -0.6214092151188374 -0.7033647465399396
0.6629669 -0.6264564004107229 -0.6994187064401547
0.6649668 -0.6316259533927153 -0.6958628485622096
0.6669667 -0.6365344909157555 -0.6918726744675201
0.6689666 -0.6408097567059895 -0.6881441180662804
0.6709665 -0.645085514244082 -0.684785113805598
0.6729664 -0.6494990889619019 -0.6814112006466968
0.6749663 -0.6537881118223453 -0.6775971065804051
0.6769662 -0.6578036879178598 -0.6740468454508359
0.6789661 -0.662042972819505 -0.6711443422406043
0.680966 -0.6665820602672062 -0.6676147931061214
0.6829659 -0.6701860205472938 -0.6644375226513008
0.6849658 -0.6732583041790406 -0.6605939166530633
0.6869657 -0.6771118981142711 -0.6576376657594274
0.6889656 -0.6806714028136245 -0.6540937919584592
0.6909655 -0.683735825889233 -0.6500702151705656
0.6929654 -0.6869842519788288 -0.6463833319066624
0.6949653 -0.6903382102367698 -0.6420434992276833
0.6969652 -0.6931554295936462 -0.6381786669079156
0.6989651 -0.6962145756087 -0.6341219011208868
0.700965 -0.6996085797287521 -0.6300248032157459
0.7029649 -0.702684134949747 -0.6252905084080863
0.7049648 -0.7054829881156581 -0.6206905381603667
0.7069647 -0.7084530183819675 -0.6159228952840514
0.7089646 -0.7112187563746698 -0.6106644051593337
0.7109645 -0.7147005045953022 -0.606020576579932
0.7129644 -0.7180218253131233 -0.6007412022078596
0.7149643 -0.7213660615464199 -0.5957942880054555
0.7169642 -0.725087914970994 -0.590818606003154
0.7189641 -0.7288670855062374 -0.5857699844588201
0.720964 -0.7320533791532748 -0.580799189711927
0.7229639 -0.7357267006727326 -0.5758849967094396
0.7249638 -0.7390799649675537 -0.5707481443934244
0.7269637 -0.7427677886693554 -0.5656452400562106
0.7289636 -0.746766510525432 -0.5608137108352428
0.7309635 -0.7508937321724778 -0.556202940190137
0.7329634 -0.754492337273506 -0.5508141605925843
0.7349633 -0.7582836188885862 -0.5462061751675817
0.7369632 -0.7618189187381373 -0.5414140311042908
0.7389631 -0.7655675990098374 -0.5370861598741062
0.740963 -0.7685674501650592 -0.5325081208563027
0.7429629 -0.7719906800250943 -0.5279922371705692
0.7449628 -0.775292954211293 -0.5240189236994904
0.7469627 -0.7788654854483883 -0.5201113499149035
0.7489626 -0.7819674518980199 -0.5150991801685572
0.7509625 -0.7853220820622275 -0.5113120267806318
0.7529624 -0.7886167101917966 -0.5070196926168058
0.7549623 -0.7916117943314429 -0.5026978922065362
0.7569622 -0.7947327235062646 -0.4984342583106838
0.7589621 -0.7971722063598262 -0.4944932948391005
0.760962 -0.7999108520523368 -0.49040749738429923
0.7629619 -0.8025443713290447 -0.4858213498605854
0.7649618 -0.8045941281646769 -0.48145469785719086
0.7669617 -0.8074287981829736 -0.4769178451295804
0.7689616 -0.8097556614683469 -0.47239666174912126
0.7709615 -0.811852438993105 -0.4676374526219039
0.7729614 -0.8139848681662731 -0.4631825107617585
0.7749613 -0.8154433945381644 -0.4576792512746129
0.7769612 -0.817155455141798 -0.4529500367011671
0.7789611 -0.8193669536753698 -0.4473582921038444
0.780961 -0.8213109609807866 -0.4422128708485089
0.7829609 -0.8233391862371413 -0.4372491627935882
0.7849608 -0.8256902728330937 -0.4314753748847825
0.7869607 -0.827815344014973 -0.42633650498174025
0.7889606 -0.8302995324006552 -0.42092109956561075
0.7909605 -0.8322646083961099 -0.41557261750168806
0.7929604 -0.8347977574893978 -0.4101171381547546
0.7949603 -0.8372888340334793 -0.4043567921753316
0.7969602 -0.8396303749372007 -0.3992562789543244
0.7989601 -0.8419195732775069 -0.3935747368595076
0.80096 -0.844493005123567 -0.38817389546225567
0.8029599 -0.8470095022943535 -0.38308304486125355
