! Created with skrf 1.8.0 (http://scikit-rf.org).
# GHz S RI R 50.0 
!freq ReS11 ImS11
0.001 -0.9744040711041525 0.12201308953388762
0.0029999 -0.9701095305591563 0.017008200455675415
0.0049998 -0.9560321861943073 0.018700541133779086
0.0069997 -0.9558720809938097 0.022688769247281027
0.0089996 -0.9553214260503113 0.027694931021387204
0.0109995 -0.9541141823240553 0.0327238277283437
0.0129994 -0.9542131189383583 0.03870940036206372
0.0149993 -0.9537439271440948 0.04581059773436136
0.0169992 -0.9535078576857337 0.049765559520000835
0.0189991 -0.9531890340839604 0.05532954991339245
0.020999 -0.9528308597133935 0.061045728713463754
0.0229989 -0.9522525372793316 0.06671106983689457
0.0249988 -0.9513789074856696 0.07191341243059254
0.0269987 -0.9511493561742179 0.07770182598986047
0.0289986 -0.9504612937331481 0.08306411287568298
0.0309985 -0.949514704073603 0.08843310847578123
0.0329984 -0.9490249396237382 0.09412692335979167
0.0349983 -0.9484008908565105 0.09976562514336118
0.0369982 -0.9472992433841028 0.10529771285058409
0.0389981 -0.9463217891325089 0.1107540127460841
0.040998 -0.945821945773164 0.11632808978106679
0.0429979 -0.9444154724401645 0.12172025808907655
0.0449978 -0.9435571339562825 0.1271502262643508
0.0469977 -0.9427076028656199 0.1325652752692713
0.0489976 -0.9415128314224724 0.13809505803047084
0.0509975 -0.940248775488756 0.14393732335671672
0.0529974 -0.9394432518849146 0.14974144578727278
0.0549973 -0.9377385013163546 0.15598727700664128
0.0569972 -0.9370825921024006 0.16095429381583318
0.0589971 -0.9357483933911392 0.16674124815418093
0.060997 -0.9350712328719046 0.17288591349024496
0.0629969 -0.9340473169860339 0.17795850108370181
0.0649968 -0.9322782316640164 0.1838652578725302
0.0669967 -0.9320440998198883 0.18992738381838495
0.0689966 -0.9306513527259427 0.19487842824717186
0.0709965 -0.9299061663057081 0.20019627676876223
0.0729964 -0.9285300543288202 0.20641371169913708
0.0749963 -0.9271196965094493 0.21185364580761304
0.0769962 -0.9263807829341697 0.21695759449868912
0.0789961 -0.9249913905212734 0.22249840144130226
0.080996 -0.9236207626012993 0.22802127162826197
0.0829959 -0.9223241825230406 0.23368824858092047
0.0849958 -0.9218855049250535 0.23818556882999456
0.0869957 -0.9204901085487157 0.2439894314978377
0.0889956 -0.9187743606589005 0.24873386880479662
0.0909955 -0.9175186949606806 0.2542030772761117
0.0929954 -0.9158100937213963 0.2592638883005579
0.0949953 -0.9144390867377878 0.264533459390301
0.0969952 -0.9127154274764541 0.26962584098256015
0.0989951 -0.910789046251063 0.2746987648361672
0.100995 -0.9102109725033545 0.28038590422359866
0.1029949 -0.908343504795969 0.2854341848019497
0.1049948 -0.9067867689492998 0.2905504651469926
0.1069947 -0.9048319781385085 0.2955465337916695
0.1089946 -0.9027894520080377 0.30044670424103326
0.1109945 -0.9007205139067009 0.3056349926343831
0.1129944 -0.898700094255401 0.3107761728587016
0.1149943 -0.8963037107116218 0.31565817494669557
0.1169942 -0.8940065022015358 0.32100120886099237
0.1189941 -0.8918929389166963 0.3262712076025157
0.120994 -0.8893704623696455 0.33128555913442426
0.1229939 -0.887218623885077 0.33681960497954344
0.1249938 -0.8850367334332592 0.3420503008096643
0.1269937 -0.8826798207713531 0.34718299242979506
0.1289936 -0.8804784764456789 0.3531313849789436
0.1309935 -0.878242735314193 0.35842464368869725
0.1329934 -0.8761431826502738 0.3634907173727771
0.1349933 -0.8734786899567991 0.3690446789702635
0.1369932 -0.8712699385849632 0.37391760074628577
0.1389931 -0.8690790882566384 0.3792899452692116
0.140993 -0.8666096724207433 0.38468155192095005
0.1429929 -0.8640355342330845 0.38981710081165594
0.1449928 -0.862481952502552 0.39531706455159465
0.1469927 -0.8601486016509174 0.4004570110316368
0.1489926 -0.8576806474369529 0.4060884551986106
0.1509925 -0.8549960122087719 0.41061899795305556
0.1529924 -0.8526392085719238 0.4160713411099724
0.1549923 -0.8508954857899791 0.4217576113558178
0.1569922 -0.848330159813465 0.42608722063370685
0.1589921 -0.8459309929513 0.43154284116740294
0.160992 -0.8433727003597509 0.4362530065471694
0.1629919 -0.8408571613830482 0.44140527492648945
0.1649918 -0.838325542470595 0.4462340996497199
0.1669917 -0.8357152174992555 0.4508250671943257
0.1689916 -0.8336243411638936 0.45586870531112983
0.1709915 -0.8307509571725881 0.46072206506742025
0.1729914 -0.8277969982524631 0.46531425320836173
0.1749913 -0.8255017612195958 0.46993715449868867
0.1769912 -0.822482893549443 0.4748435294863604
0.1789911 -0.8200760137194392 0.479455177600704
0.180991 -0.8170222422092553 0.48411564337946883
0.1829909 -0.8139548238844755 0.48868659005102033
0.1849908 -0.8111547721179011 0.49360185048238003
0.1869907 -0.8079240098437439 0.4979865491260234
0.1889906 -0.8048619915882022 0.5028756387920157
0.1909905 -0.8018934878189088 0.5075295796452379
0.1929904 -0.7987520456935112 0.5122714166578872
0.1949903 -0.7955188282027281 0.5168370438544824
0.1969902 -0.7919783284700886 0.521700503173819
0.1989901 -0.7891323874368176 0.5264663733083876
0.20099 -0.7859359852019222 0.5313379172018802
0.2029899 -0.782670699547255 0.5354711074329958
0.2049898 -0.7791581766862169 0.5401564198677016
0.2069897 -0.7759520338636554 0.5447753390099606
0.2089896 -0.7722040350024199 0.5496919004008446
0.2109895 -0.7695135539186261 0.5541011834613481
0.2129894 -0.7658523496577191 0.5592358804373175
0.2149893 -0.7623735257640583 0.5636598158174376
0.2169892 -0.7591537105475068 0.5681578230917277
0.2189891 -0.7553586363615112 0.5734473628330294
0.220989 -0.7523471544055723 0.577814396258902
0.2229889 -0.7490541904214393 0.5823689697747793
0.2249888 -0.7449537350529157 0.5867158762782535
0.2269887 -0.7414802081229596 0.591075846127717
0.2289886 -0.737856450895864 0.595625007508441
0.2309885 -0.7343603563499717 0.6006023277283056
0.2329884 -0.7305222426130619 0.6046831034868789
0.2349883 -0.7271787072966271 0.6093111891897486
0.2369882 -0.7234550239283728 0.6135127994160128
0.2389881 -0.7196620776017202 0.618233576101628
0.240988 -0.7159825493062546 0.6224218938838524
0.2429879 -0.7125107738132844 0.626944426303617
0.2449878 -0.7088266647177281 0.631160656731266
0.2469877 -0.7049158252337563 0.6355223979128629
0.2489876 -0.7010056535915725 0.639632247160869
0.2509875 -0.697393008372347 0.6443000514432748
0.2529874 -0.6940968208790623 0.6486155214111285
0.2549873 -0.6903232213782651 0.6528821766860304
0.2569872 -0.6864015296434715 0.6571283184986945
0.2589871 -0.6829413440723886 0.6615207000064591
0.260987 -0.679149983080672 0.6657184031736455
0.2629869 -0.6754147518325073 0.669690359488988
0.2649868 -0.6714613291244287 0.6736793829591373
0.2669867 -0.6680420739380741 0.6773328367854183
0.2689866 -0.6640279267431564 0.6813804999123112
0.2709865 -0.6602437386734683 0.6854023562925575
0.2729864 -0.6564040962901134 0.6891980181167616
0.2749863 -0.6523376611211451 0.692844049109209
0.2769862 -0.6487874452797178 0.6965740733595209
0.2789861 -0.644935518074898 0.7003540250601114
0.280986 -0.6410224574601693 0.7033742409737879
0.2829859 -0.6362803750749495 0.7071014894941279
0.2849858 -0.6323158819736265 0.7100838477906452
0.2869857 -0.6280470686508348 0.7135436180051135
0.2889856 -0.6235761217308508 0.7170335309228948
0.2909855 -0.6192952124193549 0.7207440051993317
0.2929854 -0.6148127700048109 0.7238460784089914
0.2949853 -0.6097485577228686 0.7270771794353161
0.2969852 -0.6051904234388852 0.7305561890909625
0.2989851 -0.6007316877681077 0.7336466511107896
0.300985 -0.5957528131069368 0.7368649606642586
0.3029849 -0.590845410477555 0.7400564659168978
0.3049848 -0.5858381819214337 0.743134832140697
0.3069847 -0.5802465352121348 0.7466321127233854
0.3089846 -0.5749729968113764 0.7495256568297023
0.3109845 -0.5702090465967133 0.7530585669579224
0.3129844 -0.5645018258105758 0.7564745579036105
0.3149843 -0.5591596589003648 0.7602207552336379
0.3169842 -0.5538009246622724 0.7637432869867927
0.3189841 -0.548593562600525 0.7667831275936199
0.320984 -0.5428204032420657 0.7700993800976755
0.3229839 -0.537624249496834 0.7739301233004796
0.3249838 -0.532417607675338 0.7771814877909111
0.3269837 -0.526744666933955 0.7809460757277191
0.3289836 -0.5216416813012514 0.7843394518353037
0.3309835 -0.5162852738221877 0.7878507739109498
0.3329834 -0.5116450165222557 0.7913853330205556
0.3349833 -0.5064234148026786 0.7954446656345979
0.3369832 -0.5024200515135882 0.7998814700731041
0.3389831 -0.4974455004357499 0.8037847089818875
0.340983 -0.49318414714438985 0.8077953365082928
0.3429829 -0.48849541272761604 0.8120346582259539
0.3449828 -0.4836614873824289 0.8155387476199218
0.3469827 -0.4796679933054035 0.8193317749210985
0.3489826 -0.4751985725595519 0.8226621507134919
0.3509825 -0.47059440023595345 0.8259954501264206
0.3529824 -0.4661995913967876 0.8296391891317116
0.3549823 -0.461514421286686 0.832759692118754
0.3569822 -0.4571552074545005 0.8356134303014978
0.3589821 -0.4528071870020496 0.8384833468455708
0.360982 -0.4485098701489245 0.8416380299254086
0.3629819 -0.4440424758732047 0.8441654872305392
0.3649818 -0.4390251324791643 0.8463338628473224
0.3669817 -0.4343335749030182 0.8488490638304494
0.3689816 -0.42965576663708777 0.8508659781759386
0.3709815 -0.4244244459391483 0.8531508533555873
0.3729814 -0.41941333182204227 0.8551881585005138
0.3749813 -0.41428198463300847 0.8568928524330192
0.3769812 -0.40912069562690145 0.858862423636629
0.3789811 -0.40396518755037736 0.8608535573462955
0.380981 -0.398382427220765 0.8624873588878148
0.3829809 -0.3926103079217206 0.8644645869025
0.3849808 -0.38728114495229277 0.8667932357989816
0.3869807 -0.3813993912685688 0.8683634202921341
0.3889806 -0.3751060290377848 0.8708472265498184
0.3909805 -0.36909370770003386 0.8723757826895863
0.3929804 -0.36285996597262876 0.8747857832584192
0.3949803 -0.3568640326625096 0.8770725057552357
0.3969802 -0.3508385780695764 0.8791626005970172
0.3989801 -0.34443691906276974 0.8814532892676479
0.40098 -0.33840322617881274 0.8839223522962821
0.4029799 -0.3325130959992998 0.8862614080834148
0.4049798 -0.32628609240523593 0.8892759400258373
0.4069797 -0.3205286742741356 0.8912873728381828
0.4089796 -0.3141182138028582 0.8938226476666877
0.4109795 -0.3084005912461458 0.896488284616843
0.4129794 -0.30318511482846877 0.8992138008903289
0.4149793 -0.29683358966632395 0.9020992207911894
0.4169792 -0.29122309688203185 0.904274509426569
0.4189791 -0.2854930928791321 0.9066596307657356
0.420979 -0.28018601681057975 0.9091333858453283
0.4229789 -0.27496001072766096 0.911457198563892
0.4249788 -0.2695005645937136 0.9139724711938774
0.4269787 -0.2643021560246744 0.9159753290173329
0.4289786 -0.2592880904369516 0.917968052945344
0.4309785 -0.2539078540966845 0.9200569934459077
0.4329784 -0.24873802459339772 0.9216436688703127
0.4349783 -0.24293304545686942 0.9224347379133716
0.4369782 -0.2382084806633193 0.9238916409242676
0.4389781 -0.23281587479502563 0.925223966052556
0.440978 -0.22737186380047927 0.9261480580391959
0.4429779 -0.22183512661910232 0.9270508590075327
0.4449778 -0.21666613343060506 0.9280588441222473
0.4469777 -0.21090711766299006 0.9285293808400548
0.4489776 -0.20522675773956842 0.9290674463947975
0.4509775 -0.19930756871273217 0.9299729677790429
0.4529774 -0.19308114879366667 0.9305294158066537
0.4549773 -0.18672898258886278 0.9312487605071885
0.4569772 -0.18006377382556607 0.9316347910318248
0.4589771 -0.17393821594151276 0.9319152595984892
0.460977 -0.16662540627625472 0.932832760734809
0.4629769 -0.16042941353571133 0.9339680579762175
0.4649768 -0.15334160044113676 0.9343980033841502
0.4669767 -0.1471292664529115 0.9353097531584703
0.4689766 -0.14024803128291508 0.9362183854922096
0.4709765 -0.1337807681026867 0.9370259925529956
0.4729764 -0.12662997014761623 0.9385368787391258
0.4749763 -0.12012787498288446 0.9396727825139111
0.4769762 -0.11345615904098483 0.9407341084224797
0.4789761 -0.10610838400776962 0.9423703495462514
0.480976 -0.09956192576955494 0.9436874340847734
0.4829759 -0.09292088959002401 0.944716459876298
0.4849758 -0.08665708332159103 0.9462808468108935
0.4869757 -0.08011764824044114 0.9475193256367611
0.4889756 -0.0737324186250354 0.948884804932034
0.4909755 -0.0674270418330438 0.9507721504434545
0.4929754 -0.061303289076928856 0.9518205385066296
0.4949753 -0.05558128715746989 0.9529991163165932
0.4969752 -0.05007815278381909 0.9540846167310488
0.4989751 -0.04427127560294208 0.9546955389235777
0.500975 -0.03897030563658271 0.9554161164572829
0.5029749 -0.03346189542958275 0.9561662023387282
0.5049748 -0.027924379563500017 0.956896189464794
0.5069747 -0.023158946101488193 0.956947962234325
0.5089746 -0.017535392562070224 0.9572207159684405
0.5109745 -0.01157517820570303 0.9574922490732748
0.5129744 -0.005795180519462331 0.9578630579341098
0.5149743 -0.0007111503499637462 0.9576973159917421
0.5169742 0.004730493841483621 0.9570811149343293
0.5189741 0.010514774258715165 0.9562052354998993
0.520974 0.01666165267635042 0.9557549403087191
0.5229739 0.02323958307636617 0.9552184233907149
0.5249738 0.02888659751042824 0.9546033422437419
0.5269737 0.03482008175924388 0.9535909418471367
0.5289736 0.04095740907376691 0.9523918553475945
0.5309735 0.04708526756092393 0.9517687793587171
0.5329734 0.05391835647058886 0.9503060859534271
0.5349733 0.06076530381725191 0.9493407893379318
0.5369732 0.0667983608843508 0.9480927405260346
0.5389731 0.0739055185476288 0.9473858619518886
0.540973 0.08078207474240576 0.946172719866308
0.5429729 0.0875637162457085 0.9448767261906955
0.5449728 0.09441361165327865 0.9442789479744318
0.5469727 0.1012551742637496 0.9436007190329998
0.5489726 0.10834250549966838 0.9427709537050312
0.5509725 0.11530113613793042 0.9422377307745263
0.5529724 0.12251259241157486 0.9414447608886622
0.5549723 0.12955096433978566 0.9410267801296313
0.5569722 0.13640775258923934 0.9405524554033113
0.5589721 0.14336385847904978 0.9406799718173356
0.560972 0.15011186541523963 0.9403735513496816
0.5629719 0.15696584635859734 0.9401645519788834
0.5649718 0.1636570826884921 0.9400684015440688
0.5669717 0.17005382005989916 0.9398358595435475
0.5689716 0.17578283950021853 0.9392958120017628
0.5709715 0.18166661641745432 0.9385313039232006
0.5729714 0.18750665990961696 0.9377598727092287
0.5749713 0.19380396590851598 0.9372146237613297
0.5769712 0.19961031423199455 0.9360585476668815
0.5789711 0.20498790248415577 0.9355530464115566
0.580971 0.21076220818935165 0.9348991821997734
0.5829709 0.21627462477247053 0.9335552315225993
0.5849708 0.2216774704225296 0.9324313388889185
0.5869707 0.22726113776349913 0.9309546278337458
0.5889706 0.23311729300204126 0.9288721759745072
0.5909705 0.23918682654454454 0.9269128493032649
0.5929704 0.24497681409867922 0.9246266447658249
0.5949703 0.25063846604076073 0.9224956621579212
0.5969702 0.25650070882912623 0.9207027109033441
0.5989701 0.26203230759690727 0.9183891023035025
0.60097 0.2684358807793813 0.9154794173546091
0.6029699 0.2747375599996119 0.9132644464540581
0.6049698 0.2804846710597145 0.9105071768020314
0.6069697 0.2867493346266693 0.908007864745046
0.6089696 0.2937124651426185 0.905921048091925
0.6109695 0.30029819330805796 0.9029535399665696
0.6129694 0.30694600475546496 0.9005242642636909
0.6149693 0.31383646893758216 0.8980755697642845
0.6169692 0.32038287833362133 0.8959966800850705
0.6189691 0.32735590539022436 0.8936853466965902
0.620969 0.3344506076225694 0.8912724359343496
0.6229689 0.34103387343700364 0.8889076793252448
0.6249688 0.3477977886542021 0.8867976641869668
0.6269687 0.3549453921478628 0.8848984390944806
0.6289686 0.3615617902266589 0.882712596699358
0.6309685 0.36814344958306916 0.8810521797569911
0.6329684 0.3740801076030245 0.8793213532062567
0.6349683 0.3809485275738679 0.8769400936685838
0.6369682 0.3867251366894794 0.874865415612759
0.6389681 0.39312487650273525 0.8729926376020488
0.640968 0.3989635930179562 0.871436361596017
0.6429679 0.404835774878793 0.8697487505876556
0.6449678 0.41027829825102957 0.8674234191675844
0.6469677 0.4154651716795577 0.8653708130901201
0.6489676 0.42136821014160364 0.8634772928081264
0.6509675 0.4261470005244026 0.861080412023323
0.6529674 0.43122375222194703 0.8584415785810862
0.6549673 0.43634687640219977 0.8562436404311969
0.6569672 0.44148599896869234 0.8534950127218649
0.6589671 0.4467166971257758 0.8503652193626895
0.660967 0.45180706935058035 0.8471450452619834
0.6629669 0.45632777703419636 0.8436840775375929
0.6649668 0.46154146996719136 0.8403080381020955
0.6669667 0.4663448868961476 0.8364659960111673
0.6689666 0.4718677697762554 0.8327914980850877
0.6709665 0.4774233294200777 0.828612230805269
0.6729664 0.48260089329411027 0.8244691426263203
0.6749663 0.48820327265063956 0.8203194115321132
0.6769662 0.4933579180128665 0.8158416482263909
0.6789661 0.49855812698363466 0.811378048416826
0.680966 0.5044789226176138 0.8067509885746406
0.6829659 0.5105044066129691 0.8025649107609152
0.6849658 0.5164107074761449 0.798084705578883
0.6869657 0.523357571240209 0.7939499891775827
0.6889656 0.5293727995122984 0.7894503826871521
0.6909655 0.5357489395286097 0.7857996307939914
0.6929654 0.5421670992314689 0.7813409996381889
0.6949653 0.547994038707332 0.7779730808570688
0.6969652 0.5545221228245198 0.7737043680992988
0.6989651 0.5603602846656833 0.7698462482724596
0.700965 0.5672104469896923 0.7656557983860138
0.7029649 0.5728211118649611 0.7625163286785598
0.7049648 0.5789615431948238 0.7588430921182371
0.7069647 0.5846712706342937 0.755257522945551
0.7089646 0.5909096230217524 0.7516013454306762
0.7109645 0.596049930123082 0.748488340163317
0.7129644 0.6013051593387327 0.7448990742330154
0.7149643 0.6065101274802971 0.7412676334152752
0.7169642 0.6121095138726593 0.7379636728960712
0.7189641 0.6164830211727591 0.7343961236943015
0.720964 0.6211057228429235 0.7309235518057623
0.7229639 0.6263325311965098 0.7267254782594029
0.7249638 0.6314104694933604 0.7229191622560294
0.7269637 0.6357647325372604 0.719307591802387
0.7289636 0.6397097262095031 0.7154808785777157
0.7309635 0.6446839102333815 0.7112133587175232
0.7329634 0.6491224027257412 0.7067292288008205
0.7349633 0.6528331297738309 0.7021337571127038
0.7369632 0.6570856544268745 0.6980247524963382
0.7389631 0.6614373495311332 0.6928245609727773
0.740963 0.664948219538686 0.6878518875566504
0.7429629 0.6693603816997505 0.6822253609399975
0.7449628 0.6734706819846558 0.6769583200486402
0.7469627 0.6780527099380433 0.6714533699803387
0.7489626 0.6826932269057392 0.6657945986630405
0.7509625 0.6866777436831312 0.6604050681128592
0.7529624 0.6914608913308753 0.6547725553600886
0.7549623 0.6960456420906286 0.6495193931285652
0.7569622 0.7005422182506883 0.6436564422335774
0.7589621 0.7060057826805034 0.6379292623611734
0.760962 0.7106824597844474 0.6323247584790321
0.7629619 0.7157356312992137 0.6268698836362246
0.7649618 0.7208943035633183 0.6212104013239875
0.7669617 0.7260614016841618 0.6154231894205349
0.7689616 0.7312364520842976 0.6099406503624132
0.7709615 0.7357158936037507 0.6044143343705067
0.7729614 0.7407393319002316 0.599530896839568
0.7749613 0.7454957432499186 0.593944098549553
0.7769612 0.7502360155696212 0.5887868830768811
0.7789611 0.7552731152142298 0.5838408918803566
0.780961 0.759953860144579 0.5791369405632676
0.7829609 0.7641704145686884 0.5741827789421867
0.7849608 0.7686730008587304 0.5691875377358255
0.7869607 0.7728433166500135 0.5644974163684766
0.7889606 0.7770121345138028 0.559336219812711
0.7909605 0.781501155891877 0.554503606267211
0.7929604 0.7856281835039975 0.5497349375723122
0.7949603 0.7893603903001899 0.544819491146646
0.7969602 0.7929625501800535 0.5396739662624428
0.7989601 0.7968219200172049 0.5344554992850268
0.80096 0.800036683910935 0.529601873367366
0.8029599 0.8036369375841738 0.524216877100043
0.8049598 0.8067252773546496 0.5187775674601778
0.8069597 0.8099220415124455 0.513684859746438
0.8089596 0.8126618498998007 0.5079519535725106
0.8109595 0.8152397334497652 0.501581373367517
0.8129594 0.8184833928606327 0.4954055616677247
0.8149593 0.82123289252686 0.48967863128308986
