! Created with skrf 1.8.0 (http://scikit-rf.org).
# GHz S RI R 50.0 
!freq ReS11 ImS11
0.001 0.2731526843353599 -0.48170992748627145
0.0029999 0.9987604065558917 -0.019489118644938186
0.0049998 0.9900551522827541 -0.02543154112182283
0.0069997 0.9975765628072681 -0.02919226648966461
0.0089996 0.9929482910792171 -0.034889989664196486
0.0109995 0.9924889693231458 -0.041615874041366796
0.0129994 0.9913745225599035 -0.049329398663873314
0.0149993 0.9911539813118585 -0.05676695018879374
0.0169992 0.990379058777237 -0.06499770259438531
0.0189991 0.9905985502182661 -0.07123066062225569
0.020999 0.9881723214579489 -0.07915766130066104
0.0229989 0.9883578126430216 -0.0868414109084944
0.0249988 0.9877752836343323 -0.09404168360600101
0.0269987 0.9868582882933468 -0.10163547655478367
0.0289986 0.9861190590615717 -0.1094040009078673
0.0309985 0.9854076173240374 -0.11763818457202395
0.0329984 0.9836204850294487 -0.12431822477363144
0.0349983 0.9831718010561562 -0.13154512229567236
0.0369982 0.9830224576433879 -0.13957587635022814
0.0389981 0.9819037853396682 -0.14617481166711524
0.040998 0.981041117950455 -0.1531705882814175
0.0429979 0.9798117060564924 -0.16032666546995084
0.0449978 0.979255187723546 -0.16771135639819218
0.0469977 0.977843682423473 -0.17498342071116116
0.0489976 0.9765025076138425 -0.1825499484011263
0.0509975 0.9754150076379697 -0.18947929618708645
0.0529974 0.9743321101357832 -0.1963441456447547
0.0549973 0.9726033651799461 -0.2034340821438474
0.0569972 0.9709280010078833 -0.2103027458500437
0.0589971 0.969328790089758 -0.21699590292962065
0.060997 0.9678768150279524 -0.2241275737284032
0.0629969 0.965695401061486 -0.23104843155347726
0.0649968 0.9639596623869925 -0.23782992020103927
0.0669967 0.9620246310278869 -0.24454545274634965
0.0689966 0.9599046178331035 -0.251526271912734
0.0709965 0.9577238737952626 -0.2584826159558724
0.0729964 0.9554602151413014 -0.26523555573245744
0.0749963 0.952934344886053 -0.27229757577742164
0.0769962 0.9503464907516488 -0.27943796097161216
0.0789961 0.9477156809404589 -0.28631210058727685
0.080996 0.9456227724121897 -0.293702895876718
0.0829959 0.9429833936299667 -0.3004968545287526
0.0849958 0.940137831638248 -0.3080382935496259
0.0869957 0.93774896622464 -0.3148839977208184
0.0889956 0.9352271250107282 -0.3216668294389465
0.0909955 0.9327493302411936 -0.32946440744835237
0.0929954 0.9298149319118159 -0.3358902514905795
0.0949953 0.9273631652551155 -0.34348395760569206
0.0969952 0.924701675554253 -0.3509889351911346
0.0989951 0.9222916390153336 -0.3572312558496905
0.100995 0.9179329602125379 -0.36478047232622446
0.1029949 0.9156422821108168 -0.37218775803138554
0.1049948 0.9125705572339461 -0.3796512913578603
0.1069947 0.9100588403932697 -0.386855505783943
0.1089946 0.9071363479807951 -0.3932212009869094
0.1109945 0.9043631922900828 -0.40055761087253205
0.1129944 0.9019325617707453 -0.4074748847517935
0.1149943 0.8996030918787289 -0.4139976018111178
0.1169942 0.8962968350946694 -0.42077190222615407
0.1189941 0.8939853173313163 -0.42797384232512636
0.120994 0.8910227254491234 -0.4341237851942109
0.1229939 0.8881608368814156 -0.44059995580524525
0.1249938 0.8851880743094219 -0.4469461492888148
0.1269937 0.8819576670376348 -0.4527084799629172
0.1289936 0.8786721356728047 -0.45905666871517437
0.1309935 0.8758202570382728 -0.46540801824140854
0.1329934 0.8723297930137783 -0.4714549553515748
0.1349933 0.8691446117361916 -0.4776344868647112
0.1369932 0.8653458896773335 -0.4836047393236134
0.1389931 0.8615190705781848 -0.48976469355718955
0.140993 0.8582142891018827 -0.4953134481729717
0.1429929 0.8542970477098395 -0.5012294920707565
0.1449928 0.8504372057292602 -0.5070596363960093
0.1469927 0.8462680517193474 -0.5128507450341032
0.1489926 0.8424083785045364 -0.5189909548679041
0.1509925 0.8381598210048207 -0.5247444929537897
0.1529924 0.8340451655412131 -0.5306713367571574
0.1549923 0.8298889066478368 -0.5365676980871197
0.1569922 0.8256099016229438 -0.5426994354256784
0.1589921 0.8213408363300216 -0.5486615402588668
0.160992 0.8170296012981331 -0.5549492344246124
0.1629919 0.8127707511947615 -0.5607341094009729
0.1649918 0.8081482507207662 -0.5662339100363654
0.1669917 0.8034977801036646 -0.5724031252249504
0.1689916 0.7993872581917193 -0.5779486189052399
0.1709915 0.7949301744872119 -0.584125552497625
0.1729914 0.790422111165279 -0.589833358847117
0.1749913 0.7858990300729998 -0.596087059824305
0.1769912 0.7814358195571113 -0.6017242422897892
0.1789911 0.7772044109757855 -0.6076233642410322
0.180991 0.7721759167209921 -0.6127802625797221
0.1829909 0.7681344549414602 -0.6190980527791944
0.1849908 0.763197006200135 -0.6247289450006778
0.1869907 0.7586165677863264 -0.6300424369777698
0.1889906 0.754088781554478 -0.6358111961456995
0.1909905 0.749161466793683 -0.6410700601855812
0.1929904 0.7451168578208518 -0.6467038982692404
0.1949903 0.739765675174666 -0.6519462737111836
0.1969902 0.735398177772079 -0.6572606832195809
0.1989901 0.7306436507714549 -0.6625605236674513
0.20099 0.725758778051124 -0.667683708219782
0.2029899 0.7210236368023007 -0.6729922062677337
0.2049898 0.7162870926442422 -0.6780370997895323
0.2069897 0.7113098090985137 -0.6828161120288649
0.2089896 0.7061448102096899 -0.6877417762349505
0.2109895 0.7016042849718342 -0.6929497424192281
0.2129894 0.6961674593208582 -0.6977588818756233
0.2149893 0.6914374761994592 -0.7023802402181782
0.2169892 0.686435652680673 -0.707140017494844
0.2189891 0.6815094380576336 -0.7121014987020956
0.220989 0.6758441213636303 -0.7165768378564508
0.2229889 0.670937558754555 -0.7213900205692315
0.2249888 0.6658036258470907 -0.7257141221637418
0.2269887 0.6599000032411682 -0.730005001128819
0.2289886 0.6547568508037641 -0.7345590888681087
0.2309885 0.649416490327532 -0.7389560000791733
0.2329884 0.6442934290756928 -0.7434821798890147
0.2349883 0.6387087639254324 -0.7476330841389341
0.2369882 0.6333617631977251 -0.752217256564352
0.2389881 0.6280626262612288 -0.7563858148387043
0.240988 0.6224153220501522 -0.7608441666334262
0.2429879 0.6167097007400355 -0.7645254751167344
0.2449878 0.6112731757886052 -0.768794895566953
0.2469877 0.605806459881421 -0.7724936385966574
0.2489876 0.5998924670909411 -0.7770239168231227
0.2509875 0.5936389472772996 -0.7807322546124198
0.2529874 0.5883798635447003 -0.7847482394860475
0.2549873 0.582186950965011 -0.7885708203208796
0.2569872 0.5761002795343801 -0.7921515990160364
0.2589871 0.5702699538604603 -0.7964293112416422
0.260987 0.5640762093119465 -0.8000554065680908
0.2629869 0.5579616468013573 -0.8038458231961703
0.2649868 0.5518912476783682 -0.8075855171360176
0.2669867 0.5455090724136152 -0.8114427063669977
0.2689866 0.5394186711024569 -0.8153102883255128
0.2709865 0.5331478893074786 -0.8188939732586205
0.2729864 0.5268265536850874 -0.822809748465877
0.2749863 0.5203078839448693 -0.8264444291820321
0.2769862 0.513714202627076 -0.8302382386812458
0.2789861 0.507266584529116 -0.8342067384740997
0.280986 0.5013539919105575 -0.8381157225132869
0.2829859 0.4947272981339343 -0.8415125923183872
0.2849858 0.48906976357887094 -0.8456161958347312
0.2869857 0.4826949226924649 -0.849558134699564
0.2889856 0.4764284964683042 -0.8537474795466825
0.2909855 0.47030682454844547 -0.8572882062416148
0.2929854 0.4644453264096856 -0.8610480232910446
0.2949853 0.4582453929206316 -0.8647523662295461
0.2969852 0.4524009531141575 -0.8685480662959899
0.2989851 0.4469565017069994 -0.8717171983418064
0.300985 0.4410333366951371 -0.8757245678319006
0.3029849 0.43488069930450396 -0.8791723862720447
0.3049848 0.4298789173827418 -0.8825671342337468
0.3069847 0.4243563703941885 -0.8858850769429598
0.3089846 0.4189733928541013 -0.889140381677342
0.3109845 0.41355545160829543 -0.8919583555751387
0.3129844 0.40769503117824296 -0.8948117116413099
0.3149843 0.4021862054046989 -0.8978420520006831
0.3169842 0.3967189988857238 -0.9003074075008723
0.3189841 0.39158634409432935 -0.9029910579279083
0.320984 0.38574380750757176 -0.9053635543621192
0.3229839 0.38030971359395027 -0.9078415787494858
0.3249838 0.3739576491731234 -0.9108089340436448
0.3269837 0.3686260522661564 -0.9130605399310686
0.3289836 0.36282545006004163 -0.9153876737650691
0.3309835 0.35728034179695356 -0.9171482411172716
0.3329834 0.35098471332837355 -0.9187810254188192
0.3349833 0.3448105126626898 -0.9200666059257581
0.3369832 0.3387474349744442 -0.9216286919850272
0.3389831 0.3324306031554481 -0.9223216504467617
0.340983 0.3261970606586985 -0.9235405451961334
0.3429829 0.3191225093156165 -0.9239311620709422
0.3449828 0.3124618921964288 -0.9248465561717008
0.3469827 0.3053382196466702 -0.9257881634145934
0.3489826 0.29803980641092576 -0.926696874703475
0.3509825 0.2914931354256244 -0.927983615113473
0.3529824 0.2843746909131184 -0.92938451139594
0.3549823 0.2771079466666479 -0.9297568995538648
0.3569822 0.2690004311024838 -0.9315938016404384
0.3589821 0.26210962021943346 -0.9333358380078498
0.360982 0.2546830027281871 -0.9345454740207262
0.3629819 0.2469568587826112 -0.9364081879158344
0.3649818 0.24002997387902242 -0.9379840530952894
0.3669817 0.23293434807572863 -0.9401533187880726
0.3689816 0.22620772875861972 -0.941820830920494
0.3709815 0.21952179582085135 -0.9434573511894137
0.3729814 0.2125798964768213 -0.945424556291236
0.3749813 0.20526901661980543 -0.9476647735448774
0.3769812 0.1984832419317084 -0.9497324410175879
0.3789811 0.19183358087309274 -0.9512779094975694
0.380981 0.18552508250721925 -0.9534252383414908
0.3829809 0.17894364872820548 -0.9550306559663879
0.3849808 0.17256316982539438 -0.9569369251521554
0.3869807 0.16648186285258026 -0.9584602636408549
0.3889806 0.16081537718106895 -0.9599977272705803
0.3909805 0.15451603192291463 -0.9613090132021811
0.3929804 0.14882015052487127 -0.9626166498906787
0.3949803 0.14290520488663633 -0.9637903771861397
0.3969802 0.13704336105616222 -0.9649008232411505
0.3989801 0.13116613015363318 -0.9653925047264538
0.40098 0.12536373455277317 -0.9662057777269301
0.4029799 0.11991094003429864 -0.966457630629474
0.4049798 0.1142048994359206 -0.9667832939593269
0.4069797 0.10787859505016256 -0.9667847025444458
0.4089796 0.1020636105675227 -0.9668211254879411
0.4109795 0.0957835413236606 -0.967050947252377
0.4129794 0.08964922785894094 -0.9665758860490317
0.4149793 0.08386034121163377 -0.966209839404685
0.4169792 0.07705579094872779 -0.9654128241812665
0.4189791 0.0705823060535492 -0.9653091108081883
0.420979 0.06355216521063434 -0.9651666595805983
0.4229789 0.05694476564565823 -0.9647627580769818
0.4249788 0.05075495533140051 -0.9644695779753648
0.4269787 0.043192235393152104 -0.9642858093595968
0.4289786 0.036278838832138595 -0.9636287624571933
0.4309785 0.029360890280522134 -0.9635742230521325
0.4329784 0.022453396715489838 -0.9635087846936298
0.4349783 0.01566701303174719 -0.9637321899158064
0.4369782 0.008593528993832887 -0.9636983813152834
0.4389781 0.0012823956394649033 -0.963626155080484
0.440978 -0.005459477554351531 -0.9635561310426228
0.4429779 -0.012393065548944503 -0.9637128579870422
0.4449778 -0.019749525168694215 -0.9643895924412208
0.4469777 -0.026191922121893675 -0.964214094476441
0.4489776 -0.03317340370614472 -0.9642096373978589
0.4509775 -0.03958820686388775 -0.9647354992210568
0.4529774 -0.04612192033101539 -0.9649474004097854
0.4549773 -0.05228342647659883 -0.9654225350784145
0.4569772 -0.05877080024806884 -0.9655387775593568
0.4589771 -0.06475808369267853 -0.9657356229657681
0.460977 -0.07004716634347148 -0.9659453708466872
0.4629769 -0.07594051800019935 -0.9658176343520314
0.4649768 -0.08147387033927703 -0.9658137953525398
0.4669767 -0.08747799362631309 -0.9646808500324244
0.4689766 -0.09249130490435724 -0.9645761099112513
0.4709765 -0.09799070131758138 -0.9642790474162406
0.4729764 -0.10327019129760714 -0.9632981052181236
0.4749763 -0.10896739586592624 -0.9623193163937709
0.4769762 -0.11403994953132678 -0.9609737337365717
0.4789761 -0.11952538486629508 -0.9599234072408847
0.480976 -0.12472246317945845 -0.9583014554821809
0.4829759 -0.13086226793031666 -0.9565752866817689
0.4849758 -0.1363840278269142 -0.9551166959000013
0.4869757 -0.14218407440847317 -0.9530325505269506
0.4889756 -0.1480346599774481 -0.950665946336164
0.4909755 -0.15380748877679473 -0.948297501267845
0.4929754 -0.16025326728388664 -0.9468982209553203
0.4949753 -0.1669033519440486 -0.9446771270457337
0.4969752 -0.1728862878782919 -0.9419421376828694
0.4989751 -0.17981037059951238 -0.9403371106305429
0.500975 -0.1859149986192731 -0.9387840675156227
0.5029749 -0.19232353041563993 -0.9364259708479651
0.5049748 -0.19950468053486015 -0.9351280293757022
0.5069747 -0.205996649978061 -0.932927017480413
0.5089746 -0.21298562054037043 -0.9316068551649781
0.5109745 -0.21891101601508267 -0.9294516000901788
0.5129744 -0.22558016259519004 -0.9279968940538403
0.5149743 -0.23246089815347282 -0.9260497514543423
0.5169742 -0.2391307363798163 -0.9245948496014011
0.5189741 -0.24623220016173686 -0.9233241978103902
0.520974 -0.2520640637468919 -0.9225434086195484
0.5229739 -0.25810702341265274 -0.9212651440585437
0.5249738 -0.2646118708116567 -0.9199785335361624
0.5269737 -0.2708133443374508 -0.9188403159706137
0.5289736 -0.27718314319684184 -0.9176810024236737
0.5309735 -0.283026809785353 -0.9166327346001548
0.5329734 -0.2887271216232263 -0.9153648336755581
0.5349733 -0.29467703371127396 -0.9139797891797186
0.5369732 -0.30028132261960994 -0.9129917271451659
0.5389731 -0.30565036478551544 -0.9114455255770335
0.540973 -0.3108827642841464 -0.9096083817202195
0.5429729 -0.31575059461762 -0.9077154722218478
0.5449728 -0.3206612179912383 -0.9062163769198243
0.5469727 -0.3257117674655727 -0.9043326716496162
0.5489726 -0.33091985852664824 -0.9023973329413133
0.5509725 -0.33569952544923776 -0.8999944776835684
0.5529724 -0.34098480516440416 -0.8978365078039909
0.5549723 -0.3458188146388984 -0.8956464899817907
0.5569722 -0.35079324061476647 -0.8931433520192041
0.5589721 -0.3557092243265869 -0.8901198105132297
0.560972 -0.36072896953955114 -0.8867481070264801
0.5629719 -0.36632812780306995 -0.8840230334984358
0.5649718 -0.37089464586284027 -0.8809083969012959
0.5669717 -0.37620668372987653 -0.8774760820219306
0.5689716 -0.3814826753957686 -0.8743541089163676
0.5709715 -0.38731057499443455 -0.8710089457904638
0.5729714 -0.39294050361020716 -0.8681092675605119
0.5749713 -0.3977545115468864 -0.8651221932768834
0.5769712 -0.4040421493923806 -0.8617342308740656
0.5789711 -0.40953278599032406 -0.8584455166886362
0.580971 -0.41565286282796815 -0.855143070534374
0.5829709 -0.4215274745631584 -0.8518590052565772
0.5849708 -0.42753215002523814 -0.8490810472200502
0.5869707 -0.4335162989155293 -0.846261691527205
0.5889706 -0.43891883545316235 -0.8436702142519151
0.5909705 -0.4450864243312606 -0.8414476210516544
0.5929704 -0.4506339020756868 -0.8386947819288588
0.5949703 -0.4560817313306391 -0.835803463518705
0.5969702 -0.4616587698409916 -0.8331963042436703
0.5989701 -0.4678071439476185 -0.8306486504503985
0.60097 -0.4729664360772074 -0.828191424534111
0.6029699 -0.47780646119553943 -0.8254370593125527
0.6049698 -0.48302449525783836 -0.8227234059103731
0.6069697 -0.4880394052994451 -0.8205780712929369
0.6089696 -0.4928907693416436 -0.8178875545621964
0.6109695 -0.49696201311575705 -0.8153390621328237
0.6129694 -0.502050115853457 -0.8127416797940915
0.6149693 -0.506448189459727 -0.8100968653894848
0.6169692 -0.5109776162630808 -0.8071356747388072
0.6189691 -0.5149032739563304 -0.8040888484568698
0.620969 -0.5190971397522558 -0.8010416252524842
0.6229689 -0.523354842120898 -0.7975944080175392
0.6249688 -0.5275861913273456 -0.794272542342655
0.6269687 -0.5317015291210654 -0.7908389130226845
0.6289686 -0.5360346309623472 -0.7866777475687503
0.6309685 -0.5398344089988482 -0.7822326271934512
0.6329684 -0.5445244101186183 -0.7785690932508029
0.6349683 -0.5486802448012943 -0.7743451246235329
0.6369682 -0.5528739871415157 -0.7700762387350504
0.6389681 -0.5575389331872056 -0.7662540715138408
0.640968 -0.5621065783324029 -0.761905147940261
0.6429679 -0.5664248778096757 -0.7575744778619677
0.6449678 -0.5710817131283963 -0.7532891159510098
0.6469677 -0.5763130441559953 -0.7489837994784944
0.6489676 -0.5811993444870709 -0.7447873022779553
0.6509675 -0.5867753120289569 -0.7405800408731953
0.6529674 -0.5920202049943594 -0.7367100393585799
0.6549673 -0.5967161602717078 -0.7323881463533092
0.6569672 -0.601923738716024 -0.7283608717293758
0.6589671 -0.606996814288697 -0.7242033221038635
0.660967 -0.6119482544523817 -0.7207580363548642
0.6629669 -0.617166929012773 -0.7167723525271282
0.6649668 -0.622294259079763 -0.7132928580831033
0.6669667 -0.627369373540247 -0.7095703697167214
0.6689666 -0.6318900230175971 -0.7062499665061794
0.6709665 -0.6365002693040945 -0.7025688248803995
0.6729664 -0.6408897643608953 -0.6991204685359109
0.6749663 -0.6455279928994974 -0.6956540787000618
0.6769662 -0.6496188584733881 -0.6923007038680637
0.6789661 -0.6540148616857521 -0.6894963516104312
0.680966 -0.6584954663785795 -0.686232409990162
0.6829659 -0.6624108937999923 -0.6827916301880534
0.6849658 -0.6656632218263336 -0.679217464932499
0.6869657 -0.6695934746551477 -0.6761809311007816
0.6889656 -0.6730294569560518 -0.6727993183759601
0.6909655 -0.6764441267941003 -0.6688733283547024
0.6929654 -0.6798766578608268 -0.6651458549328605
0.6949653 -0.6830679262367219 -0.6610705153475974
0.6969652 -0.6862723741390371 -0.6571103323909406
0.6989651 -0.6893733336124916 -0.653032724687702
0.700965 -0.6930426264252643 -0.6488620352892217
0.7029649 -0.6960185793591278 -0.6442536030392458
0.7049648 -0.6988568401868439 -0.6397561582029863
0.7069647 -0.7019944563670062 -0.6351266877776325
0.7089646 -0.7046499592132976 -0.6295066365360387
0.7109645 -0.7081607415428073 -0.6251781644540588
0.7129644 -0.71186479642485 -0.6199087291556193
0.7149643 -0.7151766920267901 -0.6147475899223508
0.7169642 -0.719001950569715 -0.609737771361787
0.7189641 -0.7230555714567689 -0.604746770323475
0.720964 -0.726807616775603 -0.5998395461310816
0.7229639 -0.7304461575900849 -0.595059744611513
0.7249638 -0.7341512950864332 -0.5897315207981801
0.7269637 -0.7376447056798705 -0.5846978826939525
0.7289636 -0.7418132205036697 -0.5798853108258069
0.7309635 -0.7461571904284328 -0.5751446480580333
0.7329634 -0.7499152178978351 -0.5700168947344488
0.7349633 -0.754093468262713 -0.5654622425360485
0.7369632 -0.7578204092553569 -0.560856422717313
0.7389631 -0.7617200038630033 -0.5564124918703726
0.740963 -0.7648995940147224 -0.5516781231691907
0.7429629 -0.7683742391821042 -0.5473350650815317
0.7449628 -0.7721384377616177 -0.543344394769502
0.7469627 -0.7759186477861845 -0.5393592054694735
0.7489626 -0.7787651463970672 -0.5348066465005537
0.7509625 -0.7828021692650207 -0.5306128270382621
0.7529624 -0.7860086597212174 -0.526508913430569
0.7549623 -0.7893215291113409 -0.5223509527618218
0.7569622 -0.7923434472476063 -0.51834868267762
0.7589621 -0.7950838571406345 -0.5141419872802065
0.760962 -0.7979176249269476 -0.5100378560820414
0.7629619 -0.8007073166417719 -0.5057287138440012
0.7649618 -0.8031284510978574 -0.501195844146514
0.7669617 -0.8059991340619467 -0.49674221599655677
0.7689616 -0.808226456225708 -0.49239074404920974
0.7709615 -0.8105013637998395 -0.48758540722622795
0.7729614 -0.8129977941517144 -0.48300251465820926
0.7749613 -0.8144566917467264 -0.47739363903937126
0.7769612 -0.816010549886332 -0.47289574998139644
0.7789611 -0.8184200520812485 -0.46730925206577245
0.780961 -0.8204621487437675 -0.46205908208547253
0.7829609 -0.8227606116475029 -0.4570840358549243
0.7849608 -0.8249730294126861 -0.4516009001926212
0.7869607 -0.8274794506542591 -0.4459619240257114
0.7889606 -0.830147716803182 -0.44042872432762986
0.7909605 -0.8322271542365675 -0.43514214168955506
0.7929604 -0.8348934770052877 -0.42961787415870156
0.7949603 -0.8373732476271397 -0.42389289030302596
0.7969602 -0.8401678588133097 -0.4187324580440428
0.7989601 -0.8425374845542707 -0.41308006782501067
0.80096 -0.8453525313836223 -0.40741709602246234
0.8029599 -0.8481164616472784 -0.4022949084419425
