! Created with skrf 1.8.0 (http://scikit-rf.org).
# GHz S RI R 50.0 
!freq ReS11 ImS11
0.001 -0.9470147177705164 -0.04380138757406876
0.0029999 -0.9738629519239033 0.020045006368604956
0.0049998 -0.9635245008300923 0.02082501180466173
0.0069997 -0.9596535318026957 0.028329818071810065
0.0089996 -0.9616745635594235 0.029740788022642628
0.0109995 -0.9605564539939735 0.03571369716088757
0.0129994 -0.9607618641608935 0.04171287470371232
0.0149993 -0.9607039249258156 0.049623040445554434
0.0169992 -0.9601930722406106 0.05373313584501205
0.0189991 -0.9600366820764926 0.059704608706016016
0.020999 -0.9595234009334769 0.06575456033904131
0.0229989 -0.9589813282531929 0.07172820235091926
0.0249988 -0.9579825724429216 0.0774194002701262
0.0269987 -0.9576408713852782 0.08361049564123174
0.0289986 -0.9569117511691426 0.08933864301526312
0.0309985 -0.9559199373359875 0.09513965126216684
0.0329984 -0.9552457961208145 0.10123531579613215
0.0349983 -0.954503361306088 0.10727940566893168
0.0369982 -0.9533407217751495 0.11334617559127541
0.0389981 -0.9522621300379255 0.11917236760115568
0.040998 -0.9514277423283809 0.125076282618992
0.0429979 -0.9501408750398297 0.13086307456094803
0.0449978 -0.9491525029671155 0.13678688007598216
0.0469977 -0.9485582536398414 0.14264367190818084
0.0489976 -0.9468097973420989 0.14864317808531852
0.0509975 -0.9453022795262491 0.15486782891523793
0.0529974 -0.9444059617122632 0.16113825907674145
0.0549973 -0.9424610182018418 0.1678378342831962
0.0569972 -0.9417042123582595 0.17327758237100918
0.0589971 -0.9402555685651564 0.17945972616865882
0.060997 -0.9394661524981731 0.18598050120564152
0.0629969 -0.9382285181731314 0.19138609510134497
0.0649968 -0.9363023846958174 0.19767769854589362
0.0669967 -0.9359782190145552 0.20413075469206204
0.0689966 -0.9344476276282353 0.20958757037378592
0.0709965 -0.9333283159755856 0.21572469990761817
0.0729964 -0.931909140066695 0.2220989744917487
0.0749963 -0.9306085877265158 0.2279815345954217
0.0769962 -0.9298936195893355 0.2336454904016327
0.0789961 -0.9281885871503898 0.2391811188444028
0.080996 -0.9263923530014001 0.24534139329499977
0.0829959 -0.9248915594850151 0.25121021357533646
0.0849958 -0.9240161432709563 0.25629681256920284
0.0869957 -0.9226125681108825 0.2623830537720024
0.0889956 -0.9206761076442214 0.2674949268612376
0.0909955 -0.9191423175351657 0.2734035777462152
0.0929954 -0.9172357191394369 0.2787976647888763
0.0949953 -0.9156608052684893 0.2844790916011033
0.0969952 -0.9135652632624884 0.28991827246047525
0.0989951 -0.9115139291392187 0.29532109809339413
0.100995 -0.9108237907279876 0.30134471310551025
0.1029949 -0.9087793163000015 0.3067241650073669
0.1049948 -0.9069744281171215 0.31217858418648425
0.1069947 -0.9045621544966361 0.3173224095119601
0.1089946 -0.9024275834020214 0.32282956060764467
0.1109945 -0.9000204672598866 0.32825311980248156
0.1129944 -0.8976361473488503 0.33367585660074994
0.1149943 -0.8948381475970009 0.33916413824617275
0.1169942 -0.8923091320483487 0.34475180137114403
0.1189941 -0.8899099570135265 0.3502653480953096
0.120994 -0.8870409422626595 0.3559878928256499
0.1229939 -0.8846306219983936 0.3616269211985119
0.1249938 -0.8821022816349253 0.3672882962482261
0.1269937 -0.8794048281140593 0.3728434904430137
0.1289936 -0.8769779313920109 0.37888683045830296
0.1309935 -0.8743591292827689 0.3845906930529601
0.1329934 -0.8718964192746087 0.3900328400843881
0.1349933 -0.8688276007181396 0.39561328320592204
0.1369932 -0.8663632464156557 0.40126120434376567
0.1389931 -0.8640789286738085 0.4071670324798938
0.140993 -0.8611738809802699 0.4127433576344709
0.1429929 -0.8579126181504462 0.41801049312354727
0.1449928 -0.856290283820579 0.4239337919479631
0.1469927 -0.853529800179084 0.4292774922464647
0.1489926 -0.8504563142102589 0.43573085821058954
0.1509925 -0.8477579953982193 0.44042480800257544
0.1529924 -0.845002968935646 0.44594761859197185
0.1549923 -0.8430255086500615 0.4518575217233455
0.1569922 -0.8398670503838283 0.45663935393208066
0.1589921 -0.8371055487608042 0.46248801472828843
0.160992 -0.834173404497836 0.46746860844468757
0.1629919 -0.8313730049256218 0.47287560455652106
0.1649918 -0.8283697032074879 0.4781208892208868
0.1669917 -0.8256786245015316 0.48287364019344015
0.1689916 -0.8229900333457294 0.4883643982266185
0.1709915 -0.8197526451455934 0.4934330083157807
0.1729914 -0.8164097568921198 0.49822125712107135
0.1749913 -0.8136598747189987 0.5035292305015155
0.1769912 -0.8101813594034268 0.5082875312559959
0.1789911 -0.8075244549204557 0.5132203094626102
0.180991 -0.8040170927369152 0.5183211672939001
0.1829909 -0.8005581272317635 0.5230036633302174
0.1849908 -0.7971876424130965 0.5282507448701744
0.1869907 -0.793584635106253 0.5329227275587246
0.1889906 -0.7901172082207898 0.5380052168625938
0.1909905 -0.7866426859780423 0.5430004578777801
0.1929904 -0.7831214304180563 0.5477800150678613
0.1949903 -0.7792043547734938 0.5528056395205454
0.1969902 -0.7753915096025248 0.5577460963999423
0.1989901 -0.7719014065650098 0.5629598643706435
0.20099 -0.7683290172510775 0.5677220241465953
0.2029899 -0.764674398995818 0.5725913575969426
0.2049898 -0.7606184625258426 0.5776592668613769
0.2069897 -0.7568084251504106 0.5822974135772114
0.2089896 -0.7528787990552999 0.5869056488841277
0.2109895 -0.7494617778271443 0.5920103911188213
0.2129894 -0.7456052138047646 0.5969549228958276
0.2149893 -0.7416453364311593 0.60174885833034
0.2169892 -0.7374599037761773 0.6067186278721228
0.2189891 -0.7338165732038462 0.6116715658942464
0.220989 -0.7299499368670436 0.61648037845038
0.2229889 -0.7260592317106537 0.6207455989466732
0.2249888 -0.7215429625531894 0.6260141074378414
0.2269887 -0.7175076142743354 0.6300267311636393
0.2289886 -0.713142575825441 0.6352515252284965
0.2309885 -0.7094371770945345 0.6401243304427167
0.2329884 -0.7052515503030796 0.6443300032221507
0.2349883 -0.7008473254320375 0.6492198620595955
0.2369882 -0.6967234731596862 0.6538716863381004
0.2389881 -0.6925225402550212 0.6583180517488573
0.240988 -0.6882748923219253 0.6627294764791497
0.2429879 -0.684252100900926 0.6674337847484921
0.2449878 -0.6798788683366074 0.67171126983875
0.2469877 -0.6754976442062413 0.6764495323729826
0.2489876 -0.6710299850803515 0.6807674824980956
0.2509875 -0.6671389773498944 0.6854314989044781
0.2529874 -0.6629143904854816 0.6900178873280599
0.2549873 -0.6586305332394414 0.694568201876664
0.2569872 -0.6544554287134542 0.6990045564428203
0.2589871 -0.650221501403903 0.7033451483082598
0.260987 -0.6461187542128393 0.7073575593509647
0.2629869 -0.6415585195782911 0.7115554245689611
0.2649868 -0.6371093400213466 0.7159159743015094
0.2669867 -0.6328040138924591 0.7197216597137424
0.2689866 -0.6283998075263415 0.7238147997916156
0.2709865 -0.6242937755727066 0.7280098369818685
0.2729864 -0.6196770255920664 0.7317424307912537
0.2749863 -0.6153770144557359 0.7355142879572232
0.2769862 -0.610894003576712 0.7393882825313214
0.2789861 -0.6065153619377328 0.7430444999311319
0.280986 -0.6020430670495845 0.7462221752340451
0.2829859 -0.5969110450144611 0.7496051274223802
0.2849858 -0.5925240002656142 0.7529596141670115
0.2869857 -0.5874544531245655 0.756603100984648
0.2889856 -0.5824077052847211 0.7594715863956963
0.2909855 -0.5773245930596109 0.7634483378499632
0.2929854 -0.5723590731073386 0.7668126430448027
0.2949853 -0.5670414456095513 0.7696035484485898
0.2969852 -0.5619297448371635 0.773058044351823
0.2989851 -0.5565743528376228 0.7763294531509135
0.300985 -0.5508142945417703 0.7789995836186829
0.3029849 -0.5453551931386575 0.7823853312138381
0.3049848 -0.5396863102381594 0.7853975463244928
0.3069847 -0.5337791671206951 0.7885509535220206
0.3089846 -0.5280164866848481 0.791777592462411
0.3109845 -0.5223426820334833 0.7949979178818025
0.3129844 -0.5161854577467673 0.7984961244793182
0.3149843 -0.509982240234795 0.8017125438655943
0.3169842 -0.5039136222307908 0.8052146884683783
0.3189841 -0.4978224399448413 0.8081294103840747
0.320984 -0.4912530920855959 0.8115748920610627
0.3229839 -0.48527958280542716 0.8151465783270195
0.3249838 -0.47941196946841014 0.8182933206831773
0.3269837 -0.47351787067313245 0.8216306481173359
0.3289836 -0.4674614647320845 0.8252085950512699
0.3309835 -0.461507135061074 0.8287951729108504
0.3329834 -0.4557961958894931 0.8321366786068433
0.3349833 -0.44998947449116433 0.8361675852551923
0.3369832 -0.4454270815872 0.8403765524209218
0.3389831 -0.4396567544713271 0.8443032391601648
0.340983 -0.4345628061418029 0.8483119929810814
0.3429829 -0.42945546597164413 0.8525546129369577
0.3449828 -0.42403117818269304 0.8563643649692304
0.3469827 -0.41912028355008063 0.8596852226247239
0.3489826 -0.4138188362485819 0.8630926107726783
0.3509825 -0.4087248655095628 0.8664307310944874
0.3529824 -0.40322232807270464 0.8697132293366582
0.3549823 -0.3981617032735174 0.8726751204957867
0.3569822 -0.39321613732345956 0.8756401678751478
0.3589821 -0.388079140945447 0.8785391515713976
0.360982 -0.3829740413535107 0.881354888434486
0.3629819 -0.3782016467939814 0.8835616253909623
0.3649818 -0.37254357644848307 0.8856075347731667
0.3669817 -0.36728537176764414 0.8876518888378009
0.3689816 -0.362081387764171 0.8896005769953946
0.3709815 -0.3563559471098639 0.8916018590734386
0.3729814 -0.35020175513718166 0.8935287320137457
0.3749813 -0.3450629327360197 0.8950815559436535
0.3769812 -0.33937745814376197 0.896557927533124
0.3789811 -0.3332154509950518 0.8983616888182591
0.380981 -0.32695676201920576 0.8995225777253651
0.3829809 -0.3207425143018325 0.9012339240503618
0.3849808 -0.3145824591128355 0.9033167667476902
0.3869807 -0.30798886742620996 0.9045102688365473
0.3889806 -0.3012629662794896 0.906353338922636
0.3909805 -0.2941369168399253 0.9080059722894547
0.3929804 -0.28758974247649827 0.9095850150432435
0.3949803 -0.28075353894097244 0.9114992469663715
0.3969802 -0.2738574006719984 0.9134946399661548
0.3989801 -0.26703143850192446 0.9149906896236203
0.40098 -0.2600726214773455 0.9172547975209866
0.4029799 -0.25365857910442313 0.9195536590844966
0.4049798 -0.24628542181782503 0.9215183106973907
0.4069797 -0.24006394641390397 0.9234519842838056
0.4089796 -0.23352868433642027 0.9255181067134697
0.4109795 -0.2265775516860971 0.9276275773087415
0.4129794 -0.2200975809387643 0.9302476236377619
0.4149793 -0.21308288703823983 0.9325672180472678
0.4169792 -0.20705391763684142 0.9343808671654034
0.4189791 -0.20054300161746125 0.9365330545998011
0.420979 -0.1943821996267166 0.9385333753899947
0.4229789 -0.18843249436805456 0.9405683245461961
0.4249788 -0.18236954323365678 0.942610147812569
0.4269787 -0.1763756372557979 0.944083073941862
0.4289786 -0.17079800265339246 0.9460167482851809
0.4309785 -0.16486610457329898 0.9473851692966038
0.4329784 -0.1586833418691178 0.9484994337450837
0.4349783 -0.15246297892779062 0.9489850357609615
0.4369782 -0.14697107152387612 0.9500209646642681
0.4389781 -0.1408523973158073 0.9507708158882264
0.440978 -0.13489588622548093 0.9513769659115081
0.4429779 -0.12906806147262007 0.9519644302028247
0.4449778 -0.12300852363747491 0.9522142988589705
0.4469777 -0.11652770990815989 0.9520927076048159
0.4489776 -0.11033632587444478 0.9525788097326127
0.4509775 -0.10381900426093502 0.9527328070044185
0.4529774 -0.0971214614614183 0.9525485648641414
0.4549773 -0.09031791657402907 0.9524525177447498
0.4569772 -0.08324913258521718 0.952560855644005
0.4589771 -0.07599459160283412 0.9519608138394996
0.460977 -0.06851939157564911 0.9525330794484479
0.4629769 -0.061568489656342144 0.9526072666896609
0.4649768 -0.054519047210889765 0.952460008899824
0.4669767 -0.047185587055594 0.9526109503703487
0.4689766 -0.03953157372502929 0.952879679432241
0.4709765 -0.03249837277468867 0.9533374344170222
0.4729764 -0.024760242796626038 0.9536560824651941
0.4749763 -0.017367579601198627 0.9544399575845601
0.4769762 -0.010133895301287665 0.9544344427642104
0.4789761 -0.002346757188562365 0.95535055459197
0.480976 0.005246230952428599 0.9559223510795395
0.4829759 0.012175090776929801 0.9563479313083738
0.4849758 0.019084994123929538 0.9571094502474453
0.4869757 0.026423382654515645 0.9577926430591445
0.4889756 0.0337802621178436 0.9583973575653727
0.4909755 0.04063165923955113 0.9590143228085198
0.4929754 0.04733400419960978 0.9598039719646323
0.4949753 0.05358011553281701 0.9604193556360682
0.4969752 0.06009238806099459 0.9606249322219937
0.4989751 0.06648598226161478 0.9608794195889135
0.500975 0.07252248072276109 0.9605331994903035
0.5029749 0.07837340108462927 0.9607487145611457
0.5049748 0.0846186895987971 0.9604785403979229
0.5069747 0.09026817414484888 0.9599822805490024
0.5089746 0.09637795828587026 0.9595547830160673
0.5109745 0.10286108564676884 0.9594016402404053
0.5129744 0.10894846326973108 0.9587620191073499
0.5149743 0.11466815115010637 0.9579206609439543
0.5169742 0.12059618640527671 0.9562979115214192
0.5189741 0.12674187057962566 0.9552568117161979
0.520974 0.13328685994401857 0.9535699956137341
0.5229739 0.14022506845931815 0.9522865491210112
0.5249738 0.14638376479707177 0.9508296989492657
0.5269737 0.15324903227845826 0.9490074824591564
0.5289736 0.15954399564521793 0.9476442717667751
0.5309735 0.1661768554852501 0.9454405430431577
0.5329734 0.17298131010592604 0.9433098018597152
0.5349733 0.17973798446030442 0.9412324756195511
0.5369732 0.18702302963578965 0.9392308300204699
0.5389731 0.1944371241871724 0.9377467676546937
0.540973 0.20149896119307625 0.9348600890427925
0.5429729 0.20871124378528125 0.9330553302588286
0.5449728 0.21607312836649756 0.9314685099728746
0.5469727 0.2236102517156185 0.9294673349564292
0.5489726 0.23094552655360392 0.928110095768238
0.5509725 0.23828857361301603 0.9261164798028649
0.5529724 0.24574935400785894 0.9246014205878814
0.5549723 0.25328067812964544 0.9228731253588014
0.5569722 0.26037685499829255 0.9215809022198853
0.5589721 0.2677066972669833 0.9203764336023171
0.560972 0.27507418597493044 0.9190331862607894
0.5629719 0.28225014747249394 0.9175795050189516
0.5649718 0.28924047982630535 0.916717897844958
0.5669717 0.2962839851110233 0.9151993284456837
0.5689716 0.3025338761449316 0.9134942369222215
0.5709715 0.3089914433260423 0.911714184724922
0.5729714 0.3151735901635877 0.9102382149483697
0.5749713 0.3216179227626599 0.9083520422774637
0.5769712 0.3281438361422271 0.9064620833148924
0.5789711 0.33403459649272293 0.9048128357662736
0.580971 0.33994806871638544 0.9029664969209346
0.5829709 0.3458240045104516 0.900859934942851
0.5849708 0.35195333670944734 0.8987150482862063
0.5869707 0.3578054034574262 0.8960910747211153
0.5889706 0.36380305119293843 0.8932094946436296
0.5909705 0.3698546473797234 0.8899430433233785
0.5929704 0.37601658237678376 0.8868270962477165
0.5949703 0.3818740610899828 0.8835899395109993
0.5969702 0.3880091363813281 0.880935668416412
0.5989701 0.3939019657237127 0.8774225616530117
0.60097 0.40047725731346073 0.8736223065128994
0.6029699 0.4065788338546839 0.8700608983243212
0.6049698 0.41267922368322635 0.8662918053722004
0.6069697 0.41929308733932424 0.8629797253524398
0.6089696 0.4255878424570802 0.8592684619259098
0.6109695 0.4323711762617352 0.8552257658259445
0.6129694 0.43945090603746356 0.8515252015736131
0.6149693 0.4462518739314081 0.8483015682122349
0.6169692 0.45318487151643977 0.8445209104902904
0.6189691 0.459940538900305 0.8410501313776307
0.620969 0.46675851812557545 0.8372968262368723
0.6229689 0.47376509424342 0.8337353058088988
0.6249688 0.48084040313575527 0.8304392086238219
0.6269687 0.48771826751593494 0.826787960504334
0.6289686 0.494250907430397 0.8237304976036742
0.6309685 0.5011334846646671 0.8206591922756599
0.6329684 0.5073068677606614 0.8175404925336623
0.6349683 0.513553853498321 0.8139504450276723
0.6369682 0.5196914652341423 0.8108748024740096
0.6389681 0.5263246340064158 0.8072908137683943
0.640968 0.5325304598772442 0.8045572187985991
0.6429679 0.5383012382514195 0.8016122514425525
0.6449678 0.5437838547804507 0.7982204463714917
0.6469677 0.549852087045797 0.7948771482587845
0.6489676 0.5555256363366055 0.7915511976991403
0.6509675 0.5599250405384263 0.7881054730199991
0.6529674 0.5654736095753946 0.7839657662397436
0.6549673 0.5709823642348174 0.7805216650667026
0.6569672 0.5758032839696586 0.7767980501778777
0.6589671 0.5809993696186206 0.7723743977823788
0.660967 0.5857133782538033 0.767988019161959
0.6629669 0.5905482936328539 0.7632845393279951
0.6649668 0.5953717118021853 0.7588617340479749
0.6669667 0.6004364409525942 0.7540041522488293
0.6689666 0.6059719810382725 0.7487443434409702
0.6709665 0.6110802245390563 0.7435384823010329
0.6729664 0.6161445036043371 0.7383675769093665
0.6749663 0.6211340726634107 0.7332908700225029
0.6769662 0.6260899827021578 0.7274966014535909
0.6789661 0.6313078405014585 0.7217381731687522
0.680966 0.6365442501567198 0.7161343776676985
0.6829659 0.6425007182604905 0.7103830369958253
0.6849658 0.6480497987244511 0.7049672196547994
0.6869657 0.6540160427277941 0.6991926504428025
0.6889656 0.659870762065515 0.693657836693719
0.6909655 0.665570550755203 0.6885185969469961
0.6929654 0.6716193932014441 0.6829800664910255
0.6949653 0.6772996363418231 0.6775483977667732
0.6969652 0.6832434958141417 0.6722779798489699
0.6989651 0.6886891332564874 0.6669835491621223
0.700965 0.6945415410872073 0.6614592914248619
0.7029649 0.7003435358461683 0.6566740663979419
0.7049648 0.7060987624284532 0.6516951449871093
0.7069647 0.7111596204093019 0.6466845524081509
0.7089646 0.71696789689096 0.6415643082332255
0.7109645 0.7216232092718886 0.6369971795805257
0.7129644 0.726722025141966 0.6317620115343052
0.7149643 0.7317685654273138 0.6270191812944469
0.7169642 0.7364670893173614 0.6222566881426099
0.7189641 0.7408323086733198 0.6172466324334019
0.720964 0.7452868191428343 0.6122160532122775
0.7229639 0.7502367559506735 0.6067092317270911
0.7249638 0.7545890144923479 0.601664998196025
0.7269637 0.7587662427660729 0.5964185754016711
0.7289636 0.7625083371150897 0.5917217888548425
0.7309635 0.7667739313446418 0.5857335999672216
0.7329634 0.7706589735792507 0.580446089810793
0.7349633 0.7739782132934152 0.5743468190022424
0.7369632 0.7777743453509185 0.5689527290110141
0.7389631 0.7811590588845809 0.5625960609629783
0.740963 0.784753325617909 0.5565409619581666
0.7429629 0.7884066013712667 0.5502104224058115
0.7449628 0.7921378470995195 0.5436605534954123
0.7469627 0.7957859925021147 0.5369322847921087
0.7489626 0.7994839390748936 0.5302291112954322
0.7509625 0.8030387703235718 0.5238777454935694
0.7529624 0.8069804766075653 0.5172673995451699
0.7549623 0.8109822611650293 0.5106473725122884
0.7569622 0.814713518797941 0.5033653281392446
0.7589621 0.8189471006263724 0.49658389408649684
0.760962 0.8228921004983571 0.4897546837077673
0.7629619 0.8267661449832789 0.48287511358970203
0.7649618 0.8312516617491607 0.47656289308294075
0.7669617 0.8352084835338275 0.46908628132996927
0.7689616 0.8391364700355444 0.46223753938793377
0.7709615 0.8428080600685753 0.45594034468339745
0.7729614 0.8470398806600081 0.44971513159797455
0.7749613 0.8506097818143851 0.4426397485718413
0.7769612 0.8544834622497065 0.4362733411586982
0.7789611 0.858433356632258 0.4301108071141672
0.780961 0.8624464072505039 0.42357460930688245
0.7829609 0.8654068959529648 0.4174020990078953
0.7849608 0.8690606922546669 0.4111445264337609
0.7869607 0.8724841223066044 0.40495866581822804
0.7889606 0.875790695460698 0.39850841956018934
0.7909605 0.8790379334534224 0.39227504843562294
0.7929604 0.8823309906807792 0.38645088965938224
0.7949603 0.885429896682305 0.3798515841331611
0.7969602 0.8880660727048587 0.37334900585894376
0.7989601 0.8907851873904671 0.36676914153251566
0.80096 0.8933265254728758 0.36050224440658263
0.8029599 0.8959816268839305 0.3541809512513673
0.8049598 0.8978627880423224 0.34751630265132866
0.8069597 0.9004413486612636 0.34084736661032905
0.8089596 0.9022705739963629 0.3340863191086204
0.8109595 0.903925083718768 0.32691325674859584
0.8129594 0.9061003767264726 0.3199069544166782
0.8149593 0.9080945624828719 0.31276235226320737
