! Created with skrf 1.8.0 (http://scikit-rf.org).
# GHz S RI R 50.0 
!freq ReS11 ImS11
0.001 1.2153124358022094 -0.8866099783652903
0.0029999 0.993627128650154 -0.019627095842141506
0.0049998 0.993834449642772 -0.020102090781813686
0.0069997 0.9924758125507591 -0.02667613809262359
0.0089996 0.9927550200945414 -0.034437211110809496
0.0109995 0.9921771307880649 -0.041414733028684925
0.0129994 0.9911191645457448 -0.04906383200246911
0.0149993 0.9907165796135189 -0.0560394911556229
0.0169992 0.9896920766723888 -0.0640349082565187
0.0189991 0.9892506032052336 -0.07087765468057816
0.020999 0.9881257693979538 -0.07789534452686109
0.0229989 0.987188375270644 -0.08558292737429185
0.0249988 0.9865469643752942 -0.09271413617020752
0.0269987 0.9857699145940813 -0.1000449420125423
0.0289986 0.9851269807684107 -0.10755690075880742
0.0309985 0.9845069303738871 -0.11590772336847716
0.0329984 0.9826665037387625 -0.12218843096581482
0.0349983 0.9830305120843065 -0.12903004880315436
0.0369982 0.9826580120416026 -0.13754482473773724
0.0389981 0.9812159608951837 -0.14437595837744305
0.040998 0.9803062095325503 -0.15134272825935696
0.0429979 0.9790962453980045 -0.15833470371749114
0.0449978 0.9784197200210993 -0.16565238980997105
0.0469977 0.9773517927582924 -0.1731535550677789
0.0489976 0.9760471461102307 -0.1808284818820927
0.0509975 0.9749411036662838 -0.18785532434485983
0.0529974 0.9739974872238555 -0.19491162159982628
0.0549973 0.9723954514093449 -0.2020736991590592
0.0569972 0.9707119889664597 -0.20901710254890546
0.0589971 0.9691288131676543 -0.21584687444889195
0.060997 0.9677416812631265 -0.22308231246348192
0.0629969 0.9656499033764305 -0.23015757644126475
0.0649968 0.9639451066257021 -0.23708977912140225
0.0669967 0.9621101356393114 -0.24383982598237708
0.0689966 0.9599954359627391 -0.2509184732072251
0.0709965 0.9578857318132319 -0.2578786681967423
0.0729964 0.9556995344111975 -0.2646631954852956
0.0749963 0.9532588391380712 -0.27186914761758674
0.0769962 0.950559204146638 -0.278955951532295
0.0789961 0.9480182981053731 -0.28585456537320897
0.080996 0.9459798407624734 -0.2930489163862381
0.0829959 0.9432815177981595 -0.3000689313550645
0.0849958 0.9404973174069718 -0.30739958416495167
0.0869957 0.9381226778411318 -0.3141624446677021
0.0889956 0.9354871207407517 -0.32096692669002613
0.0909955 0.9330681616576092 -0.3286868623172726
0.0929954 0.9303443174800805 -0.33500822798492796
0.0949953 0.9276260289577469 -0.3424836834013032
0.0969952 0.9252128348921305 -0.3498236420372941
0.0989951 0.9228174805644547 -0.35599294187131947
0.100995 0.9183387679331501 -0.36353736367495515
0.1029949 0.915916195313722 -0.37103497380576195
0.1049948 0.9129242730742861 -0.37826756191927996
0.1069947 0.9104521625167175 -0.3853686609748909
0.1089946 0.90755973713435 -0.3918279064636222
0.1109945 0.9047468504878508 -0.39908683107490933
0.1129944 0.9024504027173692 -0.4058469174641687
0.1149943 0.8997491384367149 -0.41256320789263445
0.1169942 0.8965930202166845 -0.41914311251877595
0.1189941 0.8944220896468745 -0.42635213361716684
0.120994 0.8916041130732693 -0.4325173251777793
0.1229939 0.8886458765428912 -0.43900879843844937
0.1249938 0.8856160934699165 -0.445493357592467
0.1269937 0.8824289315311966 -0.45148327348263095
0.1289936 0.8792811462546707 -0.4577008625058496
0.1309935 0.8763377051972514 -0.46407743899892717
0.1329934 0.8728281635791374 -0.47032637397884325
0.1349933 0.869562005597181 -0.4764124676246698
0.1369932 0.8661332282023141 -0.48259452560912774
0.1389931 0.862533827917484 -0.48851317382885706
0.140993 0.8588612014286823 -0.49437594181660605
0.1429929 0.8549635622053516 -0.5003362419466493
0.1449928 0.8512008743903987 -0.5062956195084113
0.1469927 0.8469349656575431 -0.5121932153647333
0.1489926 0.8430173354119702 -0.518288158159599
0.1509925 0.8388337391575739 -0.5241721462498249
0.1529924 0.8347227446047477 -0.5300678125349618
0.1549923 0.8305587015689262 -0.5359716231919033
0.1569922 0.8263607229334624 -0.5421342381452237
0.1589921 0.822077818399329 -0.5481338749072715
0.160992 0.8178337249123282 -0.5544490282790516
0.1629919 0.8135296636621651 -0.5601532222829743
0.1649918 0.8089850009466263 -0.5656850056556948
0.1669917 0.8041986473856684 -0.5717430853407904
0.1689916 0.800204964712096 -0.5774747612011986
0.1709915 0.7957632525049633 -0.5834935252156994
0.1729914 0.7913222514191175 -0.5892576511970538
0.1749913 0.7868084265575487 -0.5952313497150152
0.1769912 0.7821698674736798 -0.6010182322806575
0.1789911 0.778141219418475 -0.6067095759221899
0.180991 0.7731461590085527 -0.6119479279128067
0.1829909 0.7687572701737491 -0.6180105630863225
0.1849908 0.7642406814950683 -0.6238065896818618
0.1869907 0.75947350117786 -0.6291430376164541
0.1889906 0.7551741553813361 -0.6346839015344029
0.1909905 0.7503634167416429 -0.6401963854733556
0.1929904 0.7463296222589811 -0.6456660749541542
0.1949903 0.7408619722241461 -0.6509841252721469
0.1969902 0.7365340011486261 -0.656206494220623
0.1989901 0.7317594507207855 -0.6615866749310082
0.20099 0.7269155479428123 -0.6668869122414405
0.2029899 0.7222638987590213 -0.6719944558277127
0.2049898 0.7175994393253962 -0.6770635399146425
0.2069897 0.7123206795426912 -0.68202002737488
0.2089896 0.7075616591315305 -0.6872315651495919
0.2109895 0.7029499581519167 -0.6921391223765582
0.2129894 0.6975980433748392 -0.6969838591916796
0.2149893 0.6926310762921357 -0.7016774564303366
0.2169892 0.6877415592506936 -0.7065344959626463
0.2189891 0.6828336904110853 -0.7115245731120687
0.220989 0.6770502708823559 -0.7161596278786004
0.2229889 0.6721226179835484 -0.7209490537350118
0.2249888 0.6668341940197059 -0.7253295677014221
0.2269887 0.6612894418899965 -0.7294020636863006
0.2289886 0.6557740187141435 -0.7345211357169695
0.2309885 0.6508430524009083 -0.7388651504306463
0.2329884 0.6454437341231155 -0.7435090737844284
0.2349883 0.639814795636562 -0.7476460432690153
0.2369882 0.6344929776724753 -0.7522079875687525
0.2389881 0.6290883188639824 -0.7563465809620812
0.240988 0.6234035041411266 -0.760893743796248
0.2429879 0.6176827286348275 -0.7644833488132692
0.2449878 0.6122789719911662 -0.7687816610204701
0.2469877 0.6064584020091047 -0.7727899843621007
0.2489876 0.6008312071397179 -0.7771742080180146
0.2509875 0.5945914802684228 -0.7808080697984475
0.2529874 0.5891603394237115 -0.7850518995875966
0.2549873 0.5830787158330402 -0.7886987448594989
0.2569872 0.5773014065110147 -0.7924121505530849
0.2589871 0.5713243884366591 -0.7964909119056353
0.260987 0.5650233059820742 -0.8001166624110054
0.2629869 0.5589988333196161 -0.8039674308006363
0.2649868 0.5525747499849974 -0.8078390502731708
0.2669867 0.5465993713115421 -0.8114140262970652
0.2689866 0.5405105877531435 -0.8153680683726675
0.2709865 0.5342782399401267 -0.8189293052576734
0.2729864 0.5278883325652015 -0.82273676535424
0.2749863 0.5213364737923125 -0.8265338174709792
0.2769862 0.5149110996105686 -0.8303714428306317
0.2789861 0.5089632468071333 -0.8342332768018744
0.280986 0.5023745136638983 -0.8382179164810771
0.2829859 0.49584329918336434 -0.8417801187596454
0.2849858 0.49014269448487946 -0.8459733745646184
0.2869857 0.4839964610998561 -0.8496270603815121
0.2889856 0.4772716696892721 -0.8539896266520164
0.2909855 0.471369941681548 -0.8577727296284086
0.2929854 0.4652459735115524 -0.8615575634498644
0.2949853 0.4591624301512535 -0.8651141863027467
0.2969852 0.45327480170753665 -0.869009802544845
0.2989851 0.44758483802213805 -0.8726465775124594
0.300985 0.44174839438095337 -0.8763699251897284
0.3029849 0.4361765054492486 -0.8799287247061518
0.3049848 0.43072594573426826 -0.8833431217594029
0.3069847 0.42535632418479064 -0.8867954429225838
0.3089846 0.4198361375255072 -0.8901764548598319
0.3109845 0.4140622228399964 -0.8935464871141789
0.3129844 0.4084355233158742 -0.8962812106018587
0.3149843 0.4026325444105356 -0.8994163692670788
0.3169842 0.39735599659827675 -0.9020553489726548
0.3189841 0.3920199473153295 -0.9052058351986563
0.320984 0.3859872073503883 -0.907633392852798
0.3229839 0.37998238395906103 -0.9103094776254512
0.3249838 0.3738218349077771 -0.913254658566732
0.3269837 0.3678980643424914 -0.9155083557267971
0.3289836 0.3616450688340298 -0.9177005019797303
0.3309835 0.3558144401065287 -0.9189674515764601
0.3329834 0.34932082387127417 -0.9202573448183554
0.3349833 0.34355106466912244 -0.9211922807025072
0.3369832 0.3374590717328875 -0.9223458408169612
0.3389831 0.33151753739351675 -0.9230958450507022
0.340983 0.3254613594719916 -0.9241935088828898
0.3429829 0.31877096463308374 -0.9247588309306576
0.3449828 0.31225961555367565 -0.9257930791638388
0.3469827 0.30516697857830233 -0.9268852027565893
0.3489826 0.29804932542826906 -0.9276568868794175
0.3509825 0.2917942315441488 -0.9292074960434247
0.3529824 0.28434693179995796 -0.9303600309258744
0.3549823 0.2771013104335585 -0.9311646656022784
0.3569822 0.26900036729568366 -0.9327770506266547
0.3589821 0.261973278752498 -0.934533213184493
0.360982 0.2546912202756034 -0.9358975150658038
0.3629819 0.24665329152538085 -0.9376912512936394
0.3649818 0.23992469470876998 -0.9392689882765678
0.3669817 0.23260091025610494 -0.9414096905370238
0.3689816 0.2262268072324909 -0.9430609577799801
0.3709815 0.21948267895272808 -0.9448855283358255
0.3729814 0.21212007350707549 -0.9467594996412027
0.3749813 0.20492502890196954 -0.9489837471968819
0.3769812 0.19808179377681784 -0.9509999780523961
0.3789811 0.19109298240601524 -0.9526510819876268
0.380981 0.18498502193931696 -0.9548323566565974
0.3829809 0.1782000955240181 -0.9565166233359419
0.3849808 0.17206514843495116 -0.9583972733041648
0.3869807 0.16573895878563905 -0.9598770635035735
0.3889806 0.15967887440766906 -0.9616900940932321
0.3909805 0.1532753086266771 -0.9628132626237492
0.3929804 0.14772609642179277 -0.9639840490155045
0.3949803 0.14161147160570345 -0.9653474752924774
0.3969802 0.13606780455282602 -0.9665007521624572
0.3989801 0.1298576792038344 -0.9669122270392636
0.40098 0.12379181053876687 -0.9678576558895485
0.4029799 0.11846010189342553 -0.9680659971005519
0.4049798 0.11250154451239247 -0.9684706711997781
0.4069797 0.10631148377939774 -0.9683834963994126
0.4089796 0.10063952474315124 -0.9684404200811169
0.4109795 0.09395362860158134 -0.9686640457756667
0.4129794 0.08822906557361682 -0.9683346391488593
0.4149793 0.08243156502744838 -0.967787532836333
0.4169792 0.07575846584360665 -0.9669636324119868
0.4189791 0.06889390598824588 -0.9670601180927211
0.420979 0.06241098486720312 -0.9664380917000749
0.4229789 0.05519166839196303 -0.9665387095502295
0.4249788 0.048795102809142746 -0.9662639324636682
0.4269787 0.04139865403516265 -0.965866817453843
0.4289786 0.03441910917152643 -0.9653884205570822
0.4309785 0.027425728363409122 -0.9652198388174356
0.4329784 0.02033046518085679 -0.9651388064257962
0.4349783 0.014016597057153853 -0.9651231602028832
0.4369782 0.0066268691957070205 -0.9652261078308206
0.4389781 -0.000937464479475153 -0.9652359736099859
0.440978 -0.0073667270663196616 -0.9652591407987722
0.4429779 -0.014390811003568541 -0.9652483047979249
0.4449778 -0.021790538133872203 -0.9659117256367468
0.4469777 -0.028471585880696988 -0.9655660904812471
0.4489776 -0.03544348045911648 -0.9657517940711077
0.4509775 -0.0419761847604833 -0.9663893805859358
0.4529774 -0.04861499546044758 -0.966496363785014
0.4549773 -0.05481703062990147 -0.9669820838599352
0.4569772 -0.06114323854846995 -0.9669661896044786
0.4589771 -0.06739738609339482 -0.9674106940327344
0.460977 -0.07262704134667955 -0.9674808289320083
0.4629769 -0.07896172433231147 -0.967491990801509
0.4649768 -0.0845910963806936 -0.9673552398721459
0.4669767 -0.09057165656304894 -0.9664950574172211
0.4689766 -0.09587514586889523 -0.9661743737256018
0.4709765 -0.10111526435799004 -0.9658679884759168
0.4729764 -0.10690763406985718 -0.9650147309946645
0.4749763 -0.11245161969821763 -0.9641469180823511
0.4769762 -0.11767472768711226 -0.9627774216486409
0.4789761 -0.1227926182225327 -0.961527375703073
0.480976 -0.1285900049963665 -0.9601452934959736
0.4829759 -0.1346372319526577 -0.9584479891490555
0.4849758 -0.1402661272075344 -0.9569985631409965
0.4869757 -0.14595466504813598 -0.9548894140675293
0.4889756 -0.15214697664034066 -0.9524874278627304
0.4909755 -0.15779768180443052 -0.9502124375747069
0.4929754 -0.1644654564983631 -0.9487058548343669
0.4949753 -0.17111864391176496 -0.9464676478963068
0.4969752 -0.17702511285578557 -0.943766289845992
0.4989751 -0.18391659304735555 -0.9424230547613279
0.500975 -0.19032075249904074 -0.9404494958632263
0.5029749 -0.19702408144794514 -0.9380869977955777
0.5049748 -0.20398926216577096 -0.9368121947980689
0.5069747 -0.21045653925664107 -0.9345096729066836
0.5089746 -0.21716756797531217 -0.9329300173221582
0.5109745 -0.22346807933150042 -0.9307829798587179
0.5129744 -0.23023823684941327 -0.9296239172547421
0.5149743 -0.2372104398616519 -0.9272358868991188
0.5169742 -0.24391976519683145 -0.9259904438766846
0.5189741 -0.25069422127066776 -0.9246753032398151
0.520974 -0.25649603115005154 -0.9237346739458836
0.5229739 -0.2628783206924049 -0.9223397139837208
0.5249738 -0.26955844695852815 -0.9209857894810415
0.5269737 -0.27594646911027026 -0.9198171417666504
0.5289736 -0.2823401787985947 -0.9186499077259995
0.5309735 -0.2881365146377455 -0.9174256947826088
0.5329734 -0.2942105874972626 -0.9159532967140248
0.5349733 -0.2998744950375779 -0.9144979668284685
0.5369732 -0.3057692570034547 -0.9132733152389488
0.5389731 -0.3110105128396302 -0.9118740978350295
0.540973 -0.3167778832531723 -0.9098068629795556
0.5429729 -0.32139663084094894 -0.9079938943772835
0.5449728 -0.32650590153174275 -0.906393167794186
0.5469727 -0.3315975185819907 -0.9044457592158001
0.5489726 -0.3366396596414841 -0.9023961331741396
0.5509725 -0.3415942609208681 -0.9000029361481549
0.5529724 -0.3471612635473643 -0.8980169019303957
0.5549723 -0.3519659720158891 -0.8956831985381927
0.5569722 -0.3571290928387614 -0.8929332119007721
0.5589721 -0.36177989920612424 -0.8900129261177687
0.560972 -0.3671087696164491 -0.8864441645434198
0.5629719 -0.3722514536329398 -0.8837261343621041
0.5649718 -0.37728861516197615 -0.8807268941832871
0.5669717 -0.3827380723117756 -0.8773947694585812
0.5689716 -0.3884238424127532 -0.8739853865936218
0.5709715 -0.39399500318978137 -0.8707715912938688
0.5729714 -0.39945182516012423 -0.8680340800711537
0.5749713 -0.4047716150169602 -0.8647430030764317
0.5769712 -0.41081653885093644 -0.8614578632179691
0.5789711 -0.41632713701221175 -0.8579961553936871
0.580971 -0.42280270163533473 -0.8546333609900904
0.5829709 -0.42865888965047055 -0.8514625804396267
0.5849708 -0.434481420524642 -0.8488286742039971
0.5869707 -0.4403921579193544 -0.8457926292257114
0.5889706 -0.4461318896878619 -0.8431935090250428
0.5909705 -0.45227972319837867 -0.840837794196961
0.5929704 -0.45788570522057437 -0.8379685150359749
0.5949703 -0.4635514320117687 -0.8349999684296777
0.5969702 -0.46930420766116965 -0.8323252307619481
0.5989701 -0.47520771380975774 -0.8297849795941319
0.60097 -0.4805484910015701 -0.8271843864494688
0.6029699 -0.48556326696836527 -0.824423595182193
0.6049698 -0.4906250454657146 -0.8216717307385938
0.6069697 -0.49577650865132805 -0.8194393437910339
0.6089696 -0.5005272949096474 -0.8166825714755208
0.6109695 -0.5049285341503154 -0.8140872826526532
0.6129694 -0.5094335408292443 -0.8115169740102147
0.6149693 -0.5144836067552762 -0.8086093451201025
0.6169692 -0.5191542484712265 -0.8056199494338915
0.6189691 -0.5230551624222617 -0.8025248473937796
0.620969 -0.5273536345663503 -0.7992612715223297
0.6229689 -0.5319078903151296 -0.7957734845952299
0.6249688 -0.5360637777669475 -0.7925977401891335
0.6269687 -0.5403267656810753 -0.7889753345638645
0.6289686 -0.5443578065100072 -0.7849550752722974
0.6309685 -0.5485169496581448 -0.7802264598653476
0.6329684 -0.5532217198818453 -0.7765535843858564
0.6349683 -0.5574705682998037 -0.7724527516480771
0.6369682 -0.5615642171432343 -0.7684328963414252
0.6389681 -0.5660070238674961 -0.7641482332217254
0.640968 -0.5706658018137951 -0.7596294303666815
0.6429679 -0.575275683370612 -0.7551765172202193
0.6449678 -0.5805126038721643 -0.7510282878936764
0.6469677 -0.5853304014412722 -0.7464103345043858
0.6489676 -0.5903145854119913 -0.7420003832336505
0.6509675 -0.5959905199549917 -0.7379782572498398
0.6529674 -0.6011061059661783 -0.7340079720584839
0.6549673 -0.6059109420777516 -0.7295690630567674
0.6569672 -0.6111296800213316 -0.7255311774042428
0.6589671 -0.61606309083523 -0.7211603455972053
0.660967 -0.6213043575829692 -0.7175075455023777
0.6629669 -0.6265029448954615 -0.7135069414766747
0.6649668 -0.6319231969213159 -0.7099127462660265
0.6669667 -0.6368073274189965 -0.7061102003148404
0.6689666 -0.6411080400307572 -0.7027275688428097
0.6709665 -0.6456454998397424 -0.6989188739554952
0.6729664 -0.650378791541414 -0.6954412238586981
0.6749663 -0.6549607123800089 -0.6919071337361172
0.6769662 -0.6590509338684081 -0.6883604058399706
0.6789661 -0.6636905631058401 -0.6852938081443443
0.680966 -0.6681045440968622 -0.6819383667613843
0.6829659 -0.671896669961477 -0.6787266915215335
0.6849658 -0.6754477912572208 -0.67503362004311
0.6869657 -0.6793203773615357 -0.6718828170203609
0.6889656 -0.6829299032535813 -0.6682673792737538
0.6909655 -0.6861770642015754 -0.6643336961935402
0.6929654 -0.6897192116297904 -0.6606284636810172
0.6949653 -0.6931339546004847 -0.6563983204784962
0.6969652 -0.6963823788705884 -0.6524281277874283
0.6989651 -0.699568864150834 -0.6482316422277903
0.700965 -0.7033729700715156 -0.643812038819222
0.7029649 -0.7062626540926336 -0.6391685874616433
0.7049648 -0.7094611332657333 -0.6344139942888067
0.7069647 -0.7126407836468666 -0.6295895481080728
0.7089646 -0.7152592326133833 -0.6242799954144864
0.7109645 -0.7188429505104836 -0.6197359419016837
0.7129644 -0.7226445081462867 -0.6145062461590267
0.7149643 -0.7260862439308596 -0.6091756778149603
0.7169642 -0.7298568850345185 -0.6040148490167061
0.7189641 -0.7341936359190491 -0.599003038433817
0.720964 -0.7375299968015618 -0.5939978460119157
0.7229639 -0.7412795508971348 -0.5890554162068647
0.7249638 -0.7450151028958873 -0.5835287813852801
0.7269637 -0.7489832076553239 -0.5784572747639783
0.7289636 -0.7527727873926572 -0.573391999075243
0.7309635 -0.7574224079992072 -0.5686826038140894
0.7329634 -0.7612235332498893 -0.5632906765699314
0.7349633 -0.7651207703039138 -0.5588650342446884
0.7369632 -0.7689981406477611 -0.5539302258769617
0.7389631 -0.7728854458507058 -0.5493845202525649
0.740963 -0.7760288660474534 -0.544552914961717
0.7429629 -0.7797428496963289 -0.5400559666947478
0.7449628 -0.7829456361142935 -0.5360381160043329
0.7469627 -0.7868373390237143 -0.5319973354533389
0.7489626 -0.7900340359096901 -0.5271228752567129
0.7509625 -0.7938550664473398 -0.5227679650657955
0.7529624 -0.7971045452785116 -0.5187330838320128
0.7549623 -0.8003230627461685 -0.5143668671595365
0.7569622 -0.8033592651625704 -0.5101925071529281
0.7589621 -0.8059929357536981 -0.5061314296754308
0.760962 -0.8088862112199776 -0.5018299266751916
0.7629619 -0.8118026856936256 -0.497509317920768
0.7649618 -0.8138496125969849 -0.4927622483743277
0.7669617 -0.8167618293074321 -0.4883314407367568
0.7689616 -0.8191268146444238 -0.48391542996561415
0.7709615 -0.8213665505466807 -0.4789236211440787
0.7729614 -0.823888032559045 -0.47426803804923684
0.7749613 -0.8251355388976294 -0.46883294941845255
0.7769612 -0.8270659215906361 -0.4638220323945736
0.7789611 -0.8294514959326572 -0.4581579595084272
0.780961 -0.8318253444639532 -0.45279646734147616
0.7829609 -0.8337452190501033 -0.44789841479447356
0.7849608 -0.8359141657659713 -0.4420896099574606
0.7869607 -0.8384289362411955 -0.4364593248963175
0.7889606 -0.8410086499398207 -0.430711861498208
0.7909605 -0.8434058772244646 -0.4252812214663243
0.7929604 -0.8457495918603152 -0.4196694423259707
0.7949603 -0.8486102118908521 -0.4136596464139785
0.7969602 -0.8510259331784317 -0.40853989096909016
0.7989601 -0.8534005703467091 -0.40276912617966143
0.80096 -0.8561906684638366 -0.39707608801103367
