! Created with skrf 1.8.0 (http://scikit-rf.org).
# GHz S RI R 50.0 
!freq ReS11 ImS11
0.001 -0.7658636730695818 0.18451156185548578
0.0029999 -0.9754919140223962 0.035073487912274603
0.0049998 -0.9678891188138279 0.029527529115434603
0.0069997 -0.9570168269919497 0.034171828352316136
0.0089996 -0.956730716077299 0.0371741392607397
0.0109995 -0.9556273478286669 0.043693687334110276
0.0129994 -0.9550903952846244 0.050513372400716294
0.0149993 -0.9551793863936379 0.05883547437771597
0.0169992 -0.9545507212454578 0.06377449908183541
0.0189991 -0.9545092858283577 0.07017301518298291
0.020999 -0.9533428511249016 0.0774090829675132
0.0229989 -0.9524973590676216 0.08423096430781668
0.0249988 -0.9513572489385959 0.0907691329544385
0.0269987 -0.9507753454932846 0.09782140291447115
0.0289986 -0.949670919311581 0.10449670593297238
0.0309985 -0.9485793544642999 0.11116656981039064
0.0329984 -0.9476002652224637 0.11822150701638834
0.0349983 -0.9465906869732756 0.12521708193318448
0.0369982 -0.94506668592889 0.1321697224300184
0.0389981 -0.9436905303739476 0.13892412117151837
0.040998 -0.9427976904080105 0.14588229823322746
0.0429979 -0.9408099816163451 0.15270703987999107
0.0449978 -0.9395347262566387 0.15950923770391223
0.0469977 -0.9384804104326948 0.16658555666204605
0.0489976 -0.9363517954817515 0.17352571808112077
0.0509975 -0.9344613810749165 0.18067333358974197
0.0529974 -0.93333206263367 0.1879880140505814
0.0549973 -0.9308540014242659 0.19589519977618758
0.0569972 -0.9296908427185988 0.20221576608099093
0.0589971 -0.9278603144626822 0.209488996066768
0.060997 -0.9266828145629611 0.21698149446676263
0.0629969 -0.9250053067672509 0.223511304286657
0.0649968 -0.9226593730406959 0.23093784347956425
0.0669967 -0.9218365749596493 0.2383549855529047
0.0689966 -0.9199211911239439 0.244723568848848
0.0709965 -0.9183269070471929 0.2517858441127262
0.0729964 -0.9163528441709856 0.2590627813710725
0.0749963 -0.9147248724230033 0.2657646648661611
0.0769962 -0.913442316441714 0.2727198311962725
0.0789961 -0.9109886374113411 0.279054637950002
0.080996 -0.9089788226923806 0.2861987646254683
0.0829959 -0.9067762224628743 0.2931024731649003
0.0849958 -0.905349650034818 0.2990940147636731
0.0869957 -0.9034326295995462 0.3058024712867434
0.0889956 -0.9011357085063423 0.31200145015213315
0.0909955 -0.89888308014993 0.31854670831512155
0.0929954 -0.8965095970348664 0.3249297284871797
0.0949953 -0.8938573218322015 0.33122706466341406
0.0969952 -0.8914253299299015 0.3372860634541934
0.0989951 -0.8886392932237249 0.3439528293392629
0.100995 -0.8874143322729691 0.35063762201497584
0.1029949 -0.8847458544471137 0.3568009530670871
0.1049948 -0.882158009431367 0.3631137279547233
0.1069947 -0.8792368087926146 0.36885788073589215
0.1089946 -0.8760597023720608 0.37504841156847457
0.1109945 -0.8726111698965722 0.3813921623763476
0.1129944 -0.8697360158594405 0.3875151380338046
0.1149943 -0.8661675824895064 0.3934294067868811
0.1169942 -0.8627917440955757 0.39994078463946414
0.1189941 -0.8594890332816117 0.4060535592316262
0.120994 -0.8557671419353483 0.4126195108262058
0.1229939 -0.8524127144752704 0.41911965980279386
0.1249938 -0.8487563893609409 0.4257733290281348
0.1269937 -0.8455376587000459 0.43159153584594234
0.1289936 -0.8421872363632655 0.43877156566128683
0.1309935 -0.8387801178748264 0.4450765593247268
0.1329934 -0.8349601321646211 0.4515974558905777
0.1349933 -0.8311595548158572 0.4580421511265489
0.1369932 -0.8277524566303541 0.4640339003327067
0.1389931 -0.8241745995630572 0.47094876288517984
0.140993 -0.8205502938443141 0.4770239009603287
0.1429929 -0.8166658693430672 0.4832122485591842
0.1449928 -0.8134873316358656 0.49033291938005197
0.1469927 -0.8097185799227674 0.49607259064453185
0.1489926 -0.8061454234647252 0.5027694576912028
0.1509925 -0.8024126580798352 0.5084565212331812
0.1529924 -0.7986140657069961 0.5150060562954971
0.1549923 -0.7952371593788194 0.5215144479329549
0.1569922 -0.7915484417634194 0.5266666354601338
0.1589921 -0.787710380420581 0.5331503367794601
0.160992 -0.7839255165187446 0.5391018893296741
0.1629919 -0.7801612452553277 0.5448322795804919
0.1649918 -0.7758042783410108 0.550471588331552
0.1669917 -0.7720556267777477 0.5562530262029911
0.1689916 -0.7683160053598445 0.5622760460807907
0.1709915 -0.7639855404830854 0.5675044244399662
0.1729914 -0.7596068377710332 0.5729334937301909
0.1749913 -0.7555869425246712 0.5787481944823886
0.1769912 -0.7513673377413885 0.5840566446536043
0.1789911 -0.7473309274665338 0.5894443098885119
0.180991 -0.7424711350323017 0.5948991484294914
0.1829909 -0.738118800653327 0.600122662532893
0.1849908 -0.7335595546788707 0.6058492223267937
0.1869907 -0.7290862266703695 0.6110821160130924
0.1889906 -0.7242141554819268 0.6164496927469445
0.1909905 -0.7195570928563654 0.6217736348530674
0.1929904 -0.7146680300164877 0.6271645254601564
0.1949903 -0.7098249030948302 0.6327042357395578
0.1969902 -0.7046599846725908 0.6379405015856995
0.1989901 -0.6999216391915697 0.6431017276018052
0.20099 -0.6949561171625316 0.6487339171921211
0.2029899 -0.6899373589149154 0.6535978518510112
0.2049898 -0.6851266732697536 0.6586973265962218
0.2069897 -0.6796088008631808 0.6639772844988134
0.2089896 -0.6745178148563328 0.6692719377534245
0.2109895 -0.6698102814987121 0.674212415674791
0.2129894 -0.6643389577914207 0.6796495926460098
0.2149893 -0.6590880745531518 0.684728521599218
0.2169892 -0.653859006988917 0.6900041747960892
0.2189891 -0.6484156908585545 0.695330550664821
0.220989 -0.643261208691008 0.7003081311522902
0.2229889 -0.6375282497875681 0.7049309555428498
0.2249888 -0.6319960549996471 0.7098755888788424
0.2269887 -0.6265914902239968 0.7148601988757219
0.2289886 -0.6210324643940575 0.7196923228117595
0.2309885 -0.6155723892305841 0.7248853881670934
0.2329884 -0.6101373167424757 0.7294867588557974
0.2349883 -0.6044624003692124 0.734269264721153
0.2369882 -0.5986647817774398 0.7390255643145536
0.2389881 -0.592833876796132 0.7436877813376834
0.240988 -0.587347679475971 0.7486174599398353
0.2429879 -0.5815150147918974 0.7531590763252421
0.2449878 -0.5758706807156261 0.7577253778826676
0.2469877 -0.5699469224962744 0.762134430511411
0.2489876 -0.5645178307649259 0.7667797817736979
0.2509875 -0.5587011552062167 0.7717808232372398
0.2529874 -0.5529312503257154 0.7760504952630523
0.2549873 -0.5472549584294478 0.7804273397330522
0.2569872 -0.541602050856056 0.7850758790644747
0.2589871 -0.5357145895094315 0.7895738309514835
0.260987 -0.5300493578943328 0.7936137400191864
0.2629869 -0.5243202109242803 0.7980347510057908
0.2649868 -0.5183555259912854 0.8016434165163041
0.2669867 -0.5128074918404139 0.8057563124875355
0.2689866 -0.5067688483518868 0.8097984165001797
0.2709865 -0.5012674146314018 0.8137188533731534
0.2729864 -0.49485589906958954 0.817529971338314
0.2749863 -0.4893928898840296 0.8210411778011228
0.2769862 -0.4836373576752698 0.8247668554581932
0.2789861 -0.47765741358336467 0.8282327212059153
0.280986 -0.4714692717103501 0.830892531248055
0.2829859 -0.46527397631281703 0.8342896653149671
0.2849858 -0.4591369730462209 0.8374818721545175
0.2869857 -0.45245740737367407 0.8403247404189778
0.2889856 -0.446080080460982 0.8434572752166092
0.2909855 -0.4396051910852999 0.8465039361461556
0.2929854 -0.43277370540469 0.8495249525690413
0.2949853 -0.42619150816993145 0.8518766232459035
0.2969852 -0.41927251249176095 0.855061270939921
0.2989851 -0.41223218699110264 0.8576369876107817
0.300985 -0.40540861655361166 0.8599572154641255
0.3029849 -0.39807512628622177 0.8626032877929796
0.3049848 -0.39068462256467423 0.864810277135143
0.3069847 -0.3832681599712193 0.8680467684502198
0.3089846 -0.37564639495575747 0.8702143259687953
0.3109845 -0.3684978007544838 0.8729114410480088
0.3129844 -0.3605909445865173 0.8754621938631167
0.3149843 -0.35246715060381 0.878253266333429
0.3169842 -0.34482755141802024 0.8807247086616752
0.3189841 -0.33699610123517815 0.883190784622314
0.320984 -0.32895023437229876 0.8860214238498318
0.3229839 -0.3211779783282311 0.8889107340538941
0.3249838 -0.31386849737720496 0.8911481074697988
0.3269837 -0.3059538513107831 0.8935068818910074
0.3289836 -0.29839472688209395 0.8963501757380885
0.3309835 -0.29032278284709145 0.8991949575871697
0.3329834 -0.2835373008159077 0.9019300386506685
0.3349833 -0.2758803981423357 0.9054478919618199
0.3369832 -0.2690402737354254 0.9090301239087378
0.3389831 -0.26161074055944294 0.9123172558914381
0.340983 -0.2543171340849264 0.9156684719219328
0.3429829 -0.2475366291166109 0.9192326610152258
0.3449828 -0.2404719434717883 0.9222689403222168
0.3469827 -0.23389166117638288 0.9251780524195139
0.3489826 -0.22678925992545704 0.9279222543829317
0.3509825 -0.21965109511333888 0.9302823826649856
0.3529824 -0.21289227321598375 0.9328874784155339
0.3549823 -0.20613637522773404 0.9352461543376773
0.3569822 -0.1994311867317195 0.9373259048579096
0.3589821 -0.19267862395076243 0.9390230779721146
0.360982 -0.1860838893000944 0.9410820445757988
0.3629819 -0.179623225911802 0.9426668758631487
0.3649818 -0.1728230957268462 0.9434681752431159
0.3669817 -0.16582293765398798 0.9440929555912184
0.3689816 -0.15894916180616392 0.9453839222135845
0.3709815 -0.15179779550461076 0.9464276440006462
0.3729814 -0.14475266702199818 0.9470104443228761
0.3749813 -0.137757493048798 0.9477125232637188
0.3769812 -0.13061059417973708 0.9478872168940562
0.3789811 -0.12311106545840265 0.9487776060541421
0.380981 -0.11550257426329774 0.9489583384359167
0.3829809 -0.10763387190211186 0.9491791172440018
0.3849808 -0.09970513556533377 0.9495472701081193
0.3869807 -0.09185236942472122 0.9492279480339874
0.3889806 -0.08359518757735383 0.9495438147444177
0.3909805 -0.07569631900297201 0.949551043796516
0.3929804 -0.06695366202190653 0.9499093661612085
0.3949803 -0.058626563404063 0.9502240171736108
0.3969802 -0.05025660384718374 0.9505178365344917
0.3989801 -0.041957495535945175 0.9505533015008335
0.40098 -0.033159982240565274 0.951541025417373
0.4029799 -0.02489501384753729 0.9517761524957212
0.4049798 -0.016307078954256496 0.9522837272358738
0.4069797 -0.008165113324316062 0.9527659843601258
0.4089796 0.00030843486632402273 0.953194682924176
0.4109795 0.008371194412007288 0.9538732505698385
0.4129794 0.01692216735818791 0.9544952161940837
0.4149793 0.025610851164209792 0.9550147033435805
0.4169792 0.032941354484809476 0.95548159385176
0.4189791 0.04085821195108085 0.9558867591615338
0.420979 0.04885674479257069 0.95641517856849
0.4229789 0.05625182183912432 0.9568387724461518
0.4249788 0.06386096536557982 0.9569722860598716
0.4269787 0.07132420374883636 0.9573298559802507
0.4289786 0.07857626220584915 0.9572090099469786
0.4309785 0.08604474096844991 0.9569763665879899
0.4329784 0.09352540648257951 0.9565868373949925
0.4349783 0.10056727460165515 0.9555008310308324
0.4369782 0.10766458382497335 0.9545297000021606
0.4389781 0.11487613631327118 0.953650123869368
0.440978 0.12213126814541914 0.9525650725925086
0.4429779 0.1293399585084911 0.9513326577912076
0.4449778 0.13673780477627784 0.9497405873716768
0.4469777 0.144362661722227 0.9482263444097025
0.4489776 0.1519856417707544 0.9467032054726668
0.4509775 0.1594272431830669 0.9445598341299524
0.4529774 0.1672052358060095 0.9423934237591479
0.4549773 0.17491089520787242 0.9402211395792397
0.4569772 0.18309911279500501 0.9380101205960488
0.4589771 0.19130623065572314 0.9360006260101009
0.460977 0.199729577361378 0.9332883005528324
0.4629769 0.20789650720988842 0.9314281920661904
0.4649768 0.21638873507894865 0.9292034582631945
0.4669767 0.22433677726628432 0.9271080689282191
0.4689766 0.23294919621530633 0.9249181615038508
0.4709765 0.24120603727198886 0.922740152152044
0.4729764 0.24993053789590275 0.9208898148268981
0.4749763 0.2585623304451269 0.9189604699832832
0.4769762 0.2670098430630845 0.917065052318515
0.4789761 0.2756612589782903 0.9145784323245458
0.480976 0.2845624450216918 0.9127322083235972
0.4829759 0.2926440545347041 0.9108090553923391
0.4849758 0.30121657467574386 0.9091622875656027
0.4869757 0.3091697483790982 0.9070976932925487
0.4889756 0.31738715367105935 0.9052240832426233
0.4909755 0.3256126170490792 0.9034392554623212
0.4929754 0.33328907810251557 0.9016001937964148
0.4949753 0.3408645312703087 0.8997269292823584
0.4969752 0.34806348508480156 0.8975234528057403
0.4989751 0.3553705697751314 0.8954943461186473
0.500975 0.3623052069593663 0.892931442335333
0.5029749 0.3694776797071684 0.8905069853068149
0.5049748 0.37646392304815424 0.8878259783910039
0.5069747 0.38304426428083754 0.8854052651533015
0.5089746 0.3903798610546665 0.8826145336182422
0.5109745 0.39730238400066326 0.8795777162466651
0.5129744 0.4041869699253372 0.8763138866143734
0.5149743 0.41065039886064003 0.8731935289903721
0.5169742 0.41699329301237803 0.86962831389807
0.5189741 0.4239397039016667 0.8659117639977948
0.520974 0.43122829122937634 0.861655492950414
0.5229739 0.4386006984369047 0.8575078883161785
0.5249738 0.4453664184559694 0.8540934953380306
0.5269737 0.4522327526084803 0.849275691935056
0.5289736 0.4592345962451382 0.8450807798925877
0.5309735 0.46599198690430793 0.840686885938018
0.5329734 0.473249212541512 0.8356699258102648
0.5349733 0.4798745974337459 0.831128326608333
0.5369732 0.48740650551280884 0.8262995597763886
0.5389731 0.4947345852239356 0.821139022085647
0.540973 0.5017420672940062 0.8162531337756815
0.5429729 0.5094466562723302 0.8110228405964749
0.5449728 0.5171279431543363 0.8067471938334264
0.5469727 0.524551798133997 0.8016112069826459
0.5489726 0.5318520932754088 0.7969682091249759
0.5509725 0.5393204438463551 0.7918793000543254
0.5529724 0.5468464085346002 0.7872694434800549
0.5549723 0.5543324891250792 0.7827769230257455
0.5569722 0.5615727570050166 0.7779525457097518
0.5589721 0.568962245582778 0.7732615762574421
0.560972 0.5764810611467551 0.768868531243387
0.5629719 0.5836168738828975 0.7639658583509152
0.5649718 0.5908447139688902 0.759927751768484
0.5669717 0.5980289032017068 0.7549169924945173
0.5689716 0.6043071335729037 0.750567222140805
0.5709715 0.6104488252592897 0.7459437976274431
0.5729714 0.6169689949380929 0.7408820800664846
0.5749713 0.6234967783751588 0.7361065139743393
0.5769712 0.6297937573007711 0.7311661796995274
0.5789711 0.635768687385696 0.7266503961579363
0.580971 0.6421182325610815 0.7215540324247113
0.5829709 0.6480864909140853 0.7164093094498087
0.5849708 0.6537952652926631 0.711201573303926
0.5869707 0.6592618010384328 0.7056571446059322
0.5889706 0.6649635500987454 0.69953623982397
0.5909705 0.6706285074791978 0.6934817584133265
0.5929704 0.6760967861218766 0.6876653390818201
0.5949703 0.6817203195801621 0.6814306654575428
0.5969702 0.6871103799332151 0.6755696007415304
0.5989701 0.6927384520505789 0.6695378455705349
0.60097 0.6984547818655856 0.6628006015616281
0.6029699 0.7040836816855364 0.6561889553823591
0.6049698 0.7092566858523169 0.6497029457724568
0.6069697 0.7144983892357366 0.6429342446575603
0.6089696 0.7203124057882935 0.6362058497529983
0.6109695 0.7260871628237465 0.6295380426396736
0.6129694 0.7319779888994411 0.6224322713299362
0.6149693 0.7379910276003087 0.6155628594264867
0.6169692 0.7436088907103215 0.6085889710734438
0.6189691 0.7492580672711815 0.6019690582309435
0.620969 0.7547748619295624 0.594994949899581
0.6229689 0.7606497255225695 0.5880747878393432
0.6249688 0.7660971522547313 0.5816423303080125
0.6269687 0.7718615266366365 0.5744571924097934
0.6289686 0.7774889879764644 0.5677935328768836
0.6309685 0.7830739484516205 0.5611936255904463
0.6329684 0.7881457596380752 0.5547836384742634
0.6349683 0.7931167857477827 0.5482725534903292
0.6369682 0.7980435745114872 0.5415553754529356
0.6389681 0.8037137213108754 0.5345814153633475
0.640968 0.808187053697093 0.5283201643284062
0.6429679 0.8132852561018278 0.5218817727668443
0.6449678 0.8179803812967341 0.5152240460512453
0.6469677 0.822246755716619 0.508323639991893
0.6489676 0.8266935790061001 0.5016268115468613
0.6509675 0.8309021801695875 0.4949684971452554
0.6529674 0.8346857923393318 0.4880351511413852
0.6549673 0.8388042368169563 0.48136936228817073
0.6569672 0.8425711083220565 0.4740878020934159
0.6589671 0.8464220836610078 0.466731536747521
0.660967 0.849930341077918 0.45962500472645773
0.6629669 0.8532855577312566 0.45210285171677334
0.6649668 0.8570518283337578 0.4441449183932981
0.6669667 0.8600875267198461 0.4369658225641746
0.6689666 0.8638189806942942 0.428962786994878
0.6709665 0.8676286599931162 0.4211644661404089
0.6729664 0.8701392911248937 0.4132208951010219
0.6749663 0.8732327104715135 0.40515887411522555
0.6769662 0.8766258777065694 0.39681228083030745
0.6789661 0.8799936161523266 0.38900922064184074
0.680966 0.8834049208231091 0.3803638871938042
0.6829659 0.8865589172269248 0.3721302503403779
0.6849658 0.8898093027764293 0.36379199622559394
0.6869657 0.8933450023832247 0.3554212504767659
0.6889656 0.8969730164694634 0.3470060671158818
0.6909655 0.8997863888787188 0.3391322363281236
0.6929654 0.9030266090436327 0.33038325369956
0.6949653 0.9062023278870027 0.322589969736488
0.6969652 0.9094546310396832 0.31387105902751594
0.6989651 0.9120332791555612 0.3060665610156663
0.700965 0.9151789831741217 0.2974534298796881
0.7029649 0.9179223160512048 0.2896431948471366
0.7049648 0.9207717244947677 0.2814457982686015
0.7069647 0.9235800068189486 0.27350239040299545
0.7089646 0.9264286006681232 0.26534359819087855
0.7109645 0.9289372800296295 0.25727553912213863
0.7129644 0.9311568748321294 0.2493087833789921
0.7149643 0.9338414593796551 0.24141432485050057
0.7169642 0.9359402031814691 0.233439376789202
0.7189641 0.9376119464627536 0.2251585561877354
0.720964 0.9396752921443013 0.21725647127269282
0.7229639 0.9416346915234481 0.20906103349293323
0.7249638 0.9434867880222045 0.2012298219086161
0.7269637 0.9450790319317813 0.1927216581190239
0.7289636 0.945985521721866 0.18488648571210542
0.7309635 0.9480640308038276 0.17678647423457577
0.7329634 0.9495002021733067 0.16819328520880955
0.7349633 0.9500861444121953 0.16028706610854992
0.7369632 0.9515435095725591 0.1518804453901959
0.7389631 0.9528125357151335 0.14368046740520748
0.740963 0.9535783444638254 0.1353517450351653
0.7429629 0.9548042047746133 0.12639417724635918
0.7449628 0.9553508958919738 0.11825509782039345
0.7469627 0.9564719687275838 0.10918220747637544
0.7489626 0.9574148279273086 0.10059059069167264
0.7509625 0.9577025228067495 0.09257024783098416
0.7529624 0.9586338520750473 0.0834950809049644
0.7549623 0.9595388784588477 0.07484754519279546
0.7569622 0.9596676659835817 0.06671322652946846
0.7589621 0.9607003247931315 0.05766887139570423
0.760962 0.9609404156686028 0.049312077339387014
0.7629619 0.9615896251352769 0.040716019379943166
0.7649618 0.9620936643120046 0.032335982865496174
0.7669617 0.9619916316345815 0.023675762386463323
0.7689616 0.9621553666851014 0.015094558074970524
0.7709615 0.962257723398927 0.006665145338250994
0.7729614 0.9624927561234118 -0.001855337678990987
0.7749613 0.9622975885071148 -0.010059427577395988
0.7769612 0.961989198925938 -0.01849712275468056
0.7789611 0.9619395274063391 -0.026829297759070045
0.780961 0.9614668097429021 -0.03552325002622425
0.7829609 0.961215968442907 -0.04347177666573224
0.7849608 0.9606862650071988 -0.051930734460080646
0.7869607 0.960118166190492 -0.06028689386974986
0.7889606 0.9594457227781192 -0.0691019276350591
0.7909605 0.9581468455270943 -0.07739999846020015
0.7929604 0.957543686084351 -0.08547388145308343
0.7949603 0.9567875517503983 -0.09399291979568736
0.7969602 0.9557440618799389 -0.10210564636503197
0.7989601 0.9540600307808883 -0.11045870049387868
0.80096 0.9532742436337414 -0.11929159927621207
0.8029599 0.9520624520158159 -0.12765722012884895
0.8049598 0.951045685169833 -0.1363379293023278
0.8069597 0.9499019839563875 -0.14497535452189947
0.8089596 0.9481306159917319 -0.15364418002106695
0.8109595 0.9468565134412466 -0.1620421891520038
0.8129594 0.9454905105379482 -0.17065356396628373
0.8149593 0.9438719987456677 -0.17905754288097087
