! Created with skrf 1.8.0 (http://scikit-rf.org).
# GHz S RI R 50.0 
!freq ReS11 ImS11
0.001 -0.8629173301156876 0.06767015437118507
0.0029999 -0.9589483440856115 0.027462256608886015
0.0049998 -0.9583977021762731 0.024767845539838296
0.0069997 -0.9556685508217209 0.032212626301211356
0.0089996 -0.9561720678729724 0.03856947964861729
0.0109995 -0.9543962829950836 0.04644114108561892
0.0129994 -0.9542136560183652 0.05520763617728719
0.0149993 -0.9535572694536123 0.06430223201029239
0.0169992 -0.9529299988026704 0.07088595548865129
0.0189991 -0.9527467575736431 0.07836508679027776
0.020999 -0.951761603117519 0.08690488772386257
0.0229989 -0.9506955819295192 0.09483611450132684
0.0249988 -0.9493065816516768 0.10258362685986366
0.0269987 -0.9485983567634646 0.11054895389889688
0.0289986 -0.9473651189225443 0.11842028151545077
0.0309985 -0.9460714815578315 0.12613883750226115
0.0329984 -0.9448059038704191 0.13411509192154059
0.0349983 -0.943558918595038 0.1417571285886401
0.0369982 -0.9417365691156762 0.14979048815680207
0.0389981 -0.9399627736524389 0.15736362734688536
0.040998 -0.9388878488628079 0.16565635721781513
0.0429979 -0.93640237683706 0.17328588233497694
0.0449978 -0.9346747810613665 0.18082256872437297
0.0469977 -0.9334245436672496 0.1890127551539207
0.0489976 -0.9307188585153906 0.19656086286279018
0.0509975 -0.9285287598176456 0.20445543835352686
0.0529974 -0.9268638399044845 0.21260999856112622
0.0549973 -0.9240485781453054 0.22118192391000835
0.0569972 -0.92243632467172 0.2285109704005943
0.0589971 -0.9201783204897769 0.23691424607827713
0.060997 -0.9187182382188765 0.24521157125939408
0.0629969 -0.9162320251513345 0.25247375889800694
0.0649968 -0.9136583220962742 0.26083803917883225
0.0669967 -0.9121656156757826 0.26895838794248395
0.0689966 -0.9098513247479748 0.2760946621758525
0.0709965 -0.9077028397687642 0.28455686131965974
0.0729964 -0.9047662818955524 0.29238682733094523
0.0749963 -0.9029758407864579 0.29966076884297993
0.0769962 -0.9010983497330287 0.30745326143958845
0.0789961 -0.8983268152492165 0.31460132655054224
0.080996 -0.8957170773077057 0.32261341943260513
0.0829959 -0.8929488490915964 0.3302085861125863
0.0849958 -0.8909577667915696 0.3370969980563006
0.0869957 -0.8882193079812241 0.3447058837571181
0.0889956 -0.885440470878012 0.3516233827503342
0.0909955 -0.8824656608955125 0.3588440732426859
0.0929954 -0.8796095522545296 0.3659724087089721
0.0949953 -0.8762789281238248 0.3735488151200437
0.0969952 -0.8730865762293046 0.3801154378641053
0.0989951 -0.8697926877363071 0.38749787557801085
0.100995 -0.8677490067366813 0.394957526261986
0.1029949 -0.8643714722907876 0.40161280043766145
0.1049948 -0.8610214631577857 0.4087715991157635
0.1069947 -0.8572686979829442 0.4153956337405763
0.1089946 -0.8533503643436016 0.42224190903001463
0.1109945 -0.8491542476701333 0.42910883721925863
0.1129944 -0.8453938265046443 0.4359924645598201
0.1149943 -0.8410796646027885 0.442762831274583
0.1169942 -0.8366835878909242 0.44963482656942516
0.1189941 -0.8323759841383641 0.4566500913512009
0.120994 -0.8279541937047803 0.46374153091171366
0.1229939 -0.8236726060774251 0.4708433922007542
0.1249938 -0.8193135335172221 0.47781628335915644
0.1269937 -0.8149875282190867 0.48506827845778294
0.1289936 -0.8102898947307436 0.4924954094033689
0.1309935 -0.8062574628846486 0.49952047443955255
0.1329934 -0.8014784514201911 0.5062457337425394
0.1349933 -0.7967477005774195 0.5136652393765074
0.1369932 -0.7925948261451805 0.5202683987766724
0.1389931 -0.7877619550464081 0.5274745902019813
0.140993 -0.7834448655643427 0.5344943656220974
0.1429929 -0.7782081882998504 0.5408659378422241
0.1449928 -0.774582982282046 0.5482985793373257
0.1469927 -0.7695538339025613 0.5553192627409952
0.1489926 -0.7647241658270441 0.562427891295433
0.1509925 -0.7600659710277096 0.5685883688032769
0.1529924 -0.7553409625679715 0.5753535017724236
0.1549923 -0.7509021731938597 0.5824641173119594
0.1569922 -0.7458287880007297 0.5885187960559504
0.1589921 -0.7411919390301567 0.5951016017036508
0.160992 -0.7361861465472253 0.6015940668572008
0.1629919 -0.7314125102297464 0.607665141928694
0.1649918 -0.7260139330723867 0.6139913526233051
0.1669917 -0.7211038953183071 0.6198768606979012
0.1689916 -0.716369088190152 0.6261824811966025
0.1709915 -0.7107544389074962 0.6321655714758458
0.1729914 -0.70551117558544 0.6380161768005297
0.1749913 -0.7002612134624878 0.6439416043311954
0.1769912 -0.6948800616666606 0.6496834468188062
0.1789911 -0.6894147138057762 0.6553356741634495
0.180991 -0.6836106983925373 0.661128437844875
0.1829909 -0.6780678917536609 0.6666907472991669
0.1849908 -0.6721976610587477 0.6725422393139924
0.1869907 -0.6665524822107463 0.6779625592984182
0.1889906 -0.6602622879280283 0.6836728930172146
0.1909905 -0.6542107334617149 0.6894239514179509
0.1929904 -0.6480237744387756 0.6949583474043758
0.1949903 -0.6420200727881434 0.700662013383113
0.1969902 -0.6356743036875548 0.705736146905912
0.1989901 -0.6294468431134029 0.7116583021673912
0.20099 -0.6229712318482549 0.7170431205363715
0.2029899 -0.6168760853180154 0.7223414959271902
0.2049898 -0.6103596813691686 0.727467280904244
0.2069897 -0.6038458628607523 0.7329580298892616
0.2089896 -0.5973543458955962 0.7381665898803264
0.2109895 -0.5911282162035394 0.7436259768836708
0.2129894 -0.584173665676122 0.7491750657931614
0.2149893 -0.5776651660108162 0.7541549719476587
0.2169892 -0.5709733946940171 0.7597523168723768
0.2189891 -0.5640575281266283 0.7648307990755111
0.220989 -0.5576357390425369 0.7698906480237784
0.2229889 -0.5507829607780186 0.7745398153354229
0.2249888 -0.5435937890166493 0.779556647241011
0.2269887 -0.5369647505975254 0.7843279293912035
0.2289886 -0.5297398744315274 0.7892559571774819
0.2309885 -0.5226843298922192 0.794344991967329
0.2329884 -0.5157332203870916 0.7988435233150459
0.2349883 -0.5088695563515591 0.8036108180459695
0.2369882 -0.5014382658575773 0.8081477921519763
0.2389881 -0.4945146256728104 0.8128126147513426
0.240988 -0.4874483342269755 0.8173062729944218
0.2429879 -0.4803186663241341 0.8218264041697603
0.2449878 -0.47304931720502014 0.8261077199106154
0.2469877 -0.46563886308285074 0.8303040197338861
0.2489876 -0.4587268048550439 0.834913590974789
0.2509875 -0.45124254912937567 0.8392505720794645
0.2529874 -0.4440483374428461 0.8435777628956902
0.2549873 -0.43679504819156656 0.8479022441455938
0.2569872 -0.4295272013437338 0.8519882058628896
0.2589871 -0.4222574900312551 0.8560404110465807
0.260987 -0.4151696222635652 0.8600940492205316
0.2629869 -0.40762250117073634 0.864041127921684
0.2649868 -0.4000136354488864 0.8675204951211243
0.2669867 -0.3932231709506365 0.8710817138942445
0.2689866 -0.38542322435309107 0.8748075220167757
0.2709865 -0.37812376357398503 0.8784661846362941
0.2729864 -0.3706423353993774 0.8814297682688789
0.2749863 -0.36328280087961046 0.8847550309620938
0.2769862 -0.355829103592003 0.8881027793339387
0.2789861 -0.34842380589346666 0.8905091385961167
0.280986 -0.34087972124264954 0.8934075638956894
0.2829859 -0.33314584972109074 0.8959446208200357
0.2849858 -0.32527665992735155 0.8984080226531014
0.2869857 -0.31734070007026016 0.9011013872233093
0.2889856 -0.30950275265203653 0.9034539398537551
0.2909855 -0.3011154687695219 0.9059968741678113
0.2929854 -0.2932028474863199 0.9078890913799398
0.2949853 -0.28491398881321306 0.9100669653851883
0.2969852 -0.2765367822532861 0.912292010586166
0.2989851 -0.26822246785037773 0.9139972712205874
0.300985 -0.2595342860427155 0.9155268846389278
0.3029849 -0.2507722943882004 0.9170803819847714
0.3049848 -0.24204447800213186 0.9189429804723717
0.3069847 -0.2329497094455325 0.9207967587628564
0.3089846 -0.22397571719872617 0.9218936077960465
0.3109845 -0.2150171540311392 0.9237934384992774
0.3129844 -0.20562032238386801 0.9253458477733313
0.3149843 -0.1962827447107361 0.9268394587058262
0.3169842 -0.18668453871233126 0.9286341226717434
0.3189841 -0.17765396668834668 0.9302095900032294
0.320984 -0.16775449681624585 0.9315475443394009
0.3229839 -0.1588258014436761 0.9330396602667662
0.3249838 -0.1497659324355562 0.9339835307566905
0.3269837 -0.14018176928450335 0.935675185486597
0.3289836 -0.13083052867650105 0.9371791384913506
0.3309835 -0.12189252777081977 0.9387401278940574
0.3329834 -0.11299231804626098 0.9407103548798453
0.3349833 -0.10405629768284473 0.9425234207850689
0.3369832 -0.09518572193498542 0.9452130253751574
0.3389831 -0.08593592503648706 0.9469578464891003
0.340983 -0.0770767406904881 0.9490727678234091
0.3429829 -0.06844753751050434 0.9512820842826495
0.3449828 -0.0596973725598563 0.9528325915542221
0.3469827 -0.0510404237679316 0.9543528517558416
0.3489826 -0.04248174101402471 0.9557142931228897
0.3509825 -0.033794229939670135 0.9569572211337882
0.3529824 -0.025338749910106092 0.9583584293343439
0.3549823 -0.017041412828929754 0.9590463121105866
0.3569822 -0.008467219141727725 0.9597423181101665
0.3589821 -0.0007979848523768027 0.9601845808751704
0.360982 0.007685845603660639 0.9609346617063405
0.3629819 0.015798839548259544 0.9612815994297623
0.3649818 0.024284521871377474 0.9604118436396814
0.3669817 0.03269090744017962 0.9603432056350117
0.3689816 0.040744303082863836 0.9598332218098122
0.3709815 0.049488649071479554 0.9591805587658063
0.3729814 0.05736392871232562 0.958326067068335
0.3749813 0.06602278896388217 0.9570252147632619
0.3769812 0.07488537975785034 0.9561096120413825
0.3789811 0.08369796897957796 0.9554211641940753
0.380981 0.09233294386488716 0.9536292702510367
0.3829809 0.10155914452261286 0.9519419659179686
0.3849808 0.10998047193817932 0.9503613758800624
0.3869807 0.11963827020403389 0.9487546450500925
0.3889806 0.12904752827270138 0.9471606633100359
0.3909805 0.1382825598994564 0.9446248157571446
0.3929804 0.1480469683327774 0.9432623350788658
0.3949803 0.1574658045891576 0.9411909185254638
0.3969802 0.16711660744314213 0.9397240658841767
0.3989801 0.17678055381390514 0.9380625132114806
0.40098 0.18631349727702157 0.9362708162463573
0.4029799 0.1960059893678857 0.9346259512520347
0.4049798 0.20578539855524047 0.9327899345343083
0.4069797 0.2149930542318527 0.9314894529222569
0.4089796 0.22485909762543133 0.929085661838683
0.4109795 0.23433205821170683 0.9276141768007744
0.4129794 0.24352302859988179 0.9258128526850429
0.4149793 0.2535964969726736 0.9242641447457537
0.4169792 0.2623863889894819 0.9225461059162657
0.4189791 0.27153058040027644 0.9206043727503875
0.420979 0.28056055621968434 0.9188445974264732
0.4229789 0.2894227094677641 0.9167788650495067
0.4249788 0.29809167825122435 0.9148874058049264
0.4269787 0.30666344216337016 0.9124785576493375
0.4289786 0.3149994614572837 0.9103775101305135
0.4309785 0.3237282439320053 0.9077335404967406
0.4329784 0.33195782534063273 0.9051090090232381
0.4349783 0.3401155777956796 0.9016125672517791
0.4369782 0.3481142233531425 0.8985381322890991
0.4389781 0.35605338107069545 0.8952088245507106
0.440978 0.364551091687086 0.8915616592031435
0.4429779 0.37276966290862146 0.8881770099113575
0.4449778 0.38073426076930655 0.8844739078322003
0.4469777 0.3889324581335826 0.8801892638596013
0.4489776 0.39698927489950675 0.8758606320540314
0.4509775 0.4052873494543337 0.871298139877088
0.4529774 0.4134041966233927 0.8666915775041056
0.4549773 0.42175902341037097 0.8622897534627084
0.4569772 0.43028504522485295 0.8572485563452453
0.4589771 0.438780047279005 0.8522802442726076
0.460977 0.4475962736913467 0.8471319715243181
0.4629769 0.456320677728096 0.8425234001485084
0.4649768 0.46508146868991324 0.8377238482641468
0.4669767 0.4735833243002746 0.8327039442515232
0.4689766 0.4825619790254051 0.8275355973339739
0.4709765 0.4912781848477515 0.8224541779119056
0.4729764 0.4999781259862815 0.8177605619292094
0.4749763 0.5087045241114379 0.8123255412489663
0.4769762 0.5172794503724784 0.8072417208859107
0.4789761 0.5265965397358827 0.8020662860284122
0.480976 0.5353540569305092 0.7969628633838801
0.4829759 0.5438640836884165 0.7916515145491629
0.4849758 0.5523330555134469 0.7869694050776983
0.4869757 0.5608281963174591 0.7817396744317375
0.4889756 0.5692613222240729 0.7767950078378201
0.4909755 0.5774425663200154 0.7718570092582655
0.4929754 0.5854191636608869 0.7665570684761275
0.4949753 0.5933118437438339 0.7618104395281908
0.4969752 0.6009197194226048 0.7563062147331758
0.4989751 0.6081820696559498 0.7511170098546809
0.500975 0.615085763067414 0.7457796663591073
0.5029749 0.6225751025498257 0.740274021840708
0.5049748 0.6298858200928228 0.7347105365452405
0.5069747 0.6365593911066559 0.7290534086563605
0.5089746 0.6436102036917527 0.7232620647149756
0.5109745 0.650850781209779 0.7169699105656527
0.5129744 0.6576386169345791 0.7106851857067178
0.5149743 0.6639226683692876 0.7044086267150184
0.5169742 0.6702821778917117 0.6980313988274122
0.5189741 0.6769745607959325 0.6909056068401573
0.520974 0.6835516635876855 0.6838752210264463
0.5229739 0.6902932207998873 0.6767564806376142
0.5249738 0.6964795697918725 0.6696377235774957
0.5269737 0.7028518967817073 0.6624373358003167
0.5289736 0.7088759820794157 0.6549158864873109
0.5309735 0.715574723503307 0.64769693522414
0.5329734 0.7212951147721693 0.6396313739055409
0.5349733 0.7278594631142026 0.6315001159271689
0.5369732 0.7338629506811155 0.623912331207628
0.5389731 0.7404802597221483 0.6159587975676206
0.540973 0.7469403298042789 0.6077772016986035
0.5429729 0.752975227745631 0.5998576933170094
0.5449728 0.7595694299636578 0.5917797926671932
0.5469727 0.7657782111335694 0.5838262181048932
0.5489726 0.77193367214868 0.5757711947542014
0.5509725 0.7780052092049192 0.5677194649319893
0.5529724 0.7844282466358867 0.5593503233469264
0.5549723 0.7903981137702617 0.5512025119226239
0.5569722 0.796551208811321 0.543398030125339
0.5589721 0.8026060772291992 0.5352797258544535
0.560972 0.8085648485662809 0.5271207396112145
0.5629719 0.8146042047477372 0.5188736101217654
0.5649718 0.8202079341740586 0.5111031753709386
0.5669717 0.8255743968470157 0.5029170958196364
0.5689716 0.8307356574413887 0.4947847430742309
0.5709715 0.83586829610111 0.4869579873802863
0.5729714 0.8407719525764511 0.47878721227626764
0.5749713 0.8457254811649867 0.47013308658321035
0.5769712 0.8508667635177032 0.4620080989410009
0.5789711 0.8556449264413629 0.4539417604140441
0.580971 0.8603446858569038 0.4454884823062725
0.5829709 0.8640968725632522 0.4373442961855536
0.5849708 0.8686758910377089 0.4284168498571928
0.5869707 0.8728216850143691 0.4201027331247249
0.5889706 0.876806656489528 0.4109940808321031
0.5909705 0.8807252185067265 0.4020333154288436
0.5929704 0.8845104371676764 0.3926139185141967
0.5949703 0.8879322134530283 0.38381955256497907
0.5969702 0.892456069597388 0.37460881942021296
0.5989701 0.8958142302692401 0.3655560420101392
0.60097 0.8986020998909432 0.3562815130653113
0.6029699 0.9020755481222911 0.34678434561360183
0.6049698 0.9053161641572586 0.3372994900276178
0.6069697 0.9087977054513964 0.32834599447218626
0.6089696 0.9121515890814583 0.3181693291848603
0.6109695 0.915260459366214 0.308482862956966
0.6129694 0.9185228250078632 0.2986634766288219
0.6149693 0.9219496576622774 0.2892631665599363
0.6169692 0.9247561858236624 0.2794239260311251
0.6189691 0.9277167310603063 0.26986143575009897
0.620969 0.9304199789305304 0.25975220730931226
0.6229689 0.9333427641306395 0.2505792209369846
0.6249688 0.9358489239815713 0.24063331264575064
0.6269687 0.9386523152977576 0.23088982789740797
0.6289686 0.941106823039235 0.2212280935166407
0.6309685 0.9436113293906809 0.21187654866375516
0.6329684 0.9457070056813781 0.2022029954082854
0.6349683 0.9477738022904035 0.19236821513052316
0.6369682 0.9499233134604931 0.18307745696868402
0.6389681 0.9519748482376316 0.17317628852812647
0.640968 0.9541303699932829 0.164041862235015
0.6429679 0.9558175733590346 0.15382646338400363
0.6449678 0.9570055316782347 0.14469252806524247
0.6469677 0.9584905606499856 0.13507954408991513
0.6489676 0.96014203387754 0.12477751385001928
0.6509675 0.9610276092176042 0.11571513009194645
0.6529674 0.9620089194806473 0.10585791567703305
0.6549673 0.9631360093202361 0.09576835905719819
0.6569672 0.9639161398315581 0.08656331673627815
0.6589671 0.9644814523701382 0.07647220400191183
0.660967 0.9650648350237652 0.06596810041591741
0.6629669 0.9653151382324314 0.05664679473483349
0.6649668 0.9661210593624064 0.046733524498403525
0.6669667 0.9665808288415245 0.03670082516263372
0.6689666 0.9666965042453797 0.026510172119971358
0.6709665 0.9669027266527541 0.01653181122529098
0.6729664 0.9669603517149613 0.006252551487111596
0.6749663 0.9668888635444968 -0.00351886512614763
0.6769662 0.9667892408433999 -0.013389274560916237
0.6789661 0.9666226468532249 -0.023304582323253067
0.680966 0.966352274111892 -0.033199110332436915
0.6829659 0.9659568462110473 -0.043180159154733194
0.6849658 0.965316896040072 -0.05292451613690226
0.6869657 0.9650449541352109 -0.06262594019961643
0.6889656 0.9642859544365957 -0.07268566826495389
0.6909655 0.9637104886040859 -0.08232942685404115
0.6929654 0.9626156193069548 -0.09244896264542453
0.6949653 0.9617014148301933 -0.1017854668868014
0.6969652 0.9605167508292505 -0.1114348517554637
0.6989651 0.9595252458294713 -0.1207607288016642
0.700965 0.9579845082819156 -0.13082837027725147
0.7029649 0.9567090626634399 -0.14018615145203828
0.7049648 0.955229106988988 -0.14972924093039106
0.7069647 0.9534364793516602 -0.15898469080191457
0.7089646 0.9511536734502574 -0.16894215807101187
0.7109645 0.9494832422620905 -0.17809962508115887
0.7129644 0.9473590287046962 -0.1881471512035886
0.7149643 0.9452549585561223 -0.19775235601933377
0.7169642 0.9428913805724909 -0.20766625252662207
0.7189641 0.9403684136303927 -0.21703302214990894
0.720964 0.9380251337796796 -0.2265050829509527
0.7229639 0.935491314132999 -0.23628230552142138
0.7249638 0.9326717255334024 -0.2460431411984211
0.7269637 0.9297766290898171 -0.2554028384708913
0.7289636 0.9272846277647495 -0.26494264452944943
0.7309635 0.9244014635396672 -0.27468900859481593
0.7329634 0.9213142122263988 -0.2846041337426159
0.7349633 0.918335333392282 -0.2939393281319148
0.7369632 0.9155885180214646 -0.3035434928351257
0.7389631 0.9125014476513296 -0.3134304665793538
0.740963 0.9097583603697035 -0.32279781970496874
0.7429629 0.9067096219301007 -0.3319433944416292
0.7449628 0.9036097903091175 -0.340945039384788
0.7469627 0.9002089799226559 -0.350370716502977
0.7489626 0.8968715461419352 -0.35953581693809117
0.7509625 0.8933371249028702 -0.3685568579577232
0.7529624 0.8899541280401009 -0.37792446198605956
0.7549623 0.8867501257841353 -0.38631771572321505
0.7569622 0.8830331097957627 -0.39469187764066427
0.7589621 0.8791318511929308 -0.40351210782216235
0.760962 0.8751200076545869 -0.4116862137075536
0.7629619 0.8712660172247694 -0.41970702647528213
0.7649618 0.8675336983620306 -0.4283671953127379
0.7669617 0.8631046512018549 -0.4363929317994577
0.7689616 0.8587457121864688 -0.4446795966374934
0.7709615 0.8544375706259225 -0.4526999937388805
0.7729614 0.8503499771795413 -0.4608343085714318
0.7749613 0.8447513647862063 -0.46828332373578485
0.7769612 0.8394671006557811 -0.4759233519048482
0.7789611 0.8343950627324564 -0.4836396736035641
0.780961 0.829309228715513 -0.49142233634579074
0.7829609 0.8240567969573009 -0.4991528604257297
0.7849608 0.8186711338404671 -0.5068404744749871
0.7869607 0.812841976061554 -0.5146194338103447
0.7889606 0.8068275494375816 -0.522735244056254
0.7909605 0.8006852474742636 -0.5306699039446042
0.7929604 0.7948340464425002 -0.5383181694070205
0.7949603 0.7889563944230531 -0.5463027468869673
0.7969602 0.7828360435308414 -0.5543330010713464
0.7989601 0.7764637256484954 -0.5624160448490391
0.80096 0.7704422993159994 -0.5703081064584624
0.8029599 0.7645713994197735 -0.578293313834771
0.8049598 0.7586500775363656 -0.586822543324805
0.8069597 0.7526790348386726 -0.5954180025152247
0.8089596 0.7465442007406885 -0.6035117518537786
0.8109595 0.7404439258330657 -0.61104773570058
0.8129594 0.7348233749236481 -0.6190716242732845
