! Created with skrf 1.8.0 (http://scikit-rf.org).
# GHz S RI R 50.0 
!freq ReS11 ImS11
0.001 -0.6906311216031946 0.20659643958158325
0.0029999 -0.9715887505660724 0.030331715868211706
0.0049998 -0.9691422184130463 0.028844138519538376
0.0069997 -0.9579877797514962 0.03395982280236465
0.0089996 -0.9604741640472111 0.03436250039532629
0.0109995 -0.9598396587842527 0.0398599343891769
0.0129994 -0.9600642681047105 0.04613980897818892
0.0149993 -0.9590680110181787 0.05417619574525245
0.0169992 -0.9588089056390818 0.058626135227730636
0.0189991 -0.9585485825227416 0.06482218195439271
0.020999 -0.9578156382468929 0.07110493184188627
0.0229989 -0.9570995112060494 0.07744688253615228
0.0249988 -0.9560044355683751 0.08341225548564371
0.0269987 -0.9555359508472123 0.08990521510242735
0.0289986 -0.9546373945895827 0.0960208919740055
0.0309985 -0.953518129202938 0.10219777916637482
0.0329984 -0.9527335569853732 0.10871095712707596
0.0349983 -0.9518794004814027 0.11517118021862766
0.0369982 -0.9504574434078352 0.12154213463501351
0.0389981 -0.9492856848506398 0.12775783000466517
0.040998 -0.9485787842663779 0.13411450665029628
0.0429979 -0.9467757983225253 0.14041931539541302
0.0449978 -0.9456995086601883 0.14670560012148404
0.0469977 -0.9447271576577271 0.1531803962862704
0.0489976 -0.9429158266294699 0.15950139143612813
0.0509975 -0.9413160918837242 0.1661700343383184
0.0529974 -0.9404219871867875 0.17282479514365134
0.0549973 -0.9382037351733727 0.18022068576344907
0.0569972 -0.9371791231996063 0.18593768452281187
0.0589971 -0.9355735153812392 0.1925393493105508
0.060997 -0.9346250829278253 0.19962670031871022
0.0629969 -0.9331388982704939 0.20540452774821855
0.0649968 -0.9311151262130962 0.21221085660491892
0.0669967 -0.930656454911498 0.21921277524695382
0.0689966 -0.9288874590324713 0.22497193030375667
0.0709965 -0.9275254863148326 0.23159803814292204
0.0729964 -0.9260203776811391 0.2382403627169385
0.0749963 -0.9243719048983092 0.24437833089369082
0.0769962 -0.9235516630471905 0.25068696107428173
0.0789961 -0.9214876746415009 0.2566013799032115
0.080996 -0.9196655412208189 0.2632011232432937
0.0829959 -0.9179188081159302 0.26951688406520236
0.0849958 -0.9168282920173491 0.2748955426210479
0.0869957 -0.9152010779638882 0.2812885648721971
0.0889956 -0.91307145245439 0.28669066485565614
0.0909955 -0.9113358374057619 0.29295824583346003
0.0929954 -0.9091644572488329 0.2987556382482739
0.0949953 -0.907014396517376 0.30478169270062033
0.0969952 -0.9049432786853815 0.3103650803779146
0.0989951 -0.902526018091712 0.31627525803250195
0.100995 -0.9016837344850983 0.3224574523732634
0.1029949 -0.8993773728909916 0.32828414891363655
0.1049948 -0.8973578526512301 0.3342844932092696
0.1069947 -0.8946153915404664 0.3395398403534103
0.1089946 -0.8920300555666766 0.34534876864734537
0.1109945 -0.8893174442433529 0.35102995252137326
0.1129944 -0.8865661669344169 0.3568844622763932
0.1149943 -0.8834047013329371 0.3625697226751975
0.1169942 -0.8805216361949728 0.3685677129404344
0.1189941 -0.8777355323500818 0.37440147201878216
0.120994 -0.8747508631676028 0.38038891901958444
0.1229939 -0.8717399545277007 0.3865573976279315
0.1249938 -0.8687514337606399 0.3925259386812453
0.1269937 -0.8658604803730283 0.39821885445312366
0.1289936 -0.8630968919413521 0.40459999544962033
0.1309935 -0.8602090726894535 0.4108352507772135
0.1329934 -0.8571460474674191 0.41658175666915914
0.1349933 -0.8536173472630577 0.42298330640615156
0.1369932 -0.85085734457961 0.42837240080150135
0.1389931 -0.8478565926071833 0.4348988271192955
0.140993 -0.8446436097075731 0.44039287820187994
0.1429929 -0.8414702378666508 0.44649924007588715
0.1449928 -0.839135973979902 0.4526415947630731
0.1469927 -0.8359172522015194 0.4583673855788914
0.1489926 -0.8326114241164997 0.46482482935110125
0.1509925 -0.8294250148257618 0.46975801502228265
0.1529924 -0.8261361370859837 0.4762570357295536
0.1549923 -0.8236445690974553 0.4821578209014424
0.1569922 -0.8203935946670895 0.4870708062011545
0.1589921 -0.8172083570621214 0.49320676428661187
0.160992 -0.813831712323813 0.49878016809402326
0.1629919 -0.8104812221738564 0.5041012794627445
0.1649918 -0.8070602568731216 0.5097070916895591
0.1669917 -0.8041723332803958 0.5147328470400467
0.1689916 -0.8008751524370851 0.5203547402856128
0.1709915 -0.7971709491412592 0.5257566841734551
0.1729914 -0.7934617448750533 0.5306939966715651
0.1749913 -0.7902102836975725 0.5362209372034219
0.1769912 -0.786539467938648 0.5412785310654742
0.1789911 -0.7831526346747276 0.5465082980479476
0.180991 -0.7791935962748602 0.5517316185005594
0.1829909 -0.7752905855881884 0.556674685688548
0.1849908 -0.7713321695895069 0.5620549529868494
0.1869907 -0.76739424926503 0.566939400404198
0.1889906 -0.7634407401874056 0.5721462528092042
0.1909905 -0.7594125099516769 0.5774439632296022
0.1929904 -0.7552898046888655 0.5826539931989538
0.1949903 -0.7510996438503241 0.5876617580493788
0.1969902 -0.7468396724962197 0.5928445196160023
0.1989901 -0.7427575589826296 0.5980313012022433
0.20099 -0.7386884771626501 0.6032828318608465
0.2029899 -0.7341003516793491 0.6083290681000467
0.2049898 -0.7301319164932628 0.6129409023388657
0.2069897 -0.7253192949745382 0.6183395125277379
0.2089896 -0.7213468901890946 0.623191791647449
0.2109895 -0.7170949453798686 0.6279640261574311
0.2129894 -0.7127624466923999 0.6333961870161114
0.2149893 -0.7079360008362637 0.638574796606704
0.2169892 -0.7037681889656896 0.6431850813778979
0.2189891 -0.69885448966013 0.6488307794028829
0.220989 -0.6947370784549807 0.6534367125791933
0.2229889 -0.6902453496854437 0.6578730070459848
0.2249888 -0.684967777597164 0.6630115356319898
0.2269887 -0.6804252829148711 0.6674606198430403
0.2289886 -0.675561575070466 0.6726297847013033
0.2309885 -0.6711017160091601 0.6775807155473209
0.2329884 -0.6664190593211259 0.6823234746697555
0.2349883 -0.6614323218667721 0.6869924729891852
0.2369882 -0.6566324932655939 0.6917495662447088
0.2389881 -0.6515938466978236 0.6964075561439946
0.240988 -0.6469077775518495 0.7011133342202779
0.2429879 -0.6421689158151005 0.7056798471490283
0.2449878 -0.6372704705542305 0.7100315381383093
0.2469877 -0.6323400717781826 0.7147801594926335
0.2489876 -0.6274821786406594 0.7192201820945653
0.2509875 -0.6226983620980062 0.7243482390652223
0.2529874 -0.6176712852104859 0.7286396959838772
0.2549873 -0.6130486887634541 0.7331510754413224
0.2569872 -0.6082130833168765 0.7377735684542235
0.2589871 -0.6033201912324451 0.7421866990921145
0.260987 -0.5983134140147097 0.7464163623693011
0.2629869 -0.5934955049057273 0.7508662396641534
0.2649868 -0.5885560669733634 0.7545552443922616
0.2669867 -0.5836169537618785 0.7588730312875137
0.2689866 -0.5784736643714545 0.7628211574657396
0.2709865 -0.5738567798424561 0.7669190063922402
0.2729864 -0.5684103485392735 0.77064855461833
0.2749863 -0.5634875965015085 0.7745682544574567
0.2769862 -0.5585924386774299 0.7785271055893671
0.2789861 -0.5534933325919752 0.7821117914125488
0.280986 -0.5482226647056839 0.7849680632367947
0.2829859 -0.5428902784654788 0.7881962012785776
0.2849858 -0.5375543023194507 0.7916779556347542
0.2869857 -0.5321171988263267 0.7950018556470178
0.2889856 -0.5263364471074566 0.7982533767785447
0.2909855 -0.5206085003497332 0.8014847211388174
0.2929854 -0.5150269670118034 0.8050036779873456
0.2949853 -0.5088182680877972 0.8077341025305577
0.2969852 -0.5029270589326793 0.8109368248276121
0.2989851 -0.4970956991050205 0.8139977122233608
0.300985 -0.490890773928002 0.816355003254487
0.3029849 -0.48452372489926315 0.8196829174724836
0.3049848 -0.47787399210972364 0.8225032626461715
0.3069847 -0.47129398590428695 0.8257669339155049
0.3089846 -0.4647364597813499 0.8284951742192379
0.3109845 -0.4580329952586353 0.8315664510082811
0.3129844 -0.4514077835165249 0.8348799236278311
0.3149843 -0.44441182795084794 0.8376728244763572
0.3169842 -0.4375315574240578 0.8410947311266248
0.3189841 -0.43081924143672923 0.8438634741106796
0.320984 -0.42367343183751804 0.8471941092173993
0.3229839 -0.41697308104134395 0.8505816999672616
0.3249838 -0.41025384115583047 0.8532993212030651
0.3269837 -0.4035383417843842 0.8562974800476985
0.3289836 -0.39661118829286635 0.8594633290412085
0.3309835 -0.3899145694461317 0.8628470120479454
0.3329834 -0.3834838701849123 0.8662090530882093
0.3349833 -0.37724061065586934 0.8701966530927958
0.3369832 -0.371201745064947 0.8741836135193997
0.3389831 -0.365043011382562 0.8779388401920395
0.340983 -0.3589227786683508 0.8817364397001896
0.3429829 -0.35301735938872203 0.8854773480723593
0.3449828 -0.34703541358712836 0.889266165379508
0.3469827 -0.3414462969989218 0.8926979055714002
0.3489826 -0.335114894420894 0.8956896839526006
0.3509825 -0.3293263275661827 0.8990028296396212
0.3529824 -0.3234880252817755 0.901720520055048
0.3549823 -0.3177011314805295 0.9045911827965436
0.3569822 -0.311759172086336 0.9073981942205614
0.3589821 -0.30607958080467934 0.9097214638825561
0.360982 -0.3001324767777535 0.9123729304828849
0.3629819 -0.2945857813637357 0.914452873222487
0.3649818 -0.2885140451387177 0.9159715390165595
0.3669817 -0.28261908045968814 0.9171920770739347
0.3689816 -0.27617255253013556 0.9192167794471211
0.3709815 -0.2699903384274437 0.9209187880874897
0.3729814 -0.26367344434148515 0.9220242040821941
0.3749813 -0.257525934229683 0.9233481694040762
0.3769812 -0.2512503629091299 0.9244267221223977
0.3789811 -0.24450432294933447 0.9257474875891113
0.380981 -0.23731747808753975 0.9267946270243754
0.3829809 -0.23062829740685273 0.9280543367115962
0.3849808 -0.22380095063465533 0.929271018090945
0.3869807 -0.21616170802096943 0.9298545003351739
0.3889806 -0.20896763615206135 0.9310909934823949
0.3909805 -0.20144803718644416 0.9321147700176446
0.3929804 -0.1937928314645781 0.9333687894969627
0.3949803 -0.18624638654910158 0.9342808752070821
0.3969802 -0.17828277273327164 0.9360083977939673
0.3989801 -0.1712999175980373 0.9367454736421406
0.40098 -0.1633165320707072 0.9383794199303316
0.4029799 -0.1558069543399367 0.9402676047404229
0.4049798 -0.14814309562819894 0.9414651697006833
0.4069797 -0.14087059238045047 0.9430027056698916
0.4089796 -0.13291673760808598 0.9442909136094024
0.4109795 -0.1262448767996316 0.9461481961268923
0.4129794 -0.11836092159781912 0.9475909127138216
0.4149793 -0.11073127213521079 0.9495574597077642
0.4169792 -0.10384457129936334 0.9510142879408456
0.4189791 -0.09667956592534507 0.9524291528502644
0.420979 -0.0896404296373301 0.9538223666623766
0.4229789 -0.08304043710999491 0.9552276607102097
0.4249788 -0.0761965475730872 0.9565753300585929
0.4269787 -0.06963780312088241 0.957666801849712
0.4289786 -0.06326571799612644 0.958786927652338
0.4309785 -0.056528526148078455 0.9595747828676557
0.4329784 -0.04968653651675302 0.9600653325788564
0.4349783 -0.043059307148323775 0.9599271958527951
0.4369782 -0.03669309728433186 0.9603689668689113
0.4389781 -0.030174364114521606 0.9604510482507379
0.440978 -0.02341985834604511 0.960226225358048
0.4429779 -0.01689224503331697 0.9601714869272876
0.4449778 -0.010182834763454506 0.9600114977557966
0.4469777 -0.003576148653667916 0.9588043319797727
0.4489776 0.0039237131946575285 0.9588731325931126
0.4509775 0.010940216488574843 0.9580879156959169
0.4529774 0.018107782364188398 0.9571231260609159
0.4549773 0.02560653828170219 0.95610207002597
0.4569772 0.0330002890118304 0.9550404734670526
0.4589771 0.04084035750070869 0.954381077765546
0.460977 0.04903812727573407 0.9533924698339717
0.4629769 0.056498234433039446 0.952338418943857
0.4649768 0.06422962882892735 0.9516712128594507
0.4669767 0.07211640002753938 0.950823095145402
0.4689766 0.08009717103233349 0.9503577138366406
0.4709765 0.08838754009782412 0.9493643070502926
0.4729764 0.09615920724399904 0.9488953150283777
0.4749763 0.10436764314833014 0.9485299235801871
0.4769762 0.11219897984390048 0.9478305394601714
0.4789761 0.12088148658891804 0.9475903371837194
0.480976 0.1290016583534511 0.9470258116027442
0.4829759 0.1366566285929357 0.9464695552505387
0.4849758 0.1443221181643306 0.9462802370824854
0.4869757 0.15231632967889427 0.9460899852823226
0.4889756 0.15995996158767378 0.9453432473673902
0.4909755 0.1676268618994306 0.9452365361482915
0.4929754 0.1750777030425052 0.9448529357105346
0.4949753 0.18187115941079599 0.9445232689990305
0.4969752 0.18901466052195512 0.9436625325374555
0.4989751 0.19562156467933653 0.9430925527247226
0.500975 0.20228204755689685 0.9418540329937453
0.5029749 0.2089790530319859 0.9410417645192817
0.5049748 0.21565748851180752 0.9397606101984607
0.5069747 0.22190011969603188 0.9385565409116119
0.5089746 0.22855489595865128 0.9373591146298271
0.5109745 0.2354180052843533 0.9355437667228723
0.5129744 0.24211711862952215 0.9341053997569669
0.5149743 0.2484367541061119 0.932156610944965
0.5169742 0.25449130283921356 0.9298679621707024
0.5189741 0.26142470894383174 0.9279243377627548
0.520974 0.2682876590339378 0.9249108560287312
0.5229739 0.2755892769514535 0.9224388882649589
0.5249738 0.282341258099336 0.9200522503763005
0.5269737 0.2889659209954293 0.9171632412454853
0.5289736 0.2960923611194321 0.9143588033304634
0.5309735 0.3026855840559322 0.9113647187823124
0.5329734 0.310055504648987 0.9080332390133403
0.5349733 0.31712425597319605 0.9046154061033518
0.5369732 0.3244185361924886 0.9015416109079334
0.5389731 0.33230130346679115 0.8985620522868795
0.540973 0.3392284145330316 0.8945427956904936
0.5429729 0.34692823172127596 0.8915609202945436
0.5449728 0.3545441417275314 0.8885647168253891
0.5469727 0.3623475189041831 0.885386584264271
0.5489726 0.3699723742122561 0.8822746416487065
0.5509725 0.3775632765891132 0.8792083415070803
0.5529724 0.38537031564617596 0.87622292957284
0.5549723 0.39300690911923697 0.8733479894877608
0.5569722 0.4004826165777644 0.8706339974799819
0.5589721 0.4082460510128411 0.8675212835324995
0.560972 0.4156563856835042 0.8649708931616467
0.5629719 0.4232196915393738 0.8619469139589029
0.5649718 0.4305333157260449 0.8599644651726361
0.5669717 0.43782007384306787 0.8567088914458968
0.5689716 0.44427579207826373 0.8539929137762389
0.5709715 0.4509556451556161 0.8509833322517776
0.5729714 0.45743773526400067 0.8479547055659483
0.5749713 0.4641692075923103 0.8446982629868078
0.5769712 0.4708918005256667 0.8415157965961199
0.5789711 0.4766963612899127 0.838746212306665
0.580971 0.48337914196987924 0.8354463937540186
0.5829709 0.4895610376068863 0.8318913385012535
0.5849708 0.49557275231069625 0.8282080178516473
0.5869707 0.5015697124894912 0.8246846088318022
0.5889706 0.507655834454024 0.8199912325640848
0.5909705 0.5135902704173064 0.8157509333028703
0.5929704 0.5199533891295215 0.8109292036280376
0.5949703 0.5257975161659119 0.8067301773702101
0.5969702 0.5317814038584465 0.8022447095054352
0.5989701 0.5382538144715089 0.7976746692561774
0.60097 0.5438904688138578 0.7927935859554668
0.6029699 0.5501404105002571 0.7875468127876616
0.6049698 0.556560272901351 0.782945661269852
0.6069697 0.5623216014185167 0.777578134921973
0.6089696 0.5689970918373585 0.7724863129164536
0.6109695 0.5757102349026207 0.7669976904515745
0.6129694 0.5822213559299063 0.7622738880635105
0.6149693 0.5890158918120688 0.7569708285631612
0.6169692 0.595858251949292 0.7517113215998377
0.6189691 0.6022169307508438 0.7468178139925444
0.620969 0.6087230428087183 0.7415306226460735
0.6229689 0.6158250088082361 0.7364110875319609
0.6249688 0.6220156452600335 0.7314175975173228
0.6269687 0.628932763239362 0.7261338489516712
0.6289686 0.6353459413078263 0.7210503568848988
0.6309685 0.6419122907183921 0.7166739111625993
0.6329684 0.6479319605801983 0.7119027326983949
0.6349683 0.6535607684129182 0.7070722561851942
0.6369682 0.6595033467088155 0.7019693053181917
0.6389681 0.6658212738301532 0.6968669844482421
0.640968 0.6717371235999503 0.6924178339609428
0.6429679 0.6773569085161951 0.6879063112563162
0.6449678 0.6833543945185735 0.6829982488398134
0.6469677 0.688581348008083 0.6780026681721727
0.6489676 0.6938611628001371 0.6730052518385673
0.6509675 0.6987043602596954 0.6682075901498383
0.6529674 0.7037649050170457 0.6627663571115513
0.6549673 0.7087973442152697 0.6576270371892805
0.6569672 0.7133595726231934 0.6523080553361369
0.6589671 0.718112713065338 0.6463862027592726
0.660967 0.7227181812083088 0.640407377393755
0.6629669 0.7271373258936882 0.6345105350416428
0.6649668 0.7320477628301378 0.6283933388255041
0.6669667 0.7361758174152793 0.6221594634665741
0.6689666 0.7409742791636684 0.6155914494857556
0.6709665 0.7459590298954062 0.6089653249932262
0.6729664 0.7502328098846913 0.6025183507147761
0.6749663 0.7539504378972396 0.5956110975406265
0.6769662 0.7589040046914844 0.5884826673892147
0.6789661 0.7632665749225719 0.5817487042717935
0.680966 0.7684178463701817 0.5746794505288056
0.6829659 0.7732317766487714 0.5674711052924257
0.6849658 0.7775251556596907 0.560476831515866
0.6869657 0.7829722355188584 0.5532424643745235
0.6889656 0.7878710110053952 0.546039214926451
0.6909655 0.7927809201762738 0.5397222306175289
0.6929654 0.7976271791874918 0.5319919722656519
0.6949653 0.8024804450472682 0.5256012375471597
0.6969652 0.8075326749990429 0.5182497092129122
0.6989651 0.8115216014505688 0.5116168418855163
0.700965 0.8168405579307267 0.5043969982194345
0.7029649 0.8214286030230258 0.4981573886681578
0.7049648 0.8259014140359957 0.49133251041288084
0.7069647 0.830004717666113 0.48465654022903687
0.7089646 0.8352200201399136 0.4780415573364269
0.7109645 0.8395159045425858 0.4710861218297402
0.7129644 0.8433943302278769 0.465005726229751
0.7149643 0.8474719970254843 0.45847631539464273
0.7169642 0.8513227530114096 0.4518100922846935
0.7189641 0.8552049364400285 0.4451459052164105
0.720964 0.8585865387700196 0.43854920635052724
0.7229639 0.862215084928411 0.43140900805238713
0.7249638 0.8658477579284779 0.42521476675808717
0.7269637 0.8693420839036841 0.41803045051041027
0.7289636 0.8721183192953532 0.41173778677462475
0.7309635 0.8755469860756717 0.40432114681317066
0.7329634 0.8785383695651018 0.3975049701689676
0.7349633 0.8807875689904398 0.39015798295045306
0.7369632 0.8834563765325409 0.38305362585481717
0.7389631 0.8865200586118483 0.3755770782602021
0.740963 0.8890204978722791 0.36844495373310976
0.7429629 0.8918929931784852 0.36073001138073374
0.7449628 0.8942467004750472 0.35259750014303215
0.7469627 0.8967198303383692 0.3449771983025301
0.7489626 0.8995660911343102 0.33680794910565726
0.7509625 0.9017526595463423 0.3294190871930566
0.7529624 0.9043330467781369 0.3210069585011804
0.7549623 0.9071750641930763 0.31321441995093957
0.7569622 0.9091654866865676 0.30512084074803997
0.7589621 0.9120657069284722 0.29721892806389305
0.760962 0.9147136968812949 0.28899266225524667
0.7629619 0.9172096045298422 0.2811982275959218
0.7649618 0.9199482993908887 0.27337979208394847
0.7669617 0.921992621999422 0.26498309304768425
0.7689616 0.9244550457042113 0.25683910488281575
0.7709615 0.926455493651089 0.24894350891004807
0.7729614 0.9289333046589523 0.241420127574973
0.7749613 0.9309732056051583 0.23344521368245558
0.7769612 0.9334014716244755 0.22537063891139678
0.7789611 0.935267268895378 0.21796219574457534
0.780961 0.9374498017013663 0.21002882755274357
0.7829609 0.9389486293680632 0.2024416330554216
0.7849608 0.9411634617229827 0.19477600651044275
0.7869607 0.9428407191771918 0.18739127343701245
0.7889606 0.9443868509283777 0.17908102601532203
0.7909605 0.9460279510413239 0.17180933032761686
0.7929604 0.9473034706038145 0.16413966137263403
0.7949603 0.9489675844501988 0.15619635442495447
0.7969602 0.9498414910235808 0.14897257911058373
0.7989601 0.9510503003039138 0.14079461096888934
0.80096 0.9517241170763009 0.13304061916332904
0.8029599 0.9530083991522376 0.12550924013892015
0.8049598 0.9539813142018974 0.11763521141386014
0.8069597 0.9547708018542793 0.10980804304664216
0.8089596 0.9553994235708623 0.10168084058203156
0.8109595 0.9556438975731313 0.09360310932891791
0.8129594 0.9565336346501265 0.08531153966264066
0.8149593 0.9570951491789127 0.07723650325056165
