! Created with skrf 1.8.0 (http://scikit-rf.org).
# GHz S RI R 50.0 
!freq ReS11 ImS11
0.001 -0.9369000809450083 0.12682059951665625
0.0029999 -0.9392812681009832 0.06744636163080758
0.0049998 -0.9369514716691196 0.007580512991889943
0.0069997 -0.9708896718069855 0.0323185061705229
0.0089996 -0.9622725723268025 0.04323947610831824
0.0109995 -0.9604809259183439 0.050537176839142384
0.0129994 -0.9599519318426329 0.05844221597380028
0.0149993 -0.9584366353929483 0.06821842337112116
0.0169992 -0.9578338747505186 0.07362625694518232
0.0189991 -0.9574685993453177 0.08095956510351221
0.020999 -0.9565384828354195 0.08891223022510858
0.0229989 -0.9554371886127984 0.09661083482528648
0.0249988 -0.9539825158418842 0.10409342435428584
0.0269987 -0.9532190425177082 0.11188539218001504
0.0289986 -0.9519170319997343 0.11963209297867611
0.0309985 -0.9506132186508984 0.127274839150918
0.0329984 -0.9493169300427158 0.13515755343460234
0.0349983 -0.9480093062387531 0.14271704462261675
0.0369982 -0.9460298010286828 0.15065302396290808
0.0389981 -0.9443752937087689 0.15843785219624423
0.040998 -0.9432165057599002 0.16663537756750757
0.0429979 -0.9406677232253406 0.17446670124083508
0.0449978 -0.9388648063861216 0.18194808301422144
0.0469977 -0.9376849527324643 0.1903507826815622
0.0489976 -0.9348407410677064 0.19812350625581204
0.0509975 -0.9326299716857804 0.20599408508815625
0.0529974 -0.9311254873840928 0.21447649316702294
0.0549973 -0.9283921078811164 0.22319904987806016
0.0569972 -0.9264562266306269 0.23062056965296016
0.0589971 -0.9243474281036682 0.2390819572716491
0.060997 -0.9227481098614054 0.247651926440293
0.0629969 -0.9203357367700382 0.2550155689052679
0.0649968 -0.9177529372004628 0.26359268583855333
0.0669967 -0.9161850413473669 0.2715150668033304
0.0689966 -0.913967135308765 0.27917737976735135
0.0709965 -0.9116137718461086 0.2876179989320664
0.0729964 -0.9088798310952706 0.29560848747124335
0.0749963 -0.9072412230377991 0.3031353357956281
0.0769962 -0.9052432078016843 0.3109852741611248
0.0789961 -0.902203662240978 0.3181575925578094
0.080996 -0.8997086189428041 0.32615136430682545
0.0829959 -0.8968292548243135 0.33390779674884274
0.0849958 -0.8948558686523771 0.340783023326755
0.0869957 -0.8921561579413183 0.34842974527486203
0.0889956 -0.8893325061860253 0.35540882866366663
0.0909955 -0.8863590595214996 0.3626199404821723
0.0929954 -0.8833415270612943 0.36984051209618796
0.0949953 -0.8801008486951744 0.3773422485425401
0.0969952 -0.8765971961556699 0.3839264238702861
0.0989951 -0.8737160757306794 0.3911441376580021
0.100995 -0.8716000853494991 0.39872687598285683
0.1029949 -0.8681274403833563 0.4054272665486853
0.1049948 -0.8647175326535435 0.4124039234768089
0.1069947 -0.8608909727861127 0.419004713450521
0.1089946 -0.8570142845956583 0.42603294522722024
0.1109945 -0.8527187197837264 0.4328466322110468
0.1129944 -0.8488073565667629 0.4396229264753043
0.1149943 -0.8445008811655154 0.4463287621458589
0.1169942 -0.8399582477566205 0.45334171780541377
0.1189941 -0.8356008119948193 0.4603282442427271
0.120994 -0.8312364949620469 0.4675568131438131
0.1229939 -0.826874103728906 0.4747908081690766
0.1249938 -0.8223895823396167 0.48177665709470247
0.1269937 -0.8180295419692198 0.48913058010862426
0.1289936 -0.8132994636420106 0.4960515236411187
0.1309935 -0.8090213026206539 0.5037022248234914
0.1329934 -0.8040903496713396 0.5104122150562614
0.1349933 -0.7992932006260479 0.5180346275706831
0.1369932 -0.7951579510941895 0.5246349157048479
0.1389931 -0.7903643118429947 0.5319664609480519
0.140993 -0.7857804198968862 0.538485331367747
0.1429929 -0.7807448562497752 0.5456859510899911
0.1449928 -0.7767078601383437 0.5532095088257043
0.1469927 -0.7718105113275512 0.5600745309170562
0.1489926 -0.7668618453208029 0.5672770452803306
0.1509925 -0.762109229613561 0.5736576808353497
0.1529924 -0.7573727617500532 0.5803323337610139
0.1549923 -0.7531097474843581 0.587391537825456
0.1569922 -0.7477573047576975 0.5937823677026152
0.1589921 -0.7430120007899581 0.6005095798231611
0.160992 -0.7379966239472374 0.6069217980186816
0.1629919 -0.7331117280204763 0.6130510191015905
0.1649918 -0.727894094243517 0.619227990557942
0.1669917 -0.7228209090115043 0.6253275740697632
0.1689916 -0.7178700668476785 0.631740800260263
0.1709915 -0.7126271531625665 0.6376661921322451
0.1729914 -0.7070810646936339 0.6435142049257072
0.1749913 -0.7016413010770611 0.6494610111390156
0.1769912 -0.6964068606460914 0.6552096638680549
0.1789911 -0.6908467389263385 0.6608768494081356
0.180991 -0.685021011431439 0.6666862331705531
0.1829909 -0.6793475708585903 0.6722466967634395
0.1849908 -0.6735440616447679 0.6780778841338293
0.1869907 -0.6678404126701595 0.6835622244562054
0.1889906 -0.6614675796972961 0.6891913361608005
0.1909905 -0.6552616539481636 0.6950363306935761
0.1929904 -0.6491830081432628 0.7004751482500013
0.1949903 -0.6430022781480743 0.706094035572606
0.1969902 -0.6368371810881928 0.7115874250968717
0.1989901 -0.6303263863895638 0.7172326612744652
0.20099 -0.6237627467666126 0.722790582524253
0.2029899 -0.6177966673312713 0.7278759526105884
0.2049898 -0.6112728853253139 0.7328308401229339
0.2069897 -0.6045755428330126 0.7386819845878267
0.2089896 -0.5980687035130569 0.7437294991972723
0.2109895 -0.5916430956244857 0.7492903749346846
0.2129894 -0.5845474607094725 0.7549308448652906
0.2149893 -0.5781500516111235 0.7596866965930641
0.2169892 -0.5713291530822856 0.7652040291516791
0.2189891 -0.5645032430826122 0.7705565421189516
0.220989 -0.5579166696812827 0.7755058256420235
0.2229889 -0.5507413231369638 0.7801589041229473
0.2249888 -0.5434729833144273 0.785302065486035
0.2269887 -0.5368521869023946 0.7900347112143093
0.2289886 -0.5294113419118278 0.7950525585570587
0.2309885 -0.5226180903883659 0.8001141422747626
0.2329884 -0.5156239621055845 0.80461467726916
0.2349883 -0.5084209173936837 0.8094025949202219
0.2369882 -0.5008994434216867 0.8139564614712048
0.2389881 -0.4940123699955695 0.8186045589089269
0.240988 -0.48673478399478703 0.8233032151586752
0.2429879 -0.47949744387186854 0.8277035321532663
0.2449878 -0.4722670380747246 0.8319757976221659
0.2469877 -0.4647441851129387 0.836236402701451
0.2489876 -0.45781447175941564 0.8407660913274615
0.2509875 -0.4503128146529943 0.8452060308439043
0.2529874 -0.4430623185363836 0.8495753898803625
0.2549873 -0.43562224572780023 0.8537730020476325
0.2569872 -0.42861091182083955 0.8581095453953252
0.2589871 -0.4211031032644521 0.8619629999065863
0.260987 -0.41394173248772703 0.8658726780573276
0.2629869 -0.4065032623420708 0.8699054737114535
0.2649868 -0.3988720785578847 0.8731470180535568
0.2669867 -0.3919079880658338 0.8770562851583666
0.2689866 -0.38424855046754536 0.8806298175040366
0.2709865 -0.37686827391754946 0.8842267519609714
0.2729864 -0.3694152602789649 0.8871790740003271
0.2749863 -0.36207778362670107 0.8906908276781296
0.2769862 -0.3544975638218758 0.8938986535143496
0.2789861 -0.3470385027808347 0.8962287345579933
0.280986 -0.33952837756781334 0.8989923499826827
0.2829859 -0.33179207497367347 0.9016012015615246
0.2849858 -0.32384613283343766 0.903965655735407
0.2869857 -0.3159671930955914 0.9066716275324909
0.2889856 -0.3080914355948977 0.9089857245412007
0.2909855 -0.2996224772442686 0.9114246174112905
0.2929854 -0.29157419273873825 0.9133742560155423
0.2949853 -0.28336679240325224 0.9154871371293758
0.2969852 -0.2749930598820102 0.9176272784183249
0.2989851 -0.26651680095762487 0.9193114935744505
0.300985 -0.25797173350429814 0.9206004703450099
0.3029849 -0.24883529239823488 0.9221562263021372
0.3049848 -0.24009042152232218 0.92406545155244
0.3069847 -0.23104864438880807 0.9257978576043249
0.3089846 -0.22191681533544455 0.9267884865414783
0.3109845 -0.21283810701797626 0.9288198763122033
0.3129844 -0.20349152662569775 0.9302591527569419
0.3149843 -0.19404949740377597 0.9320002346532478
0.3169842 -0.18447072211742066 0.9335941725347348
0.3189841 -0.17519741290677468 0.934837311692463
0.320984 -0.1654522311272732 0.9363649930485114
0.3229839 -0.15624433334923207 0.9378754684861081
0.3249838 -0.14723555668265959 0.9389836198511978
0.3269837 -0.13793465440715075 0.9403582778518416
0.3289836 -0.12828450746485648 0.9419133399813504
0.3309835 -0.11937793660449092 0.9433031186591294
0.3329834 -0.110170754403047 0.945410986584658
0.3349833 -0.10151988212023631 0.9473028166432774
0.3369832 -0.09246113693884879 0.950035001885006
0.3389831 -0.08316412044018842 0.9518328528138641
0.340983 -0.07442952238610874 0.953901392428839
0.3429829 -0.06559867916267535 0.9561132246498948
0.3449828 -0.05667282201027446 0.9579980691928229
0.3469827 -0.04801803544807857 0.9591321305850795
0.3489826 -0.039403726035541535 0.9604838541369034
0.3509825 -0.030733707620730348 0.9617535807926121
0.3529824 -0.022264021000005237 0.9632030847362241
0.3549823 -0.014172725485940178 0.9640748509561445
0.3569822 -0.005679991638804872 0.9646914482584926
0.3589821 0.00195902423797039 0.9650105884094258
0.360982 0.010348694252414303 0.9656765806484985
0.3629819 0.018445223643705932 0.9659516265704902
0.3649818 0.02677122168716116 0.965236220935113
0.3669817 0.03499386483033888 0.964552592255202
0.3689816 0.04329997754631752 0.9643737626143191
0.3709815 0.05184831488655598 0.9637573567024881
0.3729814 0.05986354893080647 0.9626834571098108
0.3749813 0.06829224571246972 0.9613771964626131
0.3769812 0.07712929862080377 0.9603514025557924
0.3789811 0.0859443639521412 0.9598276207870015
0.380981 0.09453639052867227 0.9578395626129755
0.3829809 0.10370054595387482 0.9560383644481866
0.3849808 0.11227714006320516 0.9544235526010605
0.3869807 0.121782390353048 0.9527320892532377
0.3889806 0.13112354484596214 0.9510364071201663
0.3909805 0.1406053881551067 0.9487070968445519
0.3929804 0.1501382738540944 0.9470930047516195
0.3949803 0.15950386143681894 0.9451336016067883
0.3969802 0.16953230033801148 0.9434294580854654
0.3989801 0.17882142274077079 0.9417654223763902
0.40098 0.188483549382021 0.9398706318690914
0.4029799 0.1982054059548864 0.9382124892224748
0.4049798 0.2078773356904793 0.9363389357375684
0.4069797 0.21733803256324902 0.9350941966300765
0.4089796 0.22691259230233196 0.9327756206583119
0.4109795 0.23631564934400798 0.9310938851279437
0.4129794 0.24574678036880068 0.9293606386400933
0.4149793 0.2557315163277156 0.927849314486869
0.4169792 0.26456968136926867 0.9261810832924411
0.4189791 0.27357031043731406 0.9240340562249827
0.420979 0.2826303759649382 0.9222641573050934
0.4229789 0.29134082541661016 0.9203722204889077
0.4249788 0.30005017066727085 0.9184234563509972
0.4269787 0.3086388841141582 0.9162894770361654
0.4289786 0.31688051492853914 0.9140898820888113
0.4309785 0.3255388417511149 0.9114223072973591
0.4329784 0.33371780444426297 0.908706256110808
0.4349783 0.3419156899854906 0.9050717812065617
0.4369782 0.3498876709989928 0.9021801831211735
0.4389781 0.357733280473586 0.8988432811992442
0.440978 0.36603758036843626 0.8952937928605587
0.4429779 0.3740248178044937 0.891892738529851
0.4449778 0.38215616624426785 0.8882898753307036
0.4469777 0.3902000997247581 0.883876214426871
0.4489776 0.3981970603717964 0.8796632287170633
0.4509775 0.4060299651535027 0.8751598374482613
0.4529774 0.4146836242814031 0.8702766963139149
0.4549773 0.4227750871897069 0.8659637477239813
0.4569772 0.43123954401344267 0.8611242801794161
0.4589771 0.44001322187693037 0.8560718478419521
0.460977 0.44840762794736533 0.8510995958269446
0.4629769 0.45701564184513566 0.8462004677740735
0.4649768 0.465725012547096 0.8416465216021984
0.4669767 0.47449110949597617 0.8363733216621521
0.4689766 0.4831132272589223 0.8312946502980113
0.4709765 0.49192684091543903 0.826211576707024
0.4729764 0.5007367018068966 0.8214817130388362
0.4749763 0.5094124073097097 0.8163066161939779
0.4769762 0.5177999266691387 0.811123024792287
0.4789761 0.527116432714051 0.8059075356779354
0.480976 0.5357627436236302 0.8008832785007421
0.4829759 0.5442024443702416 0.7957793701115118
0.4849758 0.5526420010693494 0.7910204809860141
0.4869757 0.5611123431492339 0.7858988662903853
0.4889756 0.5694902954912395 0.7809384002748634
0.4909755 0.5776634761764703 0.7760622020002527
0.4929754 0.5855709516645385 0.7708580216995217
0.4949753 0.5933280913583842 0.7662080879146547
0.4969752 0.6007152575971839 0.760769270158244
0.4989751 0.6081091257100069 0.7556933280251323
0.500975 0.6147480703016742 0.7503856506891283
0.5029749 0.6220820545332834 0.7450076276819413
0.5049748 0.6293926920825718 0.7394664001201023
0.5069747 0.6360433535144594 0.7337833132854567
0.5089746 0.6430501465742055 0.7280161811826877
0.5109745 0.6501175629429757 0.7220815374358782
0.5129744 0.656638813217966 0.7159043674003019
0.5149743 0.6630457465101889 0.7098380905580205
0.5169742 0.6691983827424857 0.7033781914074141
0.5189741 0.6759486387197496 0.6964411327364041
0.520974 0.6823992049051604 0.6895081252442321
0.5229739 0.6890322381166533 0.6825714722205213
0.5249738 0.6951465855096457 0.6756189292586111
0.5269737 0.7015065114505812 0.6683723365487355
0.5289736 0.7077288836832436 0.6610066953702819
0.5309735 0.7142072235057113 0.6537349173659166
0.5329734 0.7202247415543669 0.6458979432446108
0.5349733 0.7262928593790395 0.6379127648741254
0.5369732 0.7326089208818687 0.6302972974528923
0.5389731 0.739164271413727 0.6223570566428878
0.540973 0.745391343453423 0.6145706110009638
0.5429729 0.7516533379105617 0.6064375541380436
0.5449728 0.7581486379335938 0.5983170508033397
0.5469727 0.7642534695096075 0.5904542762820206
0.5489726 0.77047900038216 0.5826846384366027
0.5509725 0.7764504792461223 0.5746998710041992
0.5529724 0.7828212330979585 0.5662840925055964
0.5549723 0.7888287663686064 0.5584531976064392
0.5569722 0.7948034660099913 0.5507170324137496
0.5589721 0.8009147403304315 0.5425939385340723
0.560972 0.8069036791798744 0.5346279289401917
0.5629719 0.8128905385087857 0.5264890444032096
0.5649718 0.8185634839850006 0.5190494117905937
0.5669717 0.8238630563217504 0.5109475043374148
0.5689716 0.8289882876606884 0.5031148351166641
0.5709715 0.834215699966621 0.49505961122254805
0.5729714 0.8389896107051139 0.48741839838049955
0.5749713 0.8440190689911492 0.47893857133422124
0.5769712 0.849074074194448 0.47078868514747446
0.5789711 0.8540065217990626 0.4627718756325061
0.580971 0.8585100044631154 0.4547434607858013
0.5829709 0.8624737870898082 0.4463427826969061
0.5849708 0.8667416267239153 0.4379408838592427
0.5869707 0.8707744730207436 0.4295046288526651
0.5889706 0.8749245886147521 0.42066137470044995
0.5909705 0.878714822452219 0.412085800176866
0.5929704 0.8824263065059599 0.4029504513053521
0.5949703 0.8858748110855682 0.39425382314961066
0.5969702 0.8903701459921417 0.38532829634440796
0.5989701 0.8937267125697752 0.3763745642036815
0.60097 0.8969111507523309 0.36702011705170307
0.6029699 0.9002283785092501 0.35754016215114115
0.6049698 0.9034757706478999 0.3483414344479367
0.6069697 0.9069994495818539 0.3395979027766429
0.6089696 0.9104926971620745 0.329618739158894
0.6109695 0.9136541563239341 0.32010500635276185
0.6129694 0.9169177424678515 0.3104968135841858
0.6149693 0.9203922441779369 0.301156728453547
0.6169692 0.9234109131076031 0.29178519684809884
0.6189691 0.9263248727117941 0.2821423647501803
0.620969 0.9289127075961287 0.2724296352502345
0.6229689 0.9319207061534066 0.26303078591767437
0.6249688 0.9348113071086867 0.25374308219884967
0.6269687 0.9375156669462277 0.24398387327020954
0.6289686 0.9400307418821279 0.23474607193955738
0.6309685 0.9427076653867608 0.22524743572454245
0.6329684 0.9449976712202303 0.21579619130434913
0.6349683 0.9472108121341136 0.20641095087003541
0.6369682 0.9494144859178834 0.19742079157974307
0.6389681 0.951595878296328 0.18736864595259778
0.640968 0.9538172606218825 0.17830549098397241
0.6429679 0.9555914369095533 0.1683323769125265
0.6449678 0.9568594683381825 0.1597320239780545
0.6469677 0.958523725175605 0.14957538625699246
0.6489676 0.9601538998887763 0.1399470306916078
0.6509675 0.9612091673978548 0.13114866851783366
0.6529674 0.9621716594143079 0.12108753594843856
0.6549673 0.9633784803315907 0.11154175833316866
0.6569672 0.9644003181649239 0.10212277538414574
0.6589671 0.9649677960735304 0.09249808413698539
0.660967 0.9655967910784489 0.08241037911084159
0.6629669 0.966162126597036 0.0730686850933292
0.6649668 0.9669338745884405 0.06341499488573969
0.6669667 0.9674602085103391 0.05379740694268598
0.6689666 0.9679019069747142 0.043752460947216354
0.6709665 0.9681936138911664 0.033941402481531525
0.6729664 0.9685507366953721 0.024208043484333266
0.6749663 0.9683289360661957 0.014513445512321713
0.6769662 0.9685882063988442 0.004559188987568075
0.6789661 0.9686662187264177 -0.005444747399282399
0.680966 0.9685280468556652 -0.01501394449174713
0.6829659 0.9681310459814433 -0.024754743325999667
0.6849658 0.9679505897707978 -0.034418839044111804
0.6869657 0.9676835003436765 -0.044030129918575106
0.6889656 0.9672012548655434 -0.053866880462396266
0.6909655 0.9666023051651935 -0.06354093286899899
0.6929654 0.9657909248170683 -0.07347982860339876
0.6949653 0.9650328523027075 -0.0827165511784648
0.6969652 0.9641193631459262 -0.09210198950193242
0.6989651 0.9632710364085673 -0.10144725752253067
0.700965 0.9620557816116022 -0.11125393011921475
0.7029649 0.9606974488559186 -0.12041082578353998
0.7049648 0.9595704935782257 -0.13017526062383553
0.7069647 0.957990181907406 -0.13915293493872108
0.7089646 0.9563993038332106 -0.14896120227380957
0.7109645 0.9544906302538338 -0.15798392838265116
0.7129644 0.9525647448565538 -0.167807114286069
0.7149643 0.950878366530068 -0.1772567637817235
0.7169642 0.9486152918285464 -0.18688696241740968
0.7189641 0.9463386072880031 -0.1961113053219473
0.720964 0.9442319558049251 -0.20561161233330982
0.7229639 0.9417692475866462 -0.21514948248250387
0.7249638 0.9393898447335809 -0.22486042822801058
0.7269637 0.9366994997435362 -0.23384431591371813
0.7289636 0.9345450945188117 -0.2432649082072043
0.7309635 0.9319348948055245 -0.2529609803632161
0.7329634 0.9290568193566173 -0.2625837801868955
0.7349633 0.9264186643157226 -0.2718038651954985
0.7369632 0.9239281608567921 -0.2813791983866118
0.7389631 0.9212325493151445 -0.2909133434741394
0.740963 0.9185259542232288 -0.3000630923843981
0.7429629 0.9158969878208608 -0.3093100994369743
0.7449628 0.9129699887028574 -0.3181035338807208
0.7469627 0.9098280296968038 -0.32739999169812506
0.7489626 0.9068667008484859 -0.3364601656589078
0.7509625 0.903795016159521 -0.3450786695020485
0.7529624 0.9007675931594363 -0.35443494599414915
0.7549623 0.8976745167821565 -0.36291022158507874
0.7569622 0.8943577919052873 -0.37114906245637136
0.7589621 0.8907893155182085 -0.38001299304136926
0.760962 0.8869936174218791 -0.38814232402919446
0.7629619 0.8834458918670242 -0.3962572011966382
0.7649618 0.8798156302489878 -0.4046282262270696
0.7669617 0.875811359782782 -0.41269465919736614
0.7689616 0.8717636899460887 -0.42065025230557207
0.7709615 0.8677367350106935 -0.42880920472215645
0.7729614 0.8638649616576044 -0.4373212323088011
0.7749613 0.8585882788104302 -0.44473417708131835
0.7769612 0.8536555777521555 -0.4521116708697869
0.7789611 0.8490501272915311 -0.45982933353305133
0.780961 0.8439816770133275 -0.4677713948452524
0.7829609 0.8390212544337124 -0.47543482108752294
0.7849608 0.8336910339726239 -0.48339605712319084
0.7869607 0.8284664566750503 -0.4909737508989703
0.7889606 0.8226874746251619 -0.4990226052735714
0.7909605 0.8170484931181196 -0.5069757299322347
0.7929604 0.8117610346327645 -0.5146035069044834
0.7949603 0.805962196608549 -0.5227329347584302
0.7969602 0.8001636134156037 -0.5307507467681156
0.7989601 0.7941941259149901 -0.5388596261838079
0.80096 0.7885365325697946 -0.5468878895851661
0.8029599 0.7829186821428585 -0.5548401436207604
0.8049598 0.7774184275188468 -0.5636254460228687
0.8069597 0.7718290619392125 -0.5722519246005274
0.8089596 0.7659379427550769 -0.5799559176138852
0.8109595 0.7601181718023067 -0.5879717858900008
0.8129594 0.7547644469842556 -0.5962306014239678
