! Created with skrf 1.8.0 (http://scikit-rf.org).
# GHz S RI R 50.0 
!freq ReS11 ImS11
0.001 -0.8949814974547688 0.0737640742378683
0.0029999 -0.9692793350318727 0.02112666705653543
0.0049998 -0.9599558430456405 0.021182552815075556
0.0069997 -0.958134145710742 0.027561983806664248
0.0089996 -0.9594518376080661 0.032602797186657206
0.0109995 -0.9583152927374075 0.038340522507196995
0.0129994 -0.9582260314030429 0.0453557612710942
0.0149993 -0.9580304823436276 0.05313460894287925
0.0169992 -0.957449371712078 0.05799733164692422
0.0189991 -0.9570504273851598 0.06443205897221305
0.020999 -0.956584214202552 0.07095533521853192
0.0229989 -0.9558546257283228 0.07745792457943879
0.0249988 -0.954765912479463 0.08356604570022433
0.0269987 -0.9543249858476446 0.09017637131597897
0.0289986 -0.9534848470889907 0.09637874147894904
0.0309985 -0.9523924098733261 0.10260593487286912
0.0329984 -0.9515402038702979 0.10916082546370848
0.0349983 -0.9507851853419546 0.11565504100493562
0.0369982 -0.9493814179119549 0.12216598116794775
0.0389981 -0.9481538978622918 0.12839592180680492
0.040998 -0.9474874464603469 0.13487105783396836
0.0429979 -0.9457181747738557 0.14114556877031853
0.0449978 -0.9444161819674557 0.1474712261241118
0.0469977 -0.943543392316891 0.15393699692326235
0.0489976 -0.9419431717744401 0.16026755862307407
0.0509975 -0.9402153011803919 0.16690349568605278
0.0529974 -0.9390819235058568 0.1736988265071428
0.0549973 -0.9372489296136137 0.18094431160943475
0.0569972 -0.9361297298966615 0.18669366332932966
0.0589971 -0.93439508598481 0.19369013701539192
0.060997 -0.9336255383707026 0.20049912733371217
0.0629969 -0.9320155913692227 0.20638515689750914
0.0649968 -0.9299948147755996 0.21326087425333387
0.0669967 -0.9294073489044284 0.22015678428719607
0.0689966 -0.9276547343470064 0.2259590391645993
0.0709965 -0.926413584697127 0.23247180250891628
0.0729964 -0.9245275477191497 0.23925559553512182
0.0749963 -0.9230977905486197 0.24543627933260986
0.0769962 -0.9221396780644058 0.25172795663476377
0.0789961 -0.920057484029414 0.2577494826174547
0.080996 -0.9183095685794798 0.26430942934157264
0.0829959 -0.9164820275464772 0.2706154337885645
0.0849958 -0.9153789703567872 0.27622278971974396
0.0869957 -0.9137221508656055 0.2825203435372933
0.0889956 -0.9115782511252354 0.28818692945388985
0.0909955 -0.9098359347009459 0.29421331773498915
0.0929954 -0.907595999517019 0.3000426333906071
0.0949953 -0.9055205690909081 0.3062900845010886
0.0969952 -0.9033000297683393 0.3119574948973186
0.0989951 -0.9008706272726419 0.3179111400031961
0.100995 -0.9000069533342689 0.32414311956511555
0.1029949 -0.8976599828835853 0.32987803102232865
0.1049948 -0.8955590092023854 0.33593495695205
0.1069947 -0.8928803619256717 0.3412708254463662
0.1089946 -0.8902092081416593 0.3471570032564297
0.1109945 -0.8874155418740175 0.3528966608844858
0.1129944 -0.8847704637679906 0.35880604556415363
0.1149943 -0.8816452102331378 0.36456575482112386
0.1169942 -0.8786866417717514 0.37053463244876295
0.1189941 -0.8759161138046058 0.3764284509131462
0.120994 -0.8727371136445743 0.38228547078071307
0.1229939 -0.8697773922374592 0.38860139666809
0.1249938 -0.8669169740549194 0.3945036981347631
0.1269937 -0.8637844996331832 0.4005284218893002
0.1289936 -0.861009166846674 0.40688217228616996
0.1309935 -0.8581629007189043 0.41306148188460895
0.1329934 -0.8550174484248483 0.4185610898829371
0.1349933 -0.8516465765083863 0.4250929320125386
0.1369932 -0.8487682858838279 0.43062599875893814
0.1389931 -0.8456788160122459 0.43711056342885085
0.140993 -0.8425321507086484 0.4427072751058174
0.1429929 -0.8390141820195639 0.44871150950060695
0.1449928 -0.8370827361645932 0.4547143450283436
0.1469927 -0.8337643119969429 0.46051657619410713
0.1489926 -0.8305222228429325 0.46696261114774174
0.1509925 -0.8272406223731253 0.47213455190879705
0.1529924 -0.8239974274655084 0.4782475039094072
0.1549923 -0.8213738298148381 0.4844580945465461
0.1569922 -0.8180313101963893 0.4894601308326367
0.1589921 -0.8149001496108023 0.49564868843558396
0.160992 -0.8115539460355088 0.5012513532702747
0.1629919 -0.8081446560273802 0.5065540607092008
0.1649918 -0.8045209395174026 0.5122121143470417
0.1669917 -0.8014169467540857 0.5171620675306178
0.1689916 -0.7983451733842072 0.5227918412520136
0.1709915 -0.7942949755622148 0.5282945702208508
0.1729914 -0.7908496352649186 0.5331727993256354
0.1749913 -0.7877215778076363 0.5387529785031067
0.1769912 -0.7840432503922332 0.5438005187566002
0.1789911 -0.7803321761811981 0.5490756263475642
0.180991 -0.7763952478312692 0.5542263533833841
0.1829909 -0.772420001956802 0.5592601542379066
0.1849908 -0.7684898639523732 0.5646544351894526
0.1869907 -0.7644180826147577 0.5694900958407323
0.1889906 -0.7602775383853982 0.5748032523719884
0.1909905 -0.756334255132176 0.5801037833961253
0.1929904 -0.7521344514499276 0.5852046441234229
0.1949903 -0.7479137150802244 0.5904297323069503
0.1969902 -0.7435505184306793 0.5955813526436149
0.1989901 -0.7394400343969921 0.6006987107975157
0.20099 -0.7352138062275213 0.605957648308589
0.2029899 -0.7307662590428655 0.6105111696318684
0.2049898 -0.7265455573992506 0.6158551645726901
0.2069897 -0.721946994579618 0.6208926575152364
0.2089896 -0.7175421684665171 0.6260367757387173
0.2109895 -0.713402573662855 0.6307982681849377
0.2129894 -0.7088303975194399 0.6363086683807444
0.2149893 -0.7041841889065571 0.6412861622516235
0.2169892 -0.6997619236122298 0.6461450461456687
0.2189891 -0.6950575769437037 0.6518272182064456
0.220989 -0.6906940946094874 0.6564218239392562
0.2229889 -0.686202373240742 0.660721075661458
0.2249888 -0.6811189196313839 0.666033348400277
0.2269887 -0.6764883893651006 0.6705264625984755
0.2289886 -0.6717495046005136 0.6753329949815817
0.2309885 -0.6669454273142889 0.680628866414788
0.2329884 -0.6622762334521533 0.6853342541787566
0.2349883 -0.6573376816567738 0.6899125733464029
0.2369882 -0.6526389362456664 0.6947113858288199
0.2389881 -0.6475568461879104 0.6994133547343857
0.240988 -0.6427347332736963 0.7037953679780076
0.2429879 -0.6382216921493209 0.7084956137054368
0.2449878 -0.6331595409741528 0.712880656915253
0.2469877 -0.6281371116234331 0.7175441613731004
0.2489876 -0.6231521939336515 0.7220684847686014
0.2509875 -0.6183549140847447 0.7270244340809008
0.2529874 -0.6134181902871024 0.7314184868697461
0.2549873 -0.6086118962450318 0.7359146374588531
0.2569872 -0.6038842301148399 0.740287985643487
0.2589871 -0.5986972989453847 0.7447232743874572
0.260987 -0.593822440435397 0.7490326282558143
0.2629869 -0.5888235015123638 0.7534668987676783
0.2649868 -0.5836341899126954 0.7574024811055661
0.2669867 -0.5790077064665871 0.7611935489292384
0.2689866 -0.5735615918870633 0.7654201613511217
0.2709865 -0.5689453579277215 0.7695534555202387
0.2729864 -0.5634060503394546 0.7731607346469317
0.2749863 -0.5584453573415942 0.7769631061807185
0.2769862 -0.5534748092969681 0.7809085185717557
0.2789861 -0.5484371295709296 0.7843439665887358
0.280986 -0.5430372232392009 0.787274144177304
0.2829859 -0.5374204464197133 0.7907366264822265
0.2849858 -0.5320722167278579 0.7942230734032969
0.2869857 -0.5263556931677249 0.7975352267303398
0.2889856 -0.5208699090932102 0.8008605604104447
0.2909855 -0.5149886064325189 0.8043775931938293
0.2929854 -0.5094816231945218 0.8074487546709455
0.2949853 -0.5031738431392865 0.8103096387949956
0.2969852 -0.4972511106972748 0.8136256849092414
0.2989851 -0.4915095419015173 0.8165966125396408
0.300985 -0.48519356471842867 0.8192607079384298
0.3029849 -0.47884391009472843 0.8223546925841774
0.3049848 -0.4719698211829169 0.8252154034166415
0.3069847 -0.46552876825604983 0.828573740415804
0.3089846 -0.4590140880512181 0.831185968302256
0.3109845 -0.45245118271425877 0.8341717734321639
0.3129844 -0.44560647692719607 0.8374888079581837
0.3149843 -0.4384500058210311 0.8403351535985973
0.3169842 -0.4318156183735081 0.8437795075056581
0.3189841 -0.42522701800065654 0.8465308429921509
0.320984 -0.41775108175251163 0.8497322026563491
0.3229839 -0.4110648691276475 0.8530756931314434
0.3249838 -0.40461343324130006 0.85561189285791
0.3269837 -0.3975588792163698 0.8590461366049285
0.3289836 -0.39085900175625987 0.8619820057351479
0.3309835 -0.38412563845947884 0.8652762268793559
0.3329834 -0.3779474804678339 0.8685117016840755
0.3349833 -0.3713399391529532 0.8724518380998381
0.3369832 -0.36580403930221095 0.8762958256899598
0.3389831 -0.3593015357693001 0.8800131983457133
0.340983 -0.35309027722285385 0.8838794123449242
0.3429829 -0.34676932607888294 0.8874028465354203
0.3449828 -0.3409804472701399 0.8910247031552629
0.3469827 -0.3351708701513355 0.8943798053480675
0.3489826 -0.3291479975140084 0.8972823213250023
0.3509825 -0.3229491187123033 0.9003961188563114
0.3529824 -0.3170454205182399 0.9033571625864611
0.3549823 -0.3112805023066257 0.9058377851905276
0.3569822 -0.3051643273994449 0.9085471413557636
0.3589821 -0.2996379833859222 0.9109150736637633
0.360982 -0.2936546714080328 0.9134428684840609
0.3629819 -0.2879207869854216 0.9157404275156217
0.3649818 -0.2815942937334312 0.91715764518638
0.3669817 -0.27567473788040675 0.9188547728521258
0.3689816 -0.2694393814455923 0.9204739368235539
0.3709815 -0.2630406390549419 0.9221370541951459
0.3729814 -0.2567414049298519 0.9232255246120232
0.3749813 -0.2504983124808104 0.9244994200114646
0.3769812 -0.243962187805535 0.9255016908913097
0.3789811 -0.23726274939593772 0.9267803473674134
0.380981 -0.2301865082198563 0.9278924823469048
0.3829809 -0.2236049999592529 0.9290516271522726
0.3849808 -0.21667362187691416 0.9301590081889037
0.3869807 -0.20905580940246019 0.9309441515830139
0.3889806 -0.20172593929395416 0.932146724826659
0.3909805 -0.19414784001414467 0.9330786593287055
0.3929804 -0.18658587381636874 0.9344418566701232
0.3949803 -0.17897836487532745 0.9352743651510093
0.3969802 -0.17134710897625668 0.9369143270535366
0.3989801 -0.1639291443152714 0.9377721740953835
0.40098 -0.15614623643739958 0.9393912038464607
0.4029799 -0.14857156964151366 0.9410829875411104
0.4049798 -0.14102790372046647 0.9422444903243885
0.4069797 -0.13377006644847905 0.9437426897380958
0.4089796 -0.12575227323273971 0.9449879269350676
0.4109795 -0.118679548692794 0.9468259208771661
0.4129794 -0.11126799312295237 0.9483244371190745
0.4149793 -0.10350332184791779 0.9501452958559817
0.4169792 -0.09670354328081268 0.9514553657310911
0.4189791 -0.08942683511492924 0.952785414241004
0.420979 -0.08251340978987387 0.9541290100905325
0.4229789 -0.07588312357283748 0.9554189549551009
0.4249788 -0.06887437257950434 0.9567502645820156
0.4269787 -0.062355926798666375 0.9575918105527097
0.4289786 -0.05599990469730717 0.9588282649544442
0.4309785 -0.04908519149615656 0.9595387408832645
0.4329784 -0.042511374265322505 0.9601972307787797
0.4349783 -0.03561631146311204 0.959674298020556
0.4369782 -0.02946731563853668 0.9602383914116127
0.4389781 -0.022766217586681257 0.9602838864807876
0.440978 -0.016015040140288306 0.9597704329597768
0.4429779 -0.00950581010499476 0.9597866230121317
0.4449778 -0.003064584664256978 0.9593864482581411
0.4469777 0.003969241165105747 0.9583710016094061
0.4489776 0.011248203888296657 0.9583171766826655
0.4509775 0.01813883375333158 0.9574826241862952
0.4529774 0.025530443757938507 0.9564466318130207
0.4549773 0.03292088380527476 0.9555075400897874
0.4569772 0.04042941700333543 0.954402873066494
0.4589771 0.048098994161392045 0.9532959967833541
0.460977 0.05650878434391919 0.9525361614953447
0.4629769 0.06386188361353043 0.9515888439407685
0.4649768 0.07180306080600468 0.9507088397061833
0.4669767 0.0796011622972035 0.9499427453448717
0.4689766 0.0875898171309215 0.9494044067045628
0.4709765 0.09549627248846787 0.9484032698686801
0.4729764 0.10344194299871581 0.9477411940327005
0.4749763 0.11161028452058244 0.947465844247039
0.4769762 0.11937142833595685 0.9465013649488958
0.4789761 0.12805670074163078 0.946271021362777
0.480976 0.1361734371389529 0.9457352210220044
0.4829759 0.14387106524918386 0.945162694887009
0.4849758 0.15160945935676395 0.9448538900694835
0.4869757 0.1596404287425123 0.944553322044206
0.4889756 0.1671035709857444 0.9438520708845443
0.4909755 0.1747121506264212 0.9437187037842879
0.4929754 0.18212187072946423 0.9432118710040026
0.4949753 0.18908963191222922 0.9428203386598777
0.4969752 0.19621190420086798 0.9418894803329758
0.4989751 0.20296634380612882 0.9409102153357027
0.500975 0.2093142189758871 0.9400026947722595
0.5029749 0.2160387568467482 0.939185471167173
0.5049748 0.2226577285437399 0.937831004312876
0.5069747 0.2287753138537433 0.9364658297597129
0.5089746 0.23527620562359017 0.9352550446817562
0.5109745 0.24228475686533493 0.9333589985519002
0.5129744 0.24912756595837476 0.9318912901305403
0.5149743 0.2553113381518074 0.9298062016507033
0.5169742 0.2613374775553674 0.9277721933942099
0.5189741 0.26800792518461847 0.9252403593947889
0.520974 0.2750036044265355 0.9224360598563741
0.5229739 0.2823619089200881 0.9200450955716386
0.5249738 0.2889353024655528 0.9175645676857992
0.5269737 0.2956787826611235 0.9148321242103541
0.5289736 0.3025565316822812 0.9115950528899038
0.5309735 0.30934814070705513 0.908632294344053
0.5329734 0.3166781312263354 0.9052861107500833
0.5349733 0.3238723878163142 0.9018827434796979
0.5369732 0.3309528059679433 0.8988166379680467
0.5389731 0.3387624951944055 0.8954843354108901
0.540973 0.34593886577741667 0.8918198266629004
0.5429729 0.3532521601205792 0.8887160935988483
0.5449728 0.3608339329235014 0.8857588593790595
0.5469727 0.3686278901681369 0.8826672219410332
0.5489726 0.3763941753709929 0.8792793152551248
0.5509725 0.3838655973304456 0.8761358298066402
0.5529724 0.391647825517233 0.8731991338038667
0.5549723 0.3992140733495161 0.8702612496910579
0.5569722 0.4066977289347176 0.8674720632517938
0.5589721 0.41447209464627555 0.8645869735439399
0.560972 0.42189475597281134 0.8619176665721366
0.5629719 0.4294322684309168 0.8591813933382044
0.5649718 0.43675989636248636 0.8565894999561317
0.5669717 0.44387090539218793 0.8535214356266114
0.5689716 0.4503856771293177 0.8505387041221315
0.5709715 0.45693069557801624 0.8477908628310784
0.5729714 0.4632504105140975 0.8447624301774499
0.5749713 0.47020700828173256 0.8414429642496879
0.5769712 0.47673131887958736 0.8382032516938751
0.5789711 0.48267191334952575 0.8352791385351955
0.580971 0.4892020650033722 0.8321318719955609
0.5829709 0.49516165348906666 0.8286271317939988
0.5849708 0.5012618569455416 0.8249147884255548
0.5869707 0.5071932495088711 0.8212374590510229
0.5889706 0.5132189674529917 0.8165993906957041
0.5909705 0.5191548394943564 0.8123214830968687
0.5929704 0.5255606733225996 0.8075475825444558
0.5949703 0.5310137025277799 0.8033873039623975
0.5969702 0.5376331346334863 0.7991443612452387
0.5989701 0.5434084534246448 0.7942670184238648
0.60097 0.5491792099576822 0.7892366638860178
0.6029699 0.5554948714152635 0.7841613882473164
0.6049698 0.5617302220719166 0.7792258865774104
0.6069697 0.5673471590756101 0.7741122008143967
0.6089696 0.5738441076718555 0.768973464787439
0.6109695 0.580471358846428 0.7633972179313342
0.6129694 0.5869879622562205 0.758696991012582
0.6149693 0.5937724264739778 0.7533008555060278
0.6169692 0.6005396103506595 0.7481126744712083
0.6189691 0.6068049260738405 0.7432127688481406
0.620969 0.6134808881879217 0.7376932557491643
0.6229689 0.6201888502641223 0.7327302735960981
0.6249688 0.6264156373111485 0.7276622583442577
0.6269687 0.6332342690534107 0.7223896479740621
0.6289686 0.6396261004063719 0.7174851599480723
0.6309685 0.6463383214740287 0.7127972946382144
0.6329684 0.6522110621372714 0.7081214288851657
0.6349683 0.6581279292727108 0.7028795978257147
0.6369682 0.6638054862328805 0.6981835337293578
0.6389681 0.6701785950326085 0.6929000679793723
0.640968 0.6757155102061017 0.6886824681191992
0.6429679 0.6816252042769004 0.6840106275364668
0.6449678 0.6874077973879904 0.6790513677783672
0.6469677 0.6925543857301815 0.6740753776090114
0.6489676 0.6979799364423614 0.6691696742587495
0.6509675 0.7024809347479479 0.6641934717177184
0.6529674 0.7076197221163211 0.6590005142129624
0.6549673 0.7126003190021399 0.6539329713000848
0.6569672 0.7170825093865519 0.6485536414835738
0.6589671 0.7218766954983236 0.6426564430978804
0.660967 0.7268639545762494 0.6367665116619751
0.6629669 0.730831986956668 0.6308252479239652
0.6649668 0.7355616012791263 0.6251169401810308
0.6669667 0.7398091686149691 0.6184125229075108
0.6689666 0.7444263592045048 0.6120457140921645
0.6709665 0.749454634885917 0.6054469902888255
0.6729664 0.7531523324535895 0.5990315424403916
0.6749663 0.7576822935518839 0.5921732989074249
0.6769662 0.7621824648293688 0.5850509888354405
0.6789661 0.7665999870795316 0.5784670898355286
0.680966 0.7715738490549243 0.5711199677373427
0.6829659 0.7763998689928695 0.564134467673651
0.6849658 0.7804896000689202 0.5572120426824775
0.6869657 0.7859337296422186 0.5501341192198882
0.6889656 0.7908276659371191 0.5429092406111182
0.6909655 0.7959799133792487 0.5363686582884866
0.6929654 0.800536871824966 0.5289153788124031
0.6949653 0.805244937626322 0.5224695949864269
0.6969652 0.8101565255411765 0.5153166064638866
0.6989651 0.8141611895189433 0.5086418068263711
0.700965 0.819432715006723 0.5013577438518524
0.7029649 0.8241653844866778 0.49506967930479245
0.7049648 0.8284874185666217 0.48828687471329385
0.7069647 0.8323984176031924 0.4816385029617876
0.7089646 0.8373788186631143 0.4748884074358079
0.7109645 0.8415494618734509 0.46839950738067015
0.7129644 0.8455336528717817 0.46205003168030356
0.7149643 0.8496081551707408 0.4555414393438845
0.7169642 0.8534715032909526 0.4488749300707047
0.7189641 0.8572605736924281 0.4420891645152162
0.720964 0.8605979034923422 0.4357966632037492
0.7229639 0.8642308235638013 0.4287922888353142
0.7249638 0.8679442234872163 0.42227013653783757
0.7269637 0.871242834743282 0.4156202091832063
0.7289636 0.8742076143973372 0.40893880920398684
0.7309635 0.877283052402727 0.40187463532695145
0.7329634 0.880534387043429 0.394826760906216
0.7349633 0.8827467554985198 0.387304663966525
0.7369632 0.8851726318611548 0.3805340750166887
0.7389631 0.8881633446083377 0.3730337759261965
0.740963 0.8907353009956571 0.3660710605830101
0.7429629 0.8935177389662101 0.3584799071647893
0.7449628 0.8958983472424676 0.3503889420491537
0.7469627 0.8983743570702636 0.34295729148739545
0.7489626 0.9012440685049041 0.33487063562802327
0.7509625 0.9035147249391243 0.3272827399710331
0.7529624 0.9059669196009369 0.319122345842211
0.7549623 0.9087188815963961 0.3114957244566876
0.7569622 0.9106424284070619 0.30350229828964004
0.7589621 0.9135464156995886 0.2957002009338688
0.760962 0.9161620425135371 0.28748625211424556
0.7629619 0.9184904520611306 0.2799262425452373
0.7649618 0.9213755294469393 0.2720668971966277
0.7669617 0.9233486264927998 0.263625387913051
0.7689616 0.9257874529371599 0.2556785095992476
0.7709615 0.9277964704085764 0.24801266203607916
0.7729614 0.9304648428538116 0.2405572860317624
0.7749613 0.9323038764085634 0.23232981888090004
0.7769612 0.9345413169743693 0.22457617499349258
0.7789611 0.9366463410573072 0.21713068044721306
0.780961 0.9387935077874464 0.209342187293793
0.7829609 0.9402700260513882 0.2018101055694001
0.7849608 0.9424558506732321 0.19448551855948623
0.7869607 0.9441511523697098 0.18683695648434528
0.7889606 0.9456256278661451 0.17868805669712265
0.7909605 0.9472906368778955 0.17144815783195455
0.7929604 0.9485003574789567 0.16372459882314055
0.7949603 0.9502048717507462 0.1558951761708286
0.7969602 0.9511305752867736 0.14831199263653871
0.7989601 0.9521209590141345 0.1407305445281079
0.80096 0.9531129837243127 0.1328319715962165
0.8029599 0.9540383874297239 0.12511864794561967
0.8049598 0.9550339407875037 0.11745008893982103
0.8069597 0.9560136332923657 0.1095160363716252
0.8089596 0.956618189917467 0.10162424856902169
0.8109595 0.9567789194250187 0.09353249786200812
0.8129594 0.9574305075731497 0.08544787490373712
0.8149593 0.9582365688664108 0.07732998490360254
