! Created with skrf 1.8.0 (http://scikit-rf.org).
# GHz S RI R 50.0 
!freq ReS11 ImS11
0.001 -0.8773357132663469 0.02829368573466129
0.0029999 -0.9584375428067952 0.01917845230766846
0.0049998 -0.9549776889598474 0.019112458838284413
0.0069997 -0.9618402008460889 0.02140522123414601
0.0089996 -0.9554972233117607 0.032043624164329154
0.0109995 -0.9546703562564611 0.03741884666119899
0.0129994 -0.9549031369305023 0.04358164305770895
0.0149993 -0.9545780242997702 0.050917103960910204
0.0169992 -0.9542531669288958 0.05490896431757075
0.0189991 -0.9537396432924609 0.060811959512765634
0.020999 -0.9532444120983169 0.0667180961480886
0.0229989 -0.9527102807701214 0.07270829160473485
0.0249988 -0.9515699365127805 0.07819798236628273
0.0269987 -0.9511551327354867 0.08426487761638501
0.0289986 -0.9503842973767721 0.0899425330499131
0.0309985 -0.9493080250256947 0.09564260024351579
0.0329984 -0.948626339520593 0.10173151830708693
0.0349983 -0.9479079897986222 0.10777044894476445
0.0369982 -0.9466970658652085 0.11364695498400379
0.0389981 -0.9455517538190519 0.11952668080043743
0.040998 -0.945019092470385 0.12543153065701962
0.0429979 -0.9434016257930683 0.13127366905834148
0.0449978 -0.9424259294888093 0.13711095819334035
0.0469977 -0.9417936995828622 0.1428983548151977
0.0489976 -0.9399739568042917 0.14904018254276025
0.0509975 -0.9384894118172218 0.15527423894459857
0.0529974 -0.937513721332358 0.1615226114478603
0.0549973 -0.9356197673308378 0.16851239527300238
0.0569972 -0.9348442231598727 0.17373960751998774
0.0589971 -0.9334969221478165 0.18018490027490847
0.060997 -0.9326472803847762 0.18672302832617202
0.0629969 -0.9313821450234974 0.19210759384285717
0.0649968 -0.9292785251944594 0.19850764556101563
0.0669967 -0.9290456312564546 0.20513883067065197
0.0689966 -0.927532432806707 0.21056636930224187
0.0709965 -0.92638348893112 0.2164594934129701
0.0729964 -0.9249067893047117 0.22301568227985238
0.0749963 -0.9235311339890928 0.2288800440007188
0.0769962 -0.9227784037796025 0.23466054572420672
0.0789961 -0.9211275335240962 0.2403814130517076
0.080996 -0.9193582621316543 0.24645430833812831
0.0829959 -0.9178397921221195 0.2523545483331322
0.0849958 -0.9170445510588471 0.2572946770693719
0.0869957 -0.9154603077965577 0.2635864592904341
0.0889956 -0.9135931115233534 0.2685659613026488
0.0909955 -0.9120418135119748 0.27455429346697624
0.0929954 -0.9101029851793968 0.2799441288558759
0.0949953 -0.908567072474565 0.2854607918768352
0.0969952 -0.9063492161953352 0.2908287627954573
0.0989951 -0.9041811369132879 0.29627922964460995
0.100995 -0.903608864276042 0.30241724000607
0.1029949 -0.9015592433242737 0.30780342058079146
0.1049948 -0.899696362194087 0.31323579604856944
0.1069947 -0.897359515402838 0.3184707786596851
0.1089946 -0.8950901060224455 0.32383208590244694
0.1109945 -0.8927230206730259 0.32919258915253413
0.1129944 -0.8903317930828669 0.33458111261322093
0.1149943 -0.887486524215537 0.3400705545757633
0.1169942 -0.8849707393428318 0.3455790125192524
0.1189941 -0.8825829240531774 0.35110956324585874
0.120994 -0.8797318518351405 0.35677895569792484
0.1229939 -0.8771452454600921 0.362402780791445
0.1249938 -0.8746644498504933 0.36793454649154356
0.1269937 -0.8718314692423207 0.3738096578167831
0.1289936 -0.8695014565291765 0.3796050970487679
0.1309935 -0.866813329344557 0.38522363211260136
0.1329934 -0.8642666749463782 0.3908386692569179
0.1349933 -0.8611332494936315 0.39667596345099143
0.1369932 -0.858625886897553 0.40209637430615686
0.1389931 -0.8562631599839776 0.40774097598644976
0.140993 -0.8533481902950566 0.4133781920340547
0.1429929 -0.850362977744819 0.41911474147161676
0.1449928 -0.8483869172747837 0.4249267981980747
0.1469927 -0.8456086322870919 0.4304307132459569
0.1489926 -0.8426607376300069 0.4366640499876439
0.1509925 -0.8397934899262891 0.44107657383564985
0.1529924 -0.8370305842369365 0.44698519032584
0.1549923 -0.8348563998473293 0.4530205913169693
0.1569922 -0.8320310055072133 0.45758867934613756
0.1589921 -0.8290559292704064 0.46344692517429426
0.160992 -0.8262664610332315 0.4683379258647179
0.1629919 -0.82313040252993 0.47381647549616474
0.1649918 -0.8202654855588304 0.4791294459411185
0.1669917 -0.8175199600847698 0.4840024898512193
0.1689916 -0.8147302625002429 0.48938017888159935
0.1709915 -0.8114326173660312 0.494418785886748
0.1729914 -0.8081536105946283 0.49927527608093786
0.1749913 -0.8052231795509268 0.5045453862921809
0.1769912 -0.8019221041572809 0.509171586462562
0.1789911 -0.7991630241366043 0.514227066104389
0.180991 -0.7956346224170312 0.5192781778487359
0.1829909 -0.792238930412652 0.5239878760010437
0.1849908 -0.788951476372541 0.5291759379578855
0.1869907 -0.7851748513771825 0.5337882464396568
0.1889906 -0.7818317287348082 0.538889197063153
0.1909905 -0.7783437164472454 0.5438561063242834
0.1929904 -0.7746606799869988 0.5487946155888568
0.1949903 -0.7708985747020672 0.5536637051429719
0.1969902 -0.7670663941263681 0.558567846485582
0.1989901 -0.763705653363127 0.5636311790742985
0.20099 -0.7599097639457654 0.5688109452679464
0.2029899 -0.7558982134038117 0.5734465147100573
0.2049898 -0.7523542703865693 0.5776484494093304
0.2069897 -0.7483644467134255 0.5829565348973094
0.2089896 -0.7445406170822906 0.5874683340824802
0.2109895 -0.7409625353425999 0.592427320909884
0.2129894 -0.7370240520385652 0.5976245520188559
0.2149893 -0.7330858805962408 0.6023846002923845
0.2169892 -0.7292444339419277 0.6071000615317317
0.2189891 -0.7250500559200458 0.6125074300635155
0.220989 -0.7213014600596073 0.6168272859639469
0.2229889 -0.7174617163739694 0.6213067569339322
0.2249888 -0.7128756161095114 0.6265135860267214
0.2269887 -0.7087257447387127 0.6304882753733423
0.2289886 -0.7043872573774093 0.6355483006781864
0.2309885 -0.7004969097598537 0.6405462195185876
0.2329884 -0.6963111018675577 0.6447607890007583
0.2349883 -0.6918663325660482 0.6495527846887154
0.2369882 -0.6877305553916029 0.654283270597716
0.2389881 -0.6833983486337206 0.6586798035865691
0.240988 -0.6791661229757919 0.6630852775879377
0.2429879 -0.6750923260432247 0.6678960226403814
0.2449878 -0.6706216998124348 0.6721214821060065
0.2469877 -0.6661944408427213 0.6768149540659789
0.2489876 -0.6618926364852943 0.6810844531861012
0.2509875 -0.657814376957784 0.6858921146901354
0.2529874 -0.6534610096054891 0.6903626599582728
0.2549873 -0.6493709692701801 0.6948110990984044
0.2569872 -0.6451814670447349 0.6992144865447131
0.2589871 -0.6409241946652136 0.7035903333208846
0.260987 -0.6365265686764761 0.7076694997441507
0.2629869 -0.6319445763257191 0.7120336937461874
0.2649868 -0.62770853013057 0.7159592450984166
0.2669867 -0.6235505698720952 0.7197979717694613
0.2689866 -0.6191594672870191 0.7240404346892075
0.2709865 -0.6148304634187562 0.7281218430013353
0.2729864 -0.6104159108090877 0.731827696801884
0.2749863 -0.6060477469415866 0.7356183408469279
0.2769862 -0.6015683928127166 0.739486564608
0.2789861 -0.5973804828747513 0.7428742084319623
0.280986 -0.5927113777203331 0.7459618697960061
0.2829859 -0.5877456634538392 0.7495236674250335
0.2849858 -0.5830201953818451 0.7529461276932167
0.2869857 -0.578060852085705 0.756421895837556
0.2889856 -0.5729373430086266 0.7595387889089876
0.2909855 -0.5678389673549019 0.7632221521173018
0.2929854 -0.5628824934771655 0.7666701347109679
0.2949853 -0.557510897942551 0.7693684614394074
0.2969852 -0.5523514822539504 0.7725295047201903
0.2989851 -0.5469129053353031 0.7760553603017672
0.300985 -0.5414578018803657 0.7785546365400622
0.3029849 -0.5356775519950718 0.7819104317329444
0.3049848 -0.5300141943991711 0.7848855282954651
0.3069847 -0.524073031252078 0.7879870194901959
0.3089846 -0.518099789639241 0.7912390443087826
0.3109845 -0.5123977525297997 0.7944325067929785
0.3129844 -0.5062525348957676 0.7977144377065281
0.3149843 -0.500204430540482 0.8010070429177338
0.3169842 -0.49397588965455685 0.8043581791724993
0.3189841 -0.48782759134134956 0.807243416830447
0.320984 -0.48143039012745437 0.810853540352356
0.3229839 -0.47524164752454523 0.8142653339620552
0.3249838 -0.46940515389471066 0.8173784059549847
0.3269837 -0.46350971984807265 0.8205609407582762
0.3289836 -0.4574163840509285 0.824244154117184
0.3309835 -0.45145365156888984 0.8274482472443072
0.3329834 -0.44567603434405545 0.8311504493615426
0.3349833 -0.44025735420775197 0.8348943083809562
0.3369832 -0.4352598513063197 0.8392564219614649
0.3389831 -0.42954012106279654 0.8432059419972179
0.340983 -0.4242095920938901 0.847242495983057
0.3429829 -0.41928549924538233 0.8514943328528659
0.3449828 -0.41370071627752897 0.8551586677806657
0.3469827 -0.4087816725532364 0.8586595276687401
0.3489826 -0.40334104086881495 0.8619111088165349
0.3509825 -0.3982178257361472 0.865456946185736
0.3529824 -0.39291209584368203 0.8686793824702517
0.3549823 -0.38805034381494574 0.8717188993217556
0.3569822 -0.3829192070572901 0.8745172328907637
0.3589821 -0.3779811048485002 0.8772518176415974
0.360982 -0.3727874982557109 0.8800679657380794
0.3629819 -0.36791078267468685 0.8823156887197031
0.3649818 -0.36235740053095944 0.8842731705529814
0.3669817 -0.35695941098320816 0.8859507451421794
0.3689816 -0.3515771493042654 0.8883349108772103
0.3709815 -0.34606219852484105 0.8899595671222067
0.3729814 -0.34010077757398294 0.8919494847830959
0.3749813 -0.3349839562067398 0.8934655509262754
0.3769812 -0.3292203449784196 0.8948331665992623
0.3789811 -0.32328148759914943 0.8966531635958866
0.380981 -0.3169319955725664 0.8979239626418297
0.3829809 -0.310772538395294 0.8991623801883033
0.3849808 -0.3043429406030587 0.9013169613384941
0.3869807 -0.2976833230168558 0.90248468965232
0.3889806 -0.29111884758729584 0.9042752098866784
0.3909805 -0.28414361810060995 0.9055070873370662
0.3929804 -0.2773286647554532 0.9076411136424949
0.3949803 -0.27049221216066527 0.9091565905931237
0.3969802 -0.26383760682151736 0.910933097199348
0.3989801 -0.25697093677150534 0.9127236765713062
0.40098 -0.2498771246417408 0.914762586728762
0.4029799 -0.24334004267451587 0.9169608434318262
0.4049798 -0.23615312082334805 0.9188284002277369
0.4069797 -0.22965277046624116 0.9208102927571395
0.4089796 -0.22291201105121836 0.9227676956026571
0.4109795 -0.216272805852419 0.9250381698397976
0.4129794 -0.20945973044046723 0.9275062270273942
0.4149793 -0.20259882485660866 0.9296819516176206
0.4169792 -0.19652293496150022 0.9315158923326503
0.4189791 -0.19001769224352666 0.933602276954417
0.420979 -0.18380688290737238 0.9355569998117889
0.4229789 -0.17773586124636548 0.93750562519418
0.4249788 -0.17201269188867405 0.9396451790223058
0.4269787 -0.16599399244868743 0.9411779235185127
0.4289786 -0.16025389469543475 0.9429045559812089
0.4309785 -0.15420081033859104 0.9442214890850795
0.4329784 -0.14818665240437662 0.9453255612908825
0.4349783 -0.14196412455800006 0.9458725298528448
0.4369782 -0.13639439226823974 0.9466728814406824
0.4389781 -0.13048980092387918 0.9474900365057447
0.440978 -0.12444889735853375 0.9482658039041862
0.4429779 -0.11868697756601757 0.9486307180768099
0.4449778 -0.11265945271716274 0.948916381396289
0.4469777 -0.10619434930057872 0.9486962667433285
0.4489776 -0.10030426271878827 0.948972398597376
0.4509775 -0.09350436667372114 0.949170993678793
0.4529774 -0.08654638459613868 0.9491908442011799
0.4549773 -0.08011760470593676 0.9489373132106246
0.4569772 -0.07288943508407249 0.948644540203814
0.4589771 -0.06582700164075396 0.9484539555634988
0.460977 -0.05835312998734534 0.9487395376499069
0.4629769 -0.05148956018140207 0.9488796003010743
0.4649768 -0.04418000240059982 0.9484490446144881
0.4669767 -0.03706917194656971 0.948709747930465
0.4689766 -0.029473511498248933 0.9488548947567341
0.4709765 -0.022297940499285514 0.9492052191539665
0.4729764 -0.01451497755980299 0.9494972876724389
0.4749763 -0.0071952490097667784 0.9500472567230595
0.4769762 -0.00010333576469449823 0.9502201082877463
0.4789761 0.007948008665534061 0.9509250917140082
0.480976 0.01534439303649466 0.9515874241881528
0.4829759 0.022259567891160275 0.9516986858682703
0.4849758 0.029277100809760054 0.9526071449556069
0.4869757 0.0366557757511978 0.9530975782661038
0.4889756 0.04391734177958173 0.9538133951055662
0.4909755 0.05066758160021502 0.9543452482852807
0.4929754 0.05721799730565866 0.9549512517788816
0.4949753 0.06367532712253172 0.9555073231495396
0.4969752 0.0701039398592874 0.9556767266250669
0.4989751 0.07636042326942552 0.9556377338144745
0.500975 0.08249532644917076 0.9554283140107196
0.5029749 0.08833182347636147 0.9556488703483254
0.5049748 0.09452545387965608 0.9553385288410979
0.5069747 0.10011005108726083 0.9550036014203533
0.5089746 0.10646174367982031 0.9544960372594186
0.5109745 0.11265255189521489 0.9541894285229244
0.5129744 0.11878613478093844 0.9534324192060397
0.5149743 0.12456791217019111 0.9526566758765797
0.5169742 0.13035344096361018 0.9510314860253954
0.5189741 0.13643687973039523 0.9497322268643698
0.520974 0.14341279168821944 0.9481116854583664
0.5229739 0.1501354885683851 0.9468952336941481
0.5249738 0.1559711151354654 0.9456362487535318
0.5269737 0.16283274994014618 0.9436018239509016
0.5289736 0.16912255124439873 0.9423189369673111
0.5309735 0.17596694097303628 0.9399603876336486
0.5329734 0.18271283515133954 0.9378120807865225
0.5349733 0.18939243423076885 0.9358094753817957
0.5369732 0.19659868066606215 0.9336819637756332
0.5389731 0.20393520491188274 0.9322304087114436
0.540973 0.2110692339206368 0.9291650646274643
0.5429729 0.2181958493217215 0.9274280904758371
0.5449728 0.22542725453710394 0.925628108227912
0.5469727 0.23311404962961912 0.9235751476091025
0.5489726 0.2403002039805484 0.9222193864093539
0.5509725 0.24770515162642381 0.920134266886844
0.5529724 0.25506777001976466 0.9184509319359963
0.5549723 0.26249373350566996 0.9168696625217266
0.5569722 0.26954526846677884 0.9153409492348339
0.5589721 0.277036774125537 0.9141624285306991
0.560972 0.28426042173126126 0.9125789337881349
0.5629719 0.2915060852071707 0.9110412511649265
0.5649718 0.29835416596325026 0.9101751744473966
0.5669717 0.3053556335831544 0.9086210828263214
0.5689716 0.31153525354773104 0.9070085539894724
0.5709715 0.31788965729508145 0.90513155028312
0.5729714 0.3242312464987811 0.9033530759943124
0.5749713 0.3305876442418519 0.9014378086779774
0.5769712 0.3369671221662038 0.899459135630308
0.5789711 0.3427464177671633 0.8979746141297835
0.580971 0.34880507459169846 0.8960722976944372
0.5829709 0.35470371486980323 0.8938703183504336
0.5849708 0.3606503790876269 0.8915735620652769
0.5869707 0.36646060794955954 0.8889417517809496
0.5889706 0.37270035544035035 0.8859810987119648
0.5909705 0.3786507092290888 0.8825557084297648
0.5929704 0.38435798471033195 0.8796671035500658
0.5949703 0.3903771494631813 0.8762797992343501
0.5969702 0.39616772025650915 0.8736761827609596
0.5989701 0.4024949019235215 0.8699142496780767
0.60097 0.40883727290286387 0.8662206130774878
0.6029699 0.41478699509984496 0.8628836350985397
0.6049698 0.42106338777071306 0.8588931495659922
0.6069697 0.42757242440078674 0.8554814769350456
0.6089696 0.4343650254149849 0.851776335828389
0.6109695 0.44093427531815327 0.8478448980106141
0.6129694 0.44759934032688276 0.8438885137733833
0.6149693 0.4543360092801162 0.840858170916732
0.6169692 0.46115011125174044 0.8369278673240256
0.6189691 0.4680041872339326 0.8333510801831345
0.620969 0.4747387154906475 0.8296280129551431
0.6229689 0.48193658510299764 0.825892402901532
0.6249688 0.4887986853950518 0.8225173012131977
0.6269687 0.495519494599973 0.8189389318533883
0.6289686 0.5020722004909091 0.8159559487710439
0.6309685 0.5089268868976866 0.8125994037434361
0.6329684 0.515108595206078 0.8095917032296325
0.6349683 0.5213223888111053 0.8057576037621729
0.6369682 0.527150055842166 0.8027596203642204
0.6389681 0.5337424982218526 0.7993385435869276
0.640968 0.5400680659137411 0.7962346877406435
0.6429679 0.5459444038948259 0.7934096779199818
0.6449678 0.5508515479141954 0.7901032829696829
0.6469677 0.5570981353756079 0.7867122745923102
0.6489676 0.5624032146422921 0.7834586695107827
0.6509675 0.5671427931180731 0.779689908172855
0.6529674 0.572396568256558 0.7759589179482632
0.6549673 0.5777996904594893 0.7722335135815566
0.6569672 0.582716211756869 0.7686944248336779
0.6589671 0.5879078047393512 0.7640420934745226
0.660967 0.5924625264103366 0.7597405359551876
0.6629669 0.5973406332230432 0.7550156070721015
0.6649668 0.6023148998592408 0.7506033164867947
0.6669667 0.6071716353150219 0.7452114934485274
0.6689666 0.6127725447257785 0.7399911757327468
0.6709665 0.6176367770284089 0.7348374928639391
0.6729664 0.6226415327827796 0.7296738913260017
0.6749663 0.6276989539710891 0.7244432892353834
0.6769662 0.6324631412745916 0.7185862349652888
0.6789661 0.6373970786192394 0.7128977490025359
0.680966 0.6428767660304244 0.7073128372954995
0.6829659 0.6488053668393539 0.701518333177686
0.6849658 0.6540775148346978 0.6960086847391206
0.6869657 0.6601715306582693 0.6901709830790033
0.6889656 0.6660699133105601 0.6846567617042014
0.6909655 0.671707470918064 0.6794255891959152
0.6929654 0.6776874900224263 0.6738759159618706
0.6949653 0.6832227989141015 0.668490639919952
0.6969652 0.6891974738644107 0.6630479211060003
0.6989651 0.6945750690703943 0.6578626927412133
0.700965 0.7002638386446471 0.6523936978895518
0.7029649 0.706220805488235 0.6474587586854257
0.7049648 0.7117284904525785 0.6422696558245042
0.7069647 0.7166884878088631 0.637403224456423
0.7089646 0.7227937988605112 0.6321290200353383
0.7109645 0.7271285870066871 0.6277149911512111
0.7129644 0.7321526668678731 0.6224786069947807
0.7149643 0.7370908970288678 0.6177310770745347
0.7169642 0.7417346077288749 0.6128590663996943
0.7189641 0.7460453428647945 0.6078244968198199
0.720964 0.7506574628984484 0.6027499569182299
0.7229639 0.7553984958491542 0.5972114181313954
0.7249638 0.7594709903420004 0.592348654600082
0.7269637 0.7632303184772764 0.5872430875037791
0.7289636 0.7674352742358528 0.5823883566671854
0.7309635 0.7716523615622193 0.5764282923095598
0.7329634 0.7754109381935005 0.5710610439147145
0.7349633 0.7785711551667349 0.5649866512827746
0.7369632 0.7825868953243186 0.5594715383250629
0.7389631 0.7858989707240023 0.5530487369541868
0.740963 0.7893336167880326 0.5471570479817232
0.7429629 0.7931710225732045 0.5407230944304267
0.7449628 0.7966309056230312 0.5343173510819482
0.7469627 0.8004181514176368 0.5273180309272882
0.7489626 0.8039125231013684 0.5207262953873394
0.7509625 0.8074867473264605 0.5142181459633399
0.7529624 0.8112202815028314 0.5075555874253573
0.7549623 0.815164825848112 0.5008691461345641
0.7569622 0.8187229866963766 0.4936706502603266
0.7589621 0.8229811738362751 0.4868256573316328
0.760962 0.8267999948534409 0.47991276225952867
0.7629619 0.8308400803365684 0.47306879565352977
0.7649618 0.835000202786178 0.46681586215330156
0.7669617 0.8390837279157111 0.45925616260669344
0.7689616 0.8427844643122288 0.4525205805484884
0.7709615 0.8463472138624037 0.4459991298988712
0.7729614 0.8504648751981658 0.439771513854379
0.7749613 0.85419983234576 0.43284925119934076
0.7769612 0.8579498236860916 0.4262002196036849
0.7789611 0.8618647326151295 0.4200826695097728
0.780961 0.8656540872877936 0.41350804351059545
0.7829609 0.8686594391648821 0.4072890402613285
0.7849608 0.872238608930034 0.40102896573108593
0.7869607 0.8754953129973057 0.3949016829059425
0.7889606 0.8789169721469978 0.38828484977777783
0.7909605 0.8819909979984617 0.38203415400952545
0.7929604 0.8852305696571525 0.3762133209363564
0.7949603 0.8882337376612713 0.3696751500988606
0.7969602 0.8907254858251517 0.3632837810288392
0.7989601 0.8931564741342185 0.3568986723906115
0.80096 0.8958451275415155 0.350398304503115
0.8029599 0.898491451058071 0.34400718575565664
0.8049598 0.9004490756831978 0.33736927570897085
0.8069597 0.9028752932835166 0.3305533931522733
0.8089596 0.9048646680803838 0.3236970834607301
0.8109595 0.9062097761738255 0.31675750010882764
0.8129594 0.9085114706946866 0.30961131465045666
0.8149593 0.9103745685952945 0.30261441373838227
