! Created with skrf 1.8.0 (http://scikit-rf.org).
# GHz S RI R 50.0 
!freq ReS11 ImS11
0.001 -0.9368869575850194 -0.01534551815634555
0.0029999 -0.9027163995901206 0.06229434018359925
0.0049998 -0.9405199972757838 0.005951202015076595
0.0069997 -0.9686795370852683 0.03155375837032298
0.0089996 -0.9624644738926093 0.03825896470468021
0.0109995 -0.9618832904872104 0.044745970882036024
0.0129994 -0.9614852624417415 0.05194899818623655
0.0149993 -0.9602017283441033 0.06048622095035705
0.0169992 -0.9599656224458282 0.0653718725901925
0.0189991 -0.9595342992095771 0.07189442696938941
0.020999 -0.9589183170996634 0.07880200593026626
0.0229989 -0.9580360334251743 0.08559761452667802
0.0249988 -0.9568730979277764 0.0920880971441739
0.0269987 -0.9562280326184174 0.09913676475351361
0.0289986 -0.955286353176563 0.10578344976083773
0.0309985 -0.9540656439679591 0.11248703110471647
0.0329984 -0.9530304293328871 0.11957654716491312
0.0349983 -0.9520108037998345 0.1264068113658744
0.0369982 -0.950351541874316 0.1334256634215356
0.0389981 -0.9489637311009133 0.14030747011735928
0.040998 -0.9480399859234763 0.14723720888314962
0.0429979 -0.9459625854481393 0.15419864547914808
0.0449978 -0.9445279168364273 0.1609912797824728
0.0469977 -0.9437234026637671 0.16825434526934496
0.0489976 -0.9414313560119574 0.17522814265820602
0.0509975 -0.9394688137087315 0.1824665834483123
0.0529974 -0.938332925817815 0.1899832448262498
0.0549973 -0.936014163326844 0.19793480620214382
0.0569972 -0.9346274688646405 0.20440021512987308
0.0589971 -0.932939888823516 0.21181481638033212
0.060997 -0.9316386204867113 0.2195530090937926
0.0629969 -0.9299201114817508 0.22597683994906625
0.0649968 -0.9275423722829169 0.23344983164116156
0.0669967 -0.9266445612866394 0.24084374547440163
0.0689966 -0.9247548435191741 0.24751857803942112
0.0709965 -0.9230260099251302 0.25481326002221083
0.0729964 -0.9210603349643938 0.2622228277474817
0.0749963 -0.9194870008839826 0.26888990767515575
0.0769962 -0.9182024827958244 0.2759080592362784
0.0789961 -0.9156696130083547 0.2823965640289513
0.080996 -0.9136368530164618 0.28954640520532515
0.0829959 -0.9114800544506042 0.2964274567597364
0.0849958 -0.9099659509707029 0.3026172608488622
0.0869957 -0.9080076714337724 0.3093838344207379
0.0889956 -0.905609468740217 0.3155975956988698
0.0909955 -0.9034783164512138 0.32211663150985476
0.0929954 -0.9010409898505053 0.3285472941831601
0.0949953 -0.8983346394635938 0.33493415153869105
0.0969952 -0.8956672709024533 0.3410976355157799
0.0989951 -0.8932213149726185 0.347739579801574
0.100995 -0.8917845807707718 0.3543268940099022
0.1029949 -0.8890592488148048 0.36059935246260527
0.1049948 -0.8863600861909668 0.366805225966238
0.1069947 -0.8834179875412183 0.37263802863969575
0.1089946 -0.8801875149031145 0.37894711711594997
0.1109945 -0.8766562996440693 0.3853490413503391
0.1129944 -0.873726110965525 0.39146465979730616
0.1149943 -0.870113419649814 0.39744815669584915
0.1169942 -0.8666190932638098 0.40400079789827315
0.1189941 -0.8633173311606097 0.41021708774952803
0.120994 -0.8594768590322083 0.4167004714992258
0.1229939 -0.8560790455099754 0.4233796479828158
0.1249938 -0.8525587799707918 0.42986013794892414
0.1269937 -0.8490523615844643 0.43614781964806876
0.1289936 -0.8456344943616206 0.4431282787915449
0.1309935 -0.8422405525432173 0.4493537084629109
0.1329934 -0.8383273873640577 0.4560366248068841
0.1349933 -0.8343707948936844 0.46270480207350745
0.1369932 -0.8309526536126305 0.46874076392616204
0.1389931 -0.827470086304271 0.47541590996778726
0.140993 -0.8236238096863678 0.4820579647151354
0.1429929 -0.8195623680553257 0.4880899854658116
0.1449928 -0.8165504834418066 0.49516880343495945
0.1469927 -0.8128084070139439 0.5009784818542002
0.1489926 -0.8090152437275555 0.507941295990783
0.1509925 -0.805091107431679 0.5135133504286488
0.1529924 -0.8014413396780204 0.5198625173511963
0.1549923 -0.7980843110074357 0.5268444593775682
0.1569922 -0.7943118532801885 0.5322312704117185
0.1589921 -0.7903448733593295 0.5386071584211698
0.160992 -0.7866368487089044 0.5445279340688796
0.1629919 -0.7824195839144812 0.5505472709243866
0.1649918 -0.7783295360847984 0.5560225811751609
0.1669917 -0.7743199005455562 0.5619161220207974
0.1689916 -0.7705296863237043 0.5678532080875294
0.1709915 -0.7663986171638543 0.573260890062696
0.1729914 -0.7619012684010313 0.5786873367608277
0.1749913 -0.7580502232180185 0.5845281969667525
0.1769912 -0.7536373185922286 0.5898691470519057
0.1789911 -0.749398553699659 0.5952276714767949
0.180991 -0.7444745550046502 0.6006923600766251
0.1829909 -0.7400081744302243 0.6059793424730376
0.1849908 -0.7354752486397023 0.6116778216300903
0.1869907 -0.7308293988363451 0.6169057564804437
0.1889906 -0.7257095952317643 0.6222731887356088
0.1909905 -0.7211193212788122 0.6277684072967971
0.1929904 -0.7161999664768184 0.6329722223260594
0.1949903 -0.7112309924745417 0.638327715988345
0.1969902 -0.7062806510466004 0.6437836872356585
0.1989901 -0.7011260369933735 0.6491307433044671
0.20099 -0.6961369860182836 0.6544265639443818
0.2029899 -0.6910381825666397 0.6595442186762934
0.2049898 -0.6860733838297812 0.664760363939961
0.2069897 -0.680596911219519 0.6700641043685626
0.2089896 -0.6753521875404614 0.6752694301685972
0.2109895 -0.6705114619661285 0.6803542073423099
0.2129894 -0.6649730752559239 0.6857388699211021
0.2149893 -0.6595622141545262 0.6910729216126065
0.2169892 -0.654154180119811 0.6961112492395883
0.2189891 -0.6488153296058294 0.7016080195854614
0.220989 -0.6435930063929488 0.7066467197646433
0.2229889 -0.6377617792772977 0.711268166457306
0.2249888 -0.6320756517037162 0.7165776240083765
0.2269887 -0.6266925724150004 0.7213011580792634
0.2289886 -0.6209389534997154 0.7261776072504722
0.2309885 -0.6154704484891794 0.7313641881337851
0.2329884 -0.6100378833594946 0.7361285615643881
0.2349883 -0.6041865506377436 0.740877359330029
0.2369882 -0.5982486476051405 0.7456768230619063
0.2389881 -0.5926073019863628 0.7501497326834475
0.240988 -0.5869978743620573 0.7552059052046912
0.2429879 -0.5809669732679699 0.7597532459078462
0.2449878 -0.5753616740018296 0.7643489963092344
0.2469877 -0.5694568103141676 0.7688877744811043
0.2489876 -0.5638174084377455 0.7734147458350922
0.2509875 -0.5580329078877809 0.7781839907736333
0.2529874 -0.5522548945286075 0.782896402289724
0.2549873 -0.5461954770640244 0.787123526035475
0.2569872 -0.5407168927407615 0.791641095881614
0.2589871 -0.534729136630745 0.7960644309630975
0.260987 -0.5288766574914125 0.8002277294341095
0.2629869 -0.5231092050042936 0.8046320974747376
0.2649868 -0.5169138382232021 0.8081115613306064
0.2669867 -0.5115532388180668 0.8122920007754074
0.2689866 -0.5053411735917678 0.8164502135821078
0.2709865 -0.4996071194366912 0.8202973572730157
0.2729864 -0.49331231118923835 0.8239968822169859
0.2749863 -0.48766751118792234 0.8276523853028586
0.2769862 -0.48161935144726825 0.8313089357143183
0.2789861 -0.47585235042814095 0.8344348150247706
0.280986 -0.4693943085263048 0.8373681190795641
0.2829859 -0.46311200440859446 0.8408021696812994
0.2849858 -0.4568446828596151 0.8439261891819692
0.2869857 -0.45016524410938386 0.8467566205811305
0.2889856 -0.44376588989409765 0.8500347941030111
0.2909855 -0.43704098957718596 0.8532053400599727
0.2929854 -0.43038777322779964 0.8560511822331773
0.2949853 -0.4235533359142528 0.858408547822656
0.2969852 -0.4166285496098026 0.8617888777434272
0.2989851 -0.40970337437839155 0.8641825212386545
0.300985 -0.40248719821214096 0.866459329126402
0.3029849 -0.39498762297247947 0.8690598396476529
0.3049848 -0.38759884556525764 0.8713061160932898
0.3069847 -0.38032369589655396 0.8743333194429666
0.3089846 -0.3724263504047144 0.8765443957198321
0.3109845 -0.36502941406542644 0.8794727323680263
0.3129844 -0.3573576205990216 0.8819746391574859
0.3149843 -0.3491826631858168 0.8846356375878381
0.3169842 -0.34132017773015655 0.8872361513995772
0.3189841 -0.3334839933358199 0.8897261359067394
0.320984 -0.32541829210988127 0.8921709469826566
0.3229839 -0.31743404433495304 0.895298623727172
0.3249838 -0.31003709781113287 0.8974249928640025
0.3269837 -0.3021870945109158 0.8998690159699338
0.3289836 -0.29419199742716495 0.902795108969549
0.3309835 -0.28633064788461776 0.905499029409409
0.3329834 -0.27918433210519444 0.9084188425364164
0.3349833 -0.27180600109589126 0.9117405515182332
0.3369832 -0.2649456309007053 0.915368862388683
0.3389831 -0.2572453421061276 0.9186215534853942
0.340983 -0.2501703419047649 0.9218110875346178
0.3429829 -0.24277093593659607 0.9253059549804986
0.3449828 -0.23597763481921852 0.92834100789788
0.3469827 -0.22882120127520278 0.9311826258350293
0.3489826 -0.22216531382169707 0.9336926943380477
0.3509825 -0.2146590907271341 0.9360385625002547
0.3529824 -0.20784370208112982 0.9387271482605503
0.3549823 -0.20115560616953856 0.9410355375803906
0.3569822 -0.19429702302699212 0.9430617603079247
0.3589821 -0.18785011527291845 0.9446596901277932
0.360982 -0.18118236516371816 0.9464759486746472
0.3629819 -0.17441943064476395 0.9481307015556039
0.3649818 -0.16738911201713652 0.9489291411451671
0.3669817 -0.16036290306195217 0.949463836845883
0.3689816 -0.15361219013804656 0.9508647314659603
0.3709815 -0.14627801838517915 0.9518077222013515
0.3729814 -0.13911935657936533 0.9522170091930323
0.3749813 -0.13226659916912173 0.9527787563202071
0.3769812 -0.1248027477546253 0.9530242135895082
0.3789811 -0.11719149072124105 0.9540195873894056
0.380981 -0.10956381275691335 0.9539212897176179
0.3829809 -0.10197797079368084 0.9541304762535262
0.3849808 -0.09378253623805351 0.9542053892892629
0.3869807 -0.08583644059123212 0.95403955672037
0.3889806 -0.07744309166515786 0.9542123391185356
0.3909805 -0.06903004842210499 0.9543071686056696
0.3929804 -0.06077781224364153 0.9545893172261055
0.3949803 -0.052201714451939024 0.954683780412954
0.3969802 -0.04358213729163135 0.9549429764824359
0.3989801 -0.03537469000419993 0.9550196187964427
0.40098 -0.02650939705661528 0.9558642478790821
0.4029799 -0.01820197699521489 0.9560169418325092
0.4049798 -0.00972730429191649 0.9564777798420447
0.4069797 -0.001368801475215474 0.9569398472187668
0.4089796 0.007037979415928035 0.957352965026293
0.4109795 0.015548710809475293 0.9577514873163664
0.4129794 0.023591611351295023 0.9585510991325806
0.4149793 0.032596314311797145 0.9590614873130474
0.4169792 0.04009715155379988 0.9594422965431841
0.4189791 0.048083664142437865 0.9595183245032293
0.420979 0.05605682612969816 0.9600567029172793
0.4229789 0.06343859467966706 0.9604441056347989
0.4249788 0.0711698099029508 0.9605472661913961
0.4269787 0.07866792529010029 0.9608412461307978
0.4289786 0.08596385306260462 0.9608058250848279
0.4309785 0.0935624003337841 0.9603725893743786
0.4329784 0.10091083569002027 0.9600033272491268
0.4349783 0.10813847136180381 0.9586189753883625
0.4369782 0.11521490072420167 0.9578142670204239
0.4389781 0.12262877766237047 0.956727431860991
0.440978 0.12964801088820016 0.9554604838059371
0.4429779 0.13684149691834238 0.9542131186539455
0.4449778 0.14445868115791533 0.9527430498263739
0.4469777 0.15215531300264162 0.9509819254780636
0.4489776 0.1594803514939914 0.9493011369661388
0.4509775 0.16693614961024558 0.9470418854666564
0.4529774 0.17484429470934768 0.9448073110396958
0.4549773 0.18261125609065268 0.942583255067624
0.4569772 0.19090098612345813 0.9404196770803173
0.4589771 0.19921975454880173 0.9379449029591117
0.460977 0.20761047570548188 0.9354768102962113
0.4629769 0.2158016272934424 0.9334152793967516
0.4649768 0.22425962375576494 0.9311491091888349
0.4669767 0.23248111654335224 0.9288394692598114
0.4689766 0.24113505006786295 0.926607883619702
0.4709765 0.24936423416483244 0.9243274389256223
0.4729764 0.2581558400464059 0.9223192899942287
0.4749763 0.26652650733074357 0.9204891770715998
0.4769762 0.2751347122737534 0.9181904377545368
0.4789761 0.2838409814565802 0.9158851300308904
0.480976 0.292730238132906 0.9138672471547643
0.4829759 0.3009366907552716 0.9118617583040988
0.4849758 0.3094540515313905 0.9101327921593636
0.4869757 0.3175703212908878 0.9081006376392381
0.4889756 0.3258995377552141 0.9060158524321958
0.4909755 0.3340567871590161 0.9041334863821511
0.4929754 0.3418940385585382 0.9021856589770805
0.4949753 0.34930918398165234 0.9003429360152782
0.4969752 0.3565063973757017 0.8979211806322533
0.4989751 0.3639120725154923 0.8956614377972982
0.500975 0.3708689679626094 0.8931123004300406
0.5029749 0.3778904081720703 0.8907500811749984
0.5049748 0.3849573223726249 0.8879798833838466
0.5069747 0.39154663638720066 0.8853069274032347
0.5089746 0.3988852527534929 0.8824812450398891
0.5109745 0.4059129224916025 0.8795239199073349
0.5129744 0.4127241942295218 0.8759694160952416
0.5149743 0.4191861398490269 0.8729851837466297
0.5169742 0.42519013976755476 0.8692058740408598
0.5189741 0.43242301549079565 0.8654381912823674
0.520974 0.4396980170102777 0.8610733167812741
0.5229739 0.4468141590899636 0.8568666437251365
0.5249738 0.45339661440450496 0.8533160781552475
0.5269737 0.4604599978091557 0.8484495658860108
0.5289736 0.4673925440323696 0.8440347502772083
0.5309735 0.4742882901337306 0.8394251457986153
0.5329734 0.48159990547582804 0.8345353570933722
0.5349733 0.48834567770137544 0.829890487568917
0.5369732 0.4957221853881459 0.8249995788136097
0.5389731 0.5033113329780204 0.8197119419099359
0.540973 0.5103499875820089 0.8145348603723334
0.5429729 0.5177252676202425 0.8092598840091149
0.5449728 0.5255209088258121 0.804840370020492
0.5469727 0.5328562445131563 0.7997414522645385
0.5489726 0.5402416891169904 0.7949097880339605
0.5509725 0.5475419118815 0.7896760304681376
0.5529724 0.555205931136158 0.7849342636092028
0.5549723 0.5626836822286825 0.7803329948109406
0.5569722 0.5699277429389317 0.7753773446895157
0.5589721 0.5774199927890321 0.7705662246646815
0.560972 0.5849844128005515 0.7660758116574508
0.5629719 0.5921260128628255 0.7614147635503655
0.5649718 0.5991946611441947 0.7569398727918109
0.5669717 0.6063525480009376 0.7519486349611985
0.5689716 0.6125736032155176 0.7474205623340263
0.5709715 0.6189126214487366 0.7426396076808425
0.5729714 0.625165126099776 0.7376631640860708
0.5749713 0.6318592567830518 0.7326673430363075
0.5769712 0.6381038472747154 0.7276124753043296
0.5789711 0.6445024546017333 0.7230614962987296
0.580971 0.6504424589689952 0.7180352267458845
0.5829709 0.6563787353998726 0.7126681853021068
0.5849708 0.6619755283079178 0.7073199033812574
0.5869707 0.6671978171238502 0.7018106162098734
0.5889706 0.6730788844707658 0.6955837687003019
0.5909705 0.6785116525385484 0.6895226452992369
0.5929704 0.6840205616866178 0.6834896223499297
0.5949703 0.689455030491365 0.6772454479500689
0.5969702 0.6954606984950528 0.6714850341153266
0.5989701 0.70064845414566 0.6649624364451009
0.60097 0.7061386937986157 0.6582528966532031
0.6029699 0.7116609634762389 0.651842966610378
0.6049698 0.7168738774396785 0.6450436769787992
0.6069697 0.7219257515850803 0.6382752905173468
0.6089696 0.7279020724362365 0.6314395043293219
0.6109695 0.7336286609416408 0.6246168863947377
0.6129694 0.7393861997938769 0.6175485794040468
0.6149693 0.7454005739543705 0.6105521145702247
0.6169692 0.7510663045499288 0.6034051525297555
0.6189691 0.7566456200014723 0.5967128402808786
0.620969 0.7621917070229706 0.5895018164015969
0.6229689 0.7678293789652217 0.5826205776254441
0.6249688 0.7731386974495627 0.5760101005525289
0.6269687 0.7789719013467385 0.5686889131690847
0.6289686 0.7845069593104532 0.5621479351390064
0.6309685 0.7900803282983645 0.5552791616061521
0.6329684 0.7951450542879841 0.5486996745088099
0.6349683 0.800306650328386 0.5420879633880881
0.6369682 0.8048565341949362 0.5352923065331596
0.6389681 0.8106402273056257 0.5282554335289796
0.640968 0.8150173021609952 0.5220930655926179
0.6429679 0.8201449184865318 0.5153369076904454
0.6449678 0.824499640450689 0.5087947674380666
0.6469677 0.8290600580629779 0.5014456366916745
0.6489676 0.8333307357173761 0.49486446466388523
0.6509675 0.8373665390580665 0.48830225001410554
0.6529674 0.8411672508138072 0.4811219091746216
0.6549673 0.8451684040392735 0.4744374620140079
0.6569672 0.8487277156817106 0.4672964131126731
0.6589671 0.8527677548969932 0.45932892388719265
0.660967 0.856414038248879 0.45194054034937553
0.6629669 0.8595264998328737 0.44473234753862007
0.6649668 0.8630498479794908 0.4370158871713328
0.6669667 0.8659318448651263 0.4294315310767515
0.6689666 0.8697340374200153 0.421427357842127
0.6709665 0.873325903922702 0.4136654365679587
0.6729664 0.875707909341343 0.40564093710453875
0.6749663 0.8788040209886946 0.3975088233474067
0.6769662 0.8821098179574357 0.3889570665442338
0.6789661 0.88539136140455 0.38121923259038104
0.680966 0.8887951176831492 0.37250763941559273
0.6829659 0.8917233697695353 0.36417952349457433
0.6849658 0.894933019674792 0.3558589247424776
0.6869657 0.8984387301950343 0.3473626578650028
0.6889656 0.9019042312506346 0.3387819926938832
0.6909655 0.9046897043312906 0.33089163276695505
0.6929654 0.9078592747039473 0.32215173152228754
0.6949653 0.9109481282683526 0.3141936427538562
0.6969652 0.9140858294405506 0.3054015359860238
0.6989651 0.9166685376886836 0.2975718494214853
0.700965 0.9197018772909841 0.28901886355821343
0.7029649 0.92247377834747 0.2810558135950465
0.7049648 0.9253307043417618 0.2727160553434833
0.7069647 0.9277731971646381 0.26477477900296276
0.7089646 0.9305066492172045 0.25659470518962
0.7109645 0.9329465288793516 0.24859382334877322
0.7129644 0.9351051807539154 0.24043720999120488
0.7149643 0.937752483920319 0.23245973992563726
0.7169642 0.9398074913832996 0.22436038041395584
0.7189641 0.9414540218804246 0.21611447332529923
0.720964 0.9433959090651591 0.2081688197317543
0.7229639 0.9453323639145045 0.19964432857573655
0.7249638 0.946981096049341 0.19162590826273562
0.7269637 0.9483372183927171 0.18362781225247443
0.7289636 0.9494058731890587 0.17545985955132298
0.7309635 0.9514353647706842 0.16720539029582462
0.7329634 0.952794013143785 0.158566916721569
0.7349633 0.9533420268984627 0.1506621878326062
0.7369632 0.954627450389694 0.14215694852628247
0.7389631 0.955794963481752 0.1335749841022374
0.740963 0.9565706034846672 0.12561253956113844
0.7429629 0.9575546513221325 0.11652813560097527
0.7449628 0.9581060280800381 0.10807423173801536
0.7469627 0.9590188732203213 0.09930401239505868
0.7489626 0.9599292172757977 0.09061323630693532
0.7509625 0.9600674596855595 0.08250314912698245
0.7529624 0.9609336773256292 0.07348519008909163
0.7549623 0.9616911057210087 0.06478324862662778
0.7569622 0.9617074861924876 0.056705346646347146
0.7589621 0.9627539818310754 0.04757879638997074
0.760962 0.9628510366719591 0.039175789504558106
0.7629619 0.9633273535013077 0.030603179645082357
0.7649618 0.9637597852891006 0.02205186723768393
0.7669617 0.9636074722739151 0.013400051681184952
0.7689616 0.9636110063753522 0.004806700205658751
0.7709615 0.9636631581062156 -0.003663842388423752
0.7729614 0.9639167863627264 -0.012021763026344431
0.7749613 0.9633713930789501 -0.020445541544875795
0.7769612 0.9629754353209006 -0.029116566814996664
0.7789611 0.9628210608427574 -0.03739615207288759
0.780961 0.9624259085486592 -0.045975057960723875
0.7829609 0.9618332898409628 -0.054259767239436485
0.7849608 0.9612462716851349 -0.06254629461632538
0.7869607 0.9605044643434469 -0.07088748695546204
0.7889606 0.9596907588284809 -0.07972057943858407
0.7909605 0.9584690416518622 -0.08786236274787618
0.7929604 0.9575442300213178 -0.09619203326357446
0.7949603 0.9567435169663183 -0.10490440462153999
0.7969602 0.9555042921785795 -0.11311344343858296
0.7989601 0.9539094822714518 -0.12178271342374836
0.80096 0.9527997322286259 -0.13037675898457243
0.8029599 0.9513392148255536 -0.13845821005212622
0.8049598 0.950266483658367 -0.14755349019315997
0.8069597 0.9491151912607368 -0.15585650591959263
0.8089596 0.9472948066835591 -0.164654951851153
0.8109595 0.9456041013262281 -0.17331673450177748
0.8129594 0.9443057862889803 -0.18178669176241535
0.8149593 0.9426883714825657 -0.19050571050845874
