! Created with skrf 1.8.0 (http://scikit-rf.org).
# GHz S RI R 50.0 
!freq ReS11 ImS11
0.001 -1.185911971211997 -0.02619173421560167
0.0029999 -0.9560714531832583 0.040116380970038334
0.0049998 -0.9669507329410221 0.026818176240680475
0.0069997 -0.9546562080897416 0.031952925208856175
0.0089996 -0.9540354408480806 0.030993142465741697
0.0109995 -0.9533578456732305 0.037511012247129716
0.0129994 -0.9539712807139649 0.04292890896742385
0.0149993 -0.9529592667441539 0.04934242525283383
0.0169992 -0.9526278465240894 0.054298592249279465
0.0189991 -0.9525436263496643 0.059553021382796834
0.020999 -0.9516677520715232 0.06578461067937502
0.0229989 -0.9510257010237582 0.0716865043763204
0.0249988 -0.9500377514188214 0.07718841727852396
0.0269987 -0.9496630713533042 0.08323814348978817
0.0289986 -0.9488622091189214 0.08888719266405834
0.0309985 -0.9478342710689744 0.09457356783522128
0.0329984 -0.9471829735078721 0.10064242263527395
0.0349983 -0.9464725964874701 0.10663674059025496
0.0369982 -0.945260836782266 0.11250752708062328
0.0389981 -0.944212323285473 0.11827952335010955
0.040998 -0.9436591434703164 0.12413975286146034
0.0429979 -0.9420440537553362 0.12991130679713198
0.0449978 -0.941081712251338 0.13577891147120413
0.0469977 -0.9402223661597665 0.14159597046250388
0.0489976 -0.9386616486727504 0.14756155080335448
0.0509975 -0.9371783349283864 0.15370405561274342
0.0529974 -0.936410589048923 0.15992840200510205
0.0549973 -0.934306502371212 0.16674773524413328
0.0569972 -0.9335888368967118 0.1719959512901609
0.0589971 -0.9321098322171544 0.1781688205074444
0.060997 -0.9313282755154828 0.18472192376769936
0.0629969 -0.9301441909884712 0.1900807449952227
0.0649968 -0.9281935190444187 0.196269649857258
0.0669967 -0.9280169201208457 0.2029084987132445
0.0689966 -0.926454771242809 0.20812592294452958
0.0709965 -0.925276436848004 0.21389856491670195
0.0729964 -0.9238208917802084 0.22058121897075988
0.0749963 -0.9223908222522983 0.22619113109800237
0.0769962 -0.9216399312118055 0.23186870325603132
0.0789961 -0.9199726091331696 0.2374900105290411
0.080996 -0.9183933792475435 0.24347351857470906
0.0829959 -0.9169617416470585 0.2494677222511018
0.0849958 -0.9161608829558741 0.25433762153040623
0.0869957 -0.9147275056344618 0.260462280078355
0.0889956 -0.9128944814564309 0.2654624757092634
0.0909955 -0.9113575297909484 0.27135691734980627
0.0929954 -0.9093867020065285 0.2766336883142947
0.0949953 -0.9078145430827212 0.2821171395135527
0.0969952 -0.9058638949998963 0.2874572724338444
0.0989951 -0.9037601782450811 0.2928754670497228
0.100995 -0.9030561051223849 0.29897020452047507
0.1029949 -0.9009871510249076 0.30425723842382646
0.1049948 -0.8991890524758189 0.3097481135873485
0.1069947 -0.8970533000826177 0.31487356861980603
0.1089946 -0.8947776947460503 0.32016290716766077
0.1109945 -0.8923322254121906 0.3255156698405017
0.1129944 -0.8900596830272537 0.33084316859777696
0.1149943 -0.8872780919146299 0.33610974899950596
0.1169942 -0.884722950183445 0.3418062202982823
0.1189941 -0.8823958931029017 0.34720312325633873
0.120994 -0.8796960648537061 0.35290698454872355
0.1229939 -0.8771409212327461 0.3583552255658946
0.1249938 -0.8745752167271944 0.36402091786162594
0.1269937 -0.8720319743464445 0.3694741126243759
0.1289936 -0.8696409297186947 0.3754542313837258
0.1309935 -0.8669968274981177 0.38101629210484633
0.1329934 -0.8645258912285662 0.38662386914879804
0.1349933 -0.8614877042036159 0.39240021700052263
0.1369932 -0.8590297016834519 0.39770092509198113
0.1389931 -0.8566020238647957 0.4034532346878379
0.140993 -0.8537192381028584 0.40889919949074843
0.1429929 -0.851036110402173 0.414773433951729
0.1449928 -0.8488516229103645 0.42042817925435216
0.1469927 -0.8462813895792901 0.4257132545482429
0.1489926 -0.8434142398612903 0.43157806452142644
0.1509925 -0.8406547018005188 0.4366686663857383
0.1529924 -0.8377821832193165 0.442477915711617
0.1549923 -0.8356983186901517 0.4480851649158044
0.1569922 -0.8330745960301936 0.45257825655068107
0.1589921 -0.8301079338119968 0.45844220877569386
0.160992 -0.8274742262823307 0.4632810061184902
0.1629919 -0.8242350507641412 0.4688232323620307
0.1649918 -0.8213862404383152 0.474009640525361
0.1669917 -0.818784499487644 0.4787115088572088
0.1689916 -0.816067340125883 0.48409536736476855
0.1709915 -0.8130610849969302 0.488997681017339
0.1729914 -0.8096312686915678 0.4938804517615458
0.1749913 -0.8068337941857552 0.4990946005625154
0.1769912 -0.8035546147495295 0.5038074020160103
0.1789911 -0.8008243229893238 0.5087129220443608
0.180991 -0.7973546872812072 0.5137489625114862
0.1829909 -0.7940005488341333 0.5183561519240891
0.1849908 -0.7907532366072789 0.5235177844824596
0.1869907 -0.7871067058873994 0.5281666789557404
0.1889906 -0.783735885417965 0.5332312597240559
0.1909905 -0.7803854385117432 0.5381035091473709
0.1929904 -0.7767936347965969 0.5429541115650055
0.1949903 -0.7730700258184777 0.547940702063471
0.1969902 -0.7692816819362958 0.5528824202799413
0.1989901 -0.7659130214802186 0.5579544343157453
0.20099 -0.7623849283824027 0.5628606859635956
0.2029899 -0.758444147276975 0.56742553592137
0.2049898 -0.7548342018006328 0.5717159480933004
0.2069897 -0.7509310680267324 0.577041727505865
0.2089896 -0.7472464095717972 0.5814427699864491
0.2109895 -0.7437812554115645 0.5864616461687268
0.2129894 -0.7399529080963729 0.591523991609841
0.2149893 -0.735950048349464 0.5962630207387155
0.2169892 -0.7321276124542706 0.6011982974172413
0.2189891 -0.7281209079282894 0.6062727346621521
0.220989 -0.7244441662841188 0.610688399741396
0.2229889 -0.7206256094020534 0.6151291943231707
0.2249888 -0.7159536744604731 0.6204300313772597
0.2269887 -0.7120946978440377 0.6242701004586991
0.2289886 -0.7078997788564663 0.6292569619799315
0.2309885 -0.7040690933769781 0.6342487307581807
0.2329884 -0.6998213376831184 0.638311997141147
0.2349883 -0.6956100471075266 0.6433429657294547
0.2369882 -0.6915949558094306 0.6477554632664122
0.2389881 -0.6871981675061665 0.6522962121966668
0.240988 -0.683171360686098 0.6567171648808715
0.2429879 -0.6789869365516924 0.661531219222396
0.2449878 -0.6747705022457484 0.6657200004998192
0.2469877 -0.6704257415251448 0.6703261677180605
0.2489876 -0.6660808316388763 0.6746561894082624
0.2509875 -0.6622683283975789 0.6794165116314579
0.2529874 -0.6579986472068391 0.6838309187209676
0.2549873 -0.6538828373581876 0.6883138823553993
0.2569872 -0.6498189507082435 0.6926544272053079
0.2589871 -0.6456533824921695 0.6970813710449083
0.260987 -0.6414173105226062 0.701080121691914
0.2629869 -0.6370416343627937 0.7053899999754887
0.2649868 -0.6329729173216809 0.7091892305772158
0.2669867 -0.6288463939707486 0.7130433384150696
0.2689866 -0.624279120398214 0.7173414376906646
0.2709865 -0.6202774117485486 0.7213675907372026
0.2729864 -0.6156598512371212 0.7251733833077705
0.2749863 -0.6114565369353957 0.7289900016513814
0.2769862 -0.6071280957448211 0.7328002402830416
0.2789861 -0.6029229468775781 0.7362842279282817
0.280986 -0.5984979123147097 0.7393792115793898
0.2829859 -0.5935240514978943 0.7427136205794258
0.2849858 -0.5889788546859688 0.7461668786035458
0.2869857 -0.5840246147529177 0.7497397789045581
0.2889856 -0.5792157491558543 0.7527037572557006
0.2909855 -0.5740227989541415 0.7563128013609657
0.2929854 -0.5691893017119257 0.7598396996964999
0.2949853 -0.5637528638338686 0.7625742741361649
0.2969852 -0.5586625598555938 0.7657801071943469
0.2989851 -0.5534590880926319 0.7692734577107045
0.300985 -0.5480736250657715 0.7716651885442601
0.3029849 -0.5425379800739007 0.7750831379860401
0.3049848 -0.5367154032284298 0.7781276786006122
0.3069847 -0.5309158853817214 0.7813518192561696
0.3089846 -0.5251097308320217 0.7843660979314606
0.3109845 -0.5194321418996432 0.7878527737687927
0.3129844 -0.5133745810937523 0.7910575941245082
0.3149843 -0.5072557060624852 0.7943036359076027
0.3169842 -0.5011780589438849 0.7978272860144372
0.3189841 -0.4951892012910687 0.8006469729918305
0.320984 -0.4888369495747623 0.8041954561913126
0.3229839 -0.48299170123787855 0.8076440480755327
0.3249838 -0.4770064633070304 0.8109964527415104
0.3269837 -0.4712126111831829 0.8141988471253085
0.3289836 -0.46521964179108455 0.8178148488019005
0.3309835 -0.4591832323837801 0.821280847983137
0.3329834 -0.4535723102694424 0.8248128314967709
0.3349833 -0.4481546089376882 0.8286350960223269
0.3369832 -0.44326225715756956 0.832912073139264
0.3389831 -0.43769376169228474 0.8368236890883023
0.340983 -0.4324986459818047 0.840973091116542
0.3429829 -0.4278167591902223 0.8451095433841246
0.3449828 -0.42233393401349867 0.8487627951408402
0.3469827 -0.41758511669316806 0.85242461841204
0.3489826 -0.4122280131948727 0.8557159470506495
0.3509825 -0.4073789730149474 0.8591679704197871
0.3529824 -0.4021007922352301 0.8623959545708633
0.3549823 -0.397259336759904 0.8654448407836888
0.3569822 -0.39219733279898683 0.86838729088204
0.3589821 -0.38730874179799923 0.8710614041593148
0.360982 -0.38225010935384574 0.8738927884437857
0.3629819 -0.37740857944699435 0.8762276593778815
0.3649818 -0.3720416562636317 0.8781637556894252
0.3669817 -0.366748515806847 0.8799229758930228
0.3689816 -0.3615487832519567 0.8823117697517243
0.3709815 -0.35594348093282946 0.8840485300191672
0.3729814 -0.3501051398734385 0.8858461068588098
0.3749813 -0.3449702033930402 0.8876049076945659
0.3769812 -0.33931771565687197 0.8889813991042806
0.3789811 -0.33332646965832124 0.8908504296813842
0.380981 -0.32724819448785036 0.8920678004720717
0.3829809 -0.3208994644938123 0.8937877426629652
0.3849808 -0.31477534265973556 0.8958430644206492
0.3869807 -0.3082488702921661 0.8967493580333475
0.3889806 -0.3017560886666922 0.8987374275585055
0.3909805 -0.2947867401037358 0.9001171153478722
0.3929804 -0.28790050612453066 0.9021146386825861
0.3949803 -0.2816224868690155 0.9038665183384571
0.3969802 -0.27438927374107197 0.9056564769463054
0.3989801 -0.26795546722027674 0.9073631565235761
0.40098 -0.26094237652567354 0.9096299577027961
0.4029799 -0.25454421615183037 0.9118987683961975
0.4049798 -0.24747932309116186 0.9139119132702547
0.4069797 -0.24129326779302196 0.9158323945551872
0.4089796 -0.23450894861225927 0.9178148356776215
0.4109795 -0.22799953370328702 0.9201952019804563
0.4129794 -0.22120746098358907 0.9227385544912343
0.4149793 -0.21450261650699853 0.9251035859026161
0.4169792 -0.2084503467402046 0.9269437176582049
0.4189791 -0.2021593798594844 0.9291495609059136
0.420979 -0.1959417117832722 0.931125679425316
0.4229789 -0.1903545267574217 0.9331090798808324
0.4249788 -0.184452706985282 0.9350987608159802
0.4269787 -0.17844032646673835 0.9368683512263083
0.4289786 -0.17284588335027337 0.9385215789377428
0.4309785 -0.16703443528181738 0.9401813697976726
0.4329784 -0.1608755843066323 0.9414000347390441
0.4349783 -0.15492428351420623 0.9419092232291313
0.4369782 -0.14940447298232007 0.9426122694474881
0.4389781 -0.14350054247569838 0.9436817996274008
0.440978 -0.13755920604792965 0.9443925659211998
0.4429779 -0.1318091829269 0.9448788778529104
0.4449778 -0.12581372562422094 0.9452564480274788
0.4469777 -0.11959810443667204 0.9449732439150015
0.4489776 -0.11331568012052855 0.9456565432498578
0.4509775 -0.10662398821885562 0.9458212923606844
0.4529774 -0.10018662262929648 0.9457543939159965
0.4549773 -0.09360047049391537 0.9455900948567806
0.4569772 -0.08645216683969568 0.9453974129423082
0.4589771 -0.07943901897462702 0.9454954547797946
0.460977 -0.07201178469333872 0.9456382467371992
0.4629769 -0.06495820702234928 0.9458750887430409
0.4649768 -0.05818385528700804 0.9457042845846858
0.4669767 -0.05090255343608 0.945961772243091
0.4689766 -0.0434017368738004 0.9462339440151534
0.4709765 -0.03628581292783523 0.9466499257323703
0.4729764 -0.02865832266174672 0.9470961078832639
0.4749763 -0.021245706384799334 0.9476166350657895
0.4769762 -0.01408259226330702 0.9481223291906081
0.4789761 -0.006359472119788594 0.948829914404673
0.480976 0.0011516665198713083 0.9498544596341348
0.4829759 0.007922504939344252 0.9499479744426177
0.4849758 0.014965060850127405 0.9508732326780484
0.4869757 0.022139313875905987 0.9514625976772755
0.4889756 0.029308191632408817 0.9523758899248838
0.4909755 0.03607425603562336 0.9529959101258735
0.4929754 0.042531938793379256 0.9536726558070321
0.4949753 0.048828679393593546 0.9544783746164316
0.4969752 0.05521736467312541 0.9547103307133629
0.4989751 0.06141838619556125 0.9550201721831593
0.500975 0.06753930253538333 0.9547341558273255
0.5029749 0.07331444700228656 0.9550331623062002
0.5049748 0.07937733331125965 0.9547015392776116
0.5069747 0.08490120810890617 0.9546215736938309
0.5089746 0.09098741250643612 0.9540941950432662
0.5109745 0.09733680657083649 0.9539125664476996
0.5129744 0.10335843471324058 0.953291765296587
0.5149743 0.10911226377857292 0.9524812898655114
0.5169742 0.11482650277590246 0.9509916803175689
0.5189741 0.12090328071814241 0.9499245412153918
0.520974 0.12772718118850238 0.9485607118308137
0.5229739 0.13427353268317305 0.947200105803848
0.5249738 0.14061416622133255 0.9459612258896933
0.5269737 0.14719220148686019 0.9440925942689021
0.5289736 0.15336431724324534 0.9428402909928284
0.5309735 0.16011016499866831 0.94072716091099
0.5329734 0.16683476540601178 0.9386112970164285
0.5349733 0.17341314456764184 0.9364839571075462
0.5369732 0.18090110810818666 0.9346175929761696
0.5389731 0.1879841993655526 0.9332413989584002
0.540973 0.19499991033860917 0.9304346096640428
0.5429729 0.20219268392753303 0.9287834839006898
0.5449728 0.2094365806072237 0.9271323944059713
0.5469727 0.21704703573324444 0.9253132526147566
0.5489726 0.22421803373466306 0.9240776669716082
0.5509725 0.23165043438358868 0.9218542290149994
0.5529724 0.2391524068685291 0.9205878510047737
0.5549723 0.24643506799670156 0.9191313964974971
0.5569722 0.25352425102160353 0.9177440506204646
0.5589721 0.2609108175769092 0.9164658267189784
0.560972 0.26817337628891125 0.9153101908302749
0.5629719 0.27537709612247774 0.9137203729746485
0.5649718 0.28222972458755435 0.9131281546327215
0.5669717 0.28918976861077206 0.9116891502980732
0.5689716 0.2954017894040271 0.9101465443270162
0.5709715 0.3016261075228339 0.9083545781672461
0.5729714 0.3078483589932959 0.9068933247409717
0.5749713 0.31430461407704724 0.9051035879475157
0.5769712 0.3205203540454362 0.9032438947326413
0.5789711 0.3261698008457318 0.9017400839368539
0.580971 0.3323435739798726 0.90007207944852
0.5829709 0.3383159252904061 0.8980758376118827
0.5849708 0.3441183328219356 0.8959867389754357
0.5869707 0.35011761656624596 0.8934234063740885
0.5889706 0.35596301068515035 0.8905458121027061
0.5909705 0.3618588894801307 0.887442268361441
0.5929704 0.36783716168738007 0.8844442574823612
0.5949703 0.3739414599168349 0.8812483052858237
0.5969702 0.37969509210027774 0.8783544272687667
0.5989701 0.3859580460360691 0.8753068690235117
0.60097 0.3921787730240694 0.8716138906028045
0.6029699 0.398289934005218 0.868042981781788
0.6049698 0.404648910767118 0.8644328016136879
0.6069697 0.4111679860016699 0.861100409436403
0.6089696 0.4176996193727989 0.8575551871783271
0.6109695 0.42467076603325615 0.8538379312134506
0.6129694 0.43136733533755645 0.8499052237327179
0.6149693 0.43803389282991956 0.8467323669108296
0.6169692 0.4450481575792882 0.8431336632699047
0.6189691 0.4516548319974058 0.8396848901132272
0.620969 0.45846112194046407 0.8362072051941789
0.6229689 0.4656929595407834 0.8325389552413742
0.6249688 0.4726663959030483 0.8294399473820765
0.6269687 0.47957093922883687 0.8259185774925124
0.6289686 0.486209498645535 0.8226830749397986
0.6309685 0.49281940778416916 0.8197803121148746
0.6329684 0.4990593820795832 0.8168093690336973
0.6349683 0.5050839761267362 0.8133343725795888
0.6369682 0.5112123156347071 0.8101558230659149
0.6389681 0.5175109563755927 0.8068130713053728
0.640968 0.5238075602296 0.8041186067472972
0.6429679 0.5290520362501245 0.8015267170044195
0.6449678 0.5348727106673226 0.7983078752344215
0.6469677 0.5406368119894224 0.7951808693274206
0.6489676 0.5466226729282023 0.7919142825476473
0.6509675 0.5511749497106885 0.7885702630213604
0.6529674 0.5564396163839616 0.7848892294173256
0.6549673 0.5618201908510325 0.78148153206676
0.6569672 0.5666436578066056 0.7779773919609345
0.6589671 0.5720160967022156 0.7735147393692798
0.660967 0.5769620826856383 0.7690976673816685
0.6629669 0.5816609579831721 0.7645257640410839
0.6649668 0.5868779033488031 0.7600880488305848
0.6669667 0.591545871662394 0.7552107231782256
0.6689666 0.5970615167217398 0.7500711692745112
0.6709665 0.6022340878100026 0.7448780024945111
0.6729664 0.6070414803337949 0.7398930585374242
0.6749663 0.6121791496424679 0.7345722221997428
0.6769662 0.6173172301808881 0.7290295248262093
0.6789661 0.622295738075974 0.7234041315677221
0.680966 0.6278495680701969 0.7178563987084883
0.6829659 0.6338303005471736 0.7122923967017847
0.6849658 0.6393122169121446 0.7068782241498436
0.6869657 0.6454132585261112 0.7011393272002496
0.6889656 0.6512812400241972 0.6957261668505862
0.6909655 0.6570026611343758 0.6906074272913248
0.6929654 0.6631524994378567 0.6851124551344339
0.6949653 0.6687173908897094 0.6800341691403776
0.6969652 0.6749142781268749 0.6745645058190682
0.6989651 0.6800637382764794 0.6695709683243498
0.700965 0.6860905118810896 0.6641430061943151
0.7029649 0.691791711726434 0.6593707747152785
0.7049648 0.6973568501095107 0.6543637137975322
0.7069647 0.702706165843366 0.6496494579765156
0.7089646 0.7085666712244231 0.6446985142171716
0.7109645 0.7136648538137342 0.6399527216198855
0.7129644 0.7183055115298917 0.6351161762137545
0.7149643 0.7235505115297307 0.6305649996763721
0.7169642 0.7282400513379338 0.6258659248303603
0.7189641 0.7326214552283039 0.6208312572831739
0.720964 0.7371482770787106 0.6158198680342083
0.7229639 0.7420835084591131 0.6105114856586824
0.7249638 0.746205111469997 0.605861851015088
0.7269637 0.7506224306192225 0.600619501414357
0.7289636 0.7542116566334034 0.5960709389859139
0.7309635 0.758984269139275 0.5898367230918409
0.7329634 0.7626473243505144 0.5848278866271717
0.7349633 0.7659796575685237 0.578868370029049
0.7369632 0.7700892535743546 0.573420345746449
0.7389631 0.773199052044048 0.5673810734350933
0.740963 0.7766651663604351 0.5611913058768075
0.7429629 0.780637525479925 0.5549606404637216
0.7449628 0.7842933445236511 0.5485391831247703
0.7469627 0.7882894111220248 0.5415537709963675
0.7489626 0.791938658850916 0.5350198766683049
0.7509625 0.7953107446296208 0.5287248735069963
0.7529624 0.7994004349743218 0.5219827279053222
0.7549623 0.8034783263909956 0.515406926075586
0.7569622 0.807112349651097 0.5081558026388563
0.7589621 0.8114866042628047 0.5014069688536914
0.760962 0.8155155083763148 0.49460579384186043
0.7629619 0.8195293252331113 0.48776185418419304
0.7649618 0.8239269012354035 0.48171165847070074
0.7669617 0.8281324066185992 0.47409493634526273
0.7689616 0.8320447707245185 0.4673367005857983
0.7709615 0.8357641477671518 0.46091980425375595
0.7729614 0.8397310840976373 0.4546735649257588
0.7749613 0.8435976070663269 0.44789984423261014
0.7769612 0.8476440668080276 0.4414605802027482
0.7789611 0.8515761202998812 0.43543088832257715
0.780961 0.8556420514610883 0.42885143515748264
0.7829609 0.8586565673093416 0.42284601357601687
0.7849608 0.862298494515379 0.41662489353338017
0.7869607 0.8657189182016907 0.4105741126692303
0.7889606 0.8691450232108852 0.40411774213966795
0.7909605 0.8724439814247735 0.3978751756905446
0.7929604 0.8756403799240954 0.3922842309442707
0.7949603 0.8790078538138212 0.3858595610345856
0.7969602 0.8814899700477394 0.37976533773308646
0.7989601 0.88413778665545 0.37311635412670496
0.80096 0.8869328340679776 0.3668710002017873
0.8029599 0.8897043724269367 0.3606107319228347
0.8049598 0.8916051017889648 0.3541233030817231
0.8069597 0.8941106497104673 0.34755989957133326
0.8089596 0.8960049534911239 0.34057765800320033
0.8109595 0.8978244472585114 0.3336906822106941
0.8129594 0.9003255593699782 0.3266131154054892
0.8149593 0.9021404903554894 0.3196130463696878
