! Created with skrf 1.8.0 (http://scikit-rf.org).
# GHz S RI R 50.0 
!freq ReS11 ImS11
0.001 -0.9510132819803548 0.08616395681610806
0.0029999 -0.970692294133779 0.019526084778132335
0.0049998 -0.9576387358580687 0.022403307651260113
0.0069997 -0.9557207550747764 0.025963824312360717
0.0089996 -0.9551508218774516 0.034226222196104716
0.0109995 -0.9538782678439557 0.04074125879320667
0.0129994 -0.9539273006221705 0.04850417770356852
0.0149993 -0.9534332808161354 0.05674593944052131
0.0169992 -0.9530901413878692 0.06234786486647892
0.0189991 -0.9526170434673787 0.06919594601483525
0.020999 -0.9520780730174576 0.07630201224746147
0.0229989 -0.9511963028677619 0.08330352573777922
0.0249988 -0.9500799176829058 0.08999416469054836
0.0269987 -0.9495538708368554 0.0971241898746533
0.0289986 -0.9485463197803226 0.10386565965272912
0.0309985 -0.9474023238557538 0.11064632363686741
0.0329984 -0.9464761375359774 0.11775093900206252
0.0349983 -0.9455548439136098 0.12460118274827764
0.0369982 -0.9440222821484203 0.13158529293653148
0.0389981 -0.9426474581306153 0.13832317994982557
0.040998 -0.9417784484232239 0.14527309260201138
0.0429979 -0.9398385272774985 0.1520057597782805
0.0449978 -0.938505713738176 0.15895093546188832
0.0469977 -0.9374964525840139 0.16580590455161193
0.0489976 -0.9353868478216595 0.1726990719115158
0.0509975 -0.9335114566976038 0.17967821692967467
0.0529974 -0.9321600694474322 0.18691471634011142
0.0549973 -0.9300884314449152 0.1947594837260594
0.0569972 -0.9286203416026726 0.2009804537096855
0.0589971 -0.9269233235129075 0.2083540151172175
0.060997 -0.9259309296821756 0.21580869408838355
0.0629969 -0.9239844560718082 0.22210868975370818
0.0649968 -0.9217955492289747 0.22940201271888616
0.0669967 -0.920912602401683 0.2366887379059538
0.0689966 -0.918932617121056 0.2430450961534141
0.0709965 -0.9173995361815549 0.2500802188469083
0.0729964 -0.9152362246138952 0.257242579460045
0.0749963 -0.9136357309368113 0.2639157509232148
0.0769962 -0.9123131860160629 0.27066817271649074
0.0789961 -0.9100879486835718 0.27706470746808376
0.080996 -0.9080700663067971 0.28420676500452147
0.0829959 -0.9058564948198852 0.2909612342375016
0.0849958 -0.9045028562900264 0.29702368179554023
0.0869957 -0.9025862207074373 0.3037424590863231
0.0889956 -0.9002220858295809 0.3098898177701159
0.0909955 -0.8979587114785191 0.316323777853037
0.0929954 -0.8957365084460683 0.32274794408720936
0.0949953 -0.8930880264239018 0.3290901896482851
0.0969952 -0.8906166298690813 0.3352019694636021
0.0989951 -0.8877827356213372 0.3419217861093552
0.100995 -0.8866056514869434 0.34841730394538883
0.1029949 -0.8839352557035923 0.35461881206608836
0.1049948 -0.8814558111124512 0.36091162024919815
0.1069947 -0.8785115551342326 0.366699065553055
0.1089946 -0.8753343795553519 0.3728987088287033
0.1109945 -0.8719546047867466 0.3792420308366878
0.1129944 -0.8691335422572594 0.3854558192173617
0.1149943 -0.8655980316038998 0.39136295007062494
0.1169942 -0.86223150310957 0.39778932783980697
0.1189941 -0.858988902569466 0.4040050819959779
0.120994 -0.8551532653145684 0.4103090401577103
0.1229939 -0.8519389219168376 0.41694836059154394
0.1249938 -0.8485073475399035 0.42327169115139823
0.1269937 -0.8450427344977486 0.42948880175629983
0.1289936 -0.8417307725797049 0.43652207373736773
0.1309935 -0.8384568461409981 0.44285967268768006
0.1329934 -0.8348347865265605 0.4490347774299252
0.1349933 -0.8310044741449483 0.4550703248996444
0.1369932 -0.8276111154399192 0.4614745795846984
0.1389931 -0.8240412133667283 0.46802226526256147
0.140993 -0.8204647643243482 0.4742242305010469
0.1429929 -0.8164590805206225 0.4805138454188193
0.1449928 -0.8138079284079662 0.4871290533213978
0.1469927 -0.8098157913404767 0.49337148136400477
0.1489926 -0.8063592480222876 0.4997278684834756
0.1509925 -0.8026615386543404 0.5054496134921758
0.1529924 -0.7989094834564924 0.5116803369311128
0.1549923 -0.7955220384073844 0.5185306883446311
0.1569922 -0.7918373882023712 0.5235488775892236
0.1589921 -0.7880432404969901 0.5300938851710418
0.160992 -0.7842457852428992 0.536077086788698
0.1629919 -0.7803798926183017 0.5418376463382787
0.1649918 -0.7762531974432668 0.5473853720222346
0.1669917 -0.7722772129188704 0.552942121153812
0.1689916 -0.7688939682748485 0.5590127193609321
0.1709915 -0.7644254830250239 0.5643139267814299
0.1729914 -0.7601938309704138 0.5696664103518372
0.1749913 -0.7565459628634491 0.5753742826594351
0.1769912 -0.7521119198978751 0.5807662468555472
0.1789911 -0.7480997151962652 0.5860048607971992
0.180991 -0.7432072159439672 0.591512357511184
0.1829909 -0.7388581003445381 0.5967650177845748
0.1849908 -0.7343970014318332 0.6025147361664323
0.1869907 -0.7299219843438938 0.60765585020401
0.1889906 -0.7249534415271941 0.6130062813183162
0.1909905 -0.7204568485725544 0.6182823692898812
0.1929904 -0.7155794365204783 0.6236127253914285
0.1949903 -0.7106825812968649 0.6289640248283187
0.1969902 -0.7056285849832711 0.6345385547837066
0.1989901 -0.7008448275850421 0.6396559508802193
0.20099 -0.6958494140897116 0.6453294930415784
0.2029899 -0.6910128568632151 0.6497560261930507
0.2049898 -0.6860640866601929 0.6552832275122741
0.2069897 -0.6808488044677362 0.6603483664317574
0.2089896 -0.6753948550890732 0.6659264901733214
0.2109895 -0.6709340531322288 0.6708856196365262
0.2129894 -0.6653870833450269 0.6763002578399686
0.2149893 -0.6602205413976445 0.6813838119655574
0.2169892 -0.6550536339358236 0.686542094622731
0.2189891 -0.6498105923490289 0.6918106082484757
0.220989 -0.6446109663686852 0.6969665556156657
0.2229889 -0.6391846298090386 0.7015106543704099
0.2249888 -0.6336599111869905 0.7063930927507236
0.2269887 -0.6282156576639357 0.7113960447619128
0.2289886 -0.6227081076026353 0.7163604956876596
0.2309885 -0.6172869240894853 0.7214301367593363
0.2329884 -0.6118668685727993 0.7260499823478328
0.2349883 -0.6062899781812088 0.7306102619635311
0.2369882 -0.6005807696168135 0.7356136059970068
0.2389881 -0.5949271125481266 0.7402129971295943
0.240988 -0.5894738335764909 0.7449880650017116
0.2429879 -0.5837578299238735 0.7495278974619461
0.2449878 -0.5781887768143256 0.7541423237448911
0.2469877 -0.5722093885368368 0.7584310952543519
0.2489876 -0.5666778111315387 0.763062441692739
0.2509875 -0.5611146940594008 0.7679502779828618
0.2529874 -0.5554933312195419 0.7724208698976118
0.2549873 -0.5498611391577236 0.7767787270313702
0.2569872 -0.54426794678371 0.7812089981713498
0.2589871 -0.5382006571059854 0.7857546459935718
0.260987 -0.5326508441119626 0.7899811166830458
0.2629869 -0.5269273864704669 0.7942816843927996
0.2649868 -0.5207484922375853 0.798095346836437
0.2669867 -0.5154489595814697 0.8019190522367444
0.2689866 -0.5095800319786685 0.8059934436132469
0.2709865 -0.5039515613277066 0.8100439279969981
0.2729864 -0.4977977933962521 0.8136612806974591
0.2749863 -0.4918142141864573 0.8173084090425382
0.2769862 -0.48627212850598894 0.8209445941029342
0.2789861 -0.48046579647641785 0.8244732182936523
0.280986 -0.4743390359552526 0.8271575217409461
0.2829859 -0.4679271645633376 0.8306753925763779
0.2849858 -0.46181491226958793 0.8338596298172716
0.2869857 -0.4551934704627266 0.8366766832503039
0.2889856 -0.44883921019427203 0.8399882539400074
0.2909855 -0.44239700444034796 0.8433389550138326
0.2929854 -0.435709723239102 0.8459410653486593
0.2949853 -0.42910200253416325 0.8484909774586505
0.2969852 -0.42223932397999286 0.8519721295891662
0.2989851 -0.4155447769649948 0.8544587801709261
0.300985 -0.40835809759692876 0.8569054114847873
0.3029849 -0.40125495608812645 0.8595215243847346
0.3049848 -0.39388691432174155 0.8618364363701696
0.3069847 -0.3865431140920172 0.865018204631559
0.3089846 -0.37913773311755933 0.8671786323984387
0.3109845 -0.37193216105264815 0.8700385238156014
0.3129844 -0.36416927797039145 0.8726212057255925
0.3149843 -0.35622753122963025 0.8753341173855425
0.3169842 -0.3486622521031417 0.8779750826484135
0.3189841 -0.3407859107264414 0.8804533481019238
0.320984 -0.3328329169574382 0.8832180441200541
0.3229839 -0.32519123076781886 0.8861753032480851
0.3249838 -0.3181707538352063 0.8882500105781811
0.3269837 -0.3098533396937302 0.8910082797067689
0.3289836 -0.3022418762711466 0.8938375813920847
0.3309835 -0.2945047947153469 0.896720171529084
0.3329834 -0.2878224321053835 0.899382431540107
0.3349833 -0.28020667278342126 0.9027720600236672
0.3369832 -0.2736293098277891 0.9063442774924095
0.3389831 -0.26604933197311553 0.9095648003930296
0.340983 -0.2591542493667281 0.9127574806678023
0.3429829 -0.25185580750143405 0.9162900363823913
0.3449828 -0.2451608785944558 0.9192399723218672
0.3469827 -0.23831789726999486 0.9221865997287817
0.3489826 -0.23165637518932086 0.9248609607296898
0.3509825 -0.22450073629712358 0.9271091332813233
0.3529824 -0.21769735700329124 0.9297930558358739
0.3549823 -0.21087085514739312 0.9320248473583822
0.3569822 -0.20399313250662293 0.9341777382401154
0.3589821 -0.19742820320351798 0.9359970567733331
0.360982 -0.1909118054593821 0.9379754047313966
0.3629819 -0.18440925734483016 0.9397402201671076
0.3649818 -0.17728314692829172 0.9405347526650141
0.3669817 -0.17022220911478944 0.9417851404550184
0.3689816 -0.16363273663795475 0.9427531594376436
0.3709815 -0.15623041249834124 0.9437860614075134
0.3729814 -0.14930222564813309 0.9444225802801481
0.3749813 -0.14236749820288946 0.9451292420138178
0.3769812 -0.13508711263707007 0.9454080351022074
0.3789811 -0.12756321705468893 0.9462527218464597
0.380981 -0.11993422430980977 0.9465807185887443
0.3829809 -0.1121542438850349 0.9469805582323413
0.3849808 -0.10446270067053526 0.9471182354441838
0.3869807 -0.09646699841720938 0.9471259100468298
0.3889806 -0.08810257367524532 0.9474669670216079
0.3909805 -0.07995790813630577 0.9474804889459698
0.3929804 -0.07192408201671058 0.9480677157735061
0.3949803 -0.06299918939912735 0.948358600059485
0.3969802 -0.055258035523373474 0.9487410353612303
0.3989801 -0.04671194988973419 0.9488445687968741
0.40098 -0.03793775759483128 0.9499534365108292
0.4029799 -0.029699512316220054 0.9501054917683014
0.4049798 -0.02122777181476549 0.9507217371706939
0.4069797 -0.013211350303021188 0.951171157727983
0.4089796 -0.004938961444245209 0.9516688702797401
0.4109795 0.003652497203913193 0.9523191630902114
0.4129794 0.011669266286658646 0.9532369093414894
0.4149793 0.02030163926206688 0.9536965552918931
0.4169792 0.027775346287912575 0.9541567354860957
0.4189791 0.0358088318204052 0.9544993306627587
0.420979 0.04363543633103895 0.9551941418262491
0.4229789 0.05105711745415498 0.9555871715870384
0.4249788 0.05875077095850853 0.9557153208034289
0.4269787 0.06618832971765627 0.9559259657637627
0.4289786 0.07340176583735511 0.9560204744894019
0.4309785 0.08100972774796328 0.9557464653130865
0.4329784 0.0882809813440685 0.9556148661938948
0.4349783 0.09556225743163338 0.9542723874071839
0.4369782 0.10247112681856041 0.9535361065122417
0.4389781 0.10991440995909989 0.952593070813487
0.440978 0.11708989275929163 0.9514448438727717
0.4429779 0.12420500272143833 0.9503099931714956
0.4449778 0.1316639929251059 0.9487237282506541
0.4469777 0.1392305238974641 0.9473179403309944
0.4489776 0.14677129672871883 0.9457858389442972
0.4509775 0.1543297313895366 0.94369677468623
0.4529774 0.1621931420334036 0.9416007239161759
0.4549773 0.16995311429822313 0.9395593360428945
0.4569772 0.1781490477606869 0.9373654704555032
0.4589771 0.18606893214184697 0.9350869589220396
0.460977 0.19498636126683172 0.9326659331779253
0.4629769 0.20303238542011837 0.9309549798075978
0.4649768 0.21164398200663528 0.9285528709391824
0.4669767 0.21939777392821078 0.926671778510663
0.4689766 0.22832081032994447 0.9245668335307892
0.4709765 0.236330346944546 0.922473220447069
0.4729764 0.24505550062647777 0.9205745063117599
0.4749763 0.2537635338962474 0.918789977803498
0.4769762 0.2620666592002427 0.9166099580282364
0.4789761 0.27089435608694606 0.914586491204111
0.480976 0.2798612345364052 0.9126538689946795
0.4829759 0.2879150143854877 0.9107142945628723
0.4849758 0.2962168960437969 0.9093503967606711
0.4869757 0.3044763473815991 0.9070807760061549
0.4889756 0.3127060553861178 0.905232965753389
0.4909755 0.32093125212713747 0.9035353386436658
0.4929754 0.32861487708518367 0.9016656866378531
0.4949753 0.3363252383573971 0.8998254746356014
0.4969752 0.34354911075144723 0.8976484071372928
0.4989751 0.35097288261520226 0.8953703517039138
0.500975 0.35786466921746996 0.8931142129707548
0.5029749 0.36509709441922356 0.8907015317031644
0.5049748 0.3721066648395256 0.8881543405051062
0.5069747 0.37873639824675176 0.8857271674342475
0.5089746 0.3859060289076872 0.8827027046123941
0.5109745 0.3931476326575789 0.879875714978389
0.5129744 0.400269818776753 0.8765577579263605
0.5149743 0.40659542951576183 0.8734433811232156
0.5169742 0.41333418214132156 0.8699057372312028
0.5189741 0.4201267136068626 0.8661197621282497
0.520974 0.42746523321405805 0.861813495530526
0.5229739 0.4347538177012365 0.8576819874411783
0.5249738 0.4416955382715117 0.8541894707110567
0.5269737 0.44841177042583513 0.8494885510148191
0.5289736 0.4552605927283737 0.8450251358435784
0.5309735 0.46224548870677884 0.8406497616192157
0.5329734 0.46944681318968257 0.8357766185511475
0.5349733 0.4763483296948123 0.8312148789905113
0.5369732 0.48357848128130826 0.8261982392277449
0.5389731 0.4910894600881248 0.821371949894841
0.540973 0.4981932766987014 0.8164537219283412
0.5429729 0.5056807938367156 0.8113145472790962
0.5449728 0.5135113059973357 0.80718573057223
0.5469727 0.5208851757968662 0.802236289428353
0.5489726 0.5284998306484343 0.7972953742293777
0.5509725 0.5359827438811887 0.7922612524822331
0.5529724 0.5435249335682509 0.7877659465185216
0.5549723 0.5510657342344539 0.7831088710599498
0.5569722 0.5584399797528838 0.7783370461162933
0.5589721 0.5660395031461292 0.7736911140549838
0.560972 0.57344142687812 0.7692610097633913
0.5629719 0.5808642905459386 0.7647177691451268
0.5649718 0.588037011165601 0.7601245224845669
0.5669717 0.5951875148331734 0.7552878672024569
0.5689716 0.6015133712871873 0.7509271110473892
0.5709715 0.6077155821354193 0.7460856257610435
0.5729714 0.6141855741073174 0.7413576840219901
0.5749713 0.6209084120859861 0.736453171542122
0.5769712 0.6271426392035326 0.7314732141317505
0.5789711 0.6330527435240487 0.7269133087824725
0.580971 0.6397187937626493 0.7220262156138539
0.5829709 0.6454219233484052 0.7170046859864341
0.5849708 0.6513606910128986 0.7116148615834401
0.5869707 0.6567801386884686 0.7060764585811009
0.5889706 0.6627442065832292 0.7000108124625365
0.5909705 0.6683699463352498 0.6939829389540961
0.5929704 0.6741667754818426 0.6880297534557631
0.5949703 0.6796794602797238 0.6817841026219156
0.5969702 0.6858874660303272 0.6758883503632636
0.5989701 0.6909149814163785 0.6695956484832497
0.60097 0.6964245940371251 0.6630993666029599
0.6029699 0.70245104925598 0.656464008499509
0.6049698 0.7074810340867486 0.6496880484262328
0.6069697 0.7128228630532049 0.6429789584014756
0.6089696 0.7188451205588328 0.6360941000170105
0.6109695 0.7245031890410365 0.6294319795768235
0.6129694 0.7304528501116833 0.6223041448776431
0.6149693 0.7366180849057035 0.6153580871713497
0.6169692 0.7422142348179449 0.6083571265267971
0.6189691 0.7479374380616592 0.6016620375318806
0.620969 0.7537467544254886 0.5944289064818906
0.6229689 0.7594084383374357 0.587782584161358
0.6249688 0.7648759196862855 0.5809066865339406
0.6269687 0.7706705030109245 0.573692161226802
0.6289686 0.7764492485775936 0.567161472047904
0.6309685 0.782016144933855 0.5602829830333015
0.6329684 0.7871063602098938 0.5537912093015761
0.6349683 0.7922167126133352 0.5469573952182053
0.6369682 0.7969451000579574 0.5403528650988795
0.6389681 0.802516374417821 0.5335657172378563
0.640968 0.8072809195303439 0.5274509093795876
0.6429679 0.8128601458483466 0.5205065908335134
0.6449678 0.8173246413474089 0.5139686419883918
0.6469677 0.82179788975379 0.506760803410433
0.6489676 0.8262288429767446 0.5003501723728034
0.6509675 0.8304619512066461 0.4934200005083917
0.6529674 0.8344199517610317 0.48643616406545204
0.6549673 0.8387196679060671 0.4795143955983749
0.6569672 0.8421815171448214 0.4725036162386573
0.6589671 0.8463554606357853 0.464797024976699
0.660967 0.8502094676889735 0.4575145843867637
0.6629669 0.8532714219331567 0.450174527333431
0.6649668 0.8573872339162161 0.4420507497426203
0.6669667 0.8603798665500435 0.43456360213123385
0.6689666 0.8642189438412444 0.42647140216936313
0.6709665 0.8679625653913273 0.41860677045782174
0.6729664 0.8705360454574614 0.4105752872516033
0.6749663 0.8739690779575585 0.4022720055107922
0.6769662 0.8769981594974914 0.3938978309099915
0.6789661 0.8804498793412959 0.38602201289823157
0.680966 0.883877748636374 0.37724530037795534
0.6829659 0.8871212434099678 0.3689373788004703
0.6849658 0.8902566723497982 0.360541917103653
0.6869657 0.8938872505336077 0.3520041323222475
0.6889656 0.8974274221404415 0.34332231217044834
0.6909655 0.9005161797751945 0.3353183344327479
0.6929654 0.903688835632694 0.3265637463660194
0.6949653 0.9068066859603555 0.3185754553025308
0.6969652 0.9100250747995932 0.309938080328553
0.6989651 0.9126406604137476 0.30193588978677716
0.700965 0.915685576711312 0.2928374248456648
0.7029649 0.9187907126938969 0.2851420771803826
0.7049648 0.9214903196510733 0.27687029423431053
0.7069647 0.9239261692857266 0.26873873815003235
0.7089646 0.926700691021108 0.2604635662114792
0.7109645 0.9292854270249536 0.25229170441937954
0.7129644 0.9315798856427386 0.24408610728799301
0.7149643 0.9341287521665824 0.23593310576711202
0.7169642 0.9363967270138176 0.22782610411075077
0.7189641 0.938020344228759 0.21969621873101217
0.720964 0.940132576267253 0.2115005107255953
0.7229639 0.9422251307007089 0.2029612349526614
0.7249638 0.9438787018022259 0.19468329883326638
0.7269637 0.9454240159389463 0.18652860968869223
0.7289636 0.9465193721944019 0.17810619815293244
0.7309635 0.9485087988656259 0.1698710163735983
0.7329634 0.9499491336057281 0.1611662151501696
0.7349633 0.950529079748385 0.15301476596632402
0.7369632 0.9517865579770746 0.14430520157706828
0.7389631 0.952932723461053 0.13571059918751857
0.740963 0.9537272057643569 0.12746355583683328
0.7429629 0.9547984939829681 0.11845151125833192
0.7449628 0.9554793111634283 0.10994397886216772
0.7469627 0.9563912737231728 0.10111051390303462
0.7489626 0.9573727738769964 0.09242528322860057
0.7509625 0.9577257661470308 0.0840507207872434
0.7529624 0.9586256240062537 0.07495866761147127
0.7549623 0.9594376516298194 0.06626389553035872
0.7569622 0.9595377677992524 0.058017728566538966
0.7589621 0.9605979759960727 0.04867973345652641
0.760962 0.9607749749902144 0.04013187806949938
0.7629619 0.9612652401085087 0.031606334390963414
0.7649618 0.9617373922009231 0.022760793014720795
0.7669617 0.9615907253614966 0.013851335357799241
0.7689616 0.9616110127156439 0.005366052031282029
0.7709615 0.9617282874331596 -0.0033706455524271928
0.7729614 0.9620017702055026 -0.011999363559376308
0.7749613 0.9614319003955676 -0.020396135228220758
0.7769612 0.9610226284412982 -0.029188107898363652
0.7789611 0.9607899788959111 -0.03764530807043848
0.780961 0.9603268052087855 -0.046192307270536304
0.7829609 0.959885939100127 -0.054506212316847574
0.7849608 0.9594246339404864 -0.06285519569373046
0.7869607 0.9586365134277924 -0.07134955933110032
0.7889606 0.9578989463790836 -0.08005933146198646
0.7909605 0.956575772002277 -0.08853171438433488
0.7929604 0.955795369336779 -0.09699585208623375
0.7949603 0.9549294458179861 -0.10576640091608155
0.7969602 0.9538427923693176 -0.11448147133644526
0.7989601 0.9519396568558868 -0.12270777391354441
0.80096 0.9510554046663061 -0.13182537853849646
0.8029599 0.9496818109038302 -0.14024052752789024
0.8049598 0.9484284620581929 -0.1490390266397494
0.8069597 0.9473790927120628 -0.15800460631535912
0.8089596 0.9454369200942201 -0.16677969248232782
0.8109595 0.9438400253981374 -0.17547752284278628
0.8129594 0.9421348596938163 -0.18409505132222267
0.8149593 0.940610055077696 -0.19300063294249867
