! Created with skrf 1.8.0 (http://scikit-rf.org).
# GHz S RI R 50.0 
!freq ReS11 ImS11
0.001 0.8164936476896449 0.7138919796060568
0.0029999 0.9981998867199369 -0.004139086875428133
0.0049998 1.0030444092187278 -0.015529896417233208
0.0069997 0.9890748058317851 -0.030785189579151273
0.0089996 0.9918429721241593 -0.035286263457285805
0.0109995 0.9917640518583213 -0.04180500727352432
0.0129994 0.9903048632664141 -0.04924711948179805
0.0149993 0.9910263746575607 -0.05563134310166162
0.0169992 0.9904565824632228 -0.0641672894692964
0.0189991 0.990532325163059 -0.07119835744070546
0.020999 0.9886424255468416 -0.07867064120192346
0.0229989 0.9884015462566633 -0.0859954888730401
0.0249988 0.9878590301798607 -0.09367523634930364
0.0269987 0.9870318730166072 -0.10136055199925376
0.0289986 0.9864305916727124 -0.10909342805764397
0.0309985 0.9858438506951994 -0.1174332928106058
0.0329984 0.9841071172775904 -0.12399854711617175
0.0349983 0.9834026704908923 -0.13149357304597867
0.0369982 0.9833812992503377 -0.13938236641468155
0.0389981 0.982257053127951 -0.14588904193152372
0.040998 0.9814712130383245 -0.1528503179626422
0.0429979 0.9801741581818998 -0.16009048094727057
0.0449978 0.9796724443991895 -0.1672841657057184
0.0469977 0.9783012317919373 -0.17476819815380878
0.0489976 0.9768614575677365 -0.1822656262452592
0.0509975 0.975781904229561 -0.1891766160291203
0.0529974 0.9747087094203646 -0.1960460829671216
0.0549973 0.9729536913124025 -0.203113417615285
0.0569972 0.9713480629870401 -0.21000402848137853
0.0589971 0.9695391006444408 -0.21664414111793817
0.060997 0.9681646389502012 -0.2237532593140782
0.0629969 0.965981273256447 -0.23068857102681434
0.0649968 0.9642587767876392 -0.23751784154917666
0.0669967 0.9622068974367253 -0.24416832257121565
0.0689966 0.9601892665663354 -0.2511337818346066
0.0709965 0.9580465319561056 -0.2580818291727542
0.0729964 0.9558044787754643 -0.26480721395911094
0.0749963 0.9532497035036158 -0.27191038233083364
0.0769962 0.9505578580418823 -0.2790401082072152
0.0789961 0.9480505307492276 -0.2859053949669069
0.080996 0.9459456316567234 -0.29320164367198126
0.0829959 0.9432098292696628 -0.30019856606160494
0.0849958 0.9405490343300458 -0.3074936786610994
0.0869957 0.9381151836582173 -0.3144510878773834
0.0889956 0.9355048760172038 -0.3212461107971423
0.0909955 0.933073639348807 -0.329097455939874
0.0929954 0.9302924649205474 -0.3354987858317793
0.0949953 0.9276804911847255 -0.343129042139686
0.0969952 0.9253456609762113 -0.35051047818451175
0.0989951 0.922599260133721 -0.3569487158429312
0.100995 0.9183840135413021 -0.36440661945239705
0.1029949 0.9160283022455926 -0.371797326059965
0.1049948 0.9130279835884914 -0.37932191894913514
0.1069947 0.91070440013835 -0.3864065582002578
0.1089946 0.9076211751989504 -0.392854423733234
0.1109945 0.9048275849725804 -0.4003989759893598
0.1129944 0.9025832055765912 -0.4072586250345476
0.1149943 0.8999549292449417 -0.41381170702409753
0.1169942 0.8966851272432379 -0.42049016531185623
0.1189941 0.8945106333812864 -0.42776602661599633
0.120994 0.8916404017267868 -0.4338219030128292
0.1229939 0.888811485789446 -0.4401543927863384
0.1249938 0.8856652035791895 -0.44656407893787015
0.1269937 0.8825667600646938 -0.4524562897396164
0.1289936 0.879333861890072 -0.4589330273032426
0.1309935 0.8764860884907143 -0.46516944481856315
0.1329934 0.8729974704537439 -0.4711929603986842
0.1349933 0.869693334777282 -0.47736977195628905
0.1369932 0.8661325626869668 -0.4833336866807134
0.1389931 0.8625542030441742 -0.48922844233518936
0.140993 0.8588919553006527 -0.4949486009019406
0.1429929 0.8549646335822618 -0.5008464826528176
0.1449928 0.8511094354687997 -0.5067077822698033
0.1469927 0.8468457078870948 -0.5124213364056804
0.1489926 0.8430749747923907 -0.5185963496023006
0.1509925 0.8388282180335168 -0.5243366015512385
0.1529924 0.8347104941956331 -0.5301177239046659
0.1549923 0.8305253871377063 -0.5361689498293734
0.1569922 0.8262573686265822 -0.5422756189988699
0.1589921 0.8219886561173884 -0.5482047674592136
0.160992 0.817683517331422 -0.5545623549503861
0.1629919 0.813391871120884 -0.5603449788860004
0.1649918 0.8087205568554469 -0.5661426071208365
0.1669917 0.8040017588662038 -0.5720676456744893
0.1689916 0.8000111994552356 -0.5778047376486826
0.1709915 0.7954258508985638 -0.584034219660042
0.1729914 0.7910572131603624 -0.5896742535470634
0.1749913 0.7864464680757705 -0.5958805898794333
0.1769912 0.7820037903768796 -0.6015010724499047
0.1789911 0.777824343383078 -0.6073942990998755
0.180991 0.7727904815723252 -0.6126997801431217
0.1829909 0.76878918156087 -0.6187337689745188
0.1849908 0.7636167430750148 -0.6248204015898156
0.1869907 0.7592927724818039 -0.6300656236290114
0.1889906 0.7547552340715129 -0.6356221367678784
0.1909905 0.7498026807859733 -0.6411680338040252
0.1929904 0.7459005679775241 -0.646762689451038
0.1949903 0.7404452130748985 -0.6521138786993669
0.1969902 0.7361332877346555 -0.6572897510810036
0.1989901 0.731308979754458 -0.6626430823683298
0.20099 0.7265360926437329 -0.6677956396519545
0.2029899 0.7217097294540272 -0.6730335651122366
0.2049898 0.7170483552168967 -0.6781569484560865
0.2069897 0.7118084469688245 -0.6829300364704401
0.2089896 0.7068509741426243 -0.6879242994878703
0.2109895 0.7025614995687633 -0.6930562359005326
0.2129894 0.6972038494016791 -0.6978216999519157
0.2149893 0.6923686049011388 -0.7023808901693146
0.2169892 0.6872818542037819 -0.7075900120743583
0.2189891 0.6824137925059697 -0.7120984327472242
0.220989 0.6767300246250397 -0.7166433122304398
0.2229889 0.6716456593998478 -0.7216026264429733
0.2249888 0.6666731856941549 -0.7258134382941023
0.2269887 0.6606160194251778 -0.7300733729709857
0.2289886 0.6555456820325012 -0.7347878198387037
0.2309885 0.6504928304386726 -0.7390696144659701
0.2329884 0.6449421779596063 -0.7438969965149358
0.2349883 0.6393992614403953 -0.747967190908353
0.2369882 0.6341424921922069 -0.7523464062313144
0.2389881 0.6286744184348955 -0.7564422621551001
0.240988 0.6230257770142071 -0.7610915451755799
0.2429879 0.6171899465949899 -0.7647699239386089
0.2449878 0.6119211003318462 -0.7691507003607914
0.2469877 0.606171125256855 -0.7729832892603771
0.2489876 0.6004083108604513 -0.7773860537102518
0.2509875 0.5943122054909512 -0.7809201004332307
0.2529874 0.588686107927516 -0.7853455978661429
0.2549873 0.5826126976648132 -0.7889754954755659
0.2569872 0.5767218834358335 -0.7927806534199323
0.2589871 0.5709158380117465 -0.7969441912852036
0.260987 0.5643553348962639 -0.800579725595421
0.2629869 0.5583532027046471 -0.8044162103414085
0.2649868 0.5521245867380304 -0.8085498712694983
0.2669867 0.5458872966571932 -0.8121540535459747
0.2689866 0.5397043484691901 -0.8160744321166311
0.2709865 0.5335780931180292 -0.8195562175023685
0.2729864 0.52713470875172 -0.8235613792143808
0.2749863 0.5206376136325439 -0.827192591401104
0.2769862 0.513936216152832 -0.8310953907466294
0.2789861 0.5076671989914913 -0.8350507644395583
0.280986 0.501845743156984 -0.8389519873776129
0.2829859 0.495080659287021 -0.8424603140399902
0.2849858 0.4893761745635169 -0.8466198819180996
0.2869857 0.48309170174767047 -0.8505020498675436
0.2889856 0.47673386280953495 -0.854497215530462
0.2909855 0.47088839951898537 -0.858444443435252
0.2929854 0.4646973241215483 -0.8620272223533746
0.2949853 0.45828316779229133 -0.8657659777337515
0.2969852 0.452651976069188 -0.8695290600294834
0.2989851 0.44687418067079765 -0.8729781584885441
0.300985 0.44121710200924624 -0.8766754989691288
0.3029849 0.43520641789647757 -0.880097828635804
0.3049848 0.4300961778554476 -0.883391323074187
0.3069847 0.4245587004198702 -0.8867476419665441
0.3089846 0.41906607551296954 -0.8899801396312196
0.3109845 0.4135151737166426 -0.8928346920960215
0.3129844 0.4076905665135514 -0.8958279612552784
0.3149843 0.4019507395858635 -0.8987069106401502
0.3169842 0.39657764282485625 -0.9010714621610542
0.3189841 0.39146011630718924 -0.9038062841814305
0.320984 0.3853559188825041 -0.9061966600206557
0.3229839 0.38015782197813347 -0.9085410605157296
0.3249838 0.3737518683632631 -0.9116075009052726
0.3269837 0.36841703538153603 -0.9137270780013529
0.3289836 0.36267181568698836 -0.9162224456744892
0.3309835 0.35727442868640646 -0.9178851236894755
0.3329834 0.35099319609236723 -0.9197180244266507
0.3349833 0.34475072210598456 -0.9211864021172627
0.3369832 0.3383682204899858 -0.9224482836420128
0.3389831 0.3319615773650574 -0.9235311993418861
0.340983 0.32570194613896064 -0.9247176093656645
0.3429829 0.3185072218929563 -0.9253347632749959
0.3449828 0.31183930104398444 -0.9260447566044969
0.3469827 0.3046363720322019 -0.927296923968746
0.3489826 0.2972079305347434 -0.927971678180154
0.3509825 0.2908997806414405 -0.9293671130532349
0.3529824 0.28331792808069317 -0.9308348697445078
0.3549823 0.27613825356299 -0.9313143410279376
0.3569822 0.26793136312191557 -0.9331168349277987
0.3589821 0.2608997718022998 -0.934794437442025
0.360982 0.253565311581772 -0.9361584795702453
0.3629819 0.24588356642662937 -0.9378424026965747
0.3649818 0.23884204189584313 -0.9395455440236593
0.3669817 0.23183826856486542 -0.9416184806557646
0.3689816 0.22503626706112137 -0.943382577224859
0.3709815 0.21811878132796594 -0.9449366058518812
0.3729814 0.2112317310370032 -0.9469512403716004
0.3749813 0.20392721199206626 -0.9491565778143823
0.3769812 0.19727077022959028 -0.9512552273242275
0.3789811 0.19025071599713905 -0.9527921469559827
0.380981 0.1840533730186781 -0.9550120179727748
0.3829809 0.17744604923114243 -0.956551071866499
0.3849808 0.1711517068883729 -0.9585858858887979
0.3869807 0.16483181523410723 -0.959992875819853
0.3889806 0.15889513800083946 -0.9618589142901062
0.3909805 0.15279371096651348 -0.962987788211471
0.3929804 0.14713114994235182 -0.9640750628952997
0.3949803 0.1411108092454134 -0.9655512509696573
0.3969802 0.13540143075329453 -0.9665404936254784
0.3989801 0.12923090386669053 -0.9669387781060754
0.40098 0.12336640186752283 -0.9677882078970672
0.4029799 0.11785873536913515 -0.9680284895170729
0.4049798 0.11218296775347593 -0.9684847905885163
0.4069797 0.10569699010915792 -0.9682636324460794
0.4089796 0.09990787060166997 -0.9682386009765536
0.4109795 0.09328173586724363 -0.9686216811139302
0.4129794 0.08757075429514766 -0.9679440083856499
0.4149793 0.08153458202596761 -0.9676361033467079
0.4169792 0.07500069836673376 -0.9668102182038532
0.4189791 0.06811834865885447 -0.9669525386146988
0.420979 0.06108287679024382 -0.9667104631458013
0.4229789 0.0544160908449768 -0.9661522527543683
0.4249788 0.04773192727356316 -0.9661515621616958
0.4269787 0.040346227455405906 -0.9657611438812971
0.4289786 0.033238947188244196 -0.9651614810627159
0.4309785 0.026459898198427357 -0.9649479539101433
0.4329784 0.019184492408911197 -0.9650577438906556
0.4349783 0.012717062412466774 -0.964994085672747
0.4369782 0.005362257321921856 -0.9648745992823624
0.4389781 -0.0019058166893785727 -0.9649582755895382
0.440978 -0.008593725078038888 -0.9650026454249884
0.4429779 -0.015578501606181367 -0.9652037156202768
0.4449778 -0.023229357675243645 -0.9658696268463987
0.4469777 -0.029898868847505252 -0.9657059591139039
0.4489776 -0.03638969221616599 -0.9657952833016119
0.4509775 -0.04300068930966205 -0.9662381167770234
0.4529774 -0.04970410953081274 -0.9663786352717673
0.4549773 -0.055982992915887514 -0.9669262856195959
0.4569772 -0.06222085196995473 -0.9668323236443159
0.4589771 -0.06866031571054253 -0.9670893611111598
0.460977 -0.07368232364647712 -0.9671370145986773
0.4629769 -0.07993082449262623 -0.9672020279385125
0.4649768 -0.08530387063037381 -0.9668198535638054
0.4669767 -0.0914072608210291 -0.9659980373292854
0.4689766 -0.0967712261907004 -0.9657901630094745
0.4709765 -0.10196538572387388 -0.9654931554193193
0.4729764 -0.1076596477446717 -0.9645071223915168
0.4749763 -0.11306525866225 -0.9634231717755841
0.4769762 -0.11829443541371176 -0.9621909057149763
0.4789761 -0.12333231303314451 -0.9610188114088184
0.480976 -0.1291130221640962 -0.9592886931985689
0.4829759 -0.1351832432741081 -0.9576517575501624
0.4849758 -0.14076243259331983 -0.9561134654817864
0.4869757 -0.14641933908160082 -0.953844764039142
0.4889756 -0.1525898099596148 -0.9514676710999128
0.4909755 -0.15840000123503617 -0.9490832791499542
0.4929754 -0.1650195132173516 -0.9476287285685624
0.4949753 -0.1716556218892592 -0.9453411667944022
0.4969752 -0.17768315701429996 -0.9425902720079005
0.4989751 -0.18468361759431298 -0.9411261735308959
0.500975 -0.19093563064573463 -0.9393528608336169
0.5029749 -0.19764383149862352 -0.9368945882930381
0.5049748 -0.20477754620244776 -0.9356858775922726
0.5069747 -0.211496368319135 -0.9335382694759342
0.5089746 -0.2182154026630838 -0.9320455699762347
0.5109745 -0.22435372245016244 -0.9298279599669782
0.5129744 -0.23114016586786879 -0.9284900070015517
0.5149743 -0.23829245965892126 -0.9264754576343547
0.5169742 -0.24485393209978665 -0.9248882554149106
0.5189741 -0.25188399379844406 -0.9236875943916987
0.520974 -0.2578121600715522 -0.9228604249468468
0.5229739 -0.264114853825943 -0.9214215033729711
0.5249738 -0.2709399908223093 -0.920134568485666
0.5269737 -0.27709832301620074 -0.9189857102512239
0.5289736 -0.2835997749134639 -0.9179648622360931
0.5309735 -0.2893338278154622 -0.9166529842974976
0.5329734 -0.29516033997329527 -0.9152358232099913
0.5349733 -0.30113777556667076 -0.9140164438984553
0.5369732 -0.30689574099249006 -0.9130304464942017
0.5389731 -0.31212885172428595 -0.9114703891096672
0.540973 -0.3175522862465179 -0.9095517436612621
0.5429729 -0.322425432429978 -0.9075814407463204
0.5449728 -0.32737809575230586 -0.9060389635751845
0.5469727 -0.33258746111016413 -0.9041524390762277
0.5489726 -0.3375378049067016 -0.9021717874177936
0.5509725 -0.3425481364245107 -0.8996420542321756
0.5529724 -0.34807562468264547 -0.8976922917516029
0.5549723 -0.3527241863717695 -0.8951847355021677
0.5569722 -0.3578428302234516 -0.8926207275656669
0.5589721 -0.3628226939335753 -0.8893700485734611
0.560972 -0.3679866443102185 -0.8861304018010294
0.5629719 -0.37307882152641547 -0.8830040365424973
0.5649718 -0.377936580694861 -0.8800475451629624
0.5669717 -0.38324916778487056 -0.876729587876395
0.5689716 -0.3889928438789044 -0.8732269506253827
0.5709715 -0.3944348070629359 -0.8698486099004145
0.5729714 -0.40022494078139664 -0.8671185103766775
0.5749713 -0.40523935978619663 -0.8638076859532816
0.5769712 -0.41147152034140083 -0.8605676549187403
0.5789711 -0.4169641640389613 -0.8569956968055642
0.580971 -0.4231621899606592 -0.8540014645200478
0.5829709 -0.42937297176831596 -0.8503956243013773
0.5849708 -0.43528354649711676 -0.8475802394856776
0.5869707 -0.44123666126887107 -0.8446302610303866
0.5889706 -0.44713326787725627 -0.8419559469928648
0.5909705 -0.4531311691958103 -0.8396780986832072
0.5929704 -0.4587479912362941 -0.836929776082586
0.5949703 -0.46416843799829394 -0.8339125412366585
0.5969702 -0.4701256784148189 -0.8310889368711434
0.5989701 -0.4762591273263782 -0.8284990070402358
0.60097 -0.4813905722172448 -0.826039753745383
0.6029699 -0.48661397553730085 -0.823170883408184
0.6049698 -0.49160470130774714 -0.8204817395420543
0.6069697 -0.49668795074713645 -0.8183400780524367
0.6089696 -0.5012975939188049 -0.8154759789411898
0.6109695 -0.5057869310670405 -0.8129121212785161
0.6129694 -0.5105490788153243 -0.8102627362705579
0.6149693 -0.5155822174236497 -0.807280839593361
0.6169692 -0.5198015965150443 -0.8043711309890875
0.6189691 -0.5238363972212483 -0.8012801611621778
0.620969 -0.5279341999191907 -0.797994434766816
0.6229689 -0.5322888279181299 -0.7946031969798175
0.6249688 -0.5365109660013576 -0.7911740240297406
0.6269687 -0.5405982296461228 -0.7876573441062442
0.6289686 -0.5447686082863629 -0.7835995376173643
0.6309685 -0.5488395324965876 -0.7788115624013479
0.6329684 -0.5535585630045192 -0.7752719604569891
0.6349683 -0.5578411203721187 -0.7709292548537922
0.6369682 -0.5620476703133904 -0.7668278051631141
0.6389681 -0.5666568094683174 -0.7627438657772608
0.640968 -0.5708432825200807 -0.75831794228309
0.6429679 -0.5757254705821304 -0.7536608369648283
0.6449678 -0.5804942460093586 -0.7496518924412673
0.6469677 -0.5856505298378092 -0.7448922662414578
0.6489676 -0.5906089237854025 -0.7407621187369756
0.6509675 -0.5962763449343549 -0.7364239145752584
0.6529674 -0.6014404458166202 -0.7323716613662772
0.6549673 -0.6061822991466017 -0.7280816021654156
0.6569672 -0.611456177524946 -0.7237374581021917
0.6589671 -0.6165020976934953 -0.7195485710209356
0.660967 -0.6216826156231741 -0.7158574387357041
0.6629669 -0.6268925182170741 -0.7118261643261954
0.6649668 -0.6321177613663362 -0.7081962147828611
0.6669667 -0.6372798871826084 -0.7045215261190253
0.6689666 -0.6415716830370328 -0.7010387083636374
0.6709665 -0.6461678143550939 -0.6972932571731554
0.6729664 -0.6508934825066197 -0.6936647161972649
0.6749663 -0.6553502853064622 -0.6902824653280872
0.6769662 -0.6596628792215704 -0.6865224340384175
0.6789661 -0.6640740098313155 -0.6837022401163919
0.680966 -0.6687711082233341 -0.6802005640002233
0.6829659 -0.6726734097973925 -0.6769502331404867
0.6849658 -0.6759221076044943 -0.6731638292975523
0.6869657 -0.679918642760166 -0.6700369803637141
0.6889656 -0.6834756820578602 -0.6665091969472001
0.6909655 -0.6867448279481958 -0.6624890451009143
0.6929654 -0.6901868658871982 -0.6587388161021849
0.6949653 -0.693525379215137 -0.6543941609474925
0.6969652 -0.6966832199713742 -0.6504749325785882
0.6989651 -0.6998163765567837 -0.6462701843380686
0.700965 -0.7035580804135961 -0.6419217912920723
0.7029649 -0.7064639833435827 -0.6372490700754363
0.7049648 -0.7095470163473137 -0.6323543155210518
0.7069647 -0.7126229593827872 -0.6277328803975117
0.7089646 -0.7153580927376003 -0.6224668414056393
0.7109645 -0.7188315344522733 -0.6178039444189131
0.7129644 -0.7223785362672722 -0.612178730396175
0.7149643 -0.725908980787448 -0.607035963469448
0.7169642 -0.7296017610084006 -0.6019539049453057
0.7189641 -0.7335986002526589 -0.5968952683638649
0.720964 -0.7371259203028888 -0.591892466452956
0.7229639 -0.7405961750578557 -0.5868448452113019
0.7249638 -0.7444178091893803 -0.5814499594716684
0.7269637 -0.7482061627479242 -0.5765805974998528
0.7289636 -0.7523719722672171 -0.571408515111306
0.7309635 -0.7565743583886266 -0.566642164878445
0.7329634 -0.7604891907545093 -0.5611498885643669
0.7349633 -0.764459242854902 -0.5565819359456435
0.7369632 -0.7682586496036296 -0.5517421422040196
0.7389631 -0.7721013130673721 -0.5472032164420189
0.740963 -0.7755114718408836 -0.5424531824709012
0.7429629 -0.7789236446811403 -0.5380238754176102
0.7449628 -0.7825064070746495 -0.5337470972315481
0.7469627 -0.786316063506924 -0.5297313494042506
0.7489626 -0.7893158565436861 -0.5249377754431958
0.7509625 -0.7933555088017401 -0.5207056561643922
0.7529624 -0.7966074017485256 -0.5165059383041071
0.7549623 -0.7999408125289129 -0.5120502647184797
0.7569622 -0.8029948504144095 -0.5078122461153745
0.7589621 -0.8056391020013117 -0.5036138844000525
0.760962 -0.8084948102636804 -0.49945787512887796
0.7629619 -0.8113972414789404 -0.49488199444940173
0.7649618 -0.8135958300470667 -0.49029010876114687
0.7669617 -0.8166082737421805 -0.48572941810512893
0.7689616 -0.8189404146340611 -0.48111888133128233
0.7709615 -0.8210759298020371 -0.47637439114782876
0.7729614 -0.8235894591390586 -0.47155433115547657
0.7749613 -0.8250471806777168 -0.4659348865757782
0.7769612 -0.8266996702674954 -0.46117504012734334
0.7789611 -0.8291289069923647 -0.45536108864000113
0.780961 -0.8314799820375497 -0.4500402136419149
0.7829609 -0.8333516648512374 -0.44504973491831507
0.7849608 -0.8357072123341422 -0.43900195668164527
0.7869607 -0.8380620097405516 -0.43375794581996313
0.7889606 -0.8406985634128465 -0.4280769248910139
0.7909605 -0.8430734107117127 -0.42257563904461304
0.7929604 -0.8454068746914443 -0.4168627809336512
0.7949603 -0.8481841361695228 -0.41102895990060256
0.7969602 -0.8506139922170658 -0.40580588056758243
0.7989601 -0.8529478467737064 -0.3999815294656048
0.80096 -0.8556647600833718 -0.39430046074990605
