! Created with skrf 1.8.0 (http://scikit-rf.org).
# GHz S RI R 50.0 
!freq ReS11 ImS11
0.001 -1.002742546698157 0.09361945374161418
0.0029999 -0.9077214715144155 0.06911960762609332
0.0049998 -0.9408339882452694 0.001136460627773006
0.0069997 -0.9697582936225089 0.022376906457709678
0.0089996 -0.9600421004168739 0.032290078920366505
0.0109995 -0.9596848013181051 0.03824915418458674
0.0129994 -0.9593664970421584 0.04431650822787103
0.0149993 -0.9584835299314811 0.05194963481859172
0.0169992 -0.9580903690312776 0.05516004121633056
0.0189991 -0.9579659189690173 0.06071689523935053
0.020999 -0.957470099647406 0.06674051321646973
0.0229989 -0.9568318394404353 0.07246282844651425
0.0249988 -0.955829150196809 0.0778548676117454
0.0269987 -0.955416748675433 0.0838850332400807
0.0289986 -0.9546661426760794 0.08947984837117527
0.0309985 -0.9536002729398405 0.09512946127983102
0.0329984 -0.9529447456679206 0.1011123046580491
0.0349983 -0.9522580965474058 0.10703084792872797
0.0369982 -0.9509233563921041 0.11301768798535539
0.0389981 -0.9498697479782597 0.11876963795404022
0.040998 -0.9492818265747858 0.12465462829768259
0.0429979 -0.9475725990008662 0.13048122373770765
0.0449978 -0.9465297838496372 0.13622446907478386
0.0469977 -0.9460656247147369 0.14224297393256097
0.0489976 -0.944274535561755 0.14820950151029816
0.0509975 -0.9427377893972739 0.15442551095469242
0.0529974 -0.9419100757129764 0.1609182762239177
0.0549973 -0.9399181376585457 0.1674535586221192
0.0569972 -0.9391785036093914 0.17293913933736035
0.0589971 -0.9377687164882961 0.17914937204151354
0.060997 -0.9369069877077987 0.1858927704286515
0.0629969 -0.9357441430941611 0.19127190376110792
0.0649968 -0.9337083568233114 0.19753781785628796
0.0669967 -0.9334727630409563 0.20391133683101886
0.0689966 -0.9319864058791052 0.2095822106805077
0.0709965 -0.930878388475924 0.21543948148167713
0.0729964 -0.9294439152809073 0.22208921703111661
0.0749963 -0.9282010749887195 0.227831409409062
0.0769962 -0.9273863101793318 0.2335791670313692
0.0789961 -0.9255893378622889 0.23923458119274432
0.080996 -0.9239768339996006 0.24511926705255066
0.0829959 -0.9225062556421741 0.25113121773044234
0.0849958 -0.9216826193405108 0.2561233075662211
0.0869957 -0.9202428228504692 0.2622360353926772
0.0889956 -0.9183338606166467 0.26720525394437405
0.0909955 -0.9169340147576079 0.27309001889526074
0.0929954 -0.9149533136461707 0.2784585418190868
0.0949953 -0.9134087514326206 0.2840031737063792
0.0969952 -0.911366836546114 0.28933348840627376
0.0989951 -0.9091938259037096 0.29469259265407466
0.100995 -0.9085935202991492 0.30073028039464694
0.1029949 -0.9065095598607704 0.30609761007817454
0.1049948 -0.904692293592595 0.311456262150428
0.1069947 -0.9024275054628306 0.3166420979273014
0.1089946 -0.9001694135031881 0.3220134824841219
0.1109945 -0.8976217979103446 0.32743527350070234
0.1129944 -0.8953621922537611 0.33272384226558716
0.1149943 -0.8926863422790559 0.337953025653482
0.1169942 -0.89003539317005 0.343684860312938
0.1189941 -0.8876892866093276 0.34916155331563725
0.120994 -0.8848932090628395 0.3548133853770575
0.1229939 -0.8823349176627333 0.3604622792757589
0.1249938 -0.8798631253324977 0.36614281950894817
0.1269937 -0.8771425531799513 0.3716012014828994
0.1289936 -0.8747880142959775 0.37761429987771367
0.1309935 -0.872073406830152 0.38325785556579317
0.1329934 -0.8694905057052764 0.38876036872317443
0.1349933 -0.8665246623744146 0.39477912986896363
0.1369932 -0.8641244928647572 0.4000713140490145
0.1389931 -0.8616673209420974 0.40583684665411723
0.140993 -0.8586743407701318 0.411291774919582
0.1429929 -0.8558426814534272 0.41713543868118375
0.1449928 -0.8539105987784191 0.4230064929708133
0.1469927 -0.851223746312357 0.4284018656090538
0.1489926 -0.8483465772822707 0.43437657370162075
0.1509925 -0.8455084558355692 0.4393384310243784
0.1529924 -0.8427287705907975 0.4448729698274648
0.1549923 -0.8407448921914144 0.4509097254187507
0.1569922 -0.8377917582485341 0.4555481426285627
0.1589921 -0.8349405796209617 0.46138387092780175
0.160992 -0.8320518646282073 0.46628702499820057
0.1629919 -0.8294049218990353 0.4715680176205012
0.1649918 -0.8262662352249384 0.4769825040490682
0.1669917 -0.8234157788394388 0.48182086936944113
0.1689916 -0.8206989974739688 0.4873144529727893
0.1709915 -0.8179157907282603 0.4921891064436815
0.1729914 -0.8143675181500742 0.49703961440644556
0.1749913 -0.8115795609208484 0.5023441228681296
0.1769912 -0.8084316762690702 0.5069591426844577
0.1789911 -0.8055172947126553 0.5119133144763364
0.180991 -0.8020399850256036 0.5169449293985556
0.1829909 -0.7985629284388306 0.521655415414677
0.1849908 -0.7954037763625383 0.5267928381967651
0.1869907 -0.7916951657978826 0.5314169155139193
0.1889906 -0.7882067812578575 0.5365156401104934
0.1909905 -0.7848227636637525 0.5414551589070826
0.1929904 -0.7812445508423742 0.5462725316012982
0.1949903 -0.7773368996409115 0.551136059500706
0.1969902 -0.7739322445778465 0.5563480075068629
0.1989901 -0.7702553573109067 0.5612917012070877
0.20099 -0.7666103336850673 0.5662499824855566
0.2029899 -0.7627470868322709 0.5704689568090018
0.2049898 -0.7590158744384249 0.5752014391335746
0.2069897 -0.75518333493214 0.5804222039173231
0.2089896 -0.7512710342267845 0.585066595247455
0.2109895 -0.7479006350438404 0.5900292423403442
0.2129894 -0.7437894292358116 0.5953166292042897
0.2149893 -0.7398814300870132 0.6000177578270849
0.2169892 -0.7358202704865597 0.6048979515147866
0.2189891 -0.7321856006037311 0.6098945911270306
0.220989 -0.7283365970134758 0.6145080655197543
0.2229889 -0.7243988839571428 0.6190445697237361
0.2249888 -0.7196489632221421 0.6240992428615679
0.2269887 -0.7159122980390228 0.628239924221532
0.2289886 -0.7115245801672636 0.6334422010060321
0.2309885 -0.7077802622172518 0.6383495376336299
0.2329884 -0.7035946697342124 0.6424349662999281
0.2349883 -0.6992768287162533 0.6474425181701214
0.2369882 -0.6951890824776887 0.651967025360585
0.2389881 -0.6909130946197429 0.6565111832075855
0.240988 -0.6867147417509872 0.6610000883024278
0.2429879 -0.6825429903966617 0.665820497233372
0.2449878 -0.6782704649150871 0.6700011501588151
0.2469877 -0.6739498234377789 0.6747115617774182
0.2489876 -0.669622589095109 0.6789340697812365
0.2509875 -0.665680338040901 0.6837640244224586
0.2529874 -0.6615783548032527 0.6883082075798989
0.2549873 -0.6573592621992603 0.6928124214563911
0.2569872 -0.6531129139737147 0.6969586425510313
0.2589871 -0.6488308661181428 0.7015459439390825
0.260987 -0.6445846928620627 0.7055777632222725
0.2629869 -0.6401980497422769 0.7098463851500916
0.2649868 -0.6358037525696014 0.7137921488625808
0.2669867 -0.6317207999576829 0.717760856269973
0.2689866 -0.6272367075429213 0.7219368967503822
0.2709865 -0.6231645251986557 0.7260213505785693
0.2729864 -0.6185565033775311 0.7297728242739404
0.2749863 -0.6143750515775981 0.7336235680826292
0.2769862 -0.6098442578358654 0.7373921208833916
0.2789861 -0.6056771160727517 0.7408867211112908
0.280986 -0.6011517651839202 0.7438865470293935
0.2829859 -0.596076622781326 0.7474866091151651
0.2849858 -0.5914731154798595 0.7508894136557073
0.2869857 -0.5865595900077464 0.7543974990474553
0.2889856 -0.5815682704015043 0.757448033836047
0.2909855 -0.57639895206299 0.7612833586327952
0.2929854 -0.5715246569389901 0.7647474511640813
0.2949853 -0.5661084495859879 0.7674712092278267
0.2969852 -0.5610860636265732 0.7708535489278313
0.2989851 -0.555692704812723 0.7742479713520787
0.300985 -0.5500230889954411 0.7768440581009005
0.3029849 -0.5442988626428278 0.7802764846550597
0.3049848 -0.5386795403178173 0.7832376040768625
0.3069847 -0.5329025820071177 0.7863550417901928
0.3089846 -0.526913182809386 0.7894847349963239
0.3109845 -0.5213004682756528 0.7929985544368565
0.3129844 -0.5150851505271004 0.7960383793068231
0.3149843 -0.5090898860524412 0.7995987636184888
0.3169842 -0.5029407213975168 0.8031029315457721
0.3189841 -0.4968737113995866 0.8059702714606022
0.320984 -0.4904935443244076 0.8095437894502446
0.3229839 -0.4846096234316829 0.8129396501607912
0.3249838 -0.4785276541087278 0.8163592141070816
0.3269837 -0.47278357328663323 0.819699944668735
0.3289836 -0.46659235139289923 0.8232671939218685
0.3309835 -0.4605297559186933 0.8267597075829146
0.3329834 -0.4548958362675843 0.8303397420961358
0.3349833 -0.4495667389018398 0.8340447543340596
0.3369832 -0.4445772271067077 0.8385373028208168
0.3389831 -0.4388742287181404 0.842420945597196
0.340983 -0.4337040787725627 0.846537689954257
0.3429829 -0.42859347065013653 0.8506507286349092
0.3449828 -0.4234120103214219 0.8543955013350873
0.3469827 -0.4181823282564082 0.8579118083278026
0.3489826 -0.4130528929230764 0.8611431035984571
0.3509825 -0.40799464206203523 0.8646838412395591
0.3529824 -0.40270982798695093 0.8679223782952213
0.3549823 -0.3978925075383508 0.8709368858794103
0.3569822 -0.3926610602705938 0.8738789650216323
0.3589821 -0.38797909177801654 0.8765501972468743
0.360982 -0.3828963870924055 0.879280502680545
0.3629819 -0.3779353454439768 0.8815848965783503
0.3649818 -0.3723342600378357 0.8835984943138563
0.3669817 -0.36692144239068425 0.8853672505342761
0.3689816 -0.36181169943254354 0.887778243431421
0.3709815 -0.3561498757523105 0.8896343722903199
0.3729814 -0.3502113491088729 0.8913051442720604
0.3749813 -0.34502629855783146 0.8929727082694447
0.3769812 -0.3392273395382699 0.8944655963794045
0.3789811 -0.3334137848524559 0.8962648962430346
0.380981 -0.3270221239868775 0.8974907668855503
0.3829809 -0.3206862964854177 0.8990283842604709
0.3849808 -0.31434136305717403 0.9011828167750423
0.3869807 -0.30787842182450187 0.9022040246012701
0.3889806 -0.3012358596600898 0.9041745507726071
0.3909805 -0.2941624478618196 0.9056645795888139
0.3929804 -0.2873756620811887 0.907581855149033
0.3949803 -0.280589221967401 0.909301712982453
0.3969802 -0.2738659419642268 0.9109951204983354
0.3989801 -0.26688611770733034 0.9129072574099109
0.40098 -0.25991735997960763 0.9150761889428608
0.4029799 -0.25345370394680694 0.9172978552318617
0.4049798 -0.24635512217632866 0.9193172455036693
0.4069797 -0.2400041219634918 0.9213111091617736
0.4089796 -0.23313895593326267 0.9233851213373833
0.4109795 -0.22628219204008526 0.9256455617658313
0.4129794 -0.22012513882947493 0.9282269545956086
0.4149793 -0.21293357964643606 0.9306179815210958
0.4169792 -0.20687158206005252 0.9323898274728366
0.4189791 -0.2002727923745436 0.9344646155158085
0.420979 -0.19415803347534488 0.9365175528408151
0.4229789 -0.18856967636436164 0.9384475575802527
0.4249788 -0.18251509620683 0.9406289607618536
0.4269787 -0.17641504367973032 0.9423020434455179
0.4289786 -0.17086247241103064 0.9440837721398404
0.4309785 -0.16485638347045367 0.9456046105004913
0.4329784 -0.15886072736288767 0.9468336917591431
0.4349783 -0.15267486573415953 0.9471667497549426
0.4369782 -0.1472317119085993 0.9480734717249788
0.4389781 -0.14112979354246954 0.9490181770327106
0.440978 -0.1352349685145474 0.9496272450946459
0.4429779 -0.12959003391490398 0.9500191739836029
0.4449778 -0.1234817835301044 0.9503950393954574
0.4469777 -0.11694307701548348 0.9501817131877567
0.4489776 -0.1107924455841009 0.950575743864369
0.4509775 -0.10411752272792635 0.9507807759137537
0.4529774 -0.09741834310471767 0.9507117132750421
0.4549773 -0.0908549855517546 0.950582999291946
0.4569772 -0.08371905904992287 0.9504942414418125
0.4589771 -0.07642618861997803 0.950285407889825
0.460977 -0.0690573051847361 0.9505997952680059
0.4629769 -0.062005053375281324 0.9506806760520425
0.4649768 -0.05507751624054028 0.9505008886102329
0.4669767 -0.04743254193498613 0.9507220898202489
0.4689766 -0.03986719767147986 0.9509438469809313
0.4709765 -0.03292472311770479 0.9513483003679232
0.4729764 -0.024952140345358507 0.9516681881395456
0.4749763 -0.017621073965655286 0.9523540713438196
0.4769762 -0.010436222204171557 0.9525834243888998
0.4789761 -0.002392769384444139 0.9534812408173282
0.480976 0.005077997604935686 0.9543118894551192
0.4829759 0.01193202438205665 0.9544119483415834
0.4849758 0.019055697045496867 0.9553083089552156
0.4869757 0.026100146381300815 0.9561449462782045
0.4889756 0.03364704026710097 0.9568334900825884
0.4909755 0.04045403279999653 0.9573958338494714
0.4929754 0.04694150038939526 0.9580854824006341
0.4949753 0.05348713785725458 0.9587537058057145
0.4969752 0.05976462773380883 0.9589354172539926
0.4989751 0.06623615725282138 0.959164711388771
0.500975 0.07211343031142625 0.9589518398682702
0.5029749 0.07796531391552285 0.9591312177987394
0.5049748 0.08410802713232612 0.9589231273507194
0.5069747 0.08982546168659078 0.9584373140161841
0.5089746 0.09599626878061364 0.9580285176514651
0.5109745 0.10226635343591274 0.9579031490796519
0.5129744 0.10827632053385776 0.9571524130915467
0.5149743 0.11396140902311641 0.9564951913126326
0.5169742 0.11984786177052212 0.95485061987304
0.5189741 0.12601173533347507 0.953708880347584
0.520974 0.13283513669872515 0.952193855195645
0.5229739 0.13933794935679833 0.9508102810076626
0.5249738 0.14590490131064504 0.949571165378916
0.5269737 0.15240243685095545 0.9475482576472535
0.5289736 0.1586754718375002 0.9461305038861276
0.5309735 0.16561114233812518 0.9438184365834239
0.5329734 0.1722649706073982 0.9418987063533757
0.5349733 0.1791946453805463 0.9398548943881054
0.5369732 0.18661990124084754 0.9377156577331922
0.5389731 0.19392924777815104 0.9363213124995662
0.540973 0.20096086749983946 0.9332660412766073
0.5429729 0.2081375002604716 0.9316000747188242
0.5449728 0.21549499753952311 0.9299145894915359
0.5469727 0.22328150865895977 0.9279563168811792
0.5489726 0.23058497617566806 0.9265766346288614
0.5509725 0.23788208445598763 0.9243307080437114
0.5529724 0.2455783382807914 0.9229738832538353
0.5549723 0.25292727411421395 0.9214177865838276
0.5569722 0.2601190079829733 0.9199028032657554
0.5589721 0.2676529967191175 0.9186704105358986
0.560972 0.27502460054638056 0.9173522963858417
0.5629719 0.28220652538472896 0.9160742174515336
0.5649718 0.2891363469261954 0.9150752521670706
0.5669717 0.2961425783739413 0.9136066648064312
0.5689716 0.3024132848297456 0.9119487716461103
0.5709715 0.3088667041143671 0.9102694078161971
0.5729714 0.3149454227476276 0.9086163265450947
0.5749713 0.32161218282483556 0.9068015387437535
0.5769712 0.32792991598812266 0.9048332288086477
0.5789711 0.33389111386797443 0.9033969975933166
0.580971 0.3398551158304705 0.9016527821851267
0.5829709 0.345875925490409 0.8994138347534772
0.5849708 0.35171190692566134 0.8972437659147764
0.5869707 0.3574595924592188 0.8946377884391618
0.5889706 0.3636461169239605 0.8917259402950011
0.5909705 0.3698495691842588 0.8882841330840935
0.5929704 0.37577770977184527 0.8852009030089301
0.5949703 0.3817364306377999 0.8820990059395085
0.5969702 0.3877783514043394 0.8793574695131601
0.5989701 0.3937680911519642 0.8757979052952645
0.60097 0.4002493428794416 0.8719655876337298
0.6029699 0.4063452657021436 0.8683883429321193
0.6049698 0.41250837323753964 0.864592900439701
0.6069697 0.4189734434719091 0.8612111422213932
0.6089696 0.42590912077983645 0.8576297868441938
0.6109695 0.4326845642748426 0.8536750148894547
0.6129694 0.4393335033747512 0.8497550424675867
0.6149693 0.446229324834224 0.8465132182692143
0.6169692 0.4531293938169081 0.8427522588615225
0.6189691 0.4600836584523601 0.8390442218625922
0.620969 0.4668909876486492 0.8353785910117744
0.6229689 0.4739201543258294 0.831784821762739
0.6249688 0.48087761828738973 0.8284158123293092
0.6269687 0.48786628320426306 0.8248667884062171
0.6289686 0.4943189663652607 0.8217774872852799
0.6309685 0.5012029748154739 0.818721513712448
0.6329684 0.5075130082327691 0.8156344967645909
0.6349683 0.5138541447810546 0.8122980009460005
0.6369682 0.5198512179054164 0.8090788434071642
0.6389681 0.5265968366185116 0.805669411536507
0.640968 0.532869778082297 0.8028216715315868
0.6429679 0.5384954353099236 0.7998317055874188
0.6449678 0.5439498769697684 0.7964554117459374
0.6469677 0.54991769395441 0.7931833486043269
0.6489676 0.5556702582531806 0.7898625703374861
0.6509675 0.5602262698131808 0.7863324205564607
0.6529674 0.5656604740219735 0.7824154065865709
0.6549673 0.5712236127064426 0.7787018394969569
0.6569672 0.5760285317266378 0.7750720333560289
0.6589671 0.5812955085675137 0.7706448401828365
0.660967 0.5861952911322725 0.7662450073341724
0.6629669 0.5911150682656658 0.761468085980295
0.6649668 0.5961010483844624 0.7570422096440774
0.6669667 0.6007767376404805 0.7518423017820884
0.6689666 0.6064778251768238 0.7466112505933129
0.6709665 0.6112156156747071 0.7415469632943659
0.6729664 0.616173236358203 0.7362339800798212
0.6749663 0.6208145891918921 0.7308366987680366
0.6769662 0.6263799225628743 0.7250371402470512
0.6789661 0.6313887326081498 0.7193114858089026
0.680966 0.636890391247384 0.7136374464233588
0.6829659 0.642823327578206 0.7078908842123778
0.6849658 0.6483371432583358 0.7023524464566792
0.6869657 0.654355214662128 0.6965735651560337
0.6889656 0.6602530965152428 0.6910054563527546
0.6909655 0.666057004655103 0.6858542509048762
0.6929654 0.6721008257708776 0.6803084592597584
0.6949653 0.6778381104807476 0.6749015548796417
0.6969652 0.68371694470835 0.6695027622492957
0.6989651 0.6892252301750708 0.6642243564533122
0.700965 0.6951009320912558 0.6587801551841183
0.7029649 0.7009077105559679 0.6538227514361085
0.7049648 0.7066431635902206 0.6486527392990644
0.7069647 0.7117998706036182 0.6438282388261518
0.7089646 0.7176373093527181 0.638601207662996
0.7109645 0.7225522729315789 0.633789432478977
0.7129644 0.7274015809069705 0.6287812466704477
0.7149643 0.7325594374223018 0.6240354706209564
0.7169642 0.7373673815570134 0.6192249824333003
0.7189641 0.7417089058274817 0.6140890854659333
0.720964 0.7463686436673423 0.6089908143031886
0.7229639 0.7510637559172998 0.6035743298734747
0.7249638 0.7553087241659677 0.598622239877996
0.7269637 0.7591327221397474 0.5934725410161149
0.7289636 0.7632080804691697 0.5886116660329545
0.7309635 0.7676217283209474 0.5826369997351144
0.7329634 0.7716277453656389 0.5772463482093879
0.7349633 0.7748574405679353 0.5712143983799435
0.7369632 0.7789097337266048 0.5655643695587623
0.7389631 0.7820918836474557 0.5592399611706924
0.740963 0.7856866527767571 0.5531209659518357
0.7429629 0.7895842500154353 0.5468471394921748
0.7449628 0.7931888840270381 0.54021913976665
0.7469627 0.7970802229799339 0.533225436881655
0.7489626 0.8007466680484364 0.5265965298784422
0.7509625 0.8040271487324838 0.520079728177549
0.7529624 0.8081192013923143 0.5132412410189605
0.7549623 0.8120775680249641 0.5065390710211226
0.7569622 0.8157826599122979 0.4991686991497486
0.7589621 0.820052175352482 0.4923439101075525
0.760962 0.824034190528657 0.4853563081374547
0.7629619 0.8280027910747773 0.4783384079902787
0.7649618 0.832308063750009 0.47208153088231297
0.7669617 0.836315178048052 0.4645395089899492
0.7689616 0.8402305647076044 0.4575358333734248
0.7709615 0.8438310745656779 0.45099682193452056
0.7729614 0.8479682649437018 0.44488638320740176
0.7749613 0.8516177842210026 0.4378108697024447
0.7769612 0.8556055874477302 0.43117932137746273
0.7789611 0.859365554400113 0.42495218800644347
0.780961 0.863262123186777 0.4184468946901889
0.7829609 0.8662574865774032 0.41230371078169203
0.7849608 0.8699858667846615 0.40581176576023126
0.7869607 0.8732827505735719 0.3996573844754997
0.7889606 0.8766110572552568 0.39312805284270735
0.7909605 0.8798339289032159 0.3868594367858532
0.7929604 0.8831826563935977 0.38078549118701543
0.7949603 0.8862377914016271 0.3742768470622945
0.7969602 0.8888282846685828 0.3678738408472763
0.7989601 0.8914696261095567 0.361204723714443
0.80096 0.8939893847879613 0.3547906286779495
0.8029599 0.8966397693709055 0.3484062008153909
0.8049598 0.8985348353040975 0.3417206446585979
0.8069597 0.9011332614033933 0.33498745603453367
0.8089596 0.9030156356006902 0.3279975618551059
0.8109595 0.9045862893696826 0.32098207046225374
0.8129594 0.9069411964198151 0.3137992299594527
0.8149593 0.9090682854846115 0.3066439643726539
0.8169592 0.910942793855264 0.2994672616508709
