! Created with skrf 1.8.0 (http://scikit-rf.org).
# GHz S RI R 50.0 
!freq ReS11 ImS11
0.001 -0.9737169500794245 -0.0919690794014617
0.0029999 -0.9450192308795539 -0.031016055592565372
0.0049998 -0.9413616497747608 0.0029682240847718755
0.0069997 -0.9435817073572437 0.013025015908774917
0.0089996 -0.941682602469595 0.027081620184776944
0.0109995 -0.9418407943533383 0.036311309532051195
0.0129994 -0.9410910305886429 0.045349814023348034
0.0149993 -0.9418035670033524 0.05311934539469643
0.0169992 -0.9408052153292857 0.06051544322421587
0.0189991 -0.9413309022431995 0.06691201912501044
0.020999 -0.9406794909559065 0.07392838816884534
0.0229989 -0.9400720838394521 0.08063460414559392
0.0249988 -0.9389678230608012 0.08744049118896116
0.0269987 -0.9379787135736483 0.094323579870257
0.0289986 -0.9370578328493477 0.1010710934271068
0.0309985 -0.9358904515555138 0.10753001069328516
0.0329984 -0.9349426360274661 0.11439972002605389
0.0349983 -0.9337368119924634 0.12085821206573982
0.0369982 -0.9324471469516669 0.12734893356958454
0.0389981 -0.9311343988317421 0.1339492147366355
0.040998 -0.9299190830260784 0.14054960683318563
0.0429979 -0.9280842445919819 0.1471432092355311
0.0449978 -0.9264856541165047 0.15318096270593667
0.0469977 -0.9250053688307143 0.15985157094040175
0.0489976 -0.9230903412820881 0.16671283919779628
0.0509975 -0.9215388691475208 0.17304267640272852
0.0529974 -0.9199364082750303 0.18028846700789491
0.0549973 -0.9174042974196963 0.18740041282462178
0.0569972 -0.9162063371731766 0.19360208203117563
0.0589971 -0.9147214405799097 0.20034282463374856
0.060997 -0.9129235298469776 0.20731980265987876
0.0629969 -0.9111319523720609 0.21360727291262782
0.0649968 -0.9090082646561308 0.2201668532006848
0.0669967 -0.9082745669262315 0.22748008599283595
0.0689966 -0.9061994132461156 0.23321423337477284
0.0709965 -0.9045104669353954 0.24014718339497873
0.0729964 -0.9021013111752089 0.2472502740636099
0.0749963 -0.9006846135272634 0.2531545610410714
0.0769962 -0.8993219343821147 0.2597192025261331
0.0789961 -0.8975030823322998 0.2658013240441472
0.080996 -0.8952459529188659 0.2722407141921834
0.0829959 -0.8932246366046613 0.2788335345070392
0.0849958 -0.8915889893671808 0.2847648710549875
0.0869957 -0.889972633881039 0.291015056237807
0.0889956 -0.8877532023394952 0.2967500579709509
0.0909955 -0.8856068187048844 0.30276733889009505
0.0929954 -0.8831096463988962 0.30863522576978736
0.0949953 -0.88074977068425 0.31499950989736303
0.0969952 -0.8785082823811301 0.32080186591781024
0.0989951 -0.8758216751999716 0.32685602999944985
0.100995 -0.874498275396923 0.33333590969655985
0.1029949 -0.8720910927691226 0.33925384167711725
0.1049948 -0.8693711439061611 0.34498151083301926
0.1069947 -0.8664412150424908 0.35043482847539487
0.1089946 -0.8635450441022037 0.3562850196578402
0.1109945 -0.8604938390856339 0.3622881404568963
0.1129944 -0.8577561131819357 0.3677860424204503
0.1149943 -0.8544869954441733 0.37350638208007947
0.1169942 -0.8513792148009243 0.37951376923231006
0.1189941 -0.8480002840493189 0.38529499739265965
0.120994 -0.8448298282263405 0.3913476471555437
0.1229939 -0.8417352606251343 0.3972312947257398
0.1249938 -0.838402543645117 0.4029707105361414
0.1269937 -0.8351991249423589 0.40877441985283514
0.1289936 -0.8323156011456533 0.41507530725557085
0.1309935 -0.8288365166255608 0.4207046403531654
0.1329934 -0.8253800852586098 0.42723756692144765
0.1349933 -0.8220320320655586 0.4328223513415209
0.1369932 -0.8188406892133949 0.4384081224465938
0.1389931 -0.8152933157388275 0.44452625848981137
0.140993 -0.8121148619237633 0.4503763995767228
0.1429929 -0.8082462311825915 0.4560582284414658
0.1449928 -0.8057443779496639 0.4626749771711287
0.1469927 -0.8023832148754594 0.4679589068676461
0.1489926 -0.7989680768352372 0.4738579583726972
0.1509925 -0.7954321351506726 0.4789674199271302
0.1529924 -0.7919054044365652 0.48524146088244735
0.1549923 -0.789111714440753 0.4910915495157993
0.1569922 -0.7851315947381428 0.4966889240976176
0.1589921 -0.7819317670778869 0.5022396906161536
0.160992 -0.7783613835101355 0.5076374122079923
0.1629919 -0.7746239209290355 0.5131277382558416
0.1649918 -0.7714302292604912 0.5186015085241021
0.1669917 -0.7675280089316933 0.5237089334006793
0.1689916 -0.7639890996669692 0.5289466013103148
0.1709915 -0.7603504957751076 0.5342926875633399
0.1729914 -0.7563649498400044 0.5394843836262517
0.1749913 -0.752485904577946 0.5444573891052613
0.1769912 -0.7486646516669142 0.5495295303887245
0.1789911 -0.7447769443942048 0.554661132910631
0.180991 -0.7405539786246645 0.5596318012966638
0.1829909 -0.7367295725735601 0.5646786492654253
0.1849908 -0.7327010341256174 0.5698294470751537
0.1869907 -0.7284922366255447 0.5745148017304106
0.1889906 -0.7241393703910542 0.5799198564288628
0.1909905 -0.7199256954065345 0.5848793593797776
0.1929904 -0.7155233369073527 0.5897858067542796
0.1949903 -0.7110583627982262 0.5946634912171871
0.1969902 -0.7064669558054852 0.5992296193660313
0.1989901 -0.7020123125529074 0.6048560832913977
0.20099 -0.6976325349064778 0.6098445654446176
0.2029899 -0.6932897929396826 0.6145615251051487
0.2049898 -0.6886000177191366 0.6187660533491927
0.2069897 -0.6842781941462512 0.6236237502757815
0.2089896 -0.6793663291844874 0.6289237929223432
0.2109895 -0.6750780798597661 0.633311896140014
0.2129894 -0.6699743825300019 0.6384639612188144
0.2149893 -0.6654708101806048 0.6434493494933528
0.2169892 -0.660791021514442 0.6480866686938583
0.2189891 -0.6557182363319616 0.6528909323801972
0.220989 -0.651292742595863 0.6577852179483517
0.2229889 -0.646425636322212 0.6618428868599534
0.2249888 -0.6411959218270431 0.6667633805416522
0.2269887 -0.6361906880991256 0.671098870756217
0.2289886 -0.6313211173135168 0.6757589155281027
0.2309885 -0.6263598728548457 0.680687871466662
0.2329884 -0.621434917293127 0.6849766485601514
0.2349883 -0.6163030724816805 0.6895879780452138
0.2369882 -0.6112737505314128 0.6939246622061875
0.2389881 -0.6064619586832529 0.6984678318196293
0.240988 -0.6011427462516972 0.7027633782536342
0.2429879 -0.5957231173313065 0.707215435572836
0.2449878 -0.5908532504600816 0.7114240436485599
0.2469877 -0.5856505529878011 0.7159841653697375
0.2489876 -0.5808298490657714 0.7206960327519009
0.2509875 -0.5756821674898956 0.724633499102274
0.2529874 -0.5704604394175483 0.7292057662630986
0.2549873 -0.5656393932507202 0.7336319705640335
0.2569872 -0.5608005469655665 0.7378547352618772
0.2589871 -0.5554593454177059 0.7419162629218465
0.260987 -0.5503234756470633 0.7461886664618369
0.2629869 -0.5452549445954392 0.7502839193088228
0.2649868 -0.5402297491358613 0.7540248751025641
0.2669867 -0.5350743272206466 0.7577040405094821
0.2689866 -0.5299323454228233 0.7614406155254326
0.2709865 -0.5251463500714759 0.7652673879428489
0.2729864 -0.5197960941075761 0.7689546599899973
0.2749863 -0.5145578529128563 0.7723618672955033
0.2769862 -0.5096730312553618 0.775866093810071
0.2789861 -0.5045647716970207 0.7790573636527949
0.280986 -0.49888266119087576 0.781975470210685
0.2829859 -0.493988186729726 0.784901236582752
0.2849858 -0.48793730108929484 0.7881670955202194
0.2869857 -0.482485508227036 0.7911836095986128
0.2889856 -0.47676183093358454 0.793900766067032
0.2909855 -0.47081596081225346 0.796838013475635
0.2929854 -0.46506814850528055 0.8000488579760864
0.2949853 -0.45908354842647303 0.8027815596622729
0.2969852 -0.45308985925832296 0.8051669948245257
0.2989851 -0.4471361153061158 0.8076720224708874
0.300985 -0.4405126443923144 0.810220174847571
0.3029849 -0.4339177709426254 0.8127944189827888
0.3049848 -0.42766176258471633 0.8157005326698844
0.3069847 -0.4208599966037259 0.8179676931415083
0.3089846 -0.4141148628634196 0.8207204097223879
0.3109845 -0.4075049347662487 0.8231012487121285
0.3129844 -0.4002434810312891 0.8261196689417826
0.3149843 -0.39346026128008343 0.8285623434604575
0.3169842 -0.3867155154059363 0.8316330508761456
0.3189841 -0.3798926394259783 0.8340772735738763
0.320984 -0.3726000954852925 0.837028752865596
0.3229839 -0.36540999597989854 0.8395659988781851
0.3249838 -0.35865826819495117 0.8423263282166922
0.3269837 -0.35184713767174963 0.8450446353287494
0.3289836 -0.3449680941606014 0.8476161789746393
0.3309835 -0.3382180783129012 0.850866891553261
0.3329834 -0.331887462366408 0.8539900157267548
0.3349833 -0.3254566252694828 0.8570752764561068
0.3369832 -0.3191795316047122 0.8605662174481343
0.3389831 -0.3127261999998243 0.8639160190457459
0.340983 -0.3063883410437442 0.8674985963563382
0.3429829 -0.3007901851519843 0.8711753496380799
0.3449828 -0.2946406730107681 0.8741192397605798
0.3469827 -0.2884516130972247 0.8772561645633242
0.3489826 -0.28237210770485904 0.8799665645107173
0.3509825 -0.27595361451652967 0.8829835208410496
0.3529824 -0.2702465886153027 0.8857811068076487
0.3549823 -0.26449567749293706 0.888333834316724
0.3569822 -0.2588292194960028 0.8904546188962381
0.3589821 -0.2530094038792001 0.8927747336767388
0.360982 -0.2472109950148389 0.894820483878415
0.3629819 -0.24118983536594654 0.8965207750822473
0.3649818 -0.23555322643876067 0.8980812497734625
0.3669817 -0.2293477805867484 0.8989330643652146
0.3689816 -0.22315984485302254 0.9006135586849653
0.3709815 -0.2167458658777362 0.9014742086156102
0.3729814 -0.21066974728537935 0.9026833324874017
0.3749813 -0.20457130208480373 0.9037342445168023
0.3769812 -0.19805557484966163 0.9045526161849139
0.3789811 -0.1917182891822375 0.9052843358747099
0.380981 -0.18471785487292053 0.9055696784501244
0.3829809 -0.17808990343677955 0.9066178850689399
0.3849808 -0.170715876715951 0.9075255626683277
0.3869807 -0.16379872515624283 0.907791940398958
0.3889806 -0.15658060555950604 0.9084436568501075
0.3909805 -0.1486938776148252 0.9091071773047321
0.3929804 -0.14120138359887102 0.9102997481398076
0.3949803 -0.13388689971276396 0.9107444439836718
0.3969802 -0.12632953779729172 0.9118245821555827
0.3989801 -0.11920914826120256 0.9121888414095172
0.40098 -0.11137156507882172 0.9133029503150671
0.4029799 -0.10383613274421029 0.9143225660114755
0.4049798 -0.09621539376407888 0.9152600127315773
0.4069797 -0.08888937993202686 0.9166958540829392
0.4089796 -0.08142322236050362 0.917655739291262
0.4109795 -0.07382707705769972 0.9185088473657534
0.4129794 -0.06648741927334942 0.9202428351034582
0.4149793 -0.05893886810428893 0.9213175330496199
0.4169792 -0.05186163432177003 0.9223626862851149
0.4189791 -0.0450760679186359 0.9235763087050851
0.420979 -0.038178779366731044 0.9242490835504612
0.4229789 -0.03114652928254188 0.9253507616312864
0.4249788 -0.02429057275166042 0.926586639812056
0.4269787 -0.0178700747743785 0.9272727001596746
0.4289786 -0.011329357959061316 0.9278837496061074
0.4309785 -0.00510179271444436 0.9282557788942716
0.4329784 0.0014784251850972 0.9287472606762506
0.4349783 0.008515120632100515 0.9282117301933801
0.4369782 0.014659998660594236 0.9279158827475498
0.4389781 0.02130439415376211 0.9279519540858262
0.440978 0.02750742753674345 0.927291313555764
0.4429779 0.03377288037716034 0.9269437169769071
0.4449778 0.040487915844392014 0.9261558229561565
0.4469777 0.04678626947031522 0.9251707507304731
0.4489776 0.053897451609793964 0.9246503105002264
0.4509775 0.06104246003129699 0.923757158400359
0.4529774 0.06764729701508496 0.9217003016736107
0.4549773 0.07523362690514497 0.9206368401988663
0.4569772 0.08259954836299595 0.9192117323869531
0.4589771 0.08962009871772135 0.9178102258548659
0.460977 0.09778863993378159 0.9165467774964847
0.4629769 0.10508112234188434 0.9154833180316984
0.4649768 0.11263819188731572 0.9144225856701155
0.4669767 0.12070829492563873 0.9129322493449761
0.4689766 0.12819936225708173 0.9113622233927006
0.4709765 0.13584918997895204 0.9103912786000439
0.4729764 0.1439916582844226 0.9093271719389665
0.4749763 0.15191983580055993 0.9084850248214588
0.4769762 0.15958344799830382 0.9073799528328823
0.4789761 0.16757545005615243 0.9061780814879361
0.480976 0.1754063564940842 0.9058418846641971
0.4829759 0.18341851088903455 0.9050250167982625
0.4849758 0.1910117006940394 0.9040214242913531
0.4869757 0.1985475165692605 0.9030964118342558
0.4889756 0.20608107189242914 0.9025484548507623
0.4909755 0.2136756030006603 0.9017407328942812
0.4929754 0.2207505064951275 0.9007750586267975
0.4949753 0.22768974012655405 0.9000353336966795
0.4969752 0.2344018941129717 0.8987477261352463
0.4989751 0.24136860116356812 0.8978480384469061
0.500975 0.24740178150015865 0.8962925261319381
0.5029749 0.25437279698405707 0.8950837764930654
0.5049748 0.26042527289450884 0.8936504508583842
0.5069747 0.2665663719520413 0.891987983258456
0.5089746 0.27278516315245843 0.8899079664291848
0.5109745 0.27957763927460755 0.8890476874846449
0.5129744 0.2861324146872097 0.8870233933302458
0.5149743 0.29182635711727595 0.884585832877848
0.5169742 0.2975622688633218 0.8817933595192547
0.5189741 0.30435784314980907 0.8792469370554812
0.520974 0.31110561884648724 0.8764878703667999
0.5229739 0.3179969107578585 0.8734797886089183
0.5249738 0.32395371547552254 0.870977798649474
0.5269737 0.33071240065211316 0.8673786863785766
0.5289736 0.33727756452265245 0.8643283101246912
0.5309735 0.34373416910358906 0.8610613230120909
0.5329734 0.3504248432739412 0.8573986642968943
0.5349733 0.35723379077747824 0.8536956054505287
0.5369732 0.36377211517616986 0.8500882356773853
0.5389731 0.3711154148106414 0.8466257677601708
0.540973 0.3778605650082736 0.8426901240960054
0.5429729 0.38494225370823876 0.8395832087519448
0.5449728 0.3924050452679806 0.8360905500008742
0.5469727 0.3997066996123181 0.8322110487573511
0.5489726 0.40709651398262997 0.8291446847570685
0.5509725 0.4143236797475744 0.8257502896890039
0.5529724 0.421802123279179 0.8224406228067186
0.5549723 0.4287282113356227 0.8192040737699524
0.5569722 0.4361524444472106 0.8157734957547855
0.5589721 0.4434368321759959 0.8127959092975586
0.560972 0.4505116736839435 0.8096937776331539
0.5629719 0.4574524274929392 0.8065417944372958
0.5649718 0.46495340347100445 0.8034060262136309
0.5669717 0.47155579452054625 0.8003184206874413
0.5689716 0.4781011363753407 0.7973283542482162
0.5709715 0.48436433733323125 0.7938266248445762
0.5729714 0.490108043369711 0.7907245826674787
0.5749713 0.49653980243465995 0.7870174431366239
0.5769712 0.5029337853999619 0.7833725948089488
0.5789711 0.508887225347204 0.7800055496298184
0.580971 0.5149100133054967 0.7768185536221546
0.5829709 0.5207901497350925 0.7731860204940387
0.5849708 0.5262845228733829 0.76910462808943
0.5869707 0.5321068527993719 0.7652736749232126
0.5889706 0.5378599144744179 0.76066954380417
0.5909705 0.5430163187170087 0.7561963963678107
0.5929704 0.5488635085499486 0.7512278837631051
0.5949703 0.5544286172548767 0.7463816915890591
0.5969702 0.5604025689336952 0.7419866696049524
0.5989701 0.5660259293346322 0.7371221046975077
0.60097 0.571621405977196 0.7320003047197423
0.6029699 0.5775948050494825 0.7266993630430908
0.6049698 0.5832680820318864 0.7213838160568604
0.6069697 0.5886012237808242 0.7162738107541011
0.6089696 0.5948122944340817 0.7110702054008471
0.6109695 0.6010174594600334 0.705730775692812
0.6129694 0.6066613889371838 0.6999343958337
0.6149693 0.6132168919314154 0.6947707551574782
0.6169692 0.6193603461276449 0.6895350903073292
0.6189691 0.6253848180020133 0.6840968123321788
0.620969 0.6317056949697034 0.6785077469263909
0.6229689 0.6375759776867091 0.6732092147704293
0.6249688 0.6434550755801516 0.6679262290431444
0.6269687 0.6499052626194343 0.6624653504158253
0.6289686 0.6556836445635832 0.6571699147326069
0.6309685 0.6617467076425265 0.6525548986554254
0.6329684 0.6672334880487425 0.6479342349409827
0.6349683 0.6727759846154882 0.6426151555478654
0.6369682 0.678065081496475 0.6373405926374018
0.6389681 0.6838352236350905 0.6318741515520774
0.640968 0.6894273389410435 0.6271765751010062
0.6429679 0.6946258740122263 0.6221788298012946
0.6449678 0.6998314638473533 0.6173990700314644
0.6469677 0.7047722711881002 0.6121137131940942
0.6489676 0.7094937850689094 0.606839365682922
0.6509675 0.7139058941008974 0.6016809407471768
0.6529674 0.7185979098641689 0.5965067782737529
0.6549673 0.7235619357168325 0.590954193683982
0.6569672 0.7271938943472346 0.5855210688326149
0.6589671 0.7320746153407185 0.5797839536863642
0.660967 0.7358817973505227 0.5741317315733294
0.6629669 0.7402143989435078 0.568098991088327
0.6649668 0.7442705871625528 0.5617311044264022
0.6669667 0.7477851896072936 0.5554330943547341
0.6689666 0.7518982543722974 0.5493763417462798
0.6709665 0.756511882243155 0.5423071403823255
0.6729664 0.7604249115223829 0.5356628844626403
0.6749663 0.7639935048153442 0.5287967499212387
0.6769662 0.7681953463473373 0.5220215150335721
0.6789661 0.7723225950376067 0.5150682962375206
0.680966 0.7762799127018936 0.5081227334359706
0.6829659 0.7807430209657908 0.50092535273894
0.6849658 0.7848365592489016 0.49390181317664295
0.6869657 0.789347564760502 0.48711367661054067
0.6889656 0.7937039219291296 0.4798608781250822
0.6909655 0.7976815935884396 0.4729170910349795
0.6929654 0.8020865886163453 0.4659986669258759
0.6949653 0.8061025223191624 0.4590267995144761
0.6969652 0.8107834847614166 0.4516869727940762
0.6989651 0.8148173394243335 0.44506761205767
0.700965 0.818806076721727 0.43836003608419116
0.7029649 0.8225828329915829 0.43131783211973235
0.7049648 0.8269665621642599 0.42492586914304575
0.7069647 0.8303403859946049 0.4181955496973672
0.7089646 0.8347891047003987 0.41110720819845165
0.7109645 0.8384212159023322 0.40514385022237004
0.7129644 0.8419414558120029 0.39827608245208673
0.7149643 0.8451584633167788 0.39200185037304736
0.7169642 0.8485598301532712 0.3855560769426689
0.7189641 0.8515458960935977 0.3787702290562948
0.720964 0.854796112636155 0.3719494202856072
0.7229639 0.8576094885345911 0.36492240238499163
0.7249638 0.8607422456182586 0.35837857151268504
0.7269637 0.8636252634112821 0.3516717233023001
0.7289636 0.8661397376623873 0.3445686999090149
0.7309635 0.8686732740829918 0.33838110455241677
0.7329634 0.8717595154855478 0.3306976020182562
0.7349633 0.8736474977938661 0.32378372292233115
0.7369632 0.876204652777404 0.31644811209120405
0.7389631 0.8779684220873107 0.3092660811134038
0.740963 0.8806043946674109 0.3022140593500971
0.7429629 0.8828348638380632 0.2943248135609461
0.7449628 0.8848484065930267 0.28673945686102176
0.7469627 0.8868622944995902 0.27882723492865535
0.7489626 0.8890417331170326 0.2711102092787321
0.7509625 0.891408156657539 0.2632556889900785
0.7529624 0.893114652637942 0.25578069607509846
0.7549623 0.8949937045490062 0.24811411400457462
0.7569622 0.8974743047152673 0.24037615671827145
0.7589621 0.8990199119996498 0.23216738925389419
0.760962 0.9012463225838437 0.2242832686149395
0.7629619 0.9032169466068071 0.21697159388410966
0.7649618 0.904850143382083 0.20891713631324993
0.7669617 0.9069768672888696 0.2010938353499011
0.7689616 0.9085446134410766 0.19335849577706132
0.7709615 0.9103125297426623 0.18556743374018383
0.7729614 0.9119212631049254 0.17806657719962182
0.7749613 0.9137512959080414 0.17036535819733617
0.7769612 0.9157002293978056 0.1626976920795035
0.7789611 0.9170806978168333 0.1551876685312959
0.780961 0.9185638663794863 0.14746735489197665
0.7829609 0.9197431945450376 0.1403830441231712
0.7849608 0.9208671330581915 0.1330212605013511
0.7869607 0.9219735781097768 0.12556153777728724
0.7889606 0.9230300826554806 0.1177284678622367
0.7909605 0.9237954478826653 0.11038546768568286
0.7929604 0.9250296154614823 0.10313377641840643
0.7949603 0.9260276986500647 0.09516492927347389
0.7969602 0.9265144675660311 0.08776712751439762
0.7989601 0.9272452740520398 0.08012850055117868
0.80096 0.9279352589020742 0.07266830743745992
0.8029599 0.9281237696648551 0.06485722708937178
0.8049598 0.928567306465637 0.05709661377175877
0.8069597 0.9287863804892063 0.049715803515449575
0.8089596 0.9289723572817372 0.04211860487089661
0.8109595 0.9295607193685943 0.03398938408456844
0.8129594 0.9291850865577229 0.026068328069772065
0.8149593 0.9296220131537127 0.018368179875824522
