! Created with skrf 1.8.0 (http://scikit-rf.org).
# GHz S RI R 50.0 
!freq ReS11 ImS11
0.001 -1.1235309152774553 -0.006853286303138972
0.0029999 -0.9684449797146242 -0.014452965587206767
0.0049998 -0.9471748014090351 0.012562354298173123
0.0069997 -0.9450373766706821 0.02440985452353628
0.0089996 -0.942808270353665 0.03766446503551368
0.0109995 -0.9410834324647782 0.04783305103066571
0.0129994 -0.9411564812767951 0.057085050260123116
0.0149993 -0.9406358691158845 0.06708925415963574
0.0169992 -0.9397346652972887 0.07530302307064007
0.0189991 -0.9394566150615186 0.08296851549946149
0.020999 -0.9383446009460775 0.09131345809859776
0.0229989 -0.9372546616756081 0.0995515300630897
0.0249988 -0.9358761837979959 0.10765809408930818
0.0269987 -0.9344641935375584 0.11594695007934468
0.0289986 -0.9331757721504105 0.12414392465867388
0.0309985 -0.9317013960322218 0.1322091369189532
0.0329984 -0.9302007341634216 0.14037707007771938
0.0349983 -0.9284650521491342 0.14845515963972222
0.0369982 -0.9267275925093655 0.1562737942486026
0.0389981 -0.9247551376677268 0.16472521720675892
0.040998 -0.9232233385387152 0.17289485743455368
0.0429979 -0.9208603420491321 0.18051104339136625
0.0449978 -0.9187064272123939 0.18824500547372708
0.0469977 -0.9170295026096765 0.19670059394856937
0.0489976 -0.9140761407034109 0.20450851360350225
0.0509975 -0.9117332179058322 0.21233227683295897
0.0529974 -0.9094179255176552 0.22023185651828703
0.0549973 -0.9062674582372103 0.2300714208345913
0.0569972 -0.9044643060431904 0.23725327113133388
0.0589971 -0.902252624120148 0.24569951204022233
0.060997 -0.9000635348341725 0.2540937138413393
0.0629969 -0.8969892638908868 0.26176989801163814
0.0649968 -0.8944295366190594 0.2700516626294949
0.0669967 -0.8925839347815075 0.27844197752976985
0.0689966 -0.8900282582885812 0.28565993232425735
0.0709965 -0.8874134864761504 0.2944097401043846
0.0729964 -0.8843176986916186 0.3021488395486911
0.0749963 -0.8820097408280728 0.30959744832695135
0.0769962 -0.8799116953769316 0.31772202865073323
0.0789961 -0.8769301339868303 0.3249448226836835
0.080996 -0.8739665443978735 0.3329949318567048
0.0829959 -0.8708198593262743 0.34069804123056835
0.0849958 -0.8682994431878874 0.34773777481533946
0.0869957 -0.8652563576688138 0.3555416421354445
0.0889956 -0.862489151653298 0.36258105127759493
0.0909955 -0.8591264496777511 0.3695870502279049
0.0929954 -0.8558925777823044 0.376790209440398
0.0949953 -0.8521475019896594 0.38420753764052556
0.0969952 -0.8488917247624908 0.39104617943086906
0.0989951 -0.8448844900088378 0.3985660024589307
0.100995 -0.8425520514510403 0.4062890589559762
0.1029949 -0.8389115626954905 0.4134744388180992
0.1049948 -0.8352115089044977 0.42019419880073416
0.1069947 -0.8310259631318228 0.4266206554863552
0.1089946 -0.8267834939592112 0.4335291556352752
0.1109945 -0.8225261952168108 0.44040679041705766
0.1129944 -0.8182567898360842 0.44716307358307233
0.1149943 -0.8136730133493633 0.4536056368056789
0.1169942 -0.8092159328131932 0.46066690992360215
0.1189941 -0.804412832407424 0.46744362640728854
0.120994 -0.7998553592944821 0.4745461975553429
0.1229939 -0.794804142637936 0.4816713182944935
0.1249938 -0.7904504511594194 0.4886678148566732
0.1269937 -0.7855876331779117 0.49524272942686365
0.1289936 -0.7810137656712437 0.5028070701833959
0.1309935 -0.7761136401997222 0.5097541510481329
0.1329934 -0.771357282381755 0.516537170572963
0.1349933 -0.7661057418486593 0.5236888206363348
0.1369932 -0.7615994130347583 0.5300118139931835
0.1389931 -0.7564433041292683 0.5370770777209841
0.140993 -0.7515801961918631 0.5439811031180212
0.1429929 -0.7463772700859155 0.550195257532251
0.1449928 -0.7420647191636331 0.5578180686479284
0.1469927 -0.7366740047252207 0.5644899983117524
0.1489926 -0.7321521042441405 0.5707674226031566
0.1509925 -0.7267598102834821 0.5770908132800936
0.1529924 -0.7217091353767255 0.5841767149711234
0.1549923 -0.7170847101006117 0.5909167686056181
0.1569922 -0.711606718396836 0.5973179087956345
0.1589921 -0.706522893250747 0.6034548200727133
0.160992 -0.7013381017897006 0.6098437947200178
0.1629919 -0.6958963541312201 0.6158643249163069
0.1649918 -0.6906361386226161 0.6218337383043289
0.1669917 -0.6853817018409806 0.6275505383623148
0.1689916 -0.6798016496724382 0.6337842878975581
0.1709915 -0.6744143099095595 0.6393651002912302
0.1729914 -0.668795776963831 0.6451404780650337
0.1749913 -0.6629366658288159 0.6507411330329783
0.1769912 -0.6571998854319498 0.6564769891251221
0.1789911 -0.6518100258572814 0.6619722725531418
0.180991 -0.645754604674771 0.667380123851097
0.1829909 -0.6396549917930896 0.6730682764748049
0.1849908 -0.6337741242424467 0.6784115472817484
0.1869907 -0.627713832966813 0.6837304026018756
0.1889906 -0.6215786515650035 0.6893573000952262
0.1909905 -0.615019255235159 0.694799069448208
0.1929904 -0.6086606678239743 0.6999011997164025
0.1949903 -0.6025642483109215 0.704661969127385
0.1969902 -0.5960205343002914 0.7102850321025843
0.1989901 -0.5895122228607841 0.715556937908844
0.20099 -0.5830617638240022 0.7209589306857981
0.2029899 -0.5765653492680203 0.7256492964122949
0.2049898 -0.569742154691893 0.7302844451535447
0.2069897 -0.5631946845077108 0.735639685502866
0.2089896 -0.5567531576369321 0.740661025240141
0.2109895 -0.5497613677925263 0.7455391980529493
0.2129894 -0.5428643798161781 0.7508154737516941
0.2149893 -0.5362630151449088 0.7553800588139076
0.2169892 -0.5291886150177368 0.7604249827215059
0.2189891 -0.5223167289038976 0.7654617654153248
0.220989 -0.5154524489634589 0.7696244226996823
0.2229889 -0.5082947732120693 0.7742341770152265
0.2249888 -0.5010201651022409 0.7788175206696847
0.2269887 -0.4941390381468729 0.7833352373882032
0.2289886 -0.4867147629765859 0.7878434071232817
0.2309885 -0.47955789941177546 0.7924408258939153
0.2329884 -0.47220503745529324 0.7965652972531337
0.2349883 -0.46483203743686935 0.8011655750117113
0.2369882 -0.45744973547932644 0.8053424141588988
0.2389881 -0.45054148324421545 0.809675348920076
0.240988 -0.44265688120258595 0.8135742746483104
0.2429879 -0.4352166788693234 0.8175463133298719
0.2449878 -0.4279354343618173 0.8218867851539273
0.2469877 -0.42049022697825655 0.8260051869228263
0.2489876 -0.41310626384476723 0.8303719347133098
0.2509875 -0.4054865018294408 0.8339421793614294
0.2529874 -0.3983710560133343 0.8381632591671855
0.2549873 -0.39098053567959834 0.8423058898937367
0.2569872 -0.3834850899769887 0.8461476168269554
0.2589871 -0.37583654621307205 0.8497051107414908
0.260987 -0.36864354069231414 0.8535002642257039
0.2629869 -0.3612870372265551 0.8569865150717237
0.2649868 -0.35383448041458077 0.8601784428874919
0.2669867 -0.3464489553947531 0.8633946121027739
0.2689866 -0.3387490757639374 0.866616980704417
0.2709865 -0.331528251841157 0.8697071753336698
0.2729864 -0.32420808049873795 0.8728525837581018
0.2749863 -0.316914875953219 0.875851687400698
0.2769862 -0.30944246118312535 0.8785721803977415
0.2789861 -0.30206519122101694 0.8806272908887227
0.280986 -0.2942345540672225 0.882999239762763
0.2829859 -0.28711332427629277 0.8853003866821914
0.2849858 -0.2788602505145144 0.8874083558005207
0.2869857 -0.2708944095379925 0.8894712267502421
0.2889856 -0.26317888161988673 0.8911882842806826
0.2909855 -0.2550435520974669 0.8933981825518299
0.2929854 -0.24719373049997814 0.8953784599428356
0.2949853 -0.23881801908850964 0.8967095167574727
0.2969852 -0.23028281596849984 0.8979845728747479
0.2989851 -0.22226447449166334 0.89932463475372
0.300985 -0.21351826654667472 0.9007917758557143
0.3029849 -0.20489185270689964 0.9018134699613312
0.3049848 -0.1961910297838993 0.9030623995972132
0.3069847 -0.18695904952609443 0.9040005851515112
0.3089846 -0.17788715962346252 0.9049080609261966
0.3109845 -0.16878081023927785 0.9063594574773313
0.3129844 -0.15972923546555695 0.9076488997564992
0.3149843 -0.15075952218688102 0.9084786805811257
0.3169842 -0.14118601225433347 0.9094513976587608
0.3189841 -0.13184022179345717 0.9108064272953269
0.320984 -0.12242132477564213 0.9117465746589765
0.3229839 -0.11340492411945047 0.9125533624420856
0.3249838 -0.10442194726462495 0.9131856283906602
0.3269837 -0.09491109967323 0.9142956887484567
0.3289836 -0.08580466682567564 0.9154343469442705
0.3309835 -0.07624996604324424 0.9164988394407659
0.3329834 -0.0678568750904481 0.9180112304070622
0.3349833 -0.05887547121020262 0.9196293867471242
0.3369832 -0.05005533887097674 0.9214593063772887
0.3389831 -0.041182132283923256 0.9232132872502075
0.340983 -0.03221974321398999 0.9246275596510063
0.3429829 -0.02367272810753493 0.9263068182703751
0.3449828 -0.01498622909755394 0.9276580583579692
0.3469827 -0.006257131806191935 0.928937254460249
0.3489826 0.0021175078537830155 0.9298364637910825
0.3509825 0.010850851726879357 0.9308002025646495
0.3529824 0.019314307625203003 0.9315481600015993
0.3549823 0.02747182343758365 0.9323450398498024
0.3569822 0.03553109777371539 0.9324387075143927
0.3589821 0.04363124424897741 0.9328635197100096
0.360982 0.051422554154530134 0.9330404915801043
0.3629819 0.059628366455107565 0.9328933828480902
0.3649818 0.06741903061192962 0.9320457949112134
0.3669817 0.07531502297514743 0.9309399183921873
0.3689816 0.08375300026764256 0.9301949216209867
0.3709815 0.09186461570739805 0.9291626561674342
0.3729814 0.10011161929000675 0.9277979927592129
0.3749813 0.10803728705925669 0.9264598355443666
0.3769812 0.11647154344818267 0.9249733854793666
0.3789811 0.1251819954085982 0.9241516416701434
0.380981 0.133354257655351 0.9216094739279471
0.3829809 0.1423081664609942 0.9197596149440417
0.3849808 0.1508593781300808 0.9177780091128919
0.3869807 0.15974732763291022 0.9153610741880888
0.3889806 0.16884511024874108 0.913506449293917
0.3909805 0.17788382628689825 0.9109134533050139
0.3929804 0.18749788733817108 0.9087293582741157
0.3949803 0.1965640816744446 0.9064016166908179
0.3969802 0.2055850887833469 0.9043881953540219
0.3989801 0.2151583844976733 0.9021191306404206
0.40098 0.22440305258081397 0.8998892729895736
0.4029799 0.23331854605862773 0.8981458801413286
0.4049798 0.2428196174327127 0.8955625841693247
0.4069797 0.2521603006920855 0.8933069870287238
0.4089796 0.26117645563393244 0.8913708714100482
0.4109795 0.27024797543769646 0.8890341557404495
0.4129794 0.27965633621318714 0.8868984420046562
0.4149793 0.28904037251649184 0.8848713717199107
0.4169792 0.29793972777437844 0.8827843761071679
0.4189791 0.3066017697855592 0.8805156881929962
0.420979 0.3152719161564628 0.8780933996135853
0.4229789 0.32378915783550277 0.875980097059701
0.4249788 0.3323693895732404 0.8735523550917762
0.4269787 0.3405298943154655 0.8712576500876255
0.4289786 0.34874720853226104 0.8688102482695135
0.4309785 0.35666148705328193 0.8657197576618911
0.4329784 0.3648524448918433 0.8628341769274016
0.4349783 0.37298365280487294 0.8589330492082288
0.4369782 0.38016951401791044 0.8556361184322177
0.4389781 0.38815773862173714 0.8523850049452626
0.440978 0.3954619224146426 0.848310609363458
0.4429779 0.40366162045994186 0.8447807539349389
0.4449778 0.4110773703682471 0.8409260020209404
0.4469777 0.41881881923385966 0.8364970207675717
0.4489776 0.4267024513689984 0.8321384911361333
0.4509775 0.43410964617487907 0.8275192520561508
0.4529774 0.4419035240429023 0.8222648349571385
0.4549773 0.44976578540524237 0.8179605610271522
0.4569772 0.4578127046882561 0.8126220940648919
0.4589771 0.4655811092105906 0.8073618710236701
0.460977 0.4738884775363619 0.8020511958351051
0.4629769 0.4822072658943644 0.7974510169142343
0.4649768 0.49051130588029457 0.7917736561019939
0.4669767 0.49835821462428037 0.786770864462731
0.4689766 0.5065237793066989 0.7815229292927687
0.4709765 0.514803066077954 0.7764313847153823
0.4729764 0.522885466922585 0.7708148380337299
0.4749763 0.5313470704369893 0.7657443761329559
0.4769762 0.5392974939331469 0.7604093889567557
0.4789761 0.5477636327284929 0.7548538961071107
0.480976 0.5560618200175089 0.7496277289708666
0.4829759 0.5644721261158034 0.7444604510008914
0.4849758 0.5721289292825611 0.7391121136101734
0.4869757 0.580060770155469 0.7337355119916852
0.4889756 0.5882999580813154 0.7285115319547106
0.4909755 0.5956993266075999 0.7230795075932829
0.4929754 0.6031913123404425 0.7177548363899027
0.4949753 0.6105346085503989 0.7127317896246139
0.4969752 0.6174528639490133 0.706966449982285
0.4989751 0.6247057753122919 0.7017344812855975
0.500975 0.6312667779005111 0.6959564829194372
0.5029749 0.6380749603922161 0.6904255303172241
0.5049748 0.6447122499002189 0.684614699677949
0.5069747 0.6510886892930926 0.6790016097076315
0.5089746 0.6576657156756465 0.6728775273493952
0.5109745 0.6644531567024093 0.6673019558075661
0.5129744 0.6708601965944231 0.66044702572001
0.5149743 0.6760772668238615 0.6543246037688503
0.5169742 0.682037761132416 0.647979963061522
0.5189741 0.6885719557622945 0.6410127596985185
0.520974 0.6945592157696785 0.6341097200782809
0.5229739 0.7007800494373619 0.626470470510104
0.5249738 0.7064771652539914 0.6198647519763693
0.5269737 0.7126856573494755 0.6127002728259873
0.5289736 0.7182243644359465 0.6052380254058016
0.5309735 0.7238217084880003 0.5982091256898908
0.5329734 0.7294029150677308 0.5899117157888584
0.5349733 0.734984436986136 0.5819403518894771
0.5369732 0.7407992319329569 0.574551924926575
0.5389731 0.7467530744790082 0.5666734292480122
0.540973 0.7525085552422864 0.5585177178149864
0.5429729 0.7580728168667907 0.5506846665526093
0.5449728 0.7641419662898732 0.5424945830543335
0.5469727 0.7697695203312608 0.5345604470945068
0.5489726 0.7752944248318836 0.5268821910298911
0.5509725 0.7808860423864571 0.5185979788678224
0.5529724 0.7866705614682462 0.510567894260052
0.5549723 0.7920352704787463 0.5026066855842791
0.5569722 0.7974225090872525 0.49490485816945873
0.5589721 0.8028357366244075 0.4866136621961167
0.560972 0.8081758973520974 0.478619588700498
0.5629719 0.8132491585916317 0.47091877682311745
0.5649718 0.8187248722032262 0.4626103416110791
0.5669717 0.8233448029955414 0.45477150041886066
0.5689716 0.8283486934687434 0.4471167806556687
0.5709715 0.8323799721935007 0.438916515664306
0.5729714 0.8371414619373969 0.43132014036737343
0.5749713 0.8412819060266102 0.4227729328825769
0.5769712 0.8459671371642855 0.41455158126255776
0.5789711 0.8499762706479171 0.4067009313799729
0.580971 0.854470958361782 0.39851399568806795
0.5829709 0.8577796999823147 0.3904159625036069
0.5849708 0.8615707639328292 0.38212544671654464
0.5869707 0.8655231096070675 0.37339336271922163
0.5889706 0.8689956882853312 0.36499343992173416
0.5909705 0.8723132024685232 0.3560705217927113
0.5929704 0.8756505396953141 0.34704247633936014
0.5949703 0.8789058575063877 0.3381712236811738
0.5969702 0.8823764450575797 0.3295882705094981
0.5989701 0.8857681984335756 0.3205470990658528
0.60097 0.8883099864148667 0.3118035623232833
0.6029699 0.8911446759099246 0.3024607983520014
0.6049698 0.8942966317650434 0.293284735646311
0.6069697 0.8969194345910709 0.28468228940568807
0.6089696 0.8999014403888149 0.27496672905199177
0.6109695 0.9029078485093381 0.26584715219404376
0.6129694 0.9053137751962423 0.25640070587274405
0.6149693 0.9081714176777024 0.24742193630701012
0.6169692 0.9108080364531221 0.23772766652055483
0.6189691 0.9131502643322731 0.22867806778034516
0.620969 0.915575245055852 0.2187887225665216
0.6229689 0.9178334498963778 0.20998491577714792
0.6249688 0.9200162342873659 0.2006769199175893
0.6269687 0.9222220586289558 0.19130620817668914
0.6289686 0.9240518546497762 0.18193652603232255
0.6309685 0.9262442162421647 0.17296749376057585
0.6329684 0.9281267392596906 0.16372699743934147
0.6349683 0.9295911986182205 0.15424220800235194
0.6369682 0.9313262729297296 0.14510675739888407
0.6389681 0.9327534559105763 0.13595858300339198
0.640968 0.934506749229048 0.12669210593492466
0.6429679 0.9358210850250755 0.11722781161019803
0.6449678 0.9367332496162324 0.10847828182168673
0.6469677 0.9377998132924424 0.09884313622474436
0.6489676 0.9387765952189236 0.08947877420719624
0.6509675 0.939349126043479 0.08048014483161345
0.6529674 0.9403721355954651 0.07050325883593073
0.6549673 0.9409366985423653 0.061703859466639505
0.6569672 0.9414968855160132 0.052082771629047425
0.6589671 0.9419486779571734 0.04256005230566164
0.660967 0.942243440905365 0.033105125919209666
0.6629669 0.9424741829358794 0.023609572272249323
0.6649668 0.9421956732901835 0.01422357521592188
0.6669667 0.9425034362356347 0.004437941874596743
0.6689666 0.942398125023722 -0.004894506396276838
0.6709665 0.9424720297032704 -0.014609818421171233
0.6729664 0.9423838176858645 -0.02438847766568268
0.6749663 0.9421286689001962 -0.03365208940419684
0.6769662 0.9416806812863416 -0.04314553166292037
0.6789661 0.9414038405793965 -0.052961744044300735
0.680966 0.9407924215942268 -0.06218740443085839
0.6829659 0.9404538418121441 -0.07138905872115152
0.6849658 0.9393873009548552 -0.08104107793681357
0.6869657 0.9387755210168017 -0.09005701522899362
0.6889656 0.9378812962663882 -0.09967850408819603
0.6909655 0.93689586582314 -0.10856182712547575
0.6929654 0.9358004846004602 -0.11798318640716635
0.6949653 0.934581139108001 -0.1270894678058295
0.6969652 0.9333036518192317 -0.13627250583802805
0.6989651 0.9318970513423372 -0.1452892698275531
0.700965 0.9304601632626307 -0.1544342357235275
0.7029649 0.9289004162727299 -0.16318661786215888
0.7049648 0.9274901158089046 -0.17253723699984372
0.7069647 0.9250930248602669 -0.18113414797761226
0.7089646 0.9229250804918574 -0.19005288671037607
0.7109645 0.9207999788248578 -0.19902569796230096
0.7129644 0.9183507604315615 -0.20843235454615736
0.7149643 0.9160538171539389 -0.21725832629204989
0.7169642 0.9137635632590817 -0.2264941252298768
0.7189641 0.9113776897381951 -0.23547542268248473
0.720964 0.9085495788114621 -0.244772501765326
0.7229639 0.9055147775776803 -0.2536846416454208
0.7249638 0.9027060055726451 -0.26261502535293074
0.7269637 0.9004028975527749 -0.2720310535093991
0.7289636 0.8971889554463763 -0.28084905618484707
0.7309635 0.8944357536350891 -0.29024074791314236
0.7329634 0.891370407462978 -0.29942274603560887
0.7349633 0.8888324562321275 -0.3086475052373034
0.7369632 0.8853442939909583 -0.317886753863222
0.7389631 0.8826215215247448 -0.32678719300053843
0.740963 0.8795500360846259 -0.33605022921735284
0.7429629 0.8765381753412356 -0.3445145425672227
0.7449628 0.8737208711212628 -0.3533724137539232
0.7469627 0.8702427816874305 -0.3620147941547723
0.7489626 0.8670419477497309 -0.37066469632612337
0.7509625 0.8638020515946697 -0.3795017460918044
0.7529624 0.8599625038312602 -0.3876951402287932
0.7549623 0.8566579443584358 -0.39572945523126524
0.7569622 0.8529297683146649 -0.4042123047125373
0.7589621 0.849689163456864 -0.41211071902538077
0.760962 0.8457125378469657 -0.4199904965607813
0.7629619 0.842299081403852 -0.42787244066841207
0.7649618 0.838118275881796 -0.4353722758143937
0.7669617 0.834126963388152 -0.44312938635406324
0.7689616 0.8298394192185073 -0.45032446180282043
0.7709615 0.8258501254668332 -0.4582385807941868
0.7729614 0.8210511267374586 -0.4655778345530453
0.7749613 0.816618691754546 -0.47288928621061666
0.7769612 0.8113723082488238 -0.479748430826163
0.7789611 0.8061999629263759 -0.4870040899324136
0.780961 0.8013666873971436 -0.4941314358814787
0.7829609 0.7958172771003513 -0.501568691436584
0.7849608 0.7902303139137465 -0.508982209803948
0.7869607 0.7847933551412358 -0.51615971270637
0.7889606 0.7790299876352367 -0.5233368717679421
0.7909605 0.7728277713174111 -0.5304294819186343
0.7929604 0.7673665240076721 -0.5377916083678602
0.7949603 0.7614513145094917 -0.5453895376100747
0.7969602 0.7550887088809136 -0.5525751003845786
0.7989601 0.7490453898011591 -0.560044093941651
0.80096 0.7432419286542898 -0.5684717055486763
0.8029599 0.7374322652738349 -0.5759050966468148
0.8049598 0.7312076429141696 -0.5834555537007059
0.8069597 0.7255324737956642 -0.5914918682462007
0.8089596 0.7196712570212151 -0.5989759087265236
0.8109595 0.713822737824944 -0.6071032573586215
0.8129594 0.708248981750335 -0.6143325212196595
