! Created with skrf 1.8.0 (http://scikit-rf.org).
# GHz S RI R 50.0 
!freq ReS11 ImS11
0.001 -0.8866738506695139 0.16889710516551537
0.0029999 -0.9533710888938942 0.03066060535167725
0.0049998 -0.9437616300099336 0.02608260625309164
0.0069997 -0.9410100671630415 0.035897184016012995
0.0089996 -0.9404414387078539 0.04140460546057945
0.0109995 -0.9396891327642236 0.04989773001994502
0.0129994 -0.9394253923819043 0.05863075554104369
0.0149993 -0.9391969394830502 0.06767968040936534
0.0169992 -0.9376411771145927 0.07530989267018795
0.0189991 -0.9376976219981864 0.08296593546955777
0.020999 -0.936623699149771 0.09114591539823019
0.0229989 -0.9354286504009495 0.09912372532455677
0.0249988 -0.9340951739361318 0.10730227686918264
0.0269987 -0.9326787524234295 0.11548545885862205
0.0289986 -0.9313200032053197 0.12364439979856437
0.0309985 -0.9298642948368141 0.13170687274386847
0.0329984 -0.9283240722314785 0.13994786480209576
0.0349983 -0.9266471674425019 0.14798509961833284
0.0369982 -0.9248717149064734 0.15571149926879763
0.0389981 -0.9229199840063791 0.16411476684286597
0.040998 -0.9213092277821675 0.1722026464018287
0.0429979 -0.9189345309346646 0.17995884507223642
0.0449978 -0.9167241371686781 0.18773538552536945
0.0469977 -0.9151663259066756 0.1959442500621038
0.0489976 -0.9121048931612381 0.20390639891488144
0.0509975 -0.9098190497692907 0.21177228288167638
0.0529974 -0.9074371955075227 0.22046659229069843
0.0549973 -0.9045784465297505 0.22875840220201837
0.0569972 -0.9024794751710568 0.2364684018072985
0.0589971 -0.9003105213071554 0.2448934596741305
0.060997 -0.8980166904191205 0.25319677701313237
0.0629969 -0.8949394570828623 0.2609715524168972
0.0649968 -0.8925911022344801 0.26905245444247017
0.0669967 -0.890650711048858 0.2775518834457654
0.0689966 -0.8880985521425389 0.28466065300599164
0.0709965 -0.8855786582981883 0.29325780898107146
0.0729964 -0.8822544778146428 0.30132155297019325
0.0749963 -0.8800422618160948 0.3085248027025903
0.0769962 -0.8780934633328791 0.3167273393440987
0.0789961 -0.8749453024133319 0.3236654501436572
0.080996 -0.872152264097407 0.3317934656460192
0.0829959 -0.8690750991965493 0.3393972131915081
0.0849958 -0.8665129073313447 0.3463833539105879
0.0869957 -0.8634127806342297 0.3542336337544595
0.0889956 -0.8607356146825179 0.3612172949248392
0.0909955 -0.8575634235041738 0.36811188092507574
0.0929954 -0.8540226662416185 0.3754829051526004
0.0949953 -0.8505331622302947 0.38275665124414915
0.0969952 -0.84700037260312 0.3895211582915776
0.0989951 -0.8433746010485899 0.3968758701575371
0.100995 -0.8408734700389942 0.40447491256091667
0.1029949 -0.8373962644377295 0.4115780401583935
0.1049948 -0.8336304608261809 0.41833559988342284
0.1069947 -0.829550943656127 0.424728488986156
0.1089946 -0.8253931283772316 0.431549949075256
0.1109945 -0.8210106992734258 0.4383818325756063
0.1129944 -0.8168848989005904 0.4450947340418578
0.1149943 -0.8122668080898732 0.4515060652619357
0.1169942 -0.8079027158470348 0.4585008135346522
0.1189941 -0.803074507917878 0.4653273560084295
0.120994 -0.798530767126215 0.4723507409731626
0.1229939 -0.7935038339272664 0.4794900540555048
0.1249938 -0.7893547907589517 0.48614585821682244
0.1269937 -0.7844438583535771 0.4929151750335744
0.1289936 -0.7797874087526859 0.5006092365243944
0.1309935 -0.7747378768857797 0.5072949389202277
0.1329934 -0.7700599371382524 0.5141103565933067
0.1349933 -0.764862625580529 0.521570417958382
0.1369932 -0.7604259554880785 0.5278124883163747
0.1389931 -0.7553074600157551 0.5347566699352153
0.140993 -0.7504021690797681 0.5417722001282337
0.1429929 -0.7452362274542925 0.5477684036514826
0.1449928 -0.7409664944203314 0.5551560653802656
0.1469927 -0.7359400800184928 0.5617896215745668
0.1489926 -0.7309389832113857 0.5685347303558
0.1509925 -0.7257266842995531 0.5746517643489758
0.1529924 -0.7207354820197119 0.5815328686538612
0.1549923 -0.7162910996244842 0.5882466890917407
0.1569922 -0.7106707569325716 0.5948053926043531
0.1589921 -0.705785217243202 0.6009333700312879
0.160992 -0.7005778290188696 0.6071569316508006
0.1629919 -0.6951147120382177 0.6133881284836631
0.1649918 -0.6899481154811506 0.619263619166972
0.1669917 -0.6844832345601052 0.6249463326317497
0.1689916 -0.6792292789369551 0.6311046785371037
0.1709915 -0.6737599652023593 0.6366655561051286
0.1729914 -0.668338795862065 0.6422637990662643
0.1749913 -0.6625210180382667 0.6479098080252653
0.1769912 -0.657049509498118 0.6536691660530737
0.1789911 -0.6514219345306305 0.6590136899550543
0.180991 -0.6454886976384919 0.6645119138708597
0.1829909 -0.6394983155090352 0.6701556352569922
0.1849908 -0.6336256263041944 0.6755068263256653
0.1869907 -0.6275607143772398 0.6807235868863072
0.1889906 -0.6214581275321073 0.686456448819267
0.1909905 -0.6149660592703559 0.6917008320870267
0.1929904 -0.6085545425056572 0.696803634689105
0.1949903 -0.6024010171817671 0.7019358642195133
0.1969902 -0.5958383334846985 0.707277269589837
0.1989901 -0.5892784028773697 0.712803407464287
0.20099 -0.5829968168696574 0.7177581235810322
0.2029899 -0.5764832388215819 0.7227497208801366
0.2049898 -0.5695491605996333 0.7273162350700721
0.2069897 -0.563051618879161 0.7327661910725471
0.2089896 -0.5568233252824375 0.7376925354681144
0.2109895 -0.5496775951732902 0.7425150722020647
0.2129894 -0.5426963925166922 0.7478576052741526
0.2149893 -0.5362122099662514 0.7525667642396315
0.2169892 -0.5289263615739125 0.7575850186188202
0.2189891 -0.522249940706223 0.7624395292114144
0.220989 -0.5150453278628943 0.7670064076778703
0.2229889 -0.5082113746081331 0.7715595610313987
0.2249888 -0.5006908396859834 0.7762995903209586
0.2269887 -0.4940099733477573 0.7804914448905663
0.2289886 -0.4868189296420561 0.7851324853178365
0.2309885 -0.4797082273289126 0.7895745468916667
0.2329884 -0.47216219342694554 0.7939469026236899
0.2349883 -0.46478655389550133 0.7983150807383912
0.2369882 -0.45765799176805533 0.802700066691116
0.2389881 -0.4506215754362011 0.8070229875640913
0.240988 -0.44295830591449825 0.8108464340073093
0.2429879 -0.4356313218828874 0.8149016054262034
0.2449878 -0.42832671459372246 0.8192973803360204
0.2469877 -0.4208270431126018 0.8232368375884219
0.2489876 -0.41362986118880585 0.8276981076041201
0.2509875 -0.40611420927276054 0.8313072193145052
0.2529874 -0.3989288638285822 0.8354888261423455
0.2549873 -0.39167783719984034 0.8396137971254933
0.2569872 -0.3841831867710388 0.843479104375572
0.2589871 -0.37661559200949113 0.8470648348113257
0.260987 -0.3693977031805904 0.8507257589053864
0.2629869 -0.36185271876086444 0.854277776884462
0.2649868 -0.35435396712727457 0.8577394591656908
0.2669867 -0.34710305021524157 0.8606737399271908
0.2689866 -0.3393404869219797 0.8639800025537676
0.2709865 -0.33215749926584814 0.8670604154543071
0.2729864 -0.32446750444086153 0.8701338262614697
0.2749863 -0.31738765532809354 0.8731036374845039
0.2769862 -0.3098198935296942 0.8758462943313332
0.2789861 -0.30232092162233487 0.8779798192928764
0.280986 -0.2944717299639342 0.8803535294238303
0.2829859 -0.2873260210111071 0.8825876499258786
0.2849858 -0.27919570617023726 0.8847437429025442
0.2869857 -0.2709476568358201 0.8868104966467779
0.2889856 -0.2633998067858543 0.8885815619373609
0.2909855 -0.255047851009799 0.8907920917014582
0.2929854 -0.247269096926557 0.8928213249979315
0.2949853 -0.2389480398597407 0.8942171338081636
0.2969852 -0.23035089545142926 0.8956237781779961
0.2989851 -0.22243002296636938 0.8967596296379159
0.300985 -0.21336445063640128 0.8982339964004302
0.3029849 -0.20481188309310974 0.8996071565988959
0.3049848 -0.19613749291391458 0.9007374074603123
0.3069847 -0.18690336230159843 0.9017251937561199
0.3089846 -0.17782865185498944 0.9026850596007282
0.3109845 -0.16882401758310964 0.9042610424785028
0.3129844 -0.1597855212430527 0.9055020704274882
0.3149843 -0.1506806089097473 0.9066641421963262
0.3169842 -0.1413507959763139 0.9076249794704468
0.3189841 -0.1320364758082272 0.9089294189541219
0.320984 -0.12246252641865002 0.9095338435136207
0.3229839 -0.11325589629416752 0.9108254329560969
0.3249838 -0.10435882399117646 0.9114740365086628
0.3269837 -0.09524584303320036 0.9125768070147364
0.3289836 -0.08583348901241605 0.9135381599252425
0.3309835 -0.07661211779960747 0.9147205428990715
0.3329834 -0.06793290233294533 0.9161370725491477
0.3349833 -0.05889831455669976 0.9177444453570243
0.3369832 -0.05030266019124256 0.9196872828130838
0.3389831 -0.040880620765710945 0.9213664638348261
0.340983 -0.03247196807630752 0.9226645691016978
0.3429829 -0.02346110082938893 0.9242886123158218
0.3449828 -0.01501549918085237 0.9255534300124979
0.3469827 -0.006007146747594391 0.9268068983667501
0.3489826 0.0022673214651774735 0.9277160474682176
0.3509825 0.011288787981614545 0.9284499150878952
0.3529824 0.019609068663796005 0.9290840254013153
0.3549823 0.027994515948436063 0.9297354334010328
0.3569822 0.036044821021099474 0.9300660746437557
0.3589821 0.04420083742138471 0.9302689128999805
0.360982 0.051851069861456434 0.9305494644716407
0.3629819 0.06041312138472833 0.9302863345267639
0.3649818 0.06817527393951955 0.9294353352884528
0.3669817 0.07640927574977965 0.9287512806624639
0.3689816 0.08486007721211135 0.9279028573763176
0.3709815 0.09304710701479911 0.9267018721620328
0.3729814 0.10121173599131159 0.9253279387893234
0.3749813 0.10940713803486693 0.9239147046678319
0.3769812 0.11753848191852487 0.9223063798604311
0.3789811 0.12643579618082254 0.9214905685249257
0.380981 0.13476881762547913 0.9193329926447142
0.3829809 0.14392151181782908 0.9172477024871345
0.3849808 0.15237839625396518 0.9154258549674414
0.3869807 0.1614020598709013 0.9130125372484775
0.3889806 0.17039652487341267 0.9109770050895661
0.3909805 0.17964878271967025 0.9084226389773117
0.3929804 0.18922445363419252 0.9064837829664978
0.3949803 0.1984121581201469 0.9039302338973575
0.3969802 0.20758250630950437 0.902153099083989
0.3989801 0.2168390527319088 0.8998272982560274
0.40098 0.22654149241579713 0.8973945401213441
0.4029799 0.23548263556074672 0.8956637828988123
0.4049798 0.24506562555054573 0.8931104211020301
0.4069797 0.25448225790919543 0.8907108824115393
0.4089796 0.263401148647149 0.8888423369469077
0.4109795 0.2728138452728951 0.8865078376916424
0.4129794 0.28208621005833634 0.8843217387348649
0.4149793 0.29187106707056953 0.8820289227629584
0.4169792 0.30070033607076224 0.8799541332235725
0.4189791 0.3092879349483171 0.8777093963206454
0.420979 0.31799636582117813 0.8753326231512508
0.4229789 0.32666892678159776 0.8728956038604726
0.4249788 0.3353250321134505 0.8704882567919893
0.4269787 0.3435437195009375 0.8679860469177075
0.4289786 0.3517914413848843 0.8654580666166496
0.4309785 0.3598521599651484 0.8624619162317452
0.4329784 0.36798420950199356 0.8593788838683354
0.4349783 0.3762514118629811 0.8554110744217882
0.4369782 0.38380241674341753 0.852046331192108
0.4389781 0.39155506830773695 0.8486205315890604
0.440978 0.39952350927492886 0.8446446043403788
0.4429779 0.4068334397456877 0.8406891310779936
0.4449778 0.4148961543024724 0.8368862736156143
0.4469777 0.42248070031971563 0.8324665229984389
0.4489776 0.43069455641394305 0.8278142148922191
0.4509775 0.4382975167112182 0.8232715973125343
0.4529774 0.44600038990574425 0.8178648962695415
0.4549773 0.4539002754945811 0.8132730495242296
0.4569772 0.46214898549685574 0.8079840375985247
0.4589771 0.4699196224054671 0.8026424524998139
0.460977 0.47854827793477805 0.7973654015684377
0.4629769 0.4867915626529754 0.7924163192534472
0.4649768 0.49528733265794045 0.7867258454442703
0.4669767 0.5033544685166534 0.7815992372245774
0.4689766 0.5113142786001258 0.7761038109177829
0.4709765 0.5198306620357951 0.7709599578330752
0.4729764 0.5280077116839363 0.7653118999324806
0.4749763 0.5363155547473991 0.759854851352574
0.4769762 0.5445843267389039 0.7545922683557302
0.4789761 0.5531856460742003 0.74893343840579
0.480976 0.5611440261222495 0.743402286485212
0.4829759 0.5698104637422773 0.738190325138138
0.4849758 0.577782862957454 0.7326976078573769
0.4869757 0.5856158949656909 0.7271069679967044
0.4889756 0.5938407747585808 0.7216763380891673
0.4909755 0.601488215243513 0.7161916285637184
0.4929754 0.6090352825461736 0.7105955180149989
0.4949753 0.6163357135553903 0.705558292140678
0.4969752 0.6234204464708097 0.6996117867471019
0.4989751 0.630618795707111 0.6940350308181517
0.500975 0.6371217191269716 0.6882845552971092
0.5029749 0.6439718185321206 0.6826697276326307
0.5049748 0.6508123963673642 0.676577783773795
0.5069747 0.6570963424806096 0.6706972757708242
0.5089746 0.6638803477976647 0.6644951683922388
0.5109745 0.6706369598118376 0.6586547077869795
0.5129744 0.6771061523137231 0.6516883729615944
0.5149743 0.6827130089204175 0.6453186955532391
0.5169742 0.6887138947889161 0.6385991510698603
0.5189741 0.6950509402546263 0.6315549761364834
0.520974 0.7009295648321989 0.6245370943143037
0.5229739 0.7072423522005356 0.6166908937870608
0.5249738 0.7129302884798855 0.6099045801452295
0.5269737 0.7194093129054843 0.6024409312657127
0.5289736 0.7247899308785761 0.5946544437752319
0.5309735 0.7303644840373498 0.5873807841417036
0.5329734 0.7360766745019204 0.5790428513246714
0.5349733 0.7413782550306803 0.5709765677768719
0.5369732 0.747390352279071 0.5630419612398071
0.5389731 0.7532263398810262 0.5549922049522216
0.540973 0.7589681138687683 0.546622801658986
0.5429729 0.7646106504810186 0.538505600386581
0.5449728 0.7705043296073973 0.5302818093255308
0.5469727 0.7763763235152806 0.5220450915586256
0.5489726 0.7818406660265592 0.5142138031698132
0.5509725 0.787298397298095 0.5056650410518382
0.5529724 0.7931170867810464 0.49735320424670876
0.5549723 0.798545163362232 0.48911789349628054
0.5569722 0.8040810304110971 0.48081177490248334
0.5589721 0.8091871532778768 0.4727228646052882
0.560972 0.8146698428606255 0.46456403352054715
0.5629719 0.819829642193168 0.4562944133692286
0.5649718 0.8250740850802076 0.44801529317136674
0.5669717 0.8297473410066963 0.43955008293128844
0.5689716 0.8344898093129189 0.4315874486973353
0.5709715 0.8388374795631085 0.42339133526626643
0.5729714 0.8433840263075315 0.4153987378467759
0.5749713 0.8476969242623582 0.4065686098181081
0.5769712 0.8520292433169031 0.39827734847443497
0.5789711 0.8562253947150739 0.38990911236813064
0.580971 0.8606575200266159 0.3814037526898048
0.5829709 0.8638221596491225 0.3730429198995939
0.5849708 0.8675200121853619 0.3645300219945961
0.5869707 0.8713865062052629 0.3557319115105397
0.5889706 0.8751291330818585 0.34648725608775277
0.5909705 0.8781415236632697 0.3375286573954298
0.5929704 0.8812635481325957 0.32839874178064304
0.5949703 0.8843888464069564 0.31929953051954163
0.5969702 0.8877451830455522 0.3105906508469223
0.5989701 0.8911700215595232 0.3008519658117277
0.60097 0.8934845199085452 0.29176071301102247
0.6029699 0.8962256153614521 0.2822555646088831
0.6049698 0.8990754896802025 0.2730366535203015
0.6069697 0.9018302654488511 0.2631937330336112
0.6089696 0.9045947821533211 0.25400400482733365
0.6109695 0.9073018853246086 0.24441797809513993
0.6129694 0.9095847121436025 0.2345461140873053
0.6149693 0.9121011197763408 0.22535968714927085
0.6169692 0.914672117554601 0.21551989961224616
0.6189691 0.9168011393641323 0.20616987538671466
0.620969 0.919005889030919 0.1963026327293307
0.6229689 0.920964459800819 0.18691408819517688
0.6249688 0.9231123247714313 0.17727291147236157
0.6269687 0.9250905054862041 0.16741698944928757
0.6289686 0.9269394706561658 0.15801701957043868
0.6309685 0.928503550132052 0.14869989738892347
0.6329684 0.9304018607672119 0.13937686549806874
0.6349683 0.9317797877551786 0.12948786756631567
0.6369682 0.933276390728692 0.120178690549515
0.6389681 0.9344337778598596 0.11095063967478083
0.640968 0.9357812586278202 0.10108281508113545
0.6429679 0.9369194873977302 0.09154254691615754
0.6449678 0.9375771628414822 0.08196308141883497
0.6469677 0.9386386946771785 0.07283085255804359
0.6489676 0.9392836109626915 0.06302831514758561
0.6509675 0.939794202077765 0.0532727570704903
0.6529674 0.9403212915408499 0.04362343583159418
0.6549673 0.9407168988567722 0.033901804642265186
0.6569672 0.9409426537907227 0.02444598058287257
0.6589671 0.9411602853324433 0.014488246929035331
0.660967 0.9410962596342535 0.004989279699198421
0.6629669 0.9410547175807453 -0.0048688740337030495
0.6649668 0.9404725331621346 -0.014718220663334239
0.6669667 0.9406440330656913 -0.024572231436578468
0.6689666 0.9402166954337682 -0.03420602160345691
0.6709665 0.9399817561598005 -0.04401930623925987
0.6729664 0.9394245351965382 -0.05402321699007123
0.6749663 0.9390610599577606 -0.0633972526389396
0.6769662 0.9383114164235749 -0.07332899399674098
0.6789661 0.937865239720802 -0.0831624804467489
0.680966 0.9367694262691921 -0.09266281958327882
0.6829659 0.9361873036609654 -0.10208705481193885
0.6849658 0.9347500681702784 -0.11195907100684527
0.6869657 0.9336873239093348 -0.1214600043920845
0.6889656 0.9325261751748682 -0.13103272694152476
0.6909655 0.9312057848923855 -0.13998937629314598
0.6929654 0.9298876354362225 -0.1497822491854563
0.6949653 0.9281078444331755 -0.15880348332870942
0.6969652 0.9265399601252795 -0.16836303386355023
0.6989651 0.9249587402978713 -0.17763835184692883
0.700965 0.9231468941270662 -0.18679524570182104
0.7029649 0.92088746912078 -0.1957323651796653
0.7049648 0.9188933779595955 -0.20535762516960945
0.7069647 0.916310754607154 -0.21460547558872983
0.7089646 0.9139076451073318 -0.22353727705604326
0.7109645 0.9110332573642778 -0.23267192521772295
0.7129644 0.9084215732305798 -0.24209726991975522
0.7149643 0.9056749240020553 -0.25121504451322907
0.7169642 0.902945758214386 -0.2603161027915348
0.7189641 0.9000731518239099 -0.269685843436411
0.720964 0.8968279907775714 -0.27884585052001165
0.7229639 0.8934081165827379 -0.2883219808368225
0.7249638 0.8902400257149695 -0.29721964716602767
0.7269637 0.8874599969465815 -0.30685508242978243
0.7289636 0.8841523213924368 -0.3155942095537983
0.7309635 0.8804229597997338 -0.32525855615145494
0.7329634 0.8769548015646877 -0.3342780394164878
0.7349633 0.8739067339482194 -0.3437845954860441
0.7369632 0.8700393256939744 -0.35342309379161096
0.7389631 0.8667471182700343 -0.3623703487321653
0.740963 0.8632441868776368 -0.3716478058446551
0.7429629 0.8600145093555032 -0.3803516118691681
0.7449628 0.8563550041960943 -0.389209674519015
0.7469627 0.8522966674982637 -0.3980139550398842
0.7489626 0.8485724545533333 -0.406825241851634
0.7509625 0.8446145045555737 -0.41547178077350627
0.7529624 0.8407318956195372 -0.423755462989058
0.7549623 0.8367928074315074 -0.4318921715018461
0.7569622 0.8326288856509602 -0.4404843252820407
0.7589621 0.8288655319176327 -0.4483973282642755
0.760962 0.8246291111953628 -0.4561913557433489
0.7629619 0.8207400996186658 -0.4640432987823071
0.7649618 0.8160477754185639 -0.4716862723485479
0.7669617 0.8115679865989802 -0.47945045602204966
0.7689616 0.8068008318673251 -0.4867139733427769
0.7709615 0.8024116493774821 -0.49471632188569714
0.7729614 0.7972874344655899 -0.502243937050967
0.7749613 0.7920205760809774 -0.5095936152254754
0.7769612 0.7862877202662581 -0.5162337090594058
0.7789611 0.7808992951231958 -0.5232913773101806
0.780961 0.7755199343790157 -0.5304527506049519
0.7829609 0.7693935712973455 -0.537735583887469
0.7849608 0.7634598877320661 -0.5451276895731876
0.7869607 0.7575155038880645 -0.5522733380358636
0.7889606 0.751180849346318 -0.5595628800225159
0.7909605 0.7446997128146858 -0.5664259445796769
0.7929604 0.7383059563300047 -0.5735032095816435
0.7949603 0.7320382840892676 -0.5811953629429821
0.7969602 0.7253773240557257 -0.5880607520697024
0.7989601 0.718442227413188 -0.5955504113072807
0.80096 0.7124914827038903 -0.6036153156286838
0.8029599 0.7061884092921126 -0.6110722180714311
0.8049598 0.6994800015091174 -0.6187569111210638
0.8069597 0.6932532515248496 -0.6265478022660259
0.8089596 0.6865909351024067 -0.6340717478936403
0.8109595 0.6801086756917204 -0.6421133451498967
0.8129594 0.6739539796747738 -0.6494648040339003
