! Created with skrf 1.8.0 (http://scikit-rf.org).
# GHz S RI R 50.0 
!freq ReS11 ImS11
0.001 -0.9415494463788942 0.12929309600955707
0.0029999 -0.9559111268255875 0.009572987763343366
0.0049998 -0.9402029822686073 0.015617335073879468
0.0069997 -0.940063024564622 0.02603522363586841
0.0089996 -0.942041868835455 0.02815466457087057
0.0109995 -0.9419458967345669 0.034968682923129824
0.0129994 -0.9418218440186716 0.04138347992992686
0.0149993 -0.9416400371131801 0.04817378711669884
0.0169992 -0.9409106943318482 0.05405081292279712
0.0189991 -0.9409523497578891 0.05917693421931913
0.020999 -0.9403492319657143 0.06515804252942115
0.0229989 -0.9395683565877715 0.07094875783211191
0.0249988 -0.9387566528603375 0.07669633580801777
0.0269987 -0.937888313985845 0.08272895378893208
0.0289986 -0.9370965290593913 0.08863858916939032
0.0309985 -0.9361934038998845 0.09432211387396033
0.0329984 -0.9354169072476402 0.100316815801969
0.0349983 -0.9344685614772607 0.10602292029551647
0.0369982 -0.9334132307236578 0.1116940802582348
0.0389981 -0.9324022156884992 0.11750031542133033
0.040998 -0.931397649630564 0.12328951892580575
0.0429979 -0.9300389274010279 0.12869542708042442
0.0449978 -0.9286000294972881 0.13446438221461404
0.0469977 -0.9276102274024746 0.13988032533698558
0.0489976 -0.9258255792179448 0.1461145731542935
0.0509975 -0.9247798549408789 0.1517190065313917
0.0529974 -0.9234940937269727 0.1578482748362252
0.0549973 -0.9211968528026487 0.1642044422779671
0.0569972 -0.9204126863283884 0.16957590342799722
0.0589971 -0.9191692566019012 0.1753114925413365
0.060997 -0.9178497396951522 0.18170631664634412
0.0629969 -0.9166572627994819 0.18698230744590313
0.0649968 -0.9147239726446972 0.1927796682279126
0.0669967 -0.9141801546679951 0.19931467818328333
0.0689966 -0.9125487978127442 0.2043017316377283
0.0709965 -0.9113687524983024 0.2097540988240686
0.0729964 -0.9093095081060119 0.21644847167524686
0.0749963 -0.9081532104678665 0.22176240483736276
0.0769962 -0.9071658228548215 0.22726782340611645
0.0789961 -0.9055998400461337 0.23252389950093108
0.080996 -0.9038500549096363 0.23823443270173558
0.0829959 -0.9024457990786867 0.24407076243652942
0.0849958 -0.9013240577787298 0.24888505153835982
0.0869957 -0.899773257915391 0.25461083343112795
0.0889956 -0.8982252190677674 0.25979018116727226
0.0909955 -0.8964785499539049 0.2650030434998719
0.0929954 -0.8945089627596771 0.27033284608898056
0.0949953 -0.8926610108275463 0.27588140564035035
0.0969952 -0.8909623338045312 0.2807779973095428
0.0989951 -0.8888694397925812 0.2861917763785703
0.100995 -0.8877804572860049 0.2918974910326859
0.1029949 -0.8859488782987137 0.2972202299296115
0.1049948 -0.8838236956304286 0.3022395154826035
0.1069947 -0.8814893053031649 0.30694090612613634
0.1089946 -0.8793761709972967 0.3121201191825438
0.1109945 -0.8767429364592132 0.31727945089932236
0.1129944 -0.8747569186613704 0.3223209478840989
0.1149943 -0.8720665423762928 0.3273685523075164
0.1169942 -0.8697217839704559 0.33255329661697597
0.1189941 -0.8671006431471759 0.3376919698908993
0.120994 -0.8647027106311646 0.3431425994628046
0.1229939 -0.8618546036942295 0.3483202988091174
0.1249938 -0.8593859371982481 0.3536662774079553
0.1269937 -0.8569690823213496 0.35887372204306733
0.1289936 -0.8547820815383134 0.36473753296053063
0.1309935 -0.8518762335954487 0.36988775061690543
0.1329934 -0.8493219548842605 0.3750968548363556
0.1349933 -0.846431640744725 0.38072556979260547
0.1369932 -0.844102670627999 0.3855665258561518
0.1389931 -0.841269849749827 0.390501212667095
0.140993 -0.83877450140216 0.39579395302742676
0.1429929 -0.8358132437599549 0.4010582917056391
0.1449928 -0.8340519838065189 0.40676665782968785
0.1469927 -0.8315406488636927 0.4119420814421404
0.1489926 -0.8286098232829555 0.4171678457395431
0.1509925 -0.8259121826248 0.4217068476576386
0.1529924 -0.8230473773080142 0.4273718085633845
0.1549923 -0.8211999858206849 0.4323759423957658
0.1569922 -0.818612108854204 0.4375158618093554
0.1589921 -0.8157414513624199 0.4426393841414663
0.160992 -0.8129510635920956 0.4472352456063993
0.1629919 -0.8101689453839673 0.4526760345108086
0.1649918 -0.8074311665559327 0.4573541418055249
0.1669917 -0.8044196436696912 0.46170972345549854
0.1689916 -0.8018620307916903 0.466655151687341
0.1709915 -0.7986746064877822 0.4715229909385148
0.1729914 -0.7960319959097221 0.4760779820675678
0.1749913 -0.7929409162888224 0.4805955490475441
0.1769912 -0.7899739571193902 0.48524144144670867
0.1789911 -0.7870921657320377 0.4898529152487755
0.180991 -0.7837261296687582 0.4944293555221591
0.1829909 -0.7808534140773329 0.49924510310378395
0.1849908 -0.7775766013868497 0.5036104925789023
0.1869907 -0.774564982496277 0.5079912671990849
0.1889906 -0.770943564177118 0.5128584621701147
0.1909905 -0.767810487231247 0.5174869559152692
0.1929904 -0.7643813728059657 0.5218101895825435
0.1949903 -0.7607671691839545 0.5264278078465396
0.1969902 -0.7573372634853919 0.5310287857414646
0.1989901 -0.7539312888829561 0.5357282257007708
0.20099 -0.7505052464487252 0.539926173487299
0.2029899 -0.7470375423447773 0.544725910487454
0.2049898 -0.7434512110330453 0.5492381600840295
0.2069897 -0.7400568323492851 0.5535869994382968
0.2089896 -0.7366802774186473 0.5579907054830268
0.2109895 -0.7326397828487297 0.5625803637265865
0.2129894 -0.7292299179913848 0.5674568992037389
0.2149893 -0.7255076889118218 0.5718426681988216
0.2169892 -0.7218343167066071 0.5763060414891439
0.2189891 -0.718056245546769 0.5807712128823362
0.220989 -0.7145245169208092 0.5853138898539231
0.2229889 -0.7111578474944847 0.5893622252316882
0.2249888 -0.7067741564386383 0.594007610652863
0.2269887 -0.7030463173713775 0.597820235619474
0.2289886 -0.698979975416797 0.6023092730949634
0.2309885 -0.6954568567601578 0.6069699992081439
0.2329884 -0.6914095752775067 0.6112990942909993
0.2349883 -0.6872594712703156 0.6154223742726581
0.2369882 -0.6834348096003569 0.6196149893917405
0.2389881 -0.6798115216359202 0.6243043723742872
0.240988 -0.6758009706722093 0.6282813501915582
0.2429879 -0.6717672645689992 0.6323595312686123
0.2449878 -0.667781260025353 0.6367903782943545
0.2469877 -0.6637269193554887 0.6405984622695924
0.2489876 -0.660165195752623 0.6452747589094486
0.2509875 -0.6560636020428494 0.6494991669052572
0.2529874 -0.6520153049388981 0.6536335447189547
0.2549873 -0.6483881606612577 0.6576910593797689
0.2569872 -0.6447231353842894 0.6620602718723012
0.2589871 -0.6407586635332271 0.6662415860023586
0.260987 -0.6367108909482561 0.670166739906469
0.2629869 -0.632776520340343 0.6739936686499308
0.2649868 -0.6289573737331771 0.6777847103109458
0.2669867 -0.6249109220364898 0.6813918082343567
0.2689866 -0.620889789009713 0.685228361876941
0.2709865 -0.6171385355923016 0.6888635630166664
0.2729864 -0.6129314505033894 0.692768124512184
0.2749863 -0.6090785409781345 0.6960386765177788
0.2769862 -0.6051689707518736 0.6995179428937658
0.2789861 -0.6009985008599935 0.7028561715762938
0.280986 -0.5966772451059659 0.706286831979276
0.2829859 -0.5925477624054383 0.7091152651042119
0.2849858 -0.5880475569002511 0.7121396107261824
0.2869857 -0.5836633562800753 0.7155606255848926
0.2889856 -0.579138151036227 0.7186374293400685
0.2909855 -0.5742957464488555 0.7218980716337913
0.2929854 -0.5700176468541659 0.724872742497657
0.2949853 -0.5650559039206161 0.7281590117410097
0.2969852 -0.560437512287667 0.7310036750644631
0.2989851 -0.5557173579178042 0.7335400658125631
0.300985 -0.5501074435522911 0.7365226254609953
0.3029849 -0.5450751795057676 0.7392616289609963
0.3049848 -0.5399031095452734 0.742523299685179
0.3069847 -0.5346603699246131 0.7454727054176968
0.3089846 -0.52900755781693 0.7483835975999193
0.3109845 -0.5233959156165653 0.7513221182567087
0.3129844 -0.5180392674669319 0.7544057650816509
0.3149843 -0.5126429549534052 0.7575223687734117
0.3169842 -0.5074792638221606 0.7609411317153624
0.3189841 -0.5018719966646137 0.7639067478832818
0.320984 -0.49579553605170545 0.766672980582664
0.3229839 -0.49056094527495553 0.770207942800691
0.3249838 -0.4850249325265021 0.7732857493592179
0.3269837 -0.47994300072268037 0.776451489614417
0.3289836 -0.4739018873152702 0.7796735252018588
0.3309835 -0.4688548696816697 0.7831120140293819
0.3329834 -0.46381338840976116 0.7866897648741175
0.3349833 -0.45915237910052603 0.7902498198301023
0.3369832 -0.4540908384949888 0.7939362042574762
0.3389831 -0.44913259098216846 0.7978043060190303
0.340983 -0.44416009474164064 0.8012912417235438
0.3429829 -0.439943180581421 0.8053708704283437
0.3449828 -0.4353762807662923 0.8088502109277307
0.3469827 -0.4304538666316729 0.8123433236878045
0.3489826 -0.42607697422252555 0.8155824253338606
0.3509825 -0.42109903752399236 0.8188208453639934
0.3529824 -0.41627067244425864 0.821835925119371
0.3549823 -0.41182381732266193 0.82505414473968
0.3569822 -0.4074161412602569 0.8276143911437868
0.3589821 -0.40312288892766174 0.8303735736675848
0.360982 -0.3985505815024967 0.8329603338990252
0.3629819 -0.3938459272488431 0.8355351670402313
0.3649818 -0.38901498551153924 0.8372227466090458
0.3669817 -0.3844630766426752 0.8394121734687938
0.3689816 -0.37917778589734047 0.8413263124664114
0.3709815 -0.37417618851264944 0.8431631998249647
0.3729814 -0.3688724797161111 0.8447754804973301
0.3749813 -0.36410840376015974 0.8466733953064713
0.3769812 -0.359195391307546 0.8482582480833364
0.3789811 -0.35361333630890535 0.8500862701473353
0.380981 -0.34823041164263824 0.8511149630309538
0.3829809 -0.3422979087773854 0.8525323847094861
0.3849808 -0.3368156560468277 0.855090030697194
0.3869807 -0.33080395196269347 0.8560127671145595
0.3889806 -0.3247401948649813 0.8578786394707378
0.3909805 -0.3186568764841371 0.8593608711606975
0.3929804 -0.31237669198449575 0.8614362480878195
0.3949803 -0.3060612490303561 0.8633049177209632
0.3969802 -0.30004056690504605 0.8651294286393083
0.3989801 -0.2939274372299914 0.8666446323851982
0.40098 -0.28752538768611646 0.868776893264602
0.4029799 -0.281793132776781 0.8709244010753925
0.4049798 -0.2751311057878294 0.8728545347262873
0.4069797 -0.26942941470996107 0.8753190251356605
0.4089796 -0.2633834025273559 0.877411379034971
0.4109795 -0.257535237050239 0.8796787924130295
0.4129794 -0.25143159243935376 0.8818275484209462
0.4149793 -0.24507830129455815 0.884372479548619
0.4169792 -0.23954327411632487 0.886487980222552
0.4189791 -0.233870702202169 0.8885350720633749
0.420979 -0.22862527454488032 0.8905479040952166
0.4229789 -0.22279327098885057 0.8925365394698285
0.4249788 -0.21750368844080048 0.894767820660853
0.4269787 -0.2122876026091387 0.8964721164020419
0.4289786 -0.20707395964661635 0.8984325490230222
0.4309785 -0.20199726755257413 0.8998529110395405
0.4329784 -0.19675483226770174 0.9012401305457904
0.4349783 -0.19071456457232755 0.902140652897295
0.4369782 -0.18565425263854346 0.9029480182973764
0.4389781 -0.18039028490165682 0.9041135496169699
0.440978 -0.1751986007067369 0.9047831152948159
0.4429779 -0.17001852743989326 0.9054817961363895
0.4449778 -0.16458037383191748 0.905957791026865
0.4469777 -0.15902138728413687 0.9061201356756616
0.4489776 -0.15318279249105038 0.9069472007977271
0.4509775 -0.1475088318343839 0.9072661156798483
0.4529774 -0.1414248291216432 0.907301438510987
0.4549773 -0.1351541226210286 0.9074496927168993
0.4569772 -0.12877945095787813 0.9077284130176222
0.4589771 -0.1226564920274817 0.9077324974745038
0.460977 -0.11590270316642548 0.9081929621953323
0.4629769 -0.10901337874351229 0.908797534349657
0.4649768 -0.10256750165997647 0.9091242825591015
0.4669767 -0.0959209413106176 0.9092994292013263
0.4689766 -0.08946341427619724 0.9095620664987485
0.4709765 -0.08296408927798071 0.9102724529777813
0.4729764 -0.07586469321619438 0.9106543048031723
0.4749763 -0.06922123711766937 0.9116917360868724
0.4769762 -0.06265923204698645 0.9125203397289806
0.4789761 -0.05578494796416687 0.9133122398571205
0.480976 -0.04924367276571419 0.9144475514599528
0.4829759 -0.04245319687234904 0.9153157325390355
0.4849758 -0.03620304222752336 0.9163230684087155
0.4869757 -0.029793232466391734 0.9171788551424429
0.4889756 -0.02307089697469527 0.9181806210815284
0.4909755 -0.016557508908074788 0.9191665350441459
0.4929754 -0.010793681321505606 0.9201651406558076
0.4949753 -0.004969768711472072 0.9209504281213414
0.4969752 0.000810219646098901 0.9213590964614524
0.4989751 0.006507269189379454 0.9220753033133752
0.500975 0.011805365142725531 0.9224404482326164
0.5029749 0.017562233031891528 0.9227623247510293
0.5049748 0.02293369828863905 0.9228521166894985
0.5069747 0.028016946229155924 0.9228299076828742
0.5089746 0.03353678069639693 0.9228743827373388
0.5109745 0.039153984107093365 0.9231868534335581
0.5129744 0.044828422431225715 0.9228172187400284
0.5149743 0.049641588408305966 0.922444687260072
0.5169742 0.055198347755266164 0.921367235375616
0.5189741 0.06082717849876784 0.920846425161172
0.520974 0.0668093266978734 0.9193734481687401
0.5229739 0.07325994260714493 0.9188485065703152
0.5249738 0.0782541325819884 0.9179470145784053
0.5269737 0.0848010345437776 0.9169871087541118
0.5289736 0.09056238630572838 0.9150848551705266
0.5309735 0.0966162258621601 0.9137834651401302
0.5329734 0.10270878615165606 0.9125949533623915
0.5349733 0.10887319726173623 0.9108136856556054
0.5369732 0.11562936043689669 0.9095286192013297
0.5389731 0.12197601181551704 0.9081523831208574
0.540973 0.12873974439343672 0.9058837054376462
0.5429729 0.13543730466331433 0.9053333051728655
0.5449728 0.14215924403638158 0.9039440898008622
0.5469727 0.14901477977229838 0.9028788788021788
0.5489726 0.15570243287929417 0.9018433418251389
0.5509725 0.16268054654399916 0.9007020267404391
0.5529724 0.1693550436845593 0.8998346759532518
0.5549723 0.1762411473876973 0.8989392899539479
0.5569722 0.1829057868290351 0.8978860435388831
0.5589721 0.18972618259031676 0.8969362871659722
0.560972 0.19626315289301843 0.8968060256896664
0.5629719 0.20294881085061006 0.8962058057866837
0.5649718 0.2096684206243931 0.8955092681356851
0.5669717 0.21586308521564646 0.8943932985080829
0.5689716 0.2216780779868041 0.8939862842527578
0.5709715 0.22740678599065056 0.8928304728695972
0.5729714 0.23294585601932016 0.8917433795304559
0.5749713 0.23919729981405635 0.8904751029823356
0.5769712 0.2449240176002198 0.8889689443757998
0.5789711 0.2503702192551538 0.8880700602098678
0.580971 0.2557836110701212 0.8872550512751961
0.5829709 0.261078339892774 0.8855410997191788
0.5849708 0.2665305667135439 0.8840374072780299
0.5869707 0.27172457438172715 0.8825778465019786
0.5889706 0.2774952434098919 0.8802060937273721
0.5909705 0.2834136295108523 0.877813759437764
0.5929704 0.28854944442749275 0.8753419272703453
0.5949703 0.29433191457618957 0.8730080639444001
0.5969702 0.29997668623303014 0.8709193899185259
0.5989701 0.30569169039161553 0.8678499768419268
0.60097 0.3112565264218756 0.8654823473189373
0.6029699 0.31735147739676994 0.862309585656778
0.6049698 0.32298873949743245 0.8597345533428232
0.6069697 0.3288850194648473 0.8564837856265837
0.6089696 0.33547095991254794 0.8539521837284498
0.6109695 0.3417173537901649 0.8513912573909386
0.6129694 0.3482630271554832 0.8480685644791934
0.6149693 0.3544691968010938 0.8455536700116857
0.6169692 0.36105897610248533 0.8426024132824149
0.6189691 0.3674782259549764 0.8399947838522676
0.620969 0.3737849329716141 0.8374687426965922
0.6229689 0.38033531984657903 0.8346426650786878
0.6249688 0.38678733747930405 0.8322390223417618
0.6269687 0.3936327164642321 0.82937404772188
0.6289686 0.3997578716568013 0.8272582954224885
0.6309685 0.40634321774415094 0.8252048457239972
0.6329684 0.4119993011848849 0.8228665061143529
0.6349683 0.41826419604538956 0.8203967133175335
0.6369682 0.42354706484991134 0.8177175706767591
0.6389681 0.4296729238070571 0.815397038444632
0.640968 0.43576717542856236 0.8131326756724906
0.6429679 0.4411229549523992 0.8110559074148155
0.6449678 0.44627044915283653 0.8087306832565553
0.6469677 0.4516204807890516 0.8061706750677566
0.6489676 0.4568773044113 0.8037219719196877
0.6509675 0.4619097398103471 0.8011791050444907
0.6529674 0.4669511452430811 0.798408320727452
0.6549673 0.4717024445806736 0.7957945511808943
0.6569672 0.47664607407065696 0.7927843917623565
0.6589671 0.48183120032920196 0.7898083661052034
0.660967 0.48622846538803965 0.7865412216339613
0.6629669 0.4911370878360608 0.7828567550453995
0.6649668 0.49561166018752845 0.7789399176307116
0.6669667 0.5002851283457626 0.7749964375574574
0.6689666 0.505349012407008 0.7709362318749025
0.6709665 0.510638744901304 0.7665478709009357
0.6729664 0.5151140783783273 0.7627084533886691
0.6749663 0.5202476418963726 0.757824221509433
0.6769662 0.5256640790285219 0.7535542416807842
0.6789661 0.5305500808891503 0.7484724603068962
0.680966 0.5357806836137399 0.7438172107917128
0.6829659 0.5413031690902241 0.7391529281512111
0.6849658 0.5468027928356815 0.7347721399572813
0.6869657 0.5528251022886284 0.7298630830626748
0.6889656 0.5585956993322392 0.7258890089666833
0.6909655 0.5641569252917042 0.721430804803717
0.6929654 0.5703339604199998 0.7171142781413574
0.6949653 0.5757986724410998 0.7125698113461242
0.6969652 0.5817598960510539 0.7081806389501524
0.6989651 0.5873070262367142 0.7039473659173456
0.700965 0.593332823347103 0.6997910397720314
0.7029649 0.5987157051625068 0.6957733329348421
0.7049648 0.6043848140214242 0.6921920924700442
0.7069647 0.6094911535664784 0.6878839127048857
0.7089646 0.6154728701650468 0.6840562761363852
0.7109645 0.6205447228282785 0.6807871285134053
0.7129644 0.6254263723413793 0.6765045359859365
0.7149643 0.630042519452922 0.6731045141806616
0.7169642 0.6349135025523704 0.6694635774767648
0.7189641 0.6392447309526285 0.6654653699412638
0.720964 0.6439445588355954 0.6611353649009565
0.7229639 0.6481878316059652 0.6571032202449205
0.7249638 0.652988899377353 0.6532824174682227
0.7269637 0.657176402739026 0.6495779587359551
0.7289636 0.6607346908392617 0.645164678932988
0.7309635 0.6652420663007852 0.6407137289189264
0.7329634 0.6694201187970705 0.6361867436221189
0.7349633 0.6727089470654497 0.6315525119196385
0.7369632 0.6772811115509423 0.6266592663552607
0.7389631 0.6803511881083418 0.6218241342753681
0.740963 0.6837699300521117 0.616712244699853
0.7429629 0.6879476327693279 0.6111892471619224
0.7449628 0.691653505756934 0.6058618787218841
0.7469627 0.6959801188196755 0.5998841162334582
0.7489626 0.7000360713757601 0.5942765791572884
0.7509625 0.7038218785513259 0.5888881904158432
0.7529624 0.7078593675800663 0.5829643082285983
0.7549623 0.7117621202722754 0.5773917144487307
0.7569622 0.7166496058825222 0.5715992240915452
0.7589621 0.7205027641849978 0.5655740225405801
0.760962 0.7251079127575963 0.5596183371101462
0.7629619 0.7295964019365789 0.5541375247890189
0.7649618 0.7339072138125131 0.5483711002548147
0.7669617 0.7384629453372811 0.5425037604178735
0.7689616 0.7427344576536902 0.5367880188703531
0.7709615 0.7473006948811567 0.5315004028364152
0.7729614 0.75155733631896 0.5256447218454371
0.7749613 0.7558156422217681 0.520265068255412
0.7769612 0.760055375585324 0.5150408418997863
0.7789611 0.7646078399342122 0.5097300754513231
0.780961 0.7683288932265838 0.5045547125382241
0.7829609 0.7725286156396709 0.49939143972160227
0.7849608 0.776174841537073 0.4942947668008377
0.7869607 0.7802345826003301 0.4890921092815854
0.7889606 0.7840087488595702 0.4838229014759298
0.7909605 0.7873625529920023 0.4786932928786851
0.7929604 0.7908654515518856 0.4737027938954447
0.7949603 0.7945903987484608 0.4684492461028108
0.7969602 0.7978809760071408 0.46341555426682907
0.7989601 0.8007609392283603 0.458024726923435
0.80096 0.8046230579165342 0.45273257192753713
0.8029599 0.8074557381585586 0.44752049803171867
0.8049598 0.8101125614751944 0.4419565421262607
0.8069597 0.8125486811318803 0.43660773921175455
0.8089596 0.8151748668606187 0.43068114769058025
0.8109595 0.8175538592358618 0.4245647020412562
0.8129594 0.8202022142355596 0.41881028579442153
0.8149593 0.8226400300266041 0.4128590285440532
