! Created with skrf 1.8.0 (http://scikit-rf.org).
# GHz S RI R 50.0 
!freq ReS11 ImS11
0.001 -1.0063851547064178 0.05187142042634835
0.0029999 -0.9969942754706643 -0.006443527632588375
0.0049998 -0.9598756714715861 0.01585430696117654
0.0069997 -0.9537562117118044 0.023164431841446342
0.0089996 -0.9479428287020032 0.03282892807032928
0.0109995 -0.945820937717349 0.04014817252744374
0.0129994 -0.9445066006019164 0.04721845907372646
0.0149993 -0.9440213981991554 0.0536949339521825
0.0169992 -0.9431352221207626 0.059805195104511766
0.0189991 -0.9424424297027623 0.06503399114820252
0.020999 -0.9415790232560891 0.0710855649994071
0.0229989 -0.9406970176380371 0.0769961650491644
0.0249988 -0.9395800540445133 0.0828411178904308
0.0269987 -0.9385148873740404 0.08902016633249635
0.0289986 -0.9376060209226238 0.09508967697690021
0.0309985 -0.936564514376767 0.10096432832214758
0.0329984 -0.9356649327457947 0.10721068380906168
0.0349983 -0.9345683982270718 0.11310592456504848
0.0369982 -0.9334085805407356 0.1191058339106994
0.0389981 -0.9322945982804062 0.12524880311507508
0.040998 -0.9311423722379487 0.13142076279743586
0.0429979 -0.9296361266891755 0.13738982121763166
0.0449978 -0.9282515809719508 0.1431495884141118
0.0469977 -0.9267904239043472 0.14939371314620264
0.0489976 -0.9251321204360385 0.15590318236049472
0.0509975 -0.9238486835731865 0.1619511408808495
0.0529974 -0.9229093199071776 0.16710540793151624
0.0549973 -0.9198886328162317 0.17722513825601438
0.0569972 -0.9191352126074814 0.18135632972701754
0.0589971 -0.9177891157946688 0.18750835034171381
0.060997 -0.9163405797426951 0.19431926513399017
0.0629969 -0.9149629808127824 0.1999970522048862
0.0649968 -0.9127883574155202 0.20637063532727237
0.0669967 -0.9122844736755267 0.21338306013257427
0.0689966 -0.9105806470238599 0.21872258828104973
0.0709965 -0.9090541744094833 0.2249540137540893
0.0729964 -0.9068906259721922 0.23163442179984375
0.0749963 -0.9055386645366567 0.23737620472305102
0.0769962 -0.90437208412342 0.24331338615183593
0.0789961 -0.9027244535199987 0.24899647140194414
0.080996 -0.9006574166632804 0.25491923224148494
0.0829959 -0.8990704089940885 0.26108306623935257
0.0849958 -0.8975166193811556 0.26657389788641583
0.0869957 -0.896123654468866 0.27235870794385136
0.0889956 -0.8941444831669434 0.2777574515857257
0.0909955 -0.892099945371933 0.28324968086477775
0.0929954 -0.8898953724815977 0.2888036627804519
0.0949953 -0.8878487443728093 0.29462303796281836
0.0969952 -0.885819826055645 0.29991759076830266
0.0989951 -0.8834890233799653 0.30555250350564434
0.100995 -0.8822271997125417 0.31156033805676714
0.1029949 -0.880147909307695 0.3170840266973186
0.1049948 -0.8776885015989273 0.3223674364555224
0.1069947 -0.8751202682572141 0.32745331889714646
0.1089946 -0.8725904262498217 0.33292440716929894
0.1109945 -0.8698159385189508 0.33837950215261936
0.1129944 -0.8675049957827154 0.34358618962882254
0.1149943 -0.8645204414752247 0.34894099739645734
0.1169942 -0.8618334446191259 0.35474465957990764
0.1189941 -0.8589695817385089 0.36014506473820407
0.120994 -0.8561871654434079 0.3657314183571314
0.1229939 -0.8531895475763007 0.37119549862456597
0.1249938 -0.8503154127440783 0.3769536771799148
0.1269937 -0.8474947631516434 0.3824958526243483
0.1289936 -0.8451639855039306 0.3881247393098637
0.1309935 -0.841970160922194 0.39338286307357345
0.1329934 -0.839058463964831 0.39940993147233433
0.1349933 -0.8360291702819196 0.4053508878771624
0.1369932 -0.8331944969278747 0.41066885792877644
0.1389931 -0.8300829058819832 0.4162924668386483
0.140993 -0.8273423831484483 0.42172368041779157
0.1429929 -0.8240400104021255 0.4273047215775346
0.1449928 -0.8218659470235307 0.4331022566916896
0.1469927 -0.8187829404619893 0.4386697890793371
0.1489926 -0.81588218493046 0.4442808572970541
0.1509925 -0.8127412540724923 0.4489854119923705
0.1529924 -0.8095814045779957 0.45459839418750425
0.1549923 -0.807208263426133 0.4607067301126694
0.1569922 -0.8040890719645127 0.4657688768469434
0.1589921 -0.8011533083692111 0.4709274868225315
0.160992 -0.797923168127299 0.47597117629751085
0.1629919 -0.7947003868709361 0.48152046004564836
0.1649918 -0.7916323558901823 0.4864661623851305
0.1669917 -0.788099197078856 0.4914116742908935
0.1689916 -0.7850589853869673 0.49635554863978965
0.1709915 -0.7817138625363251 0.5014505541384117
0.1729914 -0.7786954296249057 0.5061298325966963
0.1749913 -0.7750368256802102 0.5110243072428942
0.1769912 -0.771960581498252 0.5157956535317452
0.1789911 -0.7682843033833525 0.5206724282855844
0.180991 -0.7646986388705067 0.5253545400174243
0.1829909 -0.7612078012408628 0.5302963834305608
0.1849908 -0.7577655247103986 0.5350585105051356
0.1869907 -0.7540328232965248 0.5395603481634651
0.1889906 -0.7502952099799798 0.5445698844642135
0.1909905 -0.7466946206609518 0.5492420002474752
0.1929904 -0.742805103007284 0.5538978085264579
0.1949903 -0.7388370361427126 0.5585103289074189
0.1969902 -0.7349010877051156 0.5632274532218158
0.1989901 -0.7309418675945085 0.5682458138847137
0.20099 -0.7273391318596555 0.5728756619330934
0.2029899 -0.7233841114433361 0.577426763319103
0.2049898 -0.7194368426624815 0.5817305992598558
0.2069897 -0.7153140519913261 0.5868437578113009
0.2089896 -0.711656119742353 0.5913753656515632
0.2109895 -0.7072375582720004 0.5959654344446291
0.2129894 -0.7033694886247891 0.6010218026958636
0.2149893 -0.6993728798181613 0.6053606159061868
0.2169892 -0.6951314290588445 0.6101998274849204
0.2189891 -0.6907738493011285 0.6147904898083184
0.220989 -0.6870944616702577 0.6193257326126863
0.2229889 -0.682534032961954 0.6239089904360458
0.2249888 -0.6781440148639652 0.6285919210427374
0.2269887 -0.6740071152243557 0.6324390534687644
0.2289886 -0.6692713180256795 0.6372532329476128
0.2309885 -0.6652742595561292 0.64201586961971
0.2329884 -0.6605748196879963 0.6462173829391724
0.2349883 -0.655944278726373 0.6507552601283293
0.2369882 -0.6516455314552878 0.6548572570609716
0.2389881 -0.6475105534050131 0.6596720564249129
0.240988 -0.6429681503402638 0.6636769860546955
0.2429879 -0.6383050838177106 0.6682683426229157
0.2449878 -0.6337081199870153 0.6724817117128209
0.2469877 -0.6291780280949276 0.6768789899507526
0.2489876 -0.625003265665483 0.6814356975888792
0.2509875 -0.6204181492098944 0.6854711351455365
0.2529874 -0.6156960088521991 0.6897105712626121
0.2549873 -0.6114945150594933 0.6940417266380282
0.2569872 -0.607298021642784 0.6983854958476885
0.2589871 -0.6024160887789308 0.7025903219328189
0.260987 -0.5980854089400219 0.7066404405312923
0.2629869 -0.5938013460294466 0.7107125762533619
0.2649868 -0.5892794265459824 0.7146086199928391
0.2669867 -0.5850257839974142 0.7177714995493745
0.2689866 -0.5802704459029052 0.7216832900586274
0.2709865 -0.5761153397130249 0.7254139518149576
0.2729864 -0.5715193879922761 0.7291609840922743
0.2749863 -0.5669376580037131 0.7328146399345087
0.2769862 -0.5625241951137223 0.736328394104212
0.2789861 -0.5582913162566254 0.7394557670489734
0.280986 -0.5531828878122884 0.7425643305927566
0.2829859 -0.5488390821786635 0.7454686094637828
0.2849858 -0.5435336983351007 0.7487736723725871
0.2869857 -0.5387629678094021 0.7520569237817
0.2889856 -0.533720954827814 0.7548832860081531
0.2909855 -0.5283603705194226 0.7582611952813704
0.2929854 -0.5234448338897391 0.761137392891834
0.2949853 -0.5180416220345251 0.7642384178741395
0.2969852 -0.5125852732468685 0.7670040918869343
0.2989851 -0.5075225602965044 0.7696371376403542
0.300985 -0.5015632263084914 0.7723578289343136
0.3029849 -0.49563430288632865 0.7752858859567128
0.3049848 -0.4901326901950017 0.7781230944386369
0.3069847 -0.484169920872351 0.7807761977690081
0.3089846 -0.47780225378027724 0.7836803494151405
0.3109845 -0.4715125271745202 0.7864880084202996
0.3129844 -0.4654996169264371 0.7893639583663148
0.3149843 -0.45925848935375074 0.792633338951886
0.3169842 -0.4533379250030283 0.7957645070312951
0.3189841 -0.4474587483541955 0.7985719646560339
0.320984 -0.4406810175271021 0.8014074361874733
0.3229839 -0.4348268599405324 0.8046185411821227
0.3249838 -0.4286926862121617 0.8072261643981693
0.3269837 -0.42273943990994645 0.8106834155852795
0.3289836 -0.41644428124324734 0.8134617165936058
0.3309835 -0.41064665658824173 0.8170404230237817
0.3329834 -0.4049128517217745 0.8203378316255496
0.3349833 -0.39945844348186343 0.8239221456031826
0.3369832 -0.3941098472893834 0.827685834313691
0.3389831 -0.38841685403254295 0.8313226214981511
0.340983 -0.38275485828459477 0.8349581288402734
0.3429829 -0.37806516287558534 0.8385762990443886
0.3449828 -0.37235547252732604 0.8422715165770456
0.3469827 -0.3669560608664521 0.8454925886749091
0.3489826 -0.3621297892087124 0.84831885683333
0.3509825 -0.35641921783705377 0.8514550812174009
0.3529824 -0.351211542992628 0.8546377120273101
0.3549823 -0.34611156202807103 0.857613311734687
0.3569822 -0.34106019055794257 0.8598994357164256
0.3589821 -0.3360266528939647 0.8626380399037413
0.360982 -0.3311426648679009 0.8646492516204654
0.3629819 -0.32570334581756266 0.8669858345124618
0.3649818 -0.3204521491086949 0.8685717478127059
0.3669817 -0.31499013653363667 0.870282167655872
0.3689816 -0.3095994632957283 0.8721421418770255
0.3709815 -0.30391350106054454 0.8735898856538131
0.3729814 -0.298139635385593 0.8752472903728161
0.3749813 -0.2924824052797668 0.8766806548354088
0.3769812 -0.2869477986733099 0.8776905276104493
0.3789811 -0.28128605483554464 0.879141121520697
0.380981 -0.275036404704905 0.8800814290398185
0.3829809 -0.2685465247099617 0.8814295310866915
0.3849808 -0.2627149635118873 0.8828486951213255
0.3869807 -0.25605170267894806 0.8835977174872844
0.3889806 -0.24930388062759815 0.885114749615457
0.3909805 -0.2420343054121029 0.8864688751793022
0.3929804 -0.23559154621322456 0.8877044670409681
0.3949803 -0.22841267142416072 0.8893699031229738
0.3969802 -0.22200129286541814 0.8907063500214435
0.3989801 -0.21502921625857194 0.8921960609103248
0.40098 -0.20802041916916214 0.8937513612198144
0.4029799 -0.2015881291436633 0.895158836839198
0.4049798 -0.1944525350145609 0.8969528463865555
0.4069797 -0.18768702435411533 0.8988003044255303
0.4089796 -0.18098216447063672 0.9004864130123547
0.4109795 -0.17464220523224167 0.9023127694956442
0.4129794 -0.16780745110021328 0.9041889508893916
0.4149793 -0.16094380346667794 0.9060316076153271
0.4169792 -0.15487397860396004 0.9078380230263144
0.4189791 -0.14855517206873542 0.9093780215183731
0.420979 -0.1424856671866118 0.9110888744935626
0.4229789 -0.13608969181916417 0.9127214362112378
0.4249788 -0.13030391549301376 0.9144110388127376
0.4269787 -0.12455218929760278 0.9158228852459481
0.4289786 -0.11884161386723051 0.9172276756334812
0.4309785 -0.11298801557148616 0.9181529463965507
0.4329784 -0.10684009010981088 0.9193564773438083
0.4349783 -0.10065796084727671 0.9193908844831443
0.4369782 -0.09503774423087301 0.9197118356883642
0.4389781 -0.08914174678686412 0.920615392289481
0.440978 -0.08334818112637143 0.920691766853422
0.4429779 -0.077725011627576 0.9210634257558894
0.4449778 -0.07189038041346715 0.921117999598816
0.4469777 -0.06552887222810012 0.9208285446208888
0.4489776 -0.05943602498891006 0.9209782473078504
0.4509775 -0.05290568830096687 0.9207844509895617
0.4529774 -0.046448478206049734 0.9200974897703217
0.4549773 -0.03991739881009437 0.9195530915034326
0.4569772 -0.03309922334969382 0.9191506379401073
0.4589771 -0.026245888078495587 0.9184671479880518
0.460977 -0.019134730973512787 0.9183217439445419
0.4629769 -0.011817825567596455 0.9182586848173395
0.4649768 -0.004756996270251137 0.9178098269594618
0.4669767 0.0023957443031687262 0.9175770362656677
0.4689766 0.009507794775788203 0.9172891225665097
0.4709765 0.016815030342031495 0.916773022242823
0.4729764 0.024155639044187827 0.9168640945753896
0.4749763 0.03141853361676904 0.9170721449436129
0.4769762 0.03821953499228084 0.9170129551988414
0.4789761 0.04617341292976117 0.9171592603030085
0.480976 0.05321792834112332 0.9173881937383372
0.4829759 0.06050465809267819 0.9179783440751186
0.4849758 0.0674700458822922 0.9179201976307235
0.4869757 0.07458125900901878 0.9179446328673921
0.4889756 0.08169659691488451 0.9183467991718913
0.4909755 0.08856345472368599 0.9186071681459713
0.4929754 0.09511092853485394 0.9187440058710742
0.4949753 0.10138577683652286 0.9186342507403894
0.4969752 0.10767099824274816 0.91867945358325
0.4989751 0.11389674996146638 0.9187275752590056
0.500975 0.11977332484154171 0.9182442709947262
0.5029749 0.1260089029919139 0.9174846708349436
0.5049748 0.13157342929808447 0.9173800387428073
0.5069747 0.13715273977116355 0.9165696456962147
0.5089746 0.14311383380896792 0.9157972030580517
0.5109745 0.14931071722610406 0.9153143076487965
0.5129744 0.15534317411937587 0.914691553946143
0.5149743 0.16061491139354417 0.9134437108368226
0.5169742 0.16651282295711717 0.9116778763598146
0.5189741 0.17231433323297649 0.9102182365302914
0.520974 0.1789335275683842 0.9085578219994978
0.5229739 0.1856235719280836 0.9066243940486982
0.5249738 0.1911199266055983 0.9050805112804818
0.5269737 0.19787443297820553 0.9032772636404198
0.5289736 0.20387217894597284 0.9006164076786556
0.5309735 0.21025133018791176 0.8988440916471545
0.5329734 0.2169247350602938 0.8965054215477091
0.5349733 0.22351457912950373 0.8939484857225151
0.5369732 0.23034261523080662 0.8918942083617258
0.5389731 0.2375046383080972 0.8893323082253796
0.540973 0.24420475798137098 0.8865940576928378
0.5429729 0.25123074217385755 0.8844858990741536
0.5449728 0.2585979137945417 0.8823006558976481
0.5469727 0.2656400261362555 0.8802122455173145
0.5489726 0.2726234034522719 0.8778141487117475
0.5509725 0.27968078935725893 0.8760292059362879
0.5529724 0.28699375063015264 0.8741613471227472
0.5549723 0.2942066687116718 0.8720588975410379
0.5569722 0.30076733995426325 0.8700215077477262
0.5589721 0.3083177022869362 0.8684786525480519
0.560972 0.3150765806781318 0.866905116785906
0.5629719 0.3221540653656578 0.8650464065297749
0.5649718 0.32911111759471723 0.8630921789117205
0.5669717 0.3356081125486041 0.8615155384034172
0.5689716 0.3419593641055449 0.8599688180345529
0.5709715 0.34784665276892196 0.85756243539524
0.5729714 0.35390018205024365 0.855658449721136
0.5749713 0.3598164689828084 0.8534984102294321
0.5769712 0.36597119993877936 0.8510444024728467
0.5789711 0.37176219555870227 0.8491069272438423
0.580971 0.3778906807024794 0.8470769097663909
0.5829709 0.3831776106994656 0.8446544739408893
0.5849708 0.38881666195841386 0.8422384241202882
0.5869707 0.39471219961323456 0.8395912325470243
0.5889706 0.4006020633986075 0.8362343132048214
0.5909705 0.4057553226481114 0.8328801592823156
0.5929704 0.4116372308963056 0.8295265725934673
0.5949703 0.41778166095677016 0.8262397462938198
0.5969702 0.4231090334518139 0.8230280098005412
0.5989701 0.42878244130706283 0.8193565170688359
0.60097 0.43457918178124005 0.8156358495301452
0.6029699 0.44050753272429377 0.81157550973277
0.6049698 0.44637572721141056 0.8079637840732405
0.6069697 0.4522400187209785 0.8037252943555103
0.6089696 0.4584067316472493 0.8001825473685837
0.6109695 0.46493907006253543 0.7962209865927179
0.6129694 0.4712287805263389 0.7920884276256446
0.6149693 0.4775503719331401 0.7881862751547265
0.6169692 0.4842713577324163 0.7843200026254407
0.6189691 0.4907220834320053 0.7805231258464295
0.620969 0.49741838830851925 0.7765914264359797
0.6229689 0.5036624150336602 0.7726899563796805
0.6249688 0.510055635412479 0.7690122451442514
0.6269687 0.5167879367561727 0.7650665492174142
0.6289686 0.5228854267418147 0.7616032379663681
0.6309685 0.5295504688775146 0.7581281415788343
0.6329684 0.5350850329888993 0.7547032400087276
0.6349683 0.5413719224244831 0.7508804297423269
0.6369682 0.5465964604841803 0.7471688968975235
0.6389681 0.5528047886483143 0.7435505683896089
0.640968 0.5591265116691443 0.7400818004276437
0.6429679 0.5640856559835827 0.7368044360648942
0.6449678 0.569509044776328 0.7331385687398483
0.6469677 0.574766818314987 0.7297621959710247
0.6489676 0.580203404499703 0.7259688375021464
0.6509675 0.5850139397746007 0.7219594493945276
0.6529674 0.5898785612564456 0.7180959679627081
0.6549673 0.5950050340721084 0.714298872217319
0.6569672 0.599872991858266 0.7101533374452514
0.6589671 0.6045013398351836 0.7060943674633248
0.660967 0.6091396734754484 0.7017127708494465
0.6629669 0.6137846770046026 0.6966500551769561
0.6649668 0.6178236089209741 0.692146977250643
0.6669667 0.6225879748399673 0.6869656951919432
0.6689666 0.6275463679910991 0.6819112976270382
0.6709665 0.6321966920264106 0.6764360983105718
0.6729664 0.6363591290074372 0.6713795379553821
0.6749663 0.6412727644149727 0.6657115457893037
0.6769662 0.6462223217126744 0.6597051981462562
0.6789661 0.650963161832042 0.6542009334862553
0.680966 0.6556644350729961 0.6484453846295427
0.6829659 0.6607591475075524 0.6428398038682522
0.6849658 0.6661058036763333 0.6369693210497837
0.6869657 0.6714259166079386 0.631344116552436
0.6889656 0.6770060237695315 0.6258699173242483
0.6909655 0.6819894747138294 0.6201906763369109
0.6929654 0.6872872733659275 0.6144175654689591
0.6949653 0.6924007834728705 0.6089712686283126
0.6969652 0.6977871430800848 0.6029618977399537
0.6989651 0.7032516077913268 0.5977126834325442
0.700965 0.7082866967821847 0.5922783454558126
0.7029649 0.7131191642154222 0.5870041985401939
0.7049648 0.7181192640305203 0.581746213792025
0.7069647 0.7229482811641326 0.5764835246784957
0.7089646 0.7283778506787977 0.5712128310379871
0.7109645 0.7330855010457547 0.5664117969220014
0.7129644 0.7371716624485214 0.5612645666094157
0.7149643 0.7418148675143716 0.5563896244558947
0.7169642 0.7459856605500093 0.5512986445416387
0.7189641 0.7500977018741427 0.5460422166092225
0.720964 0.7540911352504386 0.5405675095329778
0.7229639 0.7582284124834532 0.5350155902270998
0.7249638 0.7621773770008853 0.5297802221888206
0.7269637 0.7661222939270859 0.5249241510679952
0.7289636 0.7692914531836745 0.5189695673935725
0.7309635 0.7734285962316785 0.5133676734017885
0.7329634 0.7767745242802578 0.5080963187008659
0.7349633 0.7799669883492262 0.5020459679614769
0.7369632 0.7831601321577425 0.496130056909303
0.7389631 0.7863362198794913 0.4902703520046052
0.740963 0.7894390339879743 0.48411241003698186
0.7429629 0.7928054503508921 0.4782916775339209
0.7449628 0.7961290352734616 0.47143301596865805
0.7469627 0.7994079035632967 0.464620637965239
0.7489626 0.8028070305026638 0.45819857109635886
0.7509625 0.8060495683103456 0.45153558913423025
0.7529624 0.8090083102239503 0.44510215568159434
0.7549623 0.8126338796642838 0.43825002176987116
0.7569622 0.8164266895934301 0.4314513734350943
0.7589621 0.8195551748243906 0.4245134792992056
0.760962 0.8229701810805277 0.41751003195026537
0.7629619 0.8266356598320618 0.4110766704449644
0.7649618 0.829903770769311 0.4043141586040525
0.7669617 0.8331577307033732 0.3971952835280756
0.7689616 0.8369744975806607 0.39058331151355574
0.7709615 0.8401118798944904 0.38381616993838924
0.7729614 0.8433803510135466 0.3766903704968163
0.7749613 0.8465592664063916 0.37076101421165747
0.7769612 0.849877220206956 0.36397375938665416
0.7789611 0.8530988216333016 0.3576931136005489
0.780961 0.8562229373398738 0.3510618467261791
0.7829609 0.8593522805766229 0.3447742065752197
0.7849608 0.8619872935831094 0.3382541472415104
0.7869607 0.8648427333075 0.3319657289651401
0.7889606 0.8673183090289313 0.32567892516728186
0.7909605 0.8700023919691136 0.3192254251881891
0.7929604 0.872240785163866 0.31306638363808004
0.7949603 0.8752563544896017 0.30653093935178294
0.7969602 0.8774137386921126 0.30031365682709016
0.7989601 0.8793424800336019 0.2936818848122039
0.80096 0.8822875034913122 0.2871230364774442
0.8029599 0.884261084330927 0.2804691918171576
0.8049598 0.8855368422912377 0.27388654397303935
0.8069597 0.8877445393934393 0.2676406093647324
0.8089596 0.8889080512950429 0.26083810343838376
0.8109595 0.8908905639507907 0.2537329287140274
0.8129594 0.8925060774081274 0.24681847195157283
0.8149593 0.8939140415081324 0.2399662758505997
