! Created with skrf 1.8.0 (http://scikit-rf.org).
# GHz S RI R 50.0 
!freq ReS11 ImS11
0.001 2.1984177082122844 -0.41535954579121015
0.0029999 0.9957104310570342 -0.01116196847287998
0.0049998 0.9912820856208924 -0.020891193112413553
0.0069997 0.9858057974642391 -0.027879001418042226
0.0089996 0.9868680008755677 -0.03708128460185728
0.0109995 0.9863425763726716 -0.043793692019530095
0.0129994 0.9851358214984097 -0.051210639213228104
0.0149993 0.9846496070901565 -0.058297417533139884
0.0169992 0.9836238199480261 -0.0660574975474244
0.0189991 0.9831194548117743 -0.07310895521899397
0.020999 0.9809876749253352 -0.08065945857100865
0.0229989 0.9811889262627942 -0.08818939122987529
0.0249988 0.9803855351934783 -0.09558252305774251
0.0269987 0.9794241247230264 -0.102776050355223
0.0289986 0.9785639257010457 -0.11060421653396256
0.0309985 0.9778119591356778 -0.11873209127612704
0.0329984 0.9761009852687399 -0.1252984716985784
0.0349983 0.9756608552385442 -0.13220926243383768
0.0369982 0.9746903797295443 -0.1404463033575889
0.0389981 0.9739656437215587 -0.14707734333156813
0.040998 0.972885617405737 -0.15392487865870452
0.0429979 0.9718222647671946 -0.16124848234028544
0.0449978 0.9714024795302518 -0.16884751709459422
0.0469977 0.9698034918114412 -0.17587692022069396
0.0489976 0.9683467357415168 -0.18352685630407695
0.0509975 0.9672609925730501 -0.19054746921996898
0.0529974 0.9660084443422932 -0.1973783765036335
0.0549973 0.9641653178259352 -0.20433306014281744
0.0569972 0.962692473149567 -0.21145302440031888
0.0589971 0.960814517385534 -0.21838642954293797
0.060997 0.958989335993538 -0.22544600173866808
0.0629969 0.9572080930279014 -0.23230969406581325
0.0649968 0.9556394644998238 -0.2391631332274752
0.0669967 0.953264400573945 -0.24574240973542075
0.0689966 0.9510619684441063 -0.25306496937887196
0.0709965 0.9490981204351058 -0.2598231266625163
0.0729964 0.9467032346924051 -0.26675972396424064
0.0749963 0.9442957766130622 -0.27361950142061464
0.0769962 0.9416733484740487 -0.28056863522982867
0.0789961 0.9387444397336979 -0.28748789837255395
0.080996 0.936574829665002 -0.29484585923511314
0.0829959 0.9340349251088048 -0.30169973736683803
0.0849958 0.9311873989182999 -0.3088994406460228
0.0869957 0.9286190180756092 -0.3159099799482356
0.0889956 0.9263227951248831 -0.3226662110173259
0.0909955 0.9238551652599255 -0.3302649261853152
0.0929954 0.9207538734733067 -0.3365939206552867
0.0949953 0.918137875729665 -0.3443108147519567
0.0969952 0.9155039994950497 -0.35129151719033513
0.0989951 0.9130748622954634 -0.3574579006391115
0.100995 0.9083785100523649 -0.3653955679208239
0.1029949 0.9055679306367921 -0.37236865786371687
0.1049948 0.9034168104338856 -0.37977426092624145
0.1069947 0.9000875028317599 -0.3870869065063661
0.1089946 0.8974392421674191 -0.3937340814994066
0.1109945 0.8949268599851803 -0.40067078024130964
0.1129944 0.8923861992592792 -0.4077722632340728
0.1149943 0.8896041358407358 -0.41395913991274924
0.1169942 0.8861203827060066 -0.42059453603535113
0.1189941 0.88367718283885 -0.4277200836887443
0.120994 0.8808296371155222 -0.4333984056229792
0.1229939 0.8774945295564299 -0.4404114578627666
0.1249938 0.8746188889503154 -0.44673536104946304
0.1269937 0.8712590293821967 -0.4523401270737595
0.1289936 0.8681664439773609 -0.4589999042648269
0.1309935 0.8651515042030885 -0.46519729264146104
0.1329934 0.8614949317228425 -0.47112271080059503
0.1349933 0.8583102165351599 -0.4772989509524443
0.1369932 0.854544973764536 -0.4834278245390884
0.1389931 0.8511785501965294 -0.4890300311167158
0.140993 0.8472224510189241 -0.49501304933175994
0.1429929 0.8431577431112458 -0.5006257270466242
0.1449928 0.8392336533507866 -0.506565267802301
0.1469927 0.8353326019552619 -0.5125459848029101
0.1489926 0.8313425004638413 -0.5184378125658793
0.1509925 0.8268292237042305 -0.5243274023542479
0.1529924 0.8229750710449677 -0.5300800949880419
0.1549923 0.8186243983063866 -0.5357813213236085
0.1569922 0.8141612932355229 -0.5417723309342859
0.1589921 0.8095623178194856 -0.547526408878702
0.160992 0.8054861430169498 -0.5537110586660546
0.1629919 0.8010063516813329 -0.5597214731106774
0.1649918 0.7966556990185762 -0.5652685145525034
0.1669917 0.7919626556164794 -0.5709309846540341
0.1689916 0.7873533772002358 -0.5767008620096971
0.1709915 0.7828333189771071 -0.5822798466501616
0.1729914 0.7786579683756838 -0.5881618897257094
0.1749913 0.7740318001213367 -0.5940946879761797
0.1769912 0.7692920927380863 -0.5998835912469186
0.1789911 0.7647267028503938 -0.6054509722316961
0.180991 0.7597744347026965 -0.6108567787287333
0.1829909 0.7553059106502228 -0.617011562243849
0.1849908 0.7508511268940063 -0.6227851290545793
0.1869907 0.7456320194989497 -0.62823676277214
0.1889906 0.7412414913776473 -0.6333555858518977
0.1909905 0.7366163260981581 -0.6387725029929345
0.1929904 0.7319439652765266 -0.6441872563481141
0.1949903 0.7270854572098674 -0.6496861981667685
0.1969902 0.7222121525742011 -0.6542938238928274
0.1989901 0.7175348625346596 -0.6599547655542846
0.20099 0.7127813808806899 -0.6649345935607973
0.2029899 0.7080171216320635 -0.6701301915894511
0.2049898 0.7026374109259022 -0.6748194862310946
0.2069897 0.6980872043817501 -0.6798391107870915
0.2089896 0.6931847566485976 -0.6847985701370144
0.2109895 0.6879944861283258 -0.6896784027683869
0.2129894 0.6832428674955023 -0.6941939200896103
0.2149893 0.6779196680883061 -0.6990332556808712
0.2169892 0.6730814120541271 -0.7035383013718212
0.2189891 0.6675594602319922 -0.708393425741613
0.220989 0.6625780997939337 -0.7131751002788644
0.2229889 0.6572165338998183 -0.71769375338843
0.2249888 0.6518336026528229 -0.7217937641927235
0.2269887 0.6464102081709201 -0.7260641401683375
0.2289886 0.6410410702782137 -0.7307201745494555
0.2309885 0.6358684628085646 -0.7349080248145394
0.2329884 0.6302206274013898 -0.739573317505181
0.2349883 0.6248436903861705 -0.7434179376177248
0.2369882 0.619353964768957 -0.7478076704640169
0.2389881 0.6137010020785189 -0.7514374255161653
0.240988 0.6083006338347098 -0.756039606937111
0.2429879 0.6023898642666141 -0.7595425938882823
0.2449878 0.5971125599804388 -0.7636965905483217
0.2469877 0.5915141386798397 -0.7678354011083687
0.2489876 0.5856680015270613 -0.7716489986784576
0.2509875 0.5793207777216702 -0.7752036274138125
0.2529874 0.5736970821955247 -0.7791725932388816
0.2549873 0.5676169931970041 -0.7826715655803831
0.2569872 0.5614435129407392 -0.7862858892859926
0.2589871 0.5556118493049728 -0.7901399465302074
0.260987 0.5499133687088359 -0.7939341792646045
0.2629869 0.5433438839558458 -0.7976357627487408
0.2649868 0.5370706704283511 -0.801266601479039
0.2669867 0.5309659158067226 -0.8048519030970414
0.2689866 0.5247896870741334 -0.808403680766265
0.2709865 0.5181568699261211 -0.8118055008914189
0.2729864 0.5117931572725929 -0.815412948048327
0.2749863 0.505531893031453 -0.8190191486753055
0.2769862 0.4993044457453869 -0.8228024143884989
0.2789861 0.49252737354961207 -0.8264105851922473
0.280986 0.4864498663155951 -0.83009951068092
0.2829859 0.47980616304937784 -0.8340577525791082
0.2849858 0.4738716798158676 -0.8374516471136559
0.2869857 0.4673433982491212 -0.8409519588876936
0.2889856 0.46135329484198984 -0.8449085293999867
0.2909855 0.4549561062723716 -0.8486116968057784
0.2929854 0.44913200092152084 -0.8521426420086856
0.2949853 0.4432181350586091 -0.8558190932042264
0.2969852 0.4371059387316729 -0.8592792884369029
0.2989851 0.4313366390344155 -0.863129113597215
0.300985 0.4255612028172908 -0.8661696743911513
0.3029849 0.4197091691575302 -0.8696345526780244
0.3049848 0.41447241436033255 -0.872724852704655
0.3069847 0.4090149346249661 -0.8760478021369538
0.3089846 0.40338145335178643 -0.8793126095637488
0.3109845 0.3980008355259592 -0.881606875398172
0.3129844 0.3920054443058153 -0.8847412363459438
0.3149843 0.38614060169860975 -0.887333910438161
0.3169842 0.3806125251868797 -0.889988893822909
0.3189841 0.37516320615958987 -0.8919479867853365
0.320984 0.3693937621644656 -0.8948957452968191
0.3229839 0.3640856243122603 -0.8972608011075713
0.3249838 0.35790725447397886 -0.8997623715172798
0.3269837 0.35211465658204444 -0.9016486700489557
0.3289836 0.3460288755572237 -0.9037740735545463
0.3309835 0.3403340611265918 -0.9053029277960138
0.3329834 0.3343202784017739 -0.9070564444635716
0.3349833 0.32824460968994873 -0.9079597167872213
0.3369832 0.32184211899327136 -0.9088940213755397
0.3389831 0.3154588286158656 -0.9102208602589972
0.340983 0.30934940258207266 -0.9106083944280451
0.3429829 0.3027067708068124 -0.9114995834667885
0.3449828 0.2963500706421266 -0.9122103188320327
0.3469827 0.2895575566896204 -0.913103180059262
0.3489826 0.28206271685882556 -0.9139571103009463
0.3509825 0.2760757551113588 -0.91465510844703
0.3529824 0.2682345815201636 -0.9154695397520012
0.3549823 0.2613211768396182 -0.9159391273580305
0.3569822 0.253838056951731 -0.9179281916688564
0.3589821 0.24680484613353293 -0.9190931374168084
0.360982 0.23913093759240706 -0.9208262212884292
0.3629819 0.23164231173285244 -0.9219470841137444
0.3649818 0.22460931187227393 -0.9235964019894143
0.3669817 0.21725813972998564 -0.9254320684942795
0.3689816 0.21058703640245452 -0.9269600641644853
0.3709815 0.2040904938693205 -0.928087716973655
0.3729814 0.19741440467310312 -0.9299454089486271
0.3749813 0.19025385243791776 -0.9317298444852842
0.3769812 0.18345722360544572 -0.9339344437777104
0.3789811 0.1768722706766309 -0.9350236661195999
0.380981 0.1701874700744017 -0.9372407151043664
0.3829809 0.16372376091616386 -0.9383291588106247
0.3849808 0.15751392346575788 -0.9402495424233822
0.3869807 0.1513498604470439 -0.9416662421936808
0.3889806 0.14548869272517934 -0.9429563907476152
0.3909805 0.13915611074377662 -0.9441936703293636
0.3929804 0.13353181606866335 -0.945272202644772
0.3949803 0.12780842671137954 -0.9460794118390231
0.3969802 0.12156085854152586 -0.9471959494024532
0.3989801 0.11574078627702789 -0.9473979536103462
0.40098 0.11011589230480424 -0.947862449969601
0.4029799 0.1044657812583941 -0.9481095068215007
0.4049798 0.09848334684090719 -0.9484076884422458
0.4069797 0.09302038471046911 -0.9482753254345828
0.4089796 0.086854247129829 -0.9482944493669158
0.4109795 0.08071713653666338 -0.9478371881863923
0.4129794 0.0749280724256555 -0.9469910027255262
0.4149793 0.06884136023007945 -0.9466700715003716
0.4169792 0.06252493072114379 -0.9460046826846383
0.4189791 0.055983863110937004 -0.9452336973663662
0.420979 0.04926245892902506 -0.9447353682994645
0.4229789 0.04259126290017184 -0.944279468031513
0.4249788 0.03621466457059212 -0.9440571931185855
0.4269787 0.02920960086450563 -0.9434936820048243
0.4289786 0.022143467353981122 -0.9427440124757045
0.4309785 0.015065010467494398 -0.9423069892028829
0.4329784 0.0080718802092274 -0.9421315154192011
0.4349783 0.0019851733317332587 -0.9421960926818126
0.4369782 -0.005198912103901401 -0.9419354188607731
0.4389781 -0.011992696751292727 -0.9417915577301773
0.440978 -0.018726386269094508 -0.941437052242337
0.4429779 -0.025713546913468492 -0.9415460962129829
0.4449778 -0.03312827007766408 -0.941572309540728
0.4469777 -0.03942571694676287 -0.9414590628385588
0.4489776 -0.04624215303807667 -0.9414585227170764
0.4509775 -0.05264804763580608 -0.941584947688691
0.4529774 -0.0590783050828038 -0.9418878632133005
0.4549773 -0.06545793035243902 -0.9416659031722651
0.4569772 -0.07170875506218627 -0.9416704477937737
0.4589771 -0.07737227912445409 -0.9417182415185544
0.460977 -0.08317556694355735 -0.9416913029342557
0.4629769 -0.08915338104797792 -0.9415582603132466
0.4649768 -0.09443894339705604 -0.9409854927846802
0.4669767 -0.10024921064417498 -0.9404259117857898
0.4689766 -0.1054169561831587 -0.9397538316326574
0.4709765 -0.11076206958434998 -0.9386767424809686
0.4729764 -0.11616305703672335 -0.937872840239419
0.4749763 -0.1215986093660894 -0.9371268122434437
0.4769762 -0.12654916603185284 -0.9357967455243534
0.4789761 -0.13186860286125884 -0.9339729951887281
0.480976 -0.13724700301697562 -0.9325963670863459
0.4829759 -0.14299508610820622 -0.9308884298894888
0.4849758 -0.14841836078452952 -0.9290418395470005
0.4869757 -0.15399245676268503 -0.926975282335227
0.4889756 -0.15966821344146462 -0.925045166438824
0.4909755 -0.1654032576594885 -0.922256597417339
0.4929754 -0.17163721978388358 -0.9200215473876868
0.4949753 -0.1778842560099407 -0.9181987015594506
0.4969752 -0.18391116572145957 -0.9154770965485005
0.4989751 -0.19048148648493923 -0.9136304389080329
0.500975 -0.19649602059622684 -0.9112525619957556
0.5029749 -0.2030808007623596 -0.9093273793990737
0.5049748 -0.20948156372952698 -0.9069178778201141
0.5069747 -0.21622439629674906 -0.9056183132053096
0.5089746 -0.22266610377961177 -0.9034329322895466
0.5109745 -0.22840421939604122 -0.9011298432757298
0.5129744 -0.23517013463878428 -0.899577174218556
0.5149743 -0.2418473675493514 -0.897560853721105
0.5169742 -0.24821238384529934 -0.8956630522907884
0.5189741 -0.25491688710233296 -0.8942611322430173
0.520974 -0.26095331594597515 -0.892964325845611
0.5229739 -0.26657017113200604 -0.8918351395115319
0.5249738 -0.2732766430941195 -0.8900929591348916
0.5269737 -0.2795099500027982 -0.888697549914962
0.5289736 -0.285484578913357 -0.887228202928043
0.5309735 -0.2912604199815677 -0.886324065562764
0.5329734 -0.29689630606043843 -0.8843376973046352
0.5349733 -0.3025937601704524 -0.8830998741413821
0.5369732 -0.3078481594046204 -0.8814754571779182
0.5389731 -0.31320248615806934 -0.8801249037716571
0.540973 -0.31824195767009905 -0.8778539712167784
0.5429729 -0.32302753777894616 -0.8758944343025462
0.5449728 -0.3281824759214046 -0.8744071703830799
0.5469727 -0.3331868259169592 -0.8721704137289619
0.5489726 -0.3373579441175837 -0.8700339426104832
0.5509725 -0.34259056663675974 -0.8677077053430147
0.5529724 -0.34778632596709047 -0.8652642831303715
0.5549723 -0.3524280301924324 -0.8634288847803797
0.5569722 -0.35729921142948223 -0.8603380606572376
0.5589721 -0.36181150367892656 -0.857453198575836
0.560972 -0.36679629011236636 -0.8536821313484575
0.5629719 -0.371465568129889 -0.8509348108523899
0.5649718 -0.3766895884780093 -0.8479286579652886
0.5669717 -0.38142358245319763 -0.8443146857068374
0.5689716 -0.3864662083286149 -0.8411365931587909
0.5709715 -0.3923475220949285 -0.8375506502026453
0.5729714 -0.3976332173738624 -0.834345472560341
0.5749713 -0.4027862405877635 -0.8307472959529852
0.5769712 -0.40771895798845653 -0.8277715234615164
0.5789711 -0.41334206274845736 -0.8245117097683806
0.580971 -0.41917166029650066 -0.8205624291881346
0.5829709 -0.4247383956966677 -0.8176985499079447
0.5849708 -0.4307207492777129 -0.8144909791278487
0.5869707 -0.4364399288162774 -0.8113826081205409
0.5889706 -0.4417914200545281 -0.8086335382625561
0.5909705 -0.44746565588980586 -0.8058467147944726
0.5929704 -0.4529621905112777 -0.8031672071726506
0.5949703 -0.4580346927047752 -0.8003557948377741
0.5969702 -0.463658560387141 -0.7975041590163124
0.5989701 -0.46905772853088384 -0.7946430639789466
0.60097 -0.4744554912201525 -0.7917111315137357
0.6029699 -0.4793563388059479 -0.789190539091896
0.6049698 -0.4839797310740076 -0.7863003279192009
0.6069697 -0.4885633170519962 -0.7835997607707685
0.6089696 -0.4933460837746936 -0.7808611402047072
0.6109695 -0.49762314000392266 -0.7782407199689338
0.6129694 -0.502014851951823 -0.7755116048199024
0.6149693 -0.5064210262808212 -0.7726366581654548
0.6169692 -0.5105309498526518 -0.7693497926924258
0.6189691 -0.5147941855961727 -0.7666425291441378
0.620969 -0.5186465999446568 -0.7634269130270831
0.6229689 -0.5229707428355015 -0.7600794585203554
0.6249688 -0.5266683923137288 -0.75636246103702
0.6269687 -0.5308586590994995 -0.7529448808802227
0.6289686 -0.5348660731183458 -0.7487257424464793
0.6309685 -0.538434870723939 -0.7443809641459169
0.6329684 -0.5426754310337132 -0.7404071929772157
0.6349683 -0.5469778720222596 -0.7358659948815658
0.6369682 -0.5507036920566117 -0.7323130972892683
0.6389681 -0.5552425534476669 -0.7282403870426986
0.640968 -0.5591420589551255 -0.72372945267586
0.6429679 -0.5635690352844257 -0.719220217089745
0.6449678 -0.5679697983074409 -0.7150865784680088
0.6469677 -0.572360516205648 -0.7107267574814446
0.6489676 -0.5773346890604807 -0.7065236502370876
0.6509675 -0.5825088145377761 -0.7022984947739837
0.6529674 -0.5870848620274401 -0.6977739032194721
0.6549673 -0.5920605353974617 -0.6936487583355652
0.6569672 -0.5970124911742387 -0.6894905125617228
0.6589671 -0.601601811759046 -0.6853519896982406
0.660967 -0.6062069826397407 -0.6813380059504417
0.6629669 -0.6111073730205935 -0.6775293108989421
0.6649668 -0.6158507893190172 -0.6737050261860065
0.6669667 -0.6206278494399986 -0.6699314137324301
0.6689666 -0.6252234766212518 -0.6663838771429521
0.6709665 -0.6293422414538271 -0.6626832954050355
0.6729664 -0.6331513770854592 -0.6589437665108809
0.6749663 -0.6373020130885065 -0.6555721722136427
0.6769662 -0.6416097029728957 -0.6522078589539264
0.6789661 -0.6454152089026011 -0.6485888445764918
0.680966 -0.6495789200268537 -0.6449784024667838
0.6829659 -0.6532265842700105 -0.6418890970740928
0.6849658 -0.6566201799209981 -0.6383576103197649
0.6869657 -0.6602006223277673 -0.634743658761435
0.6889656 -0.6633633930487702 -0.6310462445286751
0.6909655 -0.6669294651924713 -0.6275555694199344
0.6929654 -0.6697801053088084 -0.6233237940236177
0.6949653 -0.6729225986830714 -0.6195045403182508
0.6969652 -0.6762297782838516 -0.6154373276119345
0.6989651 -0.6790394424262804 -0.6113224183525404
0.700965 -0.6824641616948297 -0.6073089282077062
0.7029649 -0.685414796035679 -0.6025936258563553
0.7049648 -0.6879509644722809 -0.5978150917508691
0.7069647 -0.6912159160536127 -0.5932536816855021
0.7089646 -0.6931629464269526 -0.5883553425072476
0.7109645 -0.6964272188047599 -0.5836602353494553
0.7129644 -0.700011744452794 -0.5780708504307382
0.7149643 -0.7030819110124465 -0.5734974626857137
0.7169642 -0.7067314197859624 -0.5683763516192843
0.7189641 -0.7102684120488295 -0.5630922051276828
0.720964 -0.7136588541486995 -0.5583314165521357
0.7229639 -0.7172486117071979 -0.5536720460904212
0.7249638 -0.7201301940330631 -0.5486793239498639
0.7269637 -0.7237580029499132 -0.5431913904385911
0.7289636 -0.7278552808970131 -0.5385026492927649
0.7309635 -0.7310008239136742 -0.5335558721851646
0.7329634 -0.7344867806600035 -0.5287678148454892
0.7349633 -0.7381863245370008 -0.5238969643190997
0.7369632 -0.742082480217947 -0.519046968295644
0.7389631 -0.745415467980963 -0.5144316752088386
0.740963 -0.7488093222250729 -0.5102907970159163
0.7429629 -0.7516921378419936 -0.5056020023990642
0.7449628 -0.7546225659519015 -0.5014582246110078
0.7469627 -0.7581424470909737 -0.49727229942511714
0.7489626 -0.7609579016762004 -0.4927035842058141
0.7509625 -0.7642246513311757 -0.48830820804308944
0.7529624 -0.7675402568679727 -0.48410565512239
0.7549623 -0.7700923484655655 -0.47983461694742524
0.7569622 -0.772719817279976 -0.47585875812870243
0.7589621 -0.7753587077842888 -0.47125301619684146
0.760962 -0.7780439106339548 -0.46708234751136934
0.7629619 -0.7804200837534581 -0.46282624675967166
0.7649618 -0.7825330228127202 -0.45825988600603784
0.7669617 -0.7852693411882319 -0.45393545076571234
0.7689616 -0.787408688899966 -0.4493244325548582
0.7709615 -0.7894519822544032 -0.44475478849361827
0.7729614 -0.7917068935593787 -0.439868266400288
0.7749613 -0.7929727238276667 -0.43485406190216097
0.7769612 -0.7945108589721567 -0.43008539945032487
0.7789611 -0.7966548385762993 -0.4244892547714401
0.780961 -0.7986612399537125 -0.4196691882910807
0.7829609 -0.8006842055557174 -0.4144778995285306
0.7849608 -0.8023357772127974 -0.40892787031141387
0.7869607 -0.8045923310319507 -0.40347687220102546
0.7889606 -0.806920239940519 -0.3980547792662719
0.7909605 -0.8086200555812315 -0.39277834297987835
0.7929604 -0.8111715915275207 -0.38732373291587474
0.7949603 -0.8133752140858213 -0.3820117216743729
0.7969602 -0.8156224815098552 -0.3766685287735524
0.7989601 -0.8177394954196343 -0.3709576677679111
0.80096 -0.8200811785693545 -0.3656405340360125
