! Created with skrf 1.8.0 (http://scikit-rf.org).
# GHz S RI R 50.0 
!freq ReS11 ImS11
0.001 -1.1822289762167844 -0.0398636082631989
0.0029999 -0.9062658232488947 -0.01713857553479703
0.0049998 -0.9685484291262114 -0.01686131423284376
0.0069997 -0.9457683987782277 0.06399975300940547
0.0089996 -0.9421553115023193 0.04288785384810989
0.0109995 -0.9413505295266713 0.045153998027193776
0.0129994 -0.9386374291792421 0.050236505117973285
0.0149993 -0.9403265088664587 0.048492032886776615
0.0169992 -0.9426477397512443 0.057954355236420896
0.0189991 -0.942004262527392 0.0642457782850081
0.020999 -0.9410658796246054 0.07014076903010663
0.0229989 -0.9401528805555784 0.07601947205805759
0.0249988 -0.9391422929951112 0.08183860311470412
0.0269987 -0.9381117057608794 0.08795288949705553
0.0289986 -0.9372172098226625 0.09399276238991291
0.0309985 -0.9361114039779768 0.09978189409362703
0.0329984 -0.935205006194066 0.10608509473953409
0.0349983 -0.9341237432924258 0.11191376333335484
0.0369982 -0.9328713507621429 0.1178970401155695
0.0389981 -0.9317823249444419 0.12398147960966333
0.040998 -0.9305824583728028 0.1300677794127953
0.0429979 -0.9289464336915876 0.13616836357087148
0.0449978 -0.9275730465699098 0.14199868820410894
0.0469977 -0.9265267862725188 0.14766709226311536
0.0489976 -0.9243593810555043 0.15456263162147682
0.0509975 -0.9230039363974625 0.1604387636402158
0.0529974 -0.9218376815035941 0.1668558376666463
0.0549973 -0.9197384727758927 0.17369834145215102
0.0569972 -0.9184882929905435 0.1795230416228521
0.0589971 -0.9171498739432886 0.1857741818892384
0.060997 -0.9156882529446951 0.19245747697189097
0.0629969 -0.9144109433194015 0.1981296486516686
0.0649968 -0.9122138142021772 0.20446487477286213
0.0669967 -0.9117071631568204 0.2113686949222589
0.0689966 -0.9099009825959516 0.21676697120842753
0.0709965 -0.9086259548272964 0.22300182595982332
0.0729964 -0.90649695737266 0.22963753795203154
0.0749963 -0.9052316192902874 0.23514803816669175
0.0769962 -0.9039966158166832 0.2411405424967596
0.0789961 -0.9024732650296575 0.24666479005410655
0.080996 -0.9005585384863873 0.2526733718430222
0.0829959 -0.8988977547775046 0.25881663523545034
0.0849958 -0.8976262666132431 0.26411055208794304
0.0869957 -0.8962023382518381 0.2699084472340057
0.0889956 -0.8943063661629443 0.2751550454800633
0.0909955 -0.8924925543244155 0.28062532401869716
0.0929954 -0.8902627463119189 0.2861150280648847
0.0949953 -0.888137476621194 0.291924153736644
0.0969952 -0.8862977035520041 0.29707090125720576
0.0989951 -0.8839198409699904 0.3026825399207154
0.100995 -0.8827829961028315 0.3086177252670075
0.1029949 -0.8807588028428466 0.314103315029663
0.1049948 -0.8783234817868897 0.31931927227320733
0.1069947 -0.8758778575109596 0.3242991822144736
0.1089946 -0.8732896307867699 0.32966610869327423
0.1109945 -0.8708417982685757 0.33504934570288425
0.1129944 -0.8683197259386098 0.340175954055678
0.1149943 -0.8653662601020906 0.34543833227526544
0.1169942 -0.8626848949725049 0.3512870947341302
0.1189941 -0.8598575820463794 0.3565512184049536
0.120994 -0.8571054923398037 0.36204741609253005
0.1229939 -0.8540704829626098 0.36741429688827976
0.1249938 -0.8512042003269203 0.37332785856282374
0.1269937 -0.8484364495272543 0.3787294751882003
0.1289936 -0.8460409799599096 0.38425616145591024
0.1309935 -0.8428831303364995 0.38968546377773694
0.1329934 -0.8400439719701946 0.3957513354833905
0.1349933 -0.8370045975697105 0.4013375013574605
0.1369932 -0.8342571207393498 0.40659241175206207
0.1389931 -0.8310663159603049 0.41251390222971185
0.140993 -0.828339550624291 0.4179832004368792
0.1429929 -0.8249741952186508 0.4232582873485347
0.1449928 -0.823156898143144 0.42886999699795747
0.1469927 -0.8198255082132687 0.4350702180869113
0.1489926 -0.816989427624315 0.4406024735117643
0.1509925 -0.8140387671185124 0.4452681412818923
0.1529924 -0.8107646946826464 0.45077449712602274
0.1549923 -0.8086988158061857 0.45655117316036165
0.1569922 -0.8056490013933492 0.46172120501209946
0.1589921 -0.8025259562428609 0.46690976844631094
0.160992 -0.7996131349061318 0.47184771832349404
0.1629919 -0.7963722338094388 0.47736229226215277
0.1649918 -0.7934708422378023 0.4823980582748699
0.1669917 -0.7903950788839551 0.4869721063540101
0.1689916 -0.7871874991922072 0.4920983970309629
0.1709915 -0.784122622695786 0.4970984883005811
0.1729914 -0.780779701150615 0.5019130803790497
0.1749913 -0.7775576519798976 0.5065927385928868
0.1769912 -0.7742047790560249 0.5114778760879708
0.1789911 -0.7707447738049893 0.5161506772021313
0.180991 -0.7673230178129463 0.5207824581214759
0.1829909 -0.7638993754342328 0.5257185374632952
0.1849908 -0.7605679456770915 0.5304534886981039
0.1869907 -0.756803154200498 0.5350053832279594
0.1889906 -0.75300660993712 0.5397587848524542
0.1909905 -0.7495617803549617 0.5445493528036566
0.1929904 -0.7457411723336174 0.5491895871743355
0.1949903 -0.7417343543937067 0.5537510125572407
0.1969902 -0.7377745901574306 0.5583180135050497
0.1989901 -0.7339316939071476 0.5635359440877452
0.20099 -0.7302212538352414 0.5681367021828779
0.2029899 -0.7264033571828956 0.5725943794978068
0.2049898 -0.722302183133671 0.5771552878546015
0.2069897 -0.7185838339268018 0.5819420649085489
0.2089896 -0.7146053115577168 0.5864604783891636
0.2109895 -0.7102639441450874 0.591269982369448
0.2129894 -0.7063911234741336 0.5962993254127623
0.2149893 -0.7024151385056134 0.6004465103695501
0.2169892 -0.6980572344424778 0.6055522847799168
0.2189891 -0.6939101784787773 0.6100793321069129
0.220989 -0.6902058465068457 0.6146246713595419
0.2229889 -0.6856939798341675 0.6190368012493498
0.2249888 -0.6812992742444532 0.6239196327348049
0.2269887 -0.6772258928493671 0.6277222879946155
0.2289886 -0.6726406812963204 0.6321627870658056
0.2309885 -0.6684313179477893 0.6375888920026711
0.2329884 -0.664098257043072 0.6415456312849104
0.2349883 -0.6596978288198218 0.6458534811444794
0.2369882 -0.6553813330887431 0.6500583010502611
0.2389881 -0.6512153434558278 0.6550739238165083
0.240988 -0.6469340873987353 0.6589925977154445
0.2429879 -0.6423586528765589 0.6635433919427512
0.2449878 -0.6379587617354407 0.6677372588416675
0.2469877 -0.6335510605385399 0.6721296341255609
0.2489876 -0.6294159419230663 0.6766954371670114
0.2509875 -0.624863975310124 0.6806845096243763
0.2529874 -0.620457753930312 0.6848960926727364
0.2549873 -0.6163225801349912 0.6893892425682924
0.2569872 -0.6122646924873223 0.6934580335122954
0.2589871 -0.6075521696873635 0.6976749708234404
0.260987 -0.6032661109567736 0.7016655277830008
0.2629869 -0.5988731457902614 0.7058852480604837
0.2649868 -0.594384436694814 0.7097580680884444
0.2669867 -0.5902247567156426 0.7130090885865695
0.2689866 -0.5855327859830546 0.7168724621031803
0.2709865 -0.5810478552742601 0.7207514632292551
0.2729864 -0.5767272767752927 0.724460053964453
0.2749863 -0.5722480792411093 0.7279134573774457
0.2769862 -0.5677723652200714 0.7315592009527623
0.2789861 -0.5633525410511939 0.734723940151933
0.280986 -0.5585197577491064 0.7375604681068104
0.2829859 -0.5539144448919054 0.7406780902343126
0.2849858 -0.5488035947782376 0.7440445408367724
0.2869857 -0.5440269801060206 0.74730922573476
0.2889856 -0.5389670987891588 0.7501810554750763
0.2909855 -0.5336573373470513 0.7532797045276567
0.2929854 -0.5286135363241243 0.7563748771296454
0.2949853 -0.5233272208363547 0.7594973506344166
0.2969852 -0.5178160234852341 0.7621791007462919
0.2989851 -0.5130013191413033 0.764703180895882
0.300985 -0.5068648645832153 0.7676345017440127
0.3029849 -0.5010768168218739 0.7704819610923963
0.3049848 -0.4956970649158749 0.7734263885652567
0.3069847 -0.4898797874378759 0.7760296849058057
0.3089846 -0.4836021368234614 0.7789732083284828
0.3109845 -0.4772212300647608 0.7817421205593822
0.3129844 -0.47142493003590746 0.7847403034668603
0.3149843 -0.4654340688634835 0.7879900087840549
0.3169842 -0.4596563861335979 0.7913149841558744
0.3189841 -0.4535377012595291 0.794089335574068
0.320984 -0.44702868048768335 0.796930415313825
0.3229839 -0.44117951178326914 0.8003452488323676
0.3249838 -0.435215402812571 0.8029811048070602
0.3269837 -0.4292425864495972 0.8064775036887937
0.3289836 -0.42316449171550446 0.8094230910824833
0.3309835 -0.41741933874722126 0.8130149045942054
0.3329834 -0.4124746125783727 0.8162360176610373
0.3349833 -0.406777790796202 0.8200998342723841
0.3369832 -0.40152795017538573 0.8243582958689258
0.3389831 -0.39570503377475824 0.82823372568568
0.340983 -0.3901844361909392 0.8319203773272261
0.3429829 -0.3851148306454141 0.8358944660205991
0.3449828 -0.37958103486797756 0.8395020646468792
0.3469827 -0.3739893913286031 0.843014296814637
0.3489826 -0.3690837052290492 0.8458705708348498
0.3509825 -0.3634895053412155 0.8488871206975251
0.3529824 -0.35805016932593925 0.8520109154126735
0.3549823 -0.3531565260166435 0.8549479365478719
0.3569822 -0.34801481891062663 0.8572756994605849
0.3589821 -0.34296776686510616 0.8599851694126266
0.360982 -0.3380645269595498 0.8619792815579952
0.3629819 -0.3330742779892729 0.8640624094767191
0.3649818 -0.32770164971447613 0.865711347497687
0.3669817 -0.32234009659032326 0.8674054936656991
0.3689816 -0.31704670228784104 0.8690166743023937
0.3709815 -0.31134715092978593 0.870626967512122
0.3729814 -0.3056679702500758 0.872075167589554
0.3749813 -0.3002064306227411 0.8736479229356976
0.3769812 -0.2945993468950889 0.8746521347697047
0.3789811 -0.2889063299430339 0.8760742330497719
0.380981 -0.28291738870098754 0.8770639077441282
0.3829809 -0.2762821224918235 0.8785624146626502
0.3849808 -0.2705158485370547 0.879828926644652
0.3869807 -0.2640055965187523 0.880584494976095
0.3889806 -0.2572485756675505 0.8820904693847602
0.3909805 -0.2499035277946629 0.8834590768991871
0.3929804 -0.24362709872290955 0.8847938093228983
0.3949803 -0.23636294817045045 0.8865173615590896
0.3969802 -0.23028518420377117 0.8877771080377318
0.3989801 -0.22317583141444272 0.8893684986746916
0.40098 -0.21630548618358605 0.8909214271024992
0.4029799 -0.2097396639341726 0.8925823572010113
0.4049798 -0.20270955229707563 0.894486823110669
0.4069797 -0.19601731105499062 0.8962722612709032
0.4089796 -0.1893823794940063 0.8978838222394684
0.4109795 -0.18268441032797805 0.9000086672275538
0.4129794 -0.17607146388403833 0.9019090704661019
0.4149793 -0.16924544611947556 0.903920398348298
0.4169792 -0.16305100712012968 0.9057748484965191
0.4189791 -0.15668061646707154 0.9074713483278624
0.420979 -0.15032765091570666 0.9092168934777347
0.4229789 -0.14458554861405226 0.9109137615410334
0.4249788 -0.13840485879374448 0.9127718861559293
0.4269787 -0.13272235166266766 0.9142110143512006
0.4289786 -0.12697747223601072 0.915682130320477
0.4309785 -0.1211796832032243 0.9166321843926211
0.4329784 -0.11529169935308592 0.9178882084799065
0.4349783 -0.10893589041255658 0.918148217515961
0.4369782 -0.10336361705714073 0.91840411771824
0.4389781 -0.09751692540648904 0.9192609723153365
0.440978 -0.09175015038895379 0.9191909913689765
0.4429779 -0.08631594830561623 0.9197292758511515
0.4449778 -0.08044222185992776 0.9198344404332861
0.4469777 -0.07422864345453742 0.9196069488287103
0.4489776 -0.06796240865436926 0.9198039480578777
0.4509775 -0.06152384646298761 0.9196893561040064
0.4529774 -0.05486852759374474 0.9189636850956923
0.4549773 -0.04842997548758902 0.9183967994561743
0.4569772 -0.04152847668979502 0.918007757968723
0.4589771 -0.034569350164921644 0.9176173021415458
0.460977 -0.02758655296072265 0.9172054646962723
0.4629769 -0.02020299982148406 0.9172054784258697
0.4649768 -0.013055118007727594 0.9169068583139046
0.4669767 -0.005889947043849228 0.9166533665079921
0.4689766 0.0014707105981721074 0.9164056841526885
0.4709765 0.008506452329282623 0.9160101849610552
0.4729764 0.01601571324791219 0.9160534589862389
0.4749763 0.023217183613392194 0.91655250858352
0.4769762 0.030158704396805285 0.9165832056119712
0.4789761 0.037946578623817465 0.9165496497886483
0.480976 0.045340293614911244 0.9172147251326102
0.4829759 0.05272023474671586 0.9175467960068956
0.4849758 0.059474182546075165 0.9177813592989129
0.4869757 0.06646815894469812 0.9180502063720365
0.4889756 0.0737188540478321 0.9183447550065522
0.4909755 0.08049568702564763 0.9187541791636663
0.4929754 0.08711429828959256 0.9190920684502545
0.4949753 0.09343303882011866 0.9189552548636555
0.4969752 0.09968587086967631 0.9189616890594638
0.4989751 0.10591844256933011 0.919059842268817
0.500975 0.11168618538770408 0.9185454236850403
0.5029749 0.1176728499126395 0.917791910628136
0.5049748 0.1233473150147504 0.9177859283836503
0.5069747 0.12884317854307792 0.917035728915119
0.5089746 0.13453314937555394 0.9163568389523803
0.5109745 0.1406656507862643 0.9156612444861265
0.5129744 0.14634278770893752 0.9152208573170093
0.5149743 0.15134091066489413 0.913987593123483
0.5169742 0.15722119223525333 0.912311398047087
0.5189741 0.16282229254186031 0.9110478110087085
0.520974 0.1692938995302835 0.9096684746078483
0.5229739 0.1758961373199834 0.9079281561152173
0.5249738 0.1816296720007466 0.9067122339070421
0.5269737 0.18846660554157368 0.9052815991580837
0.5289736 0.1946924291683258 0.9026414826846035
0.5309735 0.20143964951249999 0.9008005084990099
0.5329734 0.20830670630286055 0.8986093444374665
0.5349733 0.21521488383750417 0.8960061001829349
0.5369732 0.22223812725126157 0.8938631602829036
0.5389731 0.22954011843371835 0.8912948522041138
0.540973 0.23644508392954958 0.8884763491255945
0.5429729 0.24372440345262159 0.8862569894422161
0.5449728 0.25114722536386 0.8838902006863478
0.5469727 0.25837533228117276 0.8817963531648568
0.5489726 0.2655188268140593 0.8792859190485038
0.5509725 0.27261696219563825 0.8773569407698857
0.5529724 0.2801209833874963 0.8755010538689634
0.5549723 0.28743729679715185 0.8733539359420128
0.5569722 0.29412565224965337 0.8714602198907397
0.5589721 0.3016139257427066 0.8697099884357082
0.560972 0.3086118547139592 0.8682760224755821
0.5629719 0.31554002242172446 0.8664905596745668
0.5649718 0.32268069824844325 0.8647578520729167
0.5669717 0.329362086297265 0.8631032456905514
0.5689716 0.3356812619609518 0.8616523835770191
0.5709715 0.3417294525038387 0.8593953482067368
0.5729714 0.3478172054805356 0.857418307704751
0.5749713 0.35399040078735955 0.8552943154360588
0.5769712 0.36009874857557445 0.8531631214181131
0.5789711 0.3660794730325887 0.8511993046154129
0.580971 0.37205057088250204 0.8490161523165467
0.5829709 0.37728233604821293 0.846765571929116
0.5849708 0.38303292180684767 0.8443551859912999
0.5869707 0.3887421960255638 0.8417449153229002
0.5889706 0.3949501258297 0.8381877703884931
0.5909705 0.40020898014816547 0.8351310582526905
0.5929704 0.4062156687218398 0.831521589729065
0.5949703 0.4121605829658299 0.8279978893495148
0.5969702 0.41770238196543363 0.8246646611778001
0.5989701 0.42355507584904056 0.8212751607558271
0.60097 0.42931829550856887 0.8173838112244737
0.6029699 0.4355084789262141 0.8132640660503816
0.6049698 0.441349920582597 0.8096666953938605
0.6069697 0.4471659569466348 0.8052986430701065
0.6089696 0.4539003121671116 0.8017911100313138
0.6109695 0.46007721643968713 0.7977680723840312
0.6129694 0.46656451620744255 0.7934483865359773
0.6149693 0.4729507876392392 0.7896968538980965
0.6169692 0.47971088406890006 0.7857399323250873
0.6189691 0.48621389757723504 0.7819759425866646
0.620969 0.4930150691988429 0.7780163065945653
0.6229689 0.4993834310981678 0.7741523593941115
0.6249688 0.5059246224931844 0.7705215399306423
0.6269687 0.5126850367466798 0.7665842671242588
0.6289686 0.5190123508994404 0.7631106556567082
0.6309685 0.5256406644592724 0.7598340028573781
0.6329684 0.5313182848298119 0.7562568701175066
0.6349683 0.5375910168786906 0.7524110322063055
0.6369682 0.543055989543751 0.7488886807350768
0.6389681 0.5492650435255285 0.7451870880159559
0.640968 0.5556400254267869 0.7418873687018627
0.6429679 0.5609193700862823 0.7384593385503049
0.6449678 0.5662769185166152 0.7348204934916222
0.6469677 0.571711347674935 0.7314285592715258
0.6489676 0.5772177081779977 0.7275957275194637
0.6509675 0.5821884926215815 0.723694994568034
0.6529674 0.5869357419812681 0.7198042136426369
0.6549673 0.5921608337183417 0.715770234619019
0.6569672 0.5970776712383452 0.7118211263076022
0.6589671 0.6016236813936273 0.7074987134905153
0.660967 0.6062817468985398 0.7031199610357102
0.6629669 0.610882909449217 0.6980480785783179
0.6649668 0.615057863743242 0.6933378848990206
0.6669667 0.6198937959088991 0.6880148752846112
0.6689666 0.6245223984570857 0.6828865405313467
0.6709665 0.629482103749431 0.6772171311810556
0.6729664 0.63373013271678 0.6720532052098421
0.6749663 0.6387992335158715 0.6664285440632307
0.6769662 0.6435699269993753 0.6602810016121639
0.6789661 0.6485445289503131 0.6544106478233258
0.680966 0.653212965721359 0.6484832957608107
0.6829659 0.6585563247797377 0.6427688296370061
0.6849658 0.6638559526594003 0.6369187027126556
0.6869657 0.6691684385575936 0.6311068023407949
0.6889656 0.6749395732223851 0.6255635771480644
0.6909655 0.6799948762139107 0.6197396546192624
0.6929654 0.6853210284753883 0.6138577538381222
0.6949653 0.6905427951233031 0.6083045597753065
0.6969652 0.6961519308316476 0.6022107468875337
0.6989651 0.7016336839938468 0.5969055908983113
0.700965 0.7068632913164958 0.5914418258192775
0.7029649 0.7117137531369374 0.586045850224131
0.7049648 0.7170160672466641 0.5807102997152296
0.7069647 0.7219028104496665 0.5754895359966559
0.7089646 0.72732285519533 0.5701863197898519
0.7109645 0.7323556924104955 0.5650849640649801
0.7129644 0.73649553695436 0.5601669423954494
0.7149643 0.7411836044065141 0.55531495776945
0.7169642 0.7453530045846625 0.550243090835316
0.7189641 0.749627127709817 0.5449895325178171
0.720964 0.7536232176878565 0.5395712932878305
0.7229639 0.7578329289269637 0.5341354050512142
0.7249638 0.7618679976073739 0.5287607264050785
0.7269637 0.7659332437497531 0.5238357266540095
0.7289636 0.7691691798483362 0.5178525265003646
0.7309635 0.7732148048195112 0.5122399744052059
0.7329634 0.7766212349871692 0.5067474038106413
0.7349633 0.7798619571332064 0.5006374140853366
0.7369632 0.7834023840739537 0.494559363152044
0.7389631 0.7861852125025118 0.488625902823976
0.740963 0.7892068317619875 0.482311929931497
0.7429629 0.7926375621042107 0.47635571569006463
0.7449628 0.7959003508198496 0.4694511258088396
0.7469627 0.7991249816286956 0.4625292230757735
0.7489626 0.8024923624739685 0.455985496250719
0.7509625 0.806005785599141 0.4492957555314586
0.7529624 0.8089526857292698 0.44278616027538276
0.7549623 0.8126041373955539 0.435845236090287
0.7569622 0.8164123896743651 0.42897560962928516
0.7589621 0.8195679764625544 0.42179156320720274
0.760962 0.8232321804095294 0.4146362266741457
0.7629619 0.8269649440525633 0.4080209727426018
0.7649618 0.8303421868318741 0.40103521091096955
0.7669617 0.8338247894117882 0.39371932236620844
0.7689616 0.8375794964564995 0.3867556200857946
0.7709615 0.8406902094000469 0.37996813974089
0.7729614 0.8441614293985322 0.3725117064529787
0.7749613 0.8472913835363933 0.3663161991868583
0.7769612 0.8507822739446659 0.35935940292537816
0.7789611 0.8541296896238831 0.3528141556887219
0.780961 0.8572188450178665 0.3459751282262129
0.7829609 0.8602421647229784 0.339511981189314
0.7849608 0.8628830697006481 0.33279348217249927
0.7869607 0.865700091054461 0.32638744857653124
0.7889606 0.8681214042285932 0.31980144255792964
0.7909605 0.8707612917225269 0.31320283513004044
0.7929604 0.8732892478427077 0.3069271708225297
0.7949603 0.8761307574048763 0.30034647869625986
0.7969602 0.8778826057662258 0.2939761826434158
0.7989601 0.8801613582057194 0.28725356963404053
0.80096 0.8829550800208261 0.2805720296974119
0.8029599 0.8849388329408009 0.2737408667317843
0.8049598 0.8861901280395932 0.26701105410949577
0.8069597 0.8882074861979802 0.2605839965111939
0.8089596 0.8894875163298378 0.2530142667630455
0.8109595 0.8914390322539283 0.24630111659524134
0.8129594 0.8930784571323352 0.23913153834888484
0.8149593 0.8943569912063299 0.23214798400783387
0.8169592 0.8957782931239273 0.2249506014895306
