! Created with skrf 1.8.0 (http://scikit-rf.org).
# GHz S RI R 50.0 
!freq ReS11 ImS11
0.001 -0.8241523639144614 0.5862333271322485
0.0029999 0.9976276820343699 -0.012944806772045458
0.0049998 0.9912367857939273 -0.020950400191969143
0.0069997 0.9866182198580327 -0.02867397839612021
0.0089996 0.9870949346897174 -0.03758421440706655
0.0109995 0.9865374540211667 -0.044511363872589915
0.0129994 0.9852415623066136 -0.05234025562769451
0.0149993 0.9849250030867032 -0.05941270738076865
0.0169992 0.9842056868395204 -0.0677654821970618
0.0189991 0.9834015526632568 -0.0745642463926508
0.020999 0.9820528651873774 -0.08234241110306839
0.0229989 0.9815318360422973 -0.09035790399066423
0.0249988 0.9808766709062432 -0.09739256965489212
0.0269987 0.9800964647249507 -0.10522743190373007
0.0289986 0.9791248527299834 -0.11330043554152826
0.0309985 0.9782940687524057 -0.12173104107912543
0.0329984 0.976434805376033 -0.12812795783276335
0.0349983 0.9753815337498848 -0.13636031365063672
0.0369982 0.9753495435176429 -0.14400919362010436
0.0389981 0.9742637222907925 -0.15054585220829708
0.040998 0.9730732936074501 -0.1576613167816575
0.0429979 0.9718053204963351 -0.16507057366876643
0.0449978 0.9712051654274616 -0.17262314970747217
0.0469977 0.9696582970973469 -0.179960202342745
0.0489976 0.9681269948003466 -0.18761650662832619
0.0509975 0.9669162109082605 -0.1947489554897771
0.0529974 0.96565186254775 -0.20121768737664153
0.0549973 0.9637490383822058 -0.20906790852523766
0.0569972 0.9620722923277067 -0.21581589207470703
0.0589971 0.9601232677153289 -0.22279489867794441
0.060997 0.9582975949279406 -0.22992889385873155
0.0629969 0.9563600688247338 -0.23679641229174142
0.0649968 0.9546572281923345 -0.24376994581649392
0.0669967 0.9522955221082873 -0.2503921903525437
0.0689966 0.9499743825257988 -0.2578090087326874
0.0709965 0.9479244541273204 -0.2646524463920408
0.0729964 0.9454637580864885 -0.27173353946801093
0.0749963 0.9429684430703892 -0.2786965119959536
0.0769962 0.9402331782623369 -0.2857800226258314
0.0789961 0.9373447886991115 -0.29273100142222264
0.080996 0.9350468781796126 -0.3003089580309938
0.0829959 0.9324367513948247 -0.3072953146030987
0.0849958 0.9295428487720602 -0.31459840095806973
0.0869957 0.9268534433394411 -0.3218178833111059
0.0889956 0.9243735855478752 -0.3286271449916162
0.0909955 0.9218859309127916 -0.3363201678891563
0.0929954 0.9187417265520766 -0.34277725005159765
0.0949953 0.9157542962696062 -0.35089913260553784
0.0969952 0.9131087351682861 -0.3579865886987213
0.0989951 0.910657488928058 -0.3642359539357304
0.100995 0.9058459084970072 -0.37219953646963677
0.1029949 0.9032422861165074 -0.37940838278573785
0.1049948 0.9006550232452329 -0.38693340078553856
0.1069947 0.8973424571400717 -0.3941273749629128
0.1089946 0.8945255978705173 -0.40089615234421044
0.1109945 0.8919950587384564 -0.40797350766020163
0.1129944 0.8893506818330404 -0.4155573761565831
0.1149943 0.8864465614611317 -0.4217635007523013
0.1169942 0.8827840451042065 -0.4283627945817894
0.1189941 0.8801182253497312 -0.4355648151943864
0.120994 0.8773719362055519 -0.44140190346524355
0.1229939 0.8737200757720414 -0.4485122844839444
0.1249938 0.8707883591412522 -0.4549854173358159
0.1269937 0.867117031086219 -0.4607964602553304
0.1289936 0.8641318293269314 -0.4675914058052286
0.1309935 0.8609109858790226 -0.47354604267833783
0.1329934 0.8570067583790306 -0.479611576289494
0.1349933 0.8537509966670978 -0.48575975481055417
0.1369932 0.8498763544841528 -0.49195443635684044
0.1389931 0.8463237164381978 -0.4977179198569548
0.140993 0.8423318650322915 -0.5036346769973759
0.1429929 0.8381657739729875 -0.5094367886199922
0.1449928 0.8341500249881921 -0.5153149711112578
0.1469927 0.8298685339929714 -0.5214299237046387
0.1489926 0.8258782105353208 -0.5272782229097678
0.1509925 0.8212522146256338 -0.5331812883573585
0.1529924 0.8170266655436655 -0.5390639836733582
0.1549923 0.8128496759090544 -0.5448847979265298
0.1569922 0.8081856324418402 -0.5508483810558829
0.1589921 0.8033122846627967 -0.5568164809679002
0.160992 0.7990668026809276 -0.5630928282195443
0.1629919 0.7945600157350807 -0.5688307569163116
0.1649918 0.7901824533869191 -0.5742848320983563
0.1669917 0.7852317447788243 -0.5804114825579558
0.1689916 0.7805367052813156 -0.5859830636904813
0.1709915 0.7756427486337373 -0.5919571862383318
0.1729914 0.7712619340588716 -0.5978941186107796
0.1749913 0.7666758429952715 -0.6036749557952386
0.1769912 0.7618135279950367 -0.6095089420108195
0.1789911 0.7569288051959295 -0.6152447369092588
0.180991 0.7518875702010612 -0.6206809032106897
0.1829909 0.7473716313935933 -0.6267100005997608
0.1849908 0.7427424295663005 -0.6326238707411105
0.1869907 0.7379839277859692 -0.6379623312310125
0.1889906 0.7325549072254445 -0.6434937701796408
0.1909905 0.7280943491428171 -0.6487087854052304
0.1929904 0.7230989827562799 -0.6542521780662983
0.1949903 0.718236600254893 -0.6597188929652835
0.1969902 0.713087871452047 -0.6643260837694304
0.1989901 0.7081289351680429 -0.6701100076831852
0.20099 0.7031233570960005 -0.6752392661932137
0.2029899 0.6982578278383109 -0.6801642908538468
0.2049898 0.6927177651586661 -0.6853030390608928
0.2069897 0.688152403551697 -0.6902216873750896
0.2089896 0.6825258387052066 -0.6949495814438558
0.2109895 0.6775271656639937 -0.6998669298988927
0.2129894 0.6723389636425922 -0.7045663304226798
0.2149893 0.667094956372009 -0.7092213496441149
0.2169892 0.6620016004575168 -0.7139944470204969
0.2189891 0.6564339001933758 -0.7185506066296481
0.220989 0.6511561420682775 -0.7232724117175648
0.2229889 0.6457469075651512 -0.7275913201211381
0.2249888 0.6400974405508847 -0.7316727093723818
0.2269887 0.6346779319554178 -0.7359150844977899
0.2289886 0.6294205254960811 -0.7406102330376044
0.2309885 0.6234602478712655 -0.7449276053279811
0.2329884 0.6179718187036156 -0.7494584624923073
0.2349883 0.61245299831736 -0.7534761876941147
0.2369882 0.6069249801696777 -0.7575762848154474
0.2389881 0.6009246105056536 -0.761531542371362
0.240988 0.5955560721902141 -0.7657769062530921
0.2429879 0.5893919491602303 -0.7694652897447307
0.2449878 0.5840762412191438 -0.7732485862068558
0.2469877 0.5780841805265993 -0.7776492420128498
0.2489876 0.5724259448107695 -0.7813696880523121
0.2509875 0.5657808632913851 -0.7847996588061787
0.2529874 0.5601494956721735 -0.7888253879593535
0.2549873 0.5537565442157919 -0.7923652467171887
0.2569872 0.5473831091451236 -0.7956741319530116
0.2589871 0.5416266192756558 -0.7995703602707466
0.260987 0.5353456989054783 -0.8034288284285435
0.2629869 0.5287318501411302 -0.8070274344713516
0.2649868 0.522464494162443 -0.8106399028742066
0.2669867 0.5161241159631618 -0.8142183205392779
0.2689866 0.5098021396602312 -0.8177808924578426
0.2709865 0.5029453662653696 -0.8209768113758034
0.2729864 0.4962872998626553 -0.8247340918325812
0.2749863 0.4899548857937399 -0.8283421474477359
0.2769862 0.4830283545227815 -0.831782511014374
0.2789861 0.47672627250032773 -0.8353928153425401
0.280986 0.4702003889080001 -0.8390357058249192
0.2829859 0.4634154886361119 -0.8427071569868693
0.2849858 0.4569799968030699 -0.8460666573991702
0.2869857 0.4505787266047443 -0.8496917389106924
0.2889856 0.44417340559466156 -0.8537107710453948
0.2909855 0.43773944869887416 -0.8573165441182681
0.2929854 0.4317451871399358 -0.8604517613534146
0.2949853 0.425452030492155 -0.8642997089356921
0.2969852 0.41938074630208105 -0.8673517060946896
0.2989851 0.41334424991644664 -0.8710144949793568
0.300985 0.4075206499957368 -0.8743559885627474
0.3029849 0.40158874520589805 -0.8775495272018685
0.3049848 0.3957731820511584 -0.8805028450430652
0.3069847 0.390450556075876 -0.8838310677999585
0.3089846 0.3847848450180145 -0.8868708538810643
0.3109845 0.3793492992848584 -0.8889975962914594
0.3129844 0.37307028960692323 -0.8922421687146719
0.3149843 0.3673628560792228 -0.8947745005107341
0.3169842 0.36162719124214154 -0.8972390364870215
0.3189841 0.3558812201026238 -0.8990276345528029
0.320984 0.3502819886016624 -0.9016827365349394
0.3229839 0.3446504302913739 -0.9039862912948404
0.3249838 0.3384685815272235 -0.9063425351070501
0.3269837 0.3325142817059122 -0.9081638144328009
0.3289836 0.32659937092016156 -0.9102963104134637
0.3309835 0.3207611996343812 -0.9118986341647598
0.3329834 0.3149356706806099 -0.9136837571058366
0.3349833 0.30799315532266147 -0.914609321546739
0.3369832 0.30201166671805413 -0.91544501303064
0.3389831 0.29534357916813153 -0.9168016923181053
0.340983 0.2887864773467909 -0.9169186395498852
0.3429829 0.28187127012752977 -0.9176713006436579
0.3449828 0.27550828409751543 -0.9179892284831245
0.3469827 0.2685037549510389 -0.9192348630192718
0.3489826 0.26108270651363474 -0.9197414974210356
0.3509825 0.2546815637189649 -0.920249314731328
0.3529824 0.24687940767423958 -0.920661653814691
0.3549823 0.2395911575910573 -0.9212349299322141
0.3569822 0.2320755661449568 -0.9228521923928634
0.3589821 0.22454899331022773 -0.9238206003187911
0.360982 0.2168980025212414 -0.9250550091303382
0.3629819 0.20961449627890175 -0.9263375922545292
0.3649818 0.2019814659802137 -0.9280005477693559
0.3669817 0.19528139060396002 -0.9295793321454463
0.3689816 0.18813848469473737 -0.9308541155108638
0.3709815 0.18139484102433473 -0.9317809037651811
0.3729814 0.1742547175151502 -0.9334752182826019
0.3749813 0.1673602406955784 -0.9350773921797135
0.3769812 0.16043231042871042 -0.9369674862104036
0.3789811 0.15364921310892277 -0.9381770755047808
0.380981 0.1471033848607165 -0.9399940391475288
0.3829809 0.14071512350898596 -0.9411292279942479
0.3849808 0.1343617618912815 -0.9428880911860396
0.3869807 0.12789679505461846 -0.9440985047171604
0.3889806 0.12187775504644704 -0.9451997426592568
0.3909805 0.11546331601272931 -0.9464305635432342
0.3929804 0.10999912992459125 -0.9472732931206019
0.3949803 0.10380652260395457 -0.9480255193741114
0.3969802 0.09778972134772751 -0.9486885838973612
0.3989801 0.09177734779276055 -0.9489411882286618
0.40098 0.08609434873670019 -0.9494370417367574
0.4029799 0.08036794172071718 -0.9493392140510591
0.4049798 0.07433673340595255 -0.9496530292870626
0.4069797 0.0686625365413472 -0.949264306542111
0.4089796 0.06247615044124996 -0.9491087310884402
0.4109795 0.0562110817456044 -0.9487349094174935
0.4129794 0.0504675930059445 -0.9475572816744057
0.4149793 0.04437069184619472 -0.947061124521664
0.4169792 0.038034754154568765 -0.946230187354728
0.4189791 0.0313812381652171 -0.9453802084954296
0.420979 0.024527509110304768 -0.9446012145959987
0.4229789 0.01765464033028767 -0.943905481541961
0.4249788 0.010981092528144203 -0.9436593605028538
0.4269787 0.004584883351042669 -0.9426297951209491
0.4289786 -0.00283756340270974 -0.9418400496938948
0.4309785 -0.009984269537552973 -0.9415594563389811
0.4329784 -0.017092341117378652 -0.940855364686748
0.4349783 -0.022966921404825088 -0.9407385329737464
0.4369782 -0.03053988200667202 -0.9402606021294521
0.4389781 -0.037739081626193535 -0.9398200476688353
0.440978 -0.04422696432802208 -0.9393548002590493
0.4429779 -0.05135914045883719 -0.9391764117963708
0.4449778 -0.05849529040011857 -0.9391106149885106
0.4469777 -0.0652123523147996 -0.9386483411253106
0.4489776 -0.07189581332789385 -0.9386062415983298
0.4509775 -0.07854061654237063 -0.9385797998126951
0.4529774 -0.08512603928590654 -0.9384955822402352
0.4549773 -0.09129844444280846 -0.9382035897895409
0.4569772 -0.09749536190757445 -0.937995475970122
0.4589771 -0.10342616238174415 -0.9378844225646404
0.460977 -0.10914402877962633 -0.9374024069310325
0.4629769 -0.11547397546327227 -0.9372862738095946
0.4649768 -0.12029799536612511 -0.9365451985162291
0.4669767 -0.12627473787325644 -0.9358604326553182
0.4689766 -0.13172295938297818 -0.9348142465421749
0.4709765 -0.13709436776106027 -0.9338139597194746
0.4729764 -0.14223901164679792 -0.9327556678555176
0.4749763 -0.14770237830264427 -0.931843031933326
0.4769762 -0.1527955875687123 -0.9302987362613014
0.4789761 -0.15817110379741095 -0.9283491298266529
0.480976 -0.16346749638564717 -0.9267452657384421
0.4829759 -0.16923054802105045 -0.9249546666303122
0.4849758 -0.1749240070552653 -0.9227898902607893
0.4869757 -0.18018324296960103 -0.9204512895555572
0.4889756 -0.18604624830552907 -0.9183877553858903
0.4909755 -0.19174357905012146 -0.9155710363836758
0.4929754 -0.1978877603610555 -0.9131955990772938
0.4949753 -0.20436642434640984 -0.9108628184812313
0.4969752 -0.21011254557716563 -0.9081849217735959
0.4989751 -0.21683670363327606 -0.9061221204506471
0.500975 -0.22266919507353958 -0.9035013737324978
0.5029749 -0.22948943800502092 -0.9013973514973395
0.5049748 -0.23593263345392085 -0.8988055640324641
0.5069747 -0.24269152707846675 -0.8972876447391674
0.5089746 -0.24886064815062325 -0.8950867349925509
0.5109745 -0.2547996495992094 -0.8926110869331243
0.5129744 -0.26132552406875054 -0.8906442494247553
0.5149743 -0.2680832459739893 -0.8881199409779822
0.5169742 -0.27438535032103406 -0.8863538464843679
0.5189741 -0.28092425421280537 -0.8848611238237349
0.520974 -0.2870271890531747 -0.8831713653971588
0.5229739 -0.2929842417913613 -0.8819844491270484
0.5249738 -0.29922026270982593 -0.8800447634365534
0.5269737 -0.30529709699686336 -0.8785382415832378
0.5289736 -0.3113740039584231 -0.8768298045741887
0.5309735 -0.31726106355980693 -0.875688220731301
0.5329734 -0.3225825307783994 -0.8734552902847672
0.5349733 -0.3281741372367345 -0.8720939303972984
0.5369732 -0.33369929754142597 -0.8701427568445388
0.5389731 -0.33893769583864963 -0.8685988074549351
0.540973 -0.3440809016302057 -0.8663784580430706
0.5429729 -0.34873464951198824 -0.8641964464187214
0.5449728 -0.35389569904498036 -0.8625810247992889
0.5469727 -0.35896404181249697 -0.8601896013069767
0.5489726 -0.3632774601746061 -0.857708748366651
0.5509725 -0.36827174289689046 -0.8550852484221845
0.5529724 -0.3733568577213781 -0.8526023443556895
0.5549723 -0.378522629746522 -0.8504922321041684
0.5569722 -0.38286446094065996 -0.8473245034815429
0.5589721 -0.3872465534302172 -0.8440069202527546
0.560972 -0.3924497699167164 -0.8403549185641414
0.5629719 -0.39707258829773984 -0.8373003530022894
0.5649718 -0.4021335818590811 -0.833999209503838
0.5669717 -0.40660237809690136 -0.8304581379048448
0.5689716 -0.41198262226802257 -0.8270067796717343
0.5709715 -0.4174733163851694 -0.823426631943539
0.5729714 -0.422425503749408 -0.819930009010071
0.5749713 -0.4276692363446908 -0.8161969671290192
0.5769712 -0.4327750685852426 -0.8131348470686519
0.5789711 -0.4382008627127785 -0.8096693882990238
0.580971 -0.4440808791780588 -0.805346196606887
0.5829709 -0.4493715431486541 -0.8025295609541826
0.5849708 -0.4554800776820621 -0.7989311198719242
0.5869707 -0.46112121585493354 -0.7957840312385133
0.5889706 -0.4664203420094507 -0.7926557360880488
0.5909705 -0.47192021634365394 -0.7899436996614597
0.5929704 -0.47726951349501406 -0.7869804330894089
0.5949703 -0.4826374929464299 -0.7837183838962163
0.5969702 -0.4877227329593342 -0.7808604216680997
0.5989701 -0.49324147670167046 -0.7776782544705494
0.60097 -0.4983532053185174 -0.774782939032371
0.6029699 -0.5031039143442689 -0.7720838372169742
0.6049698 -0.5076897355868563 -0.7689517919051757
0.6069697 -0.5125632906418526 -0.7659238748108931
0.6089696 -0.5171162990728567 -0.763183707145697
0.6109695 -0.5214068075718736 -0.7603317845642379
0.6129694 -0.5251797866882926 -0.7574742989187385
0.6149693 -0.5297156478968056 -0.7543858080788386
0.6169692 -0.5341327787005432 -0.7509117204383672
0.6189691 -0.5378464951550932 -0.7479853119982398
0.620969 -0.5417214364136236 -0.7443885574556904
0.6229689 -0.5460141457598781 -0.7408590956530092
0.6249688 -0.5494233186298683 -0.7369412180575424
0.6269687 -0.5535607568378842 -0.7334837125733717
0.6289686 -0.5575898283713852 -0.7292934355845409
0.6309685 -0.5611901200157638 -0.7247615414956432
0.6329684 -0.5650570577100975 -0.7207114983756455
0.6349683 -0.5694393008944644 -0.7159878217877507
0.6369682 -0.5732221024420819 -0.7121878871504633
0.6389681 -0.5772512286607372 -0.7080618124295069
0.640968 -0.5812019147011593 -0.7033639125412264
0.6429679 -0.5853995370681924 -0.6988519968223679
0.6449678 -0.589760832487214 -0.6944017066396986
0.6469677 -0.5942180733337001 -0.6898484935692069
0.6489676 -0.5987431649355851 -0.6857352232473546
0.6509675 -0.6038726486783016 -0.6812952600745764
0.6529674 -0.6084893660912946 -0.6764415006915898
0.6549673 -0.613217082120334 -0.6723081714516446
0.6569672 -0.6180283264415043 -0.6680810094650043
0.6589671 -0.6224353145782265 -0.6637810906222724
0.660967 -0.6267897750611916 -0.6596080422245123
0.6629669 -0.6316938691129217 -0.6557432541566931
0.6649668 -0.6360126836620495 -0.6517993749834031
0.6669667 -0.64070890327257 -0.6479166676331999
0.6689666 -0.645257408050955 -0.6439806709291795
0.6709665 -0.6491262704955311 -0.6403023156191545
0.6729664 -0.6528400162203233 -0.6362102018055058
0.6749663 -0.6571805221492953 -0.6326587896133586
0.6769662 -0.6609978721200193 -0.6294343310451705
0.6789661 -0.6647169698858344 -0.6257227929545242
0.680966 -0.668529679744847 -0.6219317346854992
0.6829659 -0.6722987825737947 -0.6184208086230231
0.6849658 -0.6755160006839023 -0.6149056182020043
0.6869657 -0.6788337288575331 -0.6112889061153799
0.6889656 -0.6819034205596848 -0.607155516876165
0.6909655 -0.6853261695829883 -0.6037499657518479
0.6929654 -0.6879768155539306 -0.5994993803804719
0.6949653 -0.6911851745857195 -0.5955915796685456
0.6969652 -0.6941327243013667 -0.5913801275542743
0.6989651 -0.6968954473515222 -0.5868284248903093
0.700965 -0.7001656489813409 -0.5828882862958217
0.7029649 -0.7030374442081212 -0.5782419615863399
0.7049648 -0.7053166146935871 -0.573374445122732
0.7069647 -0.7083887618428087 -0.5688573855616009
0.7089646 -0.7102970594114825 -0.5637450400109466
0.7109645 -0.7136022664690933 -0.5588102288536326
0.7129644 -0.7168130441733581 -0.5535432932467694
0.7149643 -0.7196337167656619 -0.5486384812131123
0.7169642 -0.7235168870655974 -0.5434330918442937
0.7189641 -0.726551642660016 -0.5379598174599437
0.720964 -0.7295524317211748 -0.5330916389470512
0.7229639 -0.7329930013017757 -0.5282101901078091
0.7249638 -0.7359772994557342 -0.52317041477988
0.7269637 -0.7393598484230471 -0.5179881808924807
0.7289636 -0.7429359545601051 -0.5131547660913958
0.7309635 -0.7462046980404704 -0.5080595868636503
0.7329634 -0.7495116954400088 -0.5032579602693638
0.7349633 -0.7531592424197769 -0.4982320828260277
0.7369632 -0.7567151807815038 -0.49342995811568235
0.7389631 -0.759868167887734 -0.48874033633864505
0.740963 -0.7628435659431635 -0.48429323448813927
0.7429629 -0.7657141498370245 -0.47967082615364787
0.7449628 -0.7688256627817761 -0.47521609384872865
0.7469627 -0.7720137977435195 -0.4707803868749035
0.7489626 -0.774648692204342 -0.4660888223508152
0.7509625 -0.7776540612950271 -0.46171721222614454
0.7529624 -0.7806821626935146 -0.4576161109280071
0.7549623 -0.7831720876219794 -0.4531609051016269
0.7569622 -0.7857422489452032 -0.44882923595747937
0.7589621 -0.7884659085741779 -0.44434526325812784
0.760962 -0.7906097454506171 -0.4400907114073592
0.7629619 -0.7927987672468979 -0.4356955928018262
0.7649618 -0.7950116040755261 -0.431045846959792
0.7669617 -0.7974160327828252 -0.42650867388761243
0.7689616 -0.799543988700081 -0.4217899332134101
0.7709615 -0.8013494904314032 -0.4173105103457214
0.7729614 -0.8035226146609632 -0.4123155971915662
0.7749613 -0.8046311292470542 -0.4072183839743002
0.7769612 -0.8060515825753751 -0.40247341141543114
0.7789611 -0.8080769132424591 -0.3967854513976743
0.780961 -0.8098882562793848 -0.3920584808261448
0.7829609 -0.8117384942338814 -0.38665282149980446
0.7849608 -0.8132718728832917 -0.38130627620882435
0.7869607 -0.8153468054631833 -0.37586734007332284
0.7889606 -0.8175608627909515 -0.3704647305338471
0.7909605 -0.8191281821114835 -0.3652022718449081
0.7929604 -0.8213285325814266 -0.35981994342522605
0.7949603 -0.8234793285415467 -0.35443442085774096
0.7969602 -0.8256216407866852 -0.3487926524294909
0.7989601 -0.8275498845711944 -0.3433575942416015
0.80096 -0.8295950886777028 -0.33806710520311983
