! Created with skrf 1.8.0 (http://scikit-rf.org).
# GHz S RI R 50.0 
!freq ReS11 ImS11
0.001 -0.8753893075215319 0.04739125424556245
0.0029999 -0.9325077331752416 0.019416369361561325
0.0049998 -0.9468839063367562 0.02339316134124536
0.0069997 -0.9440515713430464 0.029784296242924002
0.0089996 -0.9420271061423646 0.03653006025536615
0.0109995 -0.942048332089578 0.04445692548937108
0.0129994 -0.9418242954582117 0.05179606859710484
0.0149993 -0.941686549136153 0.05974706800301721
0.0169992 -0.9405414993498953 0.06721045880655396
0.0189991 -0.9405882592101473 0.07367869168892538
0.020999 -0.9397737518255467 0.08084136286924681
0.0229989 -0.9387789049680737 0.08797558245231013
0.0249988 -0.9376217021065354 0.09512250678310566
0.0269987 -0.9364184654694585 0.10239379798256436
0.0289986 -0.9353253033733493 0.10957815269258954
0.0309985 -0.9339767663625302 0.11654264921507823
0.0329984 -0.9328748301086529 0.12395508134068678
0.0349983 -0.9313728588915746 0.1311130323254583
0.0369982 -0.9299159661850676 0.13795518379113036
0.0389981 -0.9284195787252245 0.14522355078166105
0.040998 -0.9269603825414066 0.15236254397034216
0.0429979 -0.9249653102003782 0.15943247692012974
0.0449978 -0.9231023282516362 0.1662549455082662
0.0469977 -0.9219405922299502 0.17348487977650728
0.0489976 -0.9191354008629714 0.1808535933706727
0.0509975 -0.9173560772340912 0.1876818424898471
0.0529974 -0.9155521313321834 0.19548451957097296
0.0549973 -0.9129761975962399 0.20303819405289852
0.0569972 -0.9114057710809776 0.20984144819658995
0.0589971 -0.9097023955526577 0.2172614092176231
0.060997 -0.9077890205541731 0.22471380305917332
0.0629969 -0.9057240968643897 0.2316701584011509
0.0649968 -0.9032939254442447 0.23871981301518894
0.0669967 -0.902184253465861 0.24654338200018658
0.0689966 -0.9000199987632744 0.2528824764472466
0.0709965 -0.8981035377081845 0.2605171482349735
0.0729964 -0.8954623340551164 0.2676689493838728
0.0749963 -0.8937017071238267 0.27414238338008745
0.0769962 -0.8921730940670691 0.2815357648565352
0.0789961 -0.8899067148070591 0.287682150955493
0.080996 -0.8875550636652229 0.29499534416960715
0.0829959 -0.8850659427159944 0.3017969531685687
0.0849958 -0.8832054782877747 0.30808111880849054
0.0869957 -0.8810774760356189 0.3149146076643302
0.0889956 -0.8787555594290166 0.3212222812316509
0.0909955 -0.8762862084980156 0.32735726962986417
0.0929954 -0.873376771689378 0.33364850614374886
0.0949953 -0.8705513711246283 0.3403199782416867
0.0969952 -0.8680079966382425 0.34645896850716584
0.0989951 -0.864731650727409 0.35299289988019467
0.100995 -0.8632162088485386 0.3600325941350303
0.1029949 -0.8604290764525282 0.36640831782798433
0.1049948 -0.8573135703579138 0.37241373935849154
0.1069947 -0.8539518146431581 0.3781200189280908
0.1089946 -0.8506671072508698 0.38435679852675203
0.1109945 -0.8472854302319274 0.39056806549472833
0.1129944 -0.8438990282853003 0.39650576945258587
0.1149943 -0.8401217382863134 0.4026698493246469
0.1169942 -0.8365897551424097 0.4090294561637249
0.1189941 -0.8326776344156799 0.41508742469104837
0.120994 -0.829068612665495 0.4214443534760564
0.1229939 -0.8251380565416739 0.4279394322061496
0.1249938 -0.8215882066497461 0.434428735596135
0.1269937 -0.8177566053724168 0.44043967010980056
0.1289936 -0.814272741026614 0.44731643170078605
0.1309935 -0.8101745785039149 0.45321706311886323
0.1329934 -0.8062120601003073 0.46006247799738353
0.1349933 -0.802351598189349 0.46606173382700133
0.1369932 -0.7986322133127726 0.4720752379387281
0.1389931 -0.7945102085458262 0.47860045169014
0.140993 -0.7907311503123684 0.48465102176090324
0.1429929 -0.7864880231704143 0.4912010664330386
0.1449928 -0.783267796964138 0.49799446836496863
0.1469927 -0.7791620390027437 0.5038590532227335
0.1489926 -0.775174797743535 0.5102555654865564
0.1509925 -0.7710155403851859 0.5158553046476521
0.1529924 -0.7671597815516985 0.5221301569886041
0.1549923 -0.7637432191673783 0.5283444491661509
0.1569922 -0.7594277306626603 0.5340515884666777
0.1589921 -0.7555803797554647 0.5400596848487397
0.160992 -0.751477260550821 0.5458660396976908
0.1629919 -0.7471379797484603 0.5516072552791393
0.1649918 -0.7432901649980735 0.5571396858256696
0.1669917 -0.7390177450541919 0.5624476156347002
0.1689916 -0.7346995380401972 0.5682068937608112
0.1709915 -0.7305317355750087 0.5736026419343528
0.1729914 -0.7259485530700572 0.5790226104505205
0.1749913 -0.7213889353980589 0.5843826943295117
0.1769912 -0.7173431917418976 0.5899389119828502
0.1789911 -0.712613724589516 0.594741880426114
0.180991 -0.7080506098610418 0.6001293973463042
0.1829909 -0.7032469597217575 0.6053509237431361
0.1849908 -0.698676901784767 0.6106249140549761
0.1869907 -0.6937746455871372 0.6155596279763182
0.1889906 -0.6888188733489491 0.6210022933870409
0.1909905 -0.6836529348663226 0.6260892489674187
0.1929904 -0.678674942567504 0.6311382480581786
0.1949903 -0.6736231285484 0.6360079152298487
0.1969902 -0.6685113728347982 0.6411239439112718
0.1989901 -0.6631508103360269 0.6462999447135618
0.20099 -0.6579234701206135 0.6515866860181093
0.2029899 -0.6528449221887133 0.6564385482103576
0.2049898 -0.6473499017001627 0.6613667678977199
0.2069897 -0.6423679542539056 0.6662306789438456
0.2089896 -0.6367116228699704 0.671382791973663
0.2109895 -0.6316322702229689 0.6763630338273718
0.2129894 -0.6257721589535712 0.681389074222859
0.2149893 -0.6204531495964655 0.6863356587449873
0.2169892 -0.6146575593565374 0.691426540854497
0.2189891 -0.6094114939286659 0.6962453575125598
0.220989 -0.604160276872704 0.7008952854124617
0.2229889 -0.5981487891783698 0.7053647734249933
0.2249888 -0.5924566935856602 0.7100410533324457
0.2269887 -0.5867372310036525 0.7145165677815158
0.2289886 -0.5812417436016062 0.7190624802013741
0.2309885 -0.575255774555821 0.7242721822752658
0.2329884 -0.5690748908875718 0.7286061557125416
0.2349883 -0.5634245333983662 0.7329742404830495
0.2369882 -0.5576193690374276 0.7375882787904209
0.2389881 -0.5522358456539408 0.7423316939711133
0.240988 -0.5461670522766086 0.7462337335362303
0.2429879 -0.539954048158812 0.7508537845098987
0.2449878 -0.5342130237767846 0.7553404177147737
0.2469877 -0.5283292028858558 0.7595511435466914
0.2489876 -0.5227271346430592 0.7641468459475119
0.2509875 -0.5163259556839288 0.7683229266013711
0.2529874 -0.510773428566764 0.772360840970478
0.2549873 -0.5052163097241583 0.7771106964839088
0.2569872 -0.49941644668024265 0.7812321884759025
0.2589871 -0.49321655137839726 0.7852847506068941
0.260987 -0.4870053719410903 0.789426989553702
0.2629869 -0.4815366255010698 0.7934234844479467
0.2649868 -0.47540603285139343 0.796985479936994
0.2669867 -0.46983484723485963 0.8004366097561924
0.2689866 -0.46350447625406827 0.804133147082419
0.2709865 -0.45743533386214796 0.8079775422086289
0.2729864 -0.45151506718655837 0.8115627984803955
0.2749863 -0.445274931284449 0.8148856467863999
0.2769862 -0.44007700288901985 0.8181319788161642
0.2789861 -0.43345086032114527 0.820997441070642
0.280986 -0.42753961065343343 0.8237396322878208
0.2829859 -0.4211660819019096 0.826711017252171
0.2849858 -0.4148746161382901 0.8297970755354881
0.2869857 -0.40830226269125725 0.8323150868701548
0.2889856 -0.40170426350857913 0.8349895236775815
0.2909855 -0.39522090344372773 0.8374763782054483
0.2929854 -0.38850047830233925 0.8403544295079001
0.2949853 -0.38151304925804197 0.8429135139197772
0.2969852 -0.3747367152879843 0.8450042510971432
0.2989851 -0.3679134818734005 0.8472240894414232
0.300985 -0.3604120035024839 0.8495394128341174
0.3029849 -0.353120764536044 0.8514768466568332
0.3049848 -0.3462786036773293 0.8539905565328945
0.3069847 -0.338620492617656 0.8556562961796668
0.3089846 -0.33044702349002764 0.8579764012122373
0.3109845 -0.32331743662629514 0.8598728589105046
0.3129844 -0.3150188629204358 0.8625858285813721
0.3149843 -0.3077710842195571 0.864906524598998
0.3169842 -0.30008150480327184 0.8671746533784023
0.3189841 -0.29160206920830145 0.8694891748508042
0.320984 -0.2838855882546802 0.8716856218414712
0.3229839 -0.2761121826204608 0.8737441834183697
0.3249838 -0.2686584247666832 0.8760113974354404
0.3269837 -0.260658856662441 0.8780427736686166
0.3289836 -0.2532434683842607 0.8803621774329727
0.3309835 -0.24521035915778558 0.8830018515418867
0.3329834 -0.238468622820348 0.8855405573470119
0.3349833 -0.23064728520974614 0.8886778737837799
0.3369832 -0.22386982394846278 0.8916764067735555
0.3389831 -0.21623129420060816 0.8947409339346182
0.340983 -0.20893085153057062 0.89750768364143
0.3429829 -0.20189927851344125 0.9007728073683191
0.3449828 -0.1946905846774136 0.9032414711318479
0.3469827 -0.18751314250379408 0.9060567998932523
0.3489826 -0.18062407349389237 0.9081138745669948
0.3509825 -0.17354951040560218 0.9105099536938539
0.3529824 -0.16655897635274597 0.9127520249444855
0.3549823 -0.15977023172147053 0.9147838375179045
0.3569822 -0.15306329360560766 0.9164143323372042
0.3589821 -0.14649190844670573 0.9182135470869682
0.360982 -0.139786416234297 0.9194684857552583
0.3629819 -0.13336595457283706 0.9208112618132545
0.3649818 -0.12664010172401316 0.9215361446415079
0.3669817 -0.11958000250091656 0.9219453233746677
0.3689816 -0.11277735260606836 0.9226653475103341
0.3709815 -0.10541611267569911 0.9231650676636608
0.3729814 -0.09844445229540023 0.9234350942113564
0.3749813 -0.09152505511750736 0.9236792644748806
0.3769812 -0.08444851251467722 0.9237860298877494
0.3789811 -0.07701080169471654 0.9238012797682827
0.380981 -0.06965500696039206 0.9239831274438276
0.3829809 -0.06188955676526707 0.9238244488739535
0.3849808 -0.053956255432104014 0.9235746400076529
0.3869807 -0.046332790631850945 0.9231319756529203
0.3889806 -0.038169415808414556 0.9227890670633077
0.3909805 -0.030011675828667927 0.9226180535683308
0.3929804 -0.02160672345235114 0.922400238875182
0.3949803 -0.013031858104418745 0.9221187871521788
0.3969802 -0.005152860342565641 0.9220675294674395
0.3989801 0.003606207893379218 0.9219349243150913
0.40098 0.011883471500986838 0.921807495780479
0.4029799 0.019909724491864993 0.9221705693417852
0.4049798 0.02844221683431941 0.9221178635877858
0.4069797 0.03688846890898939 0.9221866279129614
0.4089796 0.045105148916589406 0.9218512062937171
0.4109795 0.05331829435269242 0.9224172577740961
0.4129794 0.06168314049249163 0.9228010047217909
0.4149793 0.0701215697709631 0.9226782136536635
0.4169792 0.07782867886002123 0.9229640349355411
0.4189791 0.08578011816305946 0.9228632815481289
0.420979 0.09354527702269602 0.9226263666418447
0.4229789 0.10088834590177723 0.922844433179752
0.4249788 0.10887546738362407 0.9229637107554274
0.4269787 0.1158947254463432 0.9225780403578844
0.4289786 0.1231344774241511 0.9222430855212718
0.4309785 0.13031644254763625 0.9216932753146448
0.4329784 0.1375731846718412 0.9210874315143276
0.4349783 0.1453261759359146 0.9193862220104807
0.4369782 0.1516875959625238 0.9181904788357184
0.4389781 0.1591628820708273 0.9173227071175853
0.440978 0.16581172275148537 0.9155960664616656
0.4429779 0.17281854296226234 0.9138900804953781
0.4449778 0.17994620861211977 0.9121960655756343
0.4469777 0.1874351525324646 0.9103014930000868
0.4489776 0.19480936911933572 0.9084330123334824
0.4509775 0.20202238312941273 0.9059454404082163
0.4529774 0.20930593364492703 0.9031342457781752
0.4549773 0.21704596739417303 0.9006697196590239
0.4569772 0.224796683916743 0.8981082276289009
0.4589771 0.23274306577441298 0.8955005938011734
0.460977 0.24077581172937873 0.8928651539754189
0.4629769 0.24900997159971489 0.8904806372699756
0.4649768 0.25722188203574514 0.8877722258645273
0.4669767 0.2653010262524612 0.8847943946313579
0.4689766 0.2735714947576653 0.8822148783934236
0.4709765 0.28161960050646717 0.8798075723086058
0.4729764 0.29006624792035357 0.8771496896955279
0.4749763 0.2984180885715718 0.8748578799386839
0.4769762 0.3064186083847459 0.8720639736630305
0.4789761 0.31484255358121743 0.8696569298688724
0.480976 0.32334013256957594 0.8676828956757797
0.4829759 0.3317827046845733 0.8652518081623604
0.4849758 0.33969076713968194 0.8627304331913185
0.4869757 0.3477610730048346 0.8604356498785741
0.4889756 0.35592686881058755 0.8581157181227015
0.4909755 0.3637732425084337 0.8558226567602508
0.4929754 0.3713780243289122 0.8535117523140692
0.4949753 0.37867692316675305 0.8511621209057653
0.4969752 0.38601394907394976 0.8483795313939755
0.4989751 0.3930621796435788 0.8458604387623486
0.500975 0.3997510526025521 0.8431008607351834
0.5029749 0.40660820116695273 0.8403654147292254
0.5049748 0.4134310399326846 0.8375489633146814
0.5069747 0.42005481545587864 0.8342735556533984
0.5089746 0.42683143880427593 0.8315654439902368
0.5109745 0.433734034511462 0.8284776091626191
0.5129744 0.4404676928812561 0.8247598865820222
0.5149743 0.44623295324798273 0.8213905894974893
0.5169742 0.4527517074887626 0.8170321866025223
0.5189741 0.45910594265134674 0.8131379620616573
0.520974 0.46629786314906874 0.8090492756023016
0.5229739 0.47300265121279417 0.8041426807415714
0.5249738 0.47952347506944465 0.7998419573807389
0.5269737 0.4863868960283388 0.7956385869253991
0.5289736 0.4923298349174091 0.7905849001715098
0.5309735 0.4992255191480092 0.7858612632522635
0.5329734 0.5058745151964015 0.7807512596171883
0.5349733 0.512294445893722 0.7748865564945631
0.5369732 0.5192764471825242 0.7701867464382373
0.5389731 0.5262417625617096 0.7649635361926101
0.540973 0.5328127750310452 0.7595190264201878
0.5429729 0.5401395638833205 0.7543292883853104
0.5449728 0.5474276581662325 0.7492902189873445
0.5469727 0.554415895384281 0.7441250140447638
0.5489726 0.5615062050179854 0.7389746319150291
0.5509725 0.5683900681428669 0.7336653751172111
0.5529724 0.5756597208715805 0.7286192238800838
0.5549723 0.582801386644342 0.7233201888618238
0.5569722 0.5897039806522603 0.7182880422202431
0.5589721 0.5968417719006176 0.7131840530441431
0.560972 0.6039954420577117 0.7084964514363683
0.5629719 0.6104044140927178 0.7035524961288998
0.5649718 0.6175114663087932 0.6982824217738013
0.5669717 0.624008476991098 0.6932880467673005
0.5689716 0.6307226820268658 0.6886605091461611
0.5709715 0.636241167483363 0.6833039510592664
0.5729714 0.6419744448214943 0.6785632227072238
0.5749713 0.6482125796258186 0.6730700252139297
0.5769712 0.6541946380973891 0.6675693497756646
0.5789711 0.6600836558262122 0.6627184886222021
0.580971 0.6659041126515193 0.6574210723592904
0.5829709 0.6711789336950937 0.6520512405208101
0.5849708 0.6766629506443242 0.6463129851686954
0.5869707 0.6818719592443241 0.6409646207576746
0.5889706 0.6870703267155265 0.6348103139853799
0.5909705 0.6923748016189184 0.6283879081497471
0.5929704 0.6977115505657941 0.6219075160089632
0.5949703 0.7025759792997806 0.6155708493667789
0.5969702 0.7080461641689332 0.6093353713780687
0.5989701 0.7130868403743645 0.6027686672109172
0.60097 0.7179319592939218 0.5963408319105712
0.6029699 0.7233107048921734 0.5890960453702825
0.6049698 0.7280316198819726 0.5827764150060504
0.6069697 0.7325066891393288 0.5754705900762148
0.6089696 0.7381831340709262 0.568499409130129
0.6109695 0.7431786380569977 0.5613151564326446
0.6129694 0.7485214559352276 0.5542824939380633
0.6149693 0.754025285030352 0.5473530192371429
0.6169692 0.7592492175924712 0.5399968703224427
0.6189691 0.7640492996133643 0.5329771377286647
0.620969 0.7695489115317939 0.5253057106852514
0.6229689 0.7744870521667558 0.5188406466913248
0.6249688 0.7794261092146786 0.5118202323365733
0.6269687 0.7847615205637878 0.5043665006651338
0.6289686 0.7896804219443553 0.49743758569652075
0.6309685 0.7947379685150865 0.49074340465439603
0.6329684 0.7992697623820991 0.48383862184256754
0.6349683 0.8035785886744199 0.4765998673017855
0.6369682 0.8079816772494286 0.47013673546368084
0.6389681 0.812883914015508 0.46295310255118804
0.640968 0.8173552431865053 0.4558320948558646
0.6429679 0.8216925122902528 0.4492480192391286
0.6449678 0.8257568349398675 0.44212818193876413
0.6469677 0.8296619503352315 0.43517675552763274
0.6489676 0.8334670470124154 0.42810438602990764
0.6509675 0.8371724217519264 0.4210582330333186
0.6529674 0.8406923529275329 0.41417578284489864
0.6549673 0.8442256450059807 0.4069029240002415
0.6569672 0.8475615400303617 0.3997928180365198
0.6589671 0.8509832408121875 0.3919276090892021
0.660967 0.8545095670935741 0.38484777862947817
0.6629669 0.857059462574966 0.3771497992072692
0.6649668 0.8599079008395952 0.36951875294964365
0.6669667 0.8628154833015831 0.36169858963543655
0.6689666 0.8658852001908675 0.35382879032011005
0.6709665 0.8689464930764066 0.3453750251756394
0.6729664 0.8711094316342514 0.3376275033788817
0.6749663 0.8738132876656365 0.3293471126993591
0.6769662 0.8765972163080893 0.3208388066344968
0.6789661 0.8795839251063633 0.3131624639720118
0.680966 0.8820349664683796 0.3043176241159179
0.6829659 0.8846272989688976 0.29622271058276206
0.6849658 0.8872956842811341 0.2875413363365882
0.6869657 0.8900418561386 0.27923212105036915
0.6889656 0.8929280393722034 0.27068155205909744
0.6909655 0.8953311634061993 0.26260330155291095
0.6929654 0.8979859544511833 0.25408282820696704
0.6949653 0.9001312162457501 0.24594767871890785
0.6969652 0.9028734323049613 0.23744538771233847
0.6989651 0.9049592507337886 0.2291511605749296
0.700965 0.907225866541776 0.22087739737693773
0.7029649 0.9092967242878153 0.21283915013889895
0.7049648 0.9116573683648603 0.2046065070338466
0.7069647 0.9133533604320287 0.1964535448719272
0.7089646 0.9157222578124805 0.18840949855855307
0.7109645 0.9176461452162824 0.18000650806948923
0.7129644 0.9192020747271201 0.17211187498609382
0.7149643 0.9206617674168331 0.164166223310937
0.7169642 0.922391993375165 0.15620118488503298
0.7189641 0.9237329835599204 0.14792727650223006
0.720964 0.9249150564951303 0.1395716906982677
0.7229639 0.9258926787522794 0.13149613610144617
0.7249638 0.9270790076003554 0.12316230379400932
0.7269637 0.9284619645786398 0.11533619005410639
0.7289636 0.9290433814987937 0.10680162533618026
0.7309635 0.9299863944403024 0.09882223063743382
0.7329634 0.9310260786594383 0.0900848669793978
0.7349633 0.9314233650167685 0.08191260592103136
0.7369632 0.932183875594667 0.07329912530908239
0.7389631 0.932789699795026 0.06510645172333167
0.740963 0.9328290083405814 0.05653252507490336
0.7429629 0.9333602218828347 0.04804805092648304
0.7449628 0.9337538861382663 0.039494899802942955
0.7469627 0.9339321220894005 0.031072788170493436
0.7489626 0.9344145604058156 0.022272453480147114
0.7509625 0.9344853828201435 0.013950106007264443
0.7529624 0.9346484049990398 0.005467109638895615
0.7549623 0.9345611651731012 -0.0030284384808450943
0.7569622 0.9346200515669322 -0.0118944920846603
0.7589621 0.9341469900281891 -0.020040747834326633
0.760962 0.9339383915269973 -0.02870919165731589
0.7629619 0.9341716690612701 -0.03674876718658378
0.7649618 0.9335807001618716 -0.045382041008936155
0.7669617 0.9334697435044724 -0.05342664271323577
0.7689616 0.9327265028017285 -0.06188725363780588
0.7709615 0.9323335451405304 -0.0701331715178509
0.7729614 0.9314355918426007 -0.07851373456347963
0.7749613 0.9309359378050565 -0.08658769715126169
0.7769612 0.9297481044104203 -0.09456974268365118
0.7789611 0.9290386690403546 -0.1029902529939043
0.780961 0.9277691814224048 -0.11101934218110968
0.7829609 0.9265831127272829 -0.11936054770231416
0.7849608 0.9251984395019687 -0.12759453693743206
0.7869607 0.9239963170271828 -0.13580894537829014
0.7889606 0.9223335315757657 -0.1441429620464682
0.7909605 0.9207166044150956 -0.1518792182823229
0.7929604 0.9191574343831252 -0.16013181863310624
0.7949603 0.9173988188400493 -0.16879530717292016
0.7969602 0.9158195168161953 -0.17639241828075516
0.7989601 0.9136239176651326 -0.18489580518617976
0.80096 0.9119070406577037 -0.1937556331423527
0.8029599 0.9098864261817927 -0.20200318061901396
0.8049598 0.9078664262153812 -0.21079841673722408
0.8069597 0.9064670093271748 -0.21873989236291638
0.8089596 0.9042037524802198 -0.22714758204709404
0.8109595 0.9022727060115049 -0.23576673424220643
0.8129594 0.9000278475169889 -0.24407992535427842
