! Created with skrf 1.8.0 (http://scikit-rf.org).
# GHz S RI R 50.0 
!freq ReS11 ImS11
0.001 -0.6044688107743356 0.09065008217319015
0.0029999 -0.9506555481707897 0.013062441891167897
0.0049998 -0.9436044623526116 0.01881433508711225
0.0069997 -0.941677709587651 0.025578946858528573
0.0089996 -0.9414522721057994 0.02963113343967627
0.0109995 -0.941911790708239 0.03711346053615794
0.0129994 -0.9420737149011353 0.04375468603196897
0.0149993 -0.9420257925063209 0.05083067866804403
0.0169992 -0.9413090675130115 0.056961269494533284
0.0189991 -0.9415184474528473 0.06258855598162016
0.020999 -0.9409061110864256 0.06885166778713453
0.0229989 -0.9401489292151264 0.07499122675102343
0.0249988 -0.9392577985894992 0.08110311023596492
0.0269987 -0.9383517227465825 0.08746521254909267
0.0289986 -0.9375122655769857 0.09370466806779014
0.0309985 -0.9364949352766161 0.09967971523179114
0.0329984 -0.9356308404156697 0.10612150340275162
0.0349983 -0.9346047826701195 0.1120667532488473
0.0369982 -0.9334793325924748 0.118064811703959
0.0389981 -0.9323241906330223 0.12422447282129379
0.040998 -0.9312312580012045 0.13037068098941185
0.0429979 -0.9296901593016951 0.13607497874736613
0.0449978 -0.9282792620542565 0.14222692623470784
0.0469977 -0.9272264056398296 0.1479084565190526
0.0489976 -0.9251705262016954 0.15461553726351823
0.0509975 -0.9238936004828308 0.16052648168742567
0.0529974 -0.922636108734876 0.16700737128947596
0.0549973 -0.9203083585228932 0.1736140415414878
0.0569972 -0.919180559991974 0.17941947744227493
0.0589971 -0.9178734699756277 0.18558824226089898
0.060997 -0.9163981661579008 0.19219481469589378
0.0629969 -0.9150440491485804 0.19788981255937424
0.0649968 -0.9130039893294244 0.20396000371580497
0.0669967 -0.9124101352365874 0.21091629526699074
0.0689966 -0.9105624242478996 0.21622113699498022
0.0709965 -0.9092628062265163 0.22246630993162575
0.0729964 -0.9069800811550872 0.22902185181046741
0.0749963 -0.9058007797382395 0.234656155415496
0.0769962 -0.9046617707890062 0.24054571450495338
0.0789961 -0.9029839578316997 0.2460278931828156
0.080996 -0.9010581230359102 0.2520896625057874
0.0829959 -0.8995188691054744 0.2582492911130607
0.0849958 -0.8981130505201187 0.26363029754278267
0.0869957 -0.8966471943695299 0.26953107429025935
0.0889956 -0.894799062216086 0.2748400048932593
0.0909955 -0.8928267122526732 0.2803651465699711
0.0929954 -0.8906526008129874 0.2859807718706395
0.0949953 -0.8886233871139098 0.29180940153780555
0.0969952 -0.8867094099192625 0.29711662556209634
0.0989951 -0.8841564518909992 0.302917772112726
0.100995 -0.8832367050442018 0.3087425138731504
0.1029949 -0.8811538842148481 0.3143858377077867
0.1049948 -0.878817277686333 0.3196526504837386
0.1069947 -0.8762737489475196 0.324731444320678
0.1089946 -0.873722647014888 0.3303124426332732
0.1109945 -0.8710821400556512 0.3356613297968136
0.1129944 -0.8687593859971348 0.3409157766023967
0.1149943 -0.8657991077107718 0.3462530291537997
0.1169942 -0.8631401517936461 0.35203647564289775
0.1189941 -0.8603093122619495 0.357379243915077
0.120994 -0.8575570420733619 0.3629978423800236
0.1229939 -0.8545549398632002 0.3684042079898492
0.1249938 -0.8518083028069801 0.3739010802161489
0.1269937 -0.8489575279214192 0.3796417061910581
0.1289936 -0.8465578422164668 0.3853411284748252
0.1309935 -0.8433730910668374 0.3906946592418374
0.1329934 -0.8405761626898143 0.396487180618295
0.1349933 -0.83745046349393 0.4027153299183284
0.1369932 -0.8347810399054708 0.4075057919456778
0.1389931 -0.831610253441925 0.4133200451501234
0.140993 -0.8288796115093876 0.41854705322311586
0.1429929 -0.8255466416442974 0.4239795449163405
0.1449928 -0.823632463158951 0.4297587324687385
0.1469927 -0.8204480436126342 0.4353850181390083
0.1489926 -0.81765363793399 0.44072452961520125
0.1509925 -0.8145349174668419 0.44558077806185636
0.1529924 -0.8113447827223135 0.45144415754303646
0.1549923 -0.8093288919593296 0.4567792430068352
0.1569922 -0.8061345281014254 0.462216956249175
0.1589921 -0.803019170226597 0.46745064959606547
0.160992 -0.7999500104677542 0.47230391921532955
0.1629919 -0.796861895330279 0.47798294119745005
0.1649918 -0.7938778499766509 0.48292535037964945
0.1669917 -0.7905515267006294 0.4877102043472934
0.1689916 -0.7875093826647481 0.49275165032708784
0.1709915 -0.7840854462595873 0.4977669024068222
0.1729914 -0.7811166575436468 0.5025555860360904
0.1749913 -0.7777119406830694 0.5073756640068472
0.1769912 -0.7744056751605503 0.5121438620254958
0.1789911 -0.770915605809286 0.5170409238921349
0.180991 -0.7673914758807053 0.5216613228708538
0.1829909 -0.764023815208323 0.5267073041481768
0.1849908 -0.7606153774687303 0.5314748816872585
0.1869907 -0.7568114518181773 0.5361597941303597
0.1889906 -0.7531985482163541 0.5409369721215945
0.1909905 -0.7495876209028606 0.5456858353437414
0.1929904 -0.7457740502186833 0.5504661523208461
0.1949903 -0.7418446819626019 0.5550124114472126
0.1969902 -0.7379123982820567 0.5597629352066814
0.1989901 -0.7339319439877587 0.5649438391881403
0.20099 -0.7303814545712939 0.5694646013280054
0.2029899 -0.7264192753930014 0.5741193357223016
0.2049898 -0.7225118519052884 0.5783065515531833
0.2069897 -0.7185411736105427 0.5834387178541428
0.2089896 -0.714856693220331 0.5877912832405533
0.2109895 -0.7102571428949315 0.5926405633475725
0.2129894 -0.7064000219253881 0.5975195247067465
0.2149893 -0.70238264883865 0.602062966751426
0.2169892 -0.6982746454607726 0.6068026248828555
0.2189891 -0.6941126796082021 0.6112584873322529
0.220989 -0.6901412208835472 0.6159934732750748
0.2229889 -0.6859744921298874 0.6203060692966667
0.2249888 -0.6813832211548315 0.6253241030853068
0.2269887 -0.6773552046859493 0.6289813615496537
0.2289886 -0.6728258940807892 0.6336785585827873
0.2309885 -0.6687429331081541 0.6385620128870021
0.2329884 -0.6642557497798298 0.6426688111693585
0.2349883 -0.65966117081728 0.6470621675422634
0.2369882 -0.6554135124888947 0.6512402327728604
0.2389881 -0.6513905162015337 0.6559731761851769
0.240988 -0.6469069609246145 0.6601147912063431
0.2429879 -0.6423938159298593 0.6645744735885668
0.2449878 -0.6378985139025073 0.6689144304075677
0.2469877 -0.6333947233717587 0.6732276476332819
0.2489876 -0.6293513523107814 0.6778609598422343
0.2509875 -0.6247756774313636 0.6818751434056547
0.2529874 -0.620190947028588 0.6861716731487877
0.2549873 -0.6160607058601347 0.6904951802708679
0.2569872 -0.6119749101755523 0.6947835207921523
0.2589871 -0.607306572540032 0.6989381060857218
0.260987 -0.6029416228083612 0.7030525551849165
0.2629869 -0.5986456023421731 0.7070746865313781
0.2649868 -0.594089137777788 0.7112699916807466
0.2669867 -0.5899010601489751 0.7143625070902122
0.2689866 -0.5852917311118642 0.7182545742837783
0.2709865 -0.5809122667709514 0.7220944644897327
0.2729864 -0.576255562849653 0.726019514196032
0.2749863 -0.5719157576722042 0.7294624825679814
0.2769862 -0.5673759306511119 0.7331111685937123
0.2789861 -0.5631069337650537 0.7362600057283334
0.280986 -0.5579161811007542 0.73937668821549
0.2829859 -0.5535029413554312 0.742335532508567
0.2849858 -0.5481873677210674 0.745565295320647
0.2869857 -0.5435645886710023 0.7489650032046161
0.2889856 -0.5388133096283417 0.7518433580443562
0.2909855 -0.5332660870874849 0.7550725965053164
0.2929854 -0.5282857357955703 0.7581412269379098
0.2949853 -0.5230098912240986 0.7612395460596726
0.2969852 -0.5175539133326023 0.7640804326787429
0.2989851 -0.5125229452526032 0.7665748304496365
0.300985 -0.5064565838889521 0.7694639180206968
0.3029849 -0.5007424018563246 0.7722479039276975
0.3049848 -0.49516123293560377 0.7752578076587469
0.3069847 -0.4893861566724091 0.7780339385637017
0.3089846 -0.48308215494047035 0.7808663518996078
0.3109845 -0.4768955937470437 0.7837662964236066
0.3129844 -0.47096001358674044 0.7865639349726161
0.3149843 -0.4648650792502669 0.7897296983330659
0.3169842 -0.4591721805281576 0.7930627808177025
0.3189841 -0.45311031662047135 0.7958740234341297
0.320984 -0.44626350876687537 0.7987571890608973
0.3229839 -0.4406246285361225 0.8020167002366607
0.3249838 -0.4345078926774734 0.8047008381557661
0.3269837 -0.42861154271983126 0.8081569351527975
0.3289836 -0.42221054409190945 0.8110007183516448
0.3309835 -0.41648966458092407 0.8144787211814721
0.3329834 -0.4108786253991764 0.8176911457557438
0.3349833 -0.40539254713612677 0.8211730115127
0.3369832 -0.3999781178556339 0.8250338614543711
0.3389831 -0.39435282756315465 0.8286588738355631
0.340983 -0.3888338386883401 0.8322243706196235
0.3429829 -0.38395950762386455 0.8359411448225285
0.3449828 -0.378554850615827 0.8394788552710628
0.3469827 -0.37304822462617865 0.8428932381074035
0.3489826 -0.36833176986052646 0.845779357036794
0.3509825 -0.3626131087293638 0.8489249281230983
0.3529824 -0.3573135196205793 0.8520010263138966
0.3549823 -0.3522481630480795 0.8550669704719672
0.3569822 -0.3471313382675194 0.8575060532957086
0.3589821 -0.34207440806995437 0.8602894002722282
0.360982 -0.33730202287429273 0.8622951162897707
0.3629819 -0.3319314326746937 0.8647363903360988
0.3649818 -0.32667069277884386 0.8662002017158961
0.3669817 -0.3212214739234552 0.8683693596178557
0.3689816 -0.31568519074103724 0.8699984924706267
0.3709815 -0.3100627115212958 0.8715275869993762
0.3729814 -0.30436554639250146 0.8730075741905544
0.3749813 -0.29877154091448926 0.8746432220786533
0.3769812 -0.2931925797486048 0.8757483020862015
0.3789811 -0.28739354048450505 0.8773712292275941
0.380981 -0.28147104882201934 0.8781986814217525
0.3829809 -0.27478800488090216 0.8796506698275942
0.3849808 -0.268612362355649 0.8815773821390368
0.3869807 -0.2624625322889538 0.8820069975030279
0.3889806 -0.255712247705362 0.8834502191322479
0.3909805 -0.2486649945686605 0.8847387798148479
0.3929804 -0.24204539905969313 0.8863266315048167
0.3949803 -0.23495107148453032 0.8877983374362457
0.3969802 -0.2287720708028323 0.8893449135420138
0.3989801 -0.22201179119187178 0.8907263199469688
0.40098 -0.21474721243680173 0.8924657238596366
0.4029799 -0.20841266271754244 0.8938746200444498
0.4049798 -0.20129356486647904 0.8958055414280381
0.4069797 -0.19460710875167087 0.8976164148014034
0.4089796 -0.18816016471501795 0.8991441632327384
0.4109795 -0.18160854458126158 0.9012361955075843
0.4129794 -0.17464170595796302 0.9031431593274303
0.4149793 -0.16786410306453484 0.9050111670409894
0.4169792 -0.16176929154913686 0.9068057846994894
0.4189791 -0.15546323105963575 0.9084710021328236
0.420979 -0.14933227270861626 0.9102058150711164
0.4229789 -0.14294708592632266 0.9119278000249561
0.4249788 -0.13717316840726992 0.9136100317487879
0.4269787 -0.13129271359817668 0.9150678345321981
0.4289786 -0.1256288805415117 0.916493366495998
0.4309785 -0.11969453381991048 0.9175591205658078
0.4329784 -0.11382053167799229 0.9186525416460443
0.4349783 -0.10738936707683369 0.9189100799512366
0.4369782 -0.10181845147116032 0.9192365332064856
0.4389781 -0.0960683699918059 0.919965029968294
0.440978 -0.09009572100562627 0.9202079564973896
0.4429779 -0.0846000433079375 0.9204544886813737
0.4449778 -0.07873736441691184 0.920595765836376
0.4469777 -0.07239005366365145 0.9203617307632355
0.4489776 -0.0662152330546919 0.9208113918421256
0.4509775 -0.05975405300349344 0.9206781803064971
0.4529774 -0.05314429855299335 0.9198502923131308
0.4549773 -0.04665227769973822 0.9193117977866221
0.4569772 -0.0398104402358503 0.9189786102727959
0.4589771 -0.03279349447016078 0.918493982557255
0.460977 -0.025876243762035536 0.9182627586288947
0.4629769 -0.01856279692874691 0.9182242096297696
0.4649768 -0.011440483717324645 0.9179296910030382
0.4669767 -0.004259925787996005 0.9176616669790989
0.4689766 0.0028233199832545554 0.917295043721791
0.4709765 0.009844682259344114 0.9170329206515003
0.4729764 0.017428720724575 0.9171249723875955
0.4749763 0.02442995664560148 0.917320071278515
0.4769762 0.03166817141252495 0.9174387755724934
0.4789761 0.03915391223676226 0.917377566342222
0.480976 0.04650721518848818 0.9177754716029974
0.4829759 0.05371647564056446 0.918298389667172
0.4849758 0.06077120064674265 0.9184773533958934
0.4869757 0.06776968775147352 0.9184366422383318
0.4889756 0.07493867101936058 0.9188370112927231
0.4909755 0.08179660855553766 0.9191926413428416
0.4929754 0.0884570790985343 0.9194531309551968
0.4949753 0.09466245360313821 0.9193604626345897
0.4969752 0.10100646851910197 0.9194348614287566
0.4989751 0.10723765012937517 0.9194437729363988
0.500975 0.11316742249273773 0.9189558047557812
0.5029749 0.1193518073849755 0.9184028308951081
0.5049748 0.12505964883272752 0.9183199463521872
0.5069747 0.13071305486697452 0.9175591547698785
0.5089746 0.13681148843706764 0.9169551373687842
0.5109745 0.1430250739199344 0.9164560918609035
0.5129744 0.14911604564714204 0.9158209462993792
0.5149743 0.15437513680406048 0.9145596481145516
0.5169742 0.16038276238898774 0.9127259197073736
0.5189741 0.16633906376708082 0.9113988838826859
0.520974 0.17286020342120884 0.9094995097250071
0.5229739 0.1797144847103781 0.9077547851645015
0.5249738 0.1853167146525384 0.9062332287991007
0.5269737 0.19203465974367198 0.9045838300135818
0.5289736 0.19818642240874662 0.9016657144790293
0.5309735 0.20445433160402332 0.8998566754494108
0.5329734 0.21085739162543998 0.8976188242823847
0.5349733 0.21751804114044954 0.8950480573376293
0.5369732 0.2244175957438272 0.8929873519776683
0.5389731 0.23125359257884248 0.8902904674435789
0.540973 0.2380735894373664 0.8878643966170149
0.5429729 0.24511317173841685 0.8858308795599205
0.5449728 0.2524966657634773 0.8836586420484883
0.5469727 0.25945896302111815 0.8817497979545829
0.5489726 0.2666119160280998 0.8793804249134747
0.5509725 0.2735602677378481 0.8774974555609679
0.5529724 0.28086006169037536 0.8757456236845362
0.5549723 0.28811278567926113 0.8737642568736008
0.5569722 0.2947019520832276 0.8716823060348456
0.5589721 0.3021792461388165 0.8701364206479056
0.560972 0.3091741623675552 0.8686948054823623
0.5629719 0.31627663942513756 0.866884322339017
0.5649718 0.3229252957072984 0.8652241798224782
0.5669717 0.32973928284386467 0.8634381567864771
0.5689716 0.3359581697843768 0.8618052669285584
0.5709715 0.3420724261163178 0.8596060791462394
0.5729714 0.3479651216218904 0.8575666777426705
0.5749713 0.3540684793265617 0.8555063098159277
0.5769712 0.36032751836960636 0.8530938968784756
0.5789711 0.36618213456648746 0.851310985963073
0.580971 0.3722991712802054 0.8492649265934504
0.5829709 0.3774509541897719 0.8467275535360033
0.5849708 0.38326783914023327 0.8444270103519663
0.5869707 0.389078594500121 0.8418709203667895
0.5889706 0.3950788170813301 0.8382992715508054
0.5909705 0.4006803605381328 0.8352812083324441
0.5929704 0.40641062092816954 0.8317744681137242
0.5949703 0.4121444292419819 0.8284135705725896
0.5969702 0.417818476269086 0.8253122393893223
0.5989701 0.42378805759330296 0.8218033968936362
0.60097 0.4292802249091924 0.8180035184686383
0.6029699 0.435653089687439 0.8137972978522338
0.6049698 0.44145046977155106 0.8103641601977927
0.6069697 0.44742575765009884 0.8059549812025928
0.6089696 0.4539674060021542 0.802606317777895
0.6109695 0.46018028280556583 0.7985430833727662
0.6129694 0.46661549846838263 0.79431334991767
0.6149693 0.4728488567374527 0.7905532056806654
0.6169692 0.4795276077128236 0.7865810689411293
0.6189691 0.486055481443265 0.7828566059897176
0.620969 0.49245843712715387 0.7790110589242213
0.6229689 0.49895786738347775 0.7749604340009725
0.6249688 0.5055042965184781 0.7713572580347311
0.6269687 0.5121390670266244 0.7673707765101824
0.6289686 0.518397457263764 0.7639809230553003
0.6309685 0.5250044110358516 0.7605713774943751
0.6329684 0.5306180472173824 0.7571219210736705
0.6349683 0.5368225312399527 0.7532291261085278
0.6369682 0.5422022134645065 0.7496366734379584
0.6389681 0.5484113230760138 0.745979736830132
0.640968 0.554660828081152 0.7426027357203113
0.6429679 0.5597790039720715 0.739408735684909
0.6449678 0.5652664682279601 0.7357384057653488
0.6469677 0.5708036954495166 0.7323257308172825
0.6489676 0.5761887326810041 0.728514684823616
0.6509675 0.5807497574172642 0.7247781107651625
0.6529674 0.5861265227828095 0.720692311600334
0.6549673 0.5910088693822488 0.7168526716323297
0.6569672 0.5960588343003324 0.7129816263341271
0.6589671 0.6005431101831722 0.708783104615139
0.660967 0.605310503389986 0.704321961069407
0.6629669 0.610046429920462 0.6994906430804819
0.6649668 0.6146522934715364 0.6947084540205868
0.6669667 0.6190447237478387 0.6895600648081402
0.6689666 0.6240193780346845 0.6845234109292953
0.6709665 0.6287164944120753 0.6790420256121243
0.6729664 0.6332823458246127 0.6738999444512158
0.6749663 0.6379822472263319 0.6684348569761892
0.6769662 0.6429266225226373 0.6622304393019606
0.6789661 0.6477750872319965 0.6566968281715538
0.680966 0.6523604440182672 0.6508506576304686
0.6829659 0.6574656693523775 0.6452000241633173
0.6849658 0.6629883945706494 0.639480651590874
0.6869657 0.6682032234682843 0.6337592595671506
0.6889656 0.673846750680773 0.6282906599206765
0.6909655 0.678783187245616 0.6225509381236733
0.6929654 0.6842129852503819 0.6167110114671019
0.6949653 0.6893133904172956 0.6112880443424665
0.6969652 0.6947422938193921 0.6051911536423291
0.6989651 0.6999917847959227 0.6000864309048726
0.700965 0.7053635501671499 0.5944866948380665
0.7029649 0.7101283550318575 0.5892147621497219
0.7049648 0.7153622805338479 0.5839864102339667
0.7069647 0.7202342044914761 0.5787239814951456
0.7089646 0.725466660429367 0.5734181678420297
0.7109645 0.7303513081415691 0.5684852044503732
0.7129644 0.7345613056813227 0.5634886793227568
0.7149643 0.7392432371826153 0.5585299493140699
0.7169642 0.7432980433556531 0.5535138620221314
0.7189641 0.7476797733087166 0.5482305008550475
0.720964 0.7515085763657332 0.542847216027511
0.7229639 0.7557370278565393 0.537368686982026
0.7249638 0.7597566698392092 0.5321184776666147
0.7269637 0.7638799850339216 0.5272294583189518
0.7289636 0.7667686431735705 0.5213156943278706
0.7309635 0.7710294488302548 0.5156490298719257
0.7329634 0.7745011917883823 0.5102762990764222
0.7349633 0.7778595734595497 0.5043051679775712
0.7369632 0.7814463677398195 0.49830071284336847
0.7389631 0.7840254498997249 0.4922788327612794
0.740963 0.7874973597278226 0.485957783187713
0.7429629 0.79081522435635 0.4799658602940493
0.7449628 0.7942310858014541 0.4731262027212749
0.7469627 0.7974637490562888 0.4661197063328409
0.7489626 0.8008357516399699 0.4596073559599093
0.7509625 0.8041525273583783 0.452991568064625
0.7529624 0.8070685725336235 0.4463597577937265
0.7549623 0.8107099863084853 0.4394683937009166
0.7569622 0.8143539558865107 0.43256869663688036
0.7589621 0.8174498704070395 0.42570508829062287
0.760962 0.8208884383446489 0.4186247011438363
0.7629619 0.824618019588353 0.4121858246962662
0.7649618 0.8278331638345372 0.4053739738620278
0.7669617 0.8312355295571523 0.3982252961531769
0.7689616 0.8350219046919335 0.39153447127734536
0.7709615 0.8380914709376079 0.3850328218654957
0.7729614 0.8416409497763832 0.37784598290542126
0.7749613 0.844714362876902 0.37176879250516304
0.7769612 0.8480973407509131 0.3650358057742406
0.7789611 0.8513663646442009 0.3585276484955732
0.780961 0.8546712630604402 0.35194564266351697
0.7829609 0.8576569696727387 0.3457450750454419
0.7849608 0.8604066781656184 0.33931965310897316
0.7869607 0.8633549547056774 0.3328955239873487
0.7889606 0.8659342521780703 0.32644044633992436
0.7909605 0.8686865478224154 0.3200979433894753
0.7929604 0.8710086710866187 0.31387282326070975
0.7949603 0.8741071711119159 0.30725557425494165
0.7969602 0.876025191344447 0.301033284019581
0.7989601 0.8781642093047906 0.29451407668184376
0.80096 0.8811201538216376 0.28793221197937674
0.8029599 0.8831443625475895 0.2812877299851825
0.8049598 0.8845295527557141 0.2747015546703345
0.8069597 0.8866929171397745 0.26821344271691044
0.8089596 0.8877906368562201 0.2610236525906372
0.8109595 0.8898241615296061 0.2543249158280969
0.8129594 0.8913636785294352 0.24710735625197575
0.8149593 0.8927173276589552 0.24034052107711598
0.8169592 0.8942413349419838 0.23326775343670264
