! Created with skrf 1.8.0 (http://scikit-rf.org).
# GHz S RI R 50.0 
!freq ReS11 ImS11
0.001 -1.125839857967979 0.24838841323170446
0.0029999 -0.9903770276273482 0.05932817169502391
0.0049998 -0.9605327451859615 0.03905570237602071
0.0069997 -0.9522888877304874 0.04100955529297734
0.0089996 -0.9452430886585437 0.04627908620772497
0.0109995 -0.9435884062084372 0.05315992426065985
0.0129994 -0.9418401698874298 0.061048659181692555
0.0149993 -0.9412028926260028 0.07023779542160169
0.0169992 -0.9403144718594594 0.07731475512387154
0.0189991 -0.9393357560584176 0.08437462603887635
0.020999 -0.9380805985066814 0.09232919675843126
0.0229989 -0.9368281120542341 0.10023365424793085
0.0249988 -0.9353477838760422 0.10840139287928255
0.0269987 -0.9338723397902982 0.11659074997631061
0.0289986 -0.9324777216120284 0.12475770666401331
0.0309985 -0.9309262031919565 0.13280194003319934
0.0329984 -0.9293922865152767 0.1411281061781634
0.0349983 -0.9276661504459005 0.149193417919266
0.0369982 -0.9258452088572996 0.1570950752610255
0.0389981 -0.9238774178808531 0.16559639891977368
0.040998 -0.9223614449603138 0.17392557819782883
0.0429979 -0.9198909538857817 0.1816462618295786
0.0449978 -0.9177622149520651 0.18949925248405136
0.0469977 -0.9157008733379229 0.1978197732752333
0.0489976 -0.9130529533089198 0.20580856939104109
0.0509975 -0.9108459762224076 0.21363375192250106
0.0529974 -0.9083633519837014 0.22218345271930828
0.0549973 -0.9052020177958311 0.23207938726757776
0.0569972 -0.903367770070745 0.23879706491901265
0.0589971 -0.9011512115273649 0.24723908287645807
0.060997 -0.8989725597554132 0.25575906312380836
0.0629969 -0.8958556998614953 0.26335696736843117
0.0649968 -0.8934793470054858 0.2720086396192314
0.0669967 -0.8915280954527908 0.28007317769730655
0.0689966 -0.8888101452648066 0.28725364164163897
0.0709965 -0.8862744839284269 0.2960579468939337
0.0729964 -0.8830372207491204 0.30392853864149927
0.0749963 -0.8807210976086693 0.31122817402825176
0.0769962 -0.8786976728795757 0.3194688956655364
0.0789961 -0.8756052240223344 0.3264866207517756
0.080996 -0.87264008633684 0.33457129427799187
0.0829959 -0.8694214833705773 0.34220669049889585
0.0849958 -0.866904219801042 0.3492011625060286
0.0869957 -0.8638370963974883 0.3570496356087347
0.0889956 -0.8610982104474691 0.3641354167108497
0.0909955 -0.8578868839636549 0.3709531721967137
0.0929954 -0.8544750233555694 0.3783089895824009
0.0949953 -0.8507200038841561 0.38563994940401347
0.0969952 -0.8474042177470253 0.39241338160940936
0.0989951 -0.8435184741778509 0.3998671292501391
0.100995 -0.8410444154410347 0.4073924665014377
0.1029949 -0.8375347735012997 0.414414887555782
0.1049948 -0.8336951127469858 0.42123497595304554
0.1069947 -0.8295745490857722 0.42778728188663556
0.1089946 -0.8254039402418432 0.4345055737467256
0.1109945 -0.821074814879657 0.44132520092938976
0.1129944 -0.816697388182182 0.44805386463091046
0.1149943 -0.812042192398142 0.45452669426448294
0.1169942 -0.8076854282536743 0.461550286516751
0.1189941 -0.8027791982477619 0.4683630826514942
0.120994 -0.7981866464984135 0.4755408292170419
0.1229939 -0.7932079570555176 0.48264404417254136
0.1249938 -0.7888775500258741 0.4894268133110102
0.1269937 -0.7839557766007552 0.49624496737185697
0.1289936 -0.7792528576263447 0.5038469374056228
0.1309935 -0.7742718542782633 0.5106451978393822
0.1329934 -0.7693999098365618 0.5174706042515393
0.1349933 -0.76436992297101 0.5245050980021477
0.1369932 -0.7595217032125551 0.5311534134054685
0.1389931 -0.7544598711972836 0.5376534035015866
0.140993 -0.7495332720060622 0.5452068371725806
0.1429929 -0.7443687679526902 0.5513422257385763
0.1449928 -0.7398367119697296 0.5587945859416921
0.1469927 -0.7346494187026539 0.5656200397495244
0.1489926 -0.7300232435017201 0.5718643780078265
0.1509925 -0.7245340352713727 0.5782001057690989
0.1529924 -0.7195037646153297 0.5852107508781397
0.1549923 -0.7148439822809076 0.5921853042999176
0.1569922 -0.7092855603306316 0.5984162500184833
0.1589921 -0.7043565802115935 0.6045814729169185
0.160992 -0.6992409300522135 0.6108421371689507
0.1629919 -0.6936337180961137 0.6168075277028003
0.1649918 -0.6884455664655119 0.6229119337913449
0.1669917 -0.6828455144173322 0.6284992429555506
0.1689916 -0.6775267504884959 0.6347685682621224
0.1709915 -0.6721396441140268 0.6404155882242595
0.1729914 -0.6665700297909465 0.6460808382750904
0.1749913 -0.6605497987095368 0.65157385115826
0.1769912 -0.6551175485516616 0.65744933104179
0.1789911 -0.6496353285391819 0.6627959433685127
0.180991 -0.6435814309084302 0.6682164107010916
0.1829909 -0.6375875170350784 0.6737112442290739
0.1849908 -0.6316470446159875 0.679309181264529
0.1869907 -0.6255668867277073 0.6844838408197931
0.1889906 -0.6193758599125615 0.6901223091038293
0.1909905 -0.6128669370077686 0.6954645338580228
0.1929904 -0.6064018933880841 0.700519824636794
0.1949903 -0.600289709457104 0.7054955573015453
0.1969902 -0.5936456485558238 0.7112293817157099
0.1989901 -0.5871692669076186 0.7161055803981395
0.20099 -0.5807521557067742 0.7215763904531789
0.2029899 -0.5741435265821964 0.726209564401141
0.2049898 -0.5674653964213043 0.7311754129236245
0.2069897 -0.5607051569266412 0.7363383919854177
0.2089896 -0.5542592372662678 0.7413909080780599
0.2109895 -0.5472600666737752 0.7461491154707393
0.2129894 -0.5402620911553345 0.7513200580665751
0.2149893 -0.5335727075455122 0.7561845223901158
0.2169892 -0.5264367438864119 0.7611723224934054
0.2189891 -0.5196813549057452 0.7661187210139668
0.220989 -0.5127160555603459 0.7705045334712326
0.2229889 -0.5054836363664446 0.7748596702691819
0.2249888 -0.4979995014446333 0.7797044001941
0.2269887 -0.4911865353506092 0.7841173286860041
0.2289886 -0.48400676350631167 0.7883402080235828
0.2309885 -0.4767831090117984 0.7927424153117318
0.2329884 -0.46934540832592675 0.797239061883223
0.2349883 -0.46172091054079484 0.8016526983471891
0.2369882 -0.45462346100115103 0.8058973852934531
0.2389881 -0.4475619427338815 0.8103653948803959
0.240988 -0.43972469662324065 0.8141137920256025
0.2429879 -0.4322366693434516 0.8182091015470434
0.2449878 -0.4248896763979744 0.822508077084643
0.2469877 -0.4174040638873437 0.826518333063166
0.2489876 -0.4100832704699434 0.8308341705945796
0.2509875 -0.40255871523736064 0.8345329996993144
0.2529874 -0.3951932334249901 0.8386083384986873
0.2549873 -0.38803460222364955 0.8427924250468587
0.2569872 -0.38055138453540066 0.8465364702815025
0.2589871 -0.3728943387593706 0.8502119553220012
0.260987 -0.36584435136839444 0.8538893031654334
0.2629869 -0.3581789011471144 0.8574196322607796
0.2649868 -0.35069802104734726 0.8606188913048604
0.2669867 -0.3435109941288327 0.8637253524045888
0.2689866 -0.33597147787407367 0.8669206312969818
0.2709865 -0.3285406790517306 0.8701277986814887
0.2729864 -0.3209060866913528 0.873121874639685
0.2749863 -0.3136911669144567 0.8761147410990429
0.2769862 -0.3061184122610785 0.8788730639598213
0.2789861 -0.29882230793474845 0.8809948870097882
0.280986 -0.2910573071517219 0.8831889055042549
0.2829859 -0.2840173975002219 0.8853924915880635
0.2849858 -0.27577608103172213 0.8875149138428693
0.2869857 -0.2674913032199765 0.8894661497684884
0.2889856 -0.25984966270483334 0.8912172028096575
0.2909855 -0.2516218672923202 0.8933376437567804
0.2929854 -0.24400215492106664 0.8952964293182417
0.2949853 -0.2354923469557897 0.8967289072826512
0.2969852 -0.226919487409119 0.8978751042890438
0.2989851 -0.21883790777581397 0.899119413478906
0.300985 -0.20989060156829015 0.9003271455149396
0.3029849 -0.20134645846431976 0.9016780601204367
0.3049848 -0.19274035707213263 0.9029114705285625
0.3069847 -0.18365775444348542 0.903662248305037
0.3089846 -0.1744606933316948 0.9047120476065629
0.3109845 -0.16533197766410676 0.9059745635834294
0.3129844 -0.15620661408749437 0.9072584606521539
0.3149843 -0.14702783997842972 0.9083306398428749
0.3169842 -0.1375583776115726 0.9091352217799087
0.3189841 -0.12826578911475164 0.9104770071960739
0.320984 -0.11887749262129432 0.9112651609297402
0.3229839 -0.1094263253506702 0.9123255234858317
0.3249838 -0.10077496319625945 0.9127982510583968
0.3269837 -0.09126956819570381 0.9139720274915588
0.3289836 -0.08229808652953202 0.914923002998001
0.3309835 -0.07302944982866094 0.9159756353297608
0.3329834 -0.06420826151299777 0.9174243186893685
0.3349833 -0.05495266796427331 0.9191106413333494
0.3369832 -0.04622541922080574 0.9209852208149949
0.3389831 -0.037631778816843695 0.9227259310474684
0.340983 -0.028719006756687496 0.9241757184886096
0.3429829 -0.01972825151581746 0.9257330991345996
0.3449828 -0.011131706299665735 0.927110129803842
0.3469827 -0.002387977470893504 0.9283276708701511
0.3489826 0.006028926785232341 0.9292899215925581
0.3509825 0.014825755076928931 0.9299101376894127
0.3529824 0.023222011232899707 0.9307309069233148
0.3549823 0.03150211527108902 0.9311822824375877
0.3569822 0.03938022013391462 0.9316643824610936
0.3589821 0.04753712830567863 0.9318253224264796
0.360982 0.05534436518025106 0.9320157280768395
0.3629819 0.06376613855076564 0.9317136622487773
0.3649818 0.0713120242495957 0.9309438971323115
0.3669817 0.07940219459291112 0.929780469677244
0.3689816 0.08790432323331139 0.9291457446134955
0.3709815 0.09573103372590265 0.9280965710849313
0.3729814 0.10429049153786521 0.926754250798988
0.3749813 0.11222926705716418 0.925238504397036
0.3769812 0.12054965076123335 0.9236212819708619
0.3789811 0.12882982120524666 0.9226536148664857
0.380981 0.13747390905083734 0.920366236349573
0.3829809 0.14637421539581882 0.9182346981610765
0.3849808 0.15475830978624303 0.9164472742452917
0.3869807 0.1638769501271243 0.9138656291110052
0.3889806 0.17303273509420009 0.9119457696119533
0.3909805 0.1822083144012285 0.9092259291681573
0.3929804 0.19141427749417514 0.9072389290950096
0.3949803 0.20092930166895187 0.9045387521935055
0.3969802 0.2098799980244383 0.9025555768294792
0.3989801 0.2194743438678326 0.9005271505047804
0.40098 0.22872741008508374 0.8980727729854234
0.4029799 0.2376562223619182 0.8963986022301402
0.4049798 0.2472519079238968 0.8937820725884758
0.4069797 0.25671738649781767 0.8914927857294616
0.4089796 0.2657133847911826 0.8895388228186966
0.4109795 0.2749517869155499 0.8874559932681
0.4129794 0.28410779906697475 0.8850219776243924
0.4149793 0.29367996230349414 0.8828400199509896
0.4169792 0.302435676755497 0.8807670272402413
0.4189791 0.31096958491391236 0.8785654420627333
0.420979 0.31960363073707054 0.8762024304423996
0.4229789 0.3280171143612286 0.8739312448858
0.4249788 0.3368504414617395 0.8713615593770373
0.4269787 0.3448927111482386 0.8690074220808492
0.4289786 0.35306088495960203 0.8664794607081345
0.4309785 0.3612160262921029 0.8634310913151104
0.4329784 0.3692486770184868 0.8603991446073682
0.4349783 0.37717474776616755 0.8564222631425747
0.4369782 0.3847677213606642 0.8532402867151637
0.4389781 0.3924360631427469 0.8498708563494329
0.440978 0.4001052059800019 0.8458134556195854
0.4429779 0.4077918319176837 0.8419930577994186
0.4449778 0.41532302096987195 0.8382375808795502
0.4469777 0.4232708266747422 0.8337613011166114
0.4489776 0.43096950667945344 0.8292874263780935
0.4509775 0.43865988751377916 0.8246756281829252
0.4529774 0.4461029657858568 0.8194297475754354
0.4549773 0.45403897813973365 0.814885309872745
0.4569772 0.46215731547723266 0.8094169818765286
0.4589771 0.4700518788903408 0.8041632896789728
0.460977 0.47833855618958854 0.7990648924482299
0.4629769 0.486680430775006 0.7939431089972636
0.4649768 0.49486717317770723 0.7885238636003065
0.4669767 0.503097593216524 0.7833017612382266
0.4689766 0.5111363415067862 0.7781196682097403
0.4709765 0.5193599502807573 0.7727641130649171
0.4729764 0.5274407015025212 0.7670788675237473
0.4749763 0.5357311841219446 0.7618981980016006
0.4769762 0.54397976252854 0.7566797196459907
0.4789761 0.5523770097866316 0.7509238583881633
0.480976 0.5603940222863414 0.7456363670961393
0.4829759 0.5690721298139234 0.7404922381021702
0.4849758 0.5768346336430742 0.735030598695261
0.4869757 0.5846808608803532 0.7296772157008125
0.4889756 0.5927898285842307 0.7243465853808391
0.4909755 0.600479701258538 0.7188814148911359
0.4929754 0.6078810946833072 0.7134202595881096
0.4949753 0.6150824273320008 0.7084865306963251
0.4969752 0.6220615491380693 0.7026429007986001
0.4989751 0.6292200069171046 0.6973351608334345
0.500975 0.6356326879043194 0.6915829422582134
0.5029749 0.642397621977211 0.6860635710062349
0.5049748 0.6492065083997187 0.6801918356840564
0.5069747 0.6554008235568045 0.674336886695863
0.5089746 0.6620782903820384 0.6683107896606775
0.5109745 0.6687108662721095 0.6624825502146886
0.5129744 0.6752018046741124 0.6558040380015298
0.5149743 0.680644138083911 0.6497508619678903
0.5169742 0.6866286583838362 0.643004409411935
0.5189741 0.6928323414769572 0.6360933022465992
0.520974 0.6985801293792417 0.6292982915728363
0.5229739 0.7050056996212781 0.6213541094607238
0.5249738 0.7107488151958004 0.6146003584714383
0.5269737 0.7168587486136567 0.6073960104398136
0.5289736 0.7222924577980641 0.5998247292993748
0.5309735 0.7280245843558271 0.592634787156644
0.5329734 0.7334839103294762 0.5841941304757581
0.5349733 0.7389419255653562 0.5764327308801999
0.5369732 0.7446497701266895 0.5689655682963789
0.5389731 0.7507042093341978 0.5606060454659566
0.540973 0.7563623456257774 0.5526499497376827
0.5429729 0.7621262073521171 0.544585928113658
0.5449728 0.7678821071747746 0.5365282811376006
0.5469727 0.7736897195267909 0.5284433553586626
0.5489726 0.7791934079266671 0.5207167375881518
0.5509725 0.7847287834675871 0.512368745347553
0.5529724 0.7905144322601804 0.504173842900017
0.5549723 0.7958676310637876 0.4961125062970282
0.5569722 0.8011561708868883 0.4883668558466967
0.5589721 0.8065305802446378 0.47994169729029024
0.560972 0.8120713988076506 0.47198315412593306
0.5629719 0.8169984470452495 0.4640005585061784
0.5649718 0.8224857493016068 0.4558641947162561
0.5669717 0.8270672920927242 0.44783936544501957
0.5689716 0.832017832988872 0.43998298138308484
0.5709715 0.836217902822487 0.4318826215002235
0.5729714 0.8408470165182103 0.4241815718200976
0.5749713 0.8450428444021084 0.4154102789854819
0.5769712 0.8496881444291797 0.40717486531697855
0.5789711 0.8535840117773559 0.3992201667891145
0.580971 0.8580552956297134 0.3909924266728664
0.5829709 0.8613083869945082 0.3827402372846216
0.5849708 0.8651981598403332 0.37427765900566545
0.5869707 0.8687952323637204 0.36579585906633083
0.5889706 0.8727422566943637 0.3567433459082791
0.5909705 0.8757521466621899 0.34793237001703714
0.5929704 0.8787976591269591 0.33933215571680414
0.5949703 0.8819534903555781 0.33015576500954996
0.5969702 0.8854691641160333 0.32126142350881026
0.5989701 0.889087539670089 0.3120419130664094
0.60097 0.8912746543202125 0.30340025437012447
0.6029699 0.8940951356387116 0.29395230952495544
0.6049698 0.8971559325786257 0.2848209585714643
0.6069697 0.8998793982690563 0.2754176200920276
0.6089696 0.9026691188908238 0.2660617555488639
0.6109695 0.905570335430415 0.256920263501436
0.6129694 0.9079732033753141 0.24711116992637677
0.6149693 0.9105811925594605 0.23828399632390404
0.6169692 0.9132282422268571 0.22864667731736504
0.6189691 0.9155165546838309 0.21944951028947882
0.620969 0.9178651793901934 0.20936595925171814
0.6229689 0.9198577855682598 0.20049287003343752
0.6249688 0.9220757854573018 0.1911161235660366
0.6269687 0.9242687809646406 0.18159315153153893
0.6289686 0.9262286447176249 0.17208213854364957
0.6309685 0.9280578775037148 0.16310115834540745
0.6329684 0.929867570273434 0.15387173946494231
0.6349683 0.9314348378618431 0.14425107695555717
0.6369682 0.9329430699006273 0.134820623146528
0.6389681 0.9342397283540764 0.12606562700406865
0.640968 0.9356871223032235 0.11651048081299986
0.6429679 0.9372489943109015 0.10706272621022456
0.6449678 0.9379026897498511 0.09769485120211477
0.6469677 0.9390314544396832 0.08843441291652757
0.6489676 0.9399595594937012 0.07907410229357313
0.6509675 0.940483259330507 0.06957207771459276
0.6529674 0.9412593783632462 0.060055026146990306
0.6549673 0.941866487269293 0.05098093825542698
0.6569672 0.9422568534968451 0.04118839600277694
0.6589671 0.9426465557658226 0.03176195533280082
0.660967 0.9428975176463814 0.022180669128471227
0.6629669 0.9428964634121675 0.012738944742325571
0.6649668 0.9430047503960953 0.0028467028361236074
0.6669667 0.9428592977322827 -0.006971969315094001
0.6689666 0.9426712371064442 -0.016578083489025966
0.6709665 0.9426139830901141 -0.02595034648889115
0.6729664 0.942315536370873 -0.03583740555708684
0.6749663 0.9419985175496125 -0.04510464443822172
0.6769662 0.9413756619017698 -0.05483335601975442
0.6789661 0.9411554201712171 -0.0644665780979266
0.680966 0.9403210747129986 -0.07392603695874805
0.6829659 0.9398353361553521 -0.08314557175533481
0.6849658 0.9387498394422995 -0.09278779091695552
0.6869657 0.9378352347287187 -0.10196967471313599
0.6889656 0.9369558648925607 -0.1116814629421071
0.6909655 0.9358011721173634 -0.12061165568627107
0.6929654 0.9346392170040485 -0.13022924193972257
0.6949653 0.9331450233398216 -0.1392212234576097
0.6969652 0.9317818331682236 -0.14844049806641496
0.6989651 0.9304254374599755 -0.15740794065290514
0.700965 0.9286490895012676 -0.16681370279485186
0.7029649 0.9269874507745244 -0.17552233342263107
0.7049648 0.9252977697218314 -0.18507448849958982
0.7069647 0.9228060461032589 -0.1938119030240236
0.7089646 0.9206836304612482 -0.20297892332333706
0.7109645 0.9181720316538003 -0.21178602359294474
0.7129644 0.9156792560467386 -0.22123615954762227
0.7149643 0.9132740782095676 -0.2301273795409629
0.7169642 0.910851309031421 -0.23938299152921924
0.7189641 0.908153439713888 -0.24836205413326376
0.720964 0.905192646853583 -0.25790721420217305
0.7229639 0.9019545647725365 -0.26666776163972095
0.7249638 0.8991953238293414 -0.27570794118759606
0.7269637 0.8967492666129024 -0.285103085196191
0.7289636 0.8932555526837745 -0.29421552837976167
0.7309635 0.8901044180520779 -0.3033206981284627
0.7329634 0.8871691487161476 -0.31273087605881866
0.7349633 0.8843823394014211 -0.3217696755838806
0.7369632 0.8807568335516001 -0.331185113198713
0.7389631 0.8778180298369036 -0.3403405440871681
0.740963 0.8746703795592286 -0.3495270492134669
0.7429629 0.8715514351263574 -0.35802302774324407
0.7449628 0.8685506943865247 -0.3668852567769255
0.7469627 0.8648989023844968 -0.37569777293586837
0.7489626 0.8615444929998752 -0.38431128615223764
0.7509625 0.8579198629117486 -0.3932781741501532
0.7529624 0.8541464047420235 -0.40142979856556626
0.7549623 0.8505975523287111 -0.4094973564544428
0.7569622 0.8469067165303517 -0.41800976496257625
0.7589621 0.8432537294302417 -0.42598600878836995
0.760962 0.8391904380959264 -0.4338287135834876
0.7629619 0.835704613069355 -0.44158478244498467
0.7649618 0.8312803719356379 -0.44916898071354955
0.7669617 0.8272473301246512 -0.4568655474261344
0.7689616 0.8225869708463336 -0.4643537157750143
0.7709615 0.81884399629933 -0.4719931865190546
0.7729614 0.8135601368926751 -0.4794659507217309
0.7749613 0.8087280749823219 -0.48664701006148187
0.7769612 0.80350097604756 -0.4936352697684491
0.7789611 0.798160736708413 -0.5009170408275437
0.780961 0.7928913651571926 -0.5082463634327055
0.7829609 0.7873727676317724 -0.515412253819269
0.7849608 0.7816519897373966 -0.5228420290479274
0.7869607 0.7759928773612004 -0.5299203544671814
0.7889606 0.7700029422842872 -0.5372658235382954
0.7909605 0.7637762064351655 -0.5441760923453062
0.7929604 0.7578229499101601 -0.5518246884030505
0.7949603 0.75177628698243 -0.5593188955588287
0.7969602 0.7452815437263803 -0.5665216810019699
0.7989601 0.7390284370973863 -0.5736457520305014
0.80096 0.7332587564806013 -0.5819811225228151
0.8029599 0.7269489672124791 -0.589533171384402
0.8049598 0.7206521285111479 -0.5972242568145166
0.8069597 0.7146978687299539 -0.605305316662118
0.8089596 0.7085747181357077 -0.6128173229867487
0.8109595 0.7023864353475464 -0.6207858439831503
0.8129594 0.696780245474955 -0.6282488248437221
0.8149593 0.6907474007321451 -0.6357010423163414
