! Created with skrf 1.8.0 (http://scikit-rf.org).
# GHz S RI R 50.0 
!freq ReS11 ImS11
0.001 -1.1405097323107922 -0.038980633415069466
0.0029999 -0.967048519073139 -0.029276941490212094
0.0049998 -0.9434743316576051 0.004781974626740876
0.0069997 -0.942966553107859 0.015155792814544655
0.0089996 -0.9412356740361437 0.026898460896876364
0.0109995 -0.9399008135957282 0.0350604360307899
0.0129994 -0.9398132079188731 0.04297995913934283
0.0149993 -0.9392130708405956 0.05104964990731975
0.0169992 -0.9385931771878517 0.0566839263372344
0.0189991 -0.9388466492676116 0.06306101289706378
0.020999 -0.9381488070406603 0.06946418766332946
0.0229989 -0.9374718461125358 0.07584341446970938
0.0249988 -0.9365006946147847 0.08191034775102263
0.0269987 -0.935598092293353 0.08834023087276359
0.0289986 -0.9347706407516172 0.09457908583089752
0.0309985 -0.9337836221012321 0.10062167123741048
0.0329984 -0.9329001774990631 0.1070110537915171
0.0349983 -0.9318312912402444 0.11298742206965767
0.0369982 -0.9307146424360627 0.11906093496921194
0.0389981 -0.929591420304942 0.12522760626314777
0.040998 -0.9285266968262798 0.13137318351984106
0.0429979 -0.9269954988791683 0.1373877577618705
0.0449978 -0.9256033519264151 0.14310931917706343
0.0469977 -0.9242172701776167 0.14918887885528026
0.0489976 -0.9225502976494396 0.15567520949200214
0.0509975 -0.9211408174876459 0.16157609067168366
0.0529974 -0.9201558510277327 0.16676170504074084
0.0549973 -0.917563465353908 0.17561716971663133
0.0569972 -0.916574582908304 0.18066683192169014
0.0589971 -0.915142378289315 0.1870099169757295
0.060997 -0.913582393256856 0.19355300613224458
0.0629969 -0.912275321075137 0.1992969352487432
0.0649968 -0.9101617325140715 0.20539142145525277
0.0669967 -0.9095555403107908 0.21221206497846892
0.0689966 -0.9077568548806318 0.21772737388141036
0.0709965 -0.9062609844051347 0.2239352240449683
0.0729964 -0.9042487904720959 0.2304328042373892
0.0749963 -0.9028059205847673 0.23620865723027185
0.0769962 -0.9014964069396555 0.24207546808350514
0.0789961 -0.899952355236493 0.24796825480198292
0.080996 -0.8980190770269061 0.25398643098326135
0.0829959 -0.8962238621326476 0.2600911244141157
0.0849958 -0.8949052712703296 0.2654431486992671
0.0869957 -0.8934442647191881 0.2713544709137705
0.0889956 -0.891450557856262 0.27673169865489233
0.0909955 -0.889379422359087 0.282490786096166
0.0929954 -0.8872672959095516 0.28792763928061466
0.0949953 -0.8850704273810415 0.2938839948781541
0.0969952 -0.8832627702847047 0.2992367441519199
0.0989951 -0.8805537770665387 0.30512213375579444
0.100995 -0.8796242324207116 0.31117063414512797
0.1029949 -0.8774164587580084 0.3168755466015999
0.1049948 -0.8750054233452653 0.3221562800912448
0.1069947 -0.8724416183183051 0.32722704613760656
0.1089946 -0.8697702516153277 0.332853992748229
0.1109945 -0.8672274137310176 0.33828365777968983
0.1129944 -0.8647793740938019 0.3435889610155843
0.1149943 -0.8618400734486937 0.34891607312321615
0.1169942 -0.8591052780155379 0.35478829010463264
0.1189941 -0.8562722959912119 0.36017457893969196
0.120994 -0.8533883987637362 0.365778729205231
0.1229939 -0.8505228506513633 0.37118555872141235
0.1249938 -0.8476081154453993 0.3770564360813219
0.1269937 -0.8447116515659032 0.3824644115174044
0.1289936 -0.8424059626006359 0.38827905071230695
0.1309935 -0.8393139668906885 0.3937683133570503
0.1329934 -0.8363572165649845 0.39939641564315975
0.1349933 -0.8332060105782778 0.40545644680775983
0.1369932 -0.830531435309336 0.4102234411558632
0.1389931 -0.8273284659092462 0.41613477378908226
0.140993 -0.8246113914359996 0.42151234283534683
0.1429929 -0.821253963600435 0.4266615316422694
0.1449928 -0.819238551944923 0.43261535967256315
0.1469927 -0.815779102352901 0.4381632237052972
0.1489926 -0.8131534705007216 0.4437649424038731
0.1509925 -0.8100117929368865 0.44845768898380745
0.1529924 -0.8069150640534437 0.45436433035951757
0.1549923 -0.8045806375913875 0.45999494800200147
0.1569922 -0.8014567174388385 0.46512183701841286
0.1589921 -0.7982716814015298 0.47041356854538385
0.160992 -0.7951455852604923 0.47539859129190637
0.1629919 -0.7919289912863268 0.4808368373292153
0.1649918 -0.788928451206185 0.48595767452036875
0.1669917 -0.7857370774676004 0.49071453951677924
0.1689916 -0.7824105003494238 0.49585604384316795
0.1709915 -0.778949136457783 0.500885254248791
0.1729914 -0.7758365114567565 0.5057707438621623
0.1749913 -0.7723459492799745 0.5106783924662114
0.1769912 -0.7690754976766805 0.5153162498513849
0.1789911 -0.7655053245377307 0.5203934787530334
0.180991 -0.7618564917278915 0.5250065007221099
0.1829909 -0.7583676967388142 0.5301179062304671
0.1849908 -0.7548620848568756 0.5348810777318097
0.1869907 -0.7510304247493556 0.5395750741213808
0.1889906 -0.7474912877256589 0.5445054471868479
0.1909905 -0.7436563372566143 0.5492842947378871
0.1929904 -0.7399112328621811 0.5540053013126712
0.1949903 -0.7359935890024213 0.5586496148210998
0.1969902 -0.7319464011833465 0.5633239158672746
0.1989901 -0.7280813434388468 0.5684520917254188
0.20099 -0.7244911522974352 0.5728892452636303
0.2029899 -0.7204316080332696 0.5776236359265443
0.2049898 -0.7165937956897773 0.5820695506145617
0.2069897 -0.7126527172185271 0.586710325119645
0.2089896 -0.7086761903230018 0.5913924863004004
0.2109895 -0.7045002495056748 0.595840963338129
0.2129894 -0.7005033192803038 0.6008714136226712
0.2149893 -0.696349748529159 0.6052193248890633
0.2169892 -0.6922047069909038 0.6100991444010122
0.2189891 -0.688099680716326 0.6144960242278379
0.220989 -0.6842855647080511 0.6190970604644125
0.2229889 -0.6797151414145837 0.623573813660771
0.2249888 -0.6753568447986159 0.6283666293453759
0.2269887 -0.6711947138220763 0.6321887655112131
0.2289886 -0.6664347206239222 0.6371030204894557
0.2309885 -0.6624322899596644 0.6417407666024554
0.2329884 -0.657887163220786 0.6457520463913118
0.2349883 -0.6533194889698699 0.6503442992677544
0.2369882 -0.6487586974643067 0.6543743040726896
0.2389881 -0.644688900113151 0.6592988264558828
0.240988 -0.6399794656437399 0.6634407194754987
0.2429879 -0.6353292722151483 0.6679066212632574
0.2449878 -0.6308149963488351 0.6720604567324511
0.2469877 -0.626293904282486 0.6765518382537128
0.2489876 -0.6220474141389325 0.6811575231410543
0.2509875 -0.6174079825223182 0.6851442216068633
0.2529874 -0.6128241760448533 0.6894417312602392
0.2549873 -0.6085357571275879 0.6938314809745151
0.2569872 -0.6043102096104593 0.6981448460844126
0.2589871 -0.5995092825353403 0.7023595486516161
0.260987 -0.5951882645802563 0.7064480942054279
0.2629869 -0.5908636778621956 0.7105246158660694
0.2649868 -0.586366466921947 0.7143332308175163
0.2669867 -0.5820819374640706 0.7177254837059326
0.2689866 -0.5773756071740245 0.7216424813446861
0.2709865 -0.5728916067959939 0.7255669323006351
0.2729864 -0.5685548126799729 0.7293460203934672
0.2749863 -0.5641092498616168 0.7328667239272724
0.2769862 -0.5597327616580237 0.7362398786355648
0.2789861 -0.5552596453101153 0.7396826200341237
0.280986 -0.5502232280338814 0.7425085714575248
0.2829859 -0.545829644829176 0.7456220851743126
0.2849858 -0.5405871064466933 0.7488332230592945
0.2869857 -0.5356847140381907 0.7521496040634883
0.2889856 -0.5307278008870673 0.7550097608988608
0.2909855 -0.525577828043087 0.7581017118227504
0.2929854 -0.5205285034716541 0.7612537624588687
0.2949853 -0.5151172400159519 0.7642311948770019
0.2969852 -0.5096408231308146 0.7669583506306784
0.2989851 -0.5045880088865798 0.7695336586058098
0.300985 -0.498861897189659 0.772312066331522
0.3029849 -0.49274255989167315 0.7751928972115636
0.3049848 -0.48721155637024777 0.7779462354319161
0.3069847 -0.48136317851786237 0.7806725795499072
0.3089846 -0.47497283616412067 0.7834286914455492
0.3109845 -0.4690832940382459 0.7862603473891356
0.3129844 -0.4626947673566883 0.7890967495774667
0.3149843 -0.45635933270783857 0.7921883613856918
0.3169842 -0.45052753484070557 0.7952893652514007
0.3189841 -0.4443193167881699 0.7981720136486815
0.320984 -0.43760002104510887 0.8011535598575892
0.3229839 -0.43172749237491914 0.804114058842858
0.3249838 -0.4256472027761298 0.806854893201459
0.3269837 -0.41937366960803746 0.8102821937490429
0.3289836 -0.4133329835199827 0.8130533163233992
0.3309835 -0.4070559695002699 0.8166789947277098
0.3329834 -0.4017660165653557 0.8198391739783076
0.3349833 -0.39586754687027625 0.8234267851232214
0.3369832 -0.3905903493941139 0.8269815654249224
0.3389831 -0.3850155892870747 0.8307609053848259
0.340983 -0.3794133404427328 0.8342849831585084
0.3429829 -0.37453778217633216 0.8380998176415381
0.3449828 -0.36898425759733117 0.8416004549807593
0.3469827 -0.36367375128044266 0.8450366884579144
0.3489826 -0.3585984497231167 0.8480089015929277
0.3509825 -0.35303634781078286 0.8511806253720994
0.3529824 -0.34782790124444196 0.8544075108124897
0.3549823 -0.34296475097756124 0.8573493172179285
0.3569822 -0.33763590803670696 0.85965724037069
0.3589821 -0.33255105565865967 0.8624249784617815
0.360982 -0.3276557268515125 0.8645920645164853
0.3629819 -0.3225067686422029 0.8668224989491233
0.3649818 -0.3170635724932698 0.8683862810996216
0.3669817 -0.3117555520964065 0.8701268598380126
0.3689816 -0.30608007156719574 0.8718280970080247
0.3709815 -0.30056197101690807 0.8733274894565168
0.3729814 -0.2948311374308113 0.8747361558690806
0.3749813 -0.28923577870053896 0.8763733156678873
0.3769812 -0.28356044784821066 0.8774536372991585
0.3789811 -0.2778480204961818 0.8789340492286137
0.380981 -0.2715520800308534 0.8796294910544188
0.3829809 -0.2652675932453827 0.880943296623904
0.3849808 -0.25893523001910057 0.8827660147169563
0.3869807 -0.25261777680708414 0.8832288958213899
0.3889806 -0.2458532086904009 0.8846461890179306
0.3909805 -0.23865125705999343 0.8859216079770905
0.3929804 -0.23200108816818113 0.8873028867487806
0.3949803 -0.22505126707173279 0.8887555046404743
0.3969802 -0.21881331620071184 0.8899609342717374
0.3989801 -0.21173886884116047 0.8914172325306478
0.40098 -0.20462462946417856 0.8930998704205575
0.4029799 -0.19821595115030904 0.8945824967462517
0.4049798 -0.1909045498920457 0.8963376305296712
0.4069797 -0.1841911249949621 0.8980093993127575
0.4089796 -0.17752870357896663 0.8995602307741588
0.4109795 -0.17101129296913023 0.9014485941772548
0.4129794 -0.1641511762827632 0.9034859513006328
0.4149793 -0.15751844793407435 0.9052246062437368
0.4169792 -0.15117453440474637 0.9069819009375041
0.4189791 -0.1446730267549031 0.9086775641695879
0.420979 -0.13843043610417133 0.9103117831171922
0.4229789 -0.13237500676785763 0.9120247600979094
0.4249788 -0.12650720315298475 0.913685420206028
0.4269787 -0.12062290238289139 0.9150613287172619
0.4289786 -0.11488350782228134 0.9166399063903898
0.4309785 -0.10892322469664281 0.9173933152544167
0.4329784 -0.10296333220210581 0.9186390580680814
0.4349783 -0.09658609287349965 0.9188173596449292
0.4369782 -0.09115383449398896 0.9189619908207767
0.4389781 -0.0851925121680913 0.9198398608121215
0.440978 -0.0793386091507263 0.9196823449836082
0.4429779 -0.07371025497071865 0.9204190262798451
0.4449778 -0.06789839193929985 0.9202563749227297
0.4469777 -0.061613505586860566 0.9200031878773591
0.4489776 -0.05534391320131016 0.9204081999905495
0.4509775 -0.04912670099951316 0.9200035128776352
0.4529774 -0.042507324103211924 0.9192873390419795
0.4549773 -0.03603268661529614 0.9187576212294066
0.4569772 -0.02922229780518041 0.9182820786747651
0.4589771 -0.022147526424281458 0.9177726477009032
0.460977 -0.015251614561488349 0.9172365910766851
0.4629769 -0.00804178348173972 0.9173363678170572
0.4649768 -0.0007428026163093142 0.9168367537214537
0.4669767 0.006200179338865293 0.9164378604242759
0.4689766 0.013449953362870403 0.9161259370102551
0.4709765 0.020387944796466693 0.9156714171625069
0.4729764 0.027945458609821134 0.9158250361014436
0.4749763 0.03484699981021291 0.9159878875894311
0.4769762 0.04216056159495893 0.9158293080058478
0.4789761 0.049887902260474085 0.9157915084193351
0.480976 0.05733281950847233 0.9163023770106093
0.4829759 0.06440197393864613 0.9166509224751792
0.4849758 0.07140621735788992 0.9165995741780298
0.4869757 0.07845631199608041 0.9165666326707275
0.4889756 0.08564676230630741 0.9170084191310257
0.4909755 0.09239968133155542 0.917119945904705
0.4929754 0.09889829855742581 0.9173496690350491
0.4949753 0.10531941955662394 0.9172161309734576
0.4969752 0.11159912079682406 0.917283553019467
0.4989751 0.11792341912322411 0.9173709511855949
0.500975 0.12384817308590061 0.9167285614169219
0.5029749 0.13002997701722258 0.9160002107134431
0.5049748 0.13570530618541418 0.9159653399024742
0.5069747 0.14129677752907843 0.9152864149704103
0.5089746 0.14746671132820877 0.9144671480987152
0.5109745 0.1536648663512004 0.9139755805744099
0.5129744 0.15964034122519444 0.9132371540988482
0.5149743 0.16470909337589432 0.9117940976035949
0.5169742 0.17090729101650826 0.9101024042688078
0.5189741 0.176657510123184 0.9083671224489418
0.520974 0.18348231609529453 0.9068597893625128
0.5229739 0.1900708044683201 0.9049573053524297
0.5249738 0.19563776370196814 0.9033369836190241
0.5269737 0.20232188117383085 0.9014779960912299
0.5289736 0.20834484137458564 0.8988509199664886
0.5309735 0.21470241853573918 0.8969627191011772
0.5329734 0.22140379718938813 0.894582183403605
0.5349733 0.2280130748663687 0.8920027575658064
0.5369732 0.2345970420239522 0.8899776178268635
0.5389731 0.24188654136487323 0.887352827113403
0.540973 0.24825785510991166 0.8846919935895249
0.5429729 0.25526078518919554 0.8825763694501416
0.5449728 0.2626658505551135 0.8804139799422878
0.5469727 0.26966071219193466 0.8782885897824833
0.5489726 0.27702672061526745 0.8758691513578418
0.5509725 0.2837111398679859 0.8740215499361157
0.5529724 0.2910763207018309 0.8721192306126078
0.5549723 0.2982302024904127 0.8700851169016782
0.5569722 0.3048075437807918 0.868031801949006
0.5589721 0.31232217595236594 0.8663169612828933
0.560972 0.31937542943668795 0.8645727711355377
0.5629719 0.32584868608914824 0.8627540062413983
0.5649718 0.3331535031832547 0.8610517309315816
0.5669717 0.33961949850345635 0.8592683814822241
0.5689716 0.34595422837253986 0.8575752262764528
0.5709715 0.3518294666318627 0.8552806113916279
0.5729714 0.35790319359580186 0.8532832157254393
0.5749713 0.36390571947104666 0.8510184631966543
0.5769712 0.3701051844276716 0.8485941640988841
0.5789711 0.37574461856429714 0.8466857184167961
0.580971 0.381956134293005 0.8445550449963641
0.5829709 0.38709067540143954 0.84197914625338
0.5849708 0.3927815888430565 0.8396765100998065
0.5869707 0.39862959327324327 0.8369340871299876
0.5889706 0.40449274710148736 0.8335384406102115
0.5909705 0.40981669875308474 0.8302580702994632
0.5929704 0.41569747713147376 0.8268189969436897
0.5949703 0.4216287608929553 0.8233403568665316
0.5969702 0.4270174969899186 0.8200234638322494
0.5989701 0.43309211147412896 0.8165089681448694
0.60097 0.4387373926677497 0.8127571136087401
0.6029699 0.44491337982654333 0.8086550871919828
0.6049698 0.450567750782546 0.8051271496192002
0.6069697 0.45630659301060966 0.8009519931986363
0.6089696 0.46285294641492225 0.7973832171916483
0.6109695 0.4692606269599088 0.7934842881655401
0.6129694 0.4754482691871977 0.7890882217177569
0.6149693 0.4817417175052049 0.7853700497346199
0.6169692 0.4884671170319668 0.7813228287109795
0.6189691 0.494847840954133 0.777558336993569
0.620969 0.5015123658885873 0.7736197837811902
0.6229689 0.5077575444402854 0.7696511748111091
0.6249688 0.514123050371188 0.7659031350007335
0.6269687 0.5208359231704194 0.7620142177648759
0.6289686 0.5269595427321905 0.7583937582979752
0.6309685 0.533385392436228 0.7551350077321153
0.6329684 0.5390198014795511 0.7515758341715121
0.6349683 0.5453249613703192 0.747799052434639
0.6369682 0.5504036971803374 0.7441688036970703
0.6389681 0.5567441481008001 0.7403347991139062
0.640968 0.562846592652941 0.7370323270845967
0.6429679 0.5680527872699935 0.7335750322150454
0.6449678 0.5732075937226975 0.729982817490725
0.6469677 0.5785061734338305 0.7265727988820319
0.6489676 0.5841338579612836 0.7226036909657567
0.6509675 0.5891055173312383 0.718596550467946
0.6529674 0.5939330844333899 0.7147879801275387
0.6549673 0.5987065789254922 0.7108089377956002
0.6569672 0.6037132118909384 0.7068859225304542
0.6589671 0.6083020779927227 0.7024132143781978
0.660967 0.6129372564091711 0.697961349461906
0.6629669 0.6177044001959626 0.6930612072688962
0.6649668 0.6217006641701358 0.6883491059680016
0.6669667 0.6265652795448692 0.6831983713882775
0.6689666 0.6312306648174377 0.6780276559347462
0.6709665 0.6360475231793733 0.6725914160164473
0.6729664 0.640370295477293 0.6673523384251967
0.6749663 0.6452956914423993 0.6615070951997228
0.6769662 0.650045212325155 0.6558152960263751
0.6789661 0.6548999605399165 0.6500457630793383
0.680966 0.6596410115953921 0.644176040940027
0.6829659 0.6647155262592735 0.6385230458430191
0.6849658 0.6702277688613528 0.6326046776222602
0.6869657 0.6754264877704188 0.6270966790042167
0.6889656 0.6809258556550837 0.6215360307493631
0.6909655 0.6859564385627639 0.6157942504271027
0.6929654 0.6912748812377963 0.6100270343616949
0.6949653 0.6963078644650232 0.6043923249093632
0.6969652 0.7017520834342926 0.598436461671184
0.6989651 0.7071942404598673 0.5932021459821806
0.700965 0.7122283285136007 0.5876797622749006
0.7029649 0.7170626687783969 0.5824074439484654
0.7049648 0.7222129807654863 0.5770346084612347
0.7069647 0.7267038414388478 0.5717883670186947
0.7089646 0.732098201982217 0.5664516343535236
0.7109645 0.7369494285874756 0.5615973775223246
0.7129644 0.7409814850445741 0.5564959785453402
0.7149643 0.7456180106806205 0.5515806348438067
0.7169642 0.7497459878321929 0.5463328027624375
0.7189641 0.7538277602832889 0.5411288322907236
0.720964 0.757745646846191 0.5355958859972194
0.7229639 0.7617751693124114 0.5301839198283008
0.7249638 0.7657587454891485 0.5247568868022562
0.7269637 0.7695577305162854 0.5199118883836144
0.7289636 0.7729064929561186 0.513861208296999
0.7309635 0.7769961894449614 0.50823665537691
0.7329634 0.7802971557210461 0.502898931289199
0.7349633 0.783558346516881 0.4968739334511935
0.7369632 0.7870508403480414 0.4909042152468989
0.7389631 0.7896887267457576 0.4849110739540532
0.740963 0.793126743664733 0.4785769597072759
0.7429629 0.7963878553609308 0.4726202263690753
0.7449628 0.7997837665687452 0.4657553937362376
0.7469627 0.8027839711368963 0.4588559171387334
0.7489626 0.8063280171382594 0.4522743729521115
0.7509625 0.8093783291174487 0.4457074813284536
0.7529624 0.8124643473642613 0.439068815543527
0.7549623 0.8160291009879213 0.43215527489521904
0.7569622 0.8196702089410411 0.4252480401381947
0.7589621 0.8228293784561119 0.41829895940834394
0.760962 0.826235170486487 0.4112307909640173
0.7629619 0.8298017253672102 0.40473714485759055
0.7649618 0.8330852904163151 0.39799536259731594
0.7669617 0.8363255063734588 0.39085117121274415
0.7689616 0.8400327855973982 0.38416538505506237
0.7709615 0.843091147680225 0.37736091103006
0.7729614 0.8465800735695801 0.3704194735000837
0.7749613 0.849584271986052 0.36432633377625395
0.7769612 0.8529112899224968 0.35750993874149645
0.7789611 0.8561136250296303 0.3511815836806595
0.780961 0.8592409940231106 0.3444769486385025
0.7829609 0.862093382669425 0.3381687627647038
0.7849608 0.8648334851295246 0.33166634426420055
0.7869607 0.8676175390324222 0.325354397761489
0.7889606 0.8701079345963673 0.3191245937397382
0.7909605 0.8726039062161192 0.3124336399734457
0.7929604 0.8752045982479852 0.3061947533333974
0.7949603 0.8779863076314655 0.29989250289296626
0.7969602 0.8801215891665605 0.29336961794261107
0.7989601 0.882035078481607 0.28697029566512267
0.80096 0.8849841980929752 0.28041984882420246
0.8029599 0.8867588733403613 0.2737151164050454
0.8049598 0.8880842806192704 0.26695707243633704
0.8069597 0.8901737414822337 0.2607173522534962
0.8089596 0.8912902405364735 0.25343134976785164
0.8109595 0.8932729027134031 0.24670178933731443
0.8129594 0.8949764242313258 0.23974966140190576
0.8149593 0.896264737788909 0.23283530428824434
