! Created with skrf 1.8.0 (http://scikit-rf.org).
# GHz S RI R 50.0 
!freq ReS11 ImS11
0.001 0.6801016198958056 -0.5301799901284199
0.0029999 0.9981007286786852 -0.017109380227845805
0.0049998 0.989793875590335 -0.02394122661669068
0.0069997 0.9880120082455789 -0.029674191829171886
0.0089996 0.9869736547717625 -0.03770899035747821
0.0109995 0.986228576876653 -0.04444598430728208
0.0129994 0.9845279342644202 -0.05225326086457904
0.0149993 0.9841450410667187 -0.05908578057007685
0.0169992 0.9834223896814409 -0.0677037613639937
0.0189991 0.9835145161731011 -0.07398581637888446
0.020999 0.9804684477087668 -0.08202037676144669
0.0229989 0.9808348587414695 -0.08962087037076383
0.0249988 0.9800180860093042 -0.09705593889947456
0.0269987 0.9790878101784665 -0.10458014227089646
0.0289986 0.9783194166714295 -0.11249597402948609
0.0309985 0.9775018339887391 -0.12089868291624763
0.0329984 0.9758521220134808 -0.12743050996378008
0.0349983 0.9753022241258614 -0.13443552194333988
0.0369982 0.9742140211450713 -0.14302841275612652
0.0389981 0.973618455511003 -0.1498457279650462
0.040998 0.9725034854564338 -0.1567438246871185
0.0429979 0.9714232633439879 -0.1642315981355143
0.0449978 0.970876555406238 -0.17177328503368916
0.0469977 0.9693143829502161 -0.17903551789254812
0.0489976 0.9678445990890548 -0.18680567209060522
0.0509975 0.9667432652624308 -0.1938402751582621
0.0529974 0.9655053000958138 -0.20076328908110597
0.0549973 0.9636699906333794 -0.20777543724113107
0.0569972 0.9619981336783225 -0.21489023496692644
0.0589971 0.9601191058667802 -0.2218831808068566
0.060997 0.9582553296650561 -0.22902066816675498
0.0629969 0.956415567267901 -0.23588358613241128
0.0649968 0.9546888462472696 -0.24290409566581678
0.0669967 0.9523130455498623 -0.24952370273601
0.0689966 0.9500086068643341 -0.2569350913766063
0.0709965 0.9479279058872087 -0.2637396603720164
0.0729964 0.9454481911994748 -0.2707889322076957
0.0749963 0.9429460797440115 -0.27777606088826096
0.0769962 0.9402577779475546 -0.2847625823437718
0.0789961 0.9371700995608234 -0.2918174801305742
0.080996 0.9349655473603495 -0.29931873895675787
0.0829959 0.9321581329588156 -0.30620034927169454
0.0849958 0.9293317666851784 -0.31352462136126696
0.0869957 0.9266179550813498 -0.32080493344937117
0.0889956 0.924103387009521 -0.32774796799213807
0.0909955 0.92160056493123 -0.33529781208345727
0.0929954 0.9182962519806005 -0.34174913332259066
0.0949953 0.9154487696765389 -0.3497341895200226
0.0969952 0.9129948037688703 -0.3565687254289326
0.0989951 0.9102434789069247 -0.36294018589214483
0.100995 0.9054760802744601 -0.37105599406644807
0.1029949 0.9028471433348133 -0.37818184702704966
0.1049948 0.9003099251632269 -0.3856666202051147
0.1069947 0.8970474022608452 -0.3926606337642401
0.1089946 0.8941452030397152 -0.3997148577534784
0.1109945 0.8916576489182912 -0.4069559232975046
0.1129944 0.8891059636127531 -0.4140115681257446
0.1149943 0.8861699788801807 -0.42037158127310026
0.1169942 0.8826070859134391 -0.42713396543963045
0.1189941 0.8799409634648558 -0.43436323795599224
0.120994 0.8772627862116517 -0.44017529200948713
0.1229939 0.8736644811532425 -0.4471586515279141
0.1249938 0.8707627428668294 -0.45356044930470996
0.1269937 0.8670490476824425 -0.4594267876398137
0.1289936 0.864142199539838 -0.4662371045203465
0.1309935 0.8610269417765708 -0.4721118777804275
0.1329934 0.8571710910716277 -0.4781407791012676
0.1349933 0.8537979268796494 -0.48433388871441563
0.1369932 0.849900401109684 -0.4904976097024675
0.1389931 0.8464499276571836 -0.49629512435038814
0.140993 0.8424334911548299 -0.5021796344654811
0.1429929 0.8382896933922093 -0.507812470052733
0.1449928 0.8342128843192956 -0.513741945526588
0.1469927 0.8303223926197395 -0.5199351999646865
0.1489926 0.8261721882665242 -0.5256527771424164
0.1509925 0.8214431905672717 -0.5314934891680653
0.1529924 0.8173467341047882 -0.5373919126402426
0.1549923 0.81305669324385 -0.5430024624377613
0.1569922 0.8083295228635601 -0.5491065024288446
0.1589921 0.8035996847312599 -0.5549550255116428
0.160992 0.7992004868296708 -0.5613030702988737
0.1629919 0.7946457190385435 -0.5671274940199458
0.1649918 0.7901011189550006 -0.5727880005839971
0.1669917 0.7853689740182658 -0.5782505828819609
0.1689916 0.7805725932992609 -0.5842058119795013
0.1709915 0.7756052876697557 -0.5901038315250539
0.1729914 0.7714083981808666 -0.5959023624032391
0.1749913 0.7665276908729607 -0.6020371707063251
0.1769912 0.7616203503841406 -0.6078002188385769
0.1789911 0.7571972222141261 -0.6129518983746606
0.180991 0.7518701777134011 -0.618620895219179
0.1829909 0.7473253303809596 -0.6247262604983135
0.1849908 0.7422370133651498 -0.630731455163295
0.1869907 0.7378109643987538 -0.6359095026678558
0.1889906 0.7328327333111175 -0.6412613311173502
0.1909905 0.7278451495963271 -0.646653811954914
0.1929904 0.7231306794040215 -0.6522475946922465
0.1949903 0.7182209772027208 -0.6576574809917015
0.1969902 0.7131916645277399 -0.6623805153003964
0.1989901 0.7082813886483486 -0.6681702242696903
0.20099 0.7033926113224528 -0.6731828732084584
0.2029899 0.6985359846343863 -0.6780943223959967
0.2049898 0.6930989092986931 -0.683247596740497
0.2069897 0.6884987000280572 -0.6879922360775017
0.2089896 0.6833009764585696 -0.6929331980478756
0.2109895 0.6780323789234771 -0.6978029992379491
0.2129894 0.6727950411123105 -0.7024139191311888
0.2149893 0.6677000524776688 -0.7071434733655516
0.2169892 0.6625356948908896 -0.711827174996469
0.2189891 0.6570568753143682 -0.7163211031551238
0.220989 0.6517801977486428 -0.7210524388502128
0.2229889 0.6463276257706362 -0.7253486636851714
0.2249888 0.64094345647705 -0.7293359147111471
0.2269887 0.6352324037962511 -0.7337969292213979
0.2289886 0.629863912135783 -0.7383423920464708
0.2309885 0.6244703342034618 -0.7425903096257424
0.2329884 0.618586236697992 -0.7470369942169098
0.2349883 0.6130235381079848 -0.7511742869679818
0.2369882 0.6075482924176915 -0.7551501219997329
0.2389881 0.601664182752227 -0.7591425536847015
0.240988 0.5960915212760262 -0.7634438589088508
0.2429879 0.589851624443366 -0.7670074247231101
0.2449878 0.5846313742050587 -0.7707584210380197
0.2469877 0.5785637783586572 -0.7750773603903972
0.2489876 0.5728529569922919 -0.7788116481112844
0.2509875 0.5663231348621105 -0.7820984600574477
0.2529874 0.5605073788245036 -0.7862229989817369
0.2549873 0.5541966733945078 -0.7896840024357988
0.2569872 0.5478436242651463 -0.7931440706987692
0.2589871 0.5416036601958574 -0.7967637581208733
0.260987 0.5359145339273796 -0.800779058664045
0.2629869 0.5291881621152401 -0.8042616769075619
0.2649868 0.5230478373456999 -0.8076775226549859
0.2669867 0.5165021507815146 -0.811336261233872
0.2689866 0.5102437654203158 -0.8148785300943536
0.2709865 0.5034787339948523 -0.8181537398908606
0.2729864 0.4967840253474203 -0.8218230682024199
0.2749863 0.4905176606597855 -0.8254420534350486
0.2769862 0.48344405778612964 -0.828799041804753
0.2789861 0.47727062117578195 -0.8325563439638047
0.280986 0.47088521714817644 -0.8361545230271344
0.2829859 0.4641090346196822 -0.8399736979524943
0.2849858 0.457667171598854 -0.8433940489210113
0.2869857 0.45129984182101746 -0.8467043213158025
0.2889856 0.4446176793930391 -0.8507541947980093
0.2909855 0.4385783358150098 -0.8545317174747061
0.2929854 0.4327679780239788 -0.8577210756597853
0.2949853 0.4261716050333914 -0.8616507510840763
0.2969852 0.42023496871530014 -0.864739531937511
0.2989851 0.41412914010195173 -0.8685209772253774
0.300985 0.4085371702359556 -0.8717347659739783
0.3029849 0.4024518013603478 -0.8749145319237
0.3049848 0.3966279508643672 -0.8778639255032434
0.3069847 0.39144485656505745 -0.88126374882985
0.3089846 0.38571531612162335 -0.884423712243343
0.3109845 0.38010180720338327 -0.8868808946620302
0.3129844 0.37417101409226927 -0.8897745661435377
0.3149843 0.3682300322625626 -0.8922784027970729
0.3169842 0.3625543530933966 -0.8946149382707953
0.3189841 0.35706060655700333 -0.8967494400187338
0.320984 0.3512885593298806 -0.899191494966253
0.3229839 0.34583031934716113 -0.9015913057233559
0.3249838 0.3394558394303051 -0.9038070510349443
0.3269837 0.3334434769489616 -0.9056432626402707
0.3289836 0.3276362825150786 -0.9075100909752873
0.3309835 0.32156587247734203 -0.9092368298120872
0.3329834 0.31563845220867015 -0.9104839732251182
0.3349833 0.30911645734865595 -0.9115926177063175
0.3369832 0.3028647518327622 -0.912226898112035
0.3389831 0.29626651895238254 -0.9134690110277881
0.340983 0.28992411056165923 -0.9136128297915536
0.3429829 0.28340739810419857 -0.9142548368729563
0.3449828 0.276767919089309 -0.9147595456455997
0.3469827 0.2696525754160825 -0.9156838104217777
0.3489826 0.2624461294706575 -0.9161757148854884
0.3509825 0.25598509501446964 -0.916626490626915
0.3529824 0.24826495084950254 -0.9170817766595526
0.3549823 0.24081663929085745 -0.9176121467848246
0.3569822 0.2332516585735238 -0.9192847961906003
0.3589821 0.22575182608739386 -0.9202341773153628
0.360982 0.21821394061377974 -0.9215471416629071
0.3629819 0.2107601156059687 -0.9227525240599035
0.3649818 0.2032105978992258 -0.9242374362315441
0.3669817 0.19637783851690638 -0.9257786049113855
0.3689816 0.1892993333819879 -0.9272938707658317
0.3709815 0.18255539676645297 -0.9283377637636563
0.3729814 0.1756799786465709 -0.9299022115124113
0.3749813 0.16852999552870956 -0.9317388955007585
0.3769812 0.16134846356604868 -0.9334910768485184
0.3789811 0.15479712083083969 -0.9348219378744692
0.380981 0.14814357100391246 -0.9367081665798769
0.3829809 0.14145737295394134 -0.9377873424634969
0.3849808 0.13531881812317043 -0.9396372345328496
0.3869807 0.1289392181805996 -0.9408399583723502
0.3889806 0.1227432989784997 -0.9419951882850129
0.3909805 0.11663900210637913 -0.9431117596833155
0.3929804 0.11108706389210844 -0.9440603258419188
0.3949803 0.10511953108276684 -0.9447244207439841
0.3969802 0.09900400319196413 -0.9453088163818152
0.3989801 0.09296702856649453 -0.9458527517513425
0.40098 0.08735298883688103 -0.9458238061170159
0.4029799 0.08163929719781596 -0.9459976966874665
0.4049798 0.07573395772806332 -0.9462411973621514
0.4069797 0.07010796830938523 -0.9460926453531523
0.4089796 0.06383824603943075 -0.9457326515781876
0.4109795 0.05788800258472916 -0.9450108739026919
0.4129794 0.052157788935234296 -0.9438770032992564
0.4149793 0.045891333840480844 -0.9433780858285936
0.4169792 0.03968236577098296 -0.9425465136267408
0.4189791 0.033028607140077264 -0.9416040140382206
0.420979 0.026295138688767657 -0.9410703848774257
0.4229789 0.019345866554537926 -0.9399705392298954
0.4249788 0.01253259787471936 -0.9399255730050042
0.4269787 0.005661614717248195 -0.938914365297345
0.4289786 -0.0009290576891292012 -0.9375523749271151
0.4309785 -0.00844387520616946 -0.9372641737696282
0.4329784 -0.015516623970792624 -0.9367245877761103
0.4349783 -0.021877440904211308 -0.9365216834929269
0.4369782 -0.02891885486851424 -0.9361915108086415
0.4389781 -0.0360167223283809 -0.9356579492986348
0.440978 -0.042671865197636605 -0.9353120606142301
0.4429779 -0.049565237697807234 -0.9351377864877958
0.4449778 -0.0572194124123309 -0.9351034109015919
0.4469777 -0.06343365895679805 -0.9344444316457784
0.4489776 -0.0705308633045838 -0.934618310984481
0.4509775 -0.07697293025700558 -0.9345520544882091
0.4529774 -0.0836358799826585 -0.9345835851522761
0.4549773 -0.08991958408549251 -0.934256194259744
0.4569772 -0.09631757638550602 -0.9340757170245965
0.4589771 -0.1021493122273756 -0.9338686204789989
0.460977 -0.10801702975063396 -0.9336291841633492
0.4629769 -0.11402166254295543 -0.9333826306607529
0.4649768 -0.11892507471836757 -0.9327552676376372
0.4669767 -0.12476571539782617 -0.9320493301996066
0.4689766 -0.13004833504136895 -0.9311484003603983
0.4709765 -0.13546461110077732 -0.9298959617436472
0.4729764 -0.1405906913930798 -0.928836652560921
0.4749763 -0.1460375843655672 -0.9276632768085891
0.4769762 -0.15104839837265466 -0.9263539021142457
0.4789761 -0.15654613089576938 -0.9245266099027806
0.480976 -0.161591004843488 -0.9226950743927455
0.4829759 -0.16774023162968482 -0.9211715178679504
0.4849758 -0.1729622284539975 -0.9188893641966631
0.4869757 -0.1784269920408041 -0.9162158304780115
0.4889756 -0.1840404372202245 -0.9142006975933362
0.4909755 -0.18968786504926297 -0.9112209478614326
0.4929754 -0.19575973879760897 -0.9084995152604599
0.4949753 -0.20228690650412023 -0.9064012487225299
0.4969752 -0.20810850992503668 -0.9036660857690806
0.4989751 -0.21470906508163906 -0.9015748561441944
0.500975 -0.22062622324114328 -0.8989678203307768
0.5029749 -0.22713986069304815 -0.8968549537210777
0.5049748 -0.23379878483649283 -0.8939572619611914
0.5069747 -0.24033528924504174 -0.8925624018670861
0.5089746 -0.24679729837603062 -0.8900729410780002
0.5109745 -0.2527994371781691 -0.8878729162769718
0.5129744 -0.25953478595498924 -0.8857647175094602
0.5149743 -0.26642423536856047 -0.8833531667657107
0.5169742 -0.2725339513292735 -0.8814582705226635
0.5189741 -0.2792440685123734 -0.8798403712514824
0.520974 -0.28544177989963626 -0.8782546775630794
0.5229739 -0.29102287396074034 -0.8770787553566063
0.5249738 -0.29742590167544325 -0.8750475844183128
0.5269737 -0.3038976328759671 -0.8735232144256924
0.5289736 -0.30976913113754856 -0.8717819409999562
0.5309735 -0.3157684842388285 -0.8706209129910796
0.5329734 -0.32111305243381455 -0.8685618179788036
0.5349733 -0.3267254356185906 -0.86701201936903
0.5369732 -0.33209575089759313 -0.8651991481495591
0.5389731 -0.3373372478337519 -0.863548480474576
0.540973 -0.34221659943837585 -0.8613265586030462
0.5429729 -0.3469782207477525 -0.8591589896273706
0.5449728 -0.3520925275505353 -0.8574442630361434
0.5469727 -0.3569769652042054 -0.8551102017196206
0.5489726 -0.3611153073095171 -0.8528094661087186
0.5509725 -0.3661107061416222 -0.8501477471963255
0.5529724 -0.37128463267640477 -0.8475783069363514
0.5549723 -0.3766872756992073 -0.8454801587688229
0.5569722 -0.38044112394789265 -0.8422964431727207
0.5589721 -0.3852258615554398 -0.8391147494968205
0.560972 -0.39014981843797764 -0.8353612757777142
0.5629719 -0.3946307461565866 -0.8320193655061251
0.5649718 -0.39960116721884603 -0.8289202836116354
0.5669717 -0.40454118924047233 -0.8252062020554689
0.5689716 -0.40979912424787435 -0.8215600284126517
0.5709715 -0.41513078097836187 -0.8179591511788488
0.5729714 -0.42023325228724023 -0.8145021579911786
0.5749713 -0.4257810217011884 -0.8109077567536852
0.5769712 -0.43022569208850686 -0.8074315263302382
0.5789711 -0.43578334775625616 -0.8039360713368939
0.580971 -0.4415700986577693 -0.8000507651455488
0.5829709 -0.44711913935403724 -0.7969388675507769
0.5849708 -0.4530720959496902 -0.7931481962365905
0.5869707 -0.45884209707102597 -0.7900691525813197
0.5889706 -0.46399811381129036 -0.7868502613011304
0.5909705 -0.46960333840366997 -0.7839854748839865
0.5929704 -0.4749166865405405 -0.7811262896184953
0.5949703 -0.47999454027604915 -0.7779639644212266
0.5969702 -0.4853109904916101 -0.7750064164631665
0.5989701 -0.490913160447968 -0.7718091095348121
0.60097 -0.4960965621536527 -0.7689086385659661
0.6029699 -0.5007436170936523 -0.7661760992678968
0.6049698 -0.5053102166491592 -0.7629258364572687
0.6069697 -0.5099314183426578 -0.7602674361145668
0.6089696 -0.5146936558457891 -0.7572643260077302
0.6109695 -0.5188032231235744 -0.7543349057685873
0.6129694 -0.5230722149432422 -0.7516475892932204
0.6149693 -0.5270778629334091 -0.748503606959231
0.6169692 -0.5314205576283424 -0.7449861027792716
0.6189691 -0.535300321039822 -0.7421595146153539
0.620969 -0.5390138323716305 -0.7385965862343952
0.6229689 -0.5433694306409986 -0.7350167871335894
0.6249688 -0.5467262291868239 -0.7311795088819254
0.6269687 -0.5508726398480416 -0.7275867560890351
0.6289686 -0.5548964162256379 -0.7234175509002998
0.6309685 -0.5583633016336385 -0.7187652757675846
0.6329684 -0.5621463561959752 -0.7145593345301106
0.6349683 -0.5665975587037865 -0.7098470004312672
0.6369682 -0.5703171968892733 -0.7059814368369215
0.6389681 -0.5745715481350775 -0.7019355324699217
0.640968 -0.5786331044411704 -0.6971505763871112
0.6429679 -0.5826267962873944 -0.6924475046265277
0.6449678 -0.5869674320529437 -0.6880067842470348
0.6469677 -0.5914546303541183 -0.6834622684546896
0.6489676 -0.5960058797639509 -0.6791672194952242
0.6509675 -0.6009811476339946 -0.674639003035395
0.6529674 -0.605640199151978 -0.6697526076578948
0.6549673 -0.6102761382574032 -0.6656844987866193
0.6569672 -0.6151582909994525 -0.6612232297814261
0.6589671 -0.6197717511951244 -0.656947374393187
0.660967 -0.6239261063865821 -0.6527919536150601
0.6629669 -0.6288345792966055 -0.6488119693202195
0.6649668 -0.6332400725813663 -0.6449239329278393
0.6669667 -0.6378322763827023 -0.6408831177414023
0.6689666 -0.6426142929798087 -0.6368726912784017
0.6709665 -0.6462348341514337 -0.6332699172973385
0.6729664 -0.6498704547478585 -0.6294199060995386
0.6749663 -0.654289551668231 -0.6256082336233076
0.6769662 -0.6580686007761174 -0.6221353486507178
0.6789661 -0.6622663710558847 -0.6184582332330957
0.680966 -0.6659030009616941 -0.6146450988423096
0.6829659 -0.6695058705314915 -0.6112980986171603
0.6849658 -0.6724869652456241 -0.6077626225973491
0.6869657 -0.6758679135526213 -0.6040622971721872
0.6889656 -0.6786563081517154 -0.6001808516946355
0.6909655 -0.6821040194544089 -0.5964219964896215
0.6929654 -0.6848774351569544 -0.5922057606921649
0.6949653 -0.6879254819552358 -0.5882863349742278
0.6969652 -0.6909288304911417 -0.5840244882337036
0.6989651 -0.6937145266149376 -0.579367364300009
0.700965 -0.6967289267260104 -0.5752931721387416
0.7029649 -0.6998380555793682 -0.5707923436387616
0.7049648 -0.701973467245858 -0.5656826507126907
0.7069647 -0.7051469122498794 -0.5609179513167923
0.7089646 -0.7071458025602364 -0.5556186791591069
0.7109645 -0.7101281169614819 -0.5506843774057829
0.7129644 -0.7133788009071689 -0.5454249929262374
0.7149643 -0.7161366617620075 -0.5405834492611493
0.7169642 -0.7199220104581763 -0.5353730932630534
0.7189641 -0.7230147343340285 -0.5297577955471612
0.720964 -0.7263765028545774 -0.5247993056070068
0.7229639 -0.7296238279374317 -0.5200026421272769
0.7249638 -0.7325943988116499 -0.5149999214643375
0.7269637 -0.7355463916090792 -0.5096118139000019
0.7289636 -0.7393431343661543 -0.504541829750682
0.7309635 -0.7425249314790208 -0.49962256426887924
0.7329634 -0.7459522933001986 -0.49464608938804244
0.7349633 -0.7492307344139315 -0.48967833523141036
0.7369632 -0.7528996092079424 -0.48477170641657974
0.7389631 -0.7560401515995971 -0.4800371003781697
0.740963 -0.7591292495783143 -0.47548105221221193
0.7429629 -0.7618354756924957 -0.47093549445368066
0.7449628 -0.7647216161378156 -0.4662897640465723
0.7469627 -0.7680170015776404 -0.4620096383781848
0.7489626 -0.7704950122706075 -0.4572174621218146
0.7509625 -0.7735559773351599 -0.45299034442623176
0.7529624 -0.7765489448886734 -0.4485676588008023
0.7549623 -0.7790072599607452 -0.44431588668207916
0.7569622 -0.7815370012371781 -0.440098087406005
0.7589621 -0.7842259706367292 -0.4354832273247221
0.760962 -0.7863390404443357 -0.4311760729835744
0.7629619 -0.7885212699841805 -0.42674684878327435
0.7649618 -0.7903658462551327 -0.4223227931207735
0.7669617 -0.7928580215747809 -0.417404973018738
0.7689616 -0.7950096946554064 -0.4129146117757707
0.7709615 -0.7967034115124381 -0.4082829484979122
0.7729614 -0.7986919029021683 -0.40331312690170407
0.7749613 -0.7997148825132074 -0.39808533171006905
0.7769612 -0.8011423836444529 -0.39323281450017555
0.7789611 -0.8030764085173788 -0.3875582152446282
0.780961 -0.8048763790739485 -0.3827706416252059
0.7829609 -0.8066529347832249 -0.37698024817899795
0.7849608 -0.8080561992038976 -0.37180256785014093
0.7869607 -0.8101260669042308 -0.36624154036039686
0.7889606 -0.8122464937453433 -0.3607743182861798
0.7909605 -0.813758196657958 -0.355441193352556
0.7929604 -0.8159282726321933 -0.3499354869511487
0.7949603 -0.8178953214389111 -0.34454322956667327
0.7969602 -0.8200522032114104 -0.3388973677221855
0.7989601 -0.8220200720603431 -0.333232549647395
0.80096 -0.8240133024219543 -0.32801773891850117
