! Created with skrf 1.8.0 (http://scikit-rf.org).
# GHz S RI R 50.0 
!freq ReS11 ImS11
0.001 -1.017999559684942 0.03774756502590772
0.0029999 -0.9857019484891337 0.005308887590485756
0.0049998 -0.9528351178735921 0.02418637247802688
0.0069997 -0.9474055945274817 0.03121862044424245
0.0089996 -0.9423045742855448 0.04226917877946079
0.0109995 -0.9407413436641159 0.05198685620473542
0.0129994 -0.939605683778041 0.060826673896530736
0.0149993 -0.9387027889716778 0.06911234126173671
0.0169992 -0.9378273467708214 0.07763669508737714
0.0189991 -0.9370930199709477 0.08468537504476736
0.020999 -0.9358895766617026 0.09268002737988046
0.0229989 -0.9347416960079087 0.10052163188960023
0.0249988 -0.933201818313199 0.10848736071948245
0.0269987 -0.9317114643831449 0.1165421293537591
0.0289986 -0.9303432643937193 0.12461359900282626
0.0309985 -0.9288334663237557 0.1325277178822578
0.0329984 -0.9272364049990887 0.14066829025533856
0.0349983 -0.9255401375392412 0.14859564857594265
0.0369982 -0.9237120085675355 0.15627415887303836
0.0389981 -0.9217283124215385 0.16466929481061338
0.040998 -0.9201880411752303 0.1729428718308582
0.0429979 -0.9177932854373776 0.1806053580465422
0.0449978 -0.9155779089689304 0.18826685061557674
0.0469977 -0.913728347957866 0.19660801530595395
0.0489976 -0.9107571615458232 0.20460363703404516
0.0509975 -0.9086387749755824 0.21249813261415085
0.0529974 -0.9062673123946325 0.22077644953611802
0.0549973 -0.9028694127304195 0.23076484399543407
0.0569972 -0.9011378678363722 0.23755315802205407
0.0589971 -0.8988484086310812 0.2460345684390663
0.060997 -0.8965620349673575 0.2543640185624934
0.0629969 -0.8934811119808537 0.26210533687586945
0.0649968 -0.8909344203150116 0.270437641197245
0.0669967 -0.8891397431323742 0.2789759444342974
0.0689966 -0.8865923201409435 0.2861426016016284
0.0709965 -0.8839475155812451 0.29482744254517884
0.0729964 -0.8806941105178449 0.3026859240294626
0.0749963 -0.8784196166357024 0.31007499686578355
0.0769962 -0.8764049108486933 0.3181801150614008
0.0789961 -0.8733564160853589 0.3253058181765096
0.080996 -0.870408920960428 0.3332430185898596
0.0829959 -0.8674430904524345 0.3409007841721127
0.0849958 -0.8646441747986773 0.3479492863100798
0.0869957 -0.8616003538581151 0.35572127776140927
0.0889956 -0.8587769889293518 0.36276823832298905
0.0909955 -0.8555768334192625 0.36958636467545625
0.0929954 -0.8520627663710327 0.3768430814909335
0.0949953 -0.8485678861730046 0.38412748260014773
0.0969952 -0.8450311734668007 0.3908730671441414
0.0989951 -0.8411919602225016 0.398192140034278
0.100995 -0.8388030178572252 0.4057405559346725
0.1029949 -0.8353270427436902 0.4127953243288033
0.1049948 -0.8314739169594711 0.4194985227552683
0.1069947 -0.8273776238794259 0.4258931933619514
0.1089946 -0.8232242902027372 0.43267023050038705
0.1109945 -0.8188469619610261 0.43943748015329986
0.1129944 -0.8146946971650372 0.44606541430150387
0.1149943 -0.8100083228569719 0.4525537027340253
0.1169942 -0.8056665971880014 0.45950049731043835
0.1189941 -0.800795314618522 0.4662312827003616
0.120994 -0.7962553796822583 0.4732418709970594
0.1229939 -0.7912522622857258 0.48045311978788746
0.1249938 -0.7869839719446433 0.48722936033946673
0.1269937 -0.7822819532584173 0.49384139199667737
0.1289936 -0.7775750120238352 0.5013805615720184
0.1309935 -0.7725712471760529 0.5081627017766148
0.1329934 -0.7676577935413398 0.5149808246715513
0.1349933 -0.7627244639564885 0.5218756243188916
0.1369932 -0.7577953816619313 0.5288869205109021
0.1389931 -0.7528210471640429 0.535643127656596
0.140993 -0.7478814187770138 0.5429907927163955
0.1429929 -0.7426830346735924 0.5490154393861174
0.1449928 -0.7383794679492696 0.556121772869311
0.1469927 -0.7334046641906184 0.5627004261746567
0.1489926 -0.7283502316198982 0.5694554014667862
0.1509925 -0.7230691766696801 0.5756394671347598
0.1529924 -0.7181980063954896 0.582473494561424
0.1549923 -0.7133344960793726 0.5894260158257588
0.1569922 -0.7078012845437129 0.5957512593404353
0.1589921 -0.703103996253514 0.6018730395843536
0.160992 -0.6978646369946108 0.6080099391515009
0.1629919 -0.6923217511057485 0.6142267403599218
0.1649918 -0.6870972433841209 0.620008037382842
0.1669917 -0.6815002529592992 0.6257353929191919
0.1689916 -0.676333347338826 0.6317848875965475
0.1709915 -0.6709590083048715 0.637406766242011
0.1729914 -0.6653591976943948 0.6431262378752322
0.1749913 -0.6594745410851569 0.6485235660071968
0.1769912 -0.6541940660957516 0.6543536528658723
0.1789911 -0.6485407006204982 0.6596193580346883
0.180991 -0.6425728224471619 0.6651113723505528
0.1829909 -0.6365059287975151 0.6706191458743989
0.1849908 -0.6306951458991411 0.6759523959164224
0.1869907 -0.6247654405888863 0.6809587019927504
0.1889906 -0.618455677435312 0.6867010214660108
0.1909905 -0.6120763359374474 0.6920507254680917
0.1929904 -0.6057490392325425 0.6969435366253942
0.1949903 -0.5994895329289249 0.7019917065073427
0.1969902 -0.5930626375765291 0.7073019815214318
0.1989901 -0.5864986621001755 0.7127537523871549
0.20099 -0.5802517757046718 0.7177128393782517
0.2029899 -0.5736529359448115 0.7226696635928659
0.2049898 -0.566857519850235 0.7271934454240455
0.2069897 -0.5602284492485193 0.732648848828072
0.2089896 -0.5540226886647874 0.7377151384169633
0.2109895 -0.5468820045895129 0.7425234592779515
0.2129894 -0.5399654577777374 0.7478778441335825
0.2149893 -0.53351540344256 0.7525901988659695
0.2169892 -0.5263173934517311 0.7574124426650605
0.2189891 -0.5195379112611715 0.7622574316433612
0.220989 -0.5126519385141 0.7668738870553687
0.2229889 -0.5056741662677564 0.7711607212952077
0.2249888 -0.49816846332225573 0.7759824608262784
0.2269887 -0.491409354367182 0.7802554348360919
0.2289886 -0.48409254153583614 0.7847572407441689
0.2309885 -0.4771083343302952 0.7892156826609382
0.2329884 -0.46942407681283227 0.7935688769402135
0.2349883 -0.4620258457026113 0.7980994555012958
0.2369882 -0.4550553539122329 0.8021747408027629
0.2389881 -0.4481390203887836 0.8065556415232058
0.240988 -0.44029916622383114 0.8103841349279095
0.2429879 -0.43294986819967607 0.8144713160492738
0.2449878 -0.42560504942582994 0.8187281454863007
0.2469877 -0.4181171486189455 0.8227860904958382
0.2489876 -0.41096003201239967 0.82705808614538
0.2509875 -0.40346230931155547 0.8306933159232692
0.2529874 -0.3962934941543751 0.834741758590391
0.2549873 -0.389053858965466 0.8388637846302955
0.2569872 -0.3814207100302938 0.842777413005052
0.2589871 -0.3737970871090246 0.8461582471899053
0.260987 -0.3668551809898748 0.8498532363241605
0.2629869 -0.35928421824140666 0.853519181711825
0.2649868 -0.3518743919371273 0.8566744706886885
0.2669867 -0.34472232196978836 0.8595899407342557
0.2689866 -0.3370141431765188 0.8628013881685545
0.2709865 -0.32989980344546554 0.8659044282390903
0.2729864 -0.3223247610893579 0.86894578715062
0.2749863 -0.3149592196854519 0.8719868113841097
0.2769862 -0.3074405205485208 0.8747441827980279
0.2789861 -0.3003465684404184 0.8766613697131692
0.280986 -0.2924194543044136 0.8791256438710431
0.2829859 -0.28540412190384135 0.8814310748461855
0.2849858 -0.2771040442993321 0.8835481908370557
0.2869857 -0.2691859392799659 0.8855527456367287
0.2889856 -0.26154469689958837 0.887224516886395
0.2909855 -0.2531186178627344 0.8896444880191281
0.2929854 -0.24554899268957542 0.8914839174307291
0.2949853 -0.23719242180121278 0.8928435833456885
0.2969852 -0.22866772752762804 0.8942191724450937
0.2989851 -0.2207871792245004 0.8953729877133197
0.300985 -0.21196087532464175 0.8968368528824815
0.3029849 -0.20332095896767133 0.8980176005500227
0.3049848 -0.19469571344089673 0.8993893806890945
0.3069847 -0.18548673906172256 0.9001204512886302
0.3089846 -0.17637680339405348 0.9012174429120074
0.3109845 -0.16743928177486947 0.902613780195147
0.3129844 -0.15841483147871693 0.9039764203914138
0.3149843 -0.14920574708611473 0.9048234530528014
0.3169842 -0.1399599566233378 0.905916453051914
0.3189841 -0.13086686418458235 0.9072881376426375
0.320984 -0.12133734425255968 0.9079699163640985
0.3229839 -0.11211536519561369 0.9090897930106022
0.3249838 -0.10347805572136518 0.9096148538615133
0.3269837 -0.09425988631885529 0.9107679561186977
0.3289836 -0.08508054726002892 0.9117589102230054
0.3309835 -0.07577437384095814 0.9129630216124601
0.3329834 -0.06717643947132651 0.914321525978764
0.3349833 -0.058270644881220496 0.9160864446672992
0.3369832 -0.049617973307676574 0.9180650877539713
0.3389831 -0.040517170290417154 0.9196808938088594
0.340983 -0.03160177204124141 0.9210805418391417
0.3429829 -0.023040388569733186 0.9226920697937973
0.3449828 -0.01406802262846376 0.9242051329921646
0.3469827 -0.00560818131339165 0.9250746550536978
0.3489826 0.0027095173791958117 0.9260018228686944
0.3509825 0.011461209396204108 0.9267409158644739
0.3529824 0.0198275269362087 0.9275516984639365
0.3549823 0.028189065398682725 0.9282630707077674
0.3569822 0.036048828039943394 0.928446283413644
0.3589821 0.04413803768236557 0.9287049072592937
0.360982 0.05185246208498929 0.9289279910601711
0.3629819 0.06026030053199774 0.9285980968420304
0.3649818 0.06795706493474349 0.9280362962758525
0.3669817 0.07589180348079644 0.9269107629490205
0.3689816 0.08436863587258764 0.9263423754029638
0.3709815 0.09242180226605999 0.9250999760236605
0.3729814 0.10081480928975135 0.9239985135086967
0.3749813 0.10865437959501126 0.9225081206877291
0.3769812 0.11684823012341058 0.920821805059375
0.3789811 0.12545233839172154 0.9200917388915982
0.380981 0.13393679823927412 0.9177506789059405
0.3829809 0.1427477826540506 0.9157811283266648
0.3849808 0.1510479215705565 0.9140007423859686
0.3869807 0.16031141831888268 0.9115213154860908
0.3889806 0.16939726313046977 0.9096859991903854
0.3909805 0.17869858034287422 0.9070865956205317
0.3929804 0.18790709619107318 0.9049742655690202
0.3949803 0.19710078002936726 0.902647771683124
0.3969802 0.20618492773091923 0.9007080442079053
0.3989801 0.2154423553749194 0.8985685169297855
0.40098 0.2248343408104389 0.8961293122759164
0.4029799 0.23375311355391995 0.8944137113730485
0.4049798 0.2431821668934071 0.8918293920245155
0.4069797 0.25257146772614586 0.8894767235254174
0.4089796 0.2617441543967012 0.8877289707921613
0.4109795 0.2707111041577904 0.8853725014542394
0.4129794 0.2799204248093446 0.8831708037107893
0.4149793 0.2895488771230967 0.881035090507688
0.4169792 0.29826025078122786 0.8790428472632658
0.4189791 0.3068572191973998 0.8767343975779011
0.420979 0.3154426349545169 0.8744142220506521
0.4229789 0.3240646103612305 0.8720975901412708
0.4249788 0.3324819812071222 0.869756839216427
0.4269787 0.34070677776317587 0.8673790919411983
0.4289786 0.3488734100790495 0.8648668433272586
0.4309785 0.3565628877887957 0.8619517797564873
0.4329784 0.36512987393108887 0.858877863599373
0.4349783 0.37301179967511927 0.8547309625293306
0.4369782 0.3805165976408286 0.8517903636732582
0.4389781 0.38835129701442095 0.8485107825402918
0.440978 0.39596326236292567 0.8444477155456103
0.4429779 0.4036915546277803 0.8406531393087094
0.4449778 0.4115239610685285 0.8369965878051547
0.4469777 0.4190576507781689 0.8327010755461867
0.4489776 0.4267346070818432 0.8279818964761319
0.4509775 0.43451722437896356 0.8234585302941357
0.4529774 0.44220183747424924 0.8183264790992716
0.4549773 0.4500504369704232 0.8137787766903694
0.4569772 0.4581921193296477 0.8085885341152258
0.4589771 0.4658934442658948 0.8032241305675603
0.460977 0.4744404950069906 0.7981046719893029
0.4629769 0.48266919435698513 0.7932704113080511
0.4649768 0.49086466769781556 0.7877531379377137
0.4669767 0.4990525955862395 0.7826953156431797
0.4689766 0.5071856889067886 0.7774906096185427
0.4709765 0.5154224546922511 0.772094307364393
0.4729764 0.5235371966249652 0.7666066886950218
0.4749763 0.5318330102937423 0.7612540273033284
0.4769762 0.5399547971114308 0.7561283763586548
0.4789761 0.5484435886733209 0.7503203812619325
0.480976 0.5564580244169881 0.7451743733653227
0.4829759 0.5651609148795818 0.7400913078117327
0.4849758 0.5729801365435476 0.7345709981036954
0.4869757 0.5807833540632142 0.7292333367965014
0.4889756 0.5889531528637337 0.723800677311679
0.4909755 0.596377541677923 0.7185325719902987
0.4929754 0.6039662864543549 0.7129886612648478
0.4949753 0.6112572136428742 0.7080547371963226
0.4969752 0.6182445837775329 0.7022575436915911
0.4989751 0.6254115882070851 0.6969550144777321
0.500975 0.6319816592221442 0.6912491555195476
0.5029749 0.6387871946905009 0.6855647993430749
0.5049748 0.6454522149347883 0.6797875514164218
0.5069747 0.6516594774120381 0.6740342468060689
0.5089746 0.6583435031632673 0.6679086954648297
0.5109745 0.6650601798382401 0.662239493524598
0.5129744 0.6715781166239355 0.6554619264194581
0.5149743 0.6770547649583996 0.6492868903916345
0.5169742 0.6831316552900322 0.6427437638367949
0.5189741 0.689439881591488 0.635823264247185
0.520974 0.695303788305852 0.6291564380126835
0.5229739 0.701567236588823 0.6212620306292083
0.5249738 0.7072842186118478 0.6146272647600646
0.5269737 0.7135393374186326 0.6073136357682859
0.5289736 0.719038723732743 0.5997870981930389
0.5309735 0.7247057474416357 0.5926996905966903
0.5329734 0.7303259331899999 0.5842505137273698
0.5349733 0.7358429831984961 0.5764247518686377
0.5369732 0.7416574285362655 0.5688525774700478
0.5389731 0.747700385112443 0.5608057876374246
0.540973 0.7534767753650138 0.5524005378088466
0.5429729 0.7591171785871169 0.5444772971880862
0.5449728 0.7649483226016365 0.5364671815468864
0.5469727 0.7707794605223617 0.5283459972455975
0.5489726 0.7762915377979392 0.5206182781210527
0.5509725 0.7818434220245831 0.5122242135644073
0.5529724 0.7877257980685503 0.5040633584515309
0.5549723 0.7930438528756109 0.49594468265430325
0.5569722 0.7983873121274497 0.48812352622154453
0.5589721 0.8038854479293952 0.47979790375340203
0.560972 0.8092049510431467 0.47193212375016874
0.5629719 0.8144169894356348 0.4638039318371934
0.5649718 0.8197557881282096 0.45551911436592796
0.5669717 0.824387759735416 0.4475111712197519
0.5689716 0.829428317735152 0.439762305751013
0.5709715 0.8334510620639327 0.4314631657039981
0.5729714 0.8382040755809878 0.4238178864934408
0.5749713 0.842347396154681 0.41520636759685475
0.5769712 0.8468792141639486 0.4070786544782391
0.5789711 0.8510725604428542 0.3987797715354624
0.580971 0.855671422214696 0.3903559281775303
0.5829709 0.8589249851041361 0.38225123768596697
0.5849708 0.8626575980791036 0.3737584125568185
0.5869707 0.866553029986745 0.365159596635477
0.5889706 0.8702889073189937 0.3562595271689542
0.5909705 0.8731999234301657 0.34753857312866304
0.5929704 0.8765540531458736 0.3384306002998002
0.5949703 0.8802043612532384 0.32895022407496366
0.5969702 0.883361817914043 0.3206247612153434
0.5989701 0.8863277915535565 0.31168939923027905
0.60097 0.8890107496899339 0.30262776598057906
0.6029699 0.8918393200741791 0.29312932095029265
0.6049698 0.8949329655954626 0.28379256306745754
0.6069697 0.897563508318577 0.2747962440633991
0.6089696 0.9004166050364656 0.2651751920454535
0.6109695 0.9033025333696039 0.25593221587246495
0.6129694 0.9057258860682216 0.24640859573988477
0.6149693 0.9083684635722545 0.23715480070195666
0.6169692 0.9110636377964743 0.22744056094839565
0.6189691 0.9132507071631119 0.21824565578131433
0.620969 0.9156191499740522 0.20824544361123803
0.6229689 0.9176601485944159 0.1992616478963894
0.6249688 0.9197971075124018 0.18984350532850228
0.6269687 0.921997245621984 0.1802797449810184
0.6289686 0.9240082433481518 0.17083994651415346
0.6309685 0.9259212958613257 0.16182997552369757
0.6329684 0.9277792948949095 0.1525281707034956
0.6349683 0.9293667969023474 0.14258546995152174
0.6369682 0.9308744551428112 0.13353903332629996
0.6389681 0.9322771515834659 0.12435601491057885
0.640968 0.9337779746708105 0.11459212191451484
0.6429679 0.9350581589362077 0.1055800358125362
0.6449678 0.9358378342738403 0.09597978348818498
0.6469677 0.936990979780071 0.08651638139253572
0.6489676 0.9379499739734423 0.07713794551586899
0.6509675 0.9383988342455641 0.0677287642212624
0.6529674 0.9392151004615215 0.05809286403065651
0.6549673 0.9398451658811137 0.04819972849482405
0.6569672 0.9401302116184344 0.03885421208024892
0.6589671 0.9406910962747027 0.02905754642747793
0.660967 0.9407935528516471 0.019488689546999297
0.6629669 0.9408356335089083 0.010230421258413953
0.6649668 0.9405497802791064 0.00048575449543160343
0.6669667 0.9407460617677247 -0.009481090436693804
0.6689666 0.940534252786956 -0.019046671193483217
0.6709665 0.9404327271477613 -0.028719125454808384
0.6729664 0.9400451123716006 -0.038613539787380774
0.6749663 0.939686166452996 -0.04801878453956725
0.6769662 0.9390516882537531 -0.057741620653504966
0.6789661 0.9386051095656363 -0.0675690090206567
0.680966 0.9378339694632517 -0.07697463830265121
0.6829659 0.9374001321529017 -0.08633606704328864
0.6849658 0.9361707636370231 -0.09600293699325124
0.6869657 0.9352389814150919 -0.10521034123774976
0.6889656 0.9344848232037037 -0.11487703404568496
0.6909655 0.93317320229812 -0.12401477942377565
0.6929654 0.931995040666483 -0.13372018822128193
0.6949653 0.9304058027165338 -0.1427334076108395
0.6969652 0.9290389045325367 -0.15211947189930985
0.6989651 0.9275742067162952 -0.16135380324113358
0.700965 0.925930773682517 -0.17046312995313084
0.7029649 0.9239713432738058 -0.17939096102786056
0.7049648 0.9221782045803009 -0.18883237473801628
0.7069647 0.9197021720858665 -0.19778657459102733
0.7089646 0.9175828779974207 -0.20698276871570487
0.7109645 0.9151076854887789 -0.21582434002260895
0.7129644 0.9125049140189818 -0.22537832510474126
0.7149643 0.9100177714401416 -0.23437947496348271
0.7169642 0.9074058622700104 -0.24399875043836175
0.7189641 0.9047293033317451 -0.25271055298574874
0.720964 0.9017156464600913 -0.2622174142418893
0.7229639 0.8984982364317488 -0.271256890708763
0.7249638 0.8955192826323949 -0.2804136362269265
0.7269637 0.8929091378825874 -0.28961377493602763
0.7289636 0.8897496087717609 -0.2985442155816062
0.7309635 0.886275805182855 -0.3081176684376984
0.7329634 0.8831090203443602 -0.3172487446821366
0.7349633 0.8802829970087728 -0.32642227752767417
0.7369632 0.8765867210213656 -0.33576152440186224
0.7389631 0.8737969538310569 -0.3450143468968945
0.740963 0.8705171582542114 -0.3543041737697822
0.7429629 0.8673111571187502 -0.36280794291566193
0.7449628 0.8642317081439482 -0.37188775505732036
0.7469627 0.8604239264087024 -0.38081149750283166
0.7489626 0.8570486622109456 -0.3893380559150063
0.7509625 0.8532886340722725 -0.3984258380256778
0.7529624 0.8494678693430808 -0.406571315897626
0.7549623 0.8458245317931292 -0.41477551801631296
0.7569622 0.8418687210371736 -0.4234834250021394
0.7589621 0.8382199700919264 -0.43150770265188
0.760962 0.8340272558390474 -0.4393331890425183
0.7629619 0.830401071694402 -0.44717808381820773
0.7649618 0.8259411161035287 -0.4549349980273032
0.7669617 0.8216587661496485 -0.46258975525832996
0.7689616 0.8170546363467653 -0.4700352686497715
0.7709615 0.812742380751456 -0.47813781069150396
0.7729614 0.8076572098569671 -0.4854396767082929
0.7749613 0.8028368438344922 -0.49290548024892933
0.7769612 0.7971723505930388 -0.49990775916265723
0.7789611 0.7919185774869549 -0.5070203951763524
0.780961 0.7867726150680965 -0.514062917659294
0.7829609 0.7807889013847259 -0.5216233152789258
0.7849608 0.7750399331214781 -0.5290616914023678
0.7869607 0.7693798891170824 -0.5361150581612117
0.7889606 0.7632314096108335 -0.5435483315140096
0.7909605 0.7569264178315396 -0.5504020150036719
0.7929604 0.7506029689023621 -0.5578229979296495
0.7949603 0.7446373637079982 -0.5654588853861784
0.7969602 0.7380668227003662 -0.5728335450408101
0.7989601 0.7314433969591617 -0.5799130601404481
0.80096 0.7255631830199316 -0.588306187174325
0.8029599 0.7192683663591456 -0.5958792816735001
0.8049598 0.7127699785008672 -0.6033425124873146
0.8069597 0.7067068091160342 -0.611489440844487
0.8089596 0.7005513454962776 -0.6187148333256204
0.8109595 0.6941653077971653 -0.6269413923578319
0.8129594 0.6885089227521801 -0.634386554046357
0.8149593 0.6823750410117657 -0.6416614484280008
