! Created with skrf 1.8.0 (http://scikit-rf.org).
# GHz S RI R 50.0 
!freq ReS11 ImS11
0.001 -0.5164385127464381 0.9827773015132185
0.0029999 0.9953287942685206 -0.011146605855073433
0.0049998 0.9887331808471608 -0.02455831076378298
0.0069997 0.98866621471561 -0.030525830902340845
0.0089996 0.9870696047323925 -0.03740403244775864
0.0109995 0.9863998977458663 -0.043708899279278124
0.0129994 0.9847740369384615 -0.051269062936565746
0.0149993 0.9845346918060847 -0.05812685760610037
0.0169992 0.9838262595712027 -0.06601836502943725
0.0189991 0.9827756725044701 -0.07295917215734282
0.020999 0.9815668756993838 -0.08058638628132764
0.0229989 0.9812248912882244 -0.08853482031839477
0.0249988 0.9805803647516355 -0.09527872311750901
0.0269987 0.979616764511953 -0.10335503701208706
0.0289986 0.9786735590550296 -0.11132037776501294
0.0309985 0.9780679812395966 -0.11970280220374466
0.0329984 0.9759133078587147 -0.1259405844442788
0.0349983 0.9750038034315931 -0.13457623600106067
0.0369982 0.9749256860206347 -0.14176955080938144
0.0389981 0.974140352498294 -0.14833654141933772
0.040998 0.9730294582138587 -0.15557617070038005
0.0429979 0.9717361065666306 -0.1628834756863205
0.0449978 0.970962772221349 -0.170170318169433
0.0469977 0.969704156395264 -0.1777877657837202
0.0489976 0.9682274492569231 -0.18553259955726867
0.0509975 0.9670315864096487 -0.19261828764367186
0.0529974 0.9658164922438032 -0.19900766272159545
0.0549973 0.963896157136515 -0.20685571875729114
0.0569972 0.962409866720376 -0.21361569677054787
0.0589971 0.9604796221963202 -0.22065463688103623
0.060997 0.9586061033218721 -0.22782277598898543
0.0629969 0.9566633505068179 -0.23468269172675274
0.0649968 0.9551313422386107 -0.241624062417115
0.0669967 0.9527067077105287 -0.24826071842106906
0.0689966 0.9504394812682966 -0.2556312206613439
0.0709965 0.9484361316551907 -0.2624256890582323
0.0729964 0.9459611625198756 -0.2694035758209171
0.0749963 0.9434915314557418 -0.2763515915001014
0.0769962 0.9408262659065201 -0.28342055421412293
0.0789961 0.9379301117915699 -0.29034662139896117
0.080996 0.9356574514503171 -0.29782042645089873
0.0829959 0.9330659467984156 -0.3047343901894483
0.0849958 0.9303004462439028 -0.31194795277808707
0.0869957 0.9275717589893019 -0.31912846755717295
0.0889956 0.9250991734786378 -0.3259983052653943
0.0909955 0.9226552077584309 -0.3334592754930362
0.0929954 0.9194897777200751 -0.34008088310113993
0.0949953 0.9169062226286397 -0.34775701275243
0.0969952 0.9140173992801759 -0.35481887275451485
0.0989951 0.9116594250765642 -0.36105054851187024
0.100995 0.9069622563838926 -0.36912979226282133
0.1029949 0.9043879054132838 -0.37627322203185
0.1049948 0.901942592860994 -0.3836512286489693
0.1069947 0.8985898127176057 -0.39086323344733964
0.1089946 0.8956870856593737 -0.3974485922134897
0.1109945 0.8932322281641458 -0.4048046726454372
0.1129944 0.8907555481993963 -0.41177492951669387
0.1149943 0.887906934207217 -0.4181628128394834
0.1169942 0.8843357036814797 -0.424829155796254
0.1189941 0.8817842817916537 -0.4320574553362122
0.120994 0.8789339585037 -0.43779806020732115
0.1229939 0.8754749704603317 -0.4449008762492055
0.1249938 0.8726254599749456 -0.4513020659639966
0.1269937 0.8691219402446012 -0.45696859733640316
0.1289936 0.8658499861350372 -0.46346561967809086
0.1309935 0.8628005109221657 -0.4699906767889667
0.1329934 0.8590667039888008 -0.4759414608318676
0.1349933 0.8558526523435769 -0.4821348136543595
0.1369932 0.8519474313153157 -0.4882484826973813
0.1389931 0.8485054313397055 -0.49408659497807844
0.140993 0.8445215887484436 -0.4999814478558713
0.1429929 0.8403592885119608 -0.5057122590045569
0.1449928 0.8365654576180817 -0.5116658129976674
0.1469927 0.8321983715537321 -0.5176197446914484
0.1489926 0.828218169198136 -0.5236065743842739
0.1509925 0.8237812201257828 -0.5294813531745426
0.1529924 0.8197303717684229 -0.535397454902747
0.1549923 0.8154692039739333 -0.5411952420882601
0.1569922 0.810858168832171 -0.547083099623405
0.1589921 0.8063527358530682 -0.552989615412259
0.160992 0.8018795355974401 -0.5594024166097891
0.1629919 0.7974223232680226 -0.5650875736912169
0.1649918 0.7931309763144997 -0.5706182579060708
0.1669917 0.7881685731259099 -0.5764287155181287
0.1689916 0.7837200305995486 -0.5819563327979409
0.1709915 0.7790328849785031 -0.5876776563414238
0.1729914 0.7747358410200614 -0.59377886212237
0.1749913 0.7700169243554453 -0.5996530932543148
0.1769912 0.7652450278875327 -0.6054327086003307
0.1789911 0.760438488912502 -0.6111107623614552
0.180991 0.7555826169665824 -0.6164058753150445
0.1829909 0.7510562683345381 -0.6225047119635139
0.1849908 0.7464375189029048 -0.6284701700242561
0.1869907 0.7415687706040983 -0.633620953553426
0.1889906 0.7367075818712553 -0.6390650150518725
0.1909905 0.7318771327013389 -0.6446048779417166
0.1929904 0.7268401866621683 -0.6500057608180999
0.1949903 0.722155050406153 -0.6554068674416994
0.1969902 0.7171568527170716 -0.6602209785676942
0.1989901 0.7122307254740168 -0.6659966406766653
0.20099 0.7074034511234759 -0.6708892245045851
0.2029899 0.7025722338291628 -0.676089107787343
0.2049898 0.6970833851970721 -0.6811583111329857
0.2069897 0.6925289855714837 -0.6859726114272418
0.2089896 0.6869092439641933 -0.6908846655139604
0.2109895 0.681882817140067 -0.6958706587756194
0.2129894 0.6769614417972211 -0.70039809853974
0.2149893 0.6717941659204895 -0.7053519960452559
0.2169892 0.6667513279279202 -0.710095257907509
0.2189891 0.661001020233132 -0.7146796836382396
0.220989 0.6559207112402903 -0.7192991850014775
0.2229889 0.650469267573798 -0.7238707816098834
0.2249888 0.6450747280151313 -0.7277991519878335
0.2269887 0.6396123366749842 -0.7320817324084004
0.2289886 0.6344281116519791 -0.7368999732135477
0.2309885 0.6288890067971913 -0.7411472312990107
0.2329884 0.623155616721429 -0.7456485251522466
0.2349883 0.6176136545060595 -0.7497943912782109
0.2369882 0.6123635017583494 -0.753879909273282
0.2389881 0.6064540814663191 -0.7577465300660734
0.240988 0.6010112095660397 -0.7621611045165222
0.2429879 0.5952052270375537 -0.7657041637500481
0.2449878 0.5897005691200693 -0.7697166310016718
0.2469877 0.5838102743435679 -0.7739259866759833
0.2489876 0.5780711312584781 -0.7778049005920902
0.2509875 0.5717261220096874 -0.7810089012983243
0.2529874 0.5660352118603484 -0.7851793472285298
0.2549873 0.5597856785883272 -0.7887478625181101
0.2569872 0.5533010588914025 -0.7921040917033672
0.2589871 0.5477614008128862 -0.7960153045906652
0.260987 0.5414642167248923 -0.79988454895501
0.2629869 0.5350322155455948 -0.803459883766421
0.2649868 0.5287290302673308 -0.8069751618295788
0.2669867 0.5224469409154998 -0.8106082176648799
0.2689866 0.5161335302740746 -0.814263309547165
0.2709865 0.5093730610190642 -0.817558786424317
0.2729864 0.5025742608329432 -0.821269777655815
0.2749863 0.4963660472356186 -0.8248215098223152
0.2769862 0.4893008115151698 -0.8283344802806113
0.2789861 0.48330970799162615 -0.832189128048054
0.280986 0.47675314331285756 -0.8357306626755688
0.2829859 0.4699821522893774 -0.8395649020979685
0.2849858 0.46390465016480714 -0.8429335563207101
0.2869857 0.4571850284137986 -0.8464346639888889
0.2889856 0.4507837524089964 -0.8508831521799545
0.2909855 0.44444296947539785 -0.8543163122180751
0.2929854 0.4384566528413534 -0.857650107025149
0.2949853 0.4323423177615814 -0.8613400618635837
0.2969852 0.4261742831907752 -0.8647136093695714
0.2989851 0.4202294350425412 -0.8681982194395305
0.300985 0.41431935497316036 -0.8717651452854609
0.3029849 0.40861749246789053 -0.8749399412898042
0.3049848 0.4029694033780518 -0.878077949732239
0.3069847 0.39745796491752555 -0.8814661207086412
0.3089846 0.39196632561169625 -0.8846638774096759
0.3109845 0.38637226911568157 -0.8870411334974023
0.3129844 0.38046869179611 -0.8900736157144936
0.3149843 0.37462819273634107 -0.8927711307662242
0.3169842 0.369164235106848 -0.8951990816737594
0.3189841 0.3636555492009246 -0.8970878977820838
0.320984 0.3577748452647658 -0.8998822585200118
0.3229839 0.35221079240933556 -0.9023825046587582
0.3249838 0.346175604586897 -0.9045485969084699
0.3269837 0.340171740954975 -0.9066345940940332
0.3289836 0.3342382227719187 -0.9085877150084325
0.3309835 0.3284435028634313 -0.910437892444462
0.3329834 0.3223497038993555 -0.9119045433729133
0.3349833 0.3158053992886055 -0.9130157942542533
0.3369832 0.3094884261875015 -0.9138062020831463
0.3389831 0.30296598374324357 -0.9150050909177305
0.340983 0.2967348526438446 -0.9153438337180118
0.3429829 0.29001907488048717 -0.9159681082168158
0.3449828 0.28343280174378127 -0.9166928601169025
0.3469827 0.2765556618892863 -0.9173783767476438
0.3489826 0.2690247974779446 -0.9181188965112779
0.3509825 0.2628542403000276 -0.9185155676978133
0.3529824 0.2548754285421385 -0.9193441657957255
0.3549823 0.24763036135653987 -0.9195686704854298
0.3569822 0.23991331174206143 -0.9216684865457974
0.3589821 0.23249789818346472 -0.9224659086422419
0.360982 0.22516828536168088 -0.9239286181187976
0.3629819 0.21742275957895035 -0.9251165505942485
0.3649818 0.20988333976626927 -0.9269027425394708
0.3669817 0.20312838813983997 -0.9285204107546543
0.3689816 0.19648908455786107 -0.9299491330566231
0.3709815 0.1895558575155848 -0.9309847841685932
0.3729814 0.18251320547301983 -0.9327693983831191
0.3749813 0.1753189726076885 -0.9344413594099787
0.3769812 0.16859371964029427 -0.9364492648867909
0.3789811 0.16163905399668044 -0.9376059537924112
0.380981 0.15529799813690282 -0.9395441322225138
0.3829809 0.14853856092901466 -0.9407101053720923
0.3849808 0.14235508085064408 -0.9426041800965886
0.3869807 0.13592467182933443 -0.9440071923780966
0.3889806 0.1299442767130454 -0.9451526386711795
0.3909805 0.12371145485115814 -0.9463544854493745
0.3929804 0.11798345077016364 -0.9473004961509252
0.3949803 0.11212417796865563 -0.9482721610963216
0.3969802 0.10597533308827839 -0.9488162281769674
0.3989801 0.09984982719147016 -0.9494240848072036
0.40098 0.09412624629831426 -0.9497633045166485
0.4029799 0.08852091172054743 -0.9498537956655451
0.4049798 0.08239085993771367 -0.9502049835108829
0.4069797 0.07683061558038594 -0.9498945718244064
0.4089796 0.07059549456264123 -0.9497799419285973
0.4109795 0.06450242307318453 -0.9492235222992329
0.4129794 0.05861739743427803 -0.9485002246764683
0.4149793 0.05271503681369148 -0.9476859232106151
0.4169792 0.04619843006098156 -0.9470034505626693
0.4189791 0.03956569517346127 -0.9464246123043133
0.420979 0.03294064007153072 -0.9458094586067924
0.4229789 0.026172043564364172 -0.944898206027759
0.4249788 0.019309757628747058 -0.9448986670094658
0.4269787 0.012697060099150753 -0.9437440793923729
0.4289786 0.005820831093952589 -0.9426881360636347
0.4309785 -0.0017245365625062278 -0.9425425484907414
0.4329784 -0.008754183184396011 -0.9421104117026907
0.4349783 -0.015291068063148939 -0.9419657850325669
0.4369782 -0.022165208835662288 -0.94181758851826
0.4389781 -0.029468743735876938 -0.9412637368227768
0.440978 -0.03623528606882136 -0.940974131413905
0.4429779 -0.043307878928072786 -0.9406930125672937
0.4449778 -0.0504497152384816 -0.9408650315946837
0.4469777 -0.056944292647042156 -0.9402151335702587
0.4489776 -0.06410654592823947 -0.9401985351838132
0.4509775 -0.07047754987664126 -0.9404412844125991
0.4529774 -0.07708245622893277 -0.9404902465871914
0.4549773 -0.08341374478052768 -0.9402032706666562
0.4569772 -0.08974591301828547 -0.940126694327026
0.4589771 -0.09549037575580652 -0.9400561711585368
0.460977 -0.10128784193437501 -0.939708866290572
0.4629769 -0.10755458128129494 -0.9394089654132066
0.4649768 -0.11261116790749733 -0.9388560857991062
0.4669767 -0.11853177479509334 -0.9383811388199531
0.4689766 -0.12400383210141805 -0.9374411054449538
0.4709765 -0.12951932405565356 -0.9362644802134376
0.4729764 -0.1346976487650661 -0.9352987259846911
0.4749763 -0.1401257997611858 -0.9343202141883621
0.4769762 -0.1453677139608112 -0.9329349141557983
0.4789761 -0.1508350510232598 -0.931066577828491
0.480976 -0.15612973832104773 -0.9293968502821934
0.4829759 -0.1620595085915072 -0.927749914494192
0.4849758 -0.16763744823950227 -0.9256189217083706
0.4869757 -0.17326960733594754 -0.9233128229802587
0.4889756 -0.1790153888350669 -0.9213292502902596
0.4909755 -0.1845618490911558 -0.9185991359500975
0.4929754 -0.1906707409146568 -0.9161390805006853
0.4949753 -0.1971832048248452 -0.9139562510125074
0.4969752 -0.2031021909686387 -0.9113242290051543
0.4989751 -0.20972406710001426 -0.9091528791216553
0.500975 -0.21565326080293531 -0.9066711909248242
0.5029749 -0.22245887569838058 -0.9046735615875927
0.5049748 -0.22886026161187087 -0.9022283050225356
0.5069747 -0.2352401407276221 -0.9007139667010505
0.5089746 -0.24183153333481788 -0.8983107217429456
0.5109745 -0.2478279363110464 -0.8958766435284555
0.5129744 -0.25445817920526076 -0.8940239273747558
0.5149743 -0.2610535421714274 -0.8919088706763437
0.5169742 -0.2676137770698805 -0.8898832802701512
0.5189741 -0.2741699835459146 -0.8883049172301904
0.520974 -0.28009662474823693 -0.8868558777539229
0.5229739 -0.28607716501773245 -0.8856326454994585
0.5249738 -0.2926382986515139 -0.8836194807037009
0.5269737 -0.298789573124404 -0.8822148447117214
0.5289736 -0.3047844764153152 -0.8803922071216413
0.5309735 -0.31084756618406034 -0.8794488982565523
0.5329734 -0.31640959442117234 -0.8773200860694711
0.5349733 -0.322083670788968 -0.8757026586668938
0.5369732 -0.32733559315481453 -0.87391615567795
0.5389731 -0.33283822860347145 -0.8725169688928542
0.540973 -0.3379549982607747 -0.8703324730276099
0.5429729 -0.34266039083087546 -0.8681041273831939
0.5449728 -0.34798088256394666 -0.8663484324163124
0.5469727 -0.3528228292966433 -0.864275736786206
0.5489726 -0.3574221987422739 -0.8617804182856289
0.5509725 -0.3623747959120595 -0.8591664402745753
0.5529724 -0.36758680471285476 -0.8565963537513361
0.5549723 -0.37293465619023425 -0.854546387726154
0.5569722 -0.37718602794422595 -0.8513656137053323
0.5589721 -0.3818429644639205 -0.8481567444496968
0.560972 -0.38710483838554743 -0.8445091920666498
0.5629719 -0.3917545230337258 -0.8413732891390492
0.5649718 -0.39656750717524863 -0.8384093241448423
0.5669717 -0.40172345823180106 -0.8346740979864867
0.5689716 -0.407120342168109 -0.8311282324130189
0.5709715 -0.41247835273413047 -0.8276804121958872
0.5729714 -0.4176880221620178 -0.8243999141085611
0.5749713 -0.4228515929702128 -0.8206711949900374
0.5769712 -0.4277635160864953 -0.817439191921608
0.5789711 -0.4333810552593869 -0.8139675612937272
0.580971 -0.4392359200235567 -0.810197082499361
0.5829709 -0.4448467489150454 -0.807063886896566
0.5849708 -0.45095550550878116 -0.8034956382636218
0.5869707 -0.4566430867538219 -0.8004941737685103
0.5889706 -0.46201327067220277 -0.7973959903359309
0.5909705 -0.46747984746155086 -0.7945431515577499
0.5929704 -0.47296393055038294 -0.791607043421351
0.5949703 -0.4781286951895637 -0.7884828733023088
0.5969702 -0.4835347494429592 -0.7855797393211642
0.5989701 -0.4890604369573326 -0.7823783200763804
0.60097 -0.49437394017988284 -0.7794922441389661
0.6029699 -0.49914652566780154 -0.7766906338993658
0.6049698 -0.5037709287442783 -0.773568990368583
0.6069697 -0.5083807218529349 -0.7709200262690921
0.6089696 -0.513233199539982 -0.7676058064315281
0.6109695 -0.5173235473057555 -0.7649775670547861
0.6129694 -0.522047235888306 -0.7623752121841887
0.6149693 -0.5261461216875482 -0.7589146219366116
0.6169692 -0.5306408617407234 -0.7555474269442389
0.6189691 -0.5345235816439298 -0.752597316399302
0.620969 -0.5383870730360878 -0.749055224045351
0.6229689 -0.5427509150570703 -0.7454427520728844
0.6249688 -0.5463076084232742 -0.7416603691599405
0.6269687 -0.5505128842256023 -0.73802891617999
0.6289686 -0.5543797034658581 -0.7338239512250835
0.6309685 -0.5582309065167059 -0.7289880197333015
0.6329684 -0.5622879548902581 -0.7250738906216219
0.6349683 -0.566855038830278 -0.7202975102197906
0.6369682 -0.5704304018106717 -0.7165514766713562
0.6389681 -0.5752372002455737 -0.7122086294264781
0.640968 -0.5787465155340076 -0.7075985053413031
0.6429679 -0.5831807580051903 -0.7030460447118827
0.6449678 -0.58763345036338 -0.6986364122226433
0.6469677 -0.5921850962216042 -0.694073588564063
0.6489676 -0.5966823278720491 -0.6899030142980801
0.6509675 -0.6020164417386222 -0.6852394133864921
0.6529674 -0.6066612559024578 -0.6803928271201869
0.6549673 -0.6114477775726492 -0.6766005731087552
0.6569672 -0.6164547883715852 -0.6720821101338185
0.6589671 -0.6209133685023142 -0.6679297625230745
0.660967 -0.625249402297181 -0.6638173115591791
0.6629669 -0.630174957515305 -0.6596993803591891
0.6649668 -0.6347576600717764 -0.6560928142089719
0.6669667 -0.6393584967122983 -0.651942462384858
0.6689666 -0.6440879426943333 -0.647983837275329
0.6709665 -0.6477924908080049 -0.6443471621103074
0.6729664 -0.6518188114478125 -0.6401815180841157
0.6749663 -0.6560192836645868 -0.6366506856757346
0.6769662 -0.6598557569909587 -0.6332267987125116
0.6789661 -0.6638883356407546 -0.6295215091185383
0.680966 -0.6677709879781042 -0.6257430566372285
0.6829659 -0.6714947713611107 -0.6222973110378559
0.6849658 -0.6747929983043027 -0.6186996263546823
0.6869657 -0.6780269951497229 -0.6151019926142062
0.6889656 -0.6810236637121727 -0.6111130457543521
0.6909655 -0.6846520470971915 -0.6075649103219126
0.6929654 -0.6873572640150265 -0.6031250923543263
0.6949653 -0.6907836082501794 -0.5990240583979569
0.6969652 -0.6935600660684826 -0.5949257483812774
0.6989651 -0.6964157228494388 -0.5902987440437774
0.700965 -0.6998088884340371 -0.5861520049868786
0.7029649 -0.7027372026895102 -0.5815775135406479
0.7049648 -0.7050026769857114 -0.5766808180673567
0.7069647 -0.7081129609722971 -0.572013856196113
0.7089646 -0.7103687212535501 -0.5665642549014478
0.7109645 -0.7136381339160891 -0.5617748544214365
0.7129644 -0.7170543290978336 -0.5563784762129407
0.7149643 -0.7197138228432522 -0.5515262597198167
0.7169642 -0.7238121752782345 -0.5462806151000443
0.7189641 -0.7268949240095026 -0.5407713010148276
0.720964 -0.7302981180429594 -0.5358788360808034
0.7229639 -0.7335881361036979 -0.5307494575944739
0.7249638 -0.737038905660954 -0.5258468201230654
0.7269637 -0.7400053359039309 -0.5204239715256558
0.7289636 -0.7437290364429028 -0.5153486864541575
0.7309635 -0.7470763367385795 -0.5103208953782753
0.7329634 -0.7505433692161156 -0.505377701879232
0.7349633 -0.7541407475757962 -0.5003116327237668
0.7369632 -0.7577626487766805 -0.495584117374085
0.7389631 -0.7609784338275459 -0.4907022419494137
0.740963 -0.7641109689659958 -0.4862744519373826
0.7429629 -0.7669537832512038 -0.4815001645966047
0.7449628 -0.7700122800783087 -0.4772604711079807
0.7469627 -0.7732728526016012 -0.4725798124649431
0.7489626 -0.7759405272056276 -0.4678074432778412
0.7509625 -0.7792947607409907 -0.4633166333860923
0.7529624 -0.7821918485176934 -0.4591738108186762
0.7549623 -0.7847606805692272 -0.45468438632585917
0.7569622 -0.7873537156119863 -0.45027950931325694
0.7589621 -0.7900439077724349 -0.44572046670348153
0.760962 -0.7922868485590161 -0.44125233626423527
0.7629619 -0.7946093029069663 -0.4366614017604417
0.7649618 -0.7968514626485106 -0.43231141590593286
0.7669617 -0.7991771540739881 -0.4274696538880956
0.7689616 -0.8012790984789006 -0.4228291419840004
0.7709615 -0.8031487067499993 -0.4181245198860982
0.7729614 -0.8053787500709719 -0.41294020096951195
0.7749613 -0.806762519353894 -0.4077302244893745
0.7769612 -0.8079238110569996 -0.4029844127834763
0.7789611 -0.8100340905568715 -0.39716552174606873
0.780961 -0.8119279810896322 -0.3922598885942016
0.7829609 -0.8138403411020025 -0.3868683925701399
0.7849608 -0.815304387661208 -0.3812231448735764
0.7869607 -0.8175350620340848 -0.37564953601936624
0.7889606 -0.8197064507838375 -0.3701216771355347
0.7909605 -0.8213901345959077 -0.36479638472169995
0.7929604 -0.8237643077288269 -0.3591016451479553
0.7949603 -0.8257724058634102 -0.35379014187758595
0.7969602 -0.8279713146893051 -0.3479458210238431
0.7989601 -0.8300185361979806 -0.3422670111933397
0.80096 -0.8321251825175847 -0.3369577082396036
0.8029599 -0.8343426743235862 -0.331598614097288
