! Created with skrf 1.8.0 (http://scikit-rf.org).
# GHz S RI R 50.0 
!freq ReS11 ImS11
0.001 -1.175264276452792 0.002252475085963046
0.0029999 -0.9901865754035419 0.06181331845728166
0.0049998 -0.9589596245256331 0.033579033466046154
0.0069997 -0.9479991493361382 0.034260072333006264
0.0089996 -0.9449187158946442 0.034018162293218135
0.0109995 -0.9432663618286936 0.03831942390827825
0.0129994 -0.9414183629729714 0.04384113223920427
0.0149993 -0.9409454853704101 0.050765455041228646
0.0169992 -0.9405017722751702 0.055476768150857336
0.0189991 -0.9397594688121501 0.06024620098142708
0.020999 -0.9391014905072275 0.06579523691790468
0.0229989 -0.9382497410186217 0.07145807822602218
0.0249988 -0.9372579801931095 0.07717990802265345
0.0269987 -0.9363684177413295 0.08310771130394667
0.0289986 -0.935540255954178 0.08897304925120578
0.0309985 -0.9345397775364447 0.09461998330707719
0.0329984 -0.9337523462770291 0.100651313200182
0.0349983 -0.9328262627891577 0.10632269956519547
0.0369982 -0.9317901831682913 0.11213482405498587
0.0389981 -0.9307888744333144 0.1179289167631033
0.040998 -0.9298781871497164 0.12382254679606508
0.0429979 -0.9284474405353144 0.12925278926993883
0.0449978 -0.9270179673959492 0.1350881330380423
0.0469977 -0.9259102530016817 0.14061759463808526
0.0489976 -0.9244115543372922 0.1468342189531976
0.0509975 -0.923247633269317 0.15240643148754623
0.0529974 -0.9220663545730069 0.1578774085019714
0.0549973 -0.9195252497315511 0.16656761431408018
0.0569972 -0.9190130622991601 0.17052735434203115
0.0589971 -0.9178230367529646 0.17645517106203013
0.060997 -0.916397262060503 0.18266477990818375
0.0629969 -0.9151819798214484 0.18799962380007681
0.0649968 -0.9132733448247083 0.19373545413584686
0.0669967 -0.9128286707346246 0.20037368828533325
0.0689966 -0.9111632050269033 0.20530607068449905
0.0709965 -0.909984933780071 0.21080171910855938
0.0729964 -0.9079557620902194 0.21744729499987878
0.0749963 -0.9067269471774463 0.22267015191936326
0.0769962 -0.9056851746746988 0.22817722365413462
0.0789961 -0.9041727328401237 0.23348785481664167
0.080996 -0.90232705738296 0.23906002724721398
0.0829959 -0.900861362000324 0.24488837441099415
0.0849958 -0.8997890231635943 0.24969928438793193
0.0869957 -0.8983317039557892 0.25539566748256565
0.0889956 -0.8967532832485111 0.2605697837298934
0.0909955 -0.8949053259684717 0.26576199791877164
0.0929954 -0.892907246882831 0.27102223449911933
0.0949953 -0.8910076095141009 0.2765184401752877
0.0969952 -0.8893982872880999 0.2814879041834093
0.0989951 -0.887064832988362 0.28677679114802024
0.100995 -0.8861430373856467 0.292518915589225
0.1029949 -0.8842829142590776 0.29779027520087364
0.1049948 -0.882129694378579 0.3028557713998274
0.1069947 -0.8797957913093073 0.30755036792761226
0.1089946 -0.8776375143553679 0.3127464594394377
0.1109945 -0.8750975333058566 0.31788737197627365
0.1129944 -0.8729641190674176 0.32289309858624726
0.1149943 -0.8703120369233222 0.32795319159046504
0.1169942 -0.8678785130030844 0.3332239488565526
0.1189941 -0.8653355825845 0.33825278566942873
0.120994 -0.8629359049010463 0.34369197756493786
0.1229939 -0.8601532144262004 0.3489217422437987
0.1249938 -0.8575349710752326 0.3545224075088967
0.1269937 -0.8551481995244199 0.35959777731861664
0.1289936 -0.8530053836843465 0.36537296628558735
0.1309935 -0.8502552723806546 0.3704052211003758
0.1329934 -0.8476045632490548 0.3756517501694677
0.1349933 -0.8447778656643035 0.3810276911582991
0.1369932 -0.8423599957710837 0.3861521139466764
0.1389931 -0.8395954709318272 0.39150119214657253
0.140993 -0.8371202977896786 0.39686371287531763
0.1429929 -0.8342285864707386 0.4021169867325772
0.1449928 -0.8322089968462643 0.40758019012671076
0.1469927 -0.8296471512792473 0.4126126512222741
0.1489926 -0.8268342610033389 0.4177911131178692
0.1509925 -0.8242519427926758 0.42260760633148176
0.1529924 -0.8212139058092585 0.4280130171535129
0.1549923 -0.8194951743680443 0.43333974226858873
0.1569922 -0.8165207363711579 0.4382124807228361
0.1589921 -0.8138891335729748 0.4433261615554711
0.160992 -0.8113846812831956 0.4478626107670378
0.1629919 -0.8082278502639152 0.45307500826369557
0.1649918 -0.805580741503441 0.45805519843082754
0.1669917 -0.8025266252209314 0.46231910911330226
0.1689916 -0.7999232905438162 0.4673460365847058
0.1709915 -0.7968220169708143 0.4722160203896747
0.1729914 -0.7941037033660535 0.47681235319031445
0.1749913 -0.7908404252388505 0.48128041902456575
0.1769912 -0.788200930209842 0.48587001744994207
0.1789911 -0.7851842497684712 0.490589957994111
0.180991 -0.7817455479496327 0.49514970600688696
0.1829909 -0.7788224531767327 0.49993224136718317
0.1849908 -0.7756294803890792 0.5043199094409054
0.1869907 -0.7724484064268525 0.5087763987761961
0.1889906 -0.768924366637141 0.5135516980253924
0.1909905 -0.7657638273650172 0.5182620602267788
0.1929904 -0.7624012344738826 0.522517241237609
0.1949903 -0.7588318777739078 0.5271311843896314
0.1969902 -0.7555114598591621 0.5317129414616933
0.1989901 -0.7521781129495384 0.5365158848625717
0.20099 -0.7486447904012092 0.5405641068503546
0.2029899 -0.745090506751455 0.5454380800484133
0.2049898 -0.7416221989822822 0.5496705319853615
0.2069897 -0.7382221388598224 0.5542723077964706
0.2089896 -0.7346790971229673 0.558740686447284
0.2109895 -0.7308942381528056 0.5630277678185888
0.2129894 -0.7273911941899746 0.5680677137489075
0.2149893 -0.7237066979718193 0.5722273401902421
0.2169892 -0.7200809020284207 0.5769984612508996
0.2189891 -0.7162240383965512 0.581402207706757
0.220989 -0.7129473422943363 0.5857680807952582
0.2229889 -0.7091674638782308 0.5897834533050987
0.2249888 -0.705068014916602 0.5944757160137292
0.2269887 -0.7011689312610818 0.598339295590453
0.2289886 -0.6970679634086839 0.6027541114416316
0.2309885 -0.6935834386736206 0.6072634295853316
0.2329884 -0.6896076381733365 0.6117425472573168
0.2349883 -0.6851862463684333 0.6161687251896563
0.2369882 -0.6814207561208117 0.6201637120754742
0.2389881 -0.6778450507912498 0.6248863706957689
0.240988 -0.6737770664321361 0.6289094868996914
0.2429879 -0.6695927267931084 0.6331227788099503
0.2449878 -0.665563418426911 0.6373910884764062
0.2469877 -0.6615939677495383 0.6413043072162112
0.2489876 -0.6579203913664201 0.6459067542898083
0.2509875 -0.6538327227092345 0.6502086488484049
0.2529874 -0.6497368122777331 0.6543675118024842
0.2549873 -0.6462467592494955 0.6584636117663838
0.2569872 -0.6424336979989245 0.662736420870974
0.2589871 -0.6384596545538628 0.6668426935442306
0.260987 -0.6343371157753199 0.6708964148261126
0.2629869 -0.6306360186776314 0.6747725702309142
0.2649868 -0.6265691297957172 0.6784743271781633
0.2669867 -0.6226648736825752 0.6822158485250274
0.2689866 -0.6187485085462163 0.6859614465962711
0.2709865 -0.6150046517489149 0.6896413308420056
0.2729864 -0.6106153196406687 0.6936292822854891
0.2749863 -0.6070275301900023 0.6967833130959411
0.2769862 -0.6031010501474562 0.7002657363550563
0.2789861 -0.5990048808262884 0.7035373757644705
0.280986 -0.5948782378907883 0.7067730887372503
0.2829859 -0.5907430989180456 0.7097932708694604
0.2849858 -0.5858324376599569 0.7130243450621423
0.2869857 -0.5816355050439755 0.7161866340813658
0.2889856 -0.5774185104700225 0.7193262059322657
0.2909855 -0.5724516590987195 0.7224596282255332
0.2929854 -0.5682489977480327 0.7253163647208112
0.2949853 -0.563240879437859 0.7286285453300387
0.2969852 -0.5585604682181233 0.7315064644899332
0.2989851 -0.5538323717453408 0.7339770365647862
0.300985 -0.5481576421473958 0.7368700945144757
0.3029849 -0.5431214765562858 0.7395855987251532
0.3049848 -0.5379611176436498 0.7430030918845802
0.3069847 -0.5326520279859064 0.7457123777655682
0.3089846 -0.5269877228802381 0.7487521793601989
0.3109845 -0.5215817323144655 0.7515473067525855
0.3129844 -0.5158704132080945 0.7546866926791311
0.3149843 -0.5104734692634273 0.7578841751696697
0.3169842 -0.5050126870364124 0.7612408388686066
0.3189841 -0.4994515226815863 0.7642713382262687
0.320984 -0.49354433405863335 0.7670096362684048
0.3229839 -0.48821147123890907 0.7704450517507374
0.3249838 -0.48255815308200667 0.7736117670982083
0.3269837 -0.47724392405139626 0.7769592300533946
0.3289836 -0.4717814235224078 0.7798645904662972
0.3309835 -0.46635037741503693 0.7834637752761594
0.3329834 -0.4613600648612269 0.78688528708568
0.3349833 -0.4563959672473459 0.7909531219131517
0.3369832 -0.4515494421900195 0.7943141096697541
0.3389831 -0.4471322726234884 0.7979714268757011
0.340983 -0.4418636656232902 0.8018640363572436
0.3429829 -0.43744138563604984 0.8060309343729068
0.3449828 -0.43294237403324576 0.8095525749575497
0.3469827 -0.42817302845053296 0.813133425466614
0.3489826 -0.4235954354559399 0.816476790220047
0.3509825 -0.4186744628464704 0.8197193286421084
0.3529824 -0.413959517978492 0.8227850342781462
0.3549823 -0.40952167869930034 0.8258547582899174
0.3569822 -0.4052946021767847 0.8284363192586618
0.3589821 -0.40103775637192085 0.8311858702838855
0.360982 -0.3962785894670634 0.8338510465072084
0.3629819 -0.3915788201100884 0.8363403398355252
0.3649818 -0.38694003854461584 0.8380509920987
0.3669817 -0.382304581092477 0.8398712944603626
0.3689816 -0.376993663521002 0.842022214819411
0.3709815 -0.3721608168004244 0.84370286319003
0.3729814 -0.3668397113049288 0.845555286697069
0.3749813 -0.3622098342698952 0.8472021283729213
0.3769812 -0.3570570224151891 0.8488283574991949
0.3789811 -0.3515355164725555 0.8507214826433761
0.380981 -0.34612825846774303 0.851713866703137
0.3829809 -0.34032252791703554 0.8528676080706621
0.3849808 -0.3347291382451422 0.8555289585629482
0.3869807 -0.3286145755114299 0.8563906493564217
0.3889806 -0.3226384121115482 0.858117066686615
0.3909805 -0.31651270976213647 0.8596705866634484
0.3929804 -0.31002299397423055 0.8617433007984593
0.3949803 -0.3035937648487441 0.863702947660137
0.3969802 -0.2974782008289783 0.8653569869291943
0.3989801 -0.2915950462873496 0.8670519534413049
0.40098 -0.28508122469385827 0.8689758192408507
0.4029799 -0.279373872512677 0.8712656429323662
0.4049798 -0.2725023956078579 0.87315282123444
0.4069797 -0.2668336378188997 0.8755798369223949
0.4089796 -0.260904263681331 0.8776697432476552
0.4109795 -0.2547893136656689 0.8800067944577109
0.4129794 -0.24868413238865855 0.8822357106095581
0.4149793 -0.24233906975960715 0.884750213959027
0.4169792 -0.23686035087141025 0.8869109329331935
0.4189791 -0.23125986894317038 0.8889073985703271
0.420979 -0.22600270571602252 0.8909464639311457
0.4229789 -0.2204823836880921 0.8928766661578298
0.4249788 -0.21479038449061633 0.8952534893278954
0.4269787 -0.2098115703270372 0.8969543299934479
0.4289786 -0.20477596083777383 0.8988795321240545
0.4309785 -0.19923106465257467 0.9003337654648323
0.4329784 -0.1941580357402577 0.9016470101980508
0.4349783 -0.1883130959761577 0.9024148206001009
0.4369782 -0.1832527349553369 0.9033755892334272
0.4389781 -0.17802073951531686 0.9045395259360298
0.440978 -0.17284005945982422 0.9051277703227784
0.4429779 -0.16773639458726008 0.9057997409733376
0.4449778 -0.16222335401293567 0.9062874397193864
0.4469777 -0.1566029167946931 0.9065171769483114
0.4489776 -0.15083487526332023 0.9071001645049384
0.4509775 -0.1449885635906392 0.907688172394622
0.4529774 -0.13921093053242478 0.907518396545899
0.4549773 -0.13287521273451586 0.9077064807505684
0.4569772 -0.12635837575742576 0.9078799066834398
0.4589771 -0.12024325860177217 0.9079380051242689
0.460977 -0.11356483974945558 0.9083429523011128
0.4629769 -0.10664498704920493 0.9087206841662988
0.4649768 -0.10055607268092255 0.9092010649353867
0.4669767 -0.09343667514512019 0.9093173492586626
0.4689766 -0.08709623923889907 0.909743968560636
0.4709765 -0.08056653971266932 0.9102716951379428
0.4729764 -0.07329310014405262 0.9106865488974416
0.4749763 -0.06681054985724708 0.9119088708549953
0.4769762 -0.06019225808651665 0.9129054874039249
0.4789761 -0.05293825237827476 0.9134823525474957
0.480976 -0.046627825134878065 0.9145927211461261
0.4829759 -0.03988448503978019 0.9154702253391462
0.4849758 -0.03344163497486322 0.916420162160483
0.4869757 -0.027246959151423944 0.9174069784271344
0.4889756 -0.020571837057599227 0.9183175535350223
0.4909755 -0.01397602364331104 0.9193114788317828
0.4929754 -0.008311026746396055 0.9203255041386076
0.4949753 -0.002457637082516364 0.9212621125468243
0.4969752 0.0033761395735254635 0.9214769990566918
0.4989751 0.008989466031232421 0.9224141178091247
0.500975 0.014302878432363346 0.9225139404305696
0.5029749 0.020005406076318233 0.9229039457041086
0.5049748 0.025247478636471508 0.9230833038398127
0.5069747 0.03044268634941201 0.9229746018550713
0.5089746 0.03576727971441411 0.9230655251394382
0.5109745 0.04147248175805162 0.923167189625586
0.5129744 0.04700137341549232 0.9230337364169489
0.5149743 0.05179687110361234 0.9225330041701929
0.5169742 0.057346261437018535 0.9214715494497386
0.5189741 0.06310370413778692 0.9209342689320291
0.520974 0.06894575255149407 0.9194829873716646
0.5229739 0.07538451089492958 0.9189485918874185
0.5249738 0.08048729555198775 0.9180295741334711
0.5269737 0.08683628771248239 0.9169556008764476
0.5289736 0.0926749494153643 0.9153068586246059
0.5309735 0.09879787600877006 0.9139371853938714
0.5329734 0.10505263037473639 0.9124417586598839
0.5349733 0.11110368492985498 0.9108314998009135
0.5369732 0.11773359325624176 0.9095909113273898
0.5389731 0.12436616447824968 0.9082633455174752
0.540973 0.13111583227131113 0.9061143888598905
0.5429729 0.13783648125821185 0.9053925225990993
0.5449728 0.14466182748301346 0.9039936500558606
0.5469727 0.15146714519639748 0.9028779043458404
0.5489726 0.15814697210083944 0.90190467417989
0.5509725 0.16509645342864632 0.9008438760749392
0.5529724 0.17186606123090892 0.8998494054720562
0.5549723 0.17879568894307113 0.8988424994900059
0.5569722 0.18542177573903432 0.8978600299578032
0.5589721 0.19238912031262204 0.8968445013531414
0.560972 0.19883969416477412 0.8967820923486889
0.5629719 0.20540173719285695 0.8958473075253123
0.5649718 0.21215039685307344 0.8954624205183236
0.5669717 0.21849621671839808 0.8944582878927019
0.5689716 0.22414705872287718 0.893960923784412
0.5709715 0.2297878114134333 0.8927898269076681
0.5729714 0.2353281141538853 0.8917241222712412
0.5749713 0.24165271930636972 0.8904373767609188
0.5769712 0.247279323688589 0.8891794072701732
0.5789711 0.2525522213886515 0.8880905759871773
0.580971 0.25802623755172377 0.8870951708133494
0.5829709 0.26343595241295115 0.8854143506045019
0.5849708 0.26888949277623325 0.8840906318036618
0.5869707 0.2739727567002732 0.8822972155191312
0.5889706 0.27971155457806224 0.8801583312662038
0.5909705 0.2856307006699301 0.8776632876174864
0.5929704 0.29078973727942514 0.8751874130144057
0.5949703 0.2965504636253433 0.8728251249086754
0.5969702 0.30231610371932544 0.8705660996478426
0.5989701 0.3078290047349763 0.8676828451420597
0.60097 0.3132943035024754 0.8653488244536371
0.6029699 0.31953398692477525 0.862141423480443
0.6049698 0.32519008578464514 0.8595356295236741
0.6069697 0.3313515994520874 0.8563872627267619
0.6089696 0.3377530644429423 0.8537683630015228
0.6109695 0.34386883707666394 0.8512458130112655
0.6129694 0.3505266773501807 0.8478905970198211
0.6149693 0.3568173495804544 0.8455183705931709
0.6169692 0.3633317599034216 0.8424675939833987
0.6189691 0.3695754922010136 0.8399551635640601
0.620969 0.3762345971336517 0.8373991675267174
0.6229689 0.3825680560537131 0.8345937241614123
0.6249688 0.38909275948480876 0.8321137810077702
0.6269687 0.39593552452560127 0.829328763199283
0.6289686 0.4021204155766879 0.8271606835768364
0.6309685 0.40847321589329366 0.825123517997391
0.6329684 0.4143696937348629 0.8228408447878927
0.6349683 0.42037968931705844 0.8203825358689719
0.6369682 0.42596589207749036 0.8177293829512409
0.6389681 0.43191626243514925 0.8153913927403516
0.640968 0.4382282024595205 0.8132666057103941
0.6429679 0.4433898502378175 0.8112971791973903
0.6449678 0.4487050206841664 0.8088730680927706
0.6469677 0.4536314140460981 0.8063866689014512
0.6489676 0.45921482668243674 0.8038817958555275
0.6509675 0.464215332994097 0.80135714424691
0.6529674 0.4690733030487633 0.7987510049020536
0.6549673 0.47378878829337356 0.795842629572967
0.6569672 0.47891456586801023 0.7928156278480573
0.6589671 0.48394015639975285 0.7898921800358856
0.660967 0.48826535408086097 0.7865914374322162
0.6629669 0.4930409577665328 0.782797693501545
0.6649668 0.4975258553821996 0.7787164907963494
0.6669667 0.5023546890212355 0.7748420487015405
0.6689666 0.5074151815664105 0.7708131577094912
0.6709665 0.512896864046321 0.7664038392002872
0.6729664 0.5172259231294292 0.7624346407861052
0.6749663 0.5223805202252282 0.7576065272848291
0.6769662 0.5276669836073432 0.7534118444524063
0.6789661 0.5325127464706202 0.7482753950187551
0.680966 0.5379970083945647 0.7434826661886799
0.6829659 0.5432464185245647 0.7389322586004973
0.6849658 0.5491649639571619 0.7343704802575309
0.6869657 0.5551043548913325 0.7294803554864353
0.6889656 0.5609619501108573 0.7254396410321149
0.6909655 0.5665141389597204 0.7210492555710524
0.6929654 0.5727872646187198 0.7167481216418535
0.6949653 0.5782597288106337 0.7122357357781339
0.6969652 0.5844083565222292 0.707834694080815
0.6989651 0.5897619623811342 0.7036864335191507
0.700965 0.5959702206436351 0.6993572643730663
0.7029649 0.6013768365110104 0.6955367862290194
0.7049648 0.6069351226893751 0.6919154368613546
0.7069647 0.6120335958900621 0.687380580759329
0.7089646 0.6181465682972066 0.6838389201574188
0.7109645 0.6231145751839324 0.6805836374431975
0.7129644 0.6280270081705239 0.6763115905338986
0.7149643 0.6324915363367151 0.6728911166567634
0.7169642 0.6373755896293535 0.6692549776504636
0.7189641 0.641784407716313 0.6652734814221092
0.720964 0.6464199817657545 0.6609149859984714
0.7229639 0.6508742986795628 0.6567763100450192
0.7249638 0.6552502554731351 0.6532394794964088
0.7269637 0.6597658381349586 0.6492222834593978
0.7289636 0.6635071002295218 0.6449130817805326
0.7309635 0.6677682967254127 0.6407244407819153
0.7329634 0.6720513238125346 0.6359017450621793
0.7349633 0.6752374837478964 0.6312963382291819
0.7369632 0.6795898631051851 0.6263094653353766
0.7389631 0.6830595640164515 0.6213613905072828
0.740963 0.6868454864421387 0.6164996903140804
0.7429629 0.6904014335632427 0.6108026556486563
0.7449628 0.6943701363888932 0.605469300267645
0.7469627 0.6984954241629427 0.5993988190533368
0.7489626 0.7024384684269196 0.5937659069781621
0.7509625 0.7063262324999643 0.5883574978611797
0.7529624 0.7103543898853443 0.582440807639856
0.7549623 0.7142135629472519 0.5768511276494553
0.7569622 0.7191430601320427 0.5711288646463754
0.7589621 0.7229674442666421 0.564892706191182
0.760962 0.7278268729221071 0.5590591828736602
0.7629619 0.7321826726455708 0.5534427554360591
0.7649618 0.736594877101005 0.5476934168633362
0.7669617 0.7410756881988212 0.5418325447614191
0.7689616 0.7455593780335852 0.5359518924289121
0.7709615 0.750133622343264 0.5307727852003137
0.7729614 0.7542772239398716 0.524809589472208
0.7749613 0.7586124821819243 0.5193667125607938
0.7769612 0.762938373946866 0.514349481186586
0.7789611 0.767486070006982 0.5089556094604211
0.780961 0.7711905401319468 0.5036948776656869
0.7829609 0.7753946898195128 0.49854982767946676
0.7849608 0.778982331763632 0.4934555805916942
0.7869607 0.7830695185273764 0.48818136542356805
0.7889606 0.7868533505881212 0.48293470747439887
0.7909605 0.7902533058066145 0.47790285616621125
0.7929604 0.7940186338120903 0.4728328303693149
0.7949603 0.7974600700372385 0.4676512530865666
0.7969602 0.8007251853753865 0.4628654422152787
0.7989601 0.803541526030334 0.45734590302304434
0.80096 0.8072219923429494 0.4520637957459316
0.8029599 0.8101653618626065 0.4466758230577627
0.8049598 0.8130030339586714 0.44109160655064156
0.8069597 0.8152786247070661 0.4357544388859171
0.8089596 0.8179929219247265 0.4299608985307281
0.8109595 0.8203036412217559 0.423661526152655
0.8129594 0.823009255328994 0.4178179746697161
0.8149593 0.825384096737103 0.4119980607494778
