! Created with skrf 1.8.0 (http://scikit-rf.org).
# GHz S RI R 50.0 
!freq ReS11 ImS11
0.001 -0.7287704006387024 0.12667652063446888
0.0029999 -0.9476775656178285 0.01934578053435243
0.0049998 -0.940980473732165 0.022223689109086286
0.0069997 -0.9404817192821995 0.029395242218680173
0.0089996 -0.9375866786836033 0.036039435080904014
0.0109995 -0.9377492300233883 0.04401521933468244
0.0129994 -0.9373692373032696 0.05186567982168888
0.0149993 -0.9370906367026746 0.0603228664915092
0.0169992 -0.936594488356173 0.06725843289029276
0.0189991 -0.9359820718204929 0.07353564282115399
0.020999 -0.935206712172798 0.08072405324404308
0.0229989 -0.9341974649044191 0.08781078149521332
0.0249988 -0.9330312283617557 0.0949608210933609
0.0269987 -0.9318515149299906 0.1022968782752023
0.0289986 -0.9307315349618469 0.1094931290529284
0.0309985 -0.9294476868230578 0.11646175607953396
0.0329984 -0.9282506264792839 0.12392749110246387
0.0349983 -0.9268424780634509 0.13107332154778945
0.0369982 -0.9254414088092051 0.1378199204946728
0.0389981 -0.9238640170819551 0.14514798472498514
0.040998 -0.9224404417516798 0.1522068423685088
0.0429979 -0.9204630635119295 0.1593448440950465
0.0449978 -0.9187359158956454 0.16606713953904645
0.0469977 -0.9173223431973346 0.17318059452277546
0.0489976 -0.9147634050858098 0.18053392596440326
0.0509975 -0.9130626972875945 0.1873328799279006
0.0529974 -0.9110437990874216 0.1951339666484726
0.0549973 -0.9086038828306914 0.2025730210099952
0.0569972 -0.9070348518378906 0.20932116388077365
0.0589971 -0.9052192961019532 0.21662229502019414
0.060997 -0.9033568279046826 0.2241542507773155
0.0629969 -0.9010438717654302 0.23103724650822624
0.0649968 -0.8988997253272089 0.23807371007504516
0.0669967 -0.8976913128791224 0.24586818855549172
0.0689966 -0.8955172921919377 0.2521073081097794
0.0709965 -0.8934468059919992 0.25960390660618027
0.0729964 -0.8908010457610163 0.2668650544460653
0.0749963 -0.8890073011345077 0.27339213780584437
0.0769962 -0.8874856924624334 0.2804608404442856
0.0789961 -0.8851383500697564 0.286696740222532
0.080996 -0.8827436883223186 0.2939869325544338
0.0829959 -0.8803620168194991 0.3007761885278964
0.0849958 -0.8784152496204529 0.3070968422677096
0.0869957 -0.8760861274702153 0.31400253495748004
0.0889956 -0.8739247304219047 0.32022903309863615
0.0909955 -0.8713809537155417 0.32627457968883056
0.0929954 -0.8683860106631494 0.33268618579564835
0.0949953 -0.8657077817945953 0.33920609523487966
0.0969952 -0.8630536034539599 0.34536238192608487
0.0989951 -0.859812097968393 0.35191500227053496
0.100995 -0.8582421437484042 0.3588834186495963
0.1029949 -0.855429639501468 0.3652401683987697
0.1049948 -0.8523207625375078 0.37127862306723936
0.1069947 -0.8489769385409855 0.3768720228782405
0.1089946 -0.8457819904696251 0.3831701419309912
0.1109945 -0.8422700036489223 0.38934935291486666
0.1129944 -0.8390369504995512 0.39530346127830907
0.1149943 -0.835216582571054 0.4014039177218073
0.1169942 -0.8317297806311112 0.4076903563202947
0.1189941 -0.8278287779029917 0.41383506590162283
0.120994 -0.8242065950321477 0.4202115426393795
0.1229939 -0.8202553130000616 0.4265455330692778
0.1249938 -0.8168549387508761 0.4328153285251539
0.1269937 -0.8130266256280421 0.43885078175638115
0.1289936 -0.8094078211507603 0.44583411859010674
0.1309935 -0.8052529631865546 0.4515954664597191
0.1329934 -0.8015044847542525 0.4582517111639026
0.1349933 -0.7975882863489059 0.4646117149015561
0.1369932 -0.7939207079732121 0.47034142373025156
0.1389931 -0.7897929201249361 0.4768493170055044
0.140993 -0.7861294334646194 0.4830157454875145
0.1429929 -0.7818169631161829 0.48892179626569265
0.1449928 -0.778597368949951 0.4960096979802623
0.1469927 -0.7746616045231313 0.5015703142329359
0.1489926 -0.7706325591963468 0.5078391751560535
0.1509925 -0.7664567733384579 0.513580094039783
0.1529924 -0.7625050238122439 0.5199710893868265
0.1549923 -0.7591107206903087 0.5260344456987615
0.1569922 -0.7547354995049029 0.5316895510168452
0.1589921 -0.7509382190218578 0.5376754980053887
0.160992 -0.7465477541784393 0.5432417271901702
0.1629919 -0.742578124926988 0.5493199695765767
0.1649918 -0.7386534087470723 0.5546235059080553
0.1669917 -0.7341520224409397 0.5600174494694181
0.1689916 -0.7300218733064737 0.5655792234502162
0.1709915 -0.7255620529916504 0.5708951190448017
0.1729914 -0.7213501967542238 0.5762427548071924
0.1749913 -0.7166093843866143 0.5815922422655128
0.1769912 -0.7124057152194023 0.5867827963225902
0.1789911 -0.7079066970034067 0.5918913328580833
0.180991 -0.7033618361144868 0.597144582671403
0.1829909 -0.6986462223591642 0.6024706390019022
0.1849908 -0.6940017426496562 0.6076351035552188
0.1869907 -0.6891143889660252 0.6125988996574323
0.1889906 -0.6842955026056452 0.6180712210043946
0.1909905 -0.6791797017918048 0.6229480650564668
0.1929904 -0.674154093231243 0.6280280992901425
0.1949903 -0.6692193290675735 0.6328897945206189
0.1969902 -0.6640605294028368 0.6381469580835519
0.1989901 -0.6586541145408948 0.6433347060736475
0.20099 -0.6536315531017998 0.6484685234705333
0.2029899 -0.6484877648654344 0.6533830480626095
0.2049898 -0.6432741297993974 0.657951640108148
0.2069897 -0.638110151254481 0.6629268324276009
0.2089896 -0.6326921659105035 0.6678318583892985
0.2109895 -0.627405869387721 0.67291138330444
0.2129894 -0.6218587358509987 0.6776297148637379
0.2149893 -0.61657820895609 0.6826150027310204
0.2169892 -0.6107232508270315 0.6877386445832057
0.2189891 -0.6055499199968495 0.6924877952023749
0.220989 -0.6000816939284442 0.6972033612650141
0.2229889 -0.5944012900843143 0.7014740344946122
0.2249888 -0.588681273476359 0.706186720173826
0.2269887 -0.5829581027229088 0.7105081371388249
0.2289886 -0.5775107874452134 0.7152686365886448
0.2309885 -0.5717637919574426 0.7201835140860918
0.2329884 -0.5655138042912358 0.7245903507964885
0.2349883 -0.5599586936570345 0.7286275792093075
0.2369882 -0.5540751802170059 0.7335156496680147
0.2389881 -0.5486925538670732 0.7380806966489584
0.240988 -0.5426749557053004 0.7419799873440817
0.2429879 -0.5365301785894648 0.7465031913599615
0.2449878 -0.5308069810869163 0.7508271534912755
0.2469877 -0.5249001197117947 0.755077765014495
0.2489876 -0.5193298655661256 0.7597450116608337
0.2509875 -0.5130997508111489 0.7638436204713684
0.2529874 -0.507434338662841 0.7678770025126039
0.2549873 -0.5018972064991374 0.7724235832521662
0.2569872 -0.4960969905920843 0.7766697809685601
0.2589871 -0.4898736692458591 0.7807576560758807
0.260987 -0.48397012600253214 0.7846972818349313
0.2629869 -0.4784471726686013 0.7885865506906534
0.2649868 -0.4723369638515499 0.7923450078784473
0.2669867 -0.4666508527814386 0.7956707837946692
0.2689866 -0.46054590769996173 0.7992979104711798
0.2709865 -0.4545489569749619 0.8031477706047728
0.2729864 -0.4486638212424806 0.806608022174572
0.2749863 -0.44263320624989744 0.8098976321675312
0.2769862 -0.43725885949547527 0.8131832113702885
0.2789861 -0.43075539800299045 0.8162478346783802
0.280986 -0.4247147149096385 0.8188820254370476
0.2829859 -0.4185451805336003 0.8216700645920891
0.2849858 -0.4120515401141291 0.8246419058732967
0.2869857 -0.40580024508520285 0.827385809258114
0.2889856 -0.3991423680083934 0.8299483287554495
0.2909855 -0.39253979539518974 0.832600935401705
0.2929854 -0.38607802752519094 0.8354297732629244
0.2949853 -0.3791959857676079 0.8378973089901556
0.2969852 -0.3725732295368933 0.8399327865862307
0.2989851 -0.36562568201495366 0.8421339172109333
0.300985 -0.3582355424817548 0.8445410911992277
0.3029849 -0.35102381067958016 0.8466689617950792
0.3049848 -0.3441247969746759 0.8490042860573725
0.3069847 -0.3365551773284897 0.8508427094597897
0.3089846 -0.32853181163197864 0.8530393562109058
0.3109845 -0.3214388086082457 0.8551839181276376
0.3129844 -0.31353616392409156 0.8576734205864702
0.3149843 -0.3061384032389478 0.859940059057046
0.3169842 -0.2986146268219331 0.8621892812819454
0.3189841 -0.2904060506053154 0.8646060498900873
0.320984 -0.2827103540548061 0.8666168641319815
0.3229839 -0.27501107258022806 0.8686442888666213
0.3249838 -0.2673900553929099 0.8711262196671833
0.3269837 -0.2598097637010889 0.8730733031658955
0.3289836 -0.25227647853326796 0.875278967882046
0.3309835 -0.24459445737603278 0.8779552377317028
0.3329834 -0.23720078239530498 0.8804235430161494
0.3349833 -0.22999079926358884 0.8834101495316444
0.3369832 -0.22320079491873857 0.8862162631984636
0.3389831 -0.21558308957322825 0.8893215007585048
0.340983 -0.20858771628170872 0.8918878404652698
0.3429829 -0.20137467901524891 0.8951134560602533
0.3449828 -0.19443366389040206 0.8974362783639183
0.3469827 -0.18735429244996 0.9000274485207288
0.3489826 -0.18050761539082394 0.9022039750382969
0.3509825 -0.17328722955204262 0.9045673289404862
0.3529824 -0.16653242901889043 0.9066250499730981
0.3549823 -0.15969031464300149 0.9085757739645954
0.3569822 -0.15297829235496535 0.9102742975266391
0.3589821 -0.14651291325422078 0.9119262056579037
0.360982 -0.1400555978271404 0.913308339051417
0.3629819 -0.13331096485272775 0.9148414208161807
0.3649818 -0.12669423167232843 0.9154242267955522
0.3669817 -0.11958975156934223 0.9162642350536178
0.3689816 -0.11279887585588037 0.9168738177247008
0.3709815 -0.10561444840432838 0.9172795165908583
0.3729814 -0.09889594028929935 0.9175876844254635
0.3749813 -0.09186525640314605 0.9177582277971161
0.3769812 -0.08476484048383384 0.9180374113140749
0.3789811 -0.07751722721476462 0.9180978572537747
0.380981 -0.07006770462908368 0.9183383173918227
0.3829809 -0.06237008090699023 0.918200323047807
0.3849808 -0.05445352145324253 0.9181452440026082
0.3869807 -0.047026207021734816 0.9176546886369704
0.3889806 -0.0389577873910139 0.9173644525415514
0.3909805 -0.030858796880414832 0.917223460232038
0.3929804 -0.022338068978142035 0.9171527204876385
0.3949803 -0.014137386457497271 0.9167261927055477
0.3969802 -0.006284976645616842 0.9168901101068999
0.3989801 0.002022957417622144 0.916743471211783
0.40098 0.010703487830606359 0.91651290688187
0.4029799 0.018354278657212123 0.9168968636604482
0.4049798 0.026843262780440663 0.9168897434432733
0.4069797 0.03515374416545483 0.9170158060308577
0.4089796 0.04316531973309088 0.9166870678960813
0.4109795 0.05127707269725236 0.9172588038431077
0.4129794 0.05937351112785086 0.9175206906891126
0.4149793 0.06821452524740038 0.917285054956635
0.4169792 0.07554777965101755 0.9176867650503906
0.4189791 0.08341610048696296 0.9175268439722292
0.420979 0.09095835049108278 0.91745165060417
0.4229789 0.09870861915913981 0.9174948820844692
0.4249788 0.10627682859531709 0.9175587048455938
0.4269787 0.11333299494159328 0.91719341836619
0.4289786 0.12040669034355975 0.9168814081126311
0.4309785 0.12773818827734573 0.9164701365891935
0.4329784 0.13492218534452094 0.9157361609804098
0.4349783 0.14255422452425134 0.9139638198995602
0.4369782 0.1490505045223908 0.9128156742359487
0.4389781 0.15622840987339515 0.9119622279206512
0.440978 0.16321252130309089 0.910450441248027
0.4429779 0.16995048161071635 0.908643675315018
0.4449778 0.17674661654618962 0.9069558143576228
0.4469777 0.18441410300512473 0.9051014431311009
0.4489776 0.1918541952739541 0.9036040404720764
0.4509775 0.19913654519267673 0.9011008272803869
0.4529774 0.2065671398424876 0.8983045426572595
0.4549773 0.21407647705327365 0.8958840773884074
0.4569772 0.2217052139755759 0.8935108743208137
0.4589771 0.22945201597772472 0.8909103456940116
0.460977 0.23766136666461476 0.8884606362590374
0.4629769 0.24570271187076723 0.8861683317949227
0.4649768 0.2539173569030911 0.8834618310567159
0.4669767 0.26188691104016204 0.880583695118765
0.4689766 0.2698617074831867 0.8779123579587087
0.4709765 0.27790554820412305 0.8758491095462985
0.4729764 0.28634624455605273 0.873296624352802
0.4749763 0.2942024666934392 0.8706554059778895
0.4769762 0.3024605278469488 0.8681151524574907
0.4789761 0.3108544333278339 0.8659236524946698
0.480976 0.31907333655946735 0.863830968594855
0.4829759 0.32747018014676366 0.8614704023284881
0.4849758 0.33549437522853187 0.858912603691088
0.4869757 0.3432293272854918 0.8567099473581435
0.4889756 0.35139408370163544 0.8544108730247456
0.4909755 0.3593080857602396 0.852153865088867
0.4929754 0.3667683142722256 0.8497322153449169
0.4949753 0.3740289714052212 0.8473828876451477
0.4969752 0.38110658909321965 0.8447588585026189
0.4989751 0.38808137770794393 0.8420029311461896
0.500975 0.3948860619230508 0.8394326886541414
0.5029749 0.40185056292158666 0.8368259058817267
0.5049748 0.4085714404941404 0.8339720580889276
0.5069747 0.41506371728678326 0.8305258888182175
0.5089746 0.42201557765202796 0.8279252745941871
0.5109745 0.42902916287549536 0.825114669605519
0.5129744 0.43555524797412104 0.8212746132429413
0.5149743 0.4411910812383696 0.8179077608336824
0.5169742 0.44757374394226634 0.8135736204811342
0.5189741 0.45426681500312827 0.8097178744500899
0.520974 0.46103174624735155 0.8055628534803086
0.5229739 0.46821907285883657 0.8010068234289761
0.5249738 0.47446413478308735 0.7967950782297325
0.5269737 0.48155090302853076 0.792603134065745
0.5289736 0.4875271109887346 0.7875998235897554
0.5309735 0.494309546329939 0.7829812229271647
0.5329734 0.5008840310004129 0.7781754090803233
0.5349733 0.5070749757719502 0.7722747891523275
0.5369732 0.5142249782882666 0.7677718540533092
0.5389731 0.5210627678819888 0.7625559602693184
0.540973 0.5277371759617026 0.757241555225429
0.5429729 0.5349111003097236 0.7521641950648539
0.5449728 0.5423661555915944 0.7471115286293761
0.5469727 0.5492215590906924 0.7421950290721716
0.5489726 0.556226625325712 0.7370809838126636
0.5509725 0.5631925684678797 0.7318069078304607
0.5529724 0.5700794459804358 0.7268978058925766
0.5549723 0.577310823160404 0.7217950875160396
0.5569722 0.5840914694117252 0.7166877146144428
0.5589721 0.5911891930705016 0.7117662922139604
0.560972 0.5983624626950087 0.7070161687317115
0.5629719 0.604893479859858 0.702051064725105
0.5649718 0.6116820476784524 0.6970767289513589
0.5669717 0.6181438879454312 0.691990586891826
0.5689716 0.6246317238074505 0.6870888425115481
0.5709715 0.6302580421913325 0.682086713184389
0.5729714 0.636099103381434 0.6773943102461906
0.5749713 0.6422506527640486 0.6719958001477127
0.5769712 0.6481966806152051 0.6664949704611999
0.5789711 0.6540568650131878 0.6615766733472678
0.580971 0.6600551489803652 0.656679317167196
0.5829709 0.6653389756699868 0.651058408641587
0.5849708 0.6707286912510677 0.6454445108911588
0.5869707 0.6760802674783148 0.6401404008500722
0.5889706 0.6814121459385081 0.6338953790705871
0.5909705 0.6866366242232983 0.6277019830393114
0.5929704 0.6918397624740883 0.6212666910287638
0.5949703 0.6970225007511086 0.6149609095796349
0.5969702 0.7024311079398046 0.6090417051502632
0.5989701 0.7075516971156139 0.6023405765692799
0.60097 0.7121594794859879 0.5961966489289106
0.6029699 0.7176904237219909 0.5888233202322275
0.6049698 0.7224509947284494 0.5826071605642968
0.6069697 0.7270859493117189 0.5752963223915603
0.6089696 0.7325947027198632 0.5685523435858965
0.6109695 0.7376078544605084 0.561253093946434
0.6129694 0.7430515702318525 0.5545390875590688
0.6149693 0.7482337954016969 0.5476157542701299
0.6169692 0.7536525192208657 0.54033082445368
0.6189691 0.7584522394179631 0.53338259710767
0.620969 0.7635409113215643 0.5262277724886426
0.6229689 0.7687269511133846 0.5194126616202068
0.6249688 0.7736183688073722 0.5123706223872918
0.6269687 0.7789081574672013 0.5051202580700539
0.6289686 0.7838515072403731 0.49836607357850665
0.6309685 0.7888123896213654 0.4917298502235444
0.6329684 0.7935419257675645 0.48489985674003755
0.6349683 0.7978921411486454 0.47772580389102903
0.6369682 0.8023367903685538 0.47111465515355666
0.6389681 0.8069599167551489 0.46437492290077637
0.640968 0.8117571828563814 0.45700526274566206
0.6429679 0.8156796034579212 0.4505712890109495
0.6449678 0.8201532598850174 0.44353887775449324
0.6469677 0.8241785975001591 0.4367548001184876
0.6489676 0.828067491588662 0.4295202798555042
0.6509675 0.8315980663874845 0.4227469857582327
0.6529674 0.8355200333655339 0.41539610702253504
0.6549673 0.8391087416139864 0.4084005832524396
0.6569672 0.842373479451808 0.40130435809697484
0.6589671 0.8457869113230603 0.39362647477026147
0.660967 0.8492994144453062 0.38656953879489664
0.6629669 0.8522973807794811 0.3784656292655225
0.6649668 0.8553669543026848 0.37086677296024606
0.6669667 0.8580069962917944 0.36335542539290766
0.6689666 0.8612071009934323 0.3553105856987472
0.6709665 0.8642477690983683 0.34699756805941456
0.6729664 0.8663870178503851 0.33949126812036334
0.6749663 0.8692705342145922 0.33117460272981225
0.6769662 0.872060604872066 0.3225058322950173
0.6789661 0.8750130788806891 0.31505749739506095
0.680966 0.8775605382901857 0.30624011400702256
0.6829659 0.8802045534029974 0.2981697678337069
0.6849658 0.8829375205663051 0.28948777821031324
0.6869657 0.8856144512873821 0.28121673500886446
0.6889656 0.8882908715875298 0.27293374652864516
0.6909655 0.8909476170808047 0.2648664696203946
0.6929654 0.8937632422994388 0.2562295262378537
0.6949653 0.895830895954193 0.24821245615637103
0.6969652 0.8985605915944028 0.23964408426949924
0.6989651 0.9006432426561897 0.23140178115458154
0.700965 0.9030456007699829 0.223155077278065
0.7029649 0.9051230901327206 0.21525150387960926
0.7049648 0.9075161832831684 0.20692455719491948
0.7069647 0.909115430457936 0.19901109030271805
0.7089646 0.9116319370222892 0.1906125648715432
0.7109645 0.9135013383603166 0.18250174909040043
0.7129644 0.9151616570172197 0.17448925529264214
0.7149643 0.9166381672966931 0.16635903621558756
0.7169642 0.9183660678427384 0.15856225114492212
0.7189641 0.9198477916874381 0.15028254735838326
0.720964 0.9209563214377838 0.1418659861468247
0.7229639 0.9220336073948703 0.13345300210172267
0.7249638 0.9231972204319325 0.12556653139296362
0.7269637 0.9246322608032409 0.11759614753943702
0.7289636 0.9250082142728028 0.10955910618227778
0.7309635 0.9262201041557887 0.10104427052422646
0.7329634 0.9272770128205116 0.09266286383905539
0.7349633 0.9278177451014232 0.08443226805684316
0.7369632 0.9287315857486848 0.07581537053222269
0.7389631 0.9292491243078886 0.06762108899371519
0.740963 0.9295911619464003 0.0592067336736633
0.7429629 0.9301770295228945 0.05056160206211556
0.7449628 0.9305725046648251 0.04212494835278916
0.7469627 0.9307990004558242 0.033378163030445135
0.7489626 0.9314347995317153 0.02469383597421313
0.7509625 0.9314670550707052 0.01637219114815415
0.7529624 0.9316387751214147 0.007803538439865101
0.7549623 0.931556583923489 -0.0006207178146207526
0.7569622 0.9315628061356475 -0.009662374081822703
0.7589621 0.9311916012031533 -0.017810565874326723
0.760962 0.9309417732005202 -0.026442974025954025
0.7629619 0.9313161335128863 -0.034545113782639025
0.7649618 0.9307307116148811 -0.043141561562609926
0.7669617 0.9306303690056532 -0.05114224691169267
0.7689616 0.9299111381288514 -0.05966068348766533
0.7709615 0.9295400159637286 -0.06788899312437138
0.7729614 0.9286683684875925 -0.07630763720479544
0.7749613 0.9282729449045213 -0.08454812581556019
0.7769612 0.9270291734416467 -0.09267232236849753
0.7789611 0.9263646669864914 -0.1009196467611784
0.780961 0.92515983205103 -0.10899338577243997
0.7829609 0.9240747664612174 -0.11738871744192532
0.7849608 0.9227435460618448 -0.12551457945832234
0.7869607 0.9216213495405781 -0.13384636696085653
0.7889606 0.9198665340552474 -0.14231339643000804
0.7909605 0.9184411746501956 -0.1500801350749925
0.7929604 0.9168220575598552 -0.1580696377336621
0.7949603 0.9151587798775676 -0.16705969045586944
0.7969602 0.9135650785005498 -0.1747958125010002
0.7989601 0.9113175597461686 -0.18302983035125447
0.80096 0.9098243380954857 -0.19208325939740337
0.8029599 0.9076130761707859 -0.20027671381750922
0.8049598 0.9058658853101506 -0.20911600211886594
0.8069597 0.9043747584430473 -0.21700226793976068
0.8089596 0.9019799455668898 -0.22545633469521092
0.8109595 0.9001206431967039 -0.2341095876068464
0.8129594 0.8978736307454873 -0.24254060607666558
