! Created with skrf 1.8.0 (http://scikit-rf.org).
# GHz S RI R 50.0 
!freq ReS11 ImS11
0.001 -2.0490626582895235 -1.4557332558033402
0.0029999 0.9987560531810952 -0.013691141763624737
0.0049998 0.9887973983935927 -0.024130268830252544
0.0069997 0.9888168604684056 -0.02989185859187421
0.0089996 0.9871943844365988 -0.03756627292643694
0.0109995 0.986579064514864 -0.0443338857057447
0.0129994 0.9854332713829927 -0.05189992688930489
0.0149993 0.9847662485129994 -0.05917669943473214
0.0169992 0.9841227140326263 -0.06694066028721546
0.0189991 0.983105166401461 -0.07378328843698578
0.020999 0.9816596409649356 -0.08158912172101496
0.0229989 0.9815201661057585 -0.08912025454174721
0.0249988 0.9806710953738305 -0.09647728311398462
0.0269987 0.9797927458445819 -0.10409331810327149
0.0289986 0.9788274704981166 -0.11172767223505824
0.0309985 0.9782845367502806 -0.12014795256399238
0.0329984 0.9763222965906851 -0.12649680138639585
0.0349983 0.9759600425780872 -0.13375365146924728
0.0369982 0.9752178304966405 -0.14191728300442652
0.0389981 0.9742605407927323 -0.14856004957315005
0.040998 0.9732394333218897 -0.1554918593252228
0.0429979 0.9720409023084764 -0.16275263015805036
0.0449978 0.9713873174542232 -0.17028364564679704
0.0469977 0.9699595571679149 -0.17753148330943064
0.0489976 0.9684190072009471 -0.1851936256484018
0.0509975 0.9672943383867517 -0.19220399398256255
0.0529974 0.9660816040940919 -0.1988302932517742
0.0549973 0.9641620362125807 -0.20651823791292423
0.0569972 0.9626442469454102 -0.2131211843747634
0.0589971 0.9608268586619749 -0.22016568860260177
0.060997 0.9589363818862572 -0.22725293750065995
0.0629969 0.9570937873467682 -0.2340756476382755
0.0649968 0.9554529612214246 -0.2410417771376936
0.0669967 0.9530768320277331 -0.247630936715009
0.0689966 0.9508442754662776 -0.2550543644840334
0.0709965 0.9487874272076127 -0.2617975546230897
0.0729964 0.9463771136865211 -0.2687813179888964
0.0749963 0.9439994231168887 -0.2757917619479142
0.0769962 0.9412913390269184 -0.28278288855950007
0.0789961 0.938345621666739 -0.289754906114126
0.080996 0.9361333841231905 -0.2972382233197936
0.0829959 0.9335342964674133 -0.3040273225849329
0.0849958 0.9307203860895322 -0.31131064956659743
0.0869957 0.9280375646747128 -0.318465773643239
0.0889956 0.9257674480149661 -0.32531917088629325
0.0909955 0.9232050337589722 -0.33287231442333387
0.0929954 0.9199420506761481 -0.3393276999115996
0.0949953 0.9172014355227777 -0.3472535056842522
0.0969952 0.9145979524249799 -0.3541919175488697
0.0989951 0.9123721202920334 -0.3603748849632238
0.100995 0.9075266864870497 -0.36807102844901307
0.1029949 0.9047848663928473 -0.37532620807721034
0.1049948 0.902497333577998 -0.38282200626795815
0.1069947 0.8992110569260452 -0.3899918566888084
0.1089946 0.8965048906773387 -0.3967360404584992
0.1109945 0.8940232546655402 -0.403614412427813
0.1129944 0.8914784277196945 -0.41084419516068926
0.1149943 0.8886371074091413 -0.4172738501318244
0.1169942 0.8851376812423752 -0.4240069522150459
0.1189941 0.8825208326789264 -0.4308562585426975
0.120994 0.8797727704810652 -0.4367590164333749
0.1229939 0.8762525815820658 -0.443799331347558
0.1249938 0.8734053536583994 -0.45025037969128434
0.1269937 0.8698283316472276 -0.4561351270715224
0.1289936 0.8666716445656832 -0.4622657845934479
0.1309935 0.8638290379014538 -0.4685223423266049
0.1329934 0.8599923553235351 -0.47471464010158937
0.1349933 0.8569105799696445 -0.48085193570950513
0.1369932 0.852943578748574 -0.48702859710221696
0.1389931 0.8495635068454512 -0.4928208576194998
0.140993 0.8456161512915513 -0.4986658519363663
0.1429929 0.84148033798302 -0.5043230154119887
0.1449928 0.8376346581017788 -0.5102662239606561
0.1469927 0.8336609571339588 -0.5164787902644734
0.1489926 0.8293541765927319 -0.522269912079861
0.1509925 0.8248909481001248 -0.5280897186507324
0.1529924 0.8209525652114047 -0.5340295380733995
0.1549923 0.8165664612164287 -0.539935669029136
0.1569922 0.8121090693021427 -0.545758426525031
0.1589921 0.8076128402357537 -0.5516258097155139
0.160992 0.8032350041293991 -0.5578223383845814
0.1629919 0.7986775208811763 -0.5635893833643916
0.1649918 0.7941750009894009 -0.5696413385483406
0.1669917 0.789710718472764 -0.5748584512664203
0.1689916 0.7849558037890774 -0.5808505605263968
0.1709915 0.7802583332180161 -0.5865102385581599
0.1729914 0.7761407212972384 -0.5924234995554963
0.1749913 0.7714022140664735 -0.598348428963857
0.1769912 0.7667213250488385 -0.6039603290340446
0.1789911 0.7618942944059673 -0.6098069212065326
0.180991 0.7570002674704417 -0.6150376626940572
0.1829909 0.7525014729571106 -0.6212495824476498
0.1849908 0.7478231517993674 -0.6272281211899343
0.1869907 0.7430071637450705 -0.6323758707821949
0.1889906 0.7379883196046898 -0.6377470349274179
0.1909905 0.7335199759630394 -0.6430956585561347
0.1929904 0.7287096032101941 -0.6485684716425002
0.1949903 0.7238329689520739 -0.6540128080465564
0.1969902 0.7186873971015133 -0.6588303984289
0.1989901 0.7141192219053861 -0.6644149402736328
0.20099 0.7089870954234293 -0.6695578215429245
0.2029899 0.7044483420410601 -0.6745593667695963
0.2049898 0.6989623456280087 -0.6793347925146113
0.2069897 0.6941397458003121 -0.6843650899658046
0.2089896 0.6891043064626823 -0.6894104235337272
0.2109895 0.6840030735941467 -0.6941721642643339
0.2129894 0.6789403600672034 -0.6989545181532529
0.2149893 0.6738649277354776 -0.7035839461733409
0.2169892 0.6687459144049752 -0.7082071140378681
0.2189891 0.6633260608661562 -0.7129178724696406
0.220989 0.6581037586096129 -0.7177743491178099
0.2229889 0.6529879332448505 -0.7219994550997308
0.2249888 0.6471544359949686 -0.7264873157302298
0.2269887 0.6418407160721282 -0.730651367146513
0.2289886 0.6364268986759376 -0.735466296963979
0.2309885 0.6310615459980535 -0.7395574311242998
0.2329884 0.6255398187297754 -0.7441011952538497
0.2349883 0.6201956213884154 -0.7480392360319454
0.2369882 0.6147554382709304 -0.7522856284441365
0.2389881 0.6090325140896028 -0.7560704169531635
0.240988 0.60358293712628 -0.7605448120984435
0.2429879 0.5975192992445756 -0.76417662040248
0.2449878 0.5923909689354466 -0.7680289193909099
0.2469877 0.5864299816545392 -0.7723460824079691
0.2489876 0.58080565539212 -0.7761334153315897
0.2509875 0.5742891161435856 -0.7796137847687505
0.2529874 0.5685948534883023 -0.7837454163399453
0.2549873 0.5624512950925129 -0.7871297882375254
0.2569872 0.5562673127506468 -0.7905424291831993
0.2589871 0.5505287982203297 -0.794301607975049
0.260987 0.544554024020028 -0.7982254857108552
0.2629869 0.5378639983266214 -0.8018926776208912
0.2649868 0.531498708183279 -0.805416010815673
0.2669867 0.5253174618251228 -0.8089348571800971
0.2689866 0.5190334387996128 -0.8125670850802111
0.2709865 0.5123508530252321 -0.8159158457256094
0.2729864 0.5059326165196877 -0.8195207926541329
0.2749863 0.49950357919689914 -0.8232215071382304
0.2769862 0.49267685011899187 -0.8268040148793386
0.2789861 0.48651949574211945 -0.8305653597302486
0.280986 0.4800193894610877 -0.8342006567366875
0.2829859 0.47335579178322307 -0.8380941780796594
0.2849858 0.46712624441923656 -0.8415194253081468
0.2869857 0.46064096374318975 -0.8450323125057342
0.2889856 0.4544021883870256 -0.849023732291144
0.2909855 0.4478514103290572 -0.8527702617176894
0.2929854 0.4422445514327572 -0.8560875766079094
0.2949853 0.4358345084760009 -0.8601487274296307
0.2969852 0.4300000844306772 -0.863251847700934
0.2989851 0.42410011403568765 -0.8669764105450899
0.300985 0.4185603067253616 -0.8703316640004944
0.3029849 0.4123526506914796 -0.873884473928008
0.3049848 0.406836251968705 -0.8767723771916159
0.3069847 0.4015535413016363 -0.8802682963915491
0.3089846 0.39606115147226284 -0.8834395234767767
0.3109845 0.39055006642478163 -0.8856754438817503
0.3129844 0.3845262660895502 -0.88883423376189
0.3149843 0.3788961191818072 -0.8914160911817296
0.3169842 0.37320866090464533 -0.8940168875731994
0.3189841 0.3677491315347492 -0.8958924161373751
0.320984 0.3620561850175474 -0.8987525366239247
0.3229839 0.3567413162641241 -0.9011009203125455
0.3249838 0.3504958370732373 -0.9034274780318267
0.3269837 0.3444872825913104 -0.9052656454107066
0.3289836 0.33861377336382203 -0.9074207704915346
0.3309835 0.33282675606245404 -0.9091085360383847
0.3329834 0.3269773392104871 -0.9108212015352901
0.3349833 0.32030736643117014 -0.9119469440989157
0.3369832 0.3143933878054294 -0.9127338493876245
0.3389831 0.3077139883605521 -0.9140541743706079
0.340983 0.30149460029226366 -0.9141596384821793
0.3429829 0.29463009066352186 -0.9149803114169692
0.3449828 0.28839159472305986 -0.9154856001255474
0.3469827 0.28133803548928993 -0.9164086121410788
0.3489826 0.2740936594454429 -0.9170559210161178
0.3509825 0.26753349848164126 -0.917744169888518
0.3529824 0.25978150939775596 -0.9181917155080525
0.3549823 0.2526603596018466 -0.9190154266883697
0.3569822 0.24520665567431696 -0.920402609359531
0.3589821 0.2375339200226309 -0.9218227376473279
0.360982 0.23033602994775748 -0.9230612309541033
0.3629819 0.22263099783690715 -0.9244990199436062
0.3649818 0.21537211440685583 -0.925989800627565
0.3669817 0.20873120274214188 -0.9278483910385671
0.3689816 0.20140424870889378 -0.9292262377784776
0.3709815 0.1949314265492274 -0.9303732066804773
0.3729814 0.18749868913275122 -0.9320795596365831
0.3749813 0.18064781664055515 -0.9338945151089021
0.3769812 0.17395073589675397 -0.9360313472373338
0.3789811 0.16707718711206374 -0.937170660339153
0.380981 0.16059225818247408 -0.939210495349895
0.3829809 0.1541473248559313 -0.9403981644862723
0.3849808 0.14795958525584096 -0.9422621423225722
0.3869807 0.1417717478245487 -0.9436282379245468
0.3889806 0.1357577431992854 -0.9449391391828996
0.3909805 0.12954515254291252 -0.9460977151806469
0.3929804 0.12381781769798883 -0.9471528506798325
0.3949803 0.11808026936355318 -0.9481110364853851
0.3969802 0.11192697315857064 -0.9487682762353098
0.3989801 0.1059320351125128 -0.9491361934887822
0.40098 0.10024409195857001 -0.9495171830127624
0.4029799 0.09467832488095851 -0.949700383784729
0.4049798 0.08873378685572988 -0.9500347163365715
0.4069797 0.08315943703763017 -0.9497721836469221
0.4089796 0.07699714191693025 -0.9497418898719453
0.4109795 0.07091821329524127 -0.9491483787160998
0.4129794 0.06515889051391241 -0.9482525377905358
0.4149793 0.05895672632938426 -0.9478652642528317
0.4169792 0.052873263563507335 -0.9472788311355775
0.4189791 0.04607525595401256 -0.9463021821414638
0.420979 0.039271622479813945 -0.9457810633263815
0.4229789 0.03247834855283326 -0.9454076774913655
0.4249788 0.025640146384738376 -0.945306804067428
0.4269787 0.018839728058404365 -0.9443480059913523
0.4289786 0.011889003291404913 -0.9433743286725362
0.4309785 0.0048009402740637475 -0.9429962441059809
0.4329784 -0.0020160575259180035 -0.9425808798593962
0.4349783 -0.008517967031840228 -0.9425928512377797
0.4369782 -0.016065961965855906 -0.9421811396265016
0.4389781 -0.02289114311903611 -0.9419718815899714
0.440978 -0.02955235786637429 -0.9416132339452675
0.4429779 -0.03627182610421019 -0.9415799488060334
0.4449778 -0.04382935823792018 -0.9414658696456234
0.4469777 -0.05001407323619073 -0.9413068904338686
0.4489776 -0.05713478983088774 -0.9412641008458522
0.4509775 -0.06353685697122827 -0.9413412725401109
0.4529774 -0.07008356597514624 -0.9416912581207466
0.4549773 -0.07642621693255164 -0.9413826212448088
0.4569772 -0.08256128193728954 -0.9413419869859145
0.4589771 -0.08850764716895848 -0.9411953031048954
0.460977 -0.0943008332532203 -0.9410147416132855
0.4629769 -0.10015430405086115 -0.941020678959734
0.4649768 -0.10536319607028097 -0.9403362177051315
0.4669767 -0.11117619754276163 -0.9397337019291956
0.4689766 -0.11634782400220209 -0.93888271032534
0.4709765 -0.12163273844219505 -0.9378976339126058
0.4729764 -0.12701747690758633 -0.9369218257807664
0.4749763 -0.13236579278476912 -0.9360890781647427
0.4769762 -0.1375328313918343 -0.9346736156144708
0.4789761 -0.14285248822510493 -0.9328983580898796
0.480976 -0.14822598725523606 -0.9313500715556119
0.4829759 -0.15409701951052107 -0.9297218638328683
0.4849758 -0.15962364545719462 -0.9276854520635982
0.4869757 -0.16499318397294904 -0.9253713291509209
0.4889756 -0.17086344746153245 -0.9233818585631042
0.4909755 -0.17650718714267613 -0.9205807043370277
0.4929754 -0.182659225641799 -0.918162138855154
0.4949753 -0.18903623629682295 -0.9158732482834759
0.4969752 -0.1950446068133831 -0.913503496437873
0.4989751 -0.201768378366505 -0.9114688257689365
0.500975 -0.2077675514434869 -0.9090124861589881
0.5029749 -0.2144301680865361 -0.9071206711865727
0.5049748 -0.2208313858389538 -0.9042971074272164
0.5069747 -0.22759758033208236 -0.9031395806213197
0.5089746 -0.23381869911790443 -0.9008629937273696
0.5109745 -0.23981084556643306 -0.8988062387965385
0.5129744 -0.24645772584873568 -0.8967493638595818
0.5149743 -0.25340332656948483 -0.8947040893588988
0.5169742 -0.2594907474564468 -0.8928283966004086
0.5189741 -0.26612177006722987 -0.8912502957456401
0.520974 -0.27205913085545974 -0.8899599320415225
0.5229739 -0.2777875602897024 -0.8887962688736317
0.5249738 -0.2845319710066912 -0.8869130293073526
0.5269737 -0.2906178147492054 -0.8855886184709486
0.5289736 -0.29670819773606705 -0.8839624511653882
0.5309735 -0.302654902595487 -0.8829541076422656
0.5329734 -0.3081776311657626 -0.8807925932204008
0.5349733 -0.31363439072638094 -0.8797535220839987
0.5369732 -0.3189601840186801 -0.8779646864433616
0.5389731 -0.324290760471957 -0.8765939735551513
0.540973 -0.32953749836890267 -0.8743175901543897
0.5429729 -0.3341393400650847 -0.8721916437909295
0.5449728 -0.3393208053480862 -0.8707230888198929
0.5469727 -0.3442477128145643 -0.8685886195025713
0.5489726 -0.3486519712826513 -0.8661760925525885
0.5509725 -0.35360229566097434 -0.8635908391709041
0.5529724 -0.35884244369543866 -0.8611510598531079
0.5549723 -0.3639664729350067 -0.8591764557646148
0.5569722 -0.3681484960194582 -0.8561374231244605
0.5589721 -0.37314210284455135 -0.8529856934692179
0.560972 -0.37787788397566313 -0.8491675742181665
0.5629719 -0.38319642744252386 -0.8463621367138838
0.5649718 -0.3875799388119305 -0.8430534406018393
0.5669717 -0.3927268973615684 -0.8396453937471626
0.5689716 -0.3980728235114346 -0.8360798624199078
0.5709715 -0.40345458380494714 -0.8326840648973747
0.5729714 -0.40867391865772035 -0.8293980525475821
0.5749713 -0.41376282049327595 -0.825716880231617
0.5769712 -0.41880094062815815 -0.822445192467822
0.5789711 -0.42442648866478705 -0.8193400831085933
0.580971 -0.43025127420719916 -0.8154274318780392
0.5829709 -0.4358824713655509 -0.8123871088494762
0.5849708 -0.44177063879362805 -0.8088386875454125
0.5869707 -0.44772863153581943 -0.8059674105253107
0.5889706 -0.45283286231674047 -0.802987621176347
0.5909705 -0.4585008676422371 -0.8001156079017664
0.5929704 -0.46395900130899537 -0.7976204359339418
0.5949703 -0.46903965668058023 -0.794610131369066
0.5969702 -0.47448967649307294 -0.7915844637623055
0.5989701 -0.48022087975116 -0.7884131978953057
0.60097 -0.48536418155854993 -0.7856778357067751
0.6029699 -0.49005133790082883 -0.7831119615601402
0.6049698 -0.4947399265132204 -0.7800393618964596
0.6069697 -0.4993413058125776 -0.7773587891575489
0.6089696 -0.5042837431889671 -0.7744822045674205
0.6109695 -0.5083807814873955 -0.7717528046577349
0.6129694 -0.5126356492062228 -0.7691001964679667
0.6149693 -0.5170512397059674 -0.7660576770843861
0.6169692 -0.5212590167017155 -0.7626765441665478
0.6189691 -0.5253113768939295 -0.7598727679110697
0.620969 -0.5291841674178015 -0.7564530044797826
0.6229689 -0.5336778827998109 -0.7529036214293293
0.6249688 -0.5369197328551866 -0.7493361397042565
0.6269687 -0.5411531265176797 -0.7457884469635532
0.6289686 -0.5452840297611482 -0.7416461453155083
0.6309685 -0.54864884791843 -0.737133349492706
0.6329684 -0.5528160560523967 -0.7330306289161227
0.6349683 -0.5571760279927247 -0.7285624785865804
0.6369682 -0.5610143888235677 -0.7246314256308624
0.6389681 -0.5653495615300368 -0.7208282266701995
0.640968 -0.569551226518483 -0.7159867460606015
0.6429679 -0.5737122674759053 -0.7114131030211794
0.6449678 -0.5783547812365276 -0.7071555127643154
0.6469677 -0.5826897346262595 -0.702671559993503
0.6489676 -0.5874578349989612 -0.6984088265149914
0.6509675 -0.5926579076321061 -0.6941952565133016
0.6529674 -0.5971387515966997 -0.6893503072876085
0.6549673 -0.6021841158571277 -0.6854368961935983
0.6569672 -0.6070990271108908 -0.6810536519591361
0.6589671 -0.6115543959102024 -0.6770144835061237
0.660967 -0.6160760922769043 -0.6728776286894991
0.6629669 -0.6209155546309131 -0.6690415316640705
0.6649668 -0.6256253875188977 -0.6652019279247782
0.6669667 -0.6303334709722724 -0.6612958713364915
0.6689666 -0.634974801437867 -0.6576422463998969
0.6709665 -0.6388284971449167 -0.6541136301643561
0.6729664 -0.6427359977644957 -0.6501450555175424
0.6749663 -0.6468054013283357 -0.6466199206728231
0.6769662 -0.6508126988025127 -0.6432124195327569
0.6789661 -0.6550244447793915 -0.6397735562079367
0.680966 -0.6589146125933749 -0.635987909558441
0.6829659 -0.6626096435295766 -0.6326889839809592
0.6849658 -0.6658628322395805 -0.6292062735813116
0.6869657 -0.6692864770352441 -0.6256809062147994
0.6889656 -0.6724082202782418 -0.6218123593417137
0.6909655 -0.676141110700869 -0.6182873016666613
0.6929654 -0.6786067896900847 -0.6140477551741719
0.6949653 -0.6818543054041264 -0.6102807550664239
0.6969652 -0.6849380648853982 -0.6059919297560191
0.6989651 -0.6877638559055426 -0.6015795742537474
0.700965 -0.6909175649767033 -0.5976930664944656
0.7029649 -0.6940803218010512 -0.5930789744456542
0.7049648 -0.6964025910010072 -0.5881356483152896
0.7069647 -0.6994951763516674 -0.5836844311687949
0.7089646 -0.7016073160114155 -0.5785979757711682
0.7109645 -0.7049479640583849 -0.5736657586529598
0.7129644 -0.7083842267982926 -0.568349077894496
0.7149643 -0.7111760219694551 -0.563480421377814
0.7169642 -0.7150003342412102 -0.55837572416935
0.7189641 -0.7183377252198141 -0.5529591868945287
0.720964 -0.7212429011713595 -0.5482384672402788
0.7229639 -0.7251969505365167 -0.5433812867977594
0.7249638 -0.728283402200923 -0.5381646624368173
0.7269637 -0.7315224167675287 -0.533025288947714
0.7289636 -0.735648236577047 -0.5280760283378044
0.7309635 -0.7387342240601312 -0.5230825603161037
0.7329634 -0.7423202190159335 -0.5182624132712054
0.7349633 -0.7459332100690208 -0.5133117234456046
0.7369632 -0.749677567258963 -0.508543731099854
0.7389631 -0.7529937275027242 -0.5038214123828209
0.740963 -0.755956032958705 -0.4997562625168943
0.7429629 -0.7590065652607091 -0.4949901957055341
0.7449628 -0.7619599133720952 -0.4906621060456633
0.7469627 -0.7654014013759838 -0.4864578963519128
0.7489626 -0.7681848325910221 -0.4817042285363383
0.7509625 -0.7715442727642707 -0.47726960334588797
0.7529624 -0.7746283984247664 -0.4730551314229711
0.7549623 -0.7771019692412212 -0.46883483285469124
0.7569622 -0.779868244604547 -0.4646289378723888
0.7589621 -0.7825306727202436 -0.4602016515501561
0.760962 -0.7847336512035533 -0.4559877866078481
0.7629619 -0.7871642422328549 -0.45156228062296844
0.7649618 -0.7892374620017197 -0.4471543275719643
0.7669617 -0.7918823440606835 -0.4425895016601745
0.7689616 -0.793954442463257 -0.437801012960225
0.7709615 -0.7959500095830236 -0.4333785594242228
0.7729614 -0.7982121441793378 -0.4283776837282015
0.7749613 -0.7992662643522901 -0.4233949359234425
0.7769612 -0.8007167608488097 -0.41854102233372176
0.7789611 -0.8027906655635597 -0.412980081746793
0.780961 -0.8047556402064197 -0.4081917740355485
0.7829609 -0.8065996535214786 -0.4031055708316889
0.7849608 -0.8083054266257956 -0.3972992927509812
0.7869607 -0.8104545270972299 -0.39182325174150845
0.7889606 -0.8128151716189581 -0.38636032500468287
0.7909605 -0.8144406054350336 -0.38108738900190536
0.7929604 -0.8167537408622387 -0.37559745560644775
0.7949603 -0.8190759980192213 -0.370224134029386
0.7969602 -0.8212856776971824 -0.3647871338486503
0.7989601 -0.8232706213421938 -0.35898399368762435
0.80096 -0.8256779496217237 -0.35367024699403193
