! Created with skrf 1.8.0 (http://scikit-rf.org).
# GHz S RI R 50.0 
!freq ReS11 ImS11
0.001 1.4335166877816752 2.5923010772962733
0.0029999 0.9951429652839366 -0.016689191517648472
0.0049998 0.9909286431037068 -0.02118339858142726
0.0069997 0.986199703882042 -0.029277594603727086
0.0089996 0.9868625322427725 -0.03756226650229688
0.0109995 0.9861071824587813 -0.04432137531198865
0.0129994 0.9846421079489356 -0.052251476135999786
0.0149993 0.9841171282363124 -0.05913352984384257
0.0169992 0.9830131407215984 -0.0672695447374525
0.0189991 0.9828305674863391 -0.07400726639973598
0.020999 0.980513087248107 -0.08200132736742449
0.0229989 0.9806527640820033 -0.0897982082633928
0.0249988 0.9798240872503821 -0.09670274192604783
0.0269987 0.9788631741745478 -0.10466859340221721
0.0289986 0.9780885124651626 -0.11239696037116653
0.0309985 0.9773479376797742 -0.12097742717791168
0.0329984 0.975469684875479 -0.12742146923434783
0.0349983 0.974967982395736 -0.13500535979746023
0.0369982 0.9741710755182009 -0.1429346103083562
0.0389981 0.973429928001354 -0.1498021465859996
0.040998 0.972500131012624 -0.156743587714409
0.0429979 0.9713104893941074 -0.16424722308913636
0.0449978 0.9705331886928584 -0.17164712519624747
0.0469977 0.9692575125240824 -0.17921959689482736
0.0489976 0.9676967532556886 -0.18682508954934623
0.0509975 0.9665938621191715 -0.19394545342705793
0.0529974 0.9653994370735173 -0.20082430261561074
0.0549973 0.9634352849631628 -0.20792953021035998
0.0569972 0.9619269994234239 -0.21504199262776766
0.0589971 0.959990756382221 -0.22208031803771014
0.060997 0.9581576436233574 -0.22921228825030698
0.0629969 0.956261565936563 -0.2360805019770292
0.0649968 0.9545744497565688 -0.24307098583912495
0.0669967 0.9521669183277223 -0.24965803643147777
0.0689966 0.9498700101083126 -0.2569957543195813
0.0709965 0.9477619137531788 -0.263917900846155
0.0729964 0.9452665730571186 -0.2709467192776561
0.0749963 0.942908554391089 -0.27793435270043154
0.0769962 0.94009441544131 -0.28494215727779537
0.0789961 0.9370868684037548 -0.2919980229376512
0.080996 0.9348678332977121 -0.29945945255740125
0.0829959 0.9320663400336096 -0.3064649922621339
0.0849958 0.9292196030189849 -0.31361373953804583
0.0869957 0.9265002301562248 -0.32085468009766965
0.0889956 0.9240323265737399 -0.327683303394686
0.0909955 0.921517005352124 -0.3353161992025395
0.0929954 0.918535497158804 -0.3417700050062622
0.0949953 0.9155374816275326 -0.3497608437989363
0.0969952 0.9127618872835486 -0.35678084099276114
0.0989951 0.9102762245550727 -0.36316668624570253
0.100995 0.9054451931348254 -0.37115679747476454
0.1029949 0.9028066663832697 -0.37829482400669906
0.1049948 0.9002116964287865 -0.38585048616934664
0.1069947 0.8969649278130103 -0.39303569921227455
0.1089946 0.8941642522674433 -0.39980591189768905
0.1109945 0.8916724907534852 -0.40683726167551915
0.1129944 0.8890235810811135 -0.4144504703412577
0.1149943 0.8861450021433039 -0.42046884333996704
0.1169942 0.8825464875075768 -0.4272658343785777
0.1189941 0.879955501168032 -0.43436428534379606
0.120994 0.8769569605741685 -0.44049873462905187
0.1229939 0.8735548157168189 -0.4473058785377412
0.1249938 0.8706665232591901 -0.4537046631464194
0.1269937 0.8671304124990172 -0.4594096512922653
0.1289936 0.863871831432519 -0.4658683630947079
0.1309935 0.8608890678795205 -0.47231507868861133
0.1329934 0.8572433922530605 -0.47820902353229744
0.1349933 0.8537427679889074 -0.4844699148355305
0.1369932 0.849865842851834 -0.49066299138298
0.1389931 0.8463588498487814 -0.49644541542058007
0.140993 0.8423464188463343 -0.5023662725599373
0.1429929 0.8382311870281656 -0.5080001802832902
0.1449928 0.8341270954990805 -0.5139472337574519
0.1469927 0.8299963319864047 -0.5199312856443938
0.1489926 0.826098039439493 -0.5258566603647776
0.1509925 0.8213976329275157 -0.531708658233623
0.1529924 0.8172490435885567 -0.5376202446866875
0.1549923 0.8129271275405383 -0.54341954889766
0.1569922 0.8083174550439945 -0.5493457006071889
0.1589921 0.8036538406636843 -0.5552440490634843
0.160992 0.7991736083664143 -0.5615453444817368
0.1629919 0.7946584772552092 -0.5673412617731203
0.1649918 0.7900686410052757 -0.5730125847664654
0.1669917 0.7853282215230319 -0.5785498411287469
0.1689916 0.7805609783931252 -0.5844589293315232
0.1709915 0.7757551548655276 -0.5901729049881197
0.1729914 0.771440629884115 -0.5963227088874521
0.1749913 0.7666114786706136 -0.6023445543238142
0.1769912 0.7617227975791125 -0.6079787467860085
0.1789911 0.7569500797675536 -0.6136888491371741
0.180991 0.7520284375123021 -0.6189345982244188
0.1829909 0.7474846512949159 -0.6250798678627056
0.1849908 0.7425494481123354 -0.6309256844497231
0.1869907 0.7378544021217521 -0.6363746978906469
0.1889906 0.732432418682358 -0.6418018221528297
0.1909905 0.7280814455849682 -0.6470146275627506
0.1929904 0.7231476872263197 -0.6525819015335985
0.1949903 0.7183110140963633 -0.6579303869352664
0.1969902 0.7132975520195264 -0.6626331623582643
0.1989901 0.7083163181837303 -0.668487115990467
0.20099 0.7033872650559994 -0.6735227568012094
0.2029899 0.6984901105630198 -0.6783842406128908
0.2049898 0.6931315146450026 -0.6834943763783166
0.2069897 0.6884807586425566 -0.6883539855158942
0.2089896 0.6829953845934461 -0.6931506815254295
0.2109895 0.6779991409360939 -0.6980594594727336
0.2129894 0.672977668517033 -0.702554070535388
0.2149893 0.667783515597975 -0.7072913655743929
0.2169892 0.6624848758445235 -0.7120783598074174
0.2189891 0.6569770119613288 -0.7167336036282929
0.220989 0.6517402466632451 -0.7214018520960439
0.2229889 0.6461807299509537 -0.7258142284773368
0.2249888 0.6408672035205727 -0.7299145884605459
0.2269887 0.6353692851526189 -0.734050129462043
0.2289886 0.6299480776065796 -0.7387883425293449
0.2309885 0.6243601631036088 -0.743154411929371
0.2329884 0.6185573406596332 -0.7474753978080407
0.2349883 0.6130734283131682 -0.7516181360529436
0.2369882 0.6074793927366321 -0.7556906793236899
0.2389881 0.6016883101329016 -0.7595839426364788
0.240988 0.5961256702012994 -0.7638991518516453
0.2429879 0.5899222539910408 -0.7675448788782573
0.2449878 0.5846234264208013 -0.7712476694410946
0.2469877 0.5785902074701962 -0.7755534103215478
0.2489876 0.5728873288472065 -0.7793142217293598
0.2509875 0.5662771883047147 -0.7826322458792694
0.2529874 0.5601846261620351 -0.7869303297522448
0.2549873 0.5542576720630518 -0.7901752862943252
0.2569872 0.547838639703013 -0.793625032862191
0.2589871 0.5420470133190319 -0.7973639626963644
0.260987 0.5357788304620275 -0.8012221590559405
0.2629869 0.5291098744237325 -0.8048990592227707
0.2649868 0.5231484701760363 -0.8081926292834515
0.2669867 0.5163888814069222 -0.8118298475242955
0.2689866 0.5102275656315617 -0.8154135388684371
0.2709865 0.503554908578014 -0.8186710516078866
0.2729864 0.49717487563114393 -0.8222368391473279
0.2749863 0.4904788382119982 -0.826025432743625
0.2769862 0.48375287127137834 -0.8295007990764691
0.2789861 0.47726145842238865 -0.8330490029575897
0.280986 0.4709254739930118 -0.8368079648817198
0.2829859 0.46406908843634653 -0.8405138401852217
0.2849858 0.45756596041103764 -0.8439810226211767
0.2869857 0.4512798223124353 -0.8474239510327496
0.2889856 0.44514642517094616 -0.8512584110910284
0.2909855 0.4383344210674759 -0.8549551686908957
0.2929854 0.43283378191673044 -0.8582888737010176
0.2949853 0.4262814572332086 -0.8623223696814682
0.2969852 0.42009090970505697 -0.8655037113764192
0.2989851 0.41423934570522536 -0.8689962041755626
0.300985 0.40846816732182245 -0.8724113170298463
0.3029849 0.4025064480929369 -0.8755345426472296
0.3049848 0.39675962805576315 -0.8785312863274554
0.3069847 0.3915190263818817 -0.8817864499484118
0.3089846 0.38577373819085065 -0.8850343250525545
0.3109845 0.38033500083162375 -0.887270817750595
0.3129844 0.3741881476215239 -0.8903755458501509
0.3149843 0.3684282086253893 -0.8928413452440659
0.3169842 0.36254129202965024 -0.8952364966056061
0.3189841 0.3568267818042903 -0.8972548002291986
0.320984 0.3513100514561074 -0.899891801936883
0.3229839 0.3454962762529036 -0.9022535743674784
0.3249838 0.3394649695784433 -0.9045609955416181
0.3269837 0.33320796685315046 -0.9062686468208102
0.3289836 0.3273659462073283 -0.9082892848072565
0.3309835 0.32139172403658245 -0.9099045774366898
0.3329834 0.3153807695329832 -0.9113903074514653
0.3349833 0.3088955068651846 -0.9123180486530913
0.3369832 0.3025612118182092 -0.9130360974889224
0.3389831 0.2964174473139541 -0.914312064963955
0.340983 0.289966976277976 -0.914529801611511
0.3429829 0.28317790490581596 -0.9150337239289964
0.3449828 0.2764351207196967 -0.915526501416334
0.3469827 0.2695434044587816 -0.9164184739659584
0.3489826 0.26220843886076317 -0.9172254364917563
0.3509825 0.25576032356895484 -0.9176289445793189
0.3529824 0.24798932798148837 -0.9179783817605179
0.3549823 0.2409793940405805 -0.9184019505315386
0.3569822 0.2329806766014729 -0.9203961010996631
0.3589821 0.2256925846189195 -0.9211273799878876
0.360982 0.21822678437725204 -0.9224772699753855
0.3629819 0.2107111385330856 -0.9238000058687607
0.3649818 0.20292110485538356 -0.9254894836712284
0.3669817 0.19657385255742715 -0.9270553619661511
0.3689816 0.18929396441802812 -0.9284645225917812
0.3709815 0.18261509076338703 -0.9294290896734989
0.3729814 0.17535715010145164 -0.9310657793395601
0.3749813 0.16837893869840004 -0.9327430953521008
0.3769812 0.16132920870153028 -0.9345751572433052
0.3789811 0.15460085573207222 -0.9358898440441769
0.380981 0.14819529418683947 -0.9376390675173386
0.3829809 0.14162814064082835 -0.9387778403981812
0.3849808 0.13515992301973895 -0.9405939079638451
0.3869807 0.12890505543198527 -0.9417843821636055
0.3889806 0.12273154624210002 -0.943145194488741
0.3909805 0.11649028208884032 -0.9440243853883383
0.3929804 0.11092468982095585 -0.9450513010006595
0.3949803 0.10494500231886641 -0.9457704706340886
0.3969802 0.09888250544018022 -0.9464313312000191
0.3989801 0.0928384911584992 -0.946598726720082
0.40098 0.0871182508618355 -0.9471020075784505
0.4029799 0.0814025969796094 -0.9470236057684414
0.4049798 0.07545479521607085 -0.9472668876155637
0.4069797 0.069912417051646 -0.9469701005128955
0.4089796 0.06342146256116954 -0.9465573131608263
0.4109795 0.05767535890956771 -0.9460028736443731
0.4129794 0.05158552268263124 -0.9450981689988123
0.4149793 0.04552001847850864 -0.9445775937082117
0.4169792 0.03927758935580006 -0.9436622797743665
0.4189791 0.032491513105976574 -0.942805838802077
0.420979 0.025917749187064756 -0.941995528278803
0.4229789 0.01905748170966246 -0.9411941323520975
0.4249788 0.012103455345275498 -0.9411515417461287
0.4269787 0.005332878492276367 -0.9402022081900105
0.4289786 -0.0016658373681202477 -0.9391581637760102
0.4309785 -0.008629325962010766 -0.938718107810197
0.4329784 -0.015962365741913082 -0.9381223071752769
0.4349783 -0.022147936639359926 -0.9379889153027238
0.4369782 -0.029442498279587136 -0.9376580995671393
0.4389781 -0.03629089227086866 -0.9370832335226048
0.440978 -0.04324628685180259 -0.936829423433828
0.4429779 -0.050353445133143535 -0.9365525505739717
0.4449778 -0.05747313467658782 -0.9365834952183933
0.4469777 -0.06404390840096401 -0.9359904104909359
0.4489776 -0.07084810218783313 -0.9359523260821146
0.4509775 -0.07740238909883528 -0.9359062512589688
0.4529774 -0.08391792063376229 -0.9361496509251017
0.4549773 -0.09031104879159789 -0.9357456273559396
0.4569772 -0.09659819348366591 -0.9355164918155993
0.4589771 -0.10237364013211693 -0.9353107729159419
0.460977 -0.10829062764500498 -0.9349806313858827
0.4629769 -0.1143833286520518 -0.9347944240388436
0.4649768 -0.1193767624473366 -0.934089629209969
0.4669767 -0.12530873773500475 -0.9333779383843446
0.4689766 -0.13052848244387283 -0.9323401566452738
0.4709765 -0.13601234293206368 -0.9312286818774507
0.4729764 -0.14121084257990632 -0.9301941311183686
0.4749763 -0.14657336911971638 -0.9292335033449114
0.4769762 -0.1518312620366844 -0.9276849298170292
0.4789761 -0.15706515836577623 -0.9257238194933066
0.480976 -0.16220968582747397 -0.9241356384322084
0.4829759 -0.16806722156730863 -0.9225469195578696
0.4849758 -0.17385578109845864 -0.9202467607939222
0.4869757 -0.17910896107278249 -0.9177225711272873
0.4889756 -0.18490198405017344 -0.915725470321796
0.4909755 -0.1904563454742253 -0.9127731597068284
0.4929754 -0.19663476115191836 -0.9101725455654099
0.4949753 -0.20309350513192231 -0.9079373787768126
0.4969752 -0.20885927840178364 -0.9052748932337934
0.4989751 -0.21537516008791516 -0.902986192416992
0.500975 -0.22149069720623893 -0.9006626099244119
0.5029749 -0.22821845040019628 -0.8983534978277898
0.5049748 -0.23475283776263262 -0.8958546657977513
0.5069747 -0.24120001983808373 -0.8942466013239583
0.5089746 -0.2477463723082057 -0.8918571190275312
0.5109745 -0.2536795372224327 -0.8894744384681712
0.5129744 -0.26031244366477757 -0.8874666957699371
0.5149743 -0.2670109484567854 -0.8852159357521505
0.5169742 -0.2732772952419814 -0.883310626010097
0.5189741 -0.2800674033969822 -0.8816418883789805
0.520974 -0.286018234222565 -0.8802088980657817
0.5229739 -0.29193154245053876 -0.8788417414891987
0.5249738 -0.298367527989314 -0.8768193832038619
0.5269737 -0.304590054291235 -0.8753381459531191
0.5289736 -0.310672913766398 -0.8736133391531633
0.5309735 -0.3166171174502786 -0.8724673483798766
0.5329734 -0.32212519183740035 -0.870239710499629
0.5349733 -0.3276175784861857 -0.8686708144304507
0.5369732 -0.3329378770652427 -0.8668890643400455
0.5389731 -0.3382436979790132 -0.8652525598239599
0.540973 -0.34322820308485774 -0.8631173028960363
0.5429729 -0.34788469193436283 -0.8609761891171706
0.5449728 -0.3529715628777793 -0.8591544562680435
0.5469727 -0.3580860346037267 -0.8568702540673283
0.5489726 -0.3625128628748384 -0.8544045829603012
0.5509725 -0.36714237141820283 -0.8518466497429523
0.5529724 -0.3722964321407436 -0.849362901217306
0.5549723 -0.3774923943581741 -0.8471273554149317
0.5569722 -0.381764907288328 -0.8439892741088468
0.5589721 -0.3861839843251443 -0.8408443156102555
0.560972 -0.39112641658156294 -0.8371794253399766
0.5629719 -0.39610063077769997 -0.8340406585600373
0.5649718 -0.4006066983111128 -0.8306869505690144
0.5669717 -0.40550009579084345 -0.8270012407401177
0.5689716 -0.41093021095518145 -0.8235612506823672
0.5709715 -0.4163446639266637 -0.8198444362845143
0.5729714 -0.42141855795921207 -0.8163942237330695
0.5749713 -0.4266338600661181 -0.8125846654441653
0.5769712 -0.43163541263185684 -0.8093220862425696
0.5789711 -0.4369928332792332 -0.8059385934971349
0.580971 -0.442836570710365 -0.8019119639746176
0.5829709 -0.4483479308806147 -0.7988022565488914
0.5849708 -0.45430938839867996 -0.7951630044803047
0.5869707 -0.4601371196312895 -0.7921500802839424
0.5889706 -0.4653472816811192 -0.7888849908671565
0.5909705 -0.4708171084254261 -0.7862235515452498
0.5929704 -0.47617375558763714 -0.7832482207561027
0.5949703 -0.4814083793140886 -0.7800708535385448
0.5969702 -0.4866671509590115 -0.7769849981342676
0.5989701 -0.4921612703608568 -0.7739812887985758
0.60097 -0.49734208059100027 -0.7709757830902333
0.6029699 -0.5020298616396508 -0.7680775356553605
0.6049698 -0.50664018118074 -0.7650675104487223
0.6069697 -0.5112272302192927 -0.7622919391230982
0.6089696 -0.5160692696556282 -0.759282643282438
0.6109695 -0.520103458023438 -0.7565232379768614
0.6129694 -0.5242720056706315 -0.7537152459160886
0.6149693 -0.5288602952468286 -0.7504867275718707
0.6169692 -0.5330980562465394 -0.7470497196500451
0.6189691 -0.536892730843487 -0.7442239172284513
0.620969 -0.5407138274241087 -0.740643579689326
0.6229689 -0.5448765716963307 -0.7371718715768548
0.6249688 -0.5483577301912852 -0.7331755621928567
0.6269687 -0.5524787610855582 -0.7297277799759359
0.6289686 -0.5563555177340155 -0.7255194924702563
0.6309685 -0.5600255888359221 -0.7209602414232139
0.6329684 -0.5639499878077919 -0.7167970616678163
0.6349683 -0.5683049315856357 -0.7123678862359608
0.6369682 -0.5719696304285095 -0.7080913431695793
0.6389681 -0.5764222987540353 -0.7040212178236399
0.640968 -0.580238537160388 -0.6995596021374406
0.6429679 -0.5842297720309225 -0.6946388819497702
0.6449678 -0.5887459451145594 -0.6903509358271226
0.6469677 -0.5931629112995203 -0.6857287094111594
0.6489676 -0.5976364836229798 -0.6814691895796313
0.6509675 -0.6028216288071446 -0.6769310365510848
0.6529674 -0.6073914723363784 -0.6720810800305804
0.6549673 -0.6121486684478012 -0.6679547538216721
0.6569672 -0.6169817030208286 -0.663636893488529
0.6589671 -0.6214207635081581 -0.6593450000242757
0.660967 -0.6256942663301618 -0.6552283938080876
0.6629669 -0.6305150394022323 -0.651197123082775
0.6649668 -0.6350156498984909 -0.6471318219429961
0.6669667 -0.6397140858352891 -0.6432685927170014
0.6689666 -0.6444629854376763 -0.6393883833481424
0.6709665 -0.647976861408746 -0.6356712920051393
0.6729664 -0.6517765108194188 -0.6317491539535233
0.6749663 -0.6560879987712365 -0.6280089433676915
0.6769662 -0.6600396838892331 -0.624590448144025
0.6789661 -0.6639120129026443 -0.6210193802136312
0.680966 -0.6677425982785106 -0.6171553774503862
0.6829659 -0.6714537507817624 -0.6136892548342701
0.6849658 -0.6747958936170556 -0.6101096392163026
0.6869657 -0.6779237042265679 -0.6064834462842381
0.6889656 -0.6808474855089963 -0.6025363690881561
0.6909655 -0.6842912919940418 -0.5989219625552901
0.6929654 -0.6870164098840714 -0.5946754806035776
0.6949653 -0.6901363071188381 -0.5908731620492832
0.6969652 -0.6932501593708527 -0.5864353182288621
0.6989651 -0.6959843466320274 -0.5819072024875517
0.700965 -0.6992472884450899 -0.5778584014972055
0.7029649 -0.7019938703023676 -0.573240981336571
0.7049648 -0.7041947928031047 -0.5684103771023381
0.7069647 -0.7075102561847423 -0.5636563400255289
0.7089646 -0.7095553408222741 -0.5582057608893294
0.7109645 -0.7123657308000917 -0.5534370698140879
0.7129644 -0.7159102786850247 -0.5481826325354178
0.7149643 -0.718507405620879 -0.54346343842345
0.7169642 -0.7226415836632104 -0.537953186818017
0.7189641 -0.7254046764114569 -0.5324314528179116
0.720964 -0.7290489108037538 -0.5276244652515558
0.7229639 -0.7321291434558909 -0.5228482241498149
0.7249638 -0.7350166738015702 -0.5177996547531611
0.7269637 -0.7381856878916214 -0.5123155893017007
0.7289636 -0.7419933627387743 -0.5073035106936016
0.7309635 -0.7450737627075289 -0.5023793329981598
0.7329634 -0.7485530261498079 -0.49741601160636845
0.7349633 -0.7519927833545935 -0.4924138043871572
0.7369632 -0.7555840077156442 -0.4876309196425866
0.7389631 -0.7587858823938692 -0.4827691103219697
0.740963 -0.7616056346426052 -0.47820960046092753
0.7429629 -0.764669928345497 -0.473571090184172
0.7449628 -0.7674603843192992 -0.46927871100444307
0.7469627 -0.770691042777029 -0.4649513845472193
0.7489626 -0.7732752065555203 -0.4599823342171573
0.7509625 -0.7764013336882526 -0.4557384526936811
0.7529624 -0.7794225388534747 -0.45144544923982366
0.7549623 -0.7818767698025019 -0.447035455792983
0.7569622 -0.7844833543080237 -0.4428510999927142
0.7589621 -0.7871016346372632 -0.43827105053967486
0.760962 -0.7892204771062877 -0.43405493505274406
0.7629619 -0.7914278297715351 -0.4295876141523829
0.7649618 -0.7933984562894978 -0.4248776953167053
0.7669617 -0.7960581184491127 -0.4202031014590135
0.7689616 -0.7980618304891757 -0.41545881471849266
0.7709615 -0.7998229862503681 -0.4110712704750289
0.7729614 -0.8019756460027893 -0.40593420437035044
0.7749613 -0.8030206067752965 -0.4008220543273387
0.7769612 -0.8043921101643491 -0.3960038130139215
0.7789611 -0.8065203595809597 -0.39027304592341194
0.780961 -0.8081594563503877 -0.3855169288929745
0.7829609 -0.8100139352003732 -0.3801072724172143
0.7849608 -0.8114185746091007 -0.3745709149384757
0.7869607 -0.8134739002222496 -0.36914954399250655
0.7889606 -0.815645842311995 -0.3636752784851078
0.7909605 -0.8171559964070874 -0.3583515296985793
0.7929604 -0.8193670706423906 -0.352848633368493
0.7949603 -0.821340093091298 -0.34739238464299643
0.7969602 -0.823508676127879 -0.34179759083358124
0.7989601 -0.8253933152215008 -0.3362703584784949
0.80096 -0.8274731743618153 -0.3309691023752223
