! Created with skrf 1.8.0 (http://scikit-rf.org).
# GHz S RI R 50.0 
!freq ReS11 ImS11
0.001 -1.1786079664424425 -0.2336303187691806
0.0029999 -0.9310272131143789 0.012134123705345945
0.0049998 -0.937282980142305 0.01511379714524011
0.0069997 -0.9438505874532883 0.023195653274713235
0.0089996 -0.94208126443928 0.028795525637255737
0.0109995 -0.9422957213532224 0.03550044534218033
0.0129994 -0.9422968573735961 0.041641770903228736
0.0149993 -0.942109142539763 0.04811959930352727
0.0169992 -0.9413219209975485 0.05423640838908428
0.0189991 -0.9415840739468652 0.05921439481009305
0.020999 -0.9410531637239646 0.06518894493227806
0.0229989 -0.9403058936329685 0.07100793314198894
0.0249988 -0.9394256993415939 0.07666426072913773
0.0269987 -0.9385615673879346 0.08264410218271234
0.0289986 -0.9377774430772785 0.08850329569816319
0.0309985 -0.9367687900058679 0.09411041790032937
0.0329984 -0.9360045447408982 0.1000617341739311
0.0349983 -0.9350217126110101 0.10571587112448855
0.0369982 -0.9338999899577818 0.11141547122852874
0.0389981 -0.9329186175089015 0.11716819396791023
0.040998 -0.9318761726388454 0.12291519451957483
0.0429979 -0.9304140326656011 0.12826116397292797
0.0449978 -0.9290446893109443 0.13405936125542944
0.0469977 -0.9280149638488022 0.1394944813257405
0.0489976 -0.9260627136776568 0.1458752523887446
0.0509975 -0.9250486235710078 0.15129606029580034
0.0529974 -0.9238331328201123 0.15759113409264086
0.0549973 -0.9219220052828688 0.1638377987865261
0.0569972 -0.9207079887100648 0.16913781226898367
0.0589971 -0.9194163582416495 0.17496338751451973
0.060997 -0.9180195931109253 0.18135357428123672
0.0629969 -0.9169051006520953 0.1866280962062749
0.0649968 -0.9148004161909065 0.19244902243182704
0.0669967 -0.914509222196657 0.1989579427266957
0.0689966 -0.9127696521603961 0.20396833238187018
0.0709965 -0.9117379042711014 0.20961786979125263
0.0729964 -0.9096491901422381 0.2161309330291658
0.0749963 -0.9085313214071347 0.22126965787422906
0.0769962 -0.907426823691786 0.2268229447450045
0.0789961 -0.9060556711702129 0.23223215693593283
0.080996 -0.9043190209773068 0.2378479086441007
0.0829959 -0.9028699246264615 0.2435830003984192
0.0849958 -0.9017531789092279 0.2483313252891775
0.0869957 -0.9003440532333514 0.2540092417720639
0.0889956 -0.8987255031363054 0.25915799207693146
0.0909955 -0.8970316632261897 0.2643204882346768
0.0929954 -0.8950215216371488 0.26959123024844994
0.0949953 -0.8932277880950977 0.2750540567439841
0.0969952 -0.8915460068483589 0.2799521627218576
0.0989951 -0.8893250740494352 0.2851650789380308
0.100995 -0.8883108828258939 0.29101037645961325
0.1029949 -0.8865045052570213 0.29633369662991005
0.1049948 -0.884304943658837 0.30131870416379763
0.1069947 -0.8820165415927916 0.305880179968698
0.1089946 -0.8798572789058341 0.3110605134873702
0.1109945 -0.8774333554318013 0.3161883837980786
0.1129944 -0.8752669698371915 0.32111927526727
0.1149943 -0.8726042170790318 0.32617553761686097
0.1169942 -0.8702243376129432 0.3314692137141855
0.1189941 -0.8676508866140658 0.33639641389922664
0.120994 -0.8651924683279778 0.34181173548361216
0.1229939 -0.8624511002237946 0.34695579275268973
0.1249938 -0.859842544130083 0.35246172844083096
0.1269937 -0.8575045716137868 0.3574853194446661
0.1289936 -0.8553172474501288 0.36326401781128503
0.1309935 -0.8524606526904551 0.3683201863680612
0.1329934 -0.8498690155719327 0.37378116914722626
0.1349933 -0.8469171657689156 0.37889829157536037
0.1369932 -0.8446391730815042 0.3838595276650172
0.1389931 -0.8418565213248763 0.3892717257903905
0.140993 -0.8393119377756977 0.3945373261317501
0.1429929 -0.8362399230854733 0.3997179888848449
0.1449928 -0.834756098615123 0.4049168238688072
0.1469927 -0.8320637792796031 0.4106644612840752
0.1489926 -0.829272451034469 0.4156361018609087
0.1509925 -0.8265136187475022 0.4202068491147489
0.1529924 -0.8236735044552849 0.42559671463990184
0.1549923 -0.8218894883158196 0.4309401182296975
0.1569922 -0.8191083581921703 0.4358906118504981
0.1589921 -0.8165032904191887 0.4408798837801772
0.160992 -0.8138293398124857 0.44548719077873444
0.1629919 -0.81084309398633 0.45085028390967125
0.1649918 -0.808210428779927 0.4556200679293724
0.1669917 -0.8056745233120919 0.4596349257041925
0.1689916 -0.8027619335266568 0.4648330272375868
0.1709915 -0.7999267540463408 0.4696634527877677
0.1729914 -0.7969352274423576 0.474259248449434
0.1749913 -0.7940455759660192 0.4786686526284695
0.1769912 -0.7912217791499613 0.4833804319987436
0.1789911 -0.7881439267617646 0.48781923534947375
0.180991 -0.7848674318765584 0.49244487260084985
0.1829909 -0.7819447835588801 0.4971477726639179
0.1849908 -0.7788325608634864 0.5014710223853931
0.1869907 -0.7756097435915941 0.5059059831365686
0.1889906 -0.7720609278226742 0.510637494594804
0.1909905 -0.7690796798270008 0.5153084212728813
0.1929904 -0.7656338101190154 0.5195295600330837
0.1949903 -0.7619916460540331 0.524122108442546
0.1969902 -0.7585413980621301 0.5287848858223201
0.1989901 -0.7553896981359787 0.5332766921703056
0.20099 -0.7517059094887578 0.5379863602633924
0.2029899 -0.748401181945719 0.5424023803816418
0.2049898 -0.7446636263784614 0.5469885039620572
0.2069897 -0.7415253047003666 0.5511330432943177
0.2089896 -0.7378563242614636 0.5557147690497294
0.2109895 -0.7342048528750004 0.5599469683662801
0.2129894 -0.7306817515353325 0.5649758527490715
0.2149893 -0.7269413967767088 0.5692153630701994
0.2169892 -0.7233237181589193 0.5737676741019574
0.2189891 -0.7194602015943261 0.5783323994048493
0.220989 -0.716218789419829 0.5826231363947644
0.2229889 -0.7125676160092567 0.5870270161086413
0.2249888 -0.7082618365445075 0.5913501896115987
0.2269887 -0.7046565881514348 0.595341890013202
0.2289886 -0.7006638387020807 0.5993119626004708
0.2309885 -0.6969607197471942 0.6044887495044733
0.2329884 -0.6929813770750248 0.6086079065345749
0.2349883 -0.6889116806358749 0.6129458246690924
0.2369882 -0.6852051008798455 0.6168615192659642
0.2389881 -0.6815379393549841 0.6216958160168857
0.240988 -0.6777033944008994 0.6255751724250195
0.2429879 -0.6736473955661498 0.6297100013245085
0.2449878 -0.6697064768475545 0.633944348347834
0.2469877 -0.6658300672716077 0.6378707233453784
0.2489876 -0.6621703685355155 0.6424680575719701
0.2509875 -0.6581093892788905 0.6467168379030543
0.2529874 -0.6543094794732444 0.6506780372125258
0.2549873 -0.6506234993230987 0.6549945696067242
0.2569872 -0.6470515783365915 0.6591391699588613
0.2589871 -0.6431417280688387 0.663347646382225
0.260987 -0.6389648377347071 0.6672100807210899
0.2629869 -0.6353627252603506 0.6710792664681612
0.2649868 -0.631388106369785 0.6747630535425309
0.2669867 -0.6275051239770943 0.6784145153995651
0.2689866 -0.6234079387129436 0.6822222416143073
0.2709865 -0.6195283350429338 0.6860279223579787
0.2729864 -0.6157137673936168 0.6896604247444338
0.2749863 -0.6117748984334213 0.6929753874169771
0.2769862 -0.6079155611748568 0.6965041404366031
0.2789861 -0.6037026306781031 0.6997252289598049
0.280986 -0.5997604313520183 0.7028466178226676
0.2829859 -0.595490283081621 0.7060922631307123
0.2849858 -0.5911661669127077 0.7091610530275391
0.2869857 -0.5868105590207779 0.7122415560490247
0.2889856 -0.5824463217227981 0.7154673576700473
0.2909855 -0.5774366772068055 0.7186163870344774
0.2929854 -0.5731210621833532 0.7215387441583875
0.2949853 -0.5682344547612558 0.7248338416112506
0.2969852 -0.5635590285368958 0.727568389652407
0.2989851 -0.5591070069559383 0.730176612178961
0.300985 -0.553454591740634 0.733067134093448
0.3029849 -0.5483607996340621 0.7356911070858085
0.3049848 -0.5434530820622145 0.7390095626469743
0.3069847 -0.5381202100937312 0.7418227834025248
0.3089846 -0.5325449116822223 0.7448587671624042
0.3109845 -0.5270256547875991 0.7476697702053605
0.3129844 -0.5214952525656944 0.7508541227756615
0.3149843 -0.5161691037090099 0.7539807628814438
0.3169842 -0.5109500760028198 0.7574590773552661
0.3189841 -0.5052757232822936 0.7604398332504787
0.320984 -0.4995712463659265 0.7631373952948742
0.3229839 -0.4941842544203013 0.7666862690998978
0.3249838 -0.4886239543147507 0.7697564443222422
0.3269837 -0.48321957797350484 0.7730813707889799
0.3289836 -0.47772591957754035 0.7761566441304926
0.3309835 -0.4726041913012181 0.7795001424450747
0.3329834 -0.4680183889340943 0.782927068558269
0.3349833 -0.4630399887398031 0.7868392806481462
0.3369832 -0.4584219180522356 0.7904785311077664
0.3389831 -0.4532658958105333 0.7944052836987678
0.340983 -0.4483112353432726 0.7980080508789984
0.3429829 -0.44416993758950046 0.8022118440166766
0.3449828 -0.4396322432063568 0.8057953806415625
0.3469827 -0.4348955955373681 0.8094434596861833
0.3489826 -0.4305482528296718 0.8126237967209353
0.3509825 -0.4257168126058075 0.8158567405853002
0.3529824 -0.42085971677801776 0.819042841279327
0.3549823 -0.4166983457201669 0.8222455551294507
0.3569822 -0.4122597415806962 0.8247456185483324
0.3589821 -0.40809288813274464 0.8275677196509303
0.360982 -0.4033914074226949 0.8301950936463274
0.3629819 -0.39907021822443006 0.8324637731260781
0.3649818 -0.39414116278191025 0.8343968522671719
0.3669817 -0.3896230588070334 0.836266419109115
0.3689816 -0.3845014412690759 0.838299864058533
0.3709815 -0.3795881741459406 0.8401254583040053
0.3729814 -0.374332366177408 0.8418439254556366
0.3749813 -0.3697951158345737 0.8436004759609929
0.3769812 -0.364486505533537 0.845140630148158
0.3789811 -0.35926405758609997 0.8469458822507383
0.380981 -0.35387176124574354 0.8479618766241858
0.3829809 -0.3479344552393402 0.8494141953076596
0.3849808 -0.34259113304914063 0.8517960676950708
0.3869807 -0.3365244824264568 0.8528235650985879
0.3889806 -0.33054014661580594 0.8547609813385991
0.3909805 -0.32424522696811753 0.8561686753839535
0.3929804 -0.3183609456480562 0.8580515866003418
0.3949803 -0.31184489241413216 0.8603116230916241
0.3969802 -0.30617863066689754 0.8618468729854618
0.3989801 -0.2994355991642422 0.8636241537605108
0.40098 -0.293667506719521 0.8654939093186839
0.4029799 -0.28768325746062146 0.8679078074043449
0.4049798 -0.28109707600619904 0.869852813551755
0.4069797 -0.2754255258421565 0.8722983871702347
0.4089796 -0.2692982111920703 0.8744513200612055
0.4109795 -0.26345427723701975 0.8767360607420523
0.4129794 -0.25748404322637003 0.8790618131270634
0.4149793 -0.25137285942777515 0.8816284004024707
0.4169792 -0.24576246343412025 0.8838683716158886
0.4189791 -0.2400493199095114 0.8860066129889708
0.420979 -0.2346370639807088 0.8880544503505985
0.4229789 -0.22953939795928174 0.8899517828717511
0.4249788 -0.22390866640201423 0.8925070781035319
0.4269787 -0.21892590837280337 0.8941465079241726
0.4289786 -0.21384167000272658 0.8961859730097983
0.4309785 -0.208715554439227 0.8974783092409959
0.4329784 -0.20355460840351475 0.8990286123377169
0.4349783 -0.19763548117844945 0.8999809962730411
0.4369782 -0.192711853214023 0.9008148174040956
0.4389781 -0.1876456679646471 0.9019465710044515
0.440978 -0.1824750747447667 0.9025015499353063
0.4429779 -0.1772826608354039 0.9033247290954134
0.4449778 -0.1719365848179709 0.9039614287295507
0.4469777 -0.1664677723452791 0.9041789397826271
0.4489776 -0.16089486015244944 0.9045832000595858
0.4509775 -0.15510449891317363 0.9050682520776022
0.4529774 -0.14910035854204964 0.9052352551914925
0.4549773 -0.14280695582295325 0.9053700964817409
0.4569772 -0.136501085238521 0.9056215727053503
0.4589771 -0.13051228117647506 0.9056919737551848
0.460977 -0.12358928255561388 0.9060493324656631
0.4629769 -0.11670932920388885 0.9066942464371536
0.4649768 -0.11038471332543731 0.9070900223043611
0.4669767 -0.1037007658281348 0.9072233188588859
0.4689766 -0.0970707194250593 0.9077058581447667
0.4709765 -0.09079505143540967 0.9082406279513752
0.4729764 -0.08356886434890758 0.9087465027688754
0.4749763 -0.07701908015957881 0.9099881841708628
0.4769762 -0.07053316723955724 0.9109162857693287
0.4789761 -0.06329659690509723 0.9117608103239125
0.480976 -0.05695383065611358 0.9130249512313251
0.4829759 -0.05009860852236977 0.9137592631432743
0.4849758 -0.04407188401698511 0.9148464806772979
0.4869757 -0.03763452961906688 0.9159163895872835
0.4889756 -0.030980531410048057 0.9170007600940747
0.4909755 -0.024644076414585617 0.9180163590639926
0.4929754 -0.019099356554078725 0.919199018669397
0.4949753 -0.013043850200199977 0.9200117770981174
0.4969752 -0.007311304637647939 0.9204634424140403
0.4989751 -0.0017490850320338522 0.9214185908040158
0.500975 0.003513567535665928 0.9217953139535489
0.5029749 0.009034159070763301 0.9220576288161979
0.5049748 0.01429737652730454 0.922211894826521
0.5069747 0.019368966922994498 0.9223775437147052
0.5089746 0.024753315675236386 0.9224065763872464
0.5109745 0.030373648998043 0.9226844300731358
0.5129744 0.03585714625869647 0.9224971423814863
0.5149743 0.040619630461000936 0.9221273462598757
0.5169742 0.04596945353367507 0.9212343370836463
0.5189741 0.051596511728588285 0.9205427312156537
0.520974 0.057566883810776154 0.9193471128916694
0.5229739 0.06388754610974001 0.9185436734903659
0.5249738 0.06888739356000516 0.9178068867491223
0.5269737 0.07536026880840467 0.9168573852258687
0.5289736 0.08107453073165903 0.9150520279718155
0.5309735 0.08726818954919996 0.913670265293051
0.5329734 0.09324949588355297 0.912347826788441
0.5349733 0.09958356292299467 0.9107988265501292
0.5369732 0.10612508976737522 0.9094981574901468
0.5389731 0.11286417700455699 0.9085156573503623
0.540973 0.11921282183766191 0.9059949735834859
0.5429729 0.1260795751614729 0.9054032950748205
0.5449728 0.1326831699698586 0.9040258071726854
0.5469727 0.1395247024121328 0.9031432295994364
0.5489726 0.14627329915395948 0.9022777689908761
0.5509725 0.15316102396788775 0.901114812797361
0.5529724 0.16006861435780942 0.900275291261308
0.5549723 0.16705312176682108 0.8993623281364119
0.5569722 0.17368438758847407 0.8985619070392515
0.5589721 0.18048259130062652 0.8975783851832889
0.560972 0.18699489470627748 0.8975902847574057
0.5629719 0.19341078544347753 0.8969771342382253
0.5649718 0.20050139174779433 0.8964705852054274
0.5669717 0.2064508354057113 0.8954894249373646
0.5689716 0.21225359969134558 0.8953737741475926
0.5709715 0.21792940779669379 0.8942027120380415
0.5729714 0.22345583574876227 0.8932142505560652
0.5749713 0.22969447744748828 0.892092612711882
0.5769712 0.23525057188191462 0.8907834339975066
0.5789711 0.24073555771170138 0.8900008503885503
0.580971 0.24602387546903481 0.8889619126588306
0.5829709 0.2514419254384026 0.8875656948566379
0.5849708 0.25658189092229233 0.885984747695018
0.5869707 0.26197991654848524 0.8845860198306109
0.5889706 0.2676107103559387 0.8822977127520654
0.5909705 0.27331105640859843 0.8799181029534717
0.5929704 0.2784781001791313 0.8776170711153987
0.5949703 0.284363196344409 0.8752410539075537
0.5969702 0.28982646942859125 0.8730303693750694
0.5989701 0.2953218496047194 0.8701050380387678
0.60097 0.3008913712517322 0.8678138661917495
0.6029699 0.30693489070689833 0.8647274317201097
0.6049698 0.3128078053653148 0.8620461162222225
0.6069697 0.3186042140092559 0.8588743282197646
0.6089696 0.3253915825609742 0.8563642971173879
0.6109695 0.33115419685043473 0.8538623224427633
0.6129694 0.3380808858337857 0.8508137291883603
0.6149693 0.34430426605548287 0.8481433159914804
0.6169692 0.3509705850592389 0.8453588782423933
0.6189691 0.35727162907867227 0.8427926429874629
0.620969 0.36419128327946676 0.840321451491203
0.6229689 0.3703453224688628 0.8378309821507747
0.6249688 0.3768199432021851 0.8354516300748555
0.6269687 0.3837513293516266 0.8327685392411782
0.6289686 0.38999543294035155 0.8307097213628258
0.6309685 0.3964107515570797 0.8289553316121268
0.6329684 0.4022417340837523 0.8266066613531541
0.6349683 0.4085250896121406 0.8242952505561515
0.6369682 0.4138531667860352 0.8217850780431987
0.6389681 0.4199160105293399 0.8195432676168883
0.640968 0.4260854434468903 0.8174861281113444
0.6429679 0.43145432363254416 0.8152174946475632
0.6449678 0.43660152221574483 0.8131621337713226
0.6469677 0.4418083454585753 0.8107836035401583
0.6489676 0.4471393624184295 0.808368963961024
0.6509675 0.45231581231215173 0.8059175803901742
0.6529674 0.4568720457371256 0.8033459354479346
0.6549673 0.46207866484036275 0.8005645420086281
0.6569672 0.4667563531063916 0.7976979324258605
0.6589671 0.47190077548025255 0.7948250213043202
0.660967 0.47635729458986364 0.7915769181206105
0.6629669 0.4809160429125746 0.7879203339399337
0.6649668 0.48548324337160276 0.7838446603288015
0.6669667 0.4902784835568149 0.7802381210748487
0.6689666 0.494976984988628 0.7760457638972675
0.6709665 0.5003817435448976 0.7716681465514327
0.6729664 0.5051784827876211 0.7677306110364729
0.6749663 0.5103210454404966 0.762892139093559
0.6769662 0.515376811014139 0.7588883866834515
0.6789661 0.520429032485662 0.7536570569681029
0.680966 0.5259580065648476 0.7489963097920469
0.6829659 0.5314361003795172 0.7445317283344476
0.6849658 0.5370198802211398 0.7399769064168785
0.6869657 0.5430816208839397 0.7351248387872423
0.6889656 0.5490708049213988 0.7312468288652116
0.6909655 0.5548564143067292 0.726910282829901
0.6929654 0.5609128613713308 0.7225822384752427
0.6949653 0.5665573987189062 0.7181319030939096
0.6969652 0.5725031300994309 0.713956882909987
0.6989651 0.5782190990327882 0.7099068391456067
0.700965 0.5843417270001993 0.7057364760473904
0.7029649 0.5898372916875466 0.7017540787596566
0.7049648 0.5954842225203898 0.6983093262879815
0.7069647 0.6006504954899686 0.693894838575999
0.7089646 0.6068009229666933 0.6903652438055232
0.7109645 0.6119085483108567 0.6872597052831495
0.7129644 0.6167989608441728 0.6830886864286777
0.7149643 0.621355192893542 0.679828859083521
0.7169642 0.6264429607896529 0.6762008248342729
0.7189641 0.6305174012831759 0.6725072028167791
0.720964 0.6353869894677908 0.6681887459230283
0.7229639 0.6396064649338723 0.6643511070345036
0.7249638 0.6445275901431455 0.660504292987284
0.7269637 0.6485756607213461 0.6569325691816893
0.7289636 0.6526813713106953 0.6524776133884057
0.7309635 0.6567944464345887 0.6483770550976964
0.7329634 0.6610184846860007 0.6435703800093626
0.7349633 0.664309624759875 0.6389262062067846
0.7369632 0.668466059938632 0.6342720015273652
0.7389631 0.6717394457743742 0.6293217090884202
0.740963 0.6759077165657024 0.6242828255083245
0.7429629 0.6796185433175145 0.6187093122387409
0.7449628 0.68328292226969 0.6132880946136396
0.7469627 0.6876816392551315 0.6073507186528955
0.7489626 0.6916740526773155 0.6017252566300664
0.7509625 0.6956398744949341 0.5963484766337205
0.7529624 0.6997841147653375 0.5904237564476047
0.7549623 0.7036265773174519 0.5848684596386355
0.7569622 0.7086510522154763 0.5791999295509327
0.7589621 0.7127054894918795 0.5729438937614809
0.760962 0.7173593372641124 0.5670369860138587
0.7629619 0.7218103345857675 0.56157620180983
0.7649618 0.7262900664505881 0.5559257769635709
0.7669617 0.7308153071249438 0.5501051122327604
0.7689616 0.7353019113836057 0.5442825660680329
0.7709615 0.7398799694763635 0.5390247698983355
0.7729614 0.7441684045326801 0.5333558492723142
0.7749613 0.7485928073781224 0.5279674506875188
0.7769612 0.7529467981684768 0.5229198509779788
0.7789611 0.757615721277605 0.5176602877774198
0.780961 0.7614518714653449 0.5125827184948585
0.7829609 0.7657427925218201 0.5073989708866328
0.7849608 0.769363360212705 0.5025366321104878
0.7869607 0.7735533644160426 0.4972086323002994
0.7889606 0.7773842213792543 0.49212838983711843
0.7909605 0.7806897496698023 0.4871633326765114
0.7929604 0.7846714502129852 0.4821020555927886
0.7949603 0.7881390470442948 0.47706441979170233
0.7969602 0.7911915417467918 0.47201843575188657
0.7989601 0.7944296007829769 0.46666470051912745
0.80096 0.7981025888670337 0.46153269387311474
0.8029599 0.80106202817559 0.4563337438573974
0.8049598 0.8038975590969497 0.45054408030977483
0.8069597 0.8064769823366935 0.4454012435143987
0.8089596 0.8089868591618316 0.43952336560526795
0.8109595 0.8113334096198932 0.4335480290906828
0.8129594 0.8140407651089999 0.42784040154951974
0.8149593 0.8165656319890655 0.42193165223501505
