! Created with skrf 1.8.0 (http://scikit-rf.org).
# GHz S RI R 50.0 
!freq ReS11 ImS11
0.001 -1.1270877623142743 0.014721377852879913
0.0029999 -0.9677596719469272 -0.011760107998972869
0.0049998 -0.9441778955504057 0.009579803699217404
0.0069997 -0.9414378414514661 0.022707277250442748
0.0089996 -0.9395038294627588 0.031223243099458342
0.0109995 -0.9381931424160906 0.0388524231774563
0.0129994 -0.9383982836664241 0.04688772485574999
0.0149993 -0.9378239837716065 0.055051916390636335
0.0169992 -0.9369782169906662 0.06159963475169161
0.0189991 -0.9368995958919257 0.06762413094421471
0.020999 -0.9360245624704551 0.07458100588248184
0.0229989 -0.9352446023445118 0.08117304355356797
0.0249988 -0.9341866753118984 0.08764220947881907
0.0269987 -0.9331231755064964 0.0944650103560597
0.0289986 -0.9321711007078437 0.10112326124774267
0.0309985 -0.9310629559755575 0.10759087260805589
0.0329984 -0.9300161931629142 0.11442588837797985
0.0349983 -0.9288244016117481 0.12085293210680903
0.0369982 -0.9275742330551042 0.12727687277757221
0.0389981 -0.9262922785816572 0.13384080767648154
0.040998 -0.9250157177788179 0.14048772946077648
0.0429979 -0.9233194127336627 0.14704853922837513
0.0449978 -0.9217540732175971 0.15309425872714594
0.0469977 -0.9203122524124554 0.15961400862271452
0.0489976 -0.9183144062881162 0.16648577469524523
0.0509975 -0.9167519126000419 0.17279987673002462
0.0529974 -0.9153369015266638 0.17936933082161055
0.0549973 -0.912761464669819 0.18734458397323783
0.0569972 -0.9115043471493026 0.19312742198303018
0.0589971 -0.9099826110895924 0.1997520362799417
0.060997 -0.9082834509511913 0.20688760813317775
0.0629969 -0.9067130548414987 0.2130255888631586
0.0649968 -0.9044194797726869 0.21966792085028208
0.0669967 -0.9035792371860877 0.22685614695172396
0.0689966 -0.9015918660168478 0.23263775056959887
0.0709965 -0.8998372166394294 0.23932902361998692
0.0729964 -0.8975207059446408 0.24619670840288094
0.0749963 -0.8960110387426482 0.2523577856551422
0.0769962 -0.8944792263819393 0.2587170098749349
0.0789961 -0.8926552532090648 0.26488082681375125
0.080996 -0.8905567214278194 0.2714171987568281
0.0829959 -0.8885285350242371 0.27776116676166507
0.0849958 -0.8868890177044755 0.28352555348180714
0.0869957 -0.8852110246434362 0.28980810782069766
0.0889956 -0.8830065543642132 0.29541586199767317
0.0909955 -0.8806784118899877 0.3015147049627846
0.0929954 -0.8783246490555073 0.30725310761189284
0.0949953 -0.8758767386006976 0.31343683237134556
0.0969952 -0.8737224790210862 0.3192277218214929
0.0989951 -0.870780128597862 0.32537664304399216
0.100995 -0.8695985676133952 0.33177811715783806
0.1029949 -0.8670875369622656 0.3378153051844557
0.1049948 -0.864348171142769 0.34337507536081546
0.1069947 -0.8614971189818811 0.3487359248740939
0.1089946 -0.8585686211847179 0.3546559847095253
0.1109945 -0.8558176193757883 0.3603215175686425
0.1129944 -0.8528250737792709 0.3660591815948088
0.1149943 -0.8495968992503358 0.3716681992428945
0.1169942 -0.8464812767850167 0.3776699292486423
0.1189941 -0.8431074626352273 0.38339629126175656
0.120994 -0.8399864237517781 0.3894213412217352
0.1229939 -0.8367025453418311 0.3952814668018192
0.1249938 -0.8335811637146531 0.401190568245544
0.1269937 -0.8302602438162009 0.4068985224687931
0.1289936 -0.8275007918886584 0.4129971687528202
0.1309935 -0.824032174724522 0.418808159345364
0.1329934 -0.8205852614085917 0.4250002169566902
0.1349933 -0.81713738200361 0.43103925441979274
0.1369932 -0.8140536371793323 0.4361323030449724
0.1389931 -0.8104427098535398 0.4423000036662854
0.140993 -0.8072005979925674 0.4477365849140191
0.1429929 -0.8035184558509274 0.4537356260951727
0.1449928 -0.8010022387396747 0.46020083924254784
0.1469927 -0.7971454562843993 0.46577502825424694
0.1489926 -0.7942020664489433 0.4715058207121303
0.1509925 -0.7906775034625246 0.476395396781325
0.1529924 -0.7871035966551901 0.48278944713986843
0.1549923 -0.7842973839427647 0.48855002455795166
0.1569922 -0.7806157947591488 0.4939619597963977
0.1589921 -0.7771725481336775 0.49949018081401436
0.160992 -0.7736549708050524 0.5049386500547668
0.1629919 -0.7700033621494193 0.5102913450866792
0.1649918 -0.7666721066216662 0.5156729764813034
0.1669917 -0.7629695566205521 0.5207837621189714
0.1689916 -0.7592553814551696 0.5259451943674911
0.1709915 -0.7554380713219849 0.5311751567038913
0.1729914 -0.7517000430914745 0.5363770457598058
0.1749913 -0.7478370746880201 0.5413182855070374
0.1769912 -0.7439319049012004 0.5462570569928606
0.1789911 -0.7402037745903076 0.5514402063377744
0.180991 -0.7359871990467879 0.5563091756902476
0.1829909 -0.732194951365791 0.5613915701471147
0.1849908 -0.7281863778564411 0.5663339274243744
0.1869907 -0.7238389296086463 0.5711028947615883
0.1889906 -0.7196913096121392 0.5763760698942477
0.1909905 -0.7154841487244452 0.5813948121120784
0.1929904 -0.71121896392943 0.5862296647451921
0.1949903 -0.7067700566464016 0.5909181416069922
0.1969902 -0.7023299075122919 0.5956689472184792
0.1989901 -0.6979646161130587 0.6006822378306689
0.20099 -0.6935964063478078 0.6055701705279893
0.2029899 -0.6892513432126491 0.6106141910502829
0.2049898 -0.6847373614001042 0.614857399030898
0.2069897 -0.6802237326490645 0.6197837981613585
0.2089896 -0.6754293936699213 0.6249024581490347
0.2109895 -0.6713622008663864 0.629257002773599
0.2129894 -0.6663253168547587 0.6342294989162452
0.2149893 -0.6617286084150492 0.6392034024546003
0.2169892 -0.6571528356669768 0.643768584845492
0.2189891 -0.6523039378738227 0.6484001725068627
0.220989 -0.6478143704088889 0.653378550041221
0.2229889 -0.6428283768441512 0.6578544823229078
0.2249888 -0.63793057009112 0.6620199949037776
0.2269887 -0.6328600524621194 0.6665594880264027
0.2289886 -0.6280237476488201 0.6711212579696278
0.2309885 -0.6232997847850481 0.6758444139048931
0.2329884 -0.6183091432633668 0.6800992758222422
0.2349883 -0.613165356116911 0.6846733109127382
0.2369882 -0.6080772956405549 0.6890944722288889
0.2389881 -0.6033732947644379 0.6936490535673442
0.240988 -0.5980293268394139 0.6978346444487857
0.2429879 -0.5926554741002198 0.7021871340975014
0.2449878 -0.5878529242477304 0.7063666468184235
0.2469877 -0.5826438974370854 0.7109496629129569
0.2489876 -0.5778029226182692 0.7155914502866605
0.2509875 -0.5727025730763886 0.7196554027430154
0.2529874 -0.567521097660203 0.7238662851494089
0.2549873 -0.5627870101867037 0.7284651598573629
0.2569872 -0.5578441951400102 0.7326222904224743
0.2589871 -0.5526112230409982 0.7365540827713526
0.260987 -0.5476089072711154 0.7407113465751755
0.2629869 -0.5426108108364321 0.7447934543830141
0.2649868 -0.5375380879264384 0.7484794730605804
0.2669867 -0.5324346715410722 0.7521448091149142
0.2689866 -0.5272467853224492 0.7559565675113418
0.2709865 -0.522311859621786 0.7596433851523359
0.2729864 -0.5175236361599976 0.7633192374236932
0.2749863 -0.5122996900915914 0.7668876350848314
0.2769862 -0.5072495836248874 0.7702941868826617
0.2789861 -0.502066632667382 0.7737844602700098
0.280986 -0.4965977980146803 0.7763579676578293
0.2829859 -0.4916995320834095 0.7793283237612451
0.2849858 -0.4857733686296784 0.7826174494604747
0.2869857 -0.48025197335733977 0.7856742671558177
0.2889856 -0.4745584758095083 0.7883523836013413
0.2909855 -0.46888171990365657 0.7913179846630151
0.2929854 -0.46316373508124503 0.7944704147253339
0.2949853 -0.45716273047462486 0.7972312845990969
0.2969852 -0.45128873678970227 0.7995663781639905
0.2989851 -0.4452057608309641 0.8020631721046573
0.300985 -0.43912216943667215 0.8045828798036441
0.3029849 -0.43229320504834157 0.8071125703678081
0.3049848 -0.42615425704897997 0.8099977078700299
0.3069847 -0.4195754250478977 0.8122991962964573
0.3089846 -0.4128658602652715 0.8149201848191655
0.3109845 -0.4060711222120704 0.8173830056234485
0.3129844 -0.3993852769736304 0.8203268754153045
0.3149843 -0.3925240181356643 0.8228341563001029
0.3169842 -0.38573743010384237 0.8255857681360499
0.3189841 -0.37896178495230676 0.8281009605966917
0.320984 -0.37181793227862825 0.8307858858138933
0.3229839 -0.36492597720409037 0.8336050711594702
0.3249838 -0.3586348632957391 0.8360656970773206
0.3269837 -0.35141916545309737 0.8390449792276355
0.3289836 -0.3448546389024646 0.8414431769583385
0.3309835 -0.33796837962871085 0.8447870163206661
0.3329834 -0.33193523915862994 0.8477518956511452
0.3349833 -0.3253534846534487 0.8509368777995822
0.3369832 -0.31908830722726256 0.8543779752720742
0.3389831 -0.31285138755791786 0.8577668741110087
0.340983 -0.3065764121994228 0.8612290728678231
0.3429829 -0.30097935883420246 0.864792609494917
0.3449828 -0.29476471212791067 0.8678735952184059
0.3469827 -0.2885372934229183 0.8708999208341852
0.3489826 -0.2826024347081265 0.8736950140488686
0.3509825 -0.27661521737864436 0.8767480527155815
0.3529824 -0.2706135239682731 0.879474988505263
0.3549823 -0.2650132959231459 0.8820561687435642
0.3569822 -0.2592656747976909 0.8840555233442505
0.3589821 -0.25352690283607576 0.886560846069442
0.360982 -0.24777197455538502 0.8885743684296918
0.3629819 -0.24187210396170838 0.8903894282089649
0.3649818 -0.23633132523515038 0.8917386956286733
0.3669817 -0.2301254684051222 0.8926819403644071
0.3689816 -0.22389268966428072 0.8942556903565779
0.3709815 -0.21762173895664955 0.8952736483386413
0.3729814 -0.21158210611326392 0.8963431596783308
0.3749813 -0.20543207902942082 0.8975499600674848
0.3769812 -0.19902268350229121 0.8984196640423003
0.3789811 -0.19292121136388063 0.8992662811511365
0.380981 -0.18588018668369122 0.8994087123031307
0.3829809 -0.17916162811948666 0.9007800888732468
0.3849808 -0.17226745412209898 0.9012793617379712
0.3869807 -0.16503243247674076 0.9017696715221906
0.3889806 -0.15810961242885088 0.9023945152192797
0.3909805 -0.15028760199311145 0.9029811317636386
0.3929804 -0.14297232568806112 0.9041453569817921
0.3949803 -0.13523332973594945 0.9046308901608261
0.3969802 -0.12834244177999268 0.905550718737279
0.3989801 -0.1207529750670043 0.9060188571415871
0.40098 -0.11320431884620138 0.9071810849869015
0.4029799 -0.10579983589277416 0.9080747307648203
0.4049798 -0.09832597218090768 0.9091126577289101
0.4069797 -0.09097588263846654 0.9104654724760409
0.4089796 -0.08356672729623052 0.9113179137558386
0.4109795 -0.07631750550462743 0.9121643025918083
0.4129794 -0.06883378958632971 0.9139884031553069
0.4149793 -0.06162388837488174 0.9149483952506577
0.4169792 -0.05428599286809663 0.9160619686935408
0.4189791 -0.047418825525883654 0.9173320858188417
0.420979 -0.04050141621844687 0.9179384848670481
0.4229789 -0.03379980196128222 0.9191355098668414
0.4249788 -0.026938795233707746 0.9203724815105719
0.4269787 -0.020603170666839345 0.9211205542620508
0.4289786 -0.014074269050374138 0.9218731049793492
0.4309785 -0.007850630235974784 0.9220448595760459
0.4329784 -0.0012639115911128006 0.9225902600257098
0.4349783 0.005559180178441904 0.9221331446650775
0.4369782 0.011691106533654714 0.9217644276450314
0.4389781 0.01800585786020921 0.9220243314700007
0.440978 0.024284461937988673 0.9214513772122268
0.4429779 0.030558060708485282 0.9211750228743205
0.4449778 0.03718449412427272 0.9203975949817417
0.4469777 0.04360723161970331 0.9194402704692713
0.4489776 0.05062612243999011 0.9190492977939269
0.4509775 0.057229572757067707 0.9181146716370019
0.4529774 0.06414201542257703 0.9163192618485745
0.4549773 0.07131760465463928 0.9153487628560039
0.4569772 0.07867400756051081 0.9139470918289905
0.4589771 0.08544471826117563 0.9126089142234984
0.460977 0.09364859213303427 0.9113390132585851
0.4629769 0.10076039517625789 0.910491426465572
0.4649768 0.1085156092344595 0.9093185608652576
0.4669767 0.11619941841227133 0.9077994204794387
0.4689766 0.12360463478907685 0.9063897582621562
0.4709765 0.13108802262817099 0.9054697529716373
0.4729764 0.13921526390413896 0.9044846807930964
0.4749763 0.1469090500950928 0.903798011771386
0.4769762 0.1544183132010285 0.9024188592079166
0.4789761 0.16245709211700737 0.9012289766638752
0.480976 0.1702909335555277 0.9011410999190583
0.4829759 0.17809036075584728 0.9004216995600681
0.4849758 0.18543129845134612 0.899274331377766
0.4869757 0.19298846854912438 0.8982397465430847
0.4889756 0.20062603092628023 0.8978615538088447
0.4909755 0.20803476485263592 0.8969492494504814
0.4929754 0.21503017375223032 0.8960644299782998
0.4949753 0.22191545540607752 0.8953238991668632
0.4969752 0.22862654247099762 0.894052027799004
0.4989751 0.2355048314088422 0.8931876545368741
0.500975 0.24158818006322988 0.8915646068369607
0.5029749 0.24841932010167106 0.8903858563372187
0.5049748 0.2545787596470063 0.8891626616417183
0.5069747 0.2605442115491517 0.8875418461593516
0.5089746 0.2670679044874396 0.8856235204976484
0.5109745 0.2736133349136311 0.8846086329582461
0.5129744 0.2800160249312379 0.8825679950881463
0.5149743 0.2856860092566267 0.8802965513790231
0.5169742 0.2917904860138076 0.8777513417637934
0.5189741 0.298393817364012 0.8752584065406291
0.520974 0.3049673177983186 0.8724801140334469
0.5229739 0.3119024035187289 0.8697220252470031
0.5249738 0.3178961419021705 0.8671487741738098
0.5269737 0.32455769353236896 0.8638604811977044
0.5289736 0.3310163136061405 0.8609454023896519
0.5309735 0.33742627338861847 0.8578016270743922
0.5329734 0.34441215172330963 0.8541592623148972
0.5349733 0.35104965601633686 0.8506231233436343
0.5369732 0.35770225964058644 0.8471506651109241
0.5389731 0.36487406440516357 0.8437074628508328
0.540973 0.37157543307396307 0.8398207271891412
0.5429729 0.3786722829556054 0.8367458581238827
0.5449728 0.38634819064882864 0.8333175866595668
0.5469727 0.39336505852948656 0.8294922828747902
0.5489726 0.4006034786985522 0.8264980334831599
0.5509725 0.40775814458005527 0.8231393727186147
0.5529724 0.4152030027915191 0.8198770257146752
0.5549723 0.4220738945234569 0.8167053000454981
0.5569722 0.42931775019926827 0.813372873711602
0.5589721 0.43675686937138825 0.8103773518776715
0.560972 0.4439183218897785 0.8072132104473161
0.5629719 0.45020911314040474 0.8043256670111348
0.5649718 0.4578931508366462 0.8010628550243089
0.5669717 0.464474851912626 0.7981258222813791
0.5689716 0.4709595799752989 0.7951307660727738
0.5709715 0.4771064174596952 0.7917976636755354
0.5729714 0.4828325168287098 0.7886619877417886
0.5749713 0.4892908582847977 0.7851272338620359
0.5769712 0.4954813328440981 0.7815423290390171
0.5789711 0.5015453838048313 0.7783350441477708
0.580971 0.5072205743544891 0.7750271331049263
0.5829709 0.513262367528828 0.7714475952716373
0.5849708 0.5187301788976131 0.7676462718244952
0.5869707 0.5250346576034779 0.7636384226756058
0.5889706 0.5302344680304139 0.7592451615692306
0.5909705 0.5356009259554804 0.7549241837421945
0.5929704 0.5414707218388944 0.7500913068702028
0.5949703 0.5470095475803134 0.7455092865106798
0.5969702 0.5529753712095696 0.7410471955158486
0.5989701 0.5582652374008557 0.736314148331083
0.60097 0.5639538478474511 0.7313603429100192
0.6029699 0.5699870156984197 0.7260818314227765
0.6049698 0.5754746372996434 0.7209308743100904
0.6069697 0.5806727681047245 0.7161307974581403
0.6089696 0.5873272060430968 0.7109165610076587
0.6109695 0.5933013617618647 0.7056365309631724
0.6129694 0.5989572216389151 0.7000002730950127
0.6149693 0.6054365493722613 0.6951434730426225
0.6169692 0.61165236152704 0.6895870390654724
0.6189691 0.6176112742923137 0.6845019883104586
0.620969 0.6238743058192685 0.6790392603435845
0.6229689 0.6297314800826901 0.6738197054448807
0.6249688 0.6355911431377981 0.6684818822284075
0.6269687 0.641995737802815 0.6633975121436848
0.6289686 0.647572787181015 0.6581448665872631
0.6309685 0.6538704377362012 0.653526022018951
0.6329684 0.6591634826970919 0.6489428273677713
0.6349683 0.6650158527449772 0.6434585996909019
0.6369682 0.6698822885498027 0.6386354765924566
0.6389681 0.6757812429150514 0.6332323787356019
0.640968 0.6814552017746636 0.6285610099296023
0.6429679 0.6865234679874949 0.6236580261914522
0.6449678 0.6918108342006744 0.6188141042526446
0.6469677 0.6968809783933456 0.6136084282446876
0.6489676 0.7015104552126614 0.6085550566084446
0.6509675 0.7062703755020256 0.6033160955493225
0.6529674 0.711067224571387 0.5980155702913947
0.6549673 0.7155678167645976 0.5929352796974555
0.6569672 0.7197812189949108 0.5872422969906625
0.6589671 0.7244904096827371 0.5815524273367472
0.660967 0.728606837620138 0.5756110646555388
0.6629669 0.7327697099102336 0.5700702962723353
0.6649668 0.7365936327635164 0.5636058542396877
0.6669667 0.7406748056036075 0.5571224251505623
0.6689666 0.7448836238413833 0.5510735415514066
0.6709665 0.7492791382085972 0.5441330091557742
0.6729664 0.7530849700099983 0.5379984046176238
0.6749663 0.7568784840994693 0.5307732583391237
0.6769662 0.7610944682706784 0.5242319347175519
0.6789661 0.7652526043346816 0.5172102806019323
0.680966 0.7693352938341886 0.510385669317868
0.6829659 0.7737460534272221 0.5032755604681114
0.6849658 0.7777429753131254 0.4965410947406165
0.6869657 0.7825628363271367 0.4895616479528937
0.6889656 0.7868647363093686 0.48214019724134477
0.6909655 0.7909644431617209 0.47527114480152943
0.6929654 0.7954107239901165 0.4685218365616113
0.6949653 0.7994401655054133 0.4618449753202348
0.6969652 0.8040887987800085 0.4545166876372827
0.6989651 0.808294118569851 0.4478157902493687
0.700965 0.8122606877574451 0.4410161189740413
0.7029649 0.8161098722726794 0.43413499245008663
0.7049648 0.8205898726981958 0.4277807513245741
0.7069647 0.823871707549302 0.4212021218545765
0.7089646 0.8284463182254713 0.4141526316200905
0.7109645 0.8320397983301351 0.4081844511065968
0.7129644 0.8356090670253403 0.40148514546934494
0.7149643 0.8390471334446648 0.39496192560139975
0.7169642 0.8426349829057046 0.3883668752502056
0.7189641 0.845239670910632 0.38202294209043464
0.720964 0.8487890968793377 0.37496786309864216
0.7229639 0.851542125401186 0.3682619393952454
0.7249638 0.8546214940052567 0.3615961024452787
0.7269637 0.8575033408415482 0.35475402670432776
0.7289636 0.8602743117449145 0.3478989732301849
0.7309635 0.8628853965186094 0.34138851323547054
0.7329634 0.8657685325889357 0.33413786426481995
0.7349633 0.8678279679787545 0.32756353677492495
0.7369632 0.870397106959094 0.32019551219478615
0.7389631 0.8723553462424335 0.3130628919099947
0.740963 0.8748678958700576 0.3061563210400541
0.7429629 0.8771985848799964 0.29827843910675167
0.7449628 0.8795130551111331 0.2907287583921842
0.7469627 0.8814989330473831 0.2829101823268333
0.7489626 0.8837163286893408 0.27521353626343775
0.7509625 0.8860064062714519 0.26778073377469236
0.7529624 0.8879849986065005 0.2600323624906724
0.7549623 0.8898986405830067 0.2523544311458117
0.7569622 0.8923614066973576 0.24450479047023457
0.7589621 0.8940428859183891 0.23657501075588172
0.760962 0.8962953013583501 0.2286344608141775
0.7629619 0.8982289771414655 0.22134411665842174
0.7649618 0.900070181174729 0.2134258930826794
0.7669617 0.9021593331286435 0.20558528887561345
0.7689616 0.9038196599393825 0.19792659724040307
0.7709615 0.9056170394530342 0.18986809689687412
0.7729614 0.9073673249826562 0.18261385812816333
0.7749613 0.9091997493214647 0.17496487907786623
0.7769612 0.9109709343020933 0.16742298065816613
0.7789611 0.9125406511340154 0.15973128534686282
0.780961 0.9140551164391983 0.15239314264065745
0.7829609 0.915175003914795 0.14498495124399502
0.7849608 0.9164850202593516 0.13748758586591386
0.7869607 0.9176384227277083 0.13011842234484083
0.7889606 0.9188568521516542 0.12242331832466376
0.7909605 0.9194821511485505 0.1149720077815245
0.7929604 0.9208859051316729 0.10773904111843116
0.7949603 0.9218354790647115 0.0999137282290291
0.7969602 0.9223522194605045 0.09240547147509305
0.7989601 0.92325686274929 0.08478856437654295
0.80096 0.924076005321099 0.07715104376624715
0.8029599 0.9243162767143897 0.06946284711135206
0.8049598 0.9247600630836745 0.06169630286971693
0.8069597 0.9250283850038812 0.05425285696233513
0.8089596 0.9253324964191927 0.046504420696768606
0.8109595 0.9259975538457842 0.03858811779957223
0.8129594 0.9257229041998303 0.03080592404049412
0.8149593 0.9261540495402323 0.023102685325777413
