! Created with skrf 1.8.0 (http://scikit-rf.org).
# GHz S RI R 50.0 
!freq ReS11 ImS11
0.001 -1.0547099817843324 0.05831016541523587
0.0029999 -0.9935349832037318 -0.003939707602410025
0.0049998 -0.9588857199632739 0.017552880989196135
0.0069997 -0.9510104810554787 0.02458179355768192
0.0089996 -0.9479175712513895 0.031446586836289536
0.0109995 -0.9458160589619222 0.037830908418138964
0.0129994 -0.9445411444047519 0.04421280808636552
0.0149993 -0.9441718452741141 0.050112077179253145
0.0169992 -0.9431834334686375 0.05565069203600048
0.0189991 -0.9428374077428691 0.06077121182317302
0.020999 -0.9419921547268582 0.06639795028824091
0.0229989 -0.9411984366329558 0.0719210967334118
0.0249988 -0.9401763314361453 0.07735612186024132
0.0269987 -0.9392274011878508 0.08311883360121154
0.0289986 -0.9383851744508289 0.08883273053117652
0.0309985 -0.9374477014125432 0.09431846858685994
0.0329984 -0.9366304684914788 0.0999954261650774
0.0349983 -0.9356510066074846 0.10564811416012615
0.0369982 -0.934587997870763 0.11126329312949013
0.0389981 -0.9336602909830795 0.11698837016454816
0.040998 -0.93261414991986 0.12276375932150974
0.0429979 -0.9313922262314278 0.1281334843014037
0.0449978 -0.9300004712677448 0.1337709613589802
0.0469977 -0.9288503912314028 0.13942987099987225
0.0489976 -0.9272448531913029 0.14558979157060337
0.0509975 -0.9261256229452348 0.15128581938559404
0.0529974 -0.9251709784830986 0.156285595497144
0.0549973 -0.9225135607242092 0.16555517968164274
0.0569972 -0.9219060711060967 0.16948186161332024
0.0589971 -0.9206432620448385 0.17522061977909764
0.060997 -0.9193784861369179 0.18166091909078574
0.0629969 -0.9182285359535574 0.18690195619049046
0.0649968 -0.9161186526463068 0.19286178265754178
0.0669967 -0.9159409507727072 0.19943218975465699
0.0689966 -0.9143107164238099 0.20436054642780405
0.0709965 -0.913097595854939 0.20996857604466546
0.0729964 -0.9111274494872131 0.21652205642504374
0.0749963 -0.909892185959796 0.2219027813159075
0.0769962 -0.9089212559407984 0.22733666736664981
0.0789961 -0.9074005059767121 0.23271600611406137
0.080996 -0.9056002964152772 0.23842441024861438
0.0829959 -0.9041762220736874 0.24416383741254677
0.0849958 -0.9029691287932727 0.24898216307550772
0.0869957 -0.9016223016827722 0.25462698049545696
0.0889956 -0.8999455870633213 0.259726690171386
0.0909955 -0.8980692890710011 0.2649088024474895
0.0929954 -0.8961273162780286 0.2701193068076994
0.0949953 -0.8943874473877311 0.27557110705390897
0.0969952 -0.8926131398748389 0.2805197637310537
0.0989951 -0.8904189996895379 0.28571081195920756
0.100995 -0.8894207612561438 0.29148642480094
0.1029949 -0.8876226874613473 0.296747254085975
0.1049948 -0.8855704344692158 0.30167948867110334
0.1069947 -0.8831925113432726 0.30654416501983883
0.1089946 -0.881050952944713 0.311529967938664
0.1109945 -0.8783789998833319 0.3166665265970179
0.1129944 -0.8764124056822883 0.3216066752914192
0.1149943 -0.87376384644592 0.32668927231911105
0.1169942 -0.871461703130967 0.33190825010818986
0.1189941 -0.868857971697935 0.33693700889960443
0.120994 -0.8664487876769571 0.3423944397054517
0.1229939 -0.863706332609151 0.34756080936997963
0.1249938 -0.8612186895333482 0.35300118646669487
0.1269937 -0.8588592763497186 0.35811616021329645
0.1289936 -0.8566989525047806 0.3638966166197305
0.1309935 -0.8538472072498603 0.36886287147169167
0.1329934 -0.8512656287343081 0.3743227996685536
0.1349933 -0.8484875895933437 0.37966252852369814
0.1369932 -0.8460303921194664 0.3850094276150083
0.1389931 -0.8433098705826905 0.38995051806271686
0.140993 -0.840970700140093 0.39537836558832035
0.1429929 -0.8378628553098559 0.40086547566220787
0.1449928 -0.8361530727910674 0.4062430523244336
0.1469927 -0.8337675917796866 0.41113595846239076
0.1489926 -0.8307575919371657 0.4165216317593382
0.1509925 -0.8281442046877323 0.42141568713797106
0.1529924 -0.8252688692108987 0.4265645729446324
0.1549923 -0.8233606935814746 0.4322210300400092
0.1569922 -0.8206872297400893 0.43702784506715225
0.1589921 -0.817982034028232 0.4421393532859793
0.160992 -0.8151380585048781 0.44670137541367927
0.1629919 -0.8122724122059006 0.4521398386232834
0.1649918 -0.8095226063286769 0.45682433772556974
0.1669917 -0.8065523733253964 0.4612655554861679
0.1689916 -0.8038658679434846 0.46618148024551903
0.1709915 -0.800844734210097 0.4710356890394225
0.1729914 -0.7980877285650735 0.4756294415341671
0.1749913 -0.7949443150654328 0.48005123482380496
0.1769912 -0.7921372532922389 0.48475953983603653
0.1789911 -0.7892042062296438 0.4893178922010208
0.180991 -0.7858204821265392 0.4939124798679353
0.1829909 -0.7829168882007378 0.498626307397826
0.1849908 -0.7797319006185676 0.5029442366041819
0.1869907 -0.7765166240641517 0.5073805999679214
0.1889906 -0.7730481739573686 0.5121730672558861
0.1909905 -0.7699928015266579 0.5168030582594103
0.1929904 -0.7665186192751205 0.5211075783673734
0.1949903 -0.7629710385259284 0.5256481535106803
0.1969902 -0.7597148215806784 0.5303265778731535
0.1989901 -0.756269602416187 0.5348732722268621
0.20099 -0.7528176944744086 0.5394673777641302
0.2029899 -0.7494226358657989 0.5439303578432577
0.2049898 -0.7458833616665478 0.5483125339997241
0.2069897 -0.7423829299247047 0.552776088428882
0.2089896 -0.7391722464627484 0.5571221678834013
0.2109895 -0.7352690420632358 0.5615192437833196
0.2129894 -0.7317606806931486 0.5667082991903769
0.2149893 -0.7283154850118158 0.5707279888447232
0.2169892 -0.7245754862720404 0.5753489756709753
0.2189891 -0.7206225473367969 0.5800278206832231
0.220989 -0.7174672992934803 0.5843473530616374
0.2229889 -0.7138526199249304 0.5887997208758496
0.2249888 -0.7096082938587457 0.5929433592107656
0.2269887 -0.7058937329506559 0.5972002879726006
0.2289886 -0.7016786058902965 0.6014286300398347
0.2309885 -0.6983754121885847 0.6060230939018858
0.2329884 -0.6940899931739902 0.6105350376607372
0.2349883 -0.6899524503863641 0.6148363022016936
0.2369882 -0.6861944384387977 0.6189232837442724
0.2389881 -0.6825706801753455 0.6235932302997568
0.240988 -0.6785499785145354 0.6275535335891488
0.2429879 -0.6745225746134925 0.6316477365953197
0.2449878 -0.6703591401232036 0.6360556266393405
0.2469877 -0.6664327565482276 0.6400080394652525
0.2489876 -0.6627487007748564 0.644667759890291
0.2509875 -0.658718172401995 0.6488457150699334
0.2529874 -0.65464978154404 0.6529008220767581
0.2549873 -0.6509666450571308 0.6570764646599884
0.2569872 -0.6472660815680542 0.6614874818125434
0.2589871 -0.6433115607236752 0.6655058680269815
0.260987 -0.6392420520435668 0.6694754830419605
0.2629869 -0.6355567789754709 0.6733559399681296
0.2649868 -0.6315914595305303 0.6769998778825895
0.2669867 -0.6275980493573332 0.6806020886295489
0.2689866 -0.6236347788551571 0.684356805750519
0.2709865 -0.6198448023743428 0.6881682306298578
0.2729864 -0.615753627520252 0.6918885521016226
0.2749863 -0.611875672770957 0.6952452200941032
0.2769862 -0.6080014186801493 0.698712158442921
0.2789861 -0.6039805694941609 0.7019586485239817
0.280986 -0.5998566783358537 0.7052235438152539
0.2829859 -0.5957381967605746 0.708237117498849
0.2849858 -0.5912013081042157 0.7114851748970039
0.2869857 -0.5867904596900372 0.7147257010778927
0.2889856 -0.5824516815809835 0.7177540621474079
0.2909855 -0.5774537289325844 0.7212753561364658
0.2929854 -0.573330904912659 0.7240179748093051
0.2949853 -0.5683333528349603 0.7273042782550958
0.2969852 -0.5637124980711034 0.7301650602757417
0.2989851 -0.5590647622062287 0.7327628595571508
0.300985 -0.5534016761489022 0.7358006596757292
0.3029849 -0.5483913871075197 0.7383113289024158
0.3049848 -0.543320198774317 0.7417995479718911
0.3069847 -0.5379423009122447 0.7446347514117625
0.3089846 -0.5323180534721907 0.7477169845195135
0.3109845 -0.5267738499135712 0.750586490754068
0.3129844 -0.5212812332946548 0.753723343279998
0.3149843 -0.5158298072707972 0.7568374603399036
0.3169842 -0.51054558750475 0.7603148287555571
0.3189841 -0.5050838530093728 0.7633645451548101
0.320984 -0.499144564924615 0.7659945874816333
0.3229839 -0.49383200827367135 0.7696073591817066
0.3249838 -0.4884529306901366 0.772339765214785
0.3269837 -0.4830239151926784 0.7760011794831949
0.3289836 -0.4772204772921133 0.7791134333206795
0.3309835 -0.472227602140613 0.7825517044029624
0.3329834 -0.46722248173225445 0.7861180022687281
0.3349833 -0.46250926317867525 0.7900060743419005
0.3369832 -0.45772215868097965 0.7935216083918486
0.3389831 -0.45272814407578754 0.7974056519293549
0.340983 -0.4476440660311077 0.8011514096173309
0.3429829 -0.44353849122165767 0.805147438657883
0.3449828 -0.4386684408849988 0.8089687054630874
0.3469827 -0.43401346988777184 0.8122582659466516
0.3489826 -0.42961254050505904 0.8154988982724722
0.3509825 -0.42481645659706035 0.8186975815955089
0.3529824 -0.4200299762667904 0.8217570565837315
0.3549823 -0.4156156140403395 0.8250461819780867
0.3569822 -0.41122391141550935 0.827484956870566
0.3589821 -0.4070171190552163 0.8302280129483652
0.360982 -0.40238873249758267 0.8329067154549217
0.3629819 -0.39764522754185505 0.8353945865459181
0.3649818 -0.3929316857697852 0.8372374402538632
0.3669817 -0.3883269913568971 0.8390651059567698
0.3689816 -0.38320291358578007 0.8411953251558928
0.3709815 -0.37826874771149377 0.843047176288267
0.3729814 -0.3729660338618884 0.8447691775412318
0.3749813 -0.36803420333772374 0.8465265879995424
0.3769812 -0.3632116562053511 0.8481368133734768
0.3789811 -0.35782062545471555 0.8499129986992027
0.380981 -0.35230238523717394 0.8510161559935147
0.3829809 -0.3464383176869578 0.852416874705332
0.3849808 -0.34101339598364877 0.8547921493365813
0.3869807 -0.33487597211402176 0.8558555433274482
0.3889806 -0.32889719110256505 0.857715621689866
0.3909805 -0.3225388970269278 0.8594395773605571
0.3929804 -0.31629225544605855 0.8613374653702441
0.3949803 -0.3101807539943432 0.8634040970764958
0.3969802 -0.3041250109129625 0.8651183263055643
0.3989801 -0.2978083372788151 0.8667326926543746
0.40098 -0.29152705396413814 0.8687429026601562
0.4029799 -0.285726626974878 0.8710042327839826
0.4049798 -0.27903927597265976 0.872893339045531
0.4069797 -0.2732976441611923 0.8754392890488665
0.4089796 -0.26733307590315597 0.8776435822529722
0.4109795 -0.2614396350996 0.8798174342509583
0.4129794 -0.25530380450595147 0.882015236884609
0.4149793 -0.24908673277122073 0.8845925134688611
0.4169792 -0.24357676796289454 0.8867939214366551
0.4189791 -0.23791588164444114 0.8887920332746553
0.420979 -0.23271342711283372 0.8908156870955088
0.4229789 -0.2269100865051415 0.8928334182493439
0.4249788 -0.22172827747921858 0.8950838995668482
0.4269787 -0.21655376618808087 0.8968514340013622
0.4289786 -0.21153590490486712 0.8988370930280837
0.4309785 -0.20629541984991487 0.9001702686688737
0.4329784 -0.20094225749130357 0.9017412138220052
0.4349783 -0.19511389876174282 0.9024512925514111
0.4369782 -0.19007915393537883 0.90341542145372
0.4389781 -0.18487108210513073 0.9046906112603322
0.440978 -0.179573777561845 0.9052839512117103
0.4429779 -0.1743645863957915 0.9060805566072435
0.4449778 -0.16895124172546627 0.9066596154580848
0.4469777 -0.1634070302079857 0.9068387083687244
0.4489776 -0.15778185469983896 0.9072354072720767
0.4509775 -0.15176030292594123 0.9078903394311775
0.4529774 -0.14596763993995981 0.9079557127474399
0.4549773 -0.13968018342060004 0.9081704859972567
0.4569772 -0.1333442434459866 0.9084683839887857
0.4589771 -0.12724716848055126 0.9083112165147421
0.460977 -0.12041421260393537 0.9089262530218525
0.4629769 -0.11365729574425859 0.9095350483038801
0.4649768 -0.10722602583913103 0.9097967714043736
0.4669767 -0.10052246315363554 0.9100616330866178
0.4689766 -0.0940611832193738 0.9104964394082735
0.4709765 -0.08731217849636168 0.911207616148503
0.4729764 -0.08038029331078833 0.9114764986525018
0.4749763 -0.07374309081146682 0.9127151183757242
0.4769762 -0.06737068123497796 0.9136803067064398
0.4789761 -0.06012714895965412 0.9145202707517686
0.480976 -0.05376851747660551 0.9155549135574883
0.4829759 -0.0468857096567237 0.9166148492471338
0.4849758 -0.04077493352413895 0.9173457339296764
0.4869757 -0.03423264862872448 0.9184158459052116
0.4889756 -0.027607560913042284 0.9194223190543105
0.4909755 -0.021220559052186234 0.9202834022565781
0.4929754 -0.015458486526393641 0.9214123002473411
0.4949753 -0.009563992282455056 0.922304703957159
0.4969752 -0.0038981587309903434 0.9227342766728752
0.4989751 0.0017993008233948612 0.9235016166162325
0.500975 0.007147257089693401 0.9239443502887372
0.5029749 0.012950057085520791 0.9241699541958572
0.5049748 0.018047047310714114 0.9241711231891825
0.5069747 0.023198510752769234 0.9242178727295254
0.5089746 0.02873113928638131 0.9241365086693452
0.5109745 0.034172990289087796 0.9245758643351927
0.5129744 0.03987733358057533 0.9243309628406718
0.5149743 0.044619275956164814 0.9240165597068581
0.5169742 0.050095699322246126 0.9231246247668015
0.5189741 0.05568026338004148 0.9224189981273577
0.520974 0.06170423738083344 0.9212652918465466
0.5229739 0.06806818939269088 0.920477143123275
0.5249738 0.07306578711105134 0.9197698598708162
0.5269737 0.07952414210746403 0.9187505255107365
0.5289736 0.08527386046970897 0.9172368936550213
0.5309735 0.09137947291877317 0.9158867020729502
0.5329734 0.09778237500808824 0.9147242996405938
0.5349733 0.10390987633567554 0.9130399043528451
0.5369732 0.11053176347934045 0.9117329029246188
0.5389731 0.11744458535473938 0.9106772220238818
0.540973 0.1239191331887932 0.9081442430830099
0.5429729 0.1307372068589326 0.9075939651310657
0.5449728 0.13743456984884403 0.9061548267537001
0.5469727 0.1443593229710247 0.9050383625074098
0.5489726 0.15096176156197968 0.9041783755999572
0.5509725 0.15804601724070044 0.9030606239838279
0.5529724 0.16474211887918716 0.9022068279061859
0.5549723 0.17166740406777345 0.9012498578340085
0.5569722 0.17828736121669925 0.900256099524914
0.5589721 0.18519085837494112 0.8994202945878422
0.560972 0.1915945453989164 0.8992129882340829
0.5629719 0.19832638640884842 0.8986340936541332
0.5649718 0.20516480798920983 0.8979978292321669
0.5669717 0.2113471303050586 0.8970235085740416
0.5689716 0.21706786998991706 0.8967263921959393
0.5709715 0.2227420127472497 0.8953393437553118
0.5729714 0.22827543507600268 0.8943884631076325
0.5749713 0.23444698951474055 0.89316694250102
0.5769712 0.24013875749338237 0.891710706758837
0.5789711 0.24552561089329047 0.8908629938654558
0.580971 0.2510886024666208 0.8899339553650114
0.5829709 0.25672365999821106 0.8884442217702975
0.5849708 0.2615134052261558 0.8867367428761598
0.5869707 0.26725694258599203 0.8853989191806924
0.5889706 0.27290789698332907 0.8830270970212771
0.5909705 0.27843196916369617 0.8804855605454349
0.5929704 0.2836715220129247 0.8782504324445505
0.5949703 0.28976532960116064 0.8761412661212347
0.5969702 0.2951987377185132 0.87390289828346
0.5989701 0.3005868703185331 0.8707954939361635
0.60097 0.30629246259868637 0.8685344414811079
0.6029699 0.3122609215011956 0.8654911209104641
0.6049698 0.3180875996558022 0.8627904134915395
0.6069697 0.32388927668829615 0.8596653438045232
0.6089696 0.33067319558456953 0.8571013052037472
0.6109695 0.33677178632637067 0.8546815536270895
0.6129694 0.3431735215856958 0.8517333522334645
0.6149693 0.3495430108232781 0.8489972578475365
0.6169692 0.3561664787940017 0.846152678018161
0.6189691 0.3626371626661121 0.8434465160718414
0.620969 0.3692913224485793 0.8410904302998333
0.6229689 0.37566120771571665 0.8382593462730717
0.6249688 0.3820485681314265 0.8359180745958094
0.6269687 0.3889771671698552 0.833077819238458
0.6289686 0.39513606305881677 0.8310980733476734
0.6309685 0.40169719144779636 0.8290293302838145
0.6329684 0.4074469398321146 0.8267120458913073
0.6349683 0.41382403387053335 0.8243768188294336
0.6369682 0.4190749366287778 0.8216722446006498
0.6389681 0.4252332425296129 0.819521626518007
0.640968 0.43145026076745896 0.8172117199353733
0.6429679 0.4365803403837882 0.814986185449435
0.6449678 0.4419545975314146 0.8128487624375956
0.6469677 0.4471933990863293 0.8103384113522355
0.6489676 0.45211975968185947 0.808046752668431
0.6509675 0.4574708114650747 0.8054940962633491
0.6529674 0.462250998455554 0.8026756297041444
0.6549673 0.46756530743486957 0.7999556607668192
0.6569672 0.47222071999349013 0.796865530593451
0.6589671 0.4773966897298953 0.7941854268690655
0.660967 0.4818568837491565 0.7908489134328467
0.6629669 0.4865743440997759 0.7870915697591413
0.6649668 0.4910568129853198 0.7830320508782264
0.6669667 0.49585488150769047 0.7793803552983752
0.6689666 0.5008574545410067 0.7753609009500393
0.6709665 0.5061872519109945 0.770980913721741
0.6729664 0.5107298073678738 0.7670104941015705
0.6749663 0.5157512228518174 0.7622569836092283
0.6769662 0.5209219856933426 0.75810420948573
0.6789661 0.5259077999616273 0.7530952240898066
0.680966 0.5314231663421985 0.7484782834926781
0.6829659 0.5368236628855708 0.744041811930177
0.6849658 0.5424215217892032 0.7394298745411217
0.6869657 0.5485273809838448 0.7345817287435737
0.6889656 0.5544637312147129 0.7305526832013187
0.6909655 0.5601355921581359 0.7262939308951233
0.6929654 0.5662346066949387 0.7220243766803744
0.6949653 0.5717963949767161 0.7176119658152953
0.6969652 0.5777652820426006 0.7132849691169112
0.6989651 0.5834082769992515 0.7093177263427674
0.700965 0.5893974916075473 0.7049637013283538
0.7029649 0.5949101509258027 0.7010187399258723
0.7049648 0.6004249760693208 0.6974033406586196
0.7069647 0.6055616150914983 0.6930599216306247
0.7089646 0.6118022236536469 0.689457521903875
0.7109645 0.6165756272628373 0.686307721869295
0.7129644 0.6216414157881962 0.6819574581554309
0.7149643 0.6261783568670769 0.6785502122185028
0.7169642 0.6313136684726847 0.6749445133628594
0.7189641 0.6354003539848124 0.6710616709769022
0.720964 0.6403682164204917 0.6667922037176752
0.7229639 0.6445598804458375 0.6627316363451077
0.7249638 0.6496220217413746 0.6588070582764359
0.7269637 0.653602250522656 0.6552053706539993
0.7289636 0.6576714852450599 0.6506663436174124
0.7309635 0.661855099364643 0.6467085244017253
0.7329634 0.6660557699814517 0.6419970991614877
0.7349633 0.6693069659325313 0.6373732779379392
0.7369632 0.6736717471826299 0.6324303140775276
0.7389631 0.6768938613805773 0.6277422222475911
0.740963 0.6806144666808347 0.62252718733888
0.7429629 0.6848600378821676 0.6171679176570865
0.7449628 0.6883090747779254 0.61178928366736
0.7469627 0.6926704024136098 0.6059822990110599
0.7489626 0.6965743063006505 0.6004298525929106
0.7509625 0.7005857197687315 0.5950261187290959
0.7529624 0.7046769776308173 0.5891949150784346
0.7549623 0.7085893121282765 0.583640857819828
0.7569622 0.7135875022654303 0.5779715843905046
0.7589621 0.7176586927796564 0.5718736539671293
0.760962 0.7222969961233691 0.5661729619982385
0.7629619 0.7266773455038018 0.5605848695098595
0.7649618 0.7310426684806819 0.5548889047094301
0.7669617 0.7355926457645636 0.5490383692883274
0.7689616 0.7401304942268035 0.5433237411277287
0.7709615 0.7447680551928832 0.5378858197558818
0.7729614 0.748849139356216 0.5322145472241092
0.7749613 0.7533022887993293 0.5268780903527911
0.7769612 0.7575164497664355 0.5217276996317763
0.7789611 0.7619680483848669 0.5165190481621547
0.780961 0.7659050455741669 0.5112394824520503
0.7829609 0.770112395783778 0.5060696188764044
0.7849608 0.7736873644142894 0.5010233032028787
0.7869607 0.777773041023277 0.4958695690769831
0.7889606 0.7814935598328441 0.49076611511641294
0.7909605 0.7850070606871893 0.4855743112312853
0.7929604 0.7886777711501305 0.48050507301911394
0.7949603 0.7921630156417725 0.47539649380381754
0.7969602 0.7956696664405587 0.4704240937137517
0.7989601 0.7983860089823138 0.4650123667930016
0.80096 0.8023722026254578 0.45959619135008345
0.8029599 0.8052909752029175 0.4543947500205812
0.8049598 0.8080427144364124 0.44865376604814644
0.8069597 0.8105666385112686 0.4436194768858547
0.8089596 0.8131594425225952 0.4376572537019009
0.8109595 0.8154717426532951 0.4315174727762436
0.8129594 0.8182402675261684 0.4258565594922522
0.8149593 0.8206989906532522 0.419957939350174
