! Created with skrf 1.8.0 (http://scikit-rf.org).
# GHz S RI R 50.0 
!freq ReS11 ImS11
0.001 -0.7762146232079076 0.04279793951542077
0.0029999 -0.9191758676939416 0.004652651171817346
0.0049998 -0.9412715101068199 0.01360348800014799
0.0069997 -0.942419318594675 0.020230095116647306
0.0089996 -0.9418228840193787 0.027868898890490212
0.0109995 -0.9418986756003246 0.03390569027388268
0.0129994 -0.9412858143446154 0.04110358389160884
0.0149993 -0.9419184649451078 0.04743782298246957
0.0169992 -0.9411253486805046 0.053342015438921364
0.0189991 -0.9416612189335296 0.058649567342862974
0.020999 -0.9410986910820072 0.0645820350172524
0.0229989 -0.9405389960171184 0.07021086393953913
0.0249988 -0.9395828574172529 0.07596479112266866
0.0269987 -0.938736848551587 0.08190965410746763
0.0289986 -0.9379767588740859 0.08773444749057042
0.0309985 -0.9369732481649393 0.09328780018759522
0.0329984 -0.9362384712450919 0.09922407482978082
0.0349983 -0.9352445631663708 0.10481019106224088
0.0369982 -0.9341646207400782 0.11046124828281739
0.0389981 -0.9331562650411881 0.11617121778010903
0.040998 -0.9321461254354602 0.12192373471071694
0.0429979 -0.9306605215034665 0.12731596661812733
0.0449978 -0.9292832768962498 0.13290691244947977
0.0469977 -0.9281272132466283 0.1385147307351306
0.0489976 -0.9266556203325687 0.14454330743756932
0.0509975 -0.9253501502895294 0.15014194259184388
0.0529974 -0.9242592413235844 0.15657631545191808
0.0549973 -0.9218023715065347 0.16260800571748207
0.0569972 -0.921163969610004 0.1680780577183849
0.0589971 -0.9198921110567803 0.1739046770269995
0.060997 -0.9184371439771286 0.18012977032227356
0.0629969 -0.9174410118423204 0.18538685341871863
0.0649968 -0.9153135396559091 0.19114283933057824
0.0669967 -0.9150629263146126 0.19768970816168638
0.0689966 -0.9132932676953885 0.20268489933841452
0.0709965 -0.9120569009627613 0.20821673328375734
0.0729964 -0.9101859616981861 0.21481037377198453
0.0749963 -0.909049503875727 0.22007025981654918
0.0769962 -0.9080632674312256 0.22554158905522237
0.0789961 -0.9067166788066607 0.23095552205977893
0.080996 -0.9047825925933781 0.23639126680736794
0.0829959 -0.9034159126482344 0.2423379775913269
0.0849958 -0.9023302896396032 0.24710099073712655
0.0869957 -0.9010298032139168 0.2527685264515629
0.0889956 -0.8993830242210001 0.25783780797553046
0.0909955 -0.8976293077145396 0.2629842830240267
0.0929954 -0.8957381201027852 0.26819960372210366
0.0949953 -0.8939492122866916 0.27373382379645084
0.0969952 -0.8923210814798157 0.27872794434304293
0.0989951 -0.8903226988388245 0.28380297124186943
0.100995 -0.8892098919185967 0.28970318163626363
0.1029949 -0.8874382119405257 0.29489786186475814
0.1049948 -0.8854119973711835 0.29987655101508925
0.1069947 -0.8830031246416445 0.3045435870442229
0.1089946 -0.8808851969855913 0.30959857822603404
0.1109945 -0.8784538423902336 0.31475447088292974
0.1129944 -0.8763641919047753 0.3197112456423309
0.1149943 -0.8737262578148072 0.32471550167653945
0.1169942 -0.8713986942165046 0.32997234252186514
0.1189941 -0.8688715076577098 0.33496041831963697
0.120994 -0.8664966430967564 0.3403285282644515
0.1229939 -0.8637556858295559 0.3454315315001557
0.1249938 -0.861232806024492 0.35082365408100535
0.1269937 -0.858913334492591 0.35582444537135005
0.1289936 -0.856700807383515 0.36169120816666545
0.1309935 -0.8540244012487568 0.36672416091229404
0.1329934 -0.8513994549827932 0.37180476948206154
0.1349933 -0.8485783146749852 0.37705221183761495
0.1369932 -0.8462616284292581 0.38233148139179274
0.1389931 -0.8435699450158748 0.38761121590580805
0.140993 -0.8410232458150728 0.3927968783410392
0.1429929 -0.8381449120029045 0.3981881790973316
0.1449928 -0.8364005687208932 0.4035551581768907
0.1469927 -0.8339887002502643 0.40848189739264085
0.1489926 -0.8309994431594986 0.41350555097823055
0.1509925 -0.8284013289531695 0.418446108408589
0.1529924 -0.8255819673507634 0.42368377049460065
0.1549923 -0.823808453627336 0.42904204619743164
0.1569922 -0.8209670051749383 0.4340681236772927
0.1589921 -0.8184399951255383 0.4390741830377459
0.160992 -0.815737067528012 0.44371662563583775
0.1629919 -0.8127909911629381 0.4489247926288047
0.1649918 -0.81026819030442 0.4537606044476993
0.1669917 -0.807466480831006 0.45797779067892197
0.1689916 -0.8047916730189871 0.46297469583947254
0.1709915 -0.8019537509976196 0.46786662857065153
0.1729914 -0.7990371642869083 0.47245014317655576
0.1749913 -0.796030586057507 0.47689865027020584
0.1769912 -0.7934202493591435 0.4814465024761022
0.1789911 -0.7902789764245436 0.4861403604749684
0.180991 -0.7869088789986751 0.49064786189215703
0.1829909 -0.7840272042812427 0.4954069508064304
0.1849908 -0.780832377403584 0.49982266493945327
0.1869907 -0.7777282209318421 0.5042257443635367
0.1889906 -0.774236821994793 0.509004727599112
0.1909905 -0.7711161624002056 0.5137274992553928
0.1929904 -0.7677525441996427 0.5179805141757433
0.1949903 -0.7642632187960017 0.5225749213560741
0.1969902 -0.7606860887526159 0.5271951595451526
0.1989901 -0.757637466067575 0.5320036890741393
0.20099 -0.7539992883535254 0.5361522985352967
0.2029899 -0.750647632317096 0.5409452463748103
0.2049898 -0.7469608305183796 0.5454743741998537
0.2069897 -0.7438244638883994 0.5495454292011737
0.2089896 -0.7401408675487863 0.5543837134905389
0.2109895 -0.7364947487691075 0.5584251772318252
0.2129894 -0.7329828724024826 0.5635294991978855
0.2149893 -0.7294669546321394 0.5677223549872846
0.2169892 -0.7257157465624 0.5724229400840464
0.2189891 -0.7217659428509146 0.5771323088163184
0.220989 -0.7185941549948469 0.5812707286529659
0.2229889 -0.7150621300477055 0.5853320649123173
0.2249888 -0.7106628331503431 0.589924826388371
0.2269887 -0.7070663737410181 0.5939031447610159
0.2289886 -0.7029633870808831 0.5983207367325596
0.2309885 -0.6995127059373688 0.6031034845078516
0.2329884 -0.6955808708101281 0.6073244967916769
0.2349883 -0.6916172924248052 0.611819482836205
0.2369882 -0.6877385649935289 0.6156225681614673
0.2389881 -0.684190914096478 0.6203161649968747
0.240988 -0.6802346913385007 0.6244058145635561
0.2429879 -0.6761725353627163 0.6285790699478374
0.2449878 -0.6722973232528255 0.6327626247768022
0.2469877 -0.6684075486648023 0.6367042789077053
0.2489876 -0.6648270714688329 0.6414020284701316
0.2509875 -0.6607352582133875 0.645563530406346
0.2529874 -0.6568422777527065 0.6498411649622741
0.2549873 -0.6531888209457088 0.6538039341016721
0.2569872 -0.649648251686693 0.6581237497977303
0.2589871 -0.6457681185356172 0.6622831815407244
0.260987 -0.6417605055108857 0.666204394884963
0.2629869 -0.6379645571158081 0.6702324735854784
0.2649868 -0.6341735695659236 0.6738096101755137
0.2669867 -0.6302930655510606 0.6774094904957064
0.2689866 -0.6263994071382696 0.6811887976076435
0.2709865 -0.6226585209037754 0.6849388563380581
0.2729864 -0.618496441612889 0.6888590758231116
0.2749863 -0.6147729463875724 0.6919520779607669
0.2769862 -0.6110314979759942 0.6955467843597865
0.2789861 -0.6068469853538856 0.6988502814814253
0.280986 -0.6027870226272367 0.7019441367806573
0.2829859 -0.5987208219643274 0.7050262554352226
0.2849858 -0.594188032622317 0.708084877087134
0.2869857 -0.589842031220559 0.7114733542387331
0.2889856 -0.5856870772825498 0.7144578032158799
0.2909855 -0.5807431257433744 0.7175478278983617
0.2929854 -0.576375927798151 0.7206999706288122
0.2949853 -0.5714918810961874 0.7239641201860177
0.2969852 -0.5668514374690333 0.7267899136370732
0.2989851 -0.5622341839358383 0.7293983923455145
0.300985 -0.5567964358689859 0.7324603581913539
0.3029849 -0.5516504438241902 0.734968619450382
0.3049848 -0.5466241504679139 0.7383501653080095
0.3069847 -0.5413110020582279 0.7412865483696567
0.3089846 -0.5357582669400568 0.7443548256544725
0.3109845 -0.5301505409215169 0.7472314047382128
0.3129844 -0.5248101945791628 0.7503647568002935
0.3149843 -0.5194520636837658 0.7535616695412766
0.3169842 -0.5142201085722345 0.7569728123691688
0.3189841 -0.5086848282653804 0.7600341518524388
0.320984 -0.5028044315475474 0.7627174121425578
0.3229839 -0.4973263670422814 0.7661536782282079
0.3249838 -0.4917703492339702 0.7694233377371059
0.3269837 -0.486587158207681 0.7728219800113459
0.3289836 -0.48105887963645727 0.7758206610637429
0.3309835 -0.47586640996942076 0.7793659272841034
0.3329834 -0.4709354216287057 0.7829791051299657
0.3349833 -0.46618856191008595 0.7867373797903271
0.3369832 -0.46136190053122506 0.7902904662368047
0.3389831 -0.456453360890375 0.7942155547912513
0.340983 -0.45153546226642144 0.7978355409701219
0.3429829 -0.4473531151531517 0.802213705631778
0.3449828 -0.44273097786446036 0.805687149953735
0.3469827 -0.4383319274990691 0.8092634424521966
0.3489826 -0.433624973032692 0.8124573080494735
0.3509825 -0.42887648595850736 0.8159070096789247
0.3529824 -0.4242199816251276 0.8189985295292846
0.3549823 -0.41996524409203884 0.8221888464630855
0.3569822 -0.4155096565496861 0.824718308367892
0.3589821 -0.4114060478620778 0.8274728661548579
0.360982 -0.4067410664547318 0.8301127144958801
0.3629819 -0.4021452895838902 0.8325290989644981
0.3649818 -0.3973658995459842 0.8345093785356076
0.3669817 -0.39294467499497304 0.8362756901763788
0.3689816 -0.3877348412293127 0.8383763479568632
0.3709815 -0.38283741651528896 0.840210990550099
0.3729814 -0.37770727296232653 0.8420565892245717
0.3749813 -0.37295807357967437 0.8438147732057155
0.3769812 -0.3679086852389772 0.8454295623604375
0.3789811 -0.3624075821155792 0.8472052612833848
0.380981 -0.3570022749895195 0.8483213620987664
0.3829809 -0.3512528952900045 0.8496086639755702
0.3849808 -0.34589952612983443 0.8521575949262332
0.3869807 -0.33976218531738195 0.8533084142604974
0.3889806 -0.33369981584193276 0.8550641156945494
0.3909805 -0.3275750114883886 0.8567640608270195
0.3929804 -0.3214597053295187 0.8587222593503621
0.3949803 -0.31534743725241277 0.8608049758281595
0.3969802 -0.30941125842105727 0.8625851546062031
0.3989801 -0.3033172018445932 0.8640879473841948
0.40098 -0.296818012673769 0.8662997020042607
0.4029799 -0.2910597524024256 0.8686156267242846
0.4049798 -0.2844278748265405 0.8705358955990847
0.4069797 -0.27877980492649374 0.8730876255459887
0.4089796 -0.2729756569068143 0.8752446416287636
0.4109795 -0.26676096670167937 0.8776531387531943
0.4129794 -0.26092201226962664 0.8798413797592427
0.4149793 -0.25457379291940907 0.8825680202938831
0.4169792 -0.2491113840384952 0.8847370461374879
0.4189791 -0.243554216971897 0.8867912176666612
0.420979 -0.23831477996525857 0.8889253716974979
0.4229789 -0.23252621352148453 0.8909975586905066
0.4249788 -0.22731184296627172 0.8932902188500024
0.4269787 -0.22215806908304342 0.8950547338794752
0.4289786 -0.21718655314151053 0.8970742209442784
0.4309785 -0.21211775657331508 0.89834502134038
0.4329784 -0.20679471483522638 0.9000641136131955
0.4349783 -0.20077062375740154 0.9009133349362408
0.4369782 -0.1959021414180114 0.9018338297411037
0.4389781 -0.19060528484534112 0.9031359078481431
0.440978 -0.18547990488259064 0.9035693402342639
0.4429779 -0.18031002206351868 0.9045346617722924
0.4449778 -0.1748619499249917 0.9050673383973996
0.4469777 -0.169310869916233 0.9053213181163671
0.4489776 -0.16347460830947932 0.9058737035263706
0.4509775 -0.15763370827788753 0.9065787653673018
0.4529774 -0.151694380666837 0.9064611006593397
0.4549773 -0.14544032601642445 0.9068306778487731
0.4569772 -0.13901763757204252 0.906950596244749
0.4589771 -0.13291461030696036 0.9070949350648935
0.460977 -0.1261082454690158 0.9074642803903656
0.4629769 -0.119431552270405 0.9080366789247044
0.4649768 -0.11308823532863505 0.9086436544272838
0.4669767 -0.10614894213210482 0.9088646795976386
0.4689766 -0.09970367709293686 0.9092810507414162
0.4709765 -0.0930549047556801 0.9100112426064338
0.4729764 -0.08592972696258398 0.9103939987136952
0.4749763 -0.0793686742903382 0.9116899627504335
0.4769762 -0.07290243737207108 0.9126689156265775
0.4789761 -0.06576045452171837 0.9134858085745245
0.480976 -0.059175744487765 0.9147462037904217
0.4829759 -0.05253969396994179 0.9154806836233556
0.4849758 -0.046062140810349955 0.9167058427432557
0.4869757 -0.03994711587680844 0.9177415770129864
0.4889756 -0.03312481305605357 0.9187754086102802
0.4909755 -0.026702295918457193 0.9197839157008926
0.4929754 -0.020936416090010623 0.9210422095433581
0.4949753 -0.015138861389082721 0.9219805105025599
0.4969752 -0.009319858449849245 0.9223336463113735
0.4989751 -0.0037194386404025646 0.9233882416102391
0.500975 0.0016294216968621813 0.9237419754356349
0.5029749 0.007368045447438819 0.9241447697023883
0.5049748 0.012446720546835186 0.9240590992610948
0.5069747 0.017666487056986813 0.9242712044288398
0.5089746 0.022977155165190274 0.9242906509468548
0.5109745 0.02861929584342717 0.9246916423699298
0.5129744 0.03425163633044223 0.9244517477942098
0.5149743 0.039164806974362684 0.9240267887030463
0.5169742 0.044393974666594824 0.923173566420993
0.5189741 0.05013497338995436 0.9225455803733462
0.520974 0.05604193740794344 0.9211199342004108
0.5229739 0.06258276500342397 0.9205348100304672
0.5249738 0.06753865707533638 0.9199172712366152
0.5269737 0.0741214704745924 0.9186908330062975
0.5289736 0.0800837813027941 0.9173110290440305
0.5309735 0.08590292011109589 0.915781880558081
0.5329734 0.09208173893045121 0.9142991778585466
0.5349733 0.09849953437211985 0.9129177226899546
0.5369732 0.10488887110982843 0.9115491712292003
0.5389731 0.1117868153091914 0.9106541769302646
0.540973 0.11813816244240635 0.9081739725479411
0.5429729 0.12485897248266814 0.9076087761357381
0.5449728 0.13158758694881936 0.9063076033877018
0.5469727 0.13865670721568918 0.9053702422431127
0.5489726 0.1453241917964286 0.9043766872359899
0.5509725 0.15255909167359283 0.9030147876184262
0.5529724 0.15910450396402911 0.9025165408304852
0.5549723 0.16600563995347767 0.901732498384847
0.5569722 0.17275185211004404 0.9008065039503339
0.5589721 0.1794824612078617 0.8999748894946863
0.560972 0.1860848753559973 0.8997615054444466
0.5629719 0.1929098709364092 0.8991203324437341
0.5649718 0.1997584550145887 0.8987299737378522
0.5669717 0.20576545581352557 0.8977201146076318
0.5689716 0.21169451193953204 0.8975450709553059
0.5709715 0.21740913158648198 0.896399080516495
0.5729714 0.2230007763250056 0.8953855302848043
0.5749713 0.22925313150603055 0.8941658764839048
0.5769712 0.23503944004068622 0.8929710261650339
0.5789711 0.2404085006650689 0.8919643737560768
0.580971 0.24592494730652478 0.8909443708845387
0.5829709 0.251529244604639 0.8895894313172996
0.5849708 0.2568210441496667 0.8880956887683307
0.5869707 0.2621988494588436 0.8865537475790238
0.5889706 0.26802400537135346 0.8842498951647706
0.5909705 0.2733673291771163 0.8818659841828189
0.5929704 0.27905593377686827 0.8794506604150755
0.5949703 0.28480067307029877 0.87713306314345
0.5969702 0.2906222365264545 0.8749054928822253
0.5989701 0.2961203262991098 0.8720292051716697
0.60097 0.3019007215507326 0.8697040508318719
0.6029699 0.30798973948746616 0.8665976748266899
0.6049698 0.31374602958187553 0.863923686476415
0.6069697 0.3200480208501048 0.8609076875093673
0.6089696 0.3263116581136505 0.8582868826930534
0.6109695 0.33277497099518794 0.8558311841422799
0.6129694 0.3390205886066434 0.8524505554683779
0.6149693 0.3457034478416797 0.849956484975751
0.6169692 0.3525365939594374 0.8469799364954561
0.6189691 0.3588603950206288 0.8444065341311112
0.620969 0.36552452670872737 0.8419421513497782
0.6229689 0.37199609679372375 0.8391357467806523
0.6249688 0.3783700427278779 0.8367909145499489
0.6269687 0.38547291133281225 0.8340840528318112
0.6289686 0.3918240161654696 0.8318432975159528
0.6309685 0.3981033975769283 0.8301253937080963
0.6329684 0.4041156501944892 0.8278834382967771
0.6349683 0.41021718011187597 0.8253835250539961
0.6369682 0.4158946082282957 0.8229711242217117
0.6389681 0.42227292478886 0.8206357198490728
0.640968 0.42827949521525904 0.8184534146178658
0.6429679 0.433746692640269 0.8164073874761807
0.6449678 0.43883624389749626 0.814209977051392
0.6469677 0.4442740246877955 0.8116007581399938
0.6489676 0.44965884238599424 0.80927786613326
0.6509675 0.4545743828894152 0.8067792066828188
0.6529674 0.45961170875116086 0.8040843083098229
0.6549673 0.46469598195927964 0.8014062866526737
0.6569672 0.4693617981915375 0.7983180348630591
0.6589671 0.47475745570209454 0.7954917164969785
0.660967 0.47876480995890003 0.7922682108461641
0.6629669 0.4838158408459401 0.7884626398314365
0.6649668 0.4887949911110635 0.7845664512964647
0.6669667 0.4932484393894486 0.7807033920508973
0.6689666 0.4980306850468972 0.7765050716417267
0.6709665 0.5035519137225399 0.7722733355455241
0.6729664 0.5083523002290805 0.7681221037958929
0.6749663 0.5134738328804903 0.7634335215132877
0.6769662 0.5185384995564811 0.7592644320517894
0.6789661 0.5235940635639412 0.754119906342528
0.680966 0.5291776568180607 0.7494433065064472
0.6829659 0.5345280895055271 0.7448543769971543
0.6849658 0.5405643144992954 0.7401429675305248
0.6869657 0.5464754901977027 0.7355953716767545
0.6889656 0.5524292650070607 0.7315316100460596
0.6909655 0.5580909862183848 0.7272279492430808
0.6929654 0.5643232594508303 0.7228096990882853
0.6949653 0.5700446479625665 0.7183499340508493
0.6969652 0.5759846950494829 0.7139751193852187
0.6989651 0.5817774979501693 0.7098399480088611
0.700965 0.5878583663733485 0.7056146508915707
0.7029649 0.5934579160800444 0.7016651187687418
0.7049648 0.599025204750702 0.698012596995617
0.7069647 0.6042649913395036 0.6935564128023876
0.7089646 0.6104529361820267 0.690006536535995
0.7109645 0.6154957962142703 0.6868598906718149
0.7129644 0.6205135959453985 0.6825731513850664
0.7149643 0.6251279285326606 0.6791641698191814
0.7169642 0.6298543765989237 0.6756681016537562
0.7189641 0.6344868995861791 0.6716341182394688
0.720964 0.6392780704436795 0.6672983371014293
0.7229639 0.6435131726167499 0.6632910344813674
0.7249638 0.6485313137209828 0.6595353692734314
0.7269637 0.6526813825519333 0.6558389303001247
0.7289636 0.6565373904158345 0.6512882796525895
0.7309635 0.6610634887337696 0.6469637868658773
0.7329634 0.6652942265575917 0.6423257713755479
0.7349633 0.6685330547899405 0.6375033498814037
0.7369632 0.6732023499575504 0.6326310650004521
0.7389631 0.676269956684357 0.627561896910699
0.740963 0.680147203334425 0.6227305166475361
0.7429629 0.6841169744816866 0.6169275198850132
0.7449628 0.6879092873271613 0.6116032899208396
0.7469627 0.692315503501348 0.6053834870235739
0.7489626 0.6961905843557903 0.5998185959161114
0.7509625 0.7001595604792281 0.5943619978930839
0.7529624 0.7044113366710549 0.5882914560557185
0.7549623 0.7083101661744612 0.5826290195302823
0.7569622 0.7133350579137773 0.5769410863366906
0.7589621 0.7174303184292404 0.5705150675080941
0.760962 0.7220848989993398 0.5645843203270924
0.7629619 0.726649797866014 0.559059110854739
0.7649618 0.7310716627981585 0.5531725825796683
0.7669617 0.735688605496422 0.5472086723468114
0.7689616 0.7402128217800115 0.5413655193275208
0.7709615 0.7448139593106042 0.5359535905515209
0.7729614 0.7491352794487365 0.5301156735308109
0.7749613 0.7535512307584135 0.5246157541188776
0.7769612 0.7580583738187398 0.5193188791677703
0.7789611 0.7626165773272302 0.5140963253035866
0.780961 0.7664803167781931 0.508640496564788
0.7829609 0.770695110598651 0.503515381453788
0.7849608 0.7744277314623481 0.4984175987758521
0.7869607 0.7785865120271371 0.4930680441449776
0.7889606 0.7824059058131649 0.4878534151067108
0.7909605 0.7859280926407548 0.48265455099914
0.7929604 0.7896812762432251 0.47752841236051985
0.7949603 0.7933900101099438 0.4723335665295433
0.7969602 0.7966627919687446 0.4672611112202236
0.7989601 0.7996452170712266 0.4619629475353798
0.80096 0.80339924678483 0.45652214378429357
0.8029599 0.8064895179171271 0.45106941677387313
0.8049598 0.8094109874652831 0.44513768655572733
0.8069597 0.8118312018391147 0.4399786562914171
0.8089596 0.8142151585456731 0.43398877567386646
0.8109595 0.8168793546586025 0.4275829810292051
0.8129594 0.8195410320200919 0.4216747242204638
0.8149593 0.8220241795856108 0.41579095595465554
