! Created with skrf 1.8.0 (http://scikit-rf.org).
# GHz S RI R 50.0 
!freq ReS11 ImS11
0.001 -0.9740250074917202 0.05477934149671035
0.0029999 -0.9984690416740386 -0.0038675683595816857
0.0049998 -0.9585350453163324 0.0206367691266513
0.0069997 -0.9530905540413666 0.024945439384450097
0.0089996 -0.947012656470725 0.0357372370681493
0.0109995 -0.9445726063795485 0.04303908553553171
0.0129994 -0.9429476009262777 0.04993975595172251
0.0149993 -0.9424511639565752 0.05669255506557935
0.0169992 -0.9415587371278258 0.06338881341947555
0.0189991 -0.9408650942035165 0.06889295152628117
0.020999 -0.9399289700789276 0.07541507821521737
0.0229989 -0.9389516509291979 0.08165079395120683
0.0249988 -0.9377415199106884 0.08790785259551456
0.0269987 -0.9366163255380753 0.09448490288531643
0.0289986 -0.9356191139032171 0.10094983551889036
0.0309985 -0.9345040673139007 0.10721502522897217
0.0329984 -0.9334681332535759 0.11387222109003359
0.0349983 -0.9323243282499531 0.12015059801002925
0.0369982 -0.9310358559636539 0.12653118585519862
0.0389981 -0.9298084942741164 0.1330614967161204
0.040998 -0.9285877496966373 0.13965600459120353
0.0429979 -0.9269119264644827 0.1462321260284739
0.0449978 -0.9254604150195751 0.1522417423264792
0.0469977 -0.9240585420336739 0.1587730711848151
0.0489976 -0.922014456575732 0.16574503536424845
0.0509975 -0.9206396886638541 0.17207363853508884
0.0529974 -0.9194686352154464 0.17747571382494348
0.0549973 -0.9163460339337706 0.188210742041801
0.0569972 -0.9155088776797891 0.19270981973998424
0.0589971 -0.9139825884828675 0.19945403131154427
0.060997 -0.9123888358255619 0.20647307431608575
0.0629969 -0.9105850439137635 0.21263181276793572
0.0649968 -0.90848154366332 0.21925820131987664
0.0669967 -0.9077860668165096 0.2266973334531001
0.0689966 -0.9058267669051933 0.23240101080798733
0.0709965 -0.9041971074195043 0.23923779485146845
0.0729964 -0.9017951316307183 0.24617121128644198
0.0749963 -0.9003414045174384 0.2521055038724681
0.0769962 -0.8989972083244395 0.25857042627516413
0.0789961 -0.8970673667627758 0.264504637915428
0.080996 -0.8949483317400615 0.2709972761272851
0.0829959 -0.8930087250041385 0.2773703500567809
0.0849958 -0.8912734357965378 0.28315067728879273
0.0869957 -0.88953718484561 0.28934090564372783
0.0889956 -0.8873916744525301 0.29504327254235446
0.0909955 -0.8851646340509353 0.30092617987436876
0.0929954 -0.8827358507142978 0.30670468840754406
0.0949953 -0.8803747241295723 0.31283885680899504
0.0969952 -0.8781000693385598 0.31852000580885875
0.0989951 -0.8752199120850686 0.32464735389133337
0.100995 -0.874068188252116 0.33088294736043844
0.1029949 -0.8716743618303884 0.33675879340139175
0.1049948 -0.8690301222493604 0.3423168914814255
0.1069947 -0.8661755754164291 0.34787340935476546
0.1089946 -0.8632292158866547 0.35359922742780914
0.1109945 -0.8603468926476792 0.3594130998740737
0.1129944 -0.8575498677920973 0.3649234417508492
0.1149943 -0.8543577079957951 0.37060710495922605
0.1169942 -0.8513191680586717 0.3765543727674169
0.1189941 -0.8480280193662716 0.38223800203144065
0.120994 -0.8448872705397283 0.38825263301986934
0.1229939 -0.8417828734048225 0.39424742946143493
0.1249938 -0.8385087652867376 0.4001298246547814
0.1269937 -0.835382075524079 0.40586995467504944
0.1289936 -0.8327004598441633 0.41201582249566193
0.1309935 -0.8291636316340961 0.41771042314992063
0.1329934 -0.8256725842770428 0.4238948429918284
0.1349933 -0.8224491826856168 0.42989465199923754
0.1369932 -0.8192766323261014 0.4355242534905129
0.1389931 -0.8157603171483443 0.4415365741630508
0.140993 -0.8127614387452107 0.4472007181812389
0.1429929 -0.8089730104065713 0.45330616988179173
0.1449928 -0.8064618654295399 0.45948608431242344
0.1469927 -0.8030486536358992 0.4648511187029634
0.1489926 -0.7997623001805703 0.47090674037475533
0.1509925 -0.7963134967680952 0.4759883040352083
0.1529924 -0.7928088739046795 0.4821194240751207
0.1549923 -0.7898295832793676 0.48812619145646985
0.1569922 -0.7860394224354286 0.4935467328091601
0.1589921 -0.7829059203935278 0.4990451334181051
0.160992 -0.7794234910865823 0.5042660029148868
0.1629919 -0.7756897668111207 0.5099981175065994
0.1649918 -0.772325844183195 0.5152145908682693
0.1669917 -0.7682569843995435 0.5205670071409563
0.1689916 -0.7649333083491031 0.5254847367692425
0.1709915 -0.7611801399703995 0.5308576690781031
0.1729914 -0.7573765203852199 0.5360285202567281
0.1749913 -0.7536133175160586 0.5408950831503578
0.1769912 -0.7498212622460094 0.5459213933637552
0.1789911 -0.7459765322948843 0.5510131655941661
0.180991 -0.7418621679117816 0.5559730108265457
0.1829909 -0.7380085644001148 0.5609870045749623
0.1849908 -0.7341110323583294 0.5659759589515607
0.1869907 -0.7299697312644045 0.5706623629409833
0.1889906 -0.7258229941543445 0.5759821834868551
0.1909905 -0.7214834763011957 0.5809327168340035
0.1929904 -0.7171954634366776 0.5857256714135214
0.1949903 -0.712772552689034 0.5905511375501877
0.1969902 -0.7083376547259865 0.5952588766759196
0.1989901 -0.7039750500556037 0.6006250128253842
0.20099 -0.6998415852188313 0.6053397630492282
0.2029899 -0.695413959117213 0.6103201677016605
0.2049898 -0.6909231957920422 0.6146302448194894
0.2069897 -0.6864279865485585 0.6194600640860657
0.2089896 -0.681871746541164 0.624655078106594
0.2109895 -0.6775908513526505 0.6290305249574342
0.2129894 -0.6726086422312342 0.6342323503677615
0.2149893 -0.6682643590759066 0.6392473468599118
0.2169892 -0.6635305845242678 0.6438146427331464
0.2189891 -0.6586308044431727 0.6485526079802524
0.220989 -0.654223607194954 0.6535045009079378
0.2229889 -0.649290120971802 0.6575655309541065
0.2249888 -0.6443830332906355 0.6624513057788339
0.2269887 -0.6396316505351355 0.6666767523790114
0.2289886 -0.6345010479058354 0.6714547042663768
0.2309885 -0.6298538721234327 0.6763396195501077
0.2329884 -0.6246009041998124 0.6807984429155196
0.2349883 -0.6194250104629261 0.6852659286585648
0.2369882 -0.6145464536965424 0.689826679934506
0.2389881 -0.6098052257284501 0.6942784699220365
0.240988 -0.6045047427602399 0.6985027712763566
0.2429879 -0.5991555898284547 0.7030156984014125
0.2449878 -0.5941950174300729 0.7072756634590933
0.2469877 -0.5890051161654757 0.7117727714447892
0.2489876 -0.5843631384640549 0.7163697637200235
0.2509875 -0.5792017781640368 0.7204137456256408
0.2529874 -0.5738821506534038 0.7248174109429971
0.2549873 -0.5692100518747245 0.7293745263501962
0.2569872 -0.5642917047752919 0.7336660418193042
0.2589871 -0.5590363732878961 0.7375363182114102
0.260987 -0.5540437201228502 0.7417201304579947
0.2629869 -0.5491634590498183 0.7457999409202202
0.2649868 -0.5438809519026259 0.7497033229553868
0.2669867 -0.5389970226746874 0.753058105006378
0.2689866 -0.5335913946611117 0.7570779432003959
0.2709865 -0.5291187916551511 0.7606747886226146
0.2729864 -0.5237054513012891 0.764508690412174
0.2749863 -0.5186188931630391 0.7680187825040972
0.2769862 -0.5136546410568723 0.7715200829525115
0.2789861 -0.5088265343485527 0.7745196057178882
0.280986 -0.5032062371360756 0.7776793506466307
0.2829859 -0.49823030542173175 0.7806105118636548
0.2849858 -0.4924060058463263 0.7839955077413818
0.2869857 -0.48668694227748144 0.7870229153507404
0.2889856 -0.48112097375079277 0.7896440571493843
0.2909855 -0.47525133100044803 0.7930296151574588
0.2929854 -0.4696343771962468 0.7959504843212571
0.2949853 -0.46372693795389364 0.798756819536291
0.2969852 -0.4577664345048213 0.8013025359657838
0.2989851 -0.45201093964273115 0.8037791133031468
0.300985 -0.44538034399564486 0.8062030570436984
0.3029849 -0.43891640639576496 0.8089965093076675
0.3049848 -0.4326723169341492 0.8118739570064686
0.3069847 -0.4258029920551665 0.8142847095276772
0.3089846 -0.41906030482548523 0.8171118745536643
0.3109845 -0.41253984591696946 0.8195231140207802
0.3129844 -0.40530504620014446 0.8224189354980935
0.3149843 -0.3986414833569197 0.824963572969351
0.3169842 -0.39188651334384883 0.8281513642093764
0.3189841 -0.38532538663102467 0.8305429817775913
0.320984 -0.3779276984703994 0.833350200135926
0.3229839 -0.37106158127545263 0.836188495614378
0.3249838 -0.3645080447368928 0.8388415729435765
0.3269837 -0.3578438278774252 0.8416281271324232
0.3289836 -0.3509230515788833 0.8442010309451844
0.3309835 -0.3444483327989176 0.8475415827004761
0.3329834 -0.33808002776889634 0.8507204192140898
0.3349833 -0.3316071322584364 0.8541280053796517
0.3369832 -0.32567459635889257 0.857535326710853
0.3389831 -0.3192219568206448 0.8609900263259838
0.340983 -0.312682202547431 0.8646190544292591
0.3429829 -0.3071311226058241 0.8681419174335403
0.3449828 -0.30097604633816066 0.8712687157546918
0.3469827 -0.2945537137004206 0.8741754886243627
0.3489826 -0.28884158419898665 0.8770585964903526
0.3509825 -0.2823169347824822 0.879881273522791
0.3529824 -0.2766754703558525 0.882632545523002
0.3549823 -0.27083839245884306 0.8852689180899602
0.3569822 -0.2652465488065117 0.8872888329854551
0.3589821 -0.25940874067907294 0.8896684624859603
0.360982 -0.25374530904262527 0.8917373518131404
0.3629819 -0.24760517035153912 0.8936179949711157
0.3649818 -0.2420995930990693 0.8950644058840602
0.3669817 -0.2357589784156194 0.8960218591978383
0.3689816 -0.22971536628446002 0.8978644423577049
0.3709815 -0.22322394868350814 0.8987573997312491
0.3729814 -0.2171556075903957 0.8999726145265405
0.3749813 -0.21113374277296923 0.9010363881455166
0.3769812 -0.2045196666748677 0.9018902874688802
0.3789811 -0.19836488233435823 0.9027471629102981
0.380981 -0.19135715116695895 0.903170499274365
0.3829809 -0.1844558005153349 0.9044928122954711
0.3849808 -0.17737144326486784 0.9051063279405744
0.3869807 -0.17029817536585165 0.9055728910655788
0.3889806 -0.16328974097629229 0.9061579318575558
0.3909805 -0.1553772742495016 0.907008611919675
0.3929804 -0.14776472117355535 0.9080994086725339
0.3949803 -0.1400767747477633 0.9087917306015276
0.3969802 -0.1328902098920313 0.9095966741817161
0.3989801 -0.12554573483509995 0.9102960674200178
0.40098 -0.11794593390285428 0.9114021956794286
0.4029799 -0.11048855068723795 0.9123857552295068
0.4049798 -0.10303780567222796 0.9134052807648999
0.4069797 -0.0955873771851975 0.9148844994021693
0.4089796 -0.08829483982849551 0.9159147653912402
0.4109795 -0.08067210311865189 0.9168301773501917
0.4129794 -0.07362584932395225 0.9185027921847203
0.4149793 -0.06568778170170003 0.9195613048534117
0.4169792 -0.05890960150496912 0.9207568552247879
0.4189791 -0.052111439384972445 0.9219685361569792
0.420979 -0.04529031676177283 0.9226690030138505
0.4229789 -0.03831612523803092 0.9237731640082668
0.4249788 -0.03168442092408011 0.9250530239604249
0.4269787 -0.025242285847210593 0.9257961549331699
0.4289786 -0.01865244496529036 0.9264948193142604
0.4309785 -0.01256861959070463 0.9268241320065719
0.4329784 -0.005690557441886974 0.9274327518704428
0.4349783 0.0011474030888738197 0.9268490551725445
0.4369782 0.007450219525566602 0.9266707978987169
0.4389781 0.01381074116734541 0.9267780439672532
0.440978 0.020221189690088702 0.9263834549085261
0.4429779 0.02644773201767768 0.9259047146470095
0.4449778 0.033109908129238017 0.92537480221841
0.4469777 0.03963570109928584 0.9242760910126496
0.4489776 0.04659166256115166 0.9236986823042611
0.4509775 0.05355546447193399 0.9228825139450898
0.4529774 0.06026751334913938 0.9211355642669937
0.4549773 0.06775421666995579 0.9201723816539522
0.4569772 0.07506385123352065 0.9188520073184605
0.4589771 0.0821576356433823 0.9173414883408839
0.460977 0.09023646771874669 0.9164210653264464
0.4629769 0.09751752484826531 0.9153661619989168
0.4649768 0.1050574705812975 0.9142723878839043
0.4669767 0.1127903991603427 0.9127700988410428
0.4689766 0.1203811547619073 0.9114697947591737
0.4709765 0.1282927943636155 0.9104433421103939
0.4729764 0.1361009566612788 0.9096241985736034
0.4749763 0.1441471034971346 0.908806203819158
0.4769762 0.15148703259700563 0.9076101538323861
0.4789761 0.15961256984719163 0.9065483026009773
0.480976 0.16733141587854206 0.906274340248464
0.4829759 0.17552090868746872 0.9057005269488022
0.4849758 0.18285123047321578 0.9046083501835307
0.4869757 0.19043640125675287 0.9036205397729116
0.4889756 0.19805882201460906 0.9032168965841323
0.4909755 0.2056001031413577 0.9024187534873639
0.4929754 0.21263691948734978 0.9014339594251678
0.4949753 0.21957542422614984 0.9006715852687234
0.4969752 0.22630884905608364 0.8994656208369105
0.4989751 0.23322390912002422 0.8984806005366477
0.500975 0.23925774301440336 0.8970401549202763
0.5029749 0.2461622580484014 0.8956972274881421
0.5049748 0.25232040282726653 0.8944483074632752
0.5069747 0.25835029102727536 0.8927068572665272
0.5089746 0.264641806354893 0.890675849188688
0.5109745 0.27137654149795126 0.889770487563376
0.5129744 0.2779222040948708 0.8878872350989166
0.5149743 0.28385548681581124 0.8857009288315248
0.5169742 0.28962967543865326 0.8830660025905586
0.5189741 0.2962121705224183 0.8805673785569109
0.520974 0.3032862959298958 0.8781655215902235
0.5229739 0.3099148085893691 0.875134544886535
0.5249738 0.3159680072806793 0.8726285128923736
0.5269737 0.3227796033839976 0.8693242323925179
0.5289736 0.3294426024077697 0.866434798630386
0.5309735 0.33575942281651566 0.863364404003071
0.5329734 0.3429484113479801 0.8598472312537538
0.5349733 0.349581843282583 0.856187617108704
0.5369732 0.3564877783136459 0.8526938896619422
0.5389731 0.36393113549552203 0.8491663578264708
0.540973 0.37071870331241624 0.8451622518292835
0.5429729 0.3779775134682037 0.8421427044296282
0.5449728 0.38540947950276583 0.8386123159236369
0.5469727 0.39261421871954283 0.8349487682422403
0.5489726 0.4000662243047153 0.8318892157079877
0.5509725 0.4072549441762912 0.8284673159609538
0.5529724 0.4148685286291757 0.825181745549431
0.5549723 0.421767340469793 0.8218833871179151
0.5569722 0.42903497161491244 0.8185448606288438
0.5589721 0.4365717187682644 0.8156675930447003
0.560972 0.44356026118944264 0.812632215312165
0.5629719 0.4504554690490296 0.8095878790903135
0.5649718 0.45795214204890794 0.8063352639623329
0.5669717 0.46454754439550694 0.8032854322652492
0.5689716 0.4711511904078782 0.800387928158582
0.5709715 0.47734810659068244 0.796851230490449
0.5729714 0.48313308717016734 0.7938094553176477
0.5749713 0.48955100190492906 0.7901647561319936
0.5769712 0.49569768208999954 0.7865640027934935
0.5789711 0.5019408868427584 0.7832506181496826
0.580971 0.5078741862065573 0.7800590245530563
0.5829709 0.5139290877612117 0.7764738634506272
0.5849708 0.5193044556700596 0.7725570269237776
0.5869707 0.5254201013778375 0.7687186807265151
0.5889706 0.5309813848568832 0.7641989872190985
0.5909705 0.5363801007146007 0.7596483288711013
0.5929704 0.5423333204584303 0.7547850587200493
0.5949703 0.5479306846523442 0.7504769059131832
0.5969702 0.5538046956497031 0.7460282274819788
0.5989701 0.5591720186169816 0.741071186780816
0.60097 0.5650481393105173 0.7360319536635417
0.6029699 0.5709606998888893 0.7308212262709717
0.6049698 0.5767047919182656 0.7256468405229739
0.6069697 0.582082616265954 0.7207792422570993
0.6089696 0.5881503545059118 0.7155284171192681
0.6109695 0.5943359811188426 0.7102154344572617
0.6129694 0.6001675593907042 0.7046969845567933
0.6149693 0.6067256327316016 0.6995608119147839
0.6169692 0.6129538594915022 0.6944511288364358
0.6189691 0.6190490092678352 0.6890389299105971
0.620969 0.6254751156639216 0.683530947219479
0.6229689 0.6313756118457868 0.6782951665371664
0.6249688 0.6373394190616148 0.6730171496182453
0.6269687 0.6438682489154733 0.6677123171134209
0.6289686 0.6494018380469632 0.6625855322097396
0.6309685 0.6556970587537401 0.6576957156853107
0.6329684 0.6611706818575869 0.653063578891253
0.6349683 0.6670743109630697 0.6476978247473952
0.6369682 0.6719435432965075 0.642411228512197
0.6389681 0.6777644542457655 0.6371560026118017
0.640968 0.6836225588192832 0.6321370259604908
0.6429679 0.6885016418016976 0.627424300547858
0.6449678 0.693984659787031 0.6223406474390393
0.6469677 0.6992311472188976 0.6170473028532718
0.6489676 0.7038164571748321 0.6119736764029987
0.6509675 0.7084328296195964 0.6067747933627229
0.6529674 0.7130179106012029 0.6015955367593551
0.6549673 0.7180508154799942 0.5962797874661487
0.6569672 0.7218650204677295 0.5907103001245207
0.6589671 0.7269641196783391 0.58492678327461
0.660967 0.7310484184296655 0.5790985256707404
0.6629669 0.735219152818237 0.5732326036331433
0.6649668 0.7388345936976239 0.5670952540970369
0.6669667 0.7429037361673562 0.560703409204911
0.6689666 0.7474753947557446 0.5545543713219747
0.6709665 0.7517736721270304 0.5476231322210304
0.6729664 0.7555761562483652 0.5413573567792384
0.6749663 0.7593757776973574 0.534157818594854
0.6769662 0.7636885009897305 0.527475429255035
0.6789661 0.7678977161584151 0.5206129123425877
0.680966 0.7719648243866819 0.5136848149174373
0.6829659 0.7765094157501465 0.5065679440035551
0.6849658 0.7804776829009848 0.49986798194160814
0.6869657 0.7852416047962558 0.4927879164118635
0.6889656 0.7897432652338837 0.4855605890670075
0.6909655 0.793581554357487 0.4785453363826092
0.6929654 0.7982816804992471 0.4716416643348811
0.6949653 0.8023568360402177 0.4650238148125032
0.6969652 0.8069936861074936 0.45747958312304093
0.6989651 0.8111847349817912 0.45077722586221647
0.700965 0.8151236750162001 0.4439858025991658
0.7029649 0.8189464904168612 0.4369999904201794
0.7049648 0.8233591206752864 0.43065886070939713
0.7069647 0.82682190852853 0.42391313090415605
0.7089646 0.8313925440140754 0.4168971880618055
0.7109645 0.834866936961748 0.41092373008206984
0.7129644 0.8384904260310198 0.4039908345697397
0.7149643 0.8418185077007736 0.3976554846051416
0.7169642 0.8455162246441142 0.3910409649342835
0.7189641 0.8484195916771935 0.38434316556521597
0.720964 0.8518148236365715 0.3774953747587386
0.7229639 0.8546967500519811 0.37061777903843185
0.7249638 0.8578013301750165 0.36402911466921345
0.7269637 0.8608459067466425 0.35699270046874665
0.7289636 0.863557757573001 0.3500972954818231
0.7309635 0.866345778357821 0.3434681800004892
0.7329634 0.8691866426311412 0.3361669569247183
0.7349633 0.8712551782177771 0.32938907129684813
0.7369632 0.8736307841509375 0.32213703732426346
0.7389631 0.8758083949874983 0.3150019857219345
0.740963 0.8782959249745729 0.30802095106163985
0.7429629 0.8805884553528706 0.3002827645229725
0.7449628 0.882646853455184 0.29258961661477334
0.7469627 0.8849190986388324 0.28498552376756936
0.7489626 0.887166880163824 0.27724685390907067
0.7509625 0.8895580701617609 0.26977760329416267
0.7529624 0.8914158262446525 0.26199864662543426
0.7549623 0.8933997168198904 0.25437239493401986
0.7569622 0.89597215134457 0.24655996287436627
0.7589621 0.8976041868749866 0.23857155607620958
0.760962 0.8998224872526689 0.23075549956744648
0.7629619 0.9018471234777707 0.2233949618115347
0.7649618 0.9036416264068422 0.21540919326219127
0.7669617 0.9056836384062114 0.207736695406756
0.7689616 0.9074054701319536 0.19986134763472466
0.7709615 0.9092695361467866 0.1918001187522021
0.7729614 0.9108684938659162 0.18449681599247197
0.7749613 0.9127563856428924 0.176786835076588
0.7769612 0.9144641307644258 0.16912004363770622
0.7789611 0.9160683573367002 0.16145468625977183
0.780961 0.917543655551573 0.15405544379429925
0.7829609 0.9188165262904492 0.14653595673797803
0.7849608 0.9199106955807282 0.13931408155751313
0.7869607 0.921064422776769 0.1316560970349121
0.7889606 0.9222702878007405 0.12385456527146847
0.7909605 0.9229757244669969 0.1165203585045235
0.7929604 0.9242510474874788 0.10921296091305097
0.7949603 0.9251651264637529 0.10122626718288687
0.7969602 0.9259593816774088 0.09387002301492928
0.7989601 0.9265708449488307 0.08606880794099898
0.80096 0.9273970902733564 0.07840645358573638
0.8029599 0.9277986414132748 0.07055508231403625
0.8049598 0.92821569010422 0.06289403342964739
0.8069597 0.9284962388160278 0.055265189392241204
0.8089596 0.9287304694645313 0.04775447998295163
0.8109595 0.9294243660926098 0.03956442852258109
0.8129594 0.929302265918896 0.03182108949446946
0.8149593 0.9296643132426213 0.024020820609427132
