! Created with skrf 1.8.0 (http://scikit-rf.org).
# GHz S RI R 50.0 
!freq ReS11 ImS11
0.001 -0.925320904541117 0.032905126178771504
0.0029999 -0.9421588382467788 -0.02692818641660577
0.0049998 -0.9392180597299142 0.0057969076100534145
0.0069997 -0.9414651036693036 0.016333326747765164
0.0089996 -0.9421590837659932 0.025949489584366214
0.0109995 -0.942172964023993 0.0341675708110204
0.0129994 -0.9413008901321418 0.04272191560037619
0.0149993 -0.942188855480494 0.04961928249627379
0.0169992 -0.9413583041916882 0.056352527410246545
0.0189991 -0.9418024772342001 0.062191499761778624
0.020999 -0.9413447512524733 0.0686783002034077
0.0229989 -0.9407653932143016 0.07489002308615689
0.0249988 -0.9397352173188975 0.0811673851132789
0.0269987 -0.938866004396553 0.08759608965611052
0.0289986 -0.9380503773889503 0.09386491844560298
0.0309985 -0.9369975285893956 0.09984687355774557
0.0329984 -0.9362009883619127 0.10625016347621022
0.0349983 -0.9351003936650885 0.11224074561052955
0.0369982 -0.9339595161347176 0.11826913750766332
0.0389981 -0.9328515386822679 0.12440419736629499
0.040998 -0.9317407263539768 0.1305179212312758
0.0429979 -0.9301001124775978 0.1366524988126921
0.0449978 -0.9287129624397207 0.14231885462687993
0.0469977 -0.9272525823105585 0.14846591498790968
0.0489976 -0.9256402147432574 0.15490309904392924
0.0509975 -0.9243114941201722 0.1608182302373684
0.0529974 -0.9229300865286465 0.1675756587152234
0.0549973 -0.9206422678317581 0.1742641881526349
0.0569972 -0.9195670933695148 0.17991532986861686
0.0589971 -0.9182053661563329 0.18609056292300366
0.060997 -0.9165794583416909 0.1926764673009002
0.0629969 -0.9153596659186516 0.19839189904847848
0.0649968 -0.9131085917604342 0.2046101285617662
0.0669967 -0.9126376054570096 0.21148256125562942
0.0689966 -0.9108304961944461 0.2168250875694283
0.0709965 -0.9093594206293973 0.22318609321053579
0.0729964 -0.9071828503933662 0.22986426716648084
0.0749963 -0.9059438727317012 0.2354940233633242
0.0769962 -0.9048342587644412 0.24148464936456565
0.0789961 -0.9032496334703517 0.24718771855145272
0.080996 -0.9012293330111336 0.25320821575084745
0.0829959 -0.8995541121491871 0.25941821294660905
0.0849958 -0.898211041141813 0.26469393988078477
0.0869957 -0.8967897167768559 0.2707603122968355
0.0889956 -0.8948601790900346 0.27607147787206193
0.0909955 -0.892963000025066 0.2816401988317305
0.0929954 -0.8907457318018962 0.28724466347678473
0.0949953 -0.8887365769447453 0.29317105831152557
0.0969952 -0.8867887117020006 0.29858668939035504
0.0989951 -0.8843513394163333 0.304282686804137
0.100995 -0.8833302874704161 0.3102376262519769
0.1029949 -0.8812305537975544 0.3159169496819607
0.1049948 -0.8789426208176516 0.32117688510279746
0.1069947 -0.8762960036274906 0.32623527025412113
0.1089946 -0.8737345181533063 0.3317832557228196
0.1109945 -0.871256177576514 0.337244982993932
0.1129944 -0.8687458397314172 0.3424667249144774
0.1149943 -0.8657905377796147 0.34780768600072326
0.1169942 -0.8630956650048951 0.35367653914713476
0.1189941 -0.8602896077834531 0.359034254332394
0.120994 -0.8575223536473611 0.3646040986846091
0.1229939 -0.854531267638429 0.3699664178287654
0.1249938 -0.851683907432107 0.37564234049373857
0.1269937 -0.8488332550170142 0.3811965620897224
0.1289936 -0.8464362028409623 0.38714701313722755
0.1309935 -0.8432670864741013 0.39206473914133616
0.1329934 -0.8404988244927052 0.3984101653569849
0.1349933 -0.837378303720355 0.4036160536927976
0.1369932 -0.834630789017915 0.4090769106595219
0.1389931 -0.8314598806865108 0.41497006286443266
0.140993 -0.8287095178725555 0.4204498932709472
0.1429929 -0.8252949887602297 0.42571762959662085
0.1449928 -0.8233581013081799 0.43154222391190644
0.1469927 -0.8201650951861255 0.4372370576488805
0.1489926 -0.8173525626479058 0.44269159760631294
0.1509925 -0.8142187237204402 0.4473773874300141
0.1529924 -0.8110091280854723 0.45303910822612453
0.1549923 -0.8089171960311526 0.4588981084302281
0.1569922 -0.8058175548968556 0.46413706630935275
0.1589921 -0.8027166623692202 0.4693382414839571
0.160992 -0.7996335330948499 0.47428904185720816
0.1629919 -0.7962767521165631 0.4798126559805641
0.1649918 -0.7934513750069266 0.48488957867332044
0.1669917 -0.7901821910802488 0.48961758383192855
0.1689916 -0.7870122711995665 0.4948072525474609
0.1709915 -0.7838508207569879 0.4998513514219288
0.1729914 -0.7805503281779628 0.504684638378516
0.1749913 -0.7774271007941556 0.5093436439715754
0.1769912 -0.7739311515499125 0.5143561014565474
0.1789911 -0.7702957138759509 0.5192301499352587
0.180991 -0.7666982228157808 0.5238523461052307
0.1829909 -0.7632569697311652 0.528887922309523
0.1849908 -0.7597853070543027 0.5336988650232484
0.1869907 -0.7561735736465959 0.5383555806294837
0.1889906 -0.75230786897747 0.5432887429121873
0.1909905 -0.7487621558334925 0.5480791706129929
0.1929904 -0.7448197815657772 0.5528003239699026
0.1949903 -0.7408531244807494 0.5573952212085195
0.1969902 -0.7367079802559766 0.5621928471153952
0.1989901 -0.7329008096659652 0.56740321473586
0.20099 -0.7291286435016249 0.5722647985335161
0.2029899 -0.7253208784250844 0.5766131009264045
0.2049898 -0.7212204653266062 0.5808857490519632
0.2069897 -0.7173573216298303 0.5858292943272615
0.2089896 -0.7134156375527401 0.5904038686884112
0.2109895 -0.7091040012651508 0.594905170842283
0.2129894 -0.7051210903367771 0.5998660267211012
0.2149893 -0.7010738429868747 0.6044474713863335
0.2169892 -0.6969868122711955 0.6091542318437683
0.2189891 -0.6925241115073644 0.613910830490676
0.220989 -0.6888719954915123 0.6183715196865662
0.2229889 -0.6844337202469887 0.622772390423745
0.2249888 -0.6798437806882232 0.6277600289290449
0.2269887 -0.6757526782684101 0.6315131783970447
0.2289886 -0.6709616052950035 0.6362108655050379
0.2309885 -0.6669069333094243 0.6412124562837234
0.2329884 -0.6625454085960203 0.6452068101179144
0.2349883 -0.6581259654762885 0.6497624627368568
0.2369882 -0.6536541835848625 0.6537632771241786
0.2389881 -0.649530815259845 0.6586457152486986
0.240988 -0.6450661164740967 0.662765753305301
0.2429879 -0.6403528490301497 0.6673386067465814
0.2449878 -0.6359898696261055 0.671438233771817
0.2469877 -0.6315091118930674 0.6758832335008824
0.2489876 -0.627476859352814 0.6804945387848668
0.2509875 -0.622753217292397 0.6845347056657669
0.2529874 -0.6182006355623331 0.688939023625634
0.2549873 -0.6139276983689496 0.6931840244570495
0.2569872 -0.6098913442558893 0.697428059377732
0.2589871 -0.6051772038507539 0.7015921618867036
0.260987 -0.6006894120050859 0.7059201013394714
0.2629869 -0.5964493662709757 0.7099053949668916
0.2649868 -0.5920184771794426 0.7138459513716062
0.2669867 -0.5875818470361878 0.7171899823169442
0.2689866 -0.5831483287811003 0.7209729738778501
0.2709865 -0.5788749215469939 0.7247788134019394
0.2729864 -0.5741607221572936 0.7286463412090306
0.2749863 -0.5695939844579255 0.7321716926533188
0.2769862 -0.5652498287240793 0.7357744327893077
0.2789861 -0.5609326531717641 0.7389267548827994
0.280986 -0.5559351681285317 0.7420644650408449
0.2829859 -0.5515312502222526 0.7448406749180431
0.2849858 -0.5461500162836525 0.7480927803328978
0.2869857 -0.5415164128553256 0.7514794104010404
0.2889856 -0.53653905187346 0.7542310664253724
0.2909855 -0.5311368829823763 0.7573307149301404
0.2929854 -0.5261777748125563 0.7605369918172662
0.2949853 -0.520797196321364 0.7636008349524085
0.2969852 -0.515292455191851 0.7662392258600641
0.2989851 -0.510273713132952 0.7688522092872127
0.300985 -0.5043490316137876 0.771741680971009
0.3029849 -0.49839443643527614 0.7744361796186533
0.3049848 -0.49290771968352154 0.7773364710681979
0.3069847 -0.48698936557765554 0.7801121802821163
0.3089846 -0.480673647902077 0.7830075084485845
0.3109845 -0.4746030135544539 0.7858129538542792
0.3129844 -0.4683701557882069 0.7886713066566673
0.3149843 -0.4621395904810371 0.7918073392151208
0.3169842 -0.4563407559920458 0.7951742187373665
0.3189841 -0.45025950219716493 0.7980014953342175
0.320984 -0.4434467779596545 0.8009914311211082
0.3229839 -0.4375536769214129 0.803868120100058
0.3249838 -0.43127075767672507 0.8067104378179409
0.3269837 -0.4252738938861443 0.8102854913249778
0.3289836 -0.41896327878919465 0.8130254924946556
0.3309835 -0.4130445739746922 0.8165945971992865
0.3329834 -0.4075221372776525 0.8198669729830506
0.3349833 -0.4020621697300155 0.8232361433802231
0.3369832 -0.39665670290713484 0.8270152548714714
0.3389831 -0.39094343939768106 0.830768758925811
0.340983 -0.3855315464402341 0.8342644343116822
0.3429829 -0.3807396719220944 0.8382082766945582
0.3449828 -0.37504567975326164 0.8417648208185404
0.3469827 -0.36995740910133995 0.8452521037356349
0.3489826 -0.36473892126223195 0.8481044775074839
0.3509825 -0.3592600185737509 0.8512733378257632
0.3529824 -0.3540793496972827 0.8545022564826213
0.3549823 -0.3490901270666471 0.8575019702149025
0.3569822 -0.3439475202407046 0.8599257616446356
0.3589821 -0.33894307158217263 0.86256084256004
0.360982 -0.3340110466281424 0.8646952061881122
0.3629819 -0.32877065954075824 0.8668848218187669
0.3649818 -0.3234700575243734 0.86863048842648
0.3669817 -0.3181339603898544 0.8702879807278835
0.3689816 -0.31255567141759544 0.8721957964814432
0.3709815 -0.30703764936392774 0.8735481951742154
0.3729814 -0.3013376785443055 0.8751955734442728
0.3749813 -0.2958403040599431 0.8766379543276813
0.3769812 -0.29020091269583254 0.8777045458082556
0.3789811 -0.284423300063388 0.8791360601212322
0.380981 -0.2782545059953984 0.880137812048343
0.3829809 -0.27194822936655216 0.881177110257694
0.3849808 -0.2658733241316193 0.8830330409565917
0.3869807 -0.2594590019767605 0.8836571031392642
0.3889806 -0.2524779783795973 0.8851416044015766
0.3909805 -0.24553392171853097 0.8864650937317202
0.3929804 -0.2390325012302909 0.8878263461206004
0.3949803 -0.2319945982502484 0.8894008891053664
0.3969802 -0.2255365022099195 0.8908082116388222
0.3989801 -0.2186447975414511 0.8922905887806819
0.40098 -0.21153115531290134 0.8938746109644956
0.4029799 -0.20511856214254953 0.8953415304834956
0.4049798 -0.19804009423289365 0.8971795458660918
0.4069797 -0.19136900998911624 0.8990568126307092
0.4089796 -0.18462448643568602 0.9006773697833858
0.4109795 -0.17826276660504706 0.9026361899981059
0.4129794 -0.17122498374680184 0.9045531857454879
0.4149793 -0.16454809201232123 0.9065221268066049
0.4169792 -0.15839723438832554 0.9082872314200215
0.4189791 -0.15210916826458903 0.9098962839285423
0.420979 -0.14599023393925742 0.9116580443568518
0.4229789 -0.13954687419425987 0.913379081721781
0.4249788 -0.13369495979951884 0.915084425870895
0.4269787 -0.12793586573214225 0.9164968073726454
0.4289786 -0.122306180334085 0.9179380232182138
0.4309785 -0.11651352776099543 0.9189001478835668
0.4329784 -0.11044565653444594 0.9200909847912789
0.4349783 -0.10412437297563885 0.9202594652079413
0.4369782 -0.09860448075576135 0.9205932640342642
0.4389781 -0.09265721759322737 0.9214270758972889
0.440978 -0.08687618423293145 0.9213307003169775
0.4429779 -0.08136432078683087 0.921823443922845
0.4449778 -0.07544098976311338 0.9219240678915285
0.4469777 -0.06910438585547571 0.9216824297307985
0.4489776 -0.06289976033910806 0.9219372337252452
0.4509775 -0.056391597615839895 0.921810846408917
0.4529774 -0.04988346857387526 0.9208888435495118
0.4549773 -0.043225889984840435 0.9203754050465959
0.4569772 -0.036254321526880386 0.9198956832187665
0.4589771 -0.029407062574172298 0.9194937666034316
0.460977 -0.022459815652518214 0.9189992669490304
0.4629769 -0.015053049980745938 0.9190528407104651
0.4649768 -0.00815873011674378 0.9187153901966607
0.4669767 -0.0008839956928677582 0.9184681867304216
0.4689766 0.0062692849146611385 0.9181189412578508
0.4709765 0.013607823227389225 0.9176454762901928
0.4729764 0.021065756670752424 0.9177070051453344
0.4749763 0.02824653380881307 0.9179973941405454
0.4769762 0.03530425987295929 0.9181067887678334
0.4789761 0.04313277132491236 0.9181663895773329
0.480976 0.05041789096291994 0.9185700634417753
0.4829759 0.05762544511894769 0.918881354793655
0.4849758 0.06450783356571506 0.9190675456857831
0.4869757 0.07150806433157547 0.9191461818373113
0.4889756 0.0787875538174228 0.9195495934052611
0.4909755 0.08558673104588926 0.9198910510989906
0.4929754 0.09229930819166803 0.9202161920380931
0.4949753 0.09850263812719325 0.9201301885149045
0.4969752 0.104822106545412 0.9201539831174327
0.4989751 0.11095020851769145 0.9203772874886745
0.500975 0.11695379863815729 0.919835729605764
0.5029749 0.12314451662755407 0.9192143001387766
0.5049748 0.12866091686210968 0.9190423584158316
0.5069747 0.13432384032789266 0.9183949884899936
0.5089746 0.14023523700621446 0.9176718189066254
0.5109745 0.1465413996944668 0.9171670129744155
0.5129744 0.15253566185854345 0.9166178259976703
0.5149743 0.15785288180922885 0.9151901556053047
0.5169742 0.16368297427094552 0.9133570387431397
0.5189741 0.16956450663891393 0.9119206094516021
0.520974 0.1761089377739527 0.9100626148624759
0.5229739 0.1829122178753887 0.9082370631218525
0.5249738 0.18835209938374933 0.906787632917747
0.5269737 0.19509033192927594 0.9047737912169489
0.5289736 0.2010323802709887 0.9020778836657408
0.5309735 0.207449795113198 0.9002362535074978
0.5329734 0.21382931207484576 0.8977372295980613
0.5349733 0.2207017744838407 0.8953010245953745
0.5369732 0.2271998314012491 0.8931683974097626
0.5389731 0.23433273514452546 0.8907487979647956
0.540973 0.24103634337535942 0.888056088178679
0.5429729 0.24794132037104283 0.8860084224223352
0.5449728 0.25523977245881024 0.8838681159840512
0.5469727 0.26234828361778256 0.8817947311733381
0.5489726 0.2694710353300358 0.8792776376674963
0.5509725 0.27638325393503366 0.8777082979831828
0.5529724 0.28381079409931576 0.8758868505962971
0.5549723 0.2910252239540505 0.8738744870138485
0.5569722 0.2976896135686953 0.871848967855156
0.5589721 0.30509678186296757 0.8702766052728549
0.560972 0.31199694748926804 0.8686881277183455
0.5629719 0.3191644735720052 0.8668521862932819
0.5649718 0.32609420596514066 0.865139088465785
0.5669717 0.3326509956473241 0.8635934360620363
0.5689716 0.3389871535284566 0.8619911748924658
0.5709715 0.3449258251474487 0.8598012073663432
0.5729714 0.35100087902119126 0.857795827301552
0.5749713 0.3570186113605968 0.8556096330866025
0.5769712 0.36340926359055825 0.8532830000454794
0.5789711 0.36889867185856706 0.8514898445165517
0.580971 0.3750707733478822 0.849201710667035
0.5829709 0.3806210697504233 0.8470882726037818
0.5849708 0.3861928572079687 0.8445049468910663
0.5869707 0.3916690173528223 0.841964110415999
0.5889706 0.397919670158841 0.8384919448200081
0.5909705 0.40287053811927553 0.8352824431343266
0.5929704 0.4089682933587675 0.8317090712513953
0.5949703 0.4150453691505902 0.8281474685810863
0.5969702 0.4204859900928313 0.8248976496853644
0.5989701 0.42631732161823394 0.8215876774526646
0.60097 0.43215187616445133 0.8176682796856698
0.6029699 0.4382858424693535 0.8135847921078614
0.6049698 0.44402728845057277 0.809981975266298
0.6069697 0.45020342787229206 0.8056152684248363
0.6089696 0.45632798095016286 0.8022371181459702
0.6109695 0.4626408913764698 0.7982696650445957
0.6129694 0.4690665853687458 0.7939472160442796
0.6149693 0.475513801258706 0.7900344153963286
0.6169692 0.48223614953856997 0.7861470640438274
0.6189691 0.48869612796885786 0.7824070136894157
0.620969 0.4953108343204644 0.778473924585134
0.6229689 0.501655821068466 0.7745882293627039
0.6249688 0.5080940898164208 0.7709081119343063
0.6269687 0.5148610826588842 0.7669520676662062
0.6289686 0.5212007511619301 0.7633687262407792
0.6309685 0.527640499141867 0.760185355301885
0.6329684 0.5332514661730996 0.7567572624597426
0.6349683 0.5392148071326529 0.7528469470452361
0.6369682 0.5448686579179818 0.7494503620539874
0.6389681 0.551244775955121 0.7457026062431942
0.640968 0.5573019724930008 0.7423737340561921
0.6429679 0.5626303236275141 0.7391033397675253
0.6449678 0.5677589897052268 0.7356181579312683
0.6469677 0.5734228196761385 0.7320595846500347
0.6489676 0.5787120745065059 0.7283791383115756
0.6509675 0.5832409155561019 0.7246198018158844
0.6529674 0.5883188649507426 0.720755113009922
0.6549673 0.5932619522667846 0.7169315298138814
0.6569672 0.5980851133019374 0.7128793855069226
0.6589671 0.6028151717041732 0.708681817451228
0.660967 0.6072747998691042 0.7043168796465684
0.6629669 0.6119680886622606 0.6993455773619536
0.6649668 0.6167246039378975 0.6947863384513041
0.6669667 0.6208608858042324 0.6894717939782867
0.6689666 0.6254796359160927 0.6845533509837228
0.6709665 0.6302802434502105 0.6792475096173037
0.6729664 0.6350755606714324 0.6737894768319974
0.6749663 0.6396688105123599 0.6685218575418759
0.6769662 0.644438092140212 0.6623917701976312
0.6789661 0.6490968806504698 0.6568197301626701
0.680966 0.6538832141979154 0.6509519946146072
0.6829659 0.6591131147022086 0.6453162424703686
0.6849658 0.6644706657337849 0.639452529286667
0.6869657 0.6697184132014056 0.6339316459301949
0.6889656 0.6752483364398503 0.6285901301955186
0.6909655 0.6802442713720454 0.6228134153745633
0.6929654 0.6855127103408211 0.6170273613310988
0.6949653 0.6907120249659756 0.6115150924658833
0.6969652 0.6961672455766243 0.6055403545155348
0.6989651 0.701476626437473 0.6003976132203818
0.700965 0.7067888080798931 0.5949272333455471
0.7029649 0.7116033269891056 0.5896780185959809
0.7049648 0.7166773855026408 0.5843245991357983
0.7069647 0.7214381198106252 0.5792332358990004
0.7089646 0.7268627300488948 0.5739745919370948
0.7109645 0.7317494043483412 0.569128342688825
0.7129644 0.7358203975643911 0.5641805001275271
0.7149643 0.7404123235445892 0.5593150337221277
0.7169642 0.744314447800635 0.5543271356898505
0.7189641 0.7486663408451484 0.5492374337308982
0.720964 0.752588591309497 0.5437379817624712
0.7229639 0.7566946844783174 0.5383243870887674
0.7249638 0.7607997026885437 0.533140524786686
0.7269637 0.7648111887627753 0.5282928555120148
0.7289636 0.7678433218988837 0.5222448233818875
0.7309635 0.7718770167767409 0.5169274673272866
0.7329634 0.7754228749944545 0.511436031743092
0.7349633 0.7786513978404386 0.5053649340127315
0.7369632 0.7822909628467922 0.4995449387140693
0.7389631 0.7849023899472821 0.49334087958278927
0.740963 0.7880004387180461 0.48728080456913336
0.7429629 0.7916180773225837 0.4811185223559422
0.7449628 0.7949131234624107 0.47429252900858543
0.7469627 0.7979710175180373 0.4674379587243829
0.7489626 0.8014132194570328 0.46078188846941126
0.7509625 0.8047735537579045 0.45409484403917244
0.7529624 0.807675463464478 0.44753280630042536
0.7549623 0.8112675397694039 0.4406270410614563
0.7569622 0.8149954022407472 0.4339364656600469
0.7589621 0.8181145858485508 0.426734975986104
0.760962 0.821605158245498 0.4197763122596725
0.7629619 0.8252957620321121 0.4133022901338893
0.7649618 0.8285334365256385 0.4065005400324455
0.7669617 0.831951906569394 0.39933780742885683
0.7689616 0.8356974535496587 0.39265763643689255
0.7709615 0.838714185165944 0.3861600481638092
0.7729614 0.8422343433317673 0.37894821623125063
0.7749613 0.8454235404167519 0.37292279524757227
0.7769612 0.8489364995024907 0.3660881984306841
0.7789611 0.8522226141633328 0.35995189761758417
0.780961 0.855441871675454 0.3531655866096378
0.7829609 0.8583533092832842 0.3472966832275962
0.7849608 0.861174345585184 0.34056590042347806
0.7869607 0.8640754473605067 0.3344061471698847
0.7889606 0.866506357292802 0.3281361222235062
0.7909605 0.8693451550916828 0.32179052966808375
0.7929604 0.871805704702711 0.31548300471567736
0.7949603 0.8748122092622275 0.309060526506954
0.7969602 0.8766481962138798 0.30283766288702024
0.7989601 0.8788890103282984 0.2962970670219098
0.80096 0.8817843269663194 0.28994424946373576
0.8029599 0.8837006331994228 0.2831815180550098
0.8049598 0.8850900185373862 0.2766278795279818
0.8069597 0.8872967794382979 0.2704245264778256
0.8089596 0.8884404718755571 0.2632934865245257
0.8109595 0.890367437796955 0.2564441168672806
0.8129594 0.8919881990600812 0.24948539233349476
0.8149593 0.8932826044482741 0.24268404264482463
