! Created with skrf 1.8.0 (http://scikit-rf.org).
# GHz S RI R 50.0 
!freq ReS11 ImS11
0.001 -0.8367049403175746 0.06660470604230562
0.0029999 -0.953546247804679 0.020096094106390905
0.0049998 -0.943616190997062 0.024099703066488315
0.0069997 -0.9438471279715077 0.03361509082972608
0.0089996 -0.9420248168536773 0.04076643918723921
0.0109995 -0.9419183530508239 0.049647900088648056
0.0129994 -0.9417000874240236 0.058305795307323494
0.0149993 -0.9411135052201194 0.06702100998131055
0.0169992 -0.9401983407775909 0.07540342432891123
0.0189991 -0.939851791567413 0.08273175052971837
0.020999 -0.9388403859011252 0.09097474325571514
0.0229989 -0.9377120232860472 0.09899831298603251
0.0249988 -0.9363239733127532 0.10710567433031465
0.0269987 -0.9349345151871673 0.11522676016993146
0.0289986 -0.9336592802054937 0.1233873044795776
0.0309985 -0.9321040879501392 0.1313449199359246
0.0329984 -0.9305801475592661 0.13953334366591352
0.0349983 -0.9288745457016496 0.1475420470044999
0.0369982 -0.9270461362480725 0.15531698475943367
0.0389981 -0.925111657877814 0.16366696964234762
0.040998 -0.9235439616527987 0.17184196951394787
0.0429979 -0.9210824795221163 0.17944902922596606
0.0449978 -0.9189740197293991 0.18722691308426204
0.0469977 -0.9174487036475686 0.19551406887435574
0.0489976 -0.9141113400751001 0.20357958791499614
0.0509975 -0.9120593326652484 0.21130728427892198
0.0529974 -0.9095737118526558 0.22016408346193467
0.0549973 -0.9068897230570899 0.22830912258136543
0.0569972 -0.9045902863499281 0.2361600078861265
0.0589971 -0.9025338138769181 0.2444573724478783
0.060997 -0.9002018784610825 0.2528255429515926
0.0629969 -0.8972477178494312 0.26062765477244265
0.0649968 -0.8947146924430724 0.26895175026378726
0.0669967 -0.8929791601673104 0.27725801767154884
0.0689966 -0.8904002154899573 0.2844545869135702
0.0709965 -0.8879440983722606 0.2931629213513547
0.0729964 -0.8847191980803146 0.30096865061450717
0.0749963 -0.8825192191055213 0.3082061088007022
0.0769962 -0.880512510304285 0.31651802635283366
0.0789961 -0.8776480906580083 0.32343585656730106
0.080996 -0.8747699594296906 0.33153248897971377
0.0829959 -0.8716305816274696 0.33917698364762444
0.0849958 -0.8690787040721125 0.3461272682315173
0.0869957 -0.8661836382865902 0.35397328217334706
0.0889956 -0.8634723631980366 0.36086089014915285
0.0909955 -0.8604008245773399 0.36779805376442354
0.0929954 -0.8569646194095489 0.37507991325642254
0.0949953 -0.8532445248793871 0.3823981945110592
0.0969952 -0.8500628287799286 0.38905973500038715
0.0989951 -0.8463748759705476 0.39644447547969863
0.100995 -0.8438446031148339 0.4041383523884746
0.1029949 -0.8403623675581311 0.41117028315157766
0.1049948 -0.8366539399403008 0.4179124530847111
0.1069947 -0.8325356113825333 0.4243999684565307
0.1089946 -0.8283541165838542 0.43111771381852343
0.1109945 -0.824060878590229 0.4379456816816678
0.1129944 -0.8198558976488269 0.44464897378761814
0.1149943 -0.8152658500483732 0.4510704569084257
0.1169942 -0.8108836217106259 0.45809793268536014
0.1189941 -0.8060645901538709 0.46482697865032535
0.120994 -0.8014468233302068 0.4718777390780778
0.1229939 -0.7965235891654391 0.47899771352466736
0.1249938 -0.7923021567678029 0.48584342417506937
0.1269937 -0.7874001214619529 0.49259470426674046
0.1289936 -0.7828173717749585 0.5001849614632236
0.1309935 -0.7778899999905956 0.5067937138190358
0.1329934 -0.773029077400987 0.5138555187105338
0.1349933 -0.7680195855401313 0.520727625667773
0.1369932 -0.7634426434944717 0.5273700579280379
0.1389931 -0.7583346829195549 0.534366985054073
0.140993 -0.7534274722928973 0.5415556111495013
0.1429929 -0.7483200781756578 0.5474005113013698
0.1449928 -0.7441483549042095 0.5551347388730109
0.1469927 -0.7386845448474593 0.5620409021040901
0.1489926 -0.7338874301959979 0.5686240907852766
0.1509925 -0.7287593238327699 0.5746198778912759
0.1529924 -0.7238976509817288 0.5815092729234468
0.1549923 -0.7194040720991532 0.5882175889486465
0.1569922 -0.7138372739424339 0.5948089420904801
0.1589921 -0.7090738904595677 0.6008314863809384
0.160992 -0.7038738513507606 0.6072034116852292
0.1629919 -0.6983682062503562 0.6133531483760323
0.1649918 -0.6932235635311704 0.6193001280340493
0.1669917 -0.6880986918170682 0.6248887709774638
0.1689916 -0.6826713234593965 0.6311748250927317
0.1709915 -0.6775378877092809 0.6368617833208097
0.1729914 -0.6717473531705656 0.6425374967158939
0.1749913 -0.6660791161883596 0.6481151005897453
0.1769912 -0.6604917506407025 0.653960315150118
0.1789911 -0.6550467897886936 0.659147778287
0.180991 -0.6491682240944671 0.6647438861992537
0.1829909 -0.6430657724046798 0.6703152135125766
0.1849908 -0.6373611226177117 0.6757809377939802
0.1869907 -0.6314118392741388 0.68093589351778
0.1889906 -0.6250376927245573 0.6864369864207781
0.1909905 -0.6186571725736103 0.692027397155951
0.1929904 -0.6123723984971432 0.6969311522964668
0.1949903 -0.6061387255204381 0.7021677359145297
0.1969902 -0.5995104031089089 0.707709180735424
0.1989901 -0.5931115348250287 0.7130650279130176
0.20099 -0.5865578118907208 0.7183158739368118
0.2029899 -0.5803327569280536 0.7227114214738125
0.2049898 -0.5732600386837042 0.7276308761874113
0.2069897 -0.5668273215136524 0.733049984239155
0.2089896 -0.5604234833598053 0.7380720688280856
0.2109895 -0.5532975079559144 0.7430423930927297
0.2129894 -0.5464445310989012 0.7482603903054441
0.2149893 -0.5397492735593353 0.753096227718375
0.2169892 -0.5327388361022775 0.7580123678560633
0.2189891 -0.5259108406601638 0.7630168853497334
0.220989 -0.5189774539899398 0.7675860387130751
0.2229889 -0.5119047773026052 0.7719690723468474
0.2249888 -0.5044337357839149 0.7768124570066293
0.2269887 -0.49773674659535433 0.7811549362467587
0.2289886 -0.49062569578772014 0.7856001122308947
0.2309885 -0.4830838661516227 0.7903602984176966
0.2329884 -0.47578393891880205 0.7946711664846571
0.2349883 -0.46859712919890645 0.7991463511832841
0.2369882 -0.4615194278585922 0.8032771632928151
0.2389881 -0.45439245298820574 0.8079422044559151
0.240988 -0.44679014201399414 0.8117494066584371
0.2429879 -0.43940624962396047 0.8159000136974499
0.2449878 -0.43212339328526794 0.8202873879927264
0.2469877 -0.4247838941448023 0.8243722961178913
0.2489876 -0.41748380581965117 0.8287343876822612
0.2509875 -0.40989657891507625 0.8324214938331832
0.2529874 -0.4028848220620988 0.836643370285883
0.2549873 -0.3956257692927261 0.8409043617887677
0.2569872 -0.38821999911380245 0.8446290448684548
0.2589871 -0.38054210316948095 0.8482780926719515
0.260987 -0.37331560138922026 0.851987472640075
0.2629869 -0.3658080321170323 0.8557137336163576
0.2649868 -0.3584057111527983 0.8589154275732372
0.2669867 -0.3512444122231897 0.8620268966809934
0.2689866 -0.34336707651286913 0.8653411415673399
0.2709865 -0.33611182807512907 0.8684697554485483
0.2729864 -0.32869574817700625 0.8715575297033004
0.2749863 -0.32129934032245633 0.8745543921320554
0.2769862 -0.3140223434775315 0.877260654315134
0.2789861 -0.3064015137921765 0.8793882979081414
0.280986 -0.29874320548483463 0.8818249385715574
0.2829859 -0.29151077283197796 0.8841218039723344
0.2849858 -0.28333305379728424 0.8863907214286341
0.2869857 -0.27517940097144156 0.8883395134414749
0.2889856 -0.2675923235883023 0.8902128124284798
0.2909855 -0.25930874678368027 0.8923442936026459
0.2929854 -0.25152203695610237 0.8942868751735649
0.2949853 -0.24316017907539605 0.8957859727622866
0.2969852 -0.23456394832583238 0.8969996251623277
0.2989851 -0.22671634984202893 0.8983762371509167
0.300985 -0.21779887710240822 0.8997551277057712
0.3029849 -0.209091486627264 0.9010526447346645
0.3049848 -0.2005472724275023 0.9023111248456432
0.3069847 -0.1912710670971069 0.9031151517200537
0.3089846 -0.18205785220114726 0.9042425672825865
0.3109845 -0.17291420004702018 0.9056333150117535
0.3129844 -0.1638919969082919 0.9071178303938284
0.3149843 -0.15476065382859422 0.908275730667548
0.3169842 -0.14539411710162642 0.9092657602385644
0.3189841 -0.13590468587679597 0.9104686319300147
0.320984 -0.12645244660453875 0.911398902858617
0.3229839 -0.11719984299654274 0.9124590318707935
0.3249838 -0.10842382737353093 0.9131037318255679
0.3269837 -0.09898888386000798 0.9141618499289783
0.3289836 -0.08981504903240439 0.9153106354624736
0.3309835 -0.08041006145009505 0.9164449402856849
0.3329834 -0.07217994328608476 0.9181137818257469
0.3349833 -0.06280261417575593 0.9197042542251911
0.3369832 -0.054161598749194836 0.9219614343257362
0.3389831 -0.044861240328868665 0.9236267102585004
0.340983 -0.03597241688586211 0.9250583563224186
0.3429829 -0.027333010597143395 0.9268000006997094
0.3449828 -0.01868030389390961 0.9282395360581114
0.3469827 -0.00976874910398573 0.9296125501124188
0.3489826 -0.0015044270441618604 0.9305624222047622
0.3509825 0.0073808521201350445 0.931302849441719
0.3529824 0.0158731821924731 0.9320988316091243
0.3549823 0.024160146438534633 0.9329067206701914
0.3569822 0.03211257889277516 0.9331569005925441
0.3589821 0.04030307657356982 0.9334904757018755
0.360982 0.048170832798408156 0.9336764929029564
0.3629819 0.05612046602641324 0.9335103954176345
0.3649818 0.064123389817633 0.9326966454749241
0.3669817 0.07217123509465949 0.9316535418433664
0.3689816 0.08052734731431059 0.9310278325335674
0.3709815 0.08885821329120153 0.9299448650580364
0.3729814 0.09709508021073784 0.9286304377265303
0.3749813 0.1050507291008203 0.9271838624154037
0.3769812 0.11346457884791697 0.9256277672626109
0.3789811 0.1220333984485321 0.9246911578611692
0.380981 0.13052756593229917 0.9223672567347413
0.3829809 0.1395574718050975 0.9204251927543198
0.3849808 0.1480174383553511 0.9184649487348939
0.3869807 0.15714490189099609 0.9160872229827426
0.3889806 0.16631879896072668 0.9141911008073719
0.3909805 0.175658943385737 0.9114379866560456
0.3929804 0.18481844449102638 0.9094877526390686
0.3949803 0.19436585154275376 0.9071075752102579
0.3969802 0.20321541840654123 0.9052107282796604
0.3989801 0.21290552257719997 0.9029101368685375
0.40098 0.2222261091829924 0.9006247015222671
0.4029799 0.23146748960406666 0.898902177676211
0.4049798 0.2410347282217096 0.8964021347811439
0.4069797 0.2506388582657437 0.8941467902370589
0.4089796 0.2597321001084906 0.8922112083059871
0.4109795 0.26912138791115536 0.8901328718758554
0.4129794 0.2783336717366408 0.8878105969189634
0.4149793 0.2879469950882711 0.8857824860303088
0.4169792 0.29682915500130064 0.8837316649532545
0.4189791 0.3055640670852379 0.8814667336925653
0.420979 0.3143880190467247 0.878992252807121
0.4229789 0.3226532403543476 0.8770095382472621
0.4249788 0.3316533275603725 0.8745277109063659
0.4269787 0.33974662049570736 0.8721815107390443
0.4289786 0.3480744393725514 0.8696316011519316
0.4309785 0.35583794500484484 0.8666834622606626
0.4329784 0.3641617861810523 0.863775047265507
0.4349783 0.37248595128581147 0.8598865253358942
0.4369782 0.3797919523851574 0.8565883878772981
0.4389781 0.3877801863379039 0.8531998629480788
0.440978 0.3951587781055584 0.8491448535675169
0.4429779 0.402849199197403 0.8453261234518665
0.4449778 0.41081262956901393 0.8416457166844282
0.4469777 0.4186647113171926 0.8372124701806255
0.4489776 0.42626912296612723 0.8324646445373239
0.4509775 0.4338259835809696 0.8280335237853315
0.4529774 0.4419158044070284 0.822610192363594
0.4549773 0.4497764503894492 0.8181477988213341
0.4569772 0.4579548682497042 0.8127109596190369
0.4589771 0.4659263139084895 0.8073805539659987
0.460977 0.47426848852731135 0.8020952649861434
0.4629769 0.48269725555981147 0.7971430287491895
0.4649768 0.49087519141723024 0.7915598382612058
0.4669767 0.4992599799212122 0.7864124789464383
0.4689766 0.5073875249777187 0.7809450995174106
0.4709765 0.5157628022107325 0.775741452330246
0.4729764 0.5239914461243664 0.7701090128689271
0.4749763 0.532530133916879 0.7648876915601022
0.4769762 0.540707738032449 0.7596089332563437
0.4789761 0.5492358295463938 0.7537879360669543
0.480976 0.5574722940957292 0.7485811376161805
0.4829759 0.5661023517884973 0.743250657628878
0.4849758 0.5739399060073467 0.7379380806424397
0.4869757 0.581961353675459 0.7325588587140743
0.4889756 0.5902704102645653 0.7271197899601669
0.4909755 0.5977538408426716 0.7218544093942929
0.4929754 0.6055486742062822 0.7162623448789899
0.4949753 0.6128286694985464 0.7112731013969186
0.4969752 0.6198280445110429 0.7054088136513545
0.4989751 0.6270721013764814 0.700132280141381
0.500975 0.6336239435956711 0.6941514909921301
0.5029749 0.6403702506679143 0.6888341002770886
0.5049748 0.647289888744907 0.6828214426558189
0.5069747 0.6536689077852906 0.6770407160712768
0.5089746 0.6602286904888136 0.6709938268147833
0.5109745 0.6669943003716984 0.6650575826743601
0.5129744 0.6734703351071317 0.6583242832928191
0.5149743 0.6790239649817996 0.6521722046490087
0.5169742 0.6851007369107809 0.6454424464217657
0.5189741 0.6912215765972087 0.6385875163953292
0.520974 0.6973591439005563 0.6316132879738587
0.5229739 0.7034505574394271 0.6236918557623549
0.5249738 0.7092178413329305 0.6169861727681393
0.5269737 0.7156192760544009 0.6097056959464477
0.5289736 0.7209531804555872 0.6019125406910861
0.5309735 0.7266981339503791 0.5945455010561722
0.5329734 0.7322232406081386 0.5862802166394748
0.5349733 0.7377397792380674 0.5782018018851565
0.5369732 0.7436108707877865 0.5705549569495398
0.5389731 0.7496991341045697 0.5624527204511177
0.540973 0.7554393160321284 0.5541047236773446
0.5429729 0.7611388546759427 0.5459975870580474
0.5449728 0.7670127702175038 0.5378695360115042
0.5469727 0.7728490936633008 0.529723130646848
0.5489726 0.7785114761157859 0.5219067447473005
0.5509725 0.7839294792838104 0.5135073430545779
0.5529724 0.7898759128171271 0.5051479467431385
0.5549723 0.7953444894076449 0.4969579659311688
0.5569722 0.8007574711039928 0.48910673636319474
0.5589721 0.8061580471057843 0.48067429025381603
0.560972 0.8116531921281125 0.4727434432310773
0.5629719 0.816825119038834 0.4646090710457865
0.5649718 0.822259436866071 0.456242482153806
0.5669717 0.8269303579486381 0.4481770375974772
0.5689716 0.8321235604887698 0.44037061450333487
0.5709715 0.8361432843446789 0.4319803014464011
0.5729714 0.8407958334998687 0.4242049450627231
0.5749713 0.8451375535054284 0.41555026213911017
0.5769712 0.8496322415012486 0.4072587596514765
0.5789711 0.8537945466008993 0.39901497171012734
0.580971 0.8581687380053983 0.3906724350055909
0.5829709 0.8613913936846348 0.3825751060463827
0.5849708 0.8652310156160038 0.3738359660848468
0.5869707 0.8689649197149691 0.3653815900499097
0.5889706 0.8726970509405325 0.35637051892175553
0.5909705 0.875784405061747 0.3475740370610837
0.5929704 0.8790398287188528 0.3383392909588613
0.5949703 0.8822729348023761 0.3290006442000941
0.5969702 0.8855962431628519 0.32027650559411514
0.5989701 0.8889912586984078 0.31116100051624984
0.60097 0.8914298554923789 0.3022480494188952
0.6029699 0.8941626423970513 0.292632910183099
0.6049698 0.8972765708192412 0.2831261788001569
0.6069697 0.8999065431964961 0.27402741701996375
0.6089696 0.9027148416911673 0.2643933965408103
0.6109695 0.9056389251364071 0.255121494842715
0.6129694 0.9079287192226277 0.2453346412374115
0.6149693 0.9106017745058407 0.23618068794404845
0.6169692 0.913289952952054 0.22643442528634555
0.6189691 0.9154581606027226 0.21722413347152286
0.620969 0.9179059420518834 0.2071924111088458
0.6229689 0.9199393141205813 0.1980381357518727
0.6249688 0.9221340087487552 0.1885523098111818
0.6269687 0.9243341195116986 0.1789578084730532
0.6289686 0.9262558884139644 0.16927629101909883
0.6309685 0.9282673336254202 0.16038591010011888
0.6329684 0.9298547159556168 0.1508968296186871
0.6349683 0.9314610256108303 0.14108117221842872
0.6369682 0.9329817304684167 0.13188134082254274
0.6389681 0.934235331691601 0.12277131575944183
0.640968 0.9358054821749792 0.11289369501933265
0.6429679 0.9369466285652153 0.10361815879799077
0.6449678 0.9376621539065627 0.09429476290090397
0.6469677 0.938823447042392 0.08505950277928913
0.6489676 0.9396605577217318 0.07520163784033657
0.6509675 0.9401574343732643 0.06568710164565389
0.6529674 0.9408248358526233 0.056300868163196155
0.6549673 0.9414195427993586 0.04672140383593369
0.6569672 0.9417698279337221 0.03683875203024328
0.6589671 0.9420848917404361 0.02720760827440062
0.660967 0.9422066878857034 0.017807292708625085
0.6629669 0.9421933209934814 0.008382688534475352
0.6649668 0.9421417938007197 -0.001549770263192446
0.6669667 0.9419570070683974 -0.011472645377949287
0.6689666 0.9417376218201893 -0.020801027489914845
0.6709665 0.941560294523564 -0.030778042067398897
0.6729664 0.9412981734793311 -0.040398645208255035
0.6749663 0.9408231148961548 -0.05002799610439031
0.6769662 0.9401664586513516 -0.05977434909085072
0.6789661 0.9397382007893358 -0.06960556626170639
0.680966 0.9389555452887274 -0.0790833744362221
0.6829659 0.9384113275143875 -0.08835971438760865
0.6849658 0.9372362563925705 -0.09798787976297607
0.6869657 0.9362184134975684 -0.10748587304807446
0.6889656 0.9353790367017831 -0.1169839982349419
0.6909655 0.934011672315614 -0.12616102086596975
0.6929654 0.9327779603295442 -0.1357894611216626
0.6949653 0.9312290981002331 -0.1448029261343366
0.6969652 0.9297496046396222 -0.15414539383249026
0.6989651 0.9282634291253344 -0.16348853702552377
0.700965 0.9265509090046918 -0.1725529185588197
0.7029649 0.9245985109111483 -0.18138576921805855
0.7049648 0.9228080357516393 -0.1910431998969816
0.7069647 0.9202990292266201 -0.20004459381634399
0.7089646 0.9180643816082755 -0.20903444453620154
0.7109645 0.9154978644811612 -0.21787314734073712
0.7129644 0.9129173312397891 -0.22732142812802736
0.7149643 0.9104291600599148 -0.236305580244362
0.7169642 0.9078440042020782 -0.24560424923357552
0.7189641 0.9050929908454043 -0.2545323354857381
0.720964 0.9021157293065667 -0.26403329135897013
0.7229639 0.8987875112073415 -0.273080797272112
0.7249638 0.8958278862511563 -0.2821702277533956
0.7269637 0.8932806171715518 -0.29156376002698875
0.7289636 0.8899317075841479 -0.30044697791977054
0.7309635 0.8865221195491809 -0.3101432297172824
0.7329634 0.8833000075859578 -0.31920147621960154
0.7349633 0.8804042375586141 -0.32849858096914475
0.7369632 0.8765587987826315 -0.33777051189434226
0.7389631 0.8736625299433337 -0.34689235409850994
0.740963 0.8703429388018104 -0.35623195114896117
0.7429629 0.8670599297909527 -0.3646369758075756
0.7449628 0.8639597983296241 -0.37362352567149637
0.7469627 0.8601517791023553 -0.38245915742209813
0.7489626 0.8567467275812135 -0.3910175085276563
0.7509625 0.8529514933108614 -0.40004257174887725
0.7529624 0.8491880118242481 -0.4081470115220447
0.7549623 0.8455335488326474 -0.41628392373023654
0.7569622 0.8416152900167108 -0.4248276495945116
0.7589621 0.8381320549176206 -0.4326550539430857
0.760962 0.8338227648193558 -0.44054119770463007
0.7629619 0.8302297745560732 -0.44837132747586445
0.7649618 0.8256621215089645 -0.4557952835711486
0.7669617 0.8215623449520468 -0.4634731519211157
0.7689616 0.8169228463069532 -0.4709521591294187
0.7709615 0.8126510108076338 -0.47880966066844205
0.7729614 0.8075618317695082 -0.4860621001818282
0.7749613 0.8026969068846279 -0.4934551373401319
0.7769612 0.797247594935828 -0.5003949890954111
0.7789611 0.7919712945835651 -0.5074609356887673
0.780961 0.7867303903518472 -0.5146823933784184
0.7829609 0.7808189972680952 -0.5219144483574667
0.7849608 0.7750097294783513 -0.5294348280100654
0.7869607 0.7693152794039534 -0.5364591992995301
0.7889606 0.7632664270688747 -0.5437104130868307
0.7909605 0.7568276582431939 -0.5507099361881579
0.7929604 0.7507684089978302 -0.5582383188280282
0.7949603 0.7447338758602613 -0.5655175715092555
0.7969602 0.7381597270880236 -0.5727666728080345
0.7989601 0.731728788450808 -0.5801494127418126
0.80096 0.7256830032425696 -0.5883909251088882
0.8029599 0.7195206914891598 -0.5959143719894904
0.8049598 0.7127985541736822 -0.6034420114662983
0.8069597 0.7068674942861678 -0.6114719589233207
0.8089596 0.700554950165649 -0.6188250769052541
0.8109595 0.6943626810332909 -0.6269367005100767
0.8129594 0.6887001843899309 -0.6342835199965086
