! Created with skrf 1.8.0 (http://scikit-rf.org).
# GHz S RI R 50.0 
!freq ReS11 ImS11
0.001 -0.9635336098071342 0.05429427162743494
0.0029999 -0.9604126223923837 0.011947988860460335
0.0049998 -0.9374164205396107 0.016749694733948134
0.0069997 -0.9387795765400975 0.029459978892193928
0.0089996 -0.9407796400711244 0.03234504864738491
0.0109995 -0.9392171807151173 0.04002502255759588
0.0129994 -0.9393817586487556 0.047254781279883584
0.0149993 -0.9392182013669013 0.0547848933713847
0.0169992 -0.9385466670396463 0.06183171884758498
0.0189991 -0.9381719631703375 0.06764951275986808
0.020999 -0.9375497049451241 0.0744357302837782
0.0229989 -0.936643028891789 0.08105430489656557
0.0249988 -0.935639667206411 0.08771722214061445
0.0269987 -0.9346071554792457 0.09459190850142044
0.0289986 -0.9336641766062042 0.10134513356671025
0.0309985 -0.9325317867406413 0.10782824944590305
0.0329984 -0.9315366633253748 0.11478427089731852
0.0349983 -0.9303807735883514 0.12126091009504475
0.0369982 -0.9291045953139929 0.12772253932313127
0.0389981 -0.9278137197449406 0.13439549336910606
0.040998 -0.9265394714908215 0.14106981679779396
0.0429979 -0.9247511278518357 0.14762623029057437
0.0449978 -0.9232200420897383 0.1538368051821814
0.0469977 -0.9220498517494691 0.160162660601881
0.0489976 -0.9198369752205477 0.16719652670669422
0.0509975 -0.9182991779132609 0.1736609160165019
0.0529974 -0.9167966553152085 0.18066347272928762
0.0549973 -0.9143558236920274 0.18770614149059117
0.0569972 -0.9130477941304973 0.19397420376931557
0.0589971 -0.9114845809693435 0.20067843099639904
0.060997 -0.9097571996695462 0.20773752242297272
0.0629969 -0.9079487029678629 0.21401843673015772
0.0649968 -0.9059230158737392 0.22080319919286465
0.0669967 -0.9050330817996903 0.22786059515597454
0.0689966 -0.9030812636135228 0.23373058245931122
0.0709965 -0.9013330590180276 0.24041702212876553
0.0729964 -0.8988504167679985 0.24744911194059332
0.0749963 -0.8973624420351642 0.2534996180243918
0.0769962 -0.8960829641657583 0.26001203591595556
0.0789961 -0.8940613299826513 0.265895130239952
0.080996 -0.8919395217894616 0.2725309758550793
0.0829959 -0.8899699350773455 0.2789838646370972
0.0849958 -0.8883187387000344 0.28491816037043227
0.0869957 -0.8865601011891177 0.291193303578725
0.0889956 -0.8844171456129443 0.29686349538324686
0.0909955 -0.8822440394158746 0.30286928806982527
0.0929954 -0.8796984280074405 0.3088367403414537
0.0949953 -0.8773354399688387 0.31502958752981786
0.0969952 -0.8749914344385472 0.32083791676781537
0.0989951 -0.8723580740478605 0.3269056616583764
0.100995 -0.8709735016610674 0.333375274120444
0.1029949 -0.868516496300484 0.3393540272822244
0.1049948 -0.865760814853852 0.34502254653927905
0.1069947 -0.8629701689680909 0.3504927337906405
0.1089946 -0.8600622426455586 0.3563574377615424
0.1109945 -0.857101874088809 0.36223888593476
0.1129944 -0.8542673673121683 0.3678495803854442
0.1149943 -0.8509695052851101 0.3735321406207216
0.1169942 -0.847856428727394 0.3795303223524139
0.1189941 -0.8444434086414118 0.385344304398435
0.120994 -0.8412847105080086 0.391433595928034
0.1229939 -0.8379838143887715 0.3973345531434318
0.1249938 -0.8348952137358059 0.40299252861907753
0.1269937 -0.8315641521594619 0.4090433354501446
0.1289936 -0.8287206214249381 0.4152182771113809
0.1309935 -0.8250963036398723 0.42108746761038024
0.1329934 -0.8216169558857214 0.42714179179039347
0.1349933 -0.8182340101276825 0.43344746821889407
0.1369932 -0.8151423978697363 0.438628564676247
0.1389931 -0.8114672817323161 0.4444033069054489
0.140993 -0.8082897505808913 0.45031355110086774
0.1429929 -0.8045256241792034 0.45622539360371717
0.1449928 -0.8019898635515856 0.46265187086428383
0.1469927 -0.7984526195894874 0.4682337966745277
0.1489926 -0.7951133928400695 0.47414035862612813
0.1509925 -0.7916395629288431 0.4790910352167585
0.1529924 -0.7880454867059971 0.48556068112365747
0.1549923 -0.7851479632652354 0.491443046963759
0.1569922 -0.7813340475772956 0.4967956402042687
0.1589921 -0.7780458673942008 0.5024058813815282
0.160992 -0.7742442492897954 0.5078520408330416
0.1629919 -0.7708296891839496 0.5133520188905891
0.1649918 -0.7675468190421906 0.5186910164634299
0.1669917 -0.7635305120131635 0.523884637468707
0.1689916 -0.7602651583986889 0.5287383227290651
0.1709915 -0.7561959510664652 0.5342681043332118
0.1729914 -0.7524790686539079 0.5393849337190393
0.1749913 -0.7485734937680236 0.544394837512014
0.1769912 -0.7447083883374754 0.5493546459509617
0.1789911 -0.7408949767342492 0.5545174562373316
0.180991 -0.7366753551386925 0.5595044951610673
0.1829909 -0.7328400131961607 0.5647229629375025
0.1849908 -0.7287983495484733 0.5697653632962545
0.1869907 -0.7245075834440959 0.5744018197306588
0.1889906 -0.7203527921609416 0.5797361093024135
0.1909905 -0.7160462315829763 0.5846124537351907
0.1929904 -0.7117188443629193 0.5895342635542846
0.1949903 -0.7072009777205319 0.5943611973783338
0.1969902 -0.702682164723162 0.5993020667245967
0.1989901 -0.6982173046141058 0.6041728122913393
0.20099 -0.6939059042354685 0.609427885512377
0.2029899 -0.6894416048824926 0.61431072998298
0.2049898 -0.6849136040593293 0.6182713525346337
0.2069897 -0.6803064870829519 0.623460574597352
0.2089896 -0.67561163422432 0.628587588669978
0.2109895 -0.6711675999867792 0.633085585841
0.2129894 -0.6659929210343114 0.6382805039726717
0.2149893 -0.6615384568734818 0.6432521530981062
0.2169892 -0.6569041083928985 0.647751804277812
0.2189891 -0.6518962145257278 0.6525251432021487
0.220989 -0.6472437019157864 0.6575332657661906
0.2229889 -0.6425143607698911 0.6619159817192463
0.2249888 -0.6373174464514011 0.6663471043240521
0.2269887 -0.6327209250442172 0.6706666725720903
0.2289886 -0.6275383328327755 0.6754197993990538
0.2309885 -0.6226676227449398 0.6802238306706012
0.2329884 -0.617575977953575 0.6846095128092593
0.2349883 -0.6122888451721276 0.6889804598636247
0.2369882 -0.6074276400026605 0.6935515154192102
0.2389881 -0.6025777268434587 0.6981202288210785
0.240988 -0.5972888147306088 0.7022203302973872
0.2429879 -0.5918565430210406 0.7067633623937495
0.2449878 -0.587014429852017 0.7109754966841355
0.2469877 -0.5817602040249543 0.7153853271712999
0.2489876 -0.5769404801820964 0.7201517476795134
0.2509875 -0.5718707913981769 0.7242624906584851
0.2529874 -0.5665799091488557 0.7284681888534233
0.2549873 -0.5618170788594967 0.7329818764099671
0.2569872 -0.5569450293572845 0.7372058487718057
0.2589871 -0.551590132815163 0.7413009843888383
0.260987 -0.5465293553594914 0.7453641468735314
0.2629869 -0.5414564193227654 0.7494321408943562
0.2649868 -0.5361838085725763 0.7534217411519296
0.2669867 -0.5310925539105367 0.7568759943832996
0.2689866 -0.5259499357689688 0.7606930913715119
0.2709865 -0.5209010634293669 0.764453224599951
0.2729864 -0.5156449968432548 0.7682268201554776
0.2749863 -0.5105196650592458 0.7716362107275071
0.2769862 -0.5054392919581518 0.7750847346045638
0.2789861 -0.500166471401877 0.7785493273190578
0.280986 -0.4946115828115237 0.78139008419285
0.2829859 -0.48952894315565426 0.7842149141718984
0.2849858 -0.48351655371626134 0.7874514538748075
0.2869857 -0.4781318018668099 0.7905046767851311
0.2889856 -0.4721971315183943 0.7932881299054955
0.2909855 -0.466317577701866 0.796311519346744
0.2929854 -0.4605476898733152 0.7994596021839142
0.2949853 -0.45461538066549384 0.8022326570304904
0.2969852 -0.44859370818531624 0.8046858329052395
0.2989851 -0.4423124505461948 0.807169178220694
0.300985 -0.4359735161386761 0.8095756720192981
0.3029849 -0.4293146881405236 0.8124123205424911
0.3049848 -0.4231749573106347 0.815067929995868
0.3069847 -0.4164623607562717 0.8175073172223952
0.3089846 -0.40968646809484943 0.8201422249213325
0.3109845 -0.4028291704598055 0.8226919076986492
0.3129844 -0.39588393463296834 0.8255230227485079
0.3149843 -0.3893195456646038 0.8280786814720328
0.3169842 -0.382556371224077 0.8310418894292156
0.3189841 -0.37562260309094037 0.8333999423480791
0.320984 -0.3683208240378333 0.8358169607468786
0.3229839 -0.3613774690649829 0.8390075003186463
0.3249838 -0.35493284094303007 0.8415798286106508
0.3269837 -0.3478439250238651 0.8443744075652047
0.3289836 -0.3410139562159851 0.8468243411705265
0.3309835 -0.33442356282247976 0.8500135033365841
0.3329834 -0.3280139091768173 0.8531852675399992
0.3349833 -0.32136000313001983 0.856315843717567
0.3369832 -0.31535006603089144 0.8596680390052704
0.3389831 -0.3087154502276568 0.8630611922714146
0.340983 -0.30253769260343777 0.8664076290538174
0.3429829 -0.2965018913237809 0.8700335137898102
0.3449828 -0.2905856800349798 0.872948802894199
0.3469827 -0.28400427133694783 0.8759247095455269
0.3489826 -0.27833476468880963 0.8787352008442326
0.3509825 -0.27199317153055846 0.8815694697885534
0.3529824 -0.26584662959761546 0.884179861948025
0.3549823 -0.25995971806588253 0.8867504991128777
0.3569822 -0.2542857345614199 0.8888558045568429
0.3589821 -0.24834757459033174 0.8912463320131847
0.360982 -0.24274066161050317 0.8931691981035854
0.3629819 -0.2366008871036 0.8950990227744025
0.3649818 -0.23084965488917605 0.8963994314998915
0.3669817 -0.22453342628932338 0.8976733349738029
0.3689816 -0.21825694481181573 0.8991376055011169
0.3709815 -0.2118542855378049 0.9000532158557099
0.3729814 -0.20578415351947113 0.901031895906028
0.3749813 -0.19961665514837268 0.9021896204389156
0.3769812 -0.1930869061910235 0.9030152624516173
0.3789811 -0.186661875778428 0.9039115700270348
0.380981 -0.17978607282033188 0.9041960558015422
0.3829809 -0.17278834030677387 0.9055241353678286
0.3849808 -0.16585911750106755 0.9060475450360372
0.3869807 -0.15872228368833563 0.906396890227921
0.3889806 -0.15163141083620563 0.9069644809420764
0.3909805 -0.143819308774477 0.9075333793049667
0.3929804 -0.13635059723202747 0.9087514444653231
0.3949803 -0.1286488655937158 0.9092479330509068
0.3969802 -0.12163917248151414 0.9102632012627353
0.3989801 -0.11398996743876674 0.9106694875126604
0.40098 -0.10633573706459308 0.9117421923697581
0.4029799 -0.09887440513620434 0.9125794227187004
0.4049798 -0.09117449741716566 0.9136881010619785
0.4069797 -0.08390162731477799 0.9149954864966661
0.4089796 -0.0763853225361201 0.9158004574943354
0.4109795 -0.06909710487686896 0.9166839250739247
0.4129794 -0.061668269844744564 0.9183868941481239
0.4149793 -0.053963993999122904 0.9192915918103912
0.4169792 -0.046877067327131754 0.9203242812054927
0.4189791 -0.039822907544978664 0.9215298575692662
0.420979 -0.03312602752144394 0.9221299768315961
0.4229789 -0.026102247135696692 0.9231708316009507
0.4249788 -0.019217636141442982 0.9243697425969731
0.4269787 -0.012795056144379304 0.9250026235657199
0.4289786 -0.0061978666020595236 0.9255944213783819
0.4309785 0.0001857542083924437 0.9260060178557384
0.4329784 0.006659788119890465 0.9262595192918227
0.4349783 0.013716997184834854 0.9257892629513824
0.4369782 0.020074391452409326 0.9254394658832303
0.4389781 0.026325725206134035 0.9253574235187702
0.440978 0.03277291335194775 0.9250321251580986
0.4429779 0.03897441959290533 0.924333684873313
0.4449778 0.04571284266755306 0.9236043846344
0.4469777 0.05200140288505114 0.9225575834840176
0.4489776 0.05944851774109284 0.9222408534187109
0.4509775 0.06627415754516713 0.9212370844650218
0.4529774 0.07307621472721393 0.9192299804991195
0.4549773 0.08034661736183404 0.9181621397503098
0.4569772 0.08775965496156453 0.9167943636307776
0.4589771 0.09470309783018137 0.915218949748694
0.460977 0.10291395632392125 0.9141508649530975
0.4629769 0.1102347454144779 0.9129570784765101
0.4649768 0.11801784942723714 0.9118087637470056
0.4669767 0.1258428040670831 0.9103122078779685
0.4689766 0.13335729798285564 0.9086093810454524
0.4709765 0.14075548038753594 0.9078262133857491
0.4729764 0.14900542290104954 0.9067536810844434
0.4749763 0.15681034146362907 0.9057867467837426
0.4769762 0.16429201883747818 0.9044950891962321
0.4789761 0.17256788644058774 0.9033531119080357
0.480976 0.1801237602847674 0.9028912588769064
0.4829759 0.1881802967855422 0.9021397155366846
0.4849758 0.19565861368063447 0.9009551302047571
0.4869757 0.20321846051738185 0.8999352103197117
0.4889756 0.21081058925226118 0.8993533056138917
0.4909755 0.2184770563293419 0.8985314102700684
0.4929754 0.22546584482006304 0.8973076837262733
0.4949753 0.23235330876130422 0.8966151213733142
0.4969752 0.23913816541323898 0.8953455453283524
0.4989751 0.24604057350891356 0.8941542088199126
0.500975 0.2521067050233906 0.8925461136691052
0.5029749 0.25904442399140964 0.8913384780160453
0.5049748 0.26530745931294764 0.8899825663175147
0.5069747 0.2714030610754077 0.8881028456297754
0.5089746 0.27796121361211007 0.8861474893912843
0.5109745 0.2845304003394405 0.8850552952261939
0.5129744 0.29114318451027615 0.8830382643433441
0.5149743 0.29679017747475 0.8807185642541847
0.5169742 0.3027795255900517 0.8778306483397087
0.5189741 0.3095340430409024 0.8752485921239868
0.520974 0.31594915746896346 0.872458888042855
0.5229739 0.3232235553173268 0.8694258899023731
0.5249738 0.32923213811346713 0.8668903609584034
0.5269737 0.3360441958061713 0.8635296918414074
0.5289736 0.3424041901625824 0.8602784264598646
0.5309735 0.3488930723466464 0.8570325461464923
0.5329734 0.3558108077591009 0.8534212836328277
0.5349733 0.36260882656478416 0.8498005790164619
0.5369732 0.36916753690431214 0.8460592345158444
0.5389731 0.37650268634154355 0.8426010407918392
0.540973 0.3830836972402791 0.8385497642963254
0.5429729 0.3902465537226043 0.8353164837325406
0.5449728 0.39761300527583676 0.8318314626520927
0.5469727 0.40492521044788693 0.8279754319473166
0.5489726 0.41216105707229933 0.8249854926495648
0.5509725 0.4192925350645669 0.8213562478835308
0.5529724 0.4268172071283486 0.8180036435635926
0.5549723 0.433694470958685 0.8147178881796399
0.5569722 0.4409992832814288 0.8112161037119725
0.5589721 0.44834482118260877 0.8081677128983211
0.560972 0.45554652659196515 0.8051176034341454
0.5629719 0.4625313331481874 0.8019051102762731
0.5649718 0.4696875484231854 0.7986722855317457
0.5669717 0.4763723870734974 0.7954462102378378
0.5689716 0.4827872772808483 0.7923031963296083
0.5709715 0.4891119683576546 0.7888100169474183
0.5729714 0.49482170415179194 0.7856448409477939
0.5749713 0.5012582431308459 0.7819403831307309
0.5769712 0.507410243604389 0.7782130568600443
0.5789711 0.5136308158750177 0.7748401867668949
0.580971 0.5193723346074517 0.7715774863275653
0.5829709 0.5252583574375842 0.7678703224195002
0.5849708 0.5308141483777356 0.7638436511476354
0.5869707 0.5369315146086431 0.7598653715797261
0.5889706 0.5423263597751512 0.7553655443096019
0.5909705 0.5481132487726482 0.7506990344187043
0.5929704 0.5535109986460867 0.7459324442773512
0.5949703 0.5591186947140316 0.7410834964385346
0.5969702 0.5650075233873239 0.7368184959525647
0.5989701 0.5707289918505831 0.7318571477045772
0.60097 0.5760535876958189 0.726794361764616
0.6029699 0.5820530497589442 0.7212347544275003
0.6049698 0.5876942599522266 0.7160571054132188
0.6069697 0.593147228515676 0.7108130992019772
0.6089696 0.599372655238211 0.7055638385289218
0.6109695 0.6053064477571843 0.7001986435914294
0.6129694 0.6110704373826162 0.6944259169567077
0.6149693 0.6174488767714835 0.6895469965548489
0.6169692 0.6234794029432696 0.6838288992282262
0.6189691 0.6294772909366165 0.6785721348586634
0.620969 0.6354787019945376 0.6730725185089691
0.6229689 0.6415790754417876 0.6675337396575803
0.6249688 0.6474571214365367 0.6622054593534441
0.6269687 0.6537913561189129 0.6567459307676997
0.6289686 0.659413083409993 0.65157723728714
0.6309685 0.6656948443295153 0.6466036801792228
0.6329684 0.6709882422529239 0.6419759047962359
0.6349683 0.6767131678926924 0.6364165900106546
0.6369682 0.6816388563447807 0.6312707760508097
0.6389681 0.6872942843866728 0.6257728657695202
0.640968 0.6929557333517065 0.6209547401544186
0.6429679 0.6981616923748052 0.6159176582258624
0.6449678 0.7032053002827303 0.6109573110191366
0.6469677 0.7083807107514706 0.6056316482212035
0.6489676 0.7129620924789511 0.6004156406833995
0.6509675 0.7174293931771498 0.5952276766715092
0.6529674 0.7224071331517805 0.5896466620208695
0.6549673 0.726999787243523 0.5843982413346944
0.6569672 0.730971964255108 0.5787890122076635
0.6589671 0.7357965867610755 0.5729104989819188
0.660967 0.739928514307778 0.5669074454136839
0.6629669 0.7441293829903113 0.5611323089660033
0.6649668 0.7479835249840308 0.5546668687575236
0.6669667 0.7519315369761379 0.5481853565891479
0.6689666 0.7561933235740953 0.5418984275584804
0.6709665 0.7602559063559394 0.5350615073402134
0.6729664 0.7642030496076829 0.5285851428279056
0.6749663 0.7677202782856278 0.5215259405677916
0.6769662 0.7719436255710176 0.5146393807497068
0.6789661 0.7761418730747665 0.507728086153627
0.680966 0.7799061836518345 0.5008548984352736
0.6829659 0.784325050565865 0.49357692898757916
0.6849658 0.7884000462956381 0.4865966631387558
0.6869657 0.7928315812180732 0.47961911449589945
0.6889656 0.7970194048929662 0.47210296767880233
0.6909655 0.8009611197345586 0.4652174381728118
0.6929654 0.8054800024765386 0.45840260083431666
0.6949653 0.8092711096371434 0.4514358546837228
0.6969652 0.8137983412603723 0.4440432998324283
0.6989651 0.8177534511881822 0.4373416492881717
0.700965 0.821802685536809 0.4304417942609754
0.7029649 0.8253667302196104 0.42334804480918087
0.7049648 0.8298574679819766 0.4169477469252426
0.7069647 0.8332827382122013 0.41005028223498946
0.7089646 0.8375389322194986 0.40294694790355085
0.7109645 0.841173324062575 0.3967271327480494
0.7129644 0.844597720991673 0.3899619850656961
0.7149643 0.847878486420888 0.38355162584702157
0.7169642 0.8513718124431646 0.37675644081860304
0.7189641 0.8541160169897416 0.3702933331122797
0.720964 0.8574075524776296 0.3633781138836784
0.7229639 0.8601052958781564 0.35639708580750684
0.7249638 0.8632647877912627 0.34956782989320645
0.7269637 0.8661370407755532 0.3429415781669231
0.7289636 0.8686155348337498 0.33566059944733245
0.7309635 0.8712667427886301 0.32941507014693605
0.7329634 0.8741530535141592 0.3217790001549927
0.7349633 0.876146763691501 0.31480912827521146
0.7369632 0.8785724082370971 0.30753625411169205
0.7389631 0.8803871984651787 0.30033862936577066
0.740963 0.8830958559688199 0.29314295627624476
0.7429629 0.8850011693304582 0.28516994445360944
0.7449628 0.887374846869279 0.27775614420172323
0.7469627 0.8889875270480807 0.26974999224468066
0.7489626 0.891202895765404 0.2620562983548488
0.7509625 0.8935278962470595 0.25419542179897975
0.7529624 0.8951818279853582 0.24668338461425396
0.7549623 0.8969187771903258 0.23899533450835958
0.7569622 0.8992538091985659 0.23110206798064056
0.7589621 0.9007628865457967 0.2231793893141727
0.760962 0.9028600418164385 0.2151351531539982
0.7629619 0.904878561080166 0.20766762131351335
0.7649618 0.9063676944341544 0.1998636001257485
0.7669617 0.9084303635747659 0.19198488618797693
0.7689616 0.9098883491051939 0.18424310884496614
0.7709615 0.911652285641502 0.17638768576787808
0.7729614 0.9131490131903136 0.16885132196021113
0.7749613 0.9149003878107708 0.16114952401164914
0.7769612 0.9165263097509666 0.15355638587634995
0.7789611 0.9179707666573463 0.14577758004889785
0.780961 0.9193972207941751 0.13825797769627637
0.7829609 0.9206161568324405 0.13084788199772915
0.7849608 0.9214723868060036 0.12339227756753854
0.7869607 0.9225039775063417 0.11582622111833138
0.7889606 0.9235847884493305 0.10790972837701991
0.7909605 0.9242696184026707 0.10064627363063643
0.7929604 0.9255098554462985 0.09340484785027708
0.7949603 0.9262625388129557 0.0853853984911917
0.7969602 0.9267931048839382 0.07783192950743059
0.7989601 0.9274372968738458 0.07026037410631363
0.80096 0.9280949904262853 0.06268443051214038
0.8029599 0.9282828131182118 0.054953778739732236
0.8049598 0.9285694799111881 0.04706435472326802
0.8069597 0.9286720803274633 0.03959036903490824
0.8089596 0.9288991556515735 0.03187635498898718
0.8109595 0.9295058872880858 0.023926935896077917
0.8129594 0.9290381373268957 0.01588631654712497
0.8149593 0.9293594270085718 0.008135531442090402
