! Created with skrf 1.8.0 (http://scikit-rf.org).
# GHz S RI R 50.0 
!freq ReS11 ImS11
0.001 -1.0963647738144529 0.22271857740336198
0.0029999 -0.9681897764157055 0.06223248975959095
0.0049998 -0.9583308133915143 0.0387907300320961
0.0069997 -0.9507770352982392 0.036529140865207144
0.0089996 -0.9463505448635203 0.03986704246861539
0.0109995 -0.9446355567958691 0.044878486039089394
0.0129994 -0.9431939331043154 0.05056836496634598
0.0149993 -0.9426465412653425 0.05784856803333405
0.0169992 -0.9417396869829189 0.06333487237077495
0.0189991 -0.9412857957815683 0.06874609826461464
0.020999 -0.9404523450735223 0.07505433933916006
0.0229989 -0.9394948230866895 0.08141163245690114
0.0249988 -0.9383646058835491 0.08780680355539175
0.0269987 -0.9372568291276112 0.09448121917635964
0.0289986 -0.9362380444313104 0.10109061521218235
0.0309985 -0.9350292776561208 0.10744322935662565
0.0329984 -0.9340342412300237 0.11434860946393904
0.0349983 -0.932861561421576 0.12067367480014929
0.0369982 -0.9315656258409526 0.12722818581364675
0.0389981 -0.930254860590289 0.13380783052616202
0.040998 -0.9290576211440135 0.14048835538791793
0.0429979 -0.9272433855227585 0.14718162734738655
0.0449978 -0.9256336305754063 0.15333320258681898
0.0469977 -0.9242729373887917 0.15998535883424642
0.0489976 -0.9223290019073442 0.16675863817782077
0.0509975 -0.9208031426360385 0.17311982217943928
0.0529974 -0.9190374503117619 0.1800542430530302
0.0549973 -0.9164601715923064 0.1883063704001588
0.0569972 -0.9155739228426452 0.19366873976969834
0.0589971 -0.9140341274908209 0.20032721026929168
0.060997 -0.9124400057629438 0.20747342655561907
0.0629969 -0.9106631944444039 0.2136181160086282
0.0649968 -0.9086178920388177 0.22029197909172551
0.0669967 -0.9077422169184447 0.22755209581281477
0.0689966 -0.9056875601975897 0.23327372012146044
0.0709965 -0.9041988444637821 0.240058604394998
0.0729964 -0.9017550381555111 0.2470259140810777
0.0749963 -0.9002765858187932 0.25299605343017467
0.0769962 -0.8990085266860652 0.2595622465778593
0.0789961 -0.8970058133387782 0.2653299388766191
0.080996 -0.8949306171009157 0.27190373146331587
0.0829959 -0.892822552344053 0.27825044227455303
0.0849958 -0.8913566930678601 0.28401003308529404
0.0869957 -0.8895836487040297 0.2902083517866725
0.0889956 -0.8875536527791353 0.29588843629623224
0.0909955 -0.8853415827285955 0.30171957141040406
0.0929954 -0.8828889744927498 0.307662386966046
0.0949953 -0.8804245157542724 0.3138108077246001
0.0969952 -0.8782736900666956 0.3194774453888276
0.0989951 -0.8754146741048318 0.325596229095924
0.100995 -0.8742420725002968 0.3317726511883907
0.1029949 -0.8718076245021213 0.33763145432982633
0.1049948 -0.8690802071019343 0.34325518529001514
0.1069947 -0.8662888017906092 0.34876313326574737
0.1089946 -0.8633556169434505 0.3545103662514883
0.1109945 -0.860433622029612 0.36030520502262003
0.1129944 -0.857578751838161 0.3658176041604851
0.1149943 -0.8543440651297505 0.3714906844609684
0.1169942 -0.8512912025141275 0.3774315951159082
0.1189941 -0.8478862006459463 0.38317752697061536
0.120994 -0.8448760145682033 0.3890296013423069
0.1229939 -0.841606259070859 0.3951800684817873
0.1249938 -0.8383601424609739 0.4008537529879263
0.1269937 -0.8351209386542363 0.40686030416381624
0.1289936 -0.832307296170033 0.41302897082933654
0.1309935 -0.8288058206862459 0.4187606776341756
0.1329934 -0.8252320328415547 0.42498227399853306
0.1349933 -0.8219998852232018 0.43090527958295294
0.1369932 -0.8188378307344042 0.43629945260420294
0.1389931 -0.8152434292087822 0.4426069210759491
0.140993 -0.8121501639683331 0.44830444082442544
0.1429929 -0.808539967310508 0.45423725889001343
0.1449928 -0.8057891579304741 0.4605648401343596
0.1469927 -0.8021360249042194 0.4664004222776545
0.1489926 -0.7990734076406021 0.47195353556657704
0.1509925 -0.7955142034068945 0.4768597613820209
0.1529924 -0.791926169557287 0.4833585820252079
0.1549923 -0.7890159527033792 0.48939684050687876
0.1569922 -0.7853726013599885 0.4944948357353138
0.1589921 -0.7821135004412381 0.50007833101675
0.160992 -0.7785634508600235 0.5054641306704768
0.1629919 -0.7750096092334422 0.5107789284275387
0.1649918 -0.7719689376029355 0.5160931435243176
0.1669917 -0.7676701760050807 0.5213919512051379
0.1689916 -0.7643075361767478 0.5265096583980896
0.1709915 -0.7605785477752067 0.5318061321632147
0.1729914 -0.7568184016618388 0.5369078981961671
0.1749913 -0.7530122817549474 0.5418468363617754
0.1769912 -0.7493075213783074 0.5468159780914204
0.1789911 -0.7455069963356381 0.5519400221876616
0.180991 -0.7413166968870724 0.5568048122682829
0.1829909 -0.7375169648463307 0.5618467393110397
0.1849908 -0.7335955792854745 0.5669154663273406
0.1869907 -0.7294225757187103 0.5716538651583996
0.1889906 -0.7251436016210486 0.5769368312706635
0.1909905 -0.7209226953081004 0.5817752665092206
0.1929904 -0.7165938386807946 0.5867161261426302
0.1949903 -0.7121984227737501 0.5913901054231081
0.1969902 -0.7078207666660407 0.59639940073013
0.1989901 -0.7033105700464629 0.601304597897898
0.20099 -0.6990728850038794 0.606349395896185
0.2029899 -0.6945861937468532 0.6109900232087683
0.2049898 -0.6900746381702981 0.6156612747245759
0.2069897 -0.6855383079936808 0.6204860835982224
0.2089896 -0.6807336531421329 0.6256977408666037
0.2109895 -0.6765537248124647 0.6300789785428477
0.2129894 -0.6713944010328711 0.6352685788255086
0.2149893 -0.6670267901061981 0.6400417485225419
0.2169892 -0.662474521800031 0.6447428299981888
0.2189891 -0.6575284165984455 0.6493953722910889
0.220989 -0.6529945671403303 0.6544724223405759
0.2229889 -0.6481241748642593 0.6584860463465385
0.2249888 -0.6430105529117358 0.6633172440637418
0.2269887 -0.6382963875560896 0.6676420359836388
0.2289886 -0.6331000162888795 0.6724947306055578
0.2309885 -0.6283866736382357 0.6771048454773736
0.2329884 -0.623519805634327 0.6814123587369633
0.2349883 -0.6180923761072923 0.6860154657682529
0.2369882 -0.6132567680961718 0.6905699904351489
0.2389881 -0.6085550211862629 0.695108137612938
0.240988 -0.6032183248889488 0.6993381556587243
0.2429879 -0.5977923747759666 0.7038435596384423
0.2449878 -0.592924795016464 0.7080405228452026
0.2469877 -0.5878028915087474 0.7125434581839392
0.2489876 -0.5831050824992094 0.7171217141495736
0.2509875 -0.5780074578215675 0.7211688026529987
0.2529874 -0.5728253139014231 0.7255498067280756
0.2549873 -0.5680974374234193 0.7301437748835039
0.2569872 -0.5632527896977163 0.7342406418966542
0.2589871 -0.5579081642478487 0.7383717764744244
0.260987 -0.5529049524812762 0.7425439292841214
0.2629869 -0.5479156272084368 0.7465727376608944
0.2649868 -0.542725791504236 0.750388834979549
0.2669867 -0.5377673467510669 0.7539665298029274
0.2689866 -0.5326274927704364 0.7578671690116657
0.2709865 -0.5279894059717762 0.7614460827872853
0.2729864 -0.5224893076309539 0.7653719639280816
0.2749863 -0.5176508078637798 0.7687268844621321
0.2769862 -0.5125331626426273 0.7722440976823953
0.2789861 -0.5074401491584356 0.7755727963303732
0.280986 -0.5019458819401368 0.7782719175223419
0.2829859 -0.4969586230145311 0.7812638992613241
0.2849858 -0.490904958600192 0.7845842453429148
0.2869857 -0.4851905510938791 0.7875539267162717
0.2889856 -0.4796099984740291 0.7903742135776337
0.2909855 -0.4739675447471595 0.7933404824205059
0.2929854 -0.46826155614587384 0.7964934209104119
0.2949853 -0.4622343250876544 0.7993411541702609
0.2969852 -0.4562516108469787 0.8017378631879654
0.2989851 -0.4503813682890501 0.8041612762953515
0.300985 -0.4437491467178745 0.8065252066894346
0.3029849 -0.4370983546288893 0.8094364766316061
0.3049848 -0.43100518668794885 0.8122897217691809
0.3069847 -0.42429574280697907 0.8145201643982053
0.3089846 -0.41759423722595357 0.8172614574391392
0.3109845 -0.41107794860633506 0.8196412129736409
0.3129844 -0.40388122727751746 0.822552218464009
0.3149843 -0.3970723321081432 0.825339731375873
0.3169842 -0.3903214057597907 0.8282109445664894
0.3189841 -0.38366886793217514 0.8307338975340748
0.320984 -0.3766613764442192 0.8331995479743052
0.3229839 -0.36948110998230466 0.8364913813174542
0.3249838 -0.36286706974676763 0.8390619236300133
0.3269837 -0.3560683233415033 0.84188692712269
0.3289836 -0.3494024201505297 0.8443823039642151
0.3309835 -0.3426697677125007 0.8475965545929887
0.3329834 -0.3363510098663363 0.8507548344938058
0.3349833 -0.3296785471175725 0.8541122179768872
0.3369832 -0.3237476551564092 0.8574153296606153
0.3389831 -0.3177019470003868 0.8608463879791459
0.340983 -0.31133009088560687 0.8644574575900098
0.3429829 -0.3051600366593783 0.8681709810083649
0.3449828 -0.2993673215479189 0.8711571215943167
0.3469827 -0.2929233671160125 0.8742832755483063
0.3489826 -0.28708698681670847 0.8771952653460748
0.3509825 -0.28087957042415157 0.8800227437176719
0.3529824 -0.27487070329103114 0.8828319721609645
0.3549823 -0.26900412206958246 0.8852717938938769
0.3569822 -0.263592505351369 0.8875317326650193
0.3589821 -0.25774932519513444 0.8898370903630356
0.360982 -0.25194557295225245 0.8919677594902484
0.3629819 -0.24594301668191382 0.8937673646124455
0.3649818 -0.24048114515535393 0.8951225635337408
0.3669817 -0.23410972273041822 0.8961024863475471
0.3689816 -0.22792790296835402 0.8978805481909018
0.3709815 -0.22166248997090016 0.8987379409483711
0.3729814 -0.21548349148871013 0.9000148722154602
0.3749813 -0.20959854296372313 0.9010102172982127
0.3769812 -0.20300822017927744 0.9017996795078916
0.3789811 -0.1966242650502827 0.9028156867441193
0.380981 -0.18973987282113763 0.9031975169494584
0.3829809 -0.18282660700716769 0.9043355769588244
0.3849808 -0.17563984831011767 0.9050537554566738
0.3869807 -0.16872148718534902 0.9053449943552412
0.3889806 -0.16169356210972327 0.906055557814513
0.3909805 -0.15396832821160475 0.9065464240992264
0.3929804 -0.1462069357116947 0.9079805586401286
0.3949803 -0.13840895429551894 0.9083695818769189
0.3969802 -0.13128542512775726 0.9092892858179815
0.3989801 -0.12402733968111011 0.9100185643468622
0.40098 -0.11635338052096918 0.9110362819362471
0.4029799 -0.10895910277800201 0.9120043167434788
0.4049798 -0.10125232919725882 0.9131787183827236
0.4069797 -0.09393764088027837 0.9145251120498549
0.4089796 -0.08640066402877068 0.915532073426982
0.4109795 -0.07911389167781768 0.916440223704627
0.4129794 -0.07159605655273052 0.918258995272855
0.4149793 -0.06407352474562504 0.9192676927303538
0.4169792 -0.05695026080912536 0.9204258742570115
0.4189791 -0.05009804808176063 0.9216925344913883
0.420979 -0.04334228443992867 0.9223420373046466
0.4229789 -0.036638819266087766 0.9234879879401501
0.4249788 -0.029442671052080358 0.9247749442788987
0.4269787 -0.023204166578122562 0.9254702096260126
0.4289786 -0.01678932269554239 0.9261704571186536
0.4309785 -0.01025993752740114 0.9265252859239175
0.4329784 -0.0037428544042536795 0.9270086893428298
0.4349783 0.0030891730062767575 0.9264814202710949
0.4369782 0.009460385185243881 0.9262967215627972
0.4389781 0.015639067952122433 0.9263445135779691
0.440978 0.022088155562326225 0.9260747329407873
0.4429779 0.02825841787408684 0.9253583524886346
0.4449778 0.034977213158453466 0.9246779290859325
0.4469777 0.041654147368114174 0.9239364415560734
0.4489776 0.048579207588454916 0.9233008884473602
0.4509775 0.05536351349851962 0.9225654186906997
0.4529774 0.06254474424841268 0.9205941379580549
0.4549773 0.06957666751347791 0.9196135666834989
0.4569772 0.07705078447030057 0.91821448146924
0.4589771 0.0840574206406618 0.9168955689241848
0.460977 0.09220809284006198 0.9157738804133807
0.4629769 0.09953066211346234 0.9145886026151426
0.4649768 0.10704071563386369 0.913611353237694
0.4669767 0.11527096129166929 0.9120909728318737
0.4689766 0.122530066922248 0.9106980813038278
0.4709765 0.1302698313609648 0.9096808133728959
0.4729764 0.1382804373771571 0.9086773607221476
0.4749763 0.1462409501435838 0.9079705018233108
0.4769762 0.15415233900240555 0.9069511224133553
0.4789761 0.16196556467007817 0.9054812349305679
0.480976 0.1696150985194947 0.9053346181879242
0.4829759 0.17774142932787124 0.9047610446911328
0.4849758 0.18517864555993568 0.9036622178548774
0.4869757 0.19290200101152233 0.9026852489775227
0.4889756 0.2003062286884824 0.9022344972958988
0.4909755 0.20801771409147965 0.901447430575009
0.4929754 0.21511525494984776 0.9005242414884151
0.4949753 0.22191942835805856 0.8997952537788649
0.4969752 0.2287259352526964 0.8985194300277239
0.4989751 0.23572598981076362 0.8975278030675582
0.500975 0.24160247020772552 0.8960314626127255
0.5029749 0.248552245671097 0.8947219830998804
0.5049748 0.2547960945285208 0.8935960922439208
0.5069747 0.2608825184286354 0.8917576685795761
0.5089746 0.267321549809039 0.8899821237096126
0.5109745 0.27394759467210744 0.8887564147648873
0.5129744 0.2804173980225958 0.8869629810149176
0.5149743 0.28621349829421733 0.8846528423495439
0.5169742 0.2920944680627816 0.8818678789849369
0.5189741 0.29902863589313494 0.879394610153064
0.520974 0.30570449217073103 0.8768613332042796
0.5229739 0.31261693392503265 0.8737890345059862
0.5249738 0.3188976733270115 0.8712553808602831
0.5269737 0.3253948381705527 0.8678932643305137
0.5289736 0.3320074063132246 0.8647678703060323
0.5309735 0.3386408320281168 0.8616473195134713
0.5329734 0.3455192824414739 0.8578567036828612
0.5349733 0.35227405708578197 0.854412998202531
0.5369732 0.35898704030118855 0.8507345628520816
0.5389731 0.3665932422256453 0.8473532253265342
0.540973 0.3731743402577738 0.843337944734056
0.5429729 0.3806242790094822 0.8402241332823819
0.5449728 0.3879334743380357 0.8366252661287359
0.5469727 0.3950353249474943 0.8330904000060904
0.5489726 0.40266037494945106 0.8298441211976938
0.5509725 0.4100646952598496 0.8264307379917971
0.5529724 0.41734462310297055 0.8230848038379794
0.5549723 0.42439273196491417 0.8197814273820341
0.5569722 0.4317557306494545 0.8164111655174292
0.5589721 0.4392370333347741 0.8133291670336712
0.560972 0.44646418493025286 0.8104343889840404
0.5629719 0.4530453914050693 0.8071708747545474
0.5649718 0.4606249732462121 0.804177853283208
0.5669717 0.46732876935443446 0.801069130975768
0.5689716 0.47384935863846117 0.7980549064203509
0.5709715 0.4800668274476041 0.794743775200766
0.5729714 0.48596421168291803 0.7915155848662988
0.5749713 0.49250700813146103 0.7879594992019376
0.5769712 0.49878302400931096 0.7843202318059179
0.5789711 0.5048027790382226 0.781017074516916
0.580971 0.5106414107595765 0.777694356823832
0.5829709 0.5163233961393031 0.7741384574408093
0.5849708 0.5223339532945739 0.7701719513895291
0.5869707 0.528233389435404 0.7661814845107507
0.5889706 0.5336683045211995 0.7618828530077717
0.5909705 0.5395247110395639 0.7571153321870554
0.5929704 0.5450419821021054 0.7523542838764503
0.5949703 0.5507428633441535 0.7476024024719216
0.5969702 0.5568319952657005 0.7429796772022792
0.5989701 0.5625181709927674 0.7381535167460843
0.60097 0.5679403454869886 0.7332116395898505
0.6029699 0.5739157277778305 0.7277985590838597
0.6049698 0.5795558732396051 0.7225773385600013
0.6069697 0.5851052833336141 0.7174593577116506
0.6089696 0.5913044503478152 0.7122139359189092
0.6109695 0.5973019623572706 0.706999300880575
0.6129694 0.6034477525644399 0.7010765898744613
0.6149693 0.6097377969946999 0.6960921964811307
0.6169692 0.615988744223895 0.690660348940527
0.6189691 0.6220531488507829 0.6854134621919485
0.620969 0.628515361877808 0.6796573311828343
0.6229689 0.634384210997533 0.6744280330696274
0.6249688 0.6402329519964153 0.6691812512653542
0.6269687 0.646827837429688 0.6637879953593095
0.6289686 0.6524334591282601 0.658571416692741
0.6309685 0.6587048379819758 0.6535855142998882
0.6329684 0.6642212863119683 0.6489849338369058
0.6349683 0.6698774759319992 0.6436746416842912
0.6369682 0.6751289476721748 0.638311391179259
0.6389681 0.680730374641273 0.6330304302624318
0.640968 0.6867138293680477 0.6281754137189155
0.6429679 0.6916943665719983 0.6233546062022466
0.6449678 0.6972967486465961 0.6182641868297393
0.6469677 0.702134846543573 0.6131077350788473
0.6489676 0.7070864601858735 0.6076796033218558
0.6509675 0.711614189227871 0.6025354372199666
0.6529674 0.716398598635886 0.5972811461816933
0.6549673 0.7210129593851707 0.591873826692245
0.6569672 0.7250547691664057 0.5863413159535981
0.6589671 0.729884735767636 0.5805001772638186
0.660967 0.7341651968845078 0.5744796328097461
0.6629669 0.7382385015427361 0.5686867128829781
0.6649668 0.7420252064493932 0.562266828205265
0.6669667 0.7462561868777563 0.5556340088906813
0.6689666 0.750581472393923 0.5495195545275849
0.6709665 0.7549187830672317 0.5424856774864113
0.6729664 0.7586995181893494 0.5361553404633214
0.6749663 0.7624100490073425 0.528894524721827
0.6769662 0.7668347670999792 0.521972931501929
0.6789661 0.7708035018623043 0.515099491055255
0.680966 0.7748084016248247 0.5078937181316173
0.6829659 0.7793925698931871 0.500803361573163
0.6849658 0.78352118012997 0.4938996613666412
0.6869657 0.7881410589009147 0.48677973138772146
0.6889656 0.7924752192485757 0.47930690800328657
0.6909655 0.7963106285098815 0.4724450061898304
0.6929654 0.801150171565951 0.4654834710510228
0.6949653 0.8051380533200065 0.4586300742058066
0.6969652 0.809771415423111 0.4511400105174603
0.6989651 0.8138003881432907 0.4445054346542365
0.700965 0.8179920575071106 0.4372919153241041
0.7029649 0.8217894663956664 0.4304183710600788
0.7049648 0.826270689953483 0.4239494117813429
0.7069647 0.829692201385525 0.4170975240238128
0.7089646 0.8342750782096982 0.40991822101112785
0.7109645 0.8378355639116318 0.40365252187086575
0.7129644 0.8413708378760167 0.39689737927675645
0.7149643 0.8446852716650406 0.3904938549772199
0.7169642 0.8482280500740229 0.3838330267456881
0.7189641 0.8511378662608061 0.3772312645141554
0.720964 0.854450616452635 0.37025190336669306
0.7229639 0.8572988138673102 0.36330647085707546
0.7249638 0.8602940889843245 0.3567802790630807
0.7269637 0.8634617019926017 0.34957550966139744
0.7289636 0.8661126657063558 0.3424515018351212
0.7309635 0.8686670944196898 0.33597284453425974
0.7329634 0.871679222818465 0.3284489484301082
0.7349633 0.8737070661075006 0.32149883578495175
0.7369632 0.8761837645420735 0.31416321630816946
0.7389631 0.878062751837836 0.3067240357228794
0.740963 0.880532198917631 0.29982141766831494
0.7429629 0.8828021864326789 0.29180177842598043
0.7449628 0.8849565870605385 0.2842637651425818
0.7469627 0.8868153928514507 0.2763916317688122
0.7489626 0.8890729306897308 0.2684074408311281
0.7509625 0.891463400163853 0.2606454659898598
0.7529624 0.8932650891203505 0.2529786522271274
0.7549623 0.8951027870431563 0.24523700802766607
0.7569622 0.8975730697996258 0.23737309403832763
0.7589621 0.8990274787574132 0.2292354342447982
0.760962 0.9013791815108495 0.2211822035451744
0.7629619 0.9032620753682754 0.2136798758165887
0.7649618 0.9049238024647772 0.20560511989506303
0.7669617 0.907071569975182 0.19776341233927738
0.7689616 0.908589884621868 0.18977437566052718
0.7709615 0.9104626478319803 0.1819730709995564
0.7729614 0.9119118274284475 0.1743346733258746
0.7749613 0.9136378724692688 0.16647191106999362
0.7769612 0.9155213341556465 0.15910833980732247
0.7789611 0.917011059163521 0.1510763371675733
0.780961 0.9185157632792873 0.14335898914866868
0.7829609 0.9197127383137212 0.1359099844857911
0.7849608 0.920678644689308 0.12861158718651064
0.7869607 0.9217907917856789 0.12091153721946588
0.7889606 0.9229744543840142 0.11291752071274971
0.7909605 0.9236235821210851 0.10546146282267602
0.7929604 0.9250283236429402 0.09807365144075081
0.7949603 0.9258822386863852 0.0900138191395051
0.7969602 0.926515789907562 0.082530206601244
0.7989601 0.9269278525215099 0.07512833607327704
0.80096 0.9277544928398241 0.06714324724968099
0.8029599 0.9279865309233 0.059226002441202304
0.8049598 0.9284730314237479 0.05150307409944484
0.8069597 0.9285240499999013 0.04388184391555869
0.8089596 0.9289459477383673 0.035801339545111936
0.8109595 0.929323317754408 0.02777289438439346
0.8129594 0.9289457894750413 0.019832506555436443
0.8149593 0.9293610771061115 0.011955571064769136
0.8169592 0.9291686385990975 0.003589686198804263
