! Created with skrf 1.8.0 (http://scikit-rf.org).
# GHz S RI R 50.0 
!freq ReS11 ImS11
0.001 -0.8637297363097476 -0.03435610099961123
0.0029999 -0.9486323325946314 -0.02934089212303992
0.0049998 -0.9434726496706882 0.004193108682700009
0.0069997 -0.94284448260499 0.01573662424377542
0.0089996 -0.9415803078513656 0.029974450234553307
0.0109995 -0.9417598184628625 0.03925552844747571
0.0129994 -0.9407194678742035 0.048782019102427965
0.0149993 -0.9413120031084716 0.05731787919387432
0.0169992 -0.9405835423545087 0.06503492811056055
0.0189991 -0.9406678923148188 0.0719381237977108
0.020999 -0.9399087139977262 0.07944704854950724
0.0229989 -0.9391500752439135 0.08660790667944296
0.0249988 -0.9379721697252241 0.09398852458528811
0.0269987 -0.9368747268210498 0.1013949591555984
0.0289986 -0.935827286258984 0.10859669424213676
0.0309985 -0.934543640053774 0.11556064184274281
0.0329984 -0.9335024384548134 0.12297488663554121
0.0349983 -0.9321231278346012 0.1300103549784491
0.0369982 -0.9306765000364987 0.1368928702222505
0.0389981 -0.9291507607415654 0.14419295169040308
0.040998 -0.927839436951805 0.15113251728375077
0.0429979 -0.9258446885203171 0.15819047889596544
0.0449978 -0.9241240525683501 0.1648141257723213
0.0469977 -0.9224367694137493 0.17191889321950976
0.0489976 -0.9203201660281184 0.17921261852768727
0.0509975 -0.9186020308505212 0.18608363447673992
0.0529974 -0.9166703722214964 0.1940352144697579
0.0549973 -0.9139380025354802 0.20160077132169996
0.0569972 -0.912543970400667 0.20811443361608273
0.0589971 -0.9108870291333034 0.21528383966660883
0.060997 -0.9089237934389223 0.22278854888973376
0.0629969 -0.9068346811064134 0.22963658401751286
0.0649968 -0.9045026676480035 0.23665722224270258
0.0669967 -0.9034630467861464 0.2444175700070483
0.0689966 -0.9012401956824846 0.2506210206485485
0.0709965 -0.8991941704308324 0.25830747326532233
0.0729964 -0.8965903305636121 0.2655363318322578
0.0749963 -0.8949150706334666 0.27198858537282483
0.0769962 -0.8934163321836507 0.27914299966564127
0.0789961 -0.891197203584055 0.2856382894164728
0.080996 -0.8886905989421261 0.2926318136238924
0.0829959 -0.8863329303260233 0.2996096454683425
0.0849958 -0.8844018477707686 0.30590929202150696
0.0869957 -0.8823759343465407 0.31268855110884974
0.0889956 -0.879972332951645 0.31916425543672267
0.0909955 -0.8774793787802657 0.3251913655917855
0.0929954 -0.8746416850000934 0.3314922660399495
0.0949953 -0.8719372982806584 0.3382515574143434
0.0969952 -0.8693227609973198 0.34454471218486515
0.0989951 -0.8662361645804267 0.3509471669070975
0.100995 -0.8646684128679609 0.3579648365264145
0.1029949 -0.8619082638751872 0.3644749947695674
0.1049948 -0.858854279922555 0.37049000446662034
0.1069947 -0.8554681972883921 0.37619370469992186
0.1089946 -0.8522603904781334 0.3824016405483887
0.1109945 -0.8488482743187258 0.388674288785387
0.1129944 -0.8455898229399192 0.3945909772041889
0.1149943 -0.8418192026844458 0.400732935511485
0.1169942 -0.8383518626261179 0.40711614640433014
0.1189941 -0.8344760438303239 0.4132105403081215
0.120994 -0.8309058933139963 0.4196982380919688
0.1229939 -0.8271502551231886 0.42596175638488587
0.1249938 -0.82356379288298 0.4323254537112988
0.1269937 -0.8198042866678338 0.43838036276844106
0.1289936 -0.8163225368487811 0.44525498333609637
0.1309935 -0.8123813667185664 0.451116710903873
0.1329934 -0.8085459564533137 0.45788711479375643
0.1349933 -0.8047421732104797 0.4638175370890032
0.1369932 -0.8010286388677988 0.4697673321740834
0.1389931 -0.7970215271975424 0.47622359114677554
0.140993 -0.7933504854723258 0.48239391325919634
0.1429929 -0.789121978879084 0.4886769970578283
0.1449928 -0.7859175403504536 0.4953960768428356
0.1469927 -0.7819228646682042 0.5012808358404888
0.1489926 -0.7779983346252894 0.5073825049524814
0.1509925 -0.7739171420544482 0.5130820500739752
0.1529924 -0.7699742561405063 0.5192953559742877
0.1549923 -0.7666839645205483 0.5254557544721774
0.1569922 -0.7621913144595294 0.5313488529489286
0.1589921 -0.7584576165321686 0.5373275469782149
0.160992 -0.7542348168661053 0.5431025458116083
0.1629919 -0.7500393858862429 0.5489304119621171
0.1649918 -0.746236607955583 0.5544444496998633
0.1669917 -0.7418718064471528 0.559790413782574
0.1689916 -0.7376559275106656 0.5655394219892318
0.1709915 -0.7335142336772186 0.5709800364195229
0.1729914 -0.7289796260348523 0.5764096110406084
0.1749913 -0.7243121089104517 0.5817439565035321
0.1769912 -0.720330339768726 0.5871891819947146
0.1789911 -0.7156193116034295 0.5922718692638862
0.180991 -0.7109900190793327 0.5975502384853416
0.1829909 -0.7062700727480921 0.6028817843079962
0.1849908 -0.7016450119798899 0.6081374049488365
0.1869907 -0.6967842752118576 0.6131336046461664
0.1889906 -0.6919670189378399 0.6187144731343178
0.1909905 -0.6868683807155509 0.6237138453827424
0.1929904 -0.6819824737283963 0.6287958659110463
0.1949903 -0.6769360292240819 0.633934264818399
0.1969902 -0.6717383141453179 0.6388967910355201
0.1989901 -0.6664629732364905 0.644335336311208
0.20099 -0.6613260407425998 0.6494450428201679
0.2029899 -0.6563379582127231 0.6540493415382738
0.2049898 -0.6509705463953112 0.6589518064805122
0.2069897 -0.6460702388299623 0.6638021541993285
0.2089896 -0.6404859166750486 0.6691392367295164
0.2109895 -0.6353290618631855 0.674016136861454
0.2129894 -0.6295596057918731 0.6790048111637813
0.2149893 -0.6243832117381094 0.6840336428872299
0.2169892 -0.6187329678122765 0.6890163560209066
0.2189891 -0.6133932659213913 0.6939541803031708
0.220989 -0.6081838249294862 0.6985526510271798
0.2229889 -0.6023743829431483 0.7028348193620628
0.2249888 -0.596533973586729 0.7077234856876846
0.2269887 -0.5908870267091033 0.7120879130253729
0.2289886 -0.5852882118741725 0.7168655640541772
0.2309885 -0.5796303767524281 0.7217924925884068
0.2329884 -0.5734291405631822 0.7262532018613592
0.2349883 -0.56790689327632 0.7307753368553219
0.2369882 -0.5620024338321847 0.7352285563138875
0.2389881 -0.5565951436089575 0.7400053953900547
0.240988 -0.5505275758780277 0.744010506085166
0.2429879 -0.5442706898469785 0.7485911815046452
0.2449878 -0.5386226703410454 0.7529486719949039
0.2469877 -0.5327929638226244 0.7573352108159098
0.2489876 -0.5272807743145904 0.7620222068972614
0.2509875 -0.5208137551687545 0.7661953395390583
0.2529874 -0.5152848639406563 0.7705178302849685
0.2549873 -0.5095726871880105 0.7749468985113852
0.2569872 -0.5038547283824152 0.7792316090339415
0.2589871 -0.49755239086265113 0.783367847393051
0.260987 -0.4916412548900429 0.7875069378511556
0.2629869 -0.4862081723750061 0.7915061698878423
0.2649868 -0.4801432123425594 0.7951148658753605
0.2669867 -0.4742556835024126 0.7987367238389691
0.2689866 -0.4682930749527019 0.8023001538099351
0.2709865 -0.46256031007558335 0.8061798910210004
0.2729864 -0.45654217309312395 0.8097658525851835
0.2749863 -0.4503146421269801 0.8131239684092602
0.2769862 -0.4449838293918553 0.816618652252446
0.2789861 -0.4387799171042681 0.8193149216971842
0.280986 -0.43273166675889335 0.8220537662556131
0.2829859 -0.42663019238329125 0.8250477191635468
0.2849858 -0.42009438800706517 0.8279249572120279
0.2869857 -0.41382495696759514 0.8308594479044223
0.2889856 -0.4072309725450997 0.8333364742137688
0.2909855 -0.40070221078764073 0.8358939764789356
0.2929854 -0.39408018807790685 0.8389463986003157
0.2949853 -0.3873069960634485 0.8414142725718698
0.2969852 -0.38039956427684407 0.843648898972271
0.2989851 -0.3734634828390998 0.8457624962180704
0.300985 -0.3662956768858616 0.8482341728465902
0.3029849 -0.35888272985383896 0.8501197197930757
0.3049848 -0.35196000183319204 0.8526435966862754
0.3069847 -0.34430609458399347 0.8544393417405698
0.3089846 -0.3360840900974774 0.8568305457718485
0.3109845 -0.32913066549127823 0.8588125550856105
0.3129844 -0.32088818531970575 0.8615279888661037
0.3149843 -0.3134639326501297 0.8638139964546123
0.3169842 -0.30576441070584 0.8661290374943359
0.3189841 -0.2975551039550153 0.8684335924374603
0.320984 -0.28970111263173415 0.870810296569982
0.3229839 -0.28173157628473666 0.87273283768381
0.3249838 -0.2741883933289666 0.8751508806349404
0.3269837 -0.2664137595685392 0.877310617242889
0.3289836 -0.25873947039337053 0.8795926551889907
0.3309835 -0.2507948684465954 0.8823553606927306
0.3329834 -0.24372093892118737 0.884839784063459
0.3349833 -0.2363807985973497 0.8878764936207085
0.3369832 -0.22935744280514186 0.890779541349861
0.3389831 -0.2219584945831486 0.8938749639585848
0.340983 -0.21473561062039864 0.896695139007373
0.3429829 -0.20777696410757912 0.9001052404660297
0.3449828 -0.20058933214859204 0.9024759580364543
0.3469827 -0.1938764616850901 0.9053738075685759
0.3489826 -0.18673462510036326 0.9073785516902146
0.3509825 -0.17972353814306705 0.9100160998439885
0.3529824 -0.17285513812147613 0.9123280136328967
0.3549823 -0.16607009904198533 0.9143828243698784
0.3569822 -0.1593412183137124 0.9160417462826624
0.3589821 -0.1529468632694576 0.91766288687293
0.360982 -0.14631568898706787 0.9191912679628931
0.3629819 -0.13952492981590628 0.9205727137476394
0.3649818 -0.1329889779481136 0.921467296891019
0.3669817 -0.12602542521874507 0.9218435123213066
0.3689816 -0.11917612387738358 0.9226501334934062
0.3709815 -0.11196316580634341 0.9231618217470393
0.3729814 -0.10492195674990376 0.923625712484208
0.3749813 -0.0981154432817104 0.9237543324971405
0.3769812 -0.09103252047036814 0.9239315642730476
0.3789811 -0.0836015872129097 0.9240401984201991
0.380981 -0.07616235408261386 0.9242317174137145
0.3829809 -0.06860473585026572 0.9241003221858031
0.3849808 -0.06076303198025283 0.9240010121547485
0.3869807 -0.05296978195547037 0.9236838407432478
0.3889806 -0.044615406639007205 0.9233405333949652
0.3909805 -0.03647019018450153 0.9234080714258448
0.3929804 -0.02806133172435447 0.923183080708918
0.3949803 -0.01988718679145283 0.9228711248028567
0.3969802 -0.011816589310465121 0.9230313752039878
0.3989801 -0.0036367770491171694 0.9229648062282603
0.40098 0.005239234230871512 0.9227099826164734
0.4029799 0.013019899914756158 0.92321970929913
0.4049798 0.02156483358562369 0.9231674690047091
0.4069797 0.029894019725071778 0.923349742054788
0.4089796 0.037867933090500364 0.9232142149464393
0.4109795 0.04644971280506965 0.9237542844503703
0.4129794 0.05444838787541474 0.9240199349493872
0.4149793 0.06346844760573359 0.9240157376957306
0.4169792 0.07084118786771249 0.9244375963224366
0.4189791 0.07864739822637291 0.9243606605351573
0.420979 0.08631820234769744 0.9243035439950892
0.4229789 0.09418048502042396 0.9244313761082241
0.4249788 0.10166016692810831 0.9245917759579974
0.4269787 0.10890376451139176 0.9242533157779715
0.4289786 0.11603990379485227 0.9239547775519441
0.4309785 0.12319368205726908 0.9235222344620876
0.4329784 0.13063523089613438 0.9229293037915596
0.4349783 0.1383404434323247 0.9211426890449971
0.4369782 0.144777980889723 0.9199978105197473
0.4389781 0.15220822432639763 0.9192646150020993
0.440978 0.15900399150829825 0.9175555311383006
0.4429779 0.16606913703053824 0.9159639712789929
0.4449778 0.17322982864763214 0.9142298616987445
0.4469777 0.18070708591816825 0.9124346077884395
0.4489776 0.18809928439962412 0.9107755795180432
0.4509775 0.19555183838367132 0.9082363533685825
0.4529774 0.20275293164248573 0.9053893981500183
0.4549773 0.21054037500803358 0.903061975702158
0.4569772 0.21830351967590897 0.9004116792377677
0.4589771 0.2264685909824236 0.8979068580051245
0.460977 0.23441218344463957 0.895299036138098
0.4629769 0.2426351734041397 0.8931182449554104
0.4649768 0.2508774662880337 0.8904694352049455
0.4669767 0.2588802517680039 0.8877195826050736
0.4689766 0.2669874931487478 0.885162316522115
0.4709765 0.2753506294474836 0.8826899541334327
0.4729764 0.2837463748621292 0.8801728581147124
0.4749763 0.2920864235205101 0.8778786780460907
0.4769762 0.3001555185272463 0.8751820196363135
0.4789761 0.3086377744924512 0.8729321104704593
0.480976 0.31716432413502454 0.8710119197276183
0.4829759 0.3253983681553192 0.8686847117766732
0.4849758 0.33349176341178366 0.8661195821596157
0.4869757 0.34133595899422964 0.8638919499728145
0.4889756 0.34968016396636575 0.8616167992590881
0.4909755 0.35751989436336107 0.8592927270182082
0.4929754 0.3652445608856754 0.8570291715638694
0.4949753 0.37256720533361215 0.8548164442857301
0.4969752 0.3798834195672909 0.8520773495667566
0.4989751 0.38688160387825843 0.8497586667086169
0.500975 0.39379262055495434 0.8469077387253352
0.5029749 0.40090522600162803 0.8441605727538201
0.5049748 0.40743889561398255 0.8414534568809992
0.5069747 0.41390376716940397 0.8381038777604621
0.5089746 0.4209697353117955 0.835498863256674
0.5109745 0.4278792827501415 0.8326257840825968
0.5129744 0.43481559959480093 0.8288964546908797
0.5149743 0.44048692067984563 0.8255047063369807
0.5169742 0.4469822237072413 0.8210124597758321
0.5189741 0.45366403646288433 0.8171881512732954
0.520974 0.4605987847921018 0.8130445033990589
0.5229739 0.4676254019956838 0.8082294620784004
0.5249738 0.4738415552780215 0.8040890974628028
0.5269737 0.4808296396192632 0.7995903879450814
0.5289736 0.48719644405127444 0.7947777945981791
0.5309735 0.4936718192704715 0.7902391853363954
0.5329734 0.5002892030042204 0.7850830356130147
0.5349733 0.5068405333992746 0.7792128984027878
0.5369732 0.513693269815522 0.7747425952867928
0.5389731 0.5207667983036153 0.7695359970421508
0.540973 0.5274150992489217 0.764218682216856
0.5429729 0.5346281242147274 0.7591961598427215
0.5449728 0.5420807771987959 0.7542290343900581
0.5469727 0.5490980249164565 0.7490909348111363
0.5489726 0.5562383266615805 0.7438854893773045
0.5509725 0.5633790079464829 0.7386758544766474
0.5529724 0.5703027834010919 0.7337623476444651
0.5549723 0.5776299207218656 0.72864740001721
0.5569722 0.5845677021180055 0.7235728922520828
0.5589721 0.5917012685163772 0.7186142483466624
0.560972 0.5988648697810536 0.713886174777427
0.5629719 0.6055135113467832 0.708771605478158
0.5649718 0.6125394956621146 0.7037370348613796
0.5669717 0.6190565047305971 0.6988536482922939
0.5689716 0.625809874628052 0.6940774435685243
0.5709715 0.6312426677630808 0.6889849995660856
0.5729714 0.637216035192231 0.6841417942650704
0.5749713 0.643422715468778 0.6785863643554575
0.5769712 0.6498134162057336 0.6730170248291373
0.5789711 0.6551413251730572 0.6681307272241812
0.580971 0.6613089741034912 0.6631468677093242
0.5829709 0.666939460611557 0.6574920003900311
0.5849708 0.672142599656046 0.6519596226330212
0.5869707 0.6775487736232975 0.6464856688927564
0.5889706 0.6829234471719475 0.6403150868300342
0.5909705 0.6879927859155277 0.6340110638238747
0.5929704 0.6934525731184703 0.6275365341041865
0.5949703 0.6986103349270397 0.6210943550836296
0.5969702 0.7040490796028126 0.6149847779814275
0.5989701 0.7092822552062928 0.60840268888051
0.60097 0.7141956711426182 0.601973201691292
0.6029699 0.7196482041633464 0.5947864404358313
0.6049698 0.7244095060264655 0.5884134876534747
0.6069697 0.7292451256247976 0.5811020783857901
0.6089696 0.7348184736967229 0.5742885667015557
0.6109695 0.7398907824451217 0.5670885092832323
0.6129694 0.7452234541902016 0.5602700805076836
0.6149693 0.7508672998220998 0.5532827119917545
0.6169692 0.7561575953166706 0.5457957856603599
0.6189691 0.7610097363961432 0.5388259588719428
0.620969 0.7664359883579278 0.5314950661829636
0.6229689 0.7715008749210936 0.5248201348798043
0.6249688 0.7765198001017337 0.5178122349236469
0.6269687 0.7818901912157235 0.5103170025344363
0.6289686 0.7868738091135438 0.503267603733843
0.6309685 0.7919130709589133 0.49692495775449247
0.6329684 0.796687000236109 0.4900049621667127
0.6349683 0.8007834267980357 0.482950020758528
0.6369682 0.8057373137057332 0.4759511180991448
0.6389681 0.8104997413957924 0.4689504203516347
0.640968 0.8148200428091462 0.4619956100425784
0.6429679 0.8192940633326574 0.4553883989753392
0.6449678 0.8234343261838866 0.44840495259895
0.6469677 0.8274996938905372 0.44110993220608424
0.6489676 0.8312543738821755 0.4342303244181815
0.6509675 0.8347412764363873 0.4276801831813901
0.6529674 0.8386738010209197 0.4203392269392579
0.6549673 0.8423178598014675 0.4131441668642932
0.6569672 0.845424051605857 0.406063894788024
0.6589671 0.8490462020504271 0.39819411520387915
0.660967 0.8523168526801669 0.39149842788869554
0.6629669 0.8552557928603406 0.3833592147676494
0.6649668 0.8586722746671342 0.37543035675058767
0.6669667 0.8611855628503 0.36807195265962767
0.6689666 0.8642501925083159 0.36024214951944666
0.6709665 0.8675996402513145 0.351783366322444
0.6729664 0.869692508864339 0.34385897216625616
0.6749663 0.8725594853916863 0.33575252504137587
0.6769662 0.87530012139956 0.32721561995136894
0.6789661 0.8783449015760071 0.3196501096583953
0.680966 0.8809835262402024 0.3107366892493676
0.6829659 0.883579724339993 0.3026355131799995
0.6849658 0.8864104263041885 0.2937460877494457
0.6869657 0.8892146263326469 0.2856396631619096
0.6889656 0.8918243413482643 0.2772834146414698
0.6909655 0.894556422459068 0.26911724726059305
0.6929654 0.8973440819096267 0.2605126619086243
0.6949653 0.8994790692371705 0.25241224850341937
0.6969652 0.902270770317442 0.24391525790954294
0.6989651 0.9044445523354967 0.23547119827064017
0.700965 0.906791042739289 0.22731000858285672
0.7029649 0.90885213632768 0.21923869020307743
0.7049648 0.9112259556218156 0.210953005835939
0.7069647 0.9128534335715179 0.20292916313899448
0.7089646 0.9153983649810067 0.19476783993027705
0.7109645 0.9173327314510495 0.18652409877652198
0.7129644 0.9189900338037525 0.1784949958590469
0.7149643 0.9204679299065514 0.17056806468597044
0.7169642 0.922078506888526 0.16277301372376807
0.7189641 0.923604805836553 0.15427715770071848
0.720964 0.9247858878656455 0.14586246315159526
0.7229639 0.9257946374995883 0.13767881332083629
0.7249638 0.9271508517325255 0.12941155166677787
0.7269637 0.9284837795238072 0.12136594709802777
0.7289636 0.9289985948754269 0.11292652449988304
0.7309635 0.9301856865952215 0.10463691303191862
0.7329634 0.9312265923127927 0.09613475738081403
0.7349633 0.931706636674662 0.08792962788913952
0.7369632 0.9324493435137388 0.07904373780186853
0.7389631 0.9330716922794192 0.07086831700297212
0.740963 0.9332565224929545 0.06227878293790339
0.7429629 0.9339773833695709 0.05359087899224936
0.7449628 0.9343080456698906 0.045168219169127735
0.7469627 0.9345444964818875 0.036386827867910136
0.7489626 0.935063269505661 0.027637531206803664
0.7509625 0.9351551943657119 0.01933814199926348
0.7529624 0.9353457282621115 0.010754858446727023
0.7549623 0.9353211033528164 0.0021807895404493266
0.7569622 0.9354449618113154 -0.006633906041142543
0.7589621 0.9349545660230918 -0.014996873223350832
0.760962 0.9348331959361622 -0.023620172393367028
0.7629619 0.9351379640962315 -0.03169301159754197
0.7649618 0.9345730129221013 -0.040350487084856196
0.7669617 0.9344474164266722 -0.048281435092418695
0.7689616 0.9338419396208758 -0.05680120701352677
0.7709615 0.9334637249429465 -0.06488486374622968
0.7729614 0.9326260019166223 -0.07337800043854745
0.7749613 0.9322735867351439 -0.08156698950065583
0.7769612 0.9310928373228347 -0.08988145608563872
0.7789611 0.9304399447743492 -0.09789843926285427
0.780961 0.9292146638545983 -0.10615643972784272
0.7829609 0.9281536528966323 -0.1142708458538198
0.7849608 0.9269201428566183 -0.1224311678823911
0.7869607 0.925765832383146 -0.1307662527884991
0.7889606 0.9240126738207871 -0.1391678817288649
0.7909605 0.9226747503826227 -0.14693918882414994
0.7929604 0.921029174581284 -0.15504905494213173
0.7949603 0.9194079120510753 -0.16388832493097139
0.7969602 0.9177967754198675 -0.1715947567890906
0.7989601 0.9156568946047813 -0.18011518851581992
0.80096 0.9140954058109044 -0.18899812143799694
0.8029599 0.9120210154492974 -0.19735675330526736
0.8049598 0.9100781438722345 -0.20616017312627918
0.8069597 0.9087809639066706 -0.21406931660697878
0.8089596 0.9064783245629614 -0.22250189974613438
0.8109595 0.9044801886081326 -0.23128484240252206
0.8129594 0.9022103535929432 -0.2397600513138643
0.8149593 0.9004277391951057 -0.24798950547485174
