! Created with skrf 1.8.0 (http://scikit-rf.org).
# GHz S RI R 50.0 
!freq ReS11 ImS11
0.001 -1.0808443941557577 0.012935439631805767
0.0029999 -0.9558468038590229 0.015240783646051859
0.0049998 -0.9451455898807348 0.020146299545522744
0.0069997 -0.9395432814001345 0.03140056252657997
0.0089996 -0.942257403621225 0.033022330883249684
0.0109995 -0.9417781529614317 0.04033425862423634
0.0129994 -0.9415975852479086 0.047530800230942694
0.0149993 -0.9409591127596628 0.05482197368601294
0.0169992 -0.9401587412614925 0.06168546354502569
0.0189991 -0.9401664776158585 0.06747941481787223
0.020999 -0.9393892927963952 0.07424094421040778
0.0229989 -0.9385416004076692 0.08080872722892413
0.0249988 -0.9374927041589185 0.08730451286053051
0.0269987 -0.9364296674161133 0.09405778594692046
0.0289986 -0.9354873915024464 0.10068919144859928
0.0309985 -0.9342948906765284 0.10708924658140356
0.0329984 -0.9333451829186048 0.11391263814143332
0.0349983 -0.9321673764174865 0.12030147814686343
0.0369982 -0.9308001483245846 0.12677996800560593
0.0389981 -0.9295916993766966 0.13336907008252796
0.040998 -0.9282938270501468 0.13998472490248642
0.0429979 -0.9265239770089416 0.1465363804043932
0.0449978 -0.925009277930018 0.15272858843490172
0.0469977 -0.9237511592169559 0.15892878044667302
0.0489976 -0.9214288210619849 0.16623967313717664
0.0509975 -0.9200420595709591 0.1724844698943625
0.0529974 -0.9184451494651372 0.17978486734530413
0.0549973 -0.916127562587134 0.18644026329750585
0.0569972 -0.9148500001795828 0.1928453060760587
0.0589971 -0.9132774008213682 0.19965192835688972
0.060997 -0.9115742297988211 0.2066140764326191
0.0629969 -0.9099319674128378 0.21290112306537662
0.0649968 -0.9077062283570227 0.21948253475085608
0.0669967 -0.9070116459752439 0.2267798053103236
0.0689966 -0.9049994891345932 0.23256999832885838
0.0709965 -0.9035021575746074 0.23929039935716775
0.0729964 -0.9009962620816812 0.24633875783455367
0.0749963 -0.8996087008345763 0.2523134758865974
0.0769962 -0.8981974721097816 0.258851638188012
0.0789961 -0.8964187235368607 0.2647526833356137
0.080996 -0.8942759759364908 0.2713022929115082
0.0829959 -0.89233717433825 0.2777940845755523
0.0849958 -0.8906926783856053 0.2836567002974375
0.0869957 -0.8890622394031613 0.2898267753622493
0.0889956 -0.8869556229975544 0.29563170726495563
0.0909955 -0.8848992361964695 0.3014311801396573
0.0929954 -0.8823377983415791 0.3073581256902877
0.0949953 -0.879911271382997 0.3135172187456422
0.0969952 -0.8776711011694126 0.3192390826053101
0.0989951 -0.875120464189173 0.32521155174517524
0.100995 -0.8737681117458942 0.3316735414576809
0.1029949 -0.8713691482366663 0.3376090967991781
0.1049948 -0.8686279772555328 0.34321826140377776
0.1069947 -0.8657670340372958 0.34854548492107607
0.1089946 -0.8628702501049195 0.3544879458115067
0.1109945 -0.8600685885813812 0.3603223246882592
0.1129944 -0.8571701602977014 0.3658446462527918
0.1149943 -0.8539117837676367 0.37150226755177873
0.1169942 -0.8508489082500715 0.37753445540227515
0.1189941 -0.847497401867931 0.3830393176827775
0.120994 -0.8442791989711766 0.38926899990610536
0.1229939 -0.8411675012803095 0.39521327071945545
0.1249938 -0.8378536806249158 0.40103199089627956
0.1269937 -0.8346756776904335 0.40681007406529346
0.1289936 -0.8318464830484003 0.41306027865189343
0.1309935 -0.8282476693374795 0.4189053072414719
0.1329934 -0.824765745524324 0.4251581964819643
0.1349933 -0.821538162395707 0.43075299958499313
0.1369932 -0.8183413588151384 0.4364321277810749
0.1389931 -0.8147144030203802 0.4426421982652605
0.140993 -0.8114909085059061 0.4482682958230695
0.1429929 -0.8077242148828563 0.4542519416785489
0.1449928 -0.8053531780783767 0.4605084709951689
0.1469927 -0.8016972003886002 0.4664058196130357
0.1489926 -0.7984206255764492 0.47211500146793783
0.1509925 -0.7949764151987885 0.4771843691655935
0.1529924 -0.7915117366564886 0.483483508722817
0.1549923 -0.7885751725195813 0.4895185488272134
0.1569922 -0.784928049291005 0.49486584947912954
0.1589921 -0.7816382792979358 0.5003709566607853
0.160992 -0.7778893751606162 0.5058729802113852
0.1629919 -0.7746959798484812 0.511059131558757
0.1649918 -0.7712118561192511 0.5166936267416687
0.1669917 -0.7675298675493238 0.5216859260865281
0.1689916 -0.7639262981593801 0.5268762028614291
0.1709915 -0.7603759550692295 0.5322659146606015
0.1729914 -0.7563178063448867 0.5373975600006697
0.1749913 -0.7527167527009467 0.542341098514773
0.1769912 -0.749095586068939 0.5473164660343668
0.1789911 -0.7449318502520684 0.552380389278984
0.180991 -0.7409262284328412 0.5573668850876137
0.1829909 -0.7370330477277897 0.5624579233050337
0.1849908 -0.7331558148977152 0.5674418253563753
0.1869907 -0.7289006246775538 0.5721762358424762
0.1889906 -0.7247506728627799 0.577398243987071
0.1909905 -0.7203812277632475 0.5824313143872532
0.1929904 -0.7160614873264648 0.5872297524297085
0.1949903 -0.7115489046353136 0.5922517576060344
0.1969902 -0.7069114787677433 0.5967892748657557
0.1989901 -0.7026996964243337 0.601831802304517
0.20099 -0.6981341086123914 0.6069280878975752
0.2029899 -0.6939100915422626 0.6118777968580719
0.2049898 -0.6891612353993326 0.6163068436164835
0.2069897 -0.6849011983117272 0.6210099373645099
0.2089896 -0.6800009962598863 0.6262870946220795
0.2109895 -0.6757870962150239 0.6307923835555329
0.2129894 -0.6706080859588563 0.6360192431713779
0.2149893 -0.6660870002459284 0.6409567983642743
0.2169892 -0.6613761349366262 0.6455466483345766
0.2189891 -0.6564683663561683 0.6502506057154249
0.220989 -0.6521252164863588 0.6551984363656723
0.2229889 -0.6471055047339761 0.6592671486687501
0.2249888 -0.6420929078079907 0.6639718544875064
0.2269887 -0.6370242212267583 0.668582408532366
0.2289886 -0.6323649469400612 0.6729567502521566
0.2309885 -0.6271635054925245 0.678308388027789
0.2329884 -0.6222300304680346 0.6825433322386202
0.2349883 -0.6171714574502621 0.6869547183341265
0.2369882 -0.6122762786238916 0.6914841234145037
0.2389881 -0.607397690681058 0.6961254626908215
0.240988 -0.6022873433944452 0.7002303758768366
0.2429879 -0.5968785325522801 0.7047900724790469
0.2449878 -0.5920541516255249 0.7089432362134369
0.2469877 -0.5869169859276059 0.7135090654160826
0.2489876 -0.582262942650577 0.7181190786647552
0.2509875 -0.5770171336813329 0.722068146246154
0.2529874 -0.5719538755199352 0.726458292165786
0.2549873 -0.5672946734024009 0.7310933270562779
0.2569872 -0.5623659358332065 0.7352074261358889
0.2589871 -0.557023820953504 0.7393411977839273
0.260987 -0.5519820784672468 0.7434282519763339
0.2629869 -0.5469299463486713 0.7475952145347317
0.2649868 -0.5416315096773171 0.7514488905584645
0.2669867 -0.5368164722101154 0.7548343960411915
0.2689866 -0.5313933050693898 0.7588331077252647
0.2709865 -0.5265664742902726 0.7625199069024431
0.2729864 -0.5215001457743065 0.766256907949593
0.2749863 -0.5162585134463945 0.7697103786376199
0.2769862 -0.5113716573702365 0.7731457611013994
0.2789861 -0.5060156184708032 0.7765683450281026
0.280986 -0.500624121881585 0.7792788306193335
0.2829859 -0.4955166148291391 0.782263329991665
0.2849858 -0.48977599816435996 0.7856937477919749
0.2869857 -0.4839821674297525 0.7885722936480064
0.2889856 -0.47835854748362727 0.7914006471051201
0.2909855 -0.47255113445266106 0.7943279888085701
0.2929854 -0.46667131055131744 0.7974546448485781
0.2949853 -0.46078372705498133 0.800270760656678
0.2969852 -0.45478006286068123 0.8026328488018357
0.2989851 -0.4489285879057509 0.8051500842821558
0.300985 -0.44227501673647307 0.8076572824305198
0.3029849 -0.4355882124969549 0.8103678252142335
0.3049848 -0.42967089002018494 0.8132200969897989
0.3069847 -0.42286817659753256 0.8154405529246804
0.3089846 -0.41611125146458894 0.8182045330077734
0.3109845 -0.40943292833430334 0.8205357068743443
0.3129844 -0.4023834135931186 0.8236682898685637
0.3149843 -0.39562546711522184 0.8261416698841394
0.3169842 -0.38890913113889686 0.8292304241498856
0.3189841 -0.38194243736878286 0.8314993104544594
0.320984 -0.3747369170185932 0.8344424992146057
0.3229839 -0.3677745469391372 0.8371927650671642
0.3249838 -0.36124868308149705 0.8399251731592163
0.3269837 -0.3542782364115899 0.8426038529310166
0.3289836 -0.34758600441329185 0.8452103527661574
0.3309835 -0.3408198567446491 0.8484986996911816
0.3329834 -0.33500048690707307 0.8515665786777448
0.3349833 -0.32813637048357774 0.8548192657607576
0.3369832 -0.32233222403699874 0.8583844541836982
0.3389831 -0.3156414446298878 0.8617912777651547
0.340983 -0.3092204207371453 0.8653743222845689
0.3429829 -0.303411374817112 0.8690652742631335
0.3449828 -0.2975698417843081 0.8720712374239541
0.3469827 -0.2910769413070672 0.8752213594913247
0.3489826 -0.2853292326815877 0.8780408000930645
0.3509825 -0.27923080845755643 0.8808787006251669
0.3529824 -0.2729736748094129 0.8837088952139667
0.3549823 -0.2673242761003845 0.8863139585122061
0.3569822 -0.2616586494809834 0.8884245498950613
0.3589821 -0.25581025025162174 0.8908781235847012
0.360982 -0.24996938110080802 0.8928624319341868
0.3629819 -0.24433302399605222 0.8945431027281684
0.3649818 -0.23856541652858282 0.8960273513007737
0.3669817 -0.23224457596253156 0.897017173520815
0.3689816 -0.22619725357260095 0.8986421444183201
0.3709815 -0.21968311009044109 0.8996489583944665
0.3729814 -0.213612197662867 0.9007309967329571
0.3749813 -0.207552083594738 0.9018504267516183
0.3769812 -0.20101095070659764 0.9026502745328935
0.3789811 -0.194767371991657 0.9033864789811475
0.380981 -0.18777197435031526 0.9038034725929502
0.3829809 -0.18096306545548918 0.9049346659783329
0.3849808 -0.17380519853753668 0.9056035143199588
0.3869807 -0.16671630342867003 0.9059987167801508
0.3889806 -0.1597070302375062 0.9065905553239862
0.3909805 -0.15168648116966266 0.9072185272291257
0.3929804 -0.14409767328698445 0.9085500783858338
0.3949803 -0.13675234544692358 0.9090525453738957
0.3969802 -0.12966887182779407 0.9099532570057706
0.3989801 -0.12186956001355162 0.9105110825752994
0.40098 -0.11446438515409016 0.9115328055325804
0.4029799 -0.10679771443796367 0.9126267246970943
0.4049798 -0.09931400635745308 0.9136717359830097
0.4069797 -0.09188393250307633 0.9150274635706392
0.4089796 -0.08425672199274004 0.9159967832050885
0.4109795 -0.07668025598859679 0.9169098943185187
0.4129794 -0.06951164736175072 0.9187477786353682
0.4149793 -0.061762628218555514 0.9198050506213538
0.4169792 -0.05481297628992531 0.9208951062102557
0.4189791 -0.04779261934206533 0.9222027746578891
0.420979 -0.04088344688887434 0.9228044625247399
0.4229789 -0.03448061343091335 0.9239737255609771
0.4249788 -0.027215831364404485 0.9253290752671847
0.4269787 -0.021010616876979745 0.9260388412297081
0.4289786 -0.01436246230465928 0.9267436133733531
0.4309785 -0.008138400883914102 0.9269970970507025
0.4329784 -0.001673789161989115 0.9275868050866933
0.4349783 0.005373194906296234 0.9271884515569662
0.4369782 0.01152545315515699 0.9267790821631224
0.4389781 0.01801417687816652 0.9269160114244979
0.440978 0.024071300373676302 0.9263569102131664
0.4429779 0.030329210168603765 0.9259061146000837
0.4449778 0.03705799768572977 0.9251590662897867
0.4469777 0.043550642488901524 0.9242624327112351
0.4489776 0.05044585119089565 0.9236459634866586
0.4509775 0.057314806676101865 0.9227303845166401
0.4529774 0.06412144823538957 0.9208626957157304
0.4549773 0.07152764538897702 0.9197774970635585
0.4569772 0.07895186910879991 0.9184034952205753
0.4589771 0.08623759065929963 0.9169808362649646
0.460977 0.0940660851093634 0.9157998301538235
0.4629769 0.10140075864054862 0.91464939155568
0.4649768 0.1090230732177673 0.913542331504958
0.4669767 0.1170933259582171 0.9120676974805845
0.4689766 0.1247213488338508 0.9105458756259904
0.4709765 0.13222735595919521 0.909601247804689
0.4729764 0.14029555558208792 0.9086335438576364
0.4749763 0.14825648955011833 0.9078756527613188
0.4769762 0.15605437941362266 0.906785924504909
0.4789761 0.1640661424556137 0.9054681669876636
0.480976 0.171748212882337 0.9053018218946343
0.4829759 0.17986224002484597 0.9043905068350763
0.4849758 0.187199961624407 0.903389254063045
0.4869757 0.1949407943640336 0.9026299560463049
0.4889756 0.20239120167200766 0.9020957376674315
0.4909755 0.20992312952371628 0.9013451547627881
0.4929754 0.21699888911948495 0.900457461414528
0.4949753 0.22399722028426672 0.8996083047720739
0.4969752 0.23069357234415072 0.898454153680603
0.4989751 0.23768856835844537 0.8974888553748336
0.500975 0.2436132988435893 0.8960345065839533
0.5029749 0.2503486969318739 0.8947102608039841
0.5049748 0.2566391784735372 0.8935514587538098
0.5069747 0.2628992043958088 0.8917855498564474
0.5089746 0.2692025699327647 0.8899160685649856
0.5109745 0.27574358991008446 0.8887289638591562
0.5129744 0.2821971688958186 0.8868901686259387
0.5149743 0.28791192209114536 0.8846191101954662
0.5169742 0.2938555689784878 0.8818479449815374
0.5189741 0.300402727604726 0.8793162748186807
0.520974 0.3074592679196152 0.8768635673449495
0.5229739 0.31402141375543136 0.8736550828785135
0.5249738 0.32024956048189024 0.8711263696467174
0.5269737 0.3268452523968778 0.8678304164275338
0.5289736 0.3336251728716904 0.8645547469354703
0.5309735 0.3400219098918643 0.8612404426571273
0.5329734 0.34657671074668217 0.8578959865985243
0.5349733 0.3534091371999739 0.8539682337561103
0.5369732 0.36018122499215094 0.8503794356446308
0.5389731 0.36751223809068473 0.8470018289116239
0.540973 0.3741785828640339 0.8429858225985444
0.5429729 0.38153869863518897 0.8397222750940099
0.5449728 0.38884896359622373 0.8362776216075871
0.5469727 0.3961227736963035 0.8324986939916111
0.5489726 0.4035564246555325 0.8295780062157972
0.5509725 0.4107772621073165 0.8260276521363569
0.5529724 0.41839908681240995 0.8226782170387061
0.5549723 0.425342406835986 0.8194010955616987
0.5569722 0.43271637701809434 0.8161328894461599
0.5589721 0.44006013613885264 0.8130618601382342
0.560972 0.4472447769192516 0.8101084659668815
0.5629719 0.45391103801476823 0.8071536479119755
0.5649718 0.46156679000134093 0.8038409771913005
0.5669717 0.4682184366842242 0.8008308188289274
0.5689716 0.4747610260652366 0.7979509376809432
0.5709715 0.4810490777618446 0.7945296013596798
0.5729714 0.4867073709199705 0.7914014514402381
0.5749713 0.4930799228431207 0.7879640321592053
0.5769712 0.49933691772347605 0.7842063581859495
0.5789711 0.5056138005513434 0.7808988485972117
0.580971 0.5114230448034508 0.7778328696818189
0.5829709 0.5170467574017681 0.7741802889425338
0.5849708 0.5226877561727531 0.7701883233645563
0.5869707 0.5287468216140847 0.7662027002759244
0.5889706 0.5340629630395606 0.7618731184121162
0.5909705 0.5397859860614601 0.7572607777946319
0.5929704 0.5452596471729332 0.7524878054194019
0.5949703 0.5508033888181013 0.747761448640508
0.5969702 0.556809482864789 0.7432184479335664
0.5989701 0.5622150702476151 0.7384192551853277
0.60097 0.567639499682007 0.7335106261712687
0.6029699 0.5737611894667198 0.728012706557732
0.6049698 0.5794543335422984 0.7228570538079528
0.6069697 0.5849762088076591 0.7179455854481885
0.6089696 0.5908468780247131 0.7125507993691952
0.6109695 0.5970882465604526 0.7072035527419989
0.6129694 0.6029353647057047 0.701435305124244
0.6149693 0.6094542822399441 0.6966668791159382
0.6169692 0.615558375138844 0.6910302899727869
0.6189691 0.6216084295312072 0.6857940251375445
0.620969 0.6280751028854841 0.6801685779811346
0.6229689 0.6339640649152092 0.6750170444200662
0.6249688 0.6397912773590692 0.6697109085580075
0.6269687 0.6463707344045861 0.6644254972715958
0.6289686 0.6520165890532609 0.6591933072559962
0.6309685 0.658269091131712 0.65448442231691
0.6329684 0.6636549246316517 0.649740093007485
0.6349683 0.6694355673996792 0.6445290915044067
0.6369682 0.6744906822516479 0.6392572032142263
0.6389681 0.680118420597642 0.6338983603922278
0.640968 0.6859314657646104 0.6292478221491811
0.6429679 0.6910491173007942 0.6242090622455061
0.6449678 0.6960593678927965 0.6193577104646747
0.6469677 0.7012066782628162 0.6143409609337712
0.6489676 0.7059082611511286 0.6091374803674393
0.6509675 0.7107675378159681 0.6037699464381419
0.6529674 0.7151519738931814 0.5987568202360846
0.6549673 0.7202055489500213 0.5931583302579282
0.6569672 0.7240721923928595 0.5877161974808289
0.6589671 0.7287510469984837 0.5820380487779832
0.660967 0.7329429216471466 0.576109019057979
0.6629669 0.7368720556347534 0.570436259861996
0.6649668 0.7405909749792612 0.5640630561285649
0.6669667 0.7445314976612021 0.5576394820553454
0.6689666 0.748747039083561 0.5516413718421949
0.6709665 0.7530073825983539 0.5447239353707665
0.6729664 0.7570300312327096 0.5383042511235676
0.6749663 0.760649953196833 0.5309966600307264
0.6769662 0.7649920364397724 0.5243115839875159
0.6789661 0.7690817675817156 0.5173515977967806
0.680966 0.7730310573333291 0.5104334642403012
0.6829659 0.7774635515033651 0.5032499188102242
0.6849658 0.7814340863256692 0.4965503078218502
0.6869657 0.7861284318813888 0.4894302240899978
0.6889656 0.7905259590064473 0.4820907257931287
0.6909655 0.7944998367299347 0.47522655901367383
0.6929654 0.798987490905109 0.46829019514442377
0.6949653 0.8030114270332538 0.46123585984580073
0.6969652 0.8077055557980247 0.45429721105512216
0.6989651 0.8118402186940556 0.4474131092487743
0.700965 0.8158463870888722 0.44066541468193376
0.7029649 0.819627976341696 0.4336705174999642
0.7049648 0.824130442222913 0.4273539521508778
0.7069647 0.8276019614667316 0.42057527011171536
0.7089646 0.8320481220216848 0.4137926452474553
0.7109645 0.8356999541415582 0.4074260310920389
0.7129644 0.8392267885533178 0.400801390328004
0.7149643 0.8424891548743603 0.39458531531564606
0.7169642 0.846138428005873 0.38795325822996807
0.7189641 0.8490198717843053 0.3814236346427579
0.720964 0.8523224575257061 0.37478918521773347
0.7229639 0.8552955677201727 0.3677527893481992
0.7249638 0.8581917331232625 0.36144556971223235
0.7269637 0.8611666745781356 0.354706108135496
0.7289636 0.8639281471287296 0.34759579708840876
0.7309635 0.8663317751117126 0.34133711551320295
0.7329634 0.8693442267446166 0.33377571430109515
0.7349633 0.8714215336094113 0.3268782270532018
0.7369632 0.873812173980321 0.31960853762422814
0.7389631 0.8757049818479132 0.31249648611599645
0.740963 0.8781915315668135 0.3055266557838415
0.7429629 0.8803935720588959 0.2976425110581953
0.7449628 0.8823571203011513 0.29006484637868957
0.7469627 0.8844969442475841 0.28230016925164264
0.7489626 0.8866698885377862 0.2746239932121148
0.7509625 0.8891278737464037 0.266875607112645
0.7529624 0.8908219027930886 0.25938321085203486
0.7549623 0.8927004841576187 0.2517679603025711
0.7569622 0.8951785085161368 0.2439386178562745
0.7589621 0.8967500721237154 0.2359725398322738
0.760962 0.8989847910752917 0.22804312179668193
0.7629619 0.9010062646660056 0.2205715345732731
0.7649618 0.9026077635093515 0.21276272603051144
0.7669617 0.9047810027822053 0.2050128796916833
0.7689616 0.9063976256903498 0.19726303030747555
0.7709615 0.908128624115319 0.18944719010869127
0.7729614 0.9097646651632381 0.18204752810020125
0.7749613 0.9116302959208485 0.17434587781550598
0.7769612 0.913612136189786 0.1668518818190855
0.7789611 0.9150375751556662 0.15919697897671767
0.780961 0.9165562679198015 0.15176636009359679
0.7829609 0.9178140203537516 0.14446139481566073
0.7849608 0.9189525049545307 0.13698781469515708
0.7869607 0.9200544177280223 0.12959528216990465
0.7889606 0.9211867500886526 0.12181153874300543
0.7909605 0.9219977747999353 0.11453112725065981
0.7929604 0.9234952656982531 0.10723526780079555
0.7949603 0.9242571723631647 0.09954994125202082
0.7969602 0.9247938694997428 0.09215809991187593
0.7989601 0.9255690310634763 0.08471592434734576
0.80096 0.9262898078488682 0.07699478745798138
0.8029599 0.9266079849806855 0.0693171693601117
0.8049598 0.9269304110878898 0.061648589216913297
0.8069597 0.9273039177120435 0.053922842642483065
0.8089596 0.9275741956869304 0.0463164182452474
0.8109595 0.9281493245608506 0.038519041674708356
0.8129594 0.9279434165640398 0.030814999129653926
0.8149593 0.9282259846802678 0.02305385939237295
