! Created with skrf 1.8.0 (http://scikit-rf.org).
# GHz S RI R 50.0 
!freq ReS11 ImS11
0.001 -1.1987739353367717 0.12222343149119197
0.0029999 -0.9802503077318774 0.05901359650048177
0.0049998 -0.9565022415172084 0.03424204499287534
0.0069997 -0.947145477675061 0.039381366434317555
0.0089996 -0.94334478714666 0.03719013323258541
0.0109995 -0.9421209166941473 0.04197415228265289
0.0129994 -0.9403344210150607 0.047810465556713866
0.0149993 -0.9400064967214545 0.05471285870961218
0.0169992 -0.9389689941753494 0.059379082013782836
0.0189991 -0.9386107539071582 0.06467303564512372
0.020999 -0.9378267032528307 0.0705280161372695
0.0229989 -0.9369149085532302 0.07636959899552453
0.0249988 -0.9358301096687536 0.08233761195122016
0.0269987 -0.9347872789845827 0.08860036213680178
0.0289986 -0.9338655175253554 0.09475507487149093
0.0309985 -0.9327410787720136 0.10067960408976517
0.0329984 -0.9318322421483297 0.10716129942690988
0.0349983 -0.9307709605440961 0.11305824718960938
0.0369982 -0.9296112214517372 0.11918215022357043
0.0389981 -0.9284473627040046 0.1253391104391432
0.040998 -0.9273713533729173 0.13157221367417515
0.0429979 -0.9256996118010891 0.1377189486714509
0.0449978 -0.924249600320196 0.14356231903321143
0.0469977 -0.9229048614400828 0.149544000589026
0.0489976 -0.921291464249615 0.15609786700721695
0.0509975 -0.9199342133989842 0.1620007704513105
0.0529974 -0.9184962259478485 0.16848637501540398
0.0549973 -0.916070860042008 0.1758976211772802
0.0569972 -0.9151740732808811 0.18121800173449426
0.0589971 -0.9137514892991844 0.18734517976755255
0.060997 -0.9123066830905404 0.19424512665254529
0.0629969 -0.910852088884972 0.19978578700549723
0.0649968 -0.9089017822949734 0.2059558663477828
0.0669967 -0.9082188445831586 0.21292666420987177
0.0689966 -0.906278317640761 0.2183325830749458
0.0709965 -0.904988708617303 0.22436431036762905
0.0729964 -0.9027373740170508 0.23116129738489635
0.0749963 -0.9013951032239275 0.23681183811895487
0.0769962 -0.9001983925411914 0.2426560015763915
0.0789961 -0.8985688755415733 0.2482661934750539
0.080996 -0.8966130739750668 0.2543394304948133
0.0829959 -0.8947951479022038 0.2603817009780153
0.0849958 -0.8935230897062314 0.2657348904665402
0.0869957 -0.8920179391065738 0.27151948208793864
0.0889956 -0.8901558486600744 0.2769069097917803
0.0909955 -0.888161505449268 0.2823364003356991
0.0929954 -0.8859819205155568 0.2878975890089086
0.0949953 -0.8838568256827376 0.29368651581920935
0.0969952 -0.8819198170795814 0.2989973007501001
0.0989951 -0.8795343364997006 0.30458340616788027
0.100995 -0.8783483850380448 0.31049208285297075
0.1029949 -0.8762352957291781 0.31596920702030007
0.1049948 -0.8739386198759194 0.3211012165626881
0.1069947 -0.8712531679363369 0.32623644152633
0.1089946 -0.8686653134312592 0.3317728233466987
0.1109945 -0.8660924446455491 0.337031334737495
0.1129944 -0.8636074506605582 0.34226215707323693
0.1149943 -0.8606513414147428 0.3475071027328706
0.1169942 -0.8579368235806928 0.3533004944134812
0.1189941 -0.8550720580132517 0.35867587305086857
0.120994 -0.8521854031119065 0.36430805933501287
0.1229939 -0.849275594876272 0.36957508990719057
0.1249938 -0.8464242395865349 0.37523743198089715
0.1269937 -0.843540495779663 0.38095212761681496
0.1289936 -0.8411420293392355 0.38676654317091375
0.1309935 -0.8380618085307778 0.3921587781936687
0.1329934 -0.8350585430509238 0.39774974136375274
0.1349933 -0.8319499193204432 0.403752504167786
0.1369932 -0.8291805121257606 0.4086435851503883
0.1389931 -0.8259794123685236 0.4145983222588485
0.140993 -0.823241573812558 0.41998096529325246
0.1429929 -0.8200710313434436 0.42553147132063235
0.1449928 -0.8176683761498797 0.4312624302045165
0.1469927 -0.8146122615829312 0.43676657629921645
0.1489926 -0.8118176467429122 0.44209691566832965
0.1509925 -0.808622353131998 0.44693829076814906
0.1529924 -0.8052738988995922 0.4527024171182821
0.1549923 -0.8031838262642895 0.45858065133522274
0.1569922 -0.8001091732017838 0.46348023977002867
0.1589921 -0.796997191919782 0.4687821353263575
0.160992 -0.7939246749027549 0.47359392566249137
0.1629919 -0.7907362363308249 0.47894022242265083
0.1649918 -0.7877354407570482 0.4841369281426353
0.1669917 -0.784292786320595 0.4888523067006048
0.1689916 -0.7812663321184694 0.4939305844598001
0.1709915 -0.7779427097516478 0.49887646234498106
0.1729914 -0.7748517880695177 0.5036602424100346
0.1749913 -0.7714145263424725 0.5083295504209746
0.1769912 -0.7679752758484417 0.5132060758697715
0.1789911 -0.764794288742163 0.5179058516833986
0.180991 -0.7611220684889228 0.5225254883294917
0.1829909 -0.7577102953665817 0.527498169363184
0.1849908 -0.7542354971526191 0.5322343377837105
0.1869907 -0.7506988830620424 0.5368385677209613
0.1889906 -0.7468876590361596 0.5416097765594006
0.1909905 -0.7432111758546897 0.5463659746291499
0.1929904 -0.7393752214467668 0.550999143045663
0.1949903 -0.7354582502755179 0.5555235529961406
0.1969902 -0.7315689473436258 0.5605012272294718
0.1989901 -0.727603186639375 0.5650885483291039
0.20099 -0.7238518207393217 0.5699405071563965
0.2029899 -0.7198972712255738 0.5746125036726669
0.2049898 -0.7160577484025692 0.578928561301575
0.2069897 -0.7120487285129985 0.5836514925939131
0.2089896 -0.7081684051755859 0.5881938324935184
0.2109895 -0.7039383391235379 0.5926121208279201
0.2129894 -0.6997801494292133 0.5977871034984543
0.2149893 -0.6958301815254915 0.6021411250857188
0.2169892 -0.6916894108420255 0.606954367738603
0.2189891 -0.6875797997320378 0.6112650442931781
0.220989 -0.6837213245949695 0.6159248230114147
0.2229889 -0.679107226945669 0.6204938942438897
0.2249888 -0.6747528208810261 0.6249818905626311
0.2269887 -0.6706080374693236 0.628979966927122
0.2289886 -0.6659708010895317 0.6336518947696629
0.2309885 -0.6619961308002666 0.6382519497921592
0.2329884 -0.657573057465645 0.6424688826618086
0.2349883 -0.6527728101059955 0.6469640748705335
0.2369882 -0.6485296749370663 0.6510929582813282
0.2389881 -0.6444965111664466 0.6558739251285896
0.240988 -0.6398344644490528 0.6599220756915968
0.2429879 -0.6353740237519704 0.664356636399384
0.2449878 -0.630874339824948 0.6685308763324864
0.2469877 -0.6264727148930099 0.6728662032209243
0.2489876 -0.6223192038291839 0.6773970655306305
0.2509875 -0.6177588920344892 0.6813834401383728
0.2529874 -0.6132000459984192 0.6856224419548426
0.2549873 -0.6090929119644536 0.689929767018022
0.2569872 -0.6048739952708115 0.6940320783531189
0.2589871 -0.6002187813320957 0.6983156352148001
0.260987 -0.5959428904421029 0.7023657044808489
0.2629869 -0.5915545470860986 0.7064341581637121
0.2649868 -0.5870004400964526 0.7101902098834031
0.2669867 -0.5830036409379049 0.7135052660100347
0.2689866 -0.5784065699749044 0.7173693680368416
0.2709865 -0.5741779555499253 0.7210628489242973
0.2729864 -0.5693717679200304 0.7249559430916952
0.2749863 -0.5651580172328503 0.7283590572148421
0.2769862 -0.5605502580411863 0.7320014646700294
0.2789861 -0.556361067295529 0.735053752453893
0.280986 -0.5514675794135057 0.7380189313437239
0.2829859 -0.5469365169368992 0.7410181001582922
0.2849858 -0.541536942873043 0.7441832644987556
0.2869857 -0.5368243144333308 0.7475068946620776
0.2889856 -0.532113106876414 0.7503629875726457
0.2909855 -0.5266477950174737 0.7533456510196217
0.2929854 -0.5218117514729557 0.7564224126888734
0.2949853 -0.5164127849242535 0.7595097779751767
0.2969852 -0.5109390189142683 0.7621547589276242
0.2989851 -0.5058755891497204 0.7647659204022371
0.300985 -0.4998630327348945 0.7673896409492652
0.3029849 -0.4940917205371037 0.7703433191998503
0.3049848 -0.4886245515616282 0.7731747768329486
0.3069847 -0.482818142482831 0.7757444291289455
0.3089846 -0.47651193415055926 0.7785900644191183
0.3109845 -0.4707767409583967 0.7812489432988634
0.3129844 -0.464436023579551 0.7841867574386809
0.3149843 -0.45824644445830287 0.7873070915259529
0.3169842 -0.4524540143187654 0.7904343428419889
0.3189841 -0.44643170951880073 0.7933478547134021
0.320984 -0.43975401553803234 0.7962929412676234
0.3229839 -0.43419710441403825 0.7990413054961343
0.3249838 -0.4279561726420511 0.801972711931777
0.3269837 -0.4219399310983767 0.805445399539509
0.3289836 -0.4157525969320167 0.8082590814108814
0.3309835 -0.4099905624730146 0.8116466019261628
0.3329834 -0.40446651261449723 0.8148370616526326
0.3349833 -0.39875631771102193 0.8185055393001399
0.3369832 -0.3934857496953302 0.8221135042934946
0.3389831 -0.3882161161084938 0.8257560356844019
0.340983 -0.38283106384647153 0.8293522663547549
0.3429829 -0.37757239364606104 0.8332067253885997
0.3449828 -0.3722573597644775 0.8367281323131257
0.3469827 -0.36691731653497184 0.8401470324685993
0.3489826 -0.36199728998852126 0.8431180840600078
0.3509825 -0.3563263621981731 0.8461789470128316
0.3529824 -0.351136107545622 0.8491814274984849
0.3549823 -0.34611174741205375 0.8521222171869303
0.3569822 -0.34125161946367033 0.8545868052385139
0.3589821 -0.336079676502402 0.8571987839979075
0.360982 -0.3313170203046149 0.8593603216557592
0.3629819 -0.3260234249855865 0.8616344400155386
0.3649818 -0.3209837796057416 0.8630812990014226
0.3669817 -0.3154999399484316 0.8648243945168401
0.3689816 -0.3100879717337608 0.8665845392920419
0.3709815 -0.3046371822037557 0.8680710978791778
0.3729814 -0.29888788521217463 0.8694599418324237
0.3749813 -0.29343938881890463 0.8711580903063822
0.3769812 -0.28773666212378496 0.872071313179897
0.3789811 -0.28206570017249244 0.8737171572986852
0.380981 -0.2761291265787624 0.8745831367342479
0.3829809 -0.2697019033131448 0.8756824458984538
0.3849808 -0.2634825430075478 0.8776995955596931
0.3869807 -0.2572756050050747 0.878074621931564
0.3889806 -0.2506551321836613 0.8794451132655178
0.3909805 -0.2434036027941043 0.8807957734712885
0.3929804 -0.23702848096721424 0.8821715412966835
0.3949803 -0.22971185298355853 0.8836768738346493
0.3969802 -0.22345574025520265 0.884975315072802
0.3989801 -0.21697413484362638 0.8865008589693155
0.40098 -0.20988289975568036 0.8880489904748031
0.4029799 -0.20356307406753837 0.8895571318430848
0.4049798 -0.1963659267672005 0.8913804122101499
0.4069797 -0.18978541229702703 0.893152182020529
0.4089796 -0.18331571142333303 0.8947267807498662
0.4109795 -0.17670212943844582 0.8967542975146565
0.4129794 -0.16986150081596502 0.8986918331256487
0.4149793 -0.16323099536818758 0.9005085757898531
0.4169792 -0.1571520488391854 0.9023220836545108
0.4189791 -0.15090048312799426 0.9039325880213707
0.420979 -0.14486469541750197 0.9056498656901695
0.4229789 -0.13883536384939724 0.9073032120917555
0.4249788 -0.1327301805499269 0.909030055686672
0.4269787 -0.12711803020464466 0.9103957413866368
0.4289786 -0.1214796557396195 0.911899978063884
0.4309785 -0.11545716220556265 0.9129131190151094
0.4329784 -0.10977647406549941 0.9139161905749636
0.4349783 -0.10354350862290757 0.9141351068149656
0.4369782 -0.09793749808246503 0.9144741673551734
0.4389781 -0.09231666762045136 0.9152648051432666
0.440978 -0.08655807981820202 0.9155069872818509
0.4429779 -0.08118544593140048 0.9156274833871211
0.4449778 -0.07525059078255825 0.9157276132065799
0.4469777 -0.06889236676491578 0.9156821658302694
0.4489776 -0.06316936504063667 0.9157814254140004
0.4509775 -0.05655126060117176 0.9157727356351769
0.4529774 -0.04993511936979776 0.9149693664302136
0.4549773 -0.04363229883121795 0.9144063305346565
0.4569772 -0.03685587019346652 0.9140632055667834
0.4589771 -0.02972313137408074 0.9135915745400702
0.460977 -0.0230743713681775 0.9132462785727002
0.4629769 -0.01568612390556843 0.9131252831785235
0.4649768 -0.00883501347325139 0.9128213834031575
0.4669767 -0.0015752072011994793 0.912590023637522
0.4689766 0.00537897311912045 0.9122894808880225
0.4709765 0.012470452564616846 0.9117866553976961
0.4729764 0.01997159788858851 0.9117755440765257
0.4749763 0.02687500416752687 0.9122429012105273
0.4769762 0.03410630226998505 0.9124296274741466
0.4789761 0.04168161914218376 0.9122324698600118
0.480976 0.04884696210673715 0.9126600566133095
0.4829759 0.05607147699128237 0.9131473964414754
0.4849758 0.06293977874039053 0.9132647166300525
0.4869757 0.06990517356395828 0.9132956241914113
0.4889756 0.07689948541505966 0.9137348467498622
0.4909755 0.08379283501562225 0.9140386879956047
0.4929754 0.09019452395729372 0.9143198083179069
0.4949753 0.09638578317669096 0.9142946064726605
0.4969752 0.10267160296335595 0.914263583944172
0.4989751 0.1088190666055324 0.91433950791255
0.500975 0.11452835160481628 0.9138337808309669
0.5029749 0.1207517212528466 0.9132269010458451
0.5049748 0.12626823476052784 0.9133236532417168
0.5069747 0.13186642617120822 0.9125265009352248
0.5089746 0.13775726697738722 0.9119306106419045
0.5109745 0.14393440190051515 0.911248373047397
0.5129744 0.14974906450859418 0.9107962321742868
0.5149743 0.15490630424913762 0.909528928622488
0.5169742 0.16076659332632742 0.9077113020779097
0.5189741 0.16664253314892175 0.9061065288293862
0.520974 0.17318872580505212 0.9046723192501819
0.5229739 0.17985410928697226 0.902809003241239
0.5249738 0.18576322924446498 0.9014097607235219
0.5269737 0.19193225029964853 0.8995668040213308
0.5289736 0.1979924334615435 0.8969213190635497
0.5309735 0.20426585732971891 0.8950797740456514
0.5329734 0.21098316941060166 0.892689636300061
0.5349733 0.2173030627581718 0.890247310302803
0.5369732 0.2240286285044919 0.8882517902917622
0.5389731 0.23105490281628072 0.8858062768831468
0.540973 0.2376803949628789 0.8831608350469623
0.5429729 0.2448270250916234 0.881206790893473
0.5449728 0.2518828415203327 0.8788912410379864
0.5469727 0.2589191355830175 0.8770106800597367
0.5489726 0.2660103417778475 0.8744697563551809
0.5509725 0.27320631686886515 0.8728405882607666
0.5529724 0.2802798376661651 0.8710897435500771
0.5549723 0.2874481821104027 0.8689833123795876
0.5569722 0.29402098055582215 0.8670887613531552
0.5589721 0.30144544390056255 0.8654148779503215
0.560972 0.3083284171092385 0.86405029649841
0.5629719 0.3151159611907606 0.8620508478889494
0.5649718 0.32188108063094334 0.8606542523392856
0.5669717 0.32854374877741577 0.8589445853228146
0.5689716 0.3347086103394168 0.857415460164381
0.5709715 0.3406271545892397 0.8552812365691993
0.5729714 0.346384365387769 0.8532387137193161
0.5749713 0.35271383849007687 0.8512186754060814
0.5769712 0.3588712506194503 0.8490482334239488
0.5789711 0.364335806972358 0.8471842201277529
0.580971 0.37039685165785186 0.8450790510709502
0.5829709 0.3755226282813206 0.8427739024683663
0.5849708 0.38144529906577795 0.8405558801431158
0.5869707 0.3869137076755258 0.8378212225506588
0.5889706 0.39283120730760535 0.8346691797890222
0.5909705 0.39827475138293544 0.8314740384352604
0.5929704 0.40404547252431816 0.8279874575420337
0.5949703 0.4098255944064602 0.8245840455758202
0.5969702 0.415167855246576 0.8213167471892684
0.5989701 0.42134989722658833 0.8179946811274682
0.60097 0.4266725734491763 0.8143503624670649
0.6029699 0.4329647033944633 0.8101741459696411
0.6049698 0.4386617442413771 0.8067592531483075
0.6069697 0.4447977722228695 0.8024152684568463
0.6089696 0.4510150849291318 0.7991284603633301
0.6109695 0.45690102231596674 0.7951913310031165
0.6129694 0.46369396770441695 0.7909219043893657
0.6149693 0.4697301828234099 0.7871212615511461
0.6169692 0.4763719600018882 0.7833779398655609
0.6189691 0.48279110123917723 0.7796564644120729
0.620969 0.48938596023403136 0.7757351729118074
0.6229689 0.495610198336211 0.772017305144877
0.6249688 0.5019167493931349 0.7682564220450371
0.6269687 0.5086344319055768 0.7643330590599231
0.6289686 0.5147785159088545 0.7609866823298037
0.6309685 0.5212310753657543 0.7576722024319202
0.6329684 0.5268084276267354 0.7543954001437143
0.6349683 0.5327071291289187 0.7505894544060742
0.6369682 0.5382918207161422 0.7472097221191403
0.6389681 0.5442396152612949 0.7437226572516649
0.640968 0.5507017938975645 0.7406648736482131
0.6429679 0.555748373746355 0.737460151140479
0.6449678 0.5611230266276351 0.733927871740703
0.6469677 0.5665583571432096 0.7306560336771685
0.6489676 0.5720541230237621 0.726908303816152
0.6509675 0.5767760016416683 0.723122144845588
0.6529674 0.5817226049326195 0.7195346149801961
0.6549673 0.5864218697542667 0.7156545642004376
0.6569672 0.5915235506475548 0.711784861824798
0.6589671 0.5962127505237315 0.7073456519908187
0.660967 0.6006656217910361 0.703242699997344
0.6629669 0.6052631184659429 0.6983521542381185
0.6649668 0.6098029260308484 0.6934914799958908
0.6669667 0.6143474126345908 0.6885450989364685
0.6689666 0.6191211395738089 0.6834623135588231
0.6709665 0.6238103084752751 0.6782644558702974
0.6729664 0.628407900001601 0.6729841188252649
0.6749663 0.6330214732387756 0.667660638412953
0.6769662 0.6377549174380921 0.6616366068770965
0.6789661 0.6426056143803498 0.6560730370744313
0.680966 0.6472764962403241 0.6502805899477553
0.6829659 0.652397967327916 0.6445994840416407
0.6849658 0.6579037832116716 0.638834212913551
0.6869657 0.6631119634143793 0.6333935988637116
0.6889656 0.6687160419723287 0.6280833519752933
0.6909655 0.6736063191231993 0.6223043960222122
0.6929654 0.6791055752436959 0.6166837182438414
0.6949653 0.6842603049259447 0.6112238225857723
0.6969652 0.6896849945275764 0.6053725847257906
0.6989651 0.6948311204331908 0.6003692035114736
0.700965 0.7004193598677398 0.5946190881036459
0.7029649 0.7052086816948944 0.5895823595265456
0.7049648 0.7103741704328 0.5843703412956379
0.7069647 0.7151763055732356 0.5792308452508688
0.7089646 0.7205910394152584 0.5741202336579997
0.7109645 0.7253536714401935 0.5695663014374452
0.7129644 0.7295421402837701 0.564354852168927
0.7149643 0.734121232598502 0.5595859606824066
0.7169642 0.738208084105769 0.5546262296912545
0.7189641 0.7425298195612524 0.549499877469505
0.720964 0.7464426805812236 0.544143434888173
0.7229639 0.7505888589914643 0.538846681977792
0.7249638 0.7544330686528142 0.5337748445232973
0.7269637 0.7586983363236908 0.5287755991030362
0.7289636 0.7618276718120651 0.5229643744620368
0.7309635 0.7657619315316826 0.5177906374428606
0.7329634 0.7693826255172254 0.5122053541950514
0.7349633 0.7726083053622342 0.5063466037633341
0.7369632 0.7758821332564395 0.5005900441225011
0.7389631 0.778717499833564 0.4943528962598952
0.740963 0.7823160000261049 0.4883042980355087
0.7429629 0.7854807422950654 0.482429702835663
0.7449628 0.7889446103332641 0.47570049392146563
0.7469627 0.7920144051836063 0.46874637545734177
0.7489626 0.7953419902227933 0.46236848430457933
0.7509625 0.7985672212131139 0.45587161004417365
0.7529624 0.8016286714313672 0.4492636046741131
0.7549623 0.8052556542923492 0.44251581373373067
0.7569622 0.8090329631634244 0.4357485237000725
0.7589621 0.8121211517323749 0.4287423301128919
0.760962 0.8157336314744322 0.42183572057696295
0.7629619 0.8193645534333048 0.41531416018412703
0.7649618 0.8227432766338126 0.40852129015340083
0.7669617 0.8261505716895134 0.4015511266935923
0.7689616 0.8299230112568255 0.39479706955640104
0.7709615 0.8330666675534719 0.3884219246888352
0.7729614 0.8363687693021176 0.3812419112969745
0.7749613 0.8395590979985758 0.37520116428810224
0.7769612 0.8431002504099071 0.36877457051831686
0.7789611 0.8466066936261318 0.36244878079539256
0.780961 0.8496934097982223 0.3557591932886359
0.7829609 0.8525982105960627 0.3498316289348981
0.7849608 0.8555040810288002 0.34328557806049503
0.7869607 0.8584823173537197 0.3369987853630117
0.7889606 0.8610329455014825 0.3307983569328086
0.7909605 0.8637432083433395 0.3245687336646381
0.7929604 0.8665358189711023 0.31833587765927285
0.7949603 0.869431941870661 0.31186736414708616
0.7969602 0.8714710796216494 0.3058248003698091
0.7989601 0.8735692662031667 0.2992423935021118
0.80096 0.8765241878204064 0.29289307487939564
0.8029599 0.8787043341164511 0.2863994550241986
0.8049598 0.8800597283976183 0.2799032396950489
0.8069597 0.8822983917772519 0.2734058040968149
0.8089596 0.883660577122303 0.2666434078868026
0.8109595 0.8855080205209049 0.259550084934816
0.8129594 0.8870397261215633 0.25272585867034864
0.8149593 0.8885458989757677 0.2458308808122986
0.8169592 0.890083468075118 0.2388134527971898
