! Created with skrf 1.8.0 (http://scikit-rf.org).
# GHz S RI R 50.0 
!freq ReS11 ImS11
0.001 -1.1638912552582383 0.01568661294828738
0.0029999 -0.9635009411595574 -0.024739901748500825
0.0049998 -0.9461531592101999 0.0030535102107944745
0.0069997 -0.943271081081061 0.01619783065491287
0.0089996 -0.9436361255774831 0.02552654463922699
0.0109995 -0.9423514369801208 0.03268390779781927
0.0129994 -0.9424045129464077 0.0401862067155464
0.0149993 -0.941917310536921 0.04766764115889632
0.0169992 -0.9415369371669338 0.05316789514612552
0.0189991 -0.9414728641471581 0.05866525679516299
0.020999 -0.9408172827852208 0.06453652921648168
0.0229989 -0.9402425171667821 0.07045750796676797
0.0249988 -0.9394093137892676 0.07606146364274355
0.0269987 -0.9385613812572305 0.0820342805894159
0.0289986 -0.937809495423504 0.08784824705358694
0.0309985 -0.9368866866883317 0.09346389126643376
0.0329984 -0.9361443889470723 0.0992539373681286
0.0349983 -0.9351688288187182 0.10491615915682223
0.0369982 -0.9341731127081309 0.11056805418374932
0.0389981 -0.933234926351445 0.1162552618538023
0.040998 -0.9321974890953807 0.12197364352697482
0.0429979 -0.9309532480185742 0.12722639403463865
0.0449978 -0.9295774879378478 0.13287279040411598
0.0469977 -0.9286183710685186 0.13867615147991869
0.0489976 -0.926960406429357 0.1445364930394239
0.0509975 -0.9257088852858251 0.15001593741368657
0.0529974 -0.9248018884296662 0.15503633874589118
0.0549973 -0.9225150054818629 0.16316497503475713
0.0569972 -0.9216978845881675 0.1678376641840711
0.0589971 -0.9204107194163763 0.17355854784831487
0.060997 -0.9190640036384815 0.17985709413641837
0.0629969 -0.9181389503965524 0.18497808328932425
0.0649968 -0.9159539896957895 0.19078075188680327
0.0669967 -0.9156013707139358 0.19725169138477563
0.0689966 -0.9139351717834687 0.2023100663812941
0.0709965 -0.9127806498381429 0.20767303339531618
0.0729964 -0.9110825555627218 0.2141167344216987
0.0749963 -0.9096722385428736 0.21953357103971108
0.0769962 -0.9085819712467728 0.2249128740328841
0.0789961 -0.9071928160016292 0.2303692338848375
0.080996 -0.905459676892171 0.23583666124394478
0.0829959 -0.9039881738791307 0.24170773545504595
0.0849958 -0.9028952950057318 0.24645782379571718
0.0869957 -0.9015554661571941 0.2521400439228054
0.0889956 -0.8999011058196902 0.2572832132662942
0.0909955 -0.8980768479790275 0.262550112438707
0.0929954 -0.8961663244143167 0.26773001939844693
0.0949953 -0.8943399909025254 0.27313544949601826
0.0969952 -0.8927874110768255 0.27816177773560846
0.0989951 -0.8905245631993971 0.28341232237236624
0.100995 -0.8895633977806755 0.28931510281450906
0.1029949 -0.8877107297794167 0.2947117441844588
0.1049948 -0.8856332334144625 0.29963086039452924
0.1069947 -0.8833288296762078 0.30425175062986587
0.1089946 -0.8812250341045484 0.309513338978919
0.1109945 -0.8786492066868623 0.3146729156042441
0.1129944 -0.8766236565216501 0.31964898173539663
0.1149943 -0.8740393582599757 0.32467480661264103
0.1169942 -0.8716944330645261 0.32987081191328715
0.1189941 -0.8691395297979341 0.3349229792737146
0.120994 -0.8668141755095397 0.34029392000916026
0.1229939 -0.8640808905098092 0.34548275049944155
0.1249938 -0.8615077699012645 0.35122610781372654
0.1269937 -0.8592154719365285 0.35596378695741293
0.1289936 -0.8570566922626515 0.3617183944806849
0.1309935 -0.854367203937182 0.3668553122513243
0.1329934 -0.8518889686825823 0.37223643367647385
0.1349933 -0.8489824375311033 0.37750265768448
0.1369932 -0.8467121084671885 0.3823333600667099
0.1389931 -0.8439861455815334 0.3876383520757593
0.140993 -0.8415643781742977 0.39294839365808665
0.1429929 -0.8386227127181132 0.39825973603839593
0.1449928 -0.8368412974848829 0.403539893268379
0.1469927 -0.8342081430122356 0.4084810834414615
0.1489926 -0.831705127157753 0.41361565818774454
0.1509925 -0.8289476405587046 0.418019577255426
0.1529924 -0.8260492705472563 0.4237905832775212
0.1549923 -0.8242213141477912 0.4289821271538642
0.1569922 -0.8217277235469198 0.4339967405532752
0.1589921 -0.8187830147653249 0.4391239958775948
0.160992 -0.8160553733373499 0.44383441005492846
0.1629919 -0.8132269718714712 0.4489524308883975
0.1649918 -0.8108126233430485 0.45360890655867087
0.1669917 -0.8081104377777246 0.45799489032416163
0.1689916 -0.8050298216952537 0.46314373063524383
0.1709915 -0.8019597487944625 0.46791886332639976
0.1729914 -0.7992718955660458 0.47260010010942044
0.1749913 -0.7962396374913591 0.47703390663060985
0.1769912 -0.7934242777455159 0.48167947704475
0.1789911 -0.7904716046893628 0.48639289693736965
0.180991 -0.7870612461267451 0.4909167237040568
0.1829909 -0.784163943262822 0.4957529361122523
0.1849908 -0.7809421760627749 0.5000983248180576
0.1869907 -0.7778293404846792 0.5045659124230983
0.1889906 -0.7744240076421786 0.5093194990134519
0.1909905 -0.7713688511804604 0.5140569801280399
0.1929904 -0.7679781340680985 0.5183743106032846
0.1949903 -0.7644832500693972 0.5228424613194045
0.1969902 -0.7611380530501926 0.5273910057593395
0.1989901 -0.757833541476625 0.5320292424858565
0.20099 -0.7544355508207499 0.5366684690249333
0.2029899 -0.7510280146099554 0.5409972363388109
0.2049898 -0.7475889401529651 0.5454459019083178
0.2069897 -0.7442821407002251 0.5497869849248189
0.2089896 -0.7406934741411528 0.5545214066304807
0.2109895 -0.7372307761136767 0.558540537482336
0.2129894 -0.7336242634129019 0.563786883629346
0.2149893 -0.7301111430645931 0.5676820908360891
0.2169892 -0.726468786461712 0.572448752816069
0.2189891 -0.722686964456127 0.5769380601234448
0.220989 -0.7195303720103967 0.5812482880692591
0.2229889 -0.7158670303187868 0.585695289427751
0.2249888 -0.7117646111999085 0.5897931021713032
0.2269887 -0.7080790603285475 0.5939485628580662
0.2289886 -0.7039441962610418 0.5982121088589981
0.2309885 -0.7005447358468846 0.6028759614710376
0.2329884 -0.6965198582993019 0.60711109857135
0.2349883 -0.6924557572756493 0.6116351506329907
0.2369882 -0.6884976014561877 0.6155656064643531
0.2389881 -0.6849751612977646 0.6202848767816591
0.240988 -0.6809561145891629 0.624324605991415
0.2429879 -0.6768328384491942 0.6284602995041713
0.2449878 -0.6728522488573384 0.632706060272382
0.2469877 -0.6689408411895836 0.6367547897221282
0.2489876 -0.6653076206188354 0.6413928909935961
0.2509875 -0.6611826449079019 0.6456190707833441
0.2529874 -0.6573402318713882 0.6496878586013246
0.2549873 -0.6538903722213809 0.6537951620387632
0.2569872 -0.6498409379155532 0.6582965900471469
0.2589871 -0.6460002164294512 0.6624711697019254
0.260987 -0.6419878087236616 0.6663384496477891
0.2629869 -0.6383579093044193 0.6702487989233684
0.2649868 -0.6344424711736638 0.6738344798149525
0.2669867 -0.6304450893399896 0.6777190427096575
0.2689866 -0.6265194974682918 0.6814998782186139
0.2709865 -0.6227262325866099 0.6852867168805188
0.2729864 -0.618917743081473 0.6890250799575326
0.2749863 -0.6151214352262169 0.6923522659427888
0.2769862 -0.6112964343404467 0.6957480934444454
0.2789861 -0.607158280312274 0.6992099799327096
0.280986 -0.6030517855696879 0.7023235637312529
0.2829859 -0.5989841692255979 0.7055301272073726
0.2849858 -0.5945746640131719 0.7086067402021979
0.2869857 -0.5901402273706848 0.7119869692409708
0.2889856 -0.5857827816340219 0.7150153013339886
0.2909855 -0.5810227179218028 0.7182356197365423
0.2929854 -0.5767685128896248 0.7212491603515028
0.2949853 -0.571875256720031 0.7244857709309624
0.2969852 -0.5672803502664884 0.7272923929393847
0.2989851 -0.562650272227731 0.7300125376638574
0.300985 -0.5573704639054632 0.7329548903085635
0.3029849 -0.5521161739832906 0.7354829277739419
0.3049848 -0.547062723929636 0.7388679176446717
0.3069847 -0.5418866590214747 0.7417586578247376
0.3089846 -0.5362268338664192 0.7447963776743556
0.3109845 -0.5305906166839971 0.7477306965267627
0.3129844 -0.5251847267369663 0.750792788349024
0.3149843 -0.5197964820826432 0.7540028237473292
0.3169842 -0.5144658397613238 0.757271375528791
0.3189841 -0.5089019394761987 0.7603238198937976
0.320984 -0.5031935954707237 0.7631891495535839
0.3229839 -0.497754825637317 0.7664429817873858
0.3249838 -0.4923495305898199 0.7696909644185473
0.3269837 -0.48691562054876436 0.7730978777374404
0.3289836 -0.4815608079304575 0.7762651108652252
0.3309835 -0.4760804611045527 0.7798123529268097
0.3329834 -0.47148381456707156 0.783212417249856
0.3349833 -0.46644395087420687 0.787203487804163
0.3369832 -0.461504411262575 0.7906432793363787
0.3389831 -0.45685824801829555 0.7946177500910883
0.340983 -0.45187135065034423 0.7982240902715949
0.3429829 -0.44763020930826425 0.8025637510332788
0.3449828 -0.4429963354181426 0.8060564586211938
0.3469827 -0.4384346152688358 0.8095976361950478
0.3489826 -0.4339824469978432 0.8129699512845343
0.3509825 -0.4294342900492145 0.8162669328060757
0.3529824 -0.4244611273600537 0.8194189305941526
0.3549823 -0.4202898702636158 0.8226679853221556
0.3569822 -0.41574715939572016 0.8251476243908634
0.3589821 -0.4116782121326828 0.8280324888316279
0.360982 -0.40702742807652 0.830726231696167
0.3629819 -0.40243552725796466 0.8331849769018334
0.3649818 -0.3976419351266663 0.8350198852244409
0.3669817 -0.3932093840179442 0.8368394910367661
0.3689816 -0.3880205350000197 0.8389493250770471
0.3709815 -0.3831107378055145 0.8408600942543821
0.3729814 -0.3778321649662256 0.8424911338563745
0.3749813 -0.3730495939770826 0.844386106539822
0.3769812 -0.3680394282454286 0.8460657779232111
0.3789811 -0.36284159151058815 0.8478969529184666
0.380981 -0.3571054505718324 0.8489502770704298
0.3829809 -0.35145646529523616 0.8503811102516213
0.3849808 -0.3460716495423895 0.8527379586837225
0.3869807 -0.33991574343620334 0.8537944449454431
0.3889806 -0.3339554051036218 0.8558192308898569
0.3909805 -0.32776219031434545 0.8573438470317636
0.3929804 -0.32151375535336346 0.8593380210869895
0.3949803 -0.3153117217152164 0.8613284742326678
0.3969802 -0.3093907112433567 0.8630037647397342
0.3989801 -0.302994845196607 0.864657401941623
0.40098 -0.2967753277728556 0.8668016436080054
0.4029799 -0.2910112000506243 0.8690773916246886
0.4049798 -0.2842822506456604 0.8710337631495733
0.4069797 -0.2786069651248898 0.8734781536199597
0.4089796 -0.2725742422425509 0.8756208673801503
0.4109795 -0.2665567915122739 0.877942987950763
0.4129794 -0.2605296809934625 0.8802210654501682
0.4149793 -0.25474344979104824 0.8826652285621617
0.4169792 -0.24890047973523732 0.8850304593223796
0.4189791 -0.24313477457500732 0.8871723906519193
0.420979 -0.23777091968631758 0.8892692210468639
0.4229789 -0.23234340572934056 0.8913205019010982
0.4249788 -0.22703864849752217 0.8936695373670013
0.4269787 -0.22186246539213134 0.8954137454447341
0.4289786 -0.21687478210319053 0.8975688113659549
0.4309785 -0.2115171749375925 0.8988119939346495
0.4329784 -0.2063014969271075 0.9003997343996654
0.4349783 -0.2004306812434588 0.9013821858688782
0.4369782 -0.1955031390918132 0.9021078673150806
0.4389781 -0.19036785894498284 0.9033913724830508
0.440978 -0.185077198535555 0.903961014365214
0.4429779 -0.17989532977599976 0.9050916167977929
0.4449778 -0.17452927867801346 0.905525731299734
0.4469777 -0.16895576322198957 0.9057396088022238
0.4489776 -0.16330760098409122 0.9064729773389085
0.4509775 -0.1574271095596371 0.9069613435550825
0.4529774 -0.1516211467528235 0.9070083606770094
0.4549773 -0.14554798570185196 0.9074273118223182
0.4569772 -0.13901514043570828 0.9075822688759877
0.4589771 -0.13302103967184808 0.9076389116487624
0.460977 -0.12607487379078675 0.9079901352954357
0.4629769 -0.1195027774346342 0.9089356945327784
0.4649768 -0.11289800064562838 0.9091209838286773
0.4669767 -0.10629495712655243 0.909214963228856
0.4689766 -0.09982676918660086 0.9097953482430823
0.4709765 -0.09339605205752101 0.9105192289486983
0.4729764 -0.08625017376123897 0.9108676068554006
0.4749763 -0.07984022049926931 0.9122547401341137
0.4769762 -0.07324948895369643 0.9130152475621567
0.4789761 -0.06626453393518238 0.9139194581103938
0.480976 -0.05955780849073499 0.9151710841016356
0.4829759 -0.05296825577000898 0.9160079238529146
0.4849758 -0.04676405331922749 0.9169088201542793
0.4869757 -0.04030057830304097 0.9180553052749187
0.4889756 -0.033563688443137576 0.9191090847410048
0.4909755 -0.027149916657904068 0.9200249305878535
0.4929754 -0.021514721838700755 0.9211519458181565
0.4949753 -0.015644517518467738 0.9221482811352172
0.4969752 -0.010055767086129267 0.9224851799632451
0.4989751 -0.004166423862251741 0.9235324181267994
0.500975 0.0011807908492841935 0.9237950975710408
0.5029749 0.006862227198595297 0.9241538158804213
0.5049748 0.012000720987449885 0.9241969347917598
0.5069747 0.01706307182317377 0.9244607694936756
0.5089746 0.02293094790488575 0.9244272003537982
0.5109745 0.0281773904890492 0.9249696195984058
0.5129744 0.033907310241704666 0.9245896917772706
0.5149743 0.03861369299317334 0.9241279929589004
0.5169742 0.04414277634540667 0.9235163315943137
0.5189741 0.049856772703541996 0.922796106086887
0.520974 0.05604265041577125 0.9215361258305848
0.5229739 0.06225822777017444 0.9208396984383782
0.5249738 0.06743766924365391 0.9202154197253523
0.5269737 0.07375355297125322 0.9191767713715531
0.5289736 0.07943461849004428 0.9177062607282647
0.5309735 0.08555931076185395 0.9163498574877741
0.5329734 0.09178275801195468 0.9151701992860767
0.5349733 0.098131892206415 0.9135625856992295
0.5369732 0.10460307344302167 0.9123506036257726
0.5389731 0.11147208907504014 0.9113792500989137
0.540973 0.11780246456610124 0.9088103516301009
0.5429729 0.12453157047067769 0.9083269494317697
0.5449728 0.13150327899614367 0.9071503805296698
0.5469727 0.13833514634630228 0.9059979746420489
0.5489726 0.14495677313871366 0.90504160694367
0.5509725 0.15215843711900545 0.9039269570999612
0.5529724 0.1586920895601653 0.9032315961531776
0.5549723 0.16555408408457095 0.9024111475773919
0.5569722 0.17222704811446352 0.9014695194943205
0.5589721 0.17913542830898646 0.9006617827408375
0.560972 0.1858110462860803 0.9003385681262125
0.5629719 0.19188722974476244 0.8997059653168203
0.5649718 0.19912174266750557 0.8992189510241749
0.5669717 0.2051194096162019 0.898419666822181
0.5689716 0.21103885972466363 0.8979790096421157
0.5709715 0.21669969583366566 0.8967927670962929
0.5729714 0.22220772326961902 0.8958189409391631
0.5749713 0.22849401017881354 0.8945729184142995
0.5769712 0.234082184169086 0.8933441162510501
0.5789711 0.23940077287848435 0.8924822397235902
0.580971 0.2449791647270336 0.8914242706262656
0.5829709 0.2505209949791864 0.8898479485193932
0.5849708 0.2554822911917028 0.8883871628411235
0.5869707 0.2613088908813045 0.8870799605850476
0.5889706 0.26690361851140454 0.8846199099892258
0.5909705 0.2724115705285828 0.882322387325574
0.5929704 0.2778318906698768 0.8800497646001738
0.5949703 0.2838930040523398 0.8777252624881424
0.5969702 0.28920409194830315 0.8756116547541921
0.5989701 0.2948335432200132 0.8727582435401253
0.60097 0.3007356260075939 0.8704345320606965
0.6029699 0.3068797408637581 0.8673924007995999
0.6049698 0.3124713998759905 0.8647982102364542
0.6069697 0.3181808853748641 0.8618762218884325
0.6089696 0.3248873014614254 0.8593688373155332
0.6109695 0.33129263012685584 0.8569755361985011
0.6129694 0.33768234970710514 0.8538640330722113
0.6149693 0.34408430518042754 0.8514061622759557
0.6169692 0.3508098047729066 0.8483877776057344
0.6189691 0.35718645609453004 0.8458789535597435
0.620969 0.3639737359589124 0.84353254561666
0.6229689 0.3701496797081151 0.840881427023628
0.6249688 0.3766460652511551 0.8383764420269069
0.6269687 0.383581965188434 0.8357142830502098
0.6289686 0.3899216927633927 0.8337135920041787
0.6309685 0.39625417816151914 0.8319216012693501
0.6329684 0.4020791011653383 0.8294799118144888
0.6349683 0.40829469093056736 0.8270947589038076
0.6369682 0.41346291195671 0.8246536778580347
0.6389681 0.419910841661159 0.8222183038603066
0.640968 0.42593230575448354 0.820183694699485
0.6429679 0.43139121442493733 0.8181500851939368
0.6449678 0.436432558570652 0.8159279482187739
0.6469677 0.44170501455174904 0.813446064246745
0.6489676 0.44708136084390493 0.8111677498583064
0.6509675 0.45242993717632596 0.8085422225583702
0.6529674 0.45710702742965437 0.8059062995203558
0.6549673 0.46194776027218776 0.8032685065490032
0.6569672 0.4670033870336221 0.8001653998399345
0.6589671 0.47213410065027733 0.7973262762020233
0.660967 0.47643637256274995 0.793995664617385
0.6629669 0.48147066610066314 0.79030482134038
0.6649668 0.486009427040351 0.7861337472980525
0.6669667 0.49078537230877195 0.7826321042229093
0.6689666 0.49554690438212634 0.7785149623682621
0.6709665 0.5010760735396195 0.7742039610981691
0.6729664 0.5057906139064983 0.7702711681733476
0.6749663 0.5109454176694953 0.7655206284744649
0.6769662 0.5160296637255155 0.7615247893158886
0.6789661 0.5213348132373145 0.7562674098382004
0.680966 0.5268182997680239 0.7516493634489253
0.6829659 0.5322154020095344 0.7473591697963958
0.6849658 0.5381373141710292 0.7425675460335145
0.6869657 0.5441166285230236 0.7379151651951276
0.6889656 0.5500139616721298 0.7341810522427734
0.6909655 0.5557982075052278 0.7297699611519944
0.6929654 0.5620108725724342 0.7254310716003273
0.6949653 0.5675807542978162 0.7209143018673796
0.6969652 0.5736395125623351 0.7167847149178986
0.6989651 0.5793723277767069 0.7128305976370651
0.700965 0.5853989651971964 0.7084543814403494
0.7029649 0.5909842398478069 0.7045936116613776
0.7049648 0.5965922671244547 0.7010598001238556
0.7069647 0.6015453196466564 0.6965846985195355
0.7089646 0.6078189329822279 0.692988547217706
0.7109645 0.6128410487574691 0.6898661084323291
0.7129644 0.6178169751332766 0.6857131343012051
0.7149643 0.6224703336417458 0.682355164940941
0.7169642 0.6273884519631634 0.6788222757045096
0.7189641 0.6314764442177759 0.6749726230279892
0.720964 0.6366232060769661 0.6705942609442815
0.7229639 0.6406364201431283 0.6667219310606458
0.7249638 0.6456458680898972 0.6626812045028221
0.7269637 0.649735965200577 0.6590428202042431
0.7289636 0.6538169135016456 0.6547448053633985
0.7309635 0.6580926162592391 0.650528015178553
0.7329634 0.6623470732982696 0.6458522380748457
0.7349633 0.6656713210392917 0.6412503209173922
0.7369632 0.6702033829841929 0.636507556916776
0.7389631 0.673180536573965 0.6316077076535616
0.740963 0.6774107402144581 0.6265487432190056
0.7429629 0.681088199590625 0.620952352249354
0.7449628 0.6850719300974363 0.6157814403772967
0.7469627 0.689305672900898 0.6096621752523417
0.7489626 0.6932721946844954 0.6041026407539151
0.7509625 0.6972243943155114 0.598746285698527
0.7529624 0.7014362851989981 0.5928363100504889
0.7549623 0.7053724105185246 0.5872795293121299
0.7569622 0.7104053164881102 0.581543916399117
0.7589621 0.7144631591274178 0.5754830733690164
0.760962 0.719248720414822 0.5697086011338086
0.7629619 0.7236198350028319 0.5640999536461201
0.7649618 0.728105673471857 0.5585288475020646
0.7669617 0.7326366263214624 0.5527063932025211
0.7689616 0.7371909547147866 0.5470652590874404
0.7709615 0.741921797152686 0.541522899062475
0.7729614 0.7462211276685339 0.5360062313953659
0.7749613 0.750660295338399 0.5306166568370226
0.7769612 0.7549387934605912 0.5255221181461586
0.7789611 0.7595979023366018 0.5202230463840234
0.780961 0.7634325645668945 0.5150760063874267
0.7829609 0.7675674195430178 0.5097960227457952
0.7849608 0.7714502710635287 0.5047213998279383
0.7869607 0.7754132986454209 0.4996774771820419
0.7889606 0.7792859313474902 0.4945567871141232
0.7909605 0.782733452836372 0.4894481861159886
0.7929604 0.7865742978905824 0.48439519295745215
0.7949603 0.7900537892041662 0.47938113662456205
0.7969602 0.7934846789387751 0.4741859453463391
0.7989601 0.7963885280609877 0.4689264160976879
0.80096 0.8002044548181957 0.4637591367957923
0.8029599 0.8031332337514383 0.4584335545528574
0.8049598 0.8060480419115594 0.4526761196129852
0.8069597 0.8085159273231299 0.4476338129182264
0.8089596 0.8111431052171384 0.4416214814387536
0.8109595 0.8136122115694397 0.4355194762937544
0.8129594 0.8163531403413629 0.4297852877783244
0.8149593 0.818778036313771 0.4239653467755665
