! Created with skrf 1.8.0 (http://scikit-rf.org).
# GHz S RI R 50.0 
!freq ReS11 ImS11
0.001 -1.0013688901584037 0.04362182516775844
0.0029999 -1.0008188090136731 -0.010848741293173703
0.0049998 -0.9593076029100618 0.016702669258467195
0.0069997 -0.9518007466575971 0.025183560327289023
0.0089996 -0.9455564289414066 0.03696220336971179
0.0109995 -0.943410345705596 0.045380238689370245
0.0129994 -0.9417893276488781 0.053530698262911125
0.0149993 -0.9412398310838819 0.06129069408666188
0.0169992 -0.939915837988129 0.06822001449041637
0.0189991 -0.9394198409507647 0.07490470519668269
0.020999 -0.9383232729442669 0.08233914907422307
0.0229989 -0.9373438747830629 0.08901567426622514
0.0249988 -0.9360369725305623 0.09595925930189864
0.0269987 -0.9347347876275452 0.10317312078074106
0.0289986 -0.9336129514978608 0.11025701934569124
0.0309985 -0.9323348847502905 0.1171516198592289
0.0329984 -0.9311803792283203 0.12445183594638165
0.0349983 -0.9297508692565181 0.13154550838926293
0.0369982 -0.9283402402878969 0.13833187451542622
0.0389981 -0.926886512065087 0.14554687156765939
0.040998 -0.9254386907736131 0.1528152773662177
0.0429979 -0.9235570098049783 0.1598481225559678
0.0449978 -0.9218289182846344 0.16644425678381852
0.0469977 -0.9203102210742856 0.17371212506488576
0.0489976 -0.9179742576760903 0.18124622839171123
0.0509975 -0.9163128112329877 0.1881652603813756
0.0529974 -0.91489693769287 0.19370350764480987
0.0549973 -0.9114213242065528 0.2055132369508611
0.0569972 -0.9102544802291725 0.21053906046156767
0.0589971 -0.9085087308883518 0.21789986233590086
0.060997 -0.9067386007589406 0.22547676546357776
0.0629969 -0.9045657229268103 0.232242378466784
0.0649968 -0.9021616739641953 0.23982276146906398
0.0669967 -0.9010454060811175 0.2474956614122633
0.0689966 -0.8988544576497969 0.25371261118889377
0.0709965 -0.8968503597983115 0.2611724780417315
0.0729964 -0.894152741455927 0.26858951417893745
0.0749963 -0.8923845718392777 0.2751338866452206
0.0769962 -0.8907704806981045 0.28226724865700514
0.0789961 -0.8884096213346031 0.2886333719129871
0.080996 -0.885975130345946 0.2958082748570869
0.0829959 -0.8835896387346996 0.3026102701901456
0.0849958 -0.8814729130393321 0.30899000381777775
0.0869957 -0.8793329410601924 0.31581282736543015
0.0889956 -0.8768886166949115 0.32222374020664085
0.0909955 -0.8742143204907816 0.32829480508044184
0.0929954 -0.8712641411224017 0.3346263986063415
0.0949953 -0.8685415765657324 0.34116375288798173
0.0969952 -0.8659230465889826 0.34739154023762364
0.0989951 -0.8625655861549416 0.35393112508855884
0.100995 -0.8610022792266605 0.3609476892796154
0.1029949 -0.8582057438645274 0.3672840949896423
0.1049948 -0.8550672094908227 0.37335424598001055
0.1069947 -0.8516209546092444 0.37902703609589455
0.1089946 -0.8483909055457588 0.3853493123779073
0.1109945 -0.8448498508795598 0.3915672964631754
0.1129944 -0.8416435478575394 0.39753909321479985
0.1149943 -0.8378384344132794 0.40365845042068305
0.1169942 -0.8343296131676485 0.41000619693513746
0.1189941 -0.830401446011555 0.4161878248995944
0.120994 -0.8267292054839214 0.4226853811052754
0.1229939 -0.8229350243283747 0.429009972712249
0.1249938 -0.8193131960184434 0.4355776539044566
0.1269937 -0.8156986543715682 0.44136025776496274
0.1289936 -0.8122101462425559 0.44837300090015464
0.1309935 -0.8081332101873577 0.4543238766423881
0.1329934 -0.8041730727570893 0.46086834025964124
0.1349933 -0.8003682638677092 0.4672007180781656
0.1369932 -0.796529972332917 0.47332722088804063
0.1389931 -0.7924884298699246 0.47912736684630985
0.140993 -0.7887586876352799 0.48620599310910134
0.1429929 -0.7845313862192973 0.49210613862225383
0.1449928 -0.7811829436795986 0.49906264864019145
0.1469927 -0.7772255840231561 0.504775562960393
0.1489926 -0.773417331341109 0.5107589571758657
0.1509925 -0.7690591076918549 0.5167185433468642
0.1529924 -0.7652009118610144 0.5228639300245753
0.1549923 -0.7615567827930068 0.5292990497193799
0.1569922 -0.7570850005923603 0.5349997193363221
0.1589921 -0.7534083630336001 0.5409594417442989
0.160992 -0.7490699867899808 0.5467369145303104
0.1629919 -0.7448353227369722 0.5527051624552591
0.1649918 -0.7407712315062833 0.55799781320114
0.1669917 -0.7361126521220219 0.5635706587220521
0.1689916 -0.7320211284023096 0.5690816361403421
0.1709915 -0.7276183091053436 0.5745318697167022
0.1729914 -0.7232123474397533 0.5799741568319469
0.1749913 -0.7183921591446859 0.585272800167674
0.1769912 -0.7142301016309834 0.5906922065585881
0.1789911 -0.7097492864736887 0.5957185239842842
0.180991 -0.7050067579340962 0.6010599813977162
0.1829909 -0.7002267767681231 0.6063640734221246
0.1849908 -0.6955878975873965 0.611514258688431
0.1869907 -0.6906663580374048 0.6164435701950205
0.1889906 -0.6858056867030153 0.6220046038211405
0.1909905 -0.6806795894438225 0.6270170445535372
0.1929904 -0.675817966203719 0.6320051309326742
0.1949903 -0.6706825953328308 0.6369121273448648
0.1969902 -0.6655771687007448 0.6423383830815583
0.1989901 -0.6601732060623194 0.6473068436805522
0.20099 -0.6551714061082796 0.6526069928973386
0.2029899 -0.6500628093149705 0.6571999231738092
0.2049898 -0.6450149554070816 0.662091907040104
0.2069897 -0.6395980503366484 0.6669835586064315
0.2089896 -0.6344840711631995 0.6720688619365902
0.2109895 -0.6289358198670852 0.6771751761940962
0.2129894 -0.6232920962372502 0.6820542259451355
0.2149893 -0.6182730189666729 0.6869028057578331
0.2169892 -0.6124602770848815 0.6919708638523673
0.2189891 -0.6070806797137367 0.6967854301712116
0.220989 -0.6017413003501192 0.7015583596315533
0.2229889 -0.5957790442889774 0.7060045227289004
0.2249888 -0.5901413606499689 0.7106560815696836
0.2269887 -0.5843816119613571 0.7152840468058566
0.2289886 -0.5785605881055714 0.7198873245250409
0.2309885 -0.5730417013537655 0.7246966906671372
0.2329884 -0.5665089506641983 0.7292600236230745
0.2349883 -0.5608789354625722 0.7334196418208976
0.2369882 -0.5549675341733138 0.7382357757224293
0.2389881 -0.5495330856338896 0.74290763081085
0.240988 -0.5433491846749894 0.746793009110276
0.2429879 -0.537094662558087 0.7514026628558268
0.2449878 -0.5311247886030087 0.7557465092611045
0.2469877 -0.5251721773351806 0.7601157674513991
0.2489876 -0.5195185514477931 0.764642918004228
0.2509875 -0.5131932279953076 0.7688661045590142
0.2529874 -0.5073836664705283 0.7728670719365712
0.2549873 -0.5017710273568489 0.7775359293541391
0.2569872 -0.49582650056528055 0.7818604900046617
0.2589871 -0.4894222592512151 0.7858910150480314
0.260987 -0.4835589183100355 0.7898785835788172
0.2629869 -0.4781054895693424 0.793877806189128
0.2649868 -0.47196856540649273 0.797397730332488
0.2669867 -0.4662174074118243 0.8008361574468994
0.2689866 -0.45989767550417915 0.804551752635276
0.2709865 -0.4541704238448042 0.8083243779671364
0.2729864 -0.4482484506327676 0.8117976315967376
0.2749863 -0.44209718727306446 0.8151569436030309
0.2769862 -0.4365292283221075 0.8186007448028294
0.2789861 -0.4303703619898015 0.8214447831831992
0.280986 -0.42422870280446534 0.824202025854166
0.2829859 -0.4182323503872931 0.8269606521785914
0.2849858 -0.41167521318300515 0.8299407561755605
0.2869857 -0.40499931617906815 0.8327074278846706
0.2889856 -0.3985976692918307 0.8352287408002821
0.2909855 -0.3918721735468311 0.8381274748762483
0.2929854 -0.38549028191805146 0.8407725510536485
0.2949853 -0.37838923516516476 0.8433200938632374
0.2969852 -0.3717348076391026 0.8454715046422613
0.2989851 -0.3647986698958845 0.8476392009025074
0.300985 -0.35729229067497476 0.8500899363137908
0.3029849 -0.35007502714034033 0.8518843385789451
0.3049848 -0.34310584955524603 0.8544484503396212
0.3069847 -0.3353631744583482 0.8561412424472072
0.3089846 -0.3271340494663299 0.8584960854463042
0.3109845 -0.319899050577531 0.8604941971601874
0.3129844 -0.3119837327546358 0.863268251785383
0.3149843 -0.30440108834239255 0.8652141867517759
0.3169842 -0.2966583270833081 0.8675203642594008
0.3189841 -0.28855312552549406 0.8698297862628371
0.320984 -0.28102125278877976 0.8716941906938374
0.3229839 -0.27291405497428356 0.8739767595318352
0.3249838 -0.26547734778907994 0.876264713322508
0.3269837 -0.25753080814115414 0.8783758260327964
0.3289836 -0.24999981112123382 0.8805891737563999
0.3309835 -0.24221163016708572 0.8832702184270042
0.3329834 -0.2348743284480316 0.8857548637522951
0.3349833 -0.2275927100304145 0.8889425309126068
0.3369832 -0.2205137091418884 0.8918356376636396
0.3389831 -0.21309397048451556 0.8948424595426118
0.340983 -0.20565462732982992 0.8976260184752498
0.3429829 -0.1988410517882674 0.9006831674792932
0.3449828 -0.1913355495634363 0.9032178332880031
0.3469827 -0.1841567924567628 0.9058592747152213
0.3489826 -0.17728412492362164 0.9077178447043237
0.3509825 -0.1702314445718089 0.9101923684605395
0.3529824 -0.16344380089885052 0.9124140023806397
0.3549823 -0.15656742169057236 0.9143807447217817
0.3569822 -0.14987899864969362 0.9159142709704633
0.3589821 -0.14323744773543068 0.9177074178864276
0.360982 -0.13652821769537055 0.918974557471165
0.3629819 -0.12982406409202424 0.9203827459836879
0.3649818 -0.12326545021523237 0.9211250645129457
0.3669817 -0.11615361055562373 0.9214764473328033
0.3689816 -0.10931328871536469 0.9223710198804731
0.3709815 -0.10204445899744324 0.9227679274095295
0.3729814 -0.09492916089029321 0.9230589296820472
0.3749813 -0.08808158052822082 0.9232532193027105
0.3769812 -0.08100980940063629 0.9232798884866142
0.3789811 -0.07361627268034285 0.9234374186660785
0.380981 -0.0661474474996863 0.9234719861067177
0.3829809 -0.05844353899721086 0.9234230230074536
0.3849808 -0.05057371320409768 0.9234175541190175
0.3869807 -0.04284545732583256 0.922729633945511
0.3889806 -0.03466013149184491 0.9224784081567096
0.3909805 -0.026256249709452884 0.9224291857848932
0.3929804 -0.01799640923325424 0.9220333144035442
0.3949803 -0.009320606129008719 0.9217388110647764
0.3969802 -0.0014238150532696475 0.92172597238528
0.3989801 0.006910398676925569 0.9216443363297029
0.40098 0.015585635046189521 0.9214456154913082
0.4029799 0.023353970405316428 0.9217486515386465
0.4049798 0.03188020269799241 0.9215645085232559
0.4069797 0.04034047660093188 0.9216931142549756
0.4089796 0.04843038993581774 0.9214528222435824
0.4109795 0.05657089962549802 0.9219020130110546
0.4129794 0.06489874941283746 0.9221267202647548
0.4149793 0.07346068220449192 0.9218399531004082
0.4169792 0.08087220056396495 0.9222560055269786
0.4189791 0.08873416570710779 0.9220572155321888
0.420979 0.0962883209802132 0.9218981283976904
0.4229789 0.10414911103973447 0.9218972316036858
0.4249788 0.11160134722532555 0.9219625633857225
0.4269787 0.11877373585941861 0.9215664676997037
0.4289786 0.12586801385535995 0.9211912774576323
0.4309785 0.1330735071525727 0.9207021370958446
0.4329784 0.1406885166172628 0.9199531707690215
0.4349783 0.14817302300994803 0.9180882561639807
0.4369782 0.15472968005556567 0.9169957259175987
0.4389781 0.16224915655567299 0.9160910944248566
0.440978 0.169096394702422 0.9145127100583561
0.4429779 0.1760463517537816 0.9127796041462473
0.4449778 0.18312059114338508 0.910958019546548
0.4469777 0.19048262752768524 0.9091323545968307
0.4489776 0.19801993550152142 0.9072486388383878
0.4509775 0.2050775242642654 0.904760866982946
0.4529774 0.21277375034933071 0.9020554387417288
0.4549773 0.22033443109522158 0.8996477857321428
0.4569772 0.2279645632710943 0.8971124400567901
0.4589771 0.23583054595835848 0.8943466824248287
0.460977 0.2439727993454826 0.8919394767459796
0.4629769 0.25214364791625005 0.8896021165027366
0.4649768 0.26025508111964174 0.886868964635209
0.4669767 0.2682433911392048 0.884022525536473
0.4689766 0.2764149564598166 0.8815001473582676
0.4709765 0.284387590472832 0.8789907206368947
0.4729764 0.29291862994846013 0.8764064452032552
0.4749763 0.3009542725410226 0.8738595044178896
0.4769762 0.30909701478171137 0.871167281030315
0.4789761 0.31750875228945596 0.8688331751220502
0.480976 0.3258728926891726 0.8667577000525981
0.4829759 0.3343432088681312 0.8645076735666688
0.4849758 0.3421571635820636 0.8617574296078621
0.4869757 0.35009384584349995 0.8594573030039385
0.4889756 0.3583449717198772 0.857078935817173
0.4909755 0.36619773684343615 0.8546701979469389
0.4929754 0.37372795747218207 0.852179333003171
0.4949753 0.38100938529248013 0.8498905386160753
0.4969752 0.38829411865272945 0.8470865781252387
0.4989751 0.3953345662258212 0.844499713282223
0.500975 0.40205798705643164 0.8417030803916926
0.5029749 0.409131378223186 0.8388583227357251
0.5049748 0.41567502457178424 0.8359971783936271
0.5069747 0.4222471850930521 0.8326188217266167
0.5089746 0.42903688782308597 0.8297478002510059
0.5109745 0.43593027299703196 0.8269578934970219
0.5129744 0.4428018669087622 0.8231357152496227
0.5149743 0.44856523521147684 0.8199088924052359
0.5169742 0.45511183464179233 0.8154070709511031
0.5189741 0.4613559855649415 0.8115130326952499
0.520974 0.4688651564830332 0.8073604539332856
0.5229739 0.4754957697090518 0.8026485140096744
0.5249738 0.4815139311221789 0.7983945719010077
0.5269737 0.4887673136199453 0.794082852205664
0.5289736 0.49489355009824554 0.7892317573812382
0.5309735 0.5016525369389045 0.7848253447324357
0.5329734 0.5085842604525534 0.7794952096887724
0.5349733 0.5148362350759255 0.7736533759553386
0.5369732 0.5218550841121726 0.7691896740511709
0.5389731 0.5289008503810108 0.7638667045435082
0.540973 0.5354879699792188 0.7584031635850289
0.5429729 0.542766219535908 0.7532348844787066
0.5449728 0.5501386601371063 0.7481230549105842
0.5469727 0.5570064603740168 0.743067890792083
0.5489726 0.5640031198167514 0.7379455823333841
0.5509725 0.5709600909545313 0.7326422935255473
0.5529724 0.5780017583681691 0.7276971380971679
0.5549723 0.5851110148547409 0.7223921217510411
0.5569722 0.5918617308166214 0.7172812625126831
0.5589721 0.599095920616819 0.7122573250686737
0.560972 0.60601274336726 0.7075169724026059
0.5629719 0.6126086394986245 0.7024530892741774
0.5649718 0.6195450045413625 0.6972178516422369
0.5669717 0.6259376052285999 0.6921572118087619
0.5689716 0.6325461299885033 0.6873447637722986
0.5709715 0.6379855846225801 0.6820699801563537
0.5729714 0.6438162786532498 0.67732390192625
0.5749713 0.649932944738869 0.6718771084329378
0.5769712 0.6558497640662535 0.6662334798082556
0.5789711 0.6615687283914391 0.6611876142207902
0.580971 0.6677523429389434 0.6560319563064093
0.5829709 0.6731821203861683 0.6505139371663022
0.5849708 0.6784155293583845 0.6448558270098863
0.5869707 0.6838114224065581 0.6393554681655007
0.5889706 0.688923270696868 0.6333235143085806
0.5909705 0.6939576439555948 0.6269858689526402
0.5929704 0.699475468704234 0.6205519324027391
0.5949703 0.7049653235581659 0.613992315034636
0.5969702 0.7101468451179661 0.6080850212559817
0.5989701 0.7149933924683164 0.6016247924450724
0.60097 0.7199483946279059 0.5950665861377178
0.6029699 0.7253089921497995 0.5879424622759555
0.6049698 0.730002749163426 0.5816402178971702
0.6069697 0.7345776105690965 0.5745243557637159
0.6089696 0.7401267442677859 0.5675802174284249
0.6109695 0.7451187641396712 0.5603856735125775
0.6129694 0.7504065272238895 0.5534656346327955
0.6149693 0.7560007366086673 0.5465896196841339
0.6169692 0.7612355693163287 0.5392856375724049
0.6189691 0.7660163255751248 0.5322106439205363
0.620969 0.771563544340075 0.5245597323006407
0.6229689 0.7763489547184695 0.5181277449365876
0.6249688 0.7812892771886963 0.5111459598842716
0.6269687 0.7865112035667627 0.5035721002823172
0.6289686 0.7913833617493958 0.4967919936659116
0.6309685 0.7964855582711379 0.4899966160025034
0.6329684 0.8009325829537643 0.48315505439631096
0.6349683 0.8053161794698139 0.47586911973995893
0.6369682 0.8095415206308328 0.46915050185947926
0.6389681 0.8145008515370289 0.4620506618268245
0.640968 0.8189014061077486 0.4548107972372664
0.6429679 0.8230585858719133 0.4484274106850866
0.6449678 0.8273715671143667 0.44103380655734536
0.6469677 0.8313508920558462 0.43385627470105487
0.6489676 0.8350433371563382 0.4270772129126555
0.6509675 0.8385620370228273 0.42028398279979773
0.6529674 0.8422850567041714 0.412829402463314
0.6549673 0.8461556811958195 0.40533917947806974
0.6569672 0.8490979215493349 0.3984137765035187
0.6589671 0.8527546477184842 0.3906607993363231
0.660967 0.8561642955465718 0.3835143694780261
0.6629669 0.8588956380916167 0.3755854645200829
0.6649668 0.8616950396003987 0.36810856735962705
0.6669667 0.8646458457553701 0.3604710919920454
0.6689666 0.8679069728380195 0.3524389712063774
0.6709665 0.870647607728078 0.34418067987767464
0.6729664 0.8731259323009487 0.3365228306704117
0.6749663 0.8758801409548789 0.3283155039323597
0.6769662 0.8784906009094877 0.3197545091407469
0.6789661 0.8816598332934384 0.3122245976562773
0.680966 0.8841635681621657 0.3033255694589518
0.6829659 0.8868210311599618 0.29530237804982973
0.6849658 0.8894344782610109 0.28678059570081826
0.6869657 0.8922780771519886 0.2783288835031479
0.6889656 0.8950940338098334 0.2697473026962481
0.6909655 0.8974957844893501 0.261694094378498
0.6929654 0.9002542008591667 0.2531778345868933
0.6949653 0.9022975417798806 0.2451386307009748
0.6969652 0.90499528069076 0.23659875401318536
0.6989651 0.9070462152878818 0.2284175698653232
0.700965 0.9092605561806452 0.21997447343867896
0.7029649 0.9112463607506028 0.21193703422577018
0.7049648 0.9134842334277111 0.20376718258433751
0.7069647 0.914957401664947 0.1958625146183151
0.7089646 0.9176268224380028 0.1873763408166854
0.7109645 0.9193329761661015 0.1794954891239289
0.7129644 0.9208976040744735 0.17118520304342108
0.7149643 0.9222897344608791 0.16310225625889807
0.7169642 0.924098219551561 0.15493930178137869
0.7189641 0.9253838896804694 0.1467399694171158
0.720964 0.926569343616027 0.13812695878557119
0.7229639 0.9274811356256039 0.1301101666840493
0.7249638 0.9287620990151141 0.12161351772256099
0.7269637 0.9300190752332461 0.11378061414024954
0.7289636 0.9306734204848371 0.10520433261950218
0.7309635 0.9318287554349993 0.09694850970682695
0.7329634 0.9328687184946675 0.08839920460312228
0.7349633 0.9332697552312897 0.08047259000349907
0.7369632 0.9339915019943351 0.07190876940847557
0.7389631 0.9345500616378999 0.06336879694920067
0.740963 0.9348574119151406 0.05503852245897753
0.7429629 0.9354652086187475 0.04657180502182046
0.7449628 0.935988833064996 0.03789229468290892
0.7469627 0.9360788754501674 0.029474714250281905
0.7489626 0.9367312360151242 0.020882825541403832
0.7509625 0.9367404559202024 0.012554320520542478
0.7529624 0.9369021339415045 0.004033062017796699
0.7549623 0.9368849301203277 -0.004436149970276693
0.7569622 0.9369708639371145 -0.013347356413317177
0.7589621 0.9365329264725142 -0.02152387018979357
0.760962 0.93627012505121 -0.03013478261217281
0.7629619 0.9365397852550159 -0.03821282485646725
0.7649618 0.9360308534009848 -0.04680098731371497
0.7669617 0.9357583528167744 -0.05476189255245843
0.7689616 0.9350846921628482 -0.0632984439844535
0.7709615 0.9346089681480493 -0.07181261747157733
0.7729614 0.9335889352664832 -0.07988470062469288
0.7749613 0.9331671416459102 -0.08816745705252986
0.7769612 0.9318636149523299 -0.0963028140122631
0.7789611 0.931039705001815 -0.10452057275078211
0.780961 0.9297408718906044 -0.11258130410552063
0.7829609 0.9285513611434525 -0.12098534793814886
0.7849608 0.9272762151180222 -0.12917915521215
0.7869607 0.9260163294896351 -0.1373170967677595
0.7889606 0.924316436909796 -0.1456407920082834
0.7909605 0.9226506376983905 -0.15333786554734571
0.7929604 0.921013293074125 -0.16157792448115169
0.7949603 0.9192232478775254 -0.17040811792472232
0.7969602 0.9177748604559257 -0.17843344817940113
0.7989601 0.9153993960117289 -0.18654574034062762
0.80096 0.9137108728459551 -0.19562568069630495
0.8029599 0.9115284585037018 -0.20388167210973246
0.8049598 0.9096656053564338 -0.21264736696443054
0.8069597 0.9082856867703226 -0.2207049504497262
0.8089596 0.9059448624776599 -0.22909671171787765
0.8109595 0.9040356464260878 -0.23785234727706267
0.8129594 0.9020284208089769 -0.24626950971677022
0.8149593 0.9003163166422464 -0.2546418354640397
