! Created with skrf 1.8.0 (http://scikit-rf.org).
# GHz S RI R 50.0 
!freq ReS11 ImS11
0.001 -1.250738020648203 0.004595428995714856
0.0029999 -0.9651614152878432 -0.018684362439917113
0.0049998 -0.9459988211627057 0.009442351399038929
0.0069997 -0.9415618843590321 0.02356348428384919
0.0089996 -0.9426424517490045 0.03231637332607462
0.0109995 -0.9415656729764946 0.04147866895870678
0.0129994 -0.9415679924960697 0.05014497252827743
0.0149993 -0.9411145492937812 0.059201220422027356
0.0169992 -0.9402630639257888 0.0657411522934318
0.0189991 -0.9402034459927996 0.0729677784228473
0.020999 -0.9393264998237256 0.0803312001876772
0.0229989 -0.9384449535936278 0.08756061547317279
0.0249988 -0.9372490704200778 0.09463800581426465
0.0269987 -0.9361187250320275 0.10199133567564361
0.0289986 -0.9350498939527356 0.10915093253590738
0.0309985 -0.9337957720237247 0.11613357567507862
0.0329984 -0.932668308171313 0.12347104320115837
0.0349983 -0.931211560574754 0.13059994627516575
0.0369982 -0.929847214435613 0.13741666876455788
0.0389981 -0.9283895119235175 0.1446065463791263
0.040998 -0.926942228849968 0.15163439782851362
0.0429979 -0.9250678927060392 0.158734667073404
0.0449978 -0.9233036397558645 0.16544106818333798
0.0469977 -0.9218910076432292 0.1728343934646403
0.0489976 -0.9195466091733971 0.1798575009948012
0.0509975 -0.917663736337885 0.18668325264672003
0.0529974 -0.9159572766179166 0.1935735222367564
0.0549973 -0.9132471303802914 0.20238782254567556
0.0569972 -0.9118051945417059 0.2086970131042325
0.0589971 -0.9100597549187023 0.21587840535220504
0.060997 -0.9082736122658975 0.2235878136376645
0.0629969 -0.9060537887955945 0.23033451275485023
0.0649968 -0.9037898832551089 0.23755613594070307
0.0669967 -0.9026232892787961 0.24511557235256431
0.0689966 -0.9004244968865012 0.251381868913411
0.0709965 -0.8983779967180733 0.2589533004064762
0.0729964 -0.8958955278704985 0.26599024628000323
0.0749963 -0.8940651926633031 0.272613454018501
0.0769962 -0.8924048723067207 0.27968719348162313
0.0789961 -0.8902140784525594 0.286193500994803
0.080996 -0.8878573620046688 0.2932725839619024
0.0829959 -0.8854105720281975 0.3001585573475929
0.0849958 -0.8834781117674659 0.3064373995817049
0.0869957 -0.881448942642523 0.31315966980334875
0.0889956 -0.8790249374822829 0.31956764205985105
0.0909955 -0.876340167198993 0.32575013946694387
0.0929954 -0.8735657971079531 0.33201748253785757
0.0949953 -0.8708209436792032 0.33858804950404053
0.0969952 -0.8680853090954053 0.34499291911821495
0.0989951 -0.8649460332832795 0.35142631455147383
0.100995 -0.8634840052770768 0.3584726860401009
0.1029949 -0.860649750941594 0.36492490723476123
0.1049948 -0.8575336190964202 0.3709133211909169
0.1069947 -0.8542708172849256 0.3766574729787112
0.1089946 -0.8509285130263039 0.3828775871406235
0.1109945 -0.8476000619726005 0.3890847872798607
0.1129944 -0.8442636719492256 0.395093123873049
0.1149943 -0.8405220508884632 0.4011603050823518
0.1169942 -0.8370178598504013 0.4075203841273387
0.1189941 -0.8331449455296387 0.4136402954800953
0.120994 -0.8295650893247678 0.4201301270436686
0.1229939 -0.8257463542678132 0.4264194070709536
0.1249938 -0.8221147066858892 0.4328983700740505
0.1269937 -0.8183832870132688 0.43873734626928285
0.1289936 -0.8149321362817177 0.4456898427330169
0.1309935 -0.8110538799858633 0.4514721666496978
0.1329934 -0.807072905047107 0.45832729675431727
0.1349933 -0.8031299284111971 0.4647233148907789
0.1369932 -0.7995187957043637 0.47027044854078714
0.1389931 -0.7954453490809376 0.47680178059429235
0.140993 -0.7917577295629963 0.48297916582586503
0.1429929 -0.7875747467051486 0.48924517899230124
0.1449928 -0.7843416691771365 0.49581091217705664
0.1469927 -0.7801701093114245 0.5014597205818732
0.1489926 -0.7764224824744378 0.5078607339117069
0.1509925 -0.7724583054944364 0.5135128712090662
0.1529924 -0.7683535511058174 0.5197755645256742
0.1549923 -0.7648287020639328 0.5262164988042032
0.1569922 -0.7605807521081625 0.5318375458072823
0.1589921 -0.7566992198479952 0.5378210916659825
0.160992 -0.7524133223568992 0.5436488155236663
0.1629919 -0.7483612457132353 0.5493949438971579
0.1649918 -0.7444682311809474 0.5548452373286568
0.1669917 -0.7402311243161026 0.560208253998577
0.1689916 -0.7357754588047084 0.5659366065667908
0.1709915 -0.7313728279655999 0.5712703902828938
0.1729914 -0.7270837747411332 0.5767635779056091
0.1749913 -0.7225128956509846 0.5820962783047631
0.1769912 -0.718009429319592 0.5874636752042386
0.1789911 -0.7137570770889698 0.5926165828675638
0.180991 -0.7090247581843542 0.5978312179983232
0.1829909 -0.7043296389796099 0.6031736540025477
0.1849908 -0.6996155499115649 0.6084116799471628
0.1869907 -0.6947570036772699 0.6134261621534685
0.1889906 -0.6900085464006465 0.6189496778257737
0.1909905 -0.6848751284783172 0.6239730711678237
0.1929904 -0.6800203117605447 0.6290729108995173
0.1949903 -0.6750351324551375 0.6337950405082359
0.1969902 -0.6698420747960608 0.6392611381499655
0.1989901 -0.6646143483004755 0.644033255187674
0.20099 -0.6594998506317438 0.6496011497762233
0.2029899 -0.6543363654207947 0.6543923899399882
0.2049898 -0.6493515627996849 0.6590693549149623
0.2069897 -0.6440429097944687 0.6640257932899607
0.2089896 -0.6387142388464133 0.6690943417535276
0.2109895 -0.6335111286386162 0.6740818928463583
0.2129894 -0.6277821767840731 0.6789903118440473
0.2149893 -0.6224138443313585 0.6839178098357499
0.2169892 -0.6170589554866595 0.6888247618928193
0.2189891 -0.6117995144751232 0.6936288865108051
0.220989 -0.6064363414452009 0.6984392019856553
0.2229889 -0.6004466600318679 0.7029041911268314
0.2249888 -0.5948552471791434 0.7074361343273283
0.2269887 -0.5891535744518905 0.7121642693608824
0.2289886 -0.5834910349397618 0.7167697445424592
0.2309885 -0.5778375546117258 0.7215892384465813
0.2329884 -0.5716632521931505 0.7259541545635173
0.2349883 -0.5660004951405988 0.7304660882525696
0.2369882 -0.5600308608757857 0.7350047204559662
0.2389881 -0.5548605867207123 0.7396048286590553
0.240988 -0.54858937956868 0.7436654105150232
0.2429879 -0.5423265315345401 0.748173448028671
0.2449878 -0.536627119763444 0.7526123157309023
0.2469877 -0.5307316495398732 0.7569650378582878
0.2489876 -0.5249493727692013 0.7616843783756668
0.2509875 -0.5186997882098047 0.7657265487878655
0.2529874 -0.5130888800060834 0.7698084113379127
0.2549873 -0.5075762527282991 0.7744499036538526
0.2569872 -0.5016694330741761 0.7787898766095998
0.2589871 -0.49534267871670346 0.7828702628370408
0.260987 -0.4895353087738901 0.7868470505078328
0.2629869 -0.4840676242417019 0.7908838734346907
0.2649868 -0.47797123256790297 0.7944125908901749
0.2669867 -0.4720515120077453 0.7981339072660193
0.2689866 -0.4659343754181206 0.8017498176887616
0.2709865 -0.46000812817648823 0.8056250546038537
0.2729864 -0.4542474190494195 0.8091801096319944
0.2749863 -0.4483353313983418 0.8124543724425152
0.2769862 -0.4428967554563912 0.8157791901042087
0.2789861 -0.4363750362565057 0.8189854658706408
0.280986 -0.43040652961896436 0.8215157584605686
0.2829859 -0.42430188330020946 0.8243976040678922
0.2849858 -0.4178083862115385 0.8274301165053397
0.2869857 -0.41155941735871315 0.8302429070696462
0.2889856 -0.4047640085289731 0.8327824203803973
0.2909855 -0.39836126006735906 0.8354283214403874
0.2929854 -0.39176469320272794 0.838333810184997
0.2949853 -0.38498521831921423 0.8408089943445468
0.2969852 -0.3781401082561376 0.8428436841243104
0.2989851 -0.3711048898214731 0.8452027015982313
0.300985 -0.36401569305050413 0.8476753737581294
0.3029849 -0.3565820523631518 0.8494941033065324
0.3049848 -0.3496676175936106 0.8519798550389974
0.3069847 -0.3420561561692053 0.8538396674890029
0.3089846 -0.33396659878996693 0.8561125226799811
0.3109845 -0.32694725843854056 0.858109672725574
0.3129844 -0.31877132567634736 0.8607304129745122
0.3149843 -0.31128381871939337 0.8630195668784946
0.3169842 -0.3035655947952816 0.8651173954625677
0.3189841 -0.2953229685788808 0.867616614180516
0.320984 -0.2879820715436865 0.8694736394701841
0.3229839 -0.2798340605442054 0.8718174911088875
0.3249838 -0.2722651740593362 0.8742300806592721
0.3269837 -0.2642805822306613 0.8762914208522878
0.3289836 -0.25680989765854134 0.8787028197527145
0.3309835 -0.24886362023261585 0.8813361718600495
0.3329834 -0.24199849279965496 0.8837187883015549
0.3349833 -0.23438446551181105 0.8868666249165791
0.3369832 -0.2273546265286862 0.8896528288783936
0.3389831 -0.22013264505650396 0.8928259750379202
0.340983 -0.2129095269597687 0.8955584161092067
0.3429829 -0.20591868568812463 0.8988132912278214
0.3449828 -0.1986684076413922 0.9013935411309091
0.3469827 -0.19169297818144773 0.9040361555668991
0.3489826 -0.18450680806113645 0.9061631597669528
0.3509825 -0.17759282162480897 0.9088633482667039
0.3529824 -0.17064644185542416 0.9110904993723044
0.3549823 -0.16396811115328253 0.9131227161934218
0.3569822 -0.15709082712699393 0.9146922716674741
0.3589821 -0.1506562832563582 0.9165820690909562
0.360982 -0.14393224864289095 0.9179346860052282
0.3629819 -0.1373468995041587 0.9194444839300613
0.3649818 -0.1307325012049932 0.9201191646915283
0.3669817 -0.1237205008853293 0.9205881314144285
0.3689816 -0.1168016674825487 0.9213086811590023
0.3709815 -0.10968361070727031 0.921930240547587
0.3729814 -0.10276889644868101 0.9222874470868176
0.3749813 -0.0957917279460345 0.9224070220040722
0.3769812 -0.0885657200550713 0.9228374721769464
0.3789811 -0.08108920113352328 0.9229265639374787
0.380981 -0.07373841839331075 0.9228709077149843
0.3829809 -0.06609498881405969 0.9228929639055475
0.3849808 -0.05821825597455847 0.9228962416894215
0.3869807 -0.05049079037255139 0.9222288248269864
0.3889806 -0.04231128196831235 0.9220240883999131
0.3909805 -0.03409541493598248 0.9219582019157584
0.3929804 -0.025766774746426302 0.921675608226864
0.3949803 -0.01716443941036039 0.9214023727462831
0.3969802 -0.00935007748796906 0.9213602060221232
0.3989801 -0.0008988683507796871 0.9212595127026677
0.40098 0.007749645792122711 0.921323290545596
0.4029799 0.015523402335192348 0.9215861491878445
0.4049798 0.024079469438592432 0.9214725813060324
0.4069797 0.03254299272991474 0.921545761843525
0.4089796 0.04038718167511854 0.9213387775088541
0.4109795 0.04891854636929578 0.9217727976669317
0.4129794 0.05728206778117444 0.9221614130685418
0.4149793 0.0654379129301723 0.9220104583413571
0.4169792 0.07334372506916736 0.9223818221831792
0.4189791 0.08137436480006818 0.9222629854336992
0.420979 0.08899890811532918 0.9221365122345376
0.4229789 0.09669373004030768 0.9223211916514403
0.4249788 0.10436696545509569 0.9223921810532589
0.4269787 0.11151791572499453 0.922078404194551
0.4289786 0.11873029935340587 0.9218616106256879
0.4309785 0.126073841287277 0.9211787206676828
0.4329784 0.13345726276436834 0.9206035551093285
0.4349783 0.14109545015166924 0.9189298137611022
0.4369782 0.14743548298776105 0.9177045557377017
0.4389781 0.15499569560723817 0.916943441970464
0.440978 0.16177087712445656 0.915258512128635
0.4429779 0.16891376223990895 0.9138277481293106
0.4449778 0.17588245843259454 0.9119627665890221
0.4469777 0.18337353737261325 0.9101581387796479
0.4489776 0.19091422555238266 0.9086499764912005
0.4509775 0.19805816816849017 0.905990364131094
0.4529774 0.20553679105529324 0.9033018483836074
0.4549773 0.2132292186900445 0.9009661148518752
0.4569772 0.22092171017373935 0.8983917194241775
0.4589771 0.22877467722394965 0.895923097284408
0.460977 0.23697751449569382 0.8931667627453403
0.4629769 0.2451431056711375 0.8911291408713947
0.4649768 0.2533730371270595 0.8883300322445042
0.4669767 0.2612459774163313 0.88558962284173
0.4689766 0.26956545916949304 0.8830256782870258
0.4709765 0.2776768678289465 0.8805741488955622
0.4729764 0.2861252341316194 0.8779834737793913
0.4749763 0.2940829080001901 0.875775850119412
0.4769762 0.30239674306228004 0.8727908591633972
0.4789761 0.31083311211590436 0.8704902087428388
0.480976 0.319421432151775 0.8686678011144993
0.4829759 0.3278024125299117 0.866171205017579
0.4849758 0.3356776930551763 0.8635001823031255
0.4869757 0.3436728221210797 0.8613088363864694
0.4889756 0.35200409536493266 0.8590185576781748
0.4909755 0.35992873607381504 0.8565555267751485
0.4929754 0.3674542728897535 0.8541945547912984
0.4949753 0.3747873057488996 0.8519070088956291
0.4969752 0.38198777531443273 0.8491184491140884
0.4989751 0.3892332952801827 0.8468364994691938
0.500975 0.3961266149300154 0.8437677773496088
0.5029749 0.40322707137834446 0.841065521731342
0.5049748 0.40992754649154683 0.838201800413387
0.5069747 0.4165311980693577 0.8350061540517046
0.5089746 0.42359191931417955 0.8320276747287753
0.5109745 0.4305361153295137 0.8293433219797184
0.5129744 0.43737241715250325 0.8254705333327851
0.5149743 0.44297559886198673 0.8221104531165085
0.5169742 0.4499081854729663 0.8177792418284268
0.5189741 0.4563573511540718 0.8137688241577513
0.520974 0.46357944768038756 0.8095669844927744
0.5229739 0.47040344504345083 0.8049119608349659
0.5249738 0.47653206654450564 0.8005982119279398
0.5269737 0.4836890205722669 0.7963101208797599
0.5289736 0.4899069487123622 0.7914962050213104
0.5309735 0.49669719812770563 0.7869775121085829
0.5329734 0.5035091517592705 0.7817545428614923
0.5349733 0.5100621074560612 0.7757993446181197
0.5369732 0.5169631749569159 0.7713706232153399
0.5389731 0.523953944419072 0.7660774391447427
0.540973 0.5305487211899114 0.7607087729805755
0.5429729 0.5377887503409409 0.7557070385974622
0.5449728 0.545480994968023 0.7504473687012212
0.5469727 0.5522320358781508 0.7453893032361082
0.5489726 0.5593580319784498 0.7401181639091939
0.5509725 0.5664020904372566 0.734900481972378
0.5529724 0.5735909176216316 0.7300075064235243
0.5549723 0.5806659733419999 0.724705295011801
0.5569722 0.5875135425418012 0.7195869133900399
0.5589721 0.5947342115552172 0.7144430141010236
0.560972 0.6017732594129034 0.7096076145788413
0.5629719 0.6081842692265532 0.7046429778731487
0.5649718 0.6154264934992224 0.6993705545423654
0.5669717 0.621898556538954 0.694408218187177
0.5689716 0.6285867605094448 0.6896343997927327
0.5709715 0.6340068429890817 0.6844121203900019
0.5729714 0.6399919918289422 0.6794753379552426
0.5749713 0.646203157759746 0.6739614237148489
0.5769712 0.6523533384851823 0.6683204598637228
0.5789711 0.6579733968464181 0.663353817209672
0.580971 0.6639786176207414 0.6583350069846232
0.5829709 0.6695076952404264 0.6526020102552024
0.5849708 0.6748658245500956 0.6470753868885046
0.5869707 0.6804587109848335 0.641328449514746
0.5889706 0.6856690844808412 0.6351172943467505
0.5909705 0.6907900018233607 0.6288953573683091
0.5929704 0.6964170034172168 0.6224318656523535
0.5949703 0.701527775655618 0.615815255899136
0.5969702 0.7066915009196535 0.6100079993174249
0.5989701 0.7120046991907794 0.6033431028128958
0.60097 0.7170058309550154 0.596717363652586
0.6029699 0.7221666725890293 0.5896567843395436
0.6049698 0.7271909382019567 0.5832209465512654
0.6069697 0.731721349012933 0.5760313667726367
0.6089696 0.7374797234079348 0.5690370167369642
0.6109695 0.7426023124289236 0.5617255037368232
0.6129694 0.7478725716030546 0.5546782052998541
0.6149693 0.7535792640679714 0.5477827789503046
0.6169692 0.7587568575257269 0.5403368850208217
0.6189691 0.7636436306970997 0.5332653813677362
0.620969 0.7692337501313935 0.5256875522813177
0.6229689 0.7740696835947128 0.5190794500536546
0.6249688 0.7790418997820294 0.5119673606024395
0.6269687 0.7842719219511928 0.5044976489495036
0.6289686 0.7892321097195704 0.4973975006151689
0.6309685 0.7943819407581381 0.4906341241800173
0.6329684 0.7989669721535635 0.48384542894150007
0.6349683 0.8032930924600075 0.4765238256428711
0.6369682 0.8076152195924206 0.4698634471917248
0.6389681 0.8126813952377053 0.4625240953885864
0.640968 0.8170438864869206 0.455466894730608
0.6429679 0.8214580272811097 0.4488412098668392
0.6449678 0.8255637081692337 0.44165325187277554
0.6469677 0.829524495475408 0.4344522701863431
0.6489676 0.8333709749760821 0.4273600883944497
0.6509675 0.8370840220241403 0.42015648647462184
0.6529674 0.8408849413817364 0.4129307215420217
0.6549673 0.844382823725953 0.4057803953322476
0.6569672 0.8476933752040657 0.3984372891488218
0.6589671 0.8510276349082287 0.3907190021830841
0.660967 0.8544908729155997 0.3834686231522917
0.6629669 0.8573188000279448 0.3755726238174709
0.6649668 0.8601628794719974 0.36768217688874505
0.6669667 0.863159630384585 0.3599223975656122
0.6689666 0.866274236771532 0.3519984745890172
0.6709665 0.8692012334667168 0.34341994036548107
0.6729664 0.8716990883971566 0.3357434861324071
0.6749663 0.8744736885621927 0.3273984816680073
0.6769662 0.877253630684931 0.31884419023198507
0.6789661 0.8803046279044223 0.31093368931464144
0.680966 0.8828359101941747 0.3020571504207469
0.6829659 0.8855237520417082 0.29377366878683664
0.6849658 0.8881306884766098 0.2853535576397202
0.6869657 0.8910265739313138 0.2767145014945344
0.6889656 0.8938257449393113 0.26809733393557145
0.6909655 0.8963307525151076 0.2598578650132197
0.6929654 0.8990398841919622 0.25124341575995934
0.6949653 0.9011074705244536 0.2431266950892638
0.6969652 0.9038308160194114 0.23446093399723694
0.6989651 0.9059010083717502 0.226077484255282
0.700965 0.908189693209234 0.2176311059285598
0.7029649 0.9102150232256165 0.20951132970639766
0.7049648 0.9126361810443153 0.20117825000924314
0.7069647 0.9139171278911321 0.1933050391967909
0.7089646 0.9164979556294056 0.1846873857815351
0.7109645 0.9183807896700158 0.17651522312643625
0.7129644 0.9199535969200454 0.168240918223823
0.7149643 0.9213353979618664 0.16004168906073407
0.7169642 0.9230823623973748 0.15189593149638492
0.7189641 0.9243365708138841 0.14365719386242637
0.720964 0.9255370287810512 0.13501483909092804
0.7229639 0.926382743975505 0.12703085290699165
0.7249638 0.9276251948235897 0.1183039408925273
0.7269637 0.9288464033178764 0.11033643109607685
0.7289636 0.9295126472075814 0.10185279035139089
0.7309635 0.9305690124528406 0.09328778133672368
0.7329634 0.9315613112954598 0.08472038764593948
0.7349633 0.9319992697744588 0.0764688025416628
0.7369632 0.932770803358397 0.06767433558931692
0.7389631 0.9332753096440655 0.0593972452072781
0.740963 0.9333608282523097 0.05073885481954066
0.7429629 0.9338515080548663 0.04195867666221731
0.7449628 0.9343659389380612 0.03317865623971798
0.7469627 0.9343300026717953 0.024641769911547727
0.7489626 0.9347561862232332 0.01580520275368902
0.7509625 0.934781086377997 0.007546366721237929
0.7529624 0.9348886989963666 -0.001193901511821957
0.7549623 0.9347764701757564 -0.009765711309941971
0.7569622 0.9347484204252208 -0.018761887201364028
0.7589621 0.9342728335457573 -0.02712339941950788
0.760962 0.9339481186302506 -0.03578175929932109
0.7629619 0.9341548818627204 -0.04392452671489998
0.7649618 0.933536067516454 -0.05260629501914814
0.7669617 0.9333035977339604 -0.06067688832794449
0.7689616 0.932562377659926 -0.06919251000921821
0.7709615 0.9320634220254209 -0.07791657197906876
0.7729614 0.9311138134427637 -0.08597661290686122
0.7749613 0.9305322475238907 -0.0943558041201913
0.7769612 0.9292202809336844 -0.10234247194690547
0.7789611 0.9284113658096739 -0.11077853896309346
0.780961 0.9271503426846481 -0.11892949534718933
0.7829609 0.9257509584394963 -0.1273769724680911
0.7849608 0.9245354391577584 -0.13572592893470642
0.7869607 0.9231408039854809 -0.14397582697647154
0.7889606 0.9215378251337167 -0.15230488396469055
0.7909605 0.9195383672965916 -0.16029191425729353
0.7929604 0.9178827702027241 -0.16849318315878153
0.7949603 0.9161127388698406 -0.17734393968685758
0.7969602 0.9143622504554432 -0.18555740617927133
0.7989601 0.9121826230290764 -0.19370113965120217
0.80096 0.9104403455529747 -0.20286426162013546
0.8029599 0.9081768725395029 -0.21125897122204057
0.8049598 0.9061138513798308 -0.22014590656450006
0.8069597 0.9045210562360518 -0.22828760649409993
0.8089596 0.9022463810196363 -0.2368307623048963
0.8109595 0.9001344807057898 -0.24564011621123422
0.8129594 0.8979112567577138 -0.2541512346858026
0.8149593 0.8961204951342805 -0.262607657759249
