! Created with skrf 1.8.0 (http://scikit-rf.org).
# GHz S RI R 50.0 
!freq ReS11 ImS11
0.001 -1.2077096536741194 0.04871777403660593
0.0029999 -0.9808085597998024 0.059691466373862356
0.0049998 -0.949888961094222 0.03531601639087367
0.0069997 -0.9495040784736697 0.03753370337245693
0.0089996 -0.9433445708734378 0.0420499567547129
0.0109995 -0.9421353349771855 0.047348206059570686
0.0129994 -0.9401535817575591 0.05422940933408715
0.0149993 -0.9399669119767345 0.062146537377503086
0.0169992 -0.9388350371448995 0.06818097126585843
0.0189991 -0.9383709785243474 0.0743430421937159
0.020999 -0.9374351352528463 0.08114581702547102
0.0229989 -0.9363671090222754 0.08810559645986804
0.0249988 -0.9351036100120957 0.09512918118229458
0.0269987 -0.9338975077101077 0.10237468686592777
0.0289986 -0.93275051934339 0.1094992037716805
0.0309985 -0.9314211793847644 0.11642898646056041
0.0329984 -0.9302410541193854 0.1239344788753523
0.0349983 -0.9289076401530557 0.13089112046035295
0.0369982 -0.9274607715340057 0.13791549113529344
0.0389981 -0.9258560497095116 0.1453659999554086
0.040998 -0.9245624363828373 0.15235972281209065
0.0429979 -0.9225841371651486 0.15951696895721507
0.0449978 -0.9208575944520395 0.16628954279379043
0.0469977 -0.9192767606213207 0.17366918609411358
0.0489976 -0.917066074382767 0.18073550335284794
0.0509975 -0.9154290571835678 0.18770577056517407
0.0529974 -0.913477157768917 0.19509203881439297
0.0549973 -0.9106743982727834 0.20393756460247298
0.0569972 -0.9093882797981663 0.20987015697736638
0.0589971 -0.9076421967262222 0.21711000644720552
0.060997 -0.9059044057909214 0.22482766514516384
0.0629969 -0.9035711507381208 0.23155322958275107
0.0649968 -0.9014723554807755 0.2386586432447321
0.0669967 -0.9001665833297058 0.24651049171941866
0.0689966 -0.8979791824682323 0.25271546215571594
0.0709965 -0.8961034119640188 0.26031096262654824
0.0729964 -0.8934157951378074 0.267584341028761
0.0749963 -0.8916897334839081 0.27409695654664185
0.0769962 -0.8900517210121255 0.2811314110692698
0.0789961 -0.8878384125534489 0.2874929978005317
0.080996 -0.885421326870409 0.2946448344454875
0.0829959 -0.882878741395255 0.3015124619323001
0.0849958 -0.8810765250186976 0.3077939664716644
0.0869957 -0.8789652567498668 0.3144960528291544
0.0889956 -0.8766415030882982 0.3209044414588166
0.0909955 -0.8740593678387665 0.32696791760451305
0.0929954 -0.8712073406535205 0.3332700272232777
0.0949953 -0.868407721693866 0.3398615223603851
0.0969952 -0.8658287648429803 0.3460928328306777
0.0989951 -0.8625046162870376 0.3526267187455452
0.100995 -0.8610877865693358 0.3594122467719696
0.1029949 -0.8582716502679788 0.36577831356863477
0.1049948 -0.8551622188205847 0.37183416891153515
0.1069947 -0.8517464837479349 0.37744391242599207
0.1089946 -0.8485414636464007 0.383793269566961
0.1109945 -0.8451504794566151 0.3899413602608698
0.1129944 -0.8417941697582219 0.39589806133905486
0.1149943 -0.8380056912910867 0.40198452132128565
0.1169942 -0.8345552690411822 0.4083394961033501
0.1189941 -0.8306112416930511 0.41448167120564494
0.120994 -0.8270678924049044 0.42095556156336356
0.1229939 -0.8231615834901006 0.42732344015599166
0.1249938 -0.8195047481571069 0.433784815558005
0.1269937 -0.815761861113044 0.43991428159236046
0.1289936 -0.812315290011358 0.4467066663813871
0.1309935 -0.808207013193783 0.45245898929077705
0.1329934 -0.8042767752476148 0.45924239084234764
0.1349933 -0.8003117048857566 0.4653162092923329
0.1369932 -0.7967194207538199 0.47134603390898283
0.1389931 -0.7926044668558425 0.47794846445734895
0.140993 -0.7889383744996885 0.4841765530200479
0.1429929 -0.7846529671170377 0.49024537293701365
0.1449928 -0.7813584570963308 0.4970547962553499
0.1469927 -0.7771929362399985 0.5032592928932224
0.1489926 -0.7734592895563372 0.5091772100791054
0.1509925 -0.7691607722784299 0.5150154036687761
0.1529924 -0.7651858534899323 0.5213939655741917
0.1549923 -0.7617874670627299 0.5276578891125075
0.1569922 -0.7574480330509764 0.5331524201145605
0.1589921 -0.7536605846245139 0.5391921983053811
0.160992 -0.7493132095006054 0.544823051654528
0.1629919 -0.74524451221889 0.5506181105354152
0.1649918 -0.7417008906462517 0.5559966888137741
0.1669917 -0.7367543745708102 0.5615592815113999
0.1689916 -0.7326919969518351 0.5672266861590357
0.1709915 -0.728349825256901 0.572597546117087
0.1729914 -0.7240084999886643 0.5780085519939189
0.1749913 -0.7191628439965275 0.5832994893080885
0.1769912 -0.7151286443504281 0.5886808111000174
0.1789911 -0.7106917412438525 0.5937764051228517
0.180991 -0.7059613869260282 0.5989811692521876
0.1829909 -0.7012787744523982 0.604304832909829
0.1849908 -0.6966265570944331 0.6095872128436053
0.1869907 -0.6917368680919372 0.6144699866524338
0.1889906 -0.6869483961784175 0.6199923143401869
0.1909905 -0.6817525297172757 0.6250001699808272
0.1929904 -0.6767380259579332 0.6299265956339553
0.1949903 -0.6718335543356498 0.6348612627986527
0.1969902 -0.6668839878285064 0.6401718084257457
0.1989901 -0.6612828117923785 0.645358122789018
0.20099 -0.656301620239014 0.6505847344929648
0.2029899 -0.6509965452406452 0.6555034763156613
0.2049898 -0.6460037360487164 0.6600505259109591
0.2069897 -0.6407579264903019 0.6648857688000447
0.2089896 -0.6352445561176155 0.6699994829405251
0.2109895 -0.6300399603307006 0.6750459043630958
0.2129894 -0.6242234474784648 0.6800427773201959
0.2149893 -0.6190368875447047 0.6849251330814525
0.2169892 -0.6133202228483208 0.6900663807978725
0.2189891 -0.6082991086821183 0.6945850803536696
0.220989 -0.602782863179742 0.6994559144415209
0.2229889 -0.5969486815863799 0.7038136680610295
0.2249888 -0.5910570069757604 0.7086209682968652
0.2269887 -0.5853814960183219 0.7129847035474003
0.2289886 -0.5796960996333155 0.7176790923785412
0.2309885 -0.5741477809602091 0.7224239422683166
0.2329884 -0.5679681159955681 0.7269898748542886
0.2349883 -0.5620540715877549 0.7312881025693287
0.2369882 -0.5562728002124185 0.7359507459792829
0.2389881 -0.5509504768936727 0.7406994230688734
0.240988 -0.5447871834909093 0.74459358473984
0.2429879 -0.5385528187889628 0.749174489480922
0.2449878 -0.5327522957066393 0.7535214483520895
0.2469877 -0.5269321662097837 0.7577975123730796
0.2489876 -0.5212670127561456 0.7624075642714532
0.2509875 -0.5149658464688082 0.7665975073505968
0.2529874 -0.5093064284385378 0.7706068341135663
0.2549873 -0.5037096845476281 0.7753192313138106
0.2569872 -0.49794715813418927 0.7794467008370418
0.2589871 -0.4916504925771133 0.7836151718980138
0.260987 -0.4857394965031335 0.7876492436540214
0.2629869 -0.48020951206005746 0.791627731546955
0.2649868 -0.473937961639662 0.7952156255349146
0.2669867 -0.4683520576724737 0.7987570711715464
0.2689866 -0.4623330335468253 0.8023412491276005
0.2709865 -0.45648302386392753 0.8061407225287276
0.2729864 -0.45030452352468153 0.8096705613259216
0.2749863 -0.44445635054604665 0.8130127255027549
0.2769862 -0.4389202111258405 0.8164291315861909
0.2789861 -0.43271931947184294 0.8192172556429379
0.280986 -0.4266761747483037 0.8219395157352064
0.2829859 -0.42061073547970573 0.8247559422651194
0.2849858 -0.4140267775045915 0.8276288043098998
0.2869857 -0.40754087004431416 0.8303835264219696
0.2889856 -0.40095715234213086 0.8330210757621591
0.2909855 -0.3945903869333022 0.8354561361682837
0.2929854 -0.38811901738474935 0.8384316176268022
0.2949853 -0.38099144808022084 0.8409348127185718
0.2969852 -0.37434146093247306 0.8430147926028474
0.2989851 -0.3673503241473285 0.8451511195010608
0.300985 -0.36002062820632735 0.8474077330684735
0.3029849 -0.3527160865770449 0.8495115169463383
0.3049848 -0.34578093883809147 0.8519724347077297
0.3069847 -0.3381895406763878 0.8536171814891713
0.3089846 -0.33005507769834774 0.8559661132153917
0.3109845 -0.3231572599262279 0.8578922342512385
0.3129844 -0.3148738959789257 0.8605020531197438
0.3149843 -0.30753564917313597 0.8628018468682301
0.3169842 -0.29972444209071225 0.8650115210220325
0.3189841 -0.2915744523077396 0.8673856356265065
0.320984 -0.28400099488265335 0.8694250968901239
0.3229839 -0.27604834208471557 0.8716467912383281
0.3249838 -0.26848869993699404 0.874006909965369
0.3269837 -0.2608251878812602 0.8759933585303208
0.3289836 -0.25326298384952484 0.878303545291801
0.3309835 -0.24542525523743122 0.8809559568273294
0.3329834 -0.2381720273763317 0.8833900386502418
0.3349833 -0.23076804343112262 0.886531088812415
0.3369832 -0.22379219940694384 0.8893679077406704
0.3389831 -0.21681135368909632 0.8924111099201989
0.340983 -0.20950142909143393 0.8953171101373595
0.3429829 -0.2021439443454467 0.8984794961240943
0.3449828 -0.1952042045442772 0.9009087810332864
0.3469827 -0.18797394526480257 0.9037356960514284
0.3489826 -0.1812494643375163 0.9058367455542549
0.3509825 -0.1741169735698784 0.9082290838337764
0.3529824 -0.1672472821986518 0.9104732222604505
0.3549823 -0.1603788299344428 0.9122723725796862
0.3569822 -0.15387671556306337 0.9140318807556187
0.3589821 -0.14740773397353457 0.9156743956949771
0.360982 -0.14084353324290882 0.9172048914229841
0.3629819 -0.1338697874972431 0.9186138773805318
0.3649818 -0.12761082438130222 0.9192249331195519
0.3669817 -0.12053219009265576 0.919643161865253
0.3689816 -0.11361356058988534 0.9205107478169253
0.3709815 -0.10664171926550522 0.9209381437927013
0.3729814 -0.09943345062595282 0.9213432045085915
0.3749813 -0.09286458876319886 0.9214815109805743
0.3769812 -0.0856363453782395 0.9216268573367788
0.3789811 -0.07838550089149943 0.9218158753221223
0.380981 -0.07091792042498782 0.9219633540627437
0.3829809 -0.06333522849560677 0.9216889612193908
0.3849808 -0.05540235454612011 0.9215605538858876
0.3869807 -0.047755563399442286 0.9211345941524686
0.3889806 -0.03964065854573672 0.9208488547597473
0.3909805 -0.031403996815448934 0.9207257226083173
0.3929804 -0.0230863445395463 0.9205652710371032
0.3949803 -0.01462775842469315 0.9201124005526198
0.3969802 -0.0064925973667433814 0.9200183481870181
0.3989801 0.0015378856526891832 0.9201969023038234
0.40098 0.010232802553917498 0.9198228370187064
0.4029799 0.017950918836619534 0.9203692477081863
0.4049798 0.026612651078529795 0.9203084762753632
0.4069797 0.034684442055370995 0.9202719164725784
0.4089796 0.043007785536981084 0.9201287454584917
0.4109795 0.051171134692435845 0.9206822547164588
0.4129794 0.059509370097140614 0.9211084421339388
0.4149793 0.06784806699066867 0.9209171900454795
0.4169792 0.07547330820765405 0.9212792664777785
0.4189791 0.08320470764775048 0.9211278670160179
0.420979 0.09077349692719147 0.9210360372756805
0.4229789 0.09830878552061935 0.9212427552855881
0.4249788 0.10618397258667436 0.9212374593411617
0.4269787 0.11310399174806472 0.9208752346645133
0.4289786 0.12021113487933222 0.9206068839659711
0.4309785 0.12767923973561976 0.92007310131897
0.4329784 0.13482433183239317 0.9194076032298109
0.4349783 0.1422561140372689 0.9176759268946315
0.4369782 0.14880796835921817 0.9165589195670969
0.4389781 0.15598299581529954 0.915796069926459
0.440978 0.16287780931977816 0.9142523904757249
0.4429779 0.169703686199002 0.9124685052862604
0.4449778 0.17676348956068766 0.910738125375577
0.4469777 0.18420100910583317 0.9089216524682548
0.4489776 0.19149432403991126 0.9073865205337167
0.4509775 0.19894832220808037 0.9048410925409563
0.4529774 0.20639057643342124 0.9020570145703299
0.4549773 0.213537910088067 0.8997550935623827
0.4569772 0.2214615141271355 0.8971141707235101
0.4589771 0.2293854356134369 0.8945989924766796
0.460977 0.23737412662001722 0.8921506874506168
0.4629769 0.2455167722099101 0.8896626983637383
0.4649768 0.2535066925438279 0.8871901364461614
0.4669767 0.2616865882245971 0.8842782671012176
0.4689766 0.2696511139234826 0.8817944756682797
0.4709765 0.277750834083353 0.8794308211205344
0.4729764 0.28611481417064266 0.8768515436859673
0.4749763 0.2941036830664909 0.874522703225047
0.4769762 0.30244396203388463 0.8718230770639015
0.4789761 0.3107025954051776 0.8694932555268514
0.480976 0.31901355279094507 0.8676746655867883
0.4829759 0.3274272578733687 0.8654208251584221
0.4849758 0.3354622560313324 0.8626639775144953
0.4869757 0.34317146951380606 0.8605113226052588
0.4889756 0.35130698191036436 0.858268110296945
0.4909755 0.35925578217865994 0.8559241146660226
0.4929754 0.3667738657396776 0.8536084136998654
0.4949753 0.37393476984077656 0.8514806985519741
0.4969752 0.3810477547678616 0.8487199473296363
0.4989751 0.3880903165478852 0.8463091315204047
0.500975 0.3947700311635497 0.8435109590196761
0.5029749 0.40181664613196366 0.8406842299765461
0.5049748 0.40843452408550024 0.8381875037272526
0.5069747 0.41494072714106583 0.8347124025449555
0.5089746 0.42188447346066704 0.8322041445425048
0.5109745 0.4286364327372734 0.8292130756384612
0.5129744 0.4353647488538654 0.8256551895434918
0.5149743 0.44098263856143555 0.8223271326683466
0.5169742 0.4474796074570951 0.8179314685155422
0.5189741 0.4541095455888617 0.8141579712673553
0.520974 0.46103941420708117 0.8101005514158991
0.5229739 0.46793521259095766 0.8053675228479851
0.5249738 0.4741237118150498 0.8011303935645303
0.5269737 0.4811167704462884 0.7969189172420987
0.5289736 0.48723341276435833 0.792078047572554
0.5309735 0.49394717997985277 0.7876599125962593
0.5329734 0.5007052720431726 0.7823936051469359
0.5349733 0.5068643008698044 0.776921215763711
0.5369732 0.513842007034266 0.7722839899712006
0.5389731 0.5209418059167386 0.7670277216719734
0.540973 0.5274612002163016 0.761773344433957
0.5429729 0.5347035631789676 0.756756860971209
0.5449728 0.5420027400046215 0.7517101635891225
0.5469727 0.5489292185152 0.7467099436069216
0.5489726 0.5559257387834639 0.7416482258533842
0.5509725 0.5630920546844795 0.736404213773059
0.5529724 0.5699202098271855 0.7315276635817699
0.5549723 0.5770803999544825 0.7264312899793658
0.5569722 0.5839064505482521 0.7214168693305566
0.5589721 0.5910269181249914 0.7164265051815546
0.560972 0.5980699573605215 0.7118653469828957
0.5629719 0.6044894656717441 0.7067964390569488
0.5649718 0.6115397303011499 0.702000397180164
0.5669717 0.6179641205446366 0.6970663052036782
0.5689716 0.6245698757108168 0.6924390746469837
0.5709715 0.629928067209222 0.687373988832221
0.5729714 0.6358470222376867 0.6826497705663781
0.5749713 0.6420157338650407 0.6772021665159513
0.5769712 0.6481406062244864 0.6717314610000003
0.5789711 0.6535172630735402 0.6669685837498189
0.580971 0.6595980551565852 0.6621145436192444
0.5829709 0.6647638983237081 0.6566896449629711
0.5849708 0.6705137424477412 0.6510336938963482
0.5869707 0.675422091911666 0.64581227521441
0.5889706 0.6808212341257116 0.6397650393021435
0.5909705 0.6861977585503243 0.6333708924790757
0.5929704 0.6912055381643849 0.6272831124939516
0.5949703 0.696443016125568 0.6207474050390104
0.5969702 0.701659884213791 0.6149268415758069
0.5989701 0.7069502711981851 0.6083648662950547
0.60097 0.7117368448186895 0.6020903595012885
0.6029699 0.7171905012294624 0.5949138678430671
0.6049698 0.7219337278290784 0.5887956091839388
0.6069697 0.7266896282760131 0.5815650746035385
0.6089696 0.7320938835221023 0.5749234287964988
0.6109695 0.7370954299713238 0.5677679221708849
0.6129694 0.7426088857975214 0.5609527767205926
0.6149693 0.7478354251582299 0.5540980081337601
0.6169692 0.7532566232616569 0.5470087982098976
0.6189691 0.7581099269842053 0.5401293490767954
0.620969 0.7635339045283999 0.5327454406684998
0.6229689 0.7685342536729554 0.5262118809898794
0.6249688 0.7735688890585178 0.5193144817077998
0.6269687 0.77884501991815 0.5120248972367824
0.6289686 0.7837386565861818 0.5052797173756415
0.6309685 0.7887309258179301 0.49876614431397887
0.6329684 0.7934681803131963 0.49198663947998034
0.6349683 0.7976509362419593 0.4849421319401095
0.6369682 0.8022713537696977 0.4781722171315479
0.6389681 0.8070023974868514 0.4714415321310784
0.640968 0.8116070234018578 0.46433194905839537
0.6429679 0.8157689679216403 0.45823758082758326
0.6449678 0.8201591748067092 0.45104478091424427
0.6469677 0.8240041507038726 0.4443140141881112
0.6489676 0.8279053930778527 0.437424784739828
0.6509675 0.8315802677534418 0.43054559678642174
0.6529674 0.8354165361384882 0.4235190765227277
0.6549673 0.8385976316138224 0.4168025015993053
0.6569672 0.8423135333919622 0.40935554851414285
0.6589671 0.8456530149954543 0.40203722493052957
0.660967 0.8491952603556511 0.3950565377682994
0.6629669 0.8519886483753507 0.3873624970567361
0.6649668 0.8550071000745195 0.37964346170396124
0.6669667 0.8579272845082285 0.37222697639495483
0.6689666 0.8610856267937262 0.36430847015404305
0.6709665 0.8640572904263466 0.3563967522034251
0.6729664 0.8664605707958087 0.3484989481748628
0.6749663 0.8692185288059776 0.3404816364769846
0.6769662 0.8720356497423702 0.33217440764866624
0.6789661 0.8750866100518729 0.3244864592625612
0.680966 0.8776956719266642 0.3157788042720485
0.6829659 0.8803490819916236 0.30800218201307317
0.6849658 0.8833037518539695 0.29906658504948536
0.6869657 0.8860948560655052 0.29120114088214255
0.6889656 0.8886611520400388 0.28283457775077436
0.6909655 0.8913093060664308 0.2750728002359523
0.6929654 0.8943496363864023 0.266366978937203
0.6949653 0.8965041525544039 0.2583308623252021
0.6969652 0.8993055940602313 0.2500498669926854
0.6989651 0.9013329087277498 0.24220782087200293
0.700965 0.9038531169385631 0.23348141575753875
0.7029649 0.9060045345407395 0.22578335301978691
0.7049648 0.9086200860554627 0.21780837555259341
0.7069647 0.9102103223218898 0.20969674757302056
0.7089646 0.9128305154549384 0.2017325499399838
0.7109645 0.9147926867534751 0.19379714009686533
0.7129644 0.9164858848962171 0.18577141237575553
0.7149643 0.9181401853476255 0.1779699757638663
0.7169642 0.9198400220324815 0.17018160420384393
0.7189641 0.9213844755511132 0.16217828756517969
0.720964 0.9226118693686343 0.15374200650533223
0.7229639 0.9237410085342425 0.1457151200014203
0.7249638 0.925094096152338 0.13787809272877413
0.7269637 0.9266536251053009 0.12971283927379357
0.7289636 0.9272369778652643 0.12161223889791306
0.7309635 0.9285027586533879 0.11363772097030708
0.7329634 0.9296955358200557 0.1051261354839543
0.7349633 0.9303021773683127 0.09727570196296795
0.7369632 0.9310313092502709 0.08873415370204235
0.7389631 0.931813127646462 0.08037875689369044
0.740963 0.9320913722877935 0.07203818206932416
0.7429629 0.9328528362797813 0.06371762805524825
0.7449628 0.9333415395470246 0.05535443110790711
0.7469627 0.9336433717696374 0.04685842150081443
0.7489626 0.9343832031956599 0.038338410890873094
0.7509625 0.9345239441285391 0.030059816012911092
0.7529624 0.9347520351562976 0.021699382048097238
0.7549623 0.9347070778557334 0.013581095503579096
0.7569622 0.9351448816750025 0.004722965141085625
0.7589621 0.9346910885533062 -0.0035248243629763393
0.760962 0.9347564209688157 -0.01208072248656493
0.7629619 0.9350211284079393 -0.020007879457137223
0.7649618 0.9347473501464669 -0.02866360593116117
0.7669617 0.934701301669776 -0.03658114886068192
0.7689616 0.9340938950328428 -0.045042246281005754
0.7709615 0.9339887287775084 -0.05287822152393516
0.7729614 0.9331665276644037 -0.06135288246268483
0.7749613 0.9328584090929132 -0.06934927230673273
0.7769612 0.9319322957671308 -0.07739019283539016
0.7789611 0.9313491071769022 -0.08560770978528262
0.780961 0.9302925571779752 -0.0936355201284125
0.7829609 0.9293091897581908 -0.101822236721063
0.7849608 0.9281575004883276 -0.10988133157803504
0.7869607 0.9272584855603128 -0.11797157424197802
0.7889606 0.9254888733438691 -0.12624444623457626
0.7909605 0.9243448603299372 -0.13402359055478846
0.7929604 0.9230655635981109 -0.14222167470696015
0.7949603 0.9215375435602156 -0.15076633166085257
0.7969602 0.9202714093171462 -0.15865239366837036
0.7989601 0.9180758841910064 -0.16664366621262558
0.80096 0.9167145699664685 -0.1754051429810801
0.8029599 0.9148523110447628 -0.18364585061794564
0.8049598 0.9131921752588906 -0.19209589391677426
0.8069597 0.9118058673466091 -0.19989651858523344
0.8089596 0.9097355312853262 -0.20860265682798104
0.8109595 0.9079618564561143 -0.21707811822789702
0.8129594 0.9059074497992523 -0.22530224875173008
