! Created with skrf 1.8.0 (http://scikit-rf.org).
# GHz S RI R 50.0 
!freq ReS11 ImS11
0.001 -0.8773744952524152 -0.026394255664371147
0.0029999 -0.9445237666888225 -0.03337416501311519
0.0049998 -0.9369337613452204 0.005992224475113994
0.0069997 -0.9396836946607989 0.019611075158920466
0.0089996 -0.9378354817083221 0.034220042996876976
0.0109995 -0.9375376975348552 0.045240903913770336
0.0129994 -0.9371257393951027 0.05566009474693723
0.0149993 -0.9373997246830885 0.06562547209134018
0.0169992 -0.9366488480671374 0.07422716800224693
0.0189991 -0.9365209740594409 0.08219245662520325
0.020999 -0.9355774864186597 0.09074881188504952
0.0229989 -0.934600429231899 0.098900522907303
0.0249988 -0.9331867445431231 0.10731740646276072
0.0269987 -0.9318401540359567 0.11567409509967476
0.0289986 -0.930556291056387 0.12395966290437599
0.0309985 -0.929048549459579 0.1320446044524366
0.0329984 -0.9275936506246971 0.14027988958849044
0.0349983 -0.925847240759065 0.1484086220784548
0.0369982 -0.9240436622495014 0.15618838995017914
0.0389981 -0.9221453799394429 0.16460139180994987
0.040998 -0.9205878200137558 0.1728068590848556
0.0429979 -0.9180868533797975 0.1803429170571222
0.0449978 -0.9159111903444651 0.18807349075762309
0.0469977 -0.9140264728401192 0.19663647786084787
0.0489976 -0.9112636426552791 0.2044000160154839
0.0509975 -0.9088746260429124 0.21228180887746528
0.0529974 -0.906345299431379 0.22134623119002805
0.0549973 -0.9034064836055686 0.22963427125133928
0.0569972 -0.9014790610030989 0.23710883135421518
0.0589971 -0.8992425075779865 0.24547160991502007
0.060997 -0.8968204158483488 0.25380681389467197
0.0629969 -0.8938508008383699 0.2616478363711209
0.0649968 -0.8913270569609957 0.26992813059274934
0.0669967 -0.8895910799952207 0.2783572063870648
0.0689966 -0.8868845550035568 0.28541812972049596
0.0709965 -0.8842816855405042 0.2941363536579138
0.0729964 -0.8810356584119162 0.30214533911918817
0.0749963 -0.8788286694094977 0.30947184841549935
0.0769962 -0.8767670425213864 0.3177216872209727
0.0789961 -0.8738257604236728 0.3249013707397748
0.080996 -0.8708194928775272 0.3329042928783426
0.0829959 -0.8677201658577633 0.34066072563070504
0.0849958 -0.8650423208685508 0.34771401910791605
0.0869957 -0.8620756380659238 0.35558049777890965
0.0889956 -0.8592436997695708 0.36268831093828635
0.0909955 -0.8560254304222055 0.3697249966404131
0.0929954 -0.8526654280013812 0.37685388983468965
0.0949953 -0.8489831049418612 0.3843831510463378
0.0969952 -0.8456386731423757 0.39119249044855686
0.0989951 -0.8419036788250384 0.398575564051764
0.100995 -0.8393231867352329 0.4063679906025264
0.1029949 -0.8358029487713329 0.41353103822101533
0.1049948 -0.8319934036271458 0.420330181073503
0.1069947 -0.827869651580785 0.42679009899063647
0.1089946 -0.8236950322328547 0.433562669162106
0.1109945 -0.819283687801495 0.4404860225607342
0.1129944 -0.8151066081332567 0.44717848079330613
0.1149943 -0.8104425746295174 0.45364882632942605
0.1169942 -0.8060851265425526 0.4607032951763358
0.1189941 -0.8012282904731144 0.4674935798237571
0.120994 -0.7966578491433018 0.4743644041123406
0.1229939 -0.7916569493748163 0.481632975673265
0.1249938 -0.787350573441276 0.48837824958048737
0.1269937 -0.7825672613843857 0.4950159140151813
0.1289936 -0.7778114606431361 0.5027586721833296
0.1309935 -0.7728940952945326 0.5095260778127135
0.1329934 -0.7680870470859374 0.5164868761963193
0.1349933 -0.7630101336746085 0.5231947327933318
0.1369932 -0.7583149319087171 0.529889634764749
0.1389931 -0.7532608932161748 0.5368097893945498
0.140993 -0.7484242187680212 0.5436554554540478
0.1429929 -0.7431047190134428 0.5498651524737417
0.1449928 -0.7386978012616952 0.5575441540658028
0.1469927 -0.7337326598239852 0.563991585562835
0.1489926 -0.7288183721058483 0.5704917195435297
0.1509925 -0.7234747646135049 0.5767629084818965
0.1529924 -0.7185829647489634 0.5834186511216803
0.1549923 -0.7138940069089963 0.5905028529549305
0.1569922 -0.7082902953622802 0.5969532317755653
0.1589921 -0.703446601362288 0.6031228855575921
0.160992 -0.6982086161889178 0.609410486005951
0.1629919 -0.6925930529116802 0.6154699513965637
0.1649918 -0.6876627201199665 0.621440699638521
0.1669917 -0.6820985857562766 0.6271388811425466
0.1689916 -0.6766399829899248 0.6334519794272568
0.1709915 -0.6714099928438616 0.6391098091114291
0.1729914 -0.6656309236267368 0.644799225011657
0.1749913 -0.6597502594755189 0.6503817211868916
0.1769912 -0.6543105712483364 0.6562793078186911
0.1789911 -0.6486321731807935 0.6615685678339649
0.180991 -0.6426261080215747 0.6670228534757664
0.1829909 -0.6365156765463058 0.6726673522400898
0.1849908 -0.6306199583688665 0.6780643428734808
0.1869907 -0.6245517085444484 0.6832805971267923
0.1889906 -0.6183324922522533 0.689065142675588
0.1909905 -0.6118485711244492 0.6944075812447438
0.1929904 -0.6054736906208463 0.6993489513746031
0.1949903 -0.599196015889826 0.704412938694731
0.1969902 -0.592457690238197 0.7100813691670459
0.1989901 -0.5861342433212323 0.7151792175825484
0.20099 -0.5795545438573636 0.7207151832115346
0.2029899 -0.5733187040162598 0.7250180227001051
0.2049898 -0.5662134955398314 0.7302416872328557
0.2069897 -0.5598277154132828 0.7352956207739071
0.2089896 -0.5531181305766829 0.7405515810796383
0.2109895 -0.5462156925273842 0.7451392966470632
0.2129894 -0.5392709704870734 0.7503822753049758
0.2149893 -0.5326495070928323 0.7551117395339032
0.2169892 -0.5254766519811102 0.7601245009918997
0.2189891 -0.5185328774243841 0.7652051873120247
0.220989 -0.5117927329248848 0.7694820384569694
0.2229889 -0.5047638749919022 0.7738714462129208
0.2249888 -0.49726716039819546 0.7785434402802266
0.2269887 -0.49044693690638874 0.7829431365855257
0.2289886 -0.48297338015784186 0.7875011663450369
0.2309885 -0.4757952199554113 0.7919277456318232
0.2329884 -0.4684364044116331 0.7962684410873033
0.2349883 -0.46103865978205266 0.8009850272607496
0.2369882 -0.45387215174911183 0.8049866403174314
0.2389881 -0.4468086238879243 0.8093470565276131
0.240988 -0.4390264223628812 0.8132261570767061
0.2429879 -0.4314174822832277 0.8173623438760688
0.2449878 -0.4242915641447024 0.821589687456018
0.2469877 -0.41675053340662466 0.8256643185183739
0.2489876 -0.4094916545740968 0.8301071202495459
0.2509875 -0.4018713494024425 0.8336891614782003
0.2529874 -0.3946859758359609 0.8380130534415702
0.2549873 -0.3873944192288746 0.8419539713892595
0.2569872 -0.3798388450727497 0.8459846393313734
0.2589871 -0.3722368821481965 0.8494528236049919
0.260987 -0.36487890332226486 0.8531695221009168
0.2629869 -0.3573838795567105 0.8568285884220841
0.2649868 -0.35005782969630994 0.860022919468294
0.2669867 -0.3426534667007565 0.8631048214568355
0.2689866 -0.3352699707639273 0.8662522355008662
0.2709865 -0.3278711130607026 0.86946248801654
0.2729864 -0.3202302723493491 0.8725430892694837
0.2749863 -0.31297526003368625 0.875389893777087
0.2769862 -0.305508160918427 0.878165564949345
0.2789861 -0.29806546960251945 0.8803317823022418
0.280986 -0.29034798903189674 0.8825389787363228
0.2829859 -0.28326669093040496 0.8848313922435743
0.2849858 -0.27507546917430925 0.8869428879974695
0.2869857 -0.266899344255239 0.8889389115747637
0.2889856 -0.2593909709337212 0.8906100570567034
0.2909855 -0.25100530662246734 0.8927560246653866
0.2929854 -0.24323533234104142 0.8948067528011716
0.2949853 -0.23479593435906687 0.8960932986382203
0.2969852 -0.22623974767626764 0.8973878331441909
0.2989851 -0.21808492074038135 0.8986624264359466
0.300985 -0.20922576414650457 0.9000880197074878
0.3029849 -0.2006947288121048 0.901091516737132
0.3049848 -0.19204546940672024 0.9023327826766927
0.3069847 -0.18281490684966734 0.9032114086485834
0.3089846 -0.17353048961297818 0.9041986816103013
0.3109845 -0.16459973481984297 0.9055640930527606
0.3129844 -0.1550701335347362 0.9069406830389063
0.3149843 -0.14613675176222607 0.9079488843192896
0.3169842 -0.1366758744017954 0.908880938789258
0.3189841 -0.12731768632969978 0.9102195938514789
0.320984 -0.11783937727565905 0.9110326024762534
0.3229839 -0.10827570173360931 0.9118440065425975
0.3249838 -0.09944662151611089 0.9124166860900864
0.3269837 -0.09013901789163242 0.9136122893381293
0.3289836 -0.08074646170345429 0.9145524856438574
0.3309835 -0.07141964665653344 0.9156518783619989
0.3329834 -0.06282351697860228 0.9170893627637979
0.3349833 -0.05367726355742178 0.9186440509884526
0.3369832 -0.04489847097121859 0.9206090046969078
0.3389831 -0.03598246666425667 0.922177099802017
0.340983 -0.0271440018887239 0.923598349973903
0.3429829 -0.01845317647996328 0.9254036765640468
0.3449828 -0.009861446712195063 0.9265560165150878
0.3469827 -0.0013204785757110205 0.9279578198147339
0.3489826 0.0072592127402432115 0.9287368798453203
0.3509825 0.01602098988424897 0.9295726206695639
0.3529824 0.024376318297399807 0.9304153960146794
0.3549823 0.03271852517953086 0.9311301631552293
0.3569822 0.040709366063653184 0.9313788777556329
0.3589821 0.04873565206121876 0.9315517895551276
0.360982 0.05660530070814725 0.931777686120866
0.3629819 0.06485639573591201 0.9312600897622231
0.3649818 0.0727074011776464 0.9307453233802839
0.3669817 0.08068913400584449 0.9295069142012311
0.3689816 0.08900546072723509 0.9288458848230179
0.3709815 0.09720060328099248 0.9276638477458082
0.3729814 0.10534998808208992 0.9264692526583108
0.3749813 0.11335552883897981 0.9249133820449281
0.3769812 0.12178286952199846 0.9233534072544061
0.3789811 0.13000711147958188 0.9221883506495596
0.380981 0.13878525171622258 0.9198610021277929
0.3829809 0.14762315565760598 0.9178939380637361
0.3849808 0.1563657172278806 0.9159914807805866
0.3869807 0.16526353412742836 0.9135940108721295
0.3889806 0.17455808122808872 0.9115409524314332
0.3909805 0.1838226343906501 0.9088799196782853
0.3929804 0.19292422701890594 0.9068595262261995
0.3949803 0.20232508161229396 0.9044293455030477
0.3969802 0.21113847511373962 0.9024876629520943
0.3989801 0.22077739440980626 0.9001716585026063
0.40098 0.2301728460494128 0.8977721023174234
0.4029799 0.23924554156395778 0.895983543971961
0.4049798 0.24868344018386662 0.8933913723957561
0.4069797 0.25806014030539187 0.8910604453751326
0.4089796 0.26721732031045364 0.8892477753039556
0.4109795 0.2762768218496264 0.8868256879735412
0.4129794 0.2857762264411953 0.8846006665964968
0.4149793 0.29533370252238217 0.8825316692110549
0.4169792 0.3042527354099919 0.8803538228406307
0.4189791 0.31277373389211915 0.8781059315354423
0.420979 0.3214393498226884 0.8757287715630511
0.4229789 0.3301053673950534 0.8732983208729383
0.4249788 0.3387296927561227 0.8709235397863465
0.4269787 0.3469138919067079 0.8684726472190354
0.4289786 0.3550830352569856 0.8659163039734675
0.4309785 0.3629391991670459 0.8630014674513566
0.4329784 0.3711939588770579 0.8599335049021685
0.4349783 0.37941227522903925 0.8557779512610666
0.4369782 0.3867258769772462 0.8526255185433114
0.4389781 0.3946463506592801 0.8490776061997234
0.440978 0.4019206166539977 0.8450456709567783
0.4429779 0.4101510500738223 0.841143974189302
0.4449778 0.4176867260412498 0.8374211381114495
0.4469777 0.4255862335720463 0.832915921149027
0.4489776 0.4334778208261304 0.8283247209451531
0.4509775 0.44100402337644173 0.8236620148886319
0.4529774 0.4486140938461732 0.8182052119745143
0.4549773 0.45654312944364295 0.813544049138286
0.4569772 0.46465459939245946 0.8082678058716166
0.4589771 0.4723705656613133 0.803138565096064
0.460977 0.48085551568948964 0.7975817469210017
0.4629769 0.48921209159205054 0.7926948815541459
0.4649768 0.4975623981175825 0.7870815773969609
0.4669767 0.5056492870526852 0.7820146328446105
0.4689766 0.5137589725556566 0.7766358911766147
0.4709765 0.522102562806248 0.771259784857002
0.4729764 0.530173848509592 0.765563899831667
0.4749763 0.53848884929336 0.760261398432504
0.4769762 0.5468560891295059 0.7550070188029091
0.4789761 0.5552829504895541 0.7493859965777756
0.480976 0.5633640854688725 0.7438581329134657
0.4829759 0.5718183134231367 0.7386951877442984
0.4849758 0.5797350608174137 0.7332906584611179
0.4869757 0.5875853597692504 0.7277674603132553
0.4889756 0.5957893048694252 0.722327789320033
0.4909755 0.6033446918485492 0.7170261793630945
0.4929754 0.6109254733907028 0.7115027342893001
0.4949753 0.6182379881420095 0.7065404176069986
0.4969752 0.6251771426076319 0.7006129140553968
0.4989751 0.6325335758528446 0.6950911232856632
0.500975 0.6389078438709183 0.6894667887322137
0.5029749 0.6458218435486535 0.6838808710948862
0.5049748 0.6524156036862649 0.677898349747706
0.5069747 0.6586440801880025 0.6721824923989884
0.5089746 0.6653573486024444 0.6659655472279165
0.5109745 0.6718613633877649 0.6602129371393091
0.5129744 0.6784560557090791 0.6533131463244912
0.5149743 0.6838071379709936 0.6471194064093683
0.5169742 0.6898657780887356 0.6403817688040281
0.5189741 0.6961486947308122 0.6333398792308524
0.520974 0.7018515996602691 0.626404697823292
0.5229739 0.7081448478219784 0.6184882896129745
0.5249738 0.7138334870356735 0.6119071361897878
0.5269737 0.7199567603069278 0.6043610761762943
0.5289736 0.7253877509791701 0.5967870048346242
0.5309735 0.7309737940858791 0.5895751503633874
0.5329734 0.7363370800801479 0.5811542874575584
0.5349733 0.7419277899058716 0.5730963938479563
0.5369732 0.7475083468878474 0.5657543906240228
0.5389731 0.7536386176305996 0.557430043192029
0.540973 0.7592769909170025 0.5492692653417115
0.5429729 0.7649253049429257 0.5413204860557128
0.5449728 0.7707902189489219 0.5331771341781868
0.5469727 0.7765600335477112 0.5249738994644839
0.5489726 0.7820791214938405 0.5170987603783634
0.5509725 0.7877098746278537 0.5086206024607361
0.5529724 0.7933934549488529 0.500520717542666
0.5549723 0.7988064547505773 0.49236849414833206
0.5569722 0.8043216362205782 0.4842103660260823
0.5589721 0.8094277615050152 0.47614566425127686
0.560972 0.8147768852221658 0.468165382443914
0.5629719 0.8199836446383297 0.45983968940380016
0.5649718 0.825381827160636 0.4515606567418757
0.5669717 0.8300472875000602 0.44338025160300587
0.5689716 0.8349529020115903 0.43552306988306544
0.5709715 0.8391324159557385 0.4274880670578402
0.5729714 0.8436842526069744 0.41951115926017724
0.5749713 0.8478775682386961 0.41068513356353675
0.5769712 0.8524332686181673 0.40234010761226036
0.5789711 0.8563832610343208 0.3943038730295858
0.580971 0.8607904220597933 0.38569262945313576
0.5829709 0.8642561639750067 0.3773598086339386
0.5849708 0.8677676104542518 0.3691297834813491
0.5869707 0.871683539210868 0.36019667993654697
0.5889706 0.8754819583683718 0.3511238454237894
0.5909705 0.8782238593778041 0.34272361121077577
0.5929704 0.8813419295285331 0.3336433864513657
0.5949703 0.8846710105826713 0.3240620764460494
0.5969702 0.8878547412847158 0.3155930659270003
0.5989701 0.891437650676705 0.3061779034203199
0.60097 0.8938194752875641 0.29710964760032077
0.6029699 0.8965041568941369 0.2877339990833834
0.6049698 0.8994473624886712 0.27855908227081416
0.6069697 0.9021251509433169 0.26900219210659326
0.6089696 0.9050750785092474 0.25971537471466444
0.6109695 0.9078542494929036 0.2503586709640392
0.6129694 0.9101131740173796 0.24073172502994342
0.6149693 0.9126952855351038 0.2315197942764553
0.6169692 0.9153350870464136 0.22175834034254255
0.6189691 0.9175040928014482 0.21258797761061737
0.620969 0.9198059723407194 0.20245549361640702
0.6229689 0.9217333478290518 0.19358093163533283
0.6249688 0.9238610445045554 0.18419438369693097
0.6269687 0.9259702714245183 0.17441043183038296
0.6289686 0.9277085399328757 0.16508570012979218
0.6309685 0.9296110511163423 0.15619731542395376
0.6329684 0.9315520532725662 0.14678323139099692
0.6349683 0.9329073571584504 0.13746878921498737
0.6369682 0.934536576296586 0.12759910081213588
0.6389681 0.9358309154869453 0.11860829737768085
0.640968 0.9372702447863 0.10890601981378023
0.6429679 0.9384933738338698 0.0992898855938087
0.6449678 0.9392885196475415 0.09009849039103965
0.6469677 0.940219188127326 0.0806853886926401
0.6489676 0.9410779622226929 0.0713416344841811
0.6509675 0.9414485969389048 0.06209124375803901
0.6529674 0.9422513238074981 0.052413873862678095
0.6549673 0.9427119124938766 0.042424066994208184
0.6569672 0.9429155077726823 0.03306563859215915
0.6589671 0.9432983452924968 0.023345434812117802
0.660967 0.9433498052512197 0.013980344289767292
0.6629669 0.9433123584134342 0.004474838436431386
0.6649668 0.9435255022982405 -0.005816624709588478
0.6669667 0.9431126559147267 -0.015309787973811495
0.6689666 0.9428177113828197 -0.024652528729041487
0.6709665 0.9426367985270869 -0.03440768039620608
0.6729664 0.9421943539934274 -0.04446486228003657
0.6749663 0.941902784621632 -0.05370972335083665
0.6769662 0.9412082191974199 -0.06342518009017084
0.6789661 0.9408701524982491 -0.07317090406596308
0.680966 0.9399559414768954 -0.08259856532230825
0.6829659 0.9393993328450267 -0.09189600697544703
0.6849658 0.9381155181858752 -0.10173701993136984
0.6869657 0.9371912351483428 -0.11093088051573732
0.6889656 0.9363621579500668 -0.12035611555710567
0.6909655 0.9350208303150823 -0.12949589958757501
0.6929654 0.9337972285085404 -0.13906419844474768
0.6949653 0.9322644319577763 -0.14802395729948098
0.6969652 0.9307104077237234 -0.1576168509598847
0.6989651 0.9291589877073474 -0.16672031322662262
0.700965 0.9274896453261464 -0.17576293782618108
0.7029649 0.9254891952709909 -0.18462303719893594
0.7049648 0.9235169088053777 -0.19441889736994294
0.7069647 0.9209906663395387 -0.2030929342169626
0.7089646 0.9187278375343993 -0.21221288200560837
0.7109645 0.9161097912175235 -0.22117832251694042
0.7129644 0.9135485562593907 -0.23051827081530535
0.7149643 0.9109572182644244 -0.23936976795715006
0.7169642 0.908385507791809 -0.24848671604916095
0.7189641 0.9055538337124732 -0.25772719646837494
0.720964 0.9025603433569359 -0.26714605173149136
0.7229639 0.899214050605477 -0.27609528812558465
0.7249638 0.8962053101983786 -0.2854555387875752
0.7269637 0.8935394639984972 -0.29465238269349103
0.7289636 0.8901970343876189 -0.30400221883994843
0.7309635 0.8867658397114048 -0.3134070733399928
0.7329634 0.8835365582088818 -0.32261834548442153
0.7349633 0.8806403814749619 -0.3318852172726586
0.7369632 0.8767010785245732 -0.3412826117205194
0.7389631 0.8736621047814221 -0.3505010163962644
0.740963 0.8703189769341659 -0.3597461847474927
0.7429629 0.86725107199392 -0.36850572349834865
0.7449628 0.8638595141689253 -0.3773041724621481
0.7469627 0.8600007883559553 -0.3861932671434668
0.7489626 0.8565520552360025 -0.39479768826392797
0.7509625 0.8527283566157243 -0.40374164990617656
0.7529624 0.8488981197809876 -0.41185619462377887
0.7549623 0.8451922093367206 -0.4200413099334551
0.7569622 0.8414810321907238 -0.4284963117959186
0.7589621 0.8377052855884078 -0.43650097272960986
0.760962 0.8334292541239917 -0.4443588121245249
0.7629619 0.8297960213677122 -0.4520091904578363
0.7649618 0.8252641841752628 -0.4596756104299239
0.7669617 0.821052380591218 -0.46735005108047845
0.7689616 0.8164185447525242 -0.4749987835233981
0.7709615 0.8122058303303074 -0.48257457907084667
0.7729614 0.807029818955139 -0.490063402921438
0.7749613 0.8020030730776961 -0.49723959647024335
0.7769612 0.796439130671782 -0.504199641377525
0.7789611 0.7912368403902131 -0.511117236853899
0.780961 0.7857791411642542 -0.5184507270434316
0.7829609 0.7801114859793032 -0.5255576056615535
0.7849608 0.7743743232326712 -0.5328894577672268
0.7869607 0.7685163326700224 -0.5399601003794592
0.7889606 0.7624614350266896 -0.5471675768457286
0.7909605 0.7559926440514605 -0.5541690526648556
0.7929604 0.7498234626228313 -0.561444849267146
0.7949603 0.7436884490510207 -0.5690097119501238
0.7969602 0.7370867787637776 -0.5761014443389408
0.7989601 0.7304620991979397 -0.5835150230563605
0.80096 0.7245898731964867 -0.5916569535932458
0.8029599 0.718272337452057 -0.5990342545782753
0.8049598 0.7115548064123345 -0.6067150082312037
0.8069597 0.7057028752725669 -0.6146379088748569
0.8089596 0.6993233077077338 -0.6220161068008841
0.8109595 0.6929957400315978 -0.6301614981084858
0.8129594 0.6870190900001127 -0.6377087632920084
