# GHZ S RI R 50.0
0.3 -0.8431809 0.2214458
0.3011484375 -0.6777387 0.4749511
0.302296875 -0.4501816 0.6388151
0.3034453125 -0.2012306 0.7083095
0.30459375 0.03358762 0.6925917
0.3057421875 0.2336513 0.6108568
0.306890625 0.3859429 0.4836138
0.3080390625 0.4871096 0.3298652
0.3091875 0.5371768 0.165049
0.3103359375 0.5403286 0.0033227
0.311484375 0.501959 -0.1458155
0.3126328125 0.4281627 -0.2748781
0.31378125 0.3256036 -0.3771425
0.3149296875 0.2013866 -0.4481989
0.316078125 0.06403433 -0.4826051
0.3172265625 -0.07916895 -0.4779164
0.318375 -0.2165767 -0.4330374
0.3195234375 -0.336969 -0.3486836
0.320671875 -0.4284256 -0.2287518
0.3218203125 -0.4782961 -0.08456215
0.32296875 -0.4786588 0.07019128
0.3241171875 -0.4275319 0.2170619
0.325265625 -0.3306784 0.3375047
0.3264140625 -0.2012861 0.4168153
0.3275625 -0.05781026 0.4467545
0.3287109375 0.08153125 0.4290788
0.329859375 0.2019337 0.3708021
0.3310078125 0.2937523 0.2837697
0.33215625 0.352042 0.1786772
0.3333046875 0.3765749 0.06749751
0.334453125 0.3698735 -0.04082496
0.3356015625 0.336034 -0.1394731
0.33675 0.2793691 -0.2230717
0.3378984375 0.204636 -0.2880618
0.339046875 0.1168484 -0.3311971
0.3401953125 0.02089276 -0.3505114
0.34134375 -0.07761788 -0.344309
0.3424921875 -0.1731375 -0.3118794
0.343640625 -0.2582471 -0.2536331
0.3447890625 -0.3263593 -0.171371
0.3459375 -0.3698866 -0.06906567
0.3470859375 -0.3814854 0.04602176
0.348234375 -0.3559792 0.1636764
0.3493828125 -0.2923616 0.2712355
0.35053125 -0.1942806 0.354248
0.3516796875 -0.07183346 0.4010995
0.352828125 0.05979631 0.4040608
0.3539765625 0.1848639 0.3625549
0.355125 0.2877681 0.2834897
0.3562734375 0.3579366 0.1768258
0.357421875 0.3899513 0.0567803
0.3585703125 0.3837853 -0.06401236
0.35971875 0.342793 -0.1743307
0.3608671875 0.2728964 -0.2656852
0.362015625 0.1815922 -0.3320322
0.3631640625 0.07663788 -0.3696608
0.3643125 -0.03421384 -0.3767585
0.3654609375 -0.1433654 -0.3530784
0.366609375 -0.2424852 -0.2994101
0.3677578125 -0.3247537 -0.2185273
0.36890625 -0.3824571 -0.1147142
0.3700546875 -0.409121 0.005696798
0.371203125 -0.3982443 0.1330527
0.3723515625 -0.3468689 0.2569231
0.3735 -0.2549424 0.3641752
0.3746484375 -0.1279834 0.4387045
0.375796875 0.02382001 0.4683878
0.3769453125 0.1832752 0.4428426
0.37809375 0.3271921 0.3607941
0.3792421875 0.4349039 0.2296526
0.380390625 0.4884431 0.06728259
0.3815390625 0.4798143 -0.1035406
0.3826875 0.4115097 -0.2579063
0.3838359375 0.2954355 -0.3751973
0.384984375 0.1504396 -0.4431331
0.3861328125 -0.00327651 -0.4572625
0.38728125 -0.1475149 -0.4208719
0.3884296875 -0.2676433 -0.3427441
0.389578125 -0.3529063 -0.2352189
0.3907265625 -0.3996685 -0.1109033
0.391875 -0.4057818 0.01801124
0.3930234375 -0.3737625 0.1390654
0.394171875 -0.3083382 0.2429049
0.3953203125 -0.216894 0.3214754
0.39646875 -0.107475 0.368862
0.3976171875 0.0104677 0.3813717
0.398765625 0.1268449 0.3581814
0.3999140625 0.2309117 0.3002054
0.4010625 0.3123199 0.2125949
0.4022109375 0.362864 0.1021502
0.403359375 0.3750132 -0.01885621
0.4045078125 0.3467611 -0.1376893
0.40565625 0.2805347 -0.2402469
0.4068046875 0.1844153 -0.3138024
0.407953125 0.07107025 -0.3498848
0.4091015625 -0.04476389 -0.345744
0.41025 -0.1489816 -0.3044419
0.4113984375 -0.2302346 -0.2343137
0.412546875 -0.2821537 -0.145797
0.4136953125 -0.3026578 -0.05043489
0.41484375 -0.2936078 0.04179594
0.4159921875 -0.2592934 0.1232178
0.417140625 -0.2052576 0.1881717
0.4182890625 -0.1384858 0.2330818
0.4194375 -0.06428161 0.2569934
0.4205859375 0.01148716 0.2597237
0.421734375 0.08365371 0.242081
0.4228828125 0.1474376 0.2061926
0.42403125 0.1987084 0.1546808
0.4251796875 0.2339174 0.09107007
0.426328125 0.2504979 0.01984138
0.4274765625 0.2462628 -0.05400664
0.428625 0.2206218 -0.1247016
0.4297734375 0.1746482 -0.1858514
0.430921875 0.111198 -0.2312312
0.4320703125 0.03568038 -0.2553397
0.43321875 -0.04472514 -0.2545907
0.4343671875 -0.1211319 -0.2283872
0.435515625 -0.185393 -0.1790521
0.4366640625 -0.2301417 -0.1119981
0.4378125 -0.2511665 -0.0352186
0.4389609375 -0.2468293 0.04292384
0.440109375 -0.2190395 0.1140397
0.4412578125 -0.1720051 0.1719773
0.44240625 -0.1114319 0.2121178
0.4435546875 -0.04366718 0.2325276
0.444703125 0.02558845 0.2324812
0.4458515625 0.09079739 0.2132917
0.447 0.147355 0.1771347
0.4481484375 0.1915614 0.12744
0.449296875 0.2203809 0.06748556
0.4504453125 0.2317041 0.001547899
0.45159375 0.2243492 -0.0657005
0.4527421875 0.1980679 -0.1292936
0.453890625 0.1538935 -0.1842893
0.4550390625 0.09407296 -0.2254063
0.4561875 0.02315767 -0.2477407
0.4573359375 -0.05392136 -0.247903
0.458484375 -0.1297357 -0.2236341
0.4596328125 -0.1959611 -0.1753739
0.46078125 -0.2448097 -0.1068741
0.4619296875 -0.2692541 -0.02456751
0.463078125 -0.265513 0.06249727
0.4642265625 -0.2331976 0.1442302
0.465375 -0.1758968 0.2112126
0.4665234375 -0.1002765 0.2557433
0.467671875 -0.01509931 0.2735735
0.4688203125 0.07050872 0.2636777
0.46996875 0.1477676 0.228105
0.4711171875 0.2096515 0.1710883
0.472265625 0.2511515 0.09891482
0.4734140625 0.2690181 0.01818458
0.4745625 0.262179 -0.06377655
0.4757109375 0.2316093 -0.1404055
0.476859375 0.1795707 -0.2049527
0.4780078125 0.1099271 -0.2517978
0.47915625 0.02875932 -0.2761542
0.4803046875 -0.05783362 -0.2752231
0.481453125 -0.141725 -0.2473867
0.4826015625 -0.214853 -0.1938536
0.48375 -0.2687144 -0.1184243
0.4848984375 -0.2966564 -0.02764206
0.486046875 -0.2936218 0.06986475
0.4871953125 -0.2581367 0.1627279
0.48834375 -0.1926675 0.2398552
0.4894921875 -0.1040721 0.2910313
0.490640625 -0.003048084 0.3092942
0.4917890625 0.09802991 0.2926069
0.4929375 0.1873044 0.2427337
0.4940859375 0.2535734 0.1667092
0.495234375 0.2902491 0.07475469
0.4963828125 0.2944893 -0.02194559
0.49753125 0.2679253 -0.1125518
0.4986796875 0.2151376 -0.188202
0.499828125 0.1431481 -0.241869
0.5009765625 0.06012093 -0.2700859
0.502125 -0.02564553 -0.2714855
0.5032734375 -0.1060606 -0.2473545
0.504421875 -0.1743972 -0.200715
0.5055703125 -0.2250993 -0.1368989
0.50671875 -0.2540774 -0.06122276
0.5078671875 -0.2591272 0.01876178
0.509015625 -0.2399225 0.09656361
0.5101640625 -0.1979586 0.1648991
0.5113125 -0.1372219 0.2172765
0.5124609375 -0.06301218 0.2484058
0.513609375 0.01728176 0.2546954
0.5147578125 0.09559175 0.2355374
0.51590625 0.163534 0.1924273
0.5170546875 0.2140495 0.1300925
0.518203125 0.2415543 0.05584151
0.5193515625 0.243835 -0.02225463
0.5205 0.2214157 -0.09572407
0.5216484375 0.1779392 -0.1569543
0.522796875 0.1188492 -0.2004135
0.5239453125 0.05118989 -0.2230707
0.52509375 -0.01817014 -0.2238673
0.5262421875 -0.08294565 -0.2045559
0.527390625 -0.1377271 -0.167657
0.5285390625 -0.1785083 -0.1181776
0.5296875 -0.2027026 -0.05991904
0.5308359375 -0.2092987 0.001757836
0.531984375 -0.1982097 0.06223707
0.5331328125 -0.1705676 0.1166563
0.53428125 -0.1291233 0.1608576
0.5354296875 -0.07659809 0.1915402
0.536578125 -0.01711816 0.206008
0.5377265625 0.04454286 0.2027356
0.538875 0.1028415 0.1815178
0.5400234375 0.1532032 0.1434986
0.541171875 0.1903569 0.09152389
0.5423203125 0.2103684 0.03020224
0.54346875 0.2107011 -0.03539486
0.5446171875 0.1908953 -0.09789874
0.545765625 0.1525124 -0.1517723
0.5469140625 0.09914253 -0.1914387
0.5480625 0.0362304 -0.2125862
0.5492109375 -0.02994341 -0.2134236
0.550359375 -0.09286217 -0.1941859
0.5515078125 -0.1468033 -0.1569982
0.55265625 -0.1868027 -0.1058022
0.5538046875 -0.2098827 -0.04533396
0.554953125 -0.214117 0.01900519
0.5561015625 -0.1996364 0.08174877
0.55725 -0.1674247 0.137795
0.5583984375 -0.1201304 0.1823464
0.559546875 -0.06139664 0.2117674
0.5606953125 0.004166981 0.2230754
0.56184375 0.07122262 0.2147721
0.5629921875 0.1343273 0.1864859
0.564140625 0.1876374 0.1397487
0.5652890625 0.2252526 0.0776073
0.5664375 0.2428692 0.005027241
0.5675859375 0.2371022 -0.07171854
0.568734375 0.2067924 -0.144648
0.5698828125 0.1537859 -0.2058264
0.57103125 0.08216626 -0.2478027
0.5721796875 -0.0008445341 -0.264871
0.573328125 -0.08643732 -0.2539148
0.5744765625 -0.1644336 -0.2152058
0.575625 -0.2264222 -0.1527842
0.5767734375 -0.2650081 -0.07314244
0.577921875 -0.2758081 0.0153839
0.5790703125 -0.2578294 0.102685
0.58021875 -0.2127879 0.1795013
0.5813671875 -0.145702 0.2382405
0.582515625 -0.06311346 0.2730303
0.5836640625 0.02606271 0.2799737
0.5848125 0.1136221 0.2586923
0.5859609375 0.190447 0.2107078
0.587109375 0.2485219 0.1407729
0.5882578125 0.2822116 0.05519943
0.58940625 0.2870726 -0.03748528
0.5905546875 0.2618148 -0.1280494
0.591703125 0.208326 -0.2066287
0.5928515625 0.1312813 -0.2643017
0.594 0.03869964 -0.2940576
0.5951484375 -0.05935052 -0.2917877
0.596296875 -0.1517915 -0.2565778
0.5974453125 -0.227255 -0.1923988
0.59859375 -0.2770005 -0.1064958
0.5997421875 -0.2947856 -0.009463934
0.600890625 -0.2788902 0.08698103
0.6020390625 -0.2321254 0.1716618
0.6031875 -0.1609131 0.2345351
0.6043359375 -0.074813 0.2693903
0.605484375 0.01573806 0.2740044
0.6066328125 0.1003851 0.2494374
0.60778125 0.170735 0.2005241
0.6089296875 0.2203241 0.1337171
0.610078125 0.2459117 0.05720395
0.6112265625 0.246446 -0.02136438
0.612375 0.2234751 -0.09430414
0.6135234375 0.1806646 -0.1554249
0.614671875 0.1227023 -0.1998224
0.6158203125 0.05537733 -0.2243347
0.61696875 -0.01519512 -0.2276714
0.6181171875 -0.08272375 -0.2099323
0.619265625 -0.1411759 -0.1731061
0.6204140625 -0.1855294 -0.1207879
0.6215625 -0.2117991 -0.05785761
0.6227109375 -0.2177072 0.009832282
0.623859375 -0.202535 0.07559739
0.6250078125 -0.1679471 0.1332002
0.62615625 -0.1174598 0.1768202
0.6273046875 -0.05646958 0.2023499
0.628453125 0.008612673 0.2073999
0.6296015625 0.0713123 0.1921459
0.63075 0.1250895 0.1585947
0.6318984375 0.1651402 0.1109915
0.633046875 0.1881182 0.05456005
0.6341953125 0.1927 -0.004962496
0.63534375 0.179313 -0.06183434
0.6364921875 0.1502547 -0.1111452
0.637640625 0.1089019 -0.1485377
0.6387890625 0.05920932 -0.1718299
0.6399375 0.005887732 -0.1794282
0.6410859375 -0.04670636 -0.1716426
0.642234375 -0.0942631 -0.149352
0.6433828125 -0.1331409 -0.1143979
0.64453125 -0.1603383 -0.07007182
0.6456796875 -0.1735549 -0.01983413
0.646828125 -0.1715802 0.03234502
0.6479765625 -0.1546336 0.08168599
0.649125 -0.1235472 0.1242172
0.6502734375 -0.08105715 0.1559819
0.651421875 -0.03064143 0.1738119
0.6525703125 0.02331571 0.1754932
0.65371875 0.07553683 0.1607136
0.6548671875 0.1210354 0.1303322
0.656015625 0.1552703 0.08738823
0.6571640625 0.1746038 0.03591177
0.6583125 0.1771543 -0.01907501
0.6594609375 0.1626518 -0.07209504
0.660609375 0.1326642 -0.1178772
0.6617578125 0.09033264 -0.1522804
0.66290625 0.03990819 -0.1719854
0.6640546875 -0.01384002 -0.1755352
0.665203125 -0.06599008 -0.1629187
0.6663515625 -0.1117401 -0.1354067
0.6675 -0.1471151 -0.09557092
0.6686484375 -0.1691952 -0.04715946
0.669796875 -0.1758329 0.005838822
0.6709453125 -0.1664818 0.05867419
0.67209375 -0.1419281 0.1064369
0.6732421875 -0.1036715 0.1450922
0.674390625 -0.05514679 0.170801
0.6755390625 -0.0005116747 0.1807533
0.6766875 0.05512661 0.1733659
0.6778359375 0.1066255 0.1489578
0.678984375 0.1483479 0.1094697
0.6801328125 0.1759382 0.05815629
0.68128125 0.1859526 0.0006629908
0.6824296875 0.1774547 -0.05750302
0.683578125 0.1508348 -0.110085
0.6847265625 0.1088381 -0.1516648
0.685875 0.0559197 -0.1776985
0.6870234375 -0.002376242 -0.185788
0.688171875 -0.05952416 -0.1750627
0.6893203125 -0.1103089 -0.1473182
0.69046875 -0.1495107 -0.1055167
0.6916171875 -0.1737609 -0.05414694
0.692765625 -0.181017 0.001685564
0.6939140625 -0.1709573 0.05665196
0.6950625 -0.1450191 0.1054412
0.6962109375 -0.1057351 0.1439997
0.697359375 -0.05683381 0.168868
0.6985078125 -0.003081212 0.1779535
0.69965625 0.05112081 0.1702898
0.7008046875 0.1005763 0.1467804
0.701953125 0.1404954 0.1092706
0.7031015625 0.1675287 0.0610407
0.70425 0.1784366 0.006992583
0.7053984375 0.1721912 -0.04822681
0.706546875 0.1490165 -0.09914178
0.7076953125 0.1113032 -0.1404137
0.70884375 0.06230078 -0.1679342
0.7099921875 0.007121407 -0.1786902
0.711140625 -0.04871689 -0.1717091
0.7122890625 -0.09904923 -0.1476782
0.7134375 -0.1393188 -0.1093308
0.7145859375 -0.1653992 -0.06069183
0.715734375 -0.1749217 -0.006674861
0.7168828125 -0.1674796 0.04689675
0.71803125 -0.1441945 0.09534861
0.7191796875 -0.1076077 0.1338244
0.720328125 -0.0614569 0.1592254
0.7214765625 -0.01046262 0.1694629
0.722625 0.04099994 0.1639229
0.7237734375 0.08813563 0.1434517
0.724921875 0.1269596 0.1101165
0.7260703125 0.1540028 0.06676065
0.72721875 0.1669788 0.01722974
0.7283671875 0.1644686 -0.03403423
0.729515625 0.1468344 -0.08216715
0.7306640625 0.1152859 -0.1230449
0.7318125 0.07265598 -0.1527579
0.7329609375 0.02268154 -0.168121
0.734109375 -0.03000748 -0.1674611
0.7352578125 -0.08006595 -0.1504553
0.73640625 -0.1226385 -0.1187295
0.7375546875 -0.1532266 -0.07536924
0.738703125 -0.1689522 -0.0245578
0.7398515625 -0.1680419 0.02859171
0.741 -0.1508217 0.0786237
0.7421484375 -0.1190824 0.1206909
0.743296875 -0.07612666 0.1508174
0.7444453125 -0.02663465 0.166196
0.74559375 0.02491508 0.1659741
0.7467421875 0.07361126 0.1502434
0.747890625 0.11522 0.1208823
0.7490390625 0.140467 0.07731605
0.7501875 0.15725 0.03169032
0.7513359375 0.1597445 -0.01685799
0.752484375 0.1476497 -0.06417301
0.7536328125 0.1222491 -0.1059909
0.75478125 0.08530178 -0.1387129
0.7559296875 0.03991765 -0.1589585
0.757078125 -0.01000445 -0.1649694
0.7582265625 -0.05999641 -0.1556483
0.759375 -0.1055752 -0.1312086
0.7605234375 -0.1421569 -0.09365673
0.761671875 -0.1656715 -0.04606377
0.7628203125 -0.1734734 0.007368501
0.76396875 -0.16425 0.06130507
0.7651171875 -0.1384753 0.1102468
0.766265625 -0.09805238 0.1491597
0.7674140625 -0.04688674 0.1738096
0.7685625 0.009672049 0.1809655
0.7697109375 0.06607347 0.1699507
0.770859375 0.1163974 0.14174
0.7720078125 0.1555625 0.09872743
0.77315625 0.1795174 0.04560348
0.7743046875 0.1857187 -0.01245724
0.775453125 0.1736042 -0.07005872
0.7766015625 0.1442223 -0.1215593
0.77775 0.09995132 -0.1615804
0.7788984375 0.04488054 -0.1859355
0.780046875 -0.015626 -0.1923352
0.7811953125 -0.07587736 -0.1793931
0.78234375 -0.1296673 -0.1477924
0.7834921875 -0.171549 -0.100107
0.784640625 -0.1964516 -0.04085267
0.7857890625 -0.2012068 0.02433887
0.7869375 -0.1842138 0.08849527
0.7880859375 -0.1470539 0.144518
0.789234375 -0.09266147 0.185766
0.7903828125 -0.02721889 0.2068948
0.79153125 0.04232349 0.2049549
0.7926796875 0.1074866 0.1798626
0.793828125 0.1604003 0.1341788
0.7949765625 0.1948113 0.07356586
0.796125 0.2068816 0.005414579
0.7972734375 0.1953824 -0.06208596
0.798421875 0.1626487 -0.1214335
0.7995703125 0.1126031 -0.165652
0.80071875 0.05214943 -0.1904945
0.8018671875 -0.01202287 -0.1940946
0.803015625 -0.07252591 -0.177109
0.8041640625 -0.1233121 -0.1423003
0.8053125 -0.1593834 -0.09398875
0.8064609375 -0.1780006 -0.0379689
0.807609375 -0.1780205 0.01983215
0.8087578125 -0.1601203 0.07374831
0.80990625 -0.1269615 0.1185015
0.8110546875 -0.08206854 0.1501429
0.812203125 -0.03034681 0.1658061
0.8133515625 0.02289625 0.1646283
0.8145 0.07230835 0.1470882
0.8156484375 0.1133138 0.1151402
0.816796875 0.1415873 0.0726444
0.8179453125 0.1548399 0.02417911
0.81909375 0.1521631 -0.02549063
0.8202421875 0.1341984 -0.07073013
0.821390625 0.1034063 -0.107119
0.8225390625 0.06334738 -0.1316366
0.8236875 0.01878794 -0.1419459
0.8248359375 -0.02569037 -0.1378513
0.825984375 -0.06570436 -0.1205769
0.8271328125 -0.09756143 -0.09260184
0.82828125 -0.1185164 -0.05696337
0.8294296875 -0.1274992 -0.01772163
0.830578125 -0.1242549 0.02133457
0.8317265625 -0.1097793 0.05660135
0.832875 -0.08611135 0.08544359
0.8340234375 -0.0555574 0.1055385
0.835171875 -0.02128284 0.1155816
0.8363203125 0.0140114 0.1148494
0.83746875 0.0469676 0.1039965
0.8386171875 0.07515416 0.08423881
0.839765625 0.09582756 0.05737691
0.8409140625 0.1077017 0.02576803
0.8420625 0.1093736 -0.007670791
0.8432109375 0.1012254 -0.04001259
0.844359375 0.08369526 -0.06838371
0.8455078125 0.05858841 -0.08974651
0.84665625 0.02826578 -0.1024056
0.8478046875 -0.004367829 -0.1052345
0.848953125 -0.03583921 -0.09788264
0.8501015625 -0.0633745 -0.08132148
0.85125 -0.08411697 -0.05740551
0.8523984375 -0.0964183 -0.02858297
0.853546875 -0.099191 0.001933262
0.8546953125 -0.09262386 0.03143525
0.85584375 -0.07761168 0.05712152
0.8569921875 -0.05601975 0.07666654
0.858140625 -0.03003304 0.08856767
0.8592890625 -0.002159538 0.09230097
0.8604375 0.02506639 0.08751936
0.8615859375 0.04937888 0.07538877
0.862734375 0.06864 0.05671518
0.8638828125 0.08150856 0.03349567
0.86503125 0.08709121 0.007930987
0.8661796875 0.08490919 -0.01814925
0.867328125 0.07522649 -0.04216709
0.8684765625 0.05910114 -0.06226632
0.869625 0.03756426 -0.0766381
0.8707734375 0.01303657 -0.08394124
0.871921875 -0.01272539 -0.08369968
0.8730703125 -0.03699922 -0.07577939
0.87421875 -0.05779891 -0.06079341
0.8753671875 -0.0731025 -0.04036442
0.876515625 -0.08137348 -0.01637559
0.8776640625 -0.08188886 0.008947645
0.8788125 -0.07485264 0.03293338
0.8799609375 -0.06100182 0.05353821
0.881109375 -0.04176039 0.06870598
0.8822578125 -0.01911306 0.07738601
0.88340625 0.00473449 0.07871154
0.8845546875 0.02768295 0.07321073
0.885703125 0.04755822 0.06111244
0.8868515625 0.06286183 0.04407933
0.888 0.07260168 0.02344789
0.8891484375 0.07584353 0.001241772
0.890296875 0.07259502 -0.02074954
0.8914453125 0.06328714 -0.04091863
0.89259375 0.04854136 -0.05740047
0.8937421875 0.02972917 -0.06916798
0.894890625 0.008292844 -0.07503997
0.8960390625 -0.01414937 -0.0743888
0.8971875 -0.03546121 -0.06734091
0.8983359375 -0.05414878 -0.05422908
0.899484375 -0.06825926 -0.03609082
0.9006328125 -0.07654802 -0.01432648
0.90178125 -0.07786289 0.009297636
0.9029296875 -0.07197215 0.03239299
0.904078125 -0.05934403 0.05301649
0.9052265625 -0.04096308 0.06900694
0.906375 -0.01819767 0.07868825
0.9075234375 0.006538332 0.08088822
0.908671875 0.03092931 0.07550079
0.9098203125 0.05263948 0.06275177
0.91096875 0.06955685 0.04406651
0.9121171875 0.08003981 0.02106019
0.913265625 0.08302087 -0.004242912
0.9144140625 0.0781381 -0.02926984
0.9155625 0.06590559 -0.0517282
0.9167109375 0.04748338 -0.06962016
0.917859375 0.02433836 -0.08109515
0.9190078125 -0.001374042 -0.0851945
0.92015625 -0.02731235 -0.08150226
0.9213046875 -0.05111666 -0.06983923
0.922453125 -0.07067122 -0.05141012
0.9236015625 -0.0837389 -0.0276802
0.92475 -0.08908511 -0.0006787336
0.9258984375 -0.08575025 0.02708707
0.927046875 -0.07393536 0.05267284
0.9281953125 -0.05447519 0.07376298
0.92934375 -0.0290795 0.08773515
0.9304921875 -0.0002319271 0.09318175
0.931640625 0.02915573 0.08919313
0.9327890625 0.05595019 0.07587685
0.9339375 0.07728697 0.05466534
0.9350859375 0.09086926 0.02770232
0.936234375 0.0952298 -0.002121562
0.9373828125 0.08981786 -0.0318996
0.93853125 0.07530797 -0.0583721
0.9396796875 0.05332803 -0.07880179
0.940828125 0.02607584 -0.09137353
0.9419765625 -0.003434991 -0.09487235
0.943125 -0.03252633 -0.08904488
0.9442734375 -0.05829353 -0.07455878
0.945421875 -0.07844876 -0.0530091
0.9465703125 -0.09106488 -0.02627141
0.94771875 -0.09470346 0.002944092
0.9488671875 -0.0894589 0.03186684
0.950015625 -0.07566829 0.05797325
0.9511640625 -0.05436522 0.07871937
0.9523125 -0.02767195 0.09210528
0.9534609375 0.002185104 0.09666153
0.954609375 0.03214419 0.09177686
0.9557578125 0.05931808 0.07780439
0.95690625 0.08103155 0.055711
0.9580546875 0.09497414 0.02790925
0.959203125 0.09945044 -0.003259315
0.9603515625 0.09388002 -0.03433247
0.9615 0.07869796 -0.06228676
0.9626484375 0.05529211 -0.08401092
0.963796875 0.02633564 -0.09743115
0.9649453125 -0.005520597 -0.1010153
0.96609375 -0.03688407 -0.09432552
0.9672421875 -0.06454268 -0.0782041
0.968390625 -0.08587565 -0.0542855
0.9695390625 -0.0987775 -0.02494245
0.9706875 -0.1018181 0.007025238
0.9718359375 -0.09498341 0.03824911
0.972984375 -0.07874004 0.06609561
0.9741328125 -0.05465395 0.08768506
0.97528125 -0.02491979 0.1009207
0.9764296875 0.007665216 0.1044317
0.977578125 0.04015086 0.09768566
0.9787265625 0.06934154 0.08108923
