# GHZ S RI R 50.0
0.3 -1.270012 -2.54121
0.3011484375 -2.375033 -1.709267
0.302296875 -2.889282 -0.3954615
0.3034453125 -2.644272 0.9537774
0.30459375 -1.814589 1.903673
0.3057421875 -0.7635428 2.286067
0.306890625 0.1974332 2.17677
0.3080390625 0.9078229 1.754072
0.3091875 1.336285 1.190947
0.3103359375 1.517031 0.606379
0.311484375 1.502082 0.06994411
0.3126328125 1.344352 -0.3818023
0.31378125 1.087396 -0.732743
0.3149296875 0.7675713 -0.9770015
0.316078125 0.4138153 -1.112998
0.3172265625 0.05271829 -1.143355
0.318375 -0.2916905 -1.071976
0.3195234375 -0.5944563 -0.9063398
0.320671875 -0.8297454 -0.6599697
0.3218203125 -0.9755569 -0.3542491
0.32296875 -1.014091 -0.02302022
0.3241171875 -0.9434398 0.2971061
0.325265625 -0.7739676 0.5685406
0.3264140625 -0.5314568 0.7610434
0.3275625 -0.2528178 0.8568336
0.3287109375 0.02662784 0.8566641
0.329859375 0.2757281 0.774156
0.3310078125 0.4760949 0.628872
0.33215625 0.6146296 0.4426325
0.3333046875 0.6905081 0.2381159
0.334453125 0.7073666 0.03113552
0.3356015625 0.6707845 -0.1625138
0.33675 0.5881546 -0.3352917
0.3378984375 0.4678563 -0.4781671
0.339046875 0.3168663 -0.5844862
0.3401953125 0.144007 -0.6499707
0.34134375 -0.04148423 -0.6692102
0.3424921875 -0.2294196 -0.6399925
0.343640625 -0.4087774 -0.55958
0.3447890625 -0.565688 -0.4283643
0.3459375 -0.6846784 -0.2504606
0.3470859375 -0.7493506 -0.03565308
0.348234375 -0.7462952 0.200168
0.3493828125 -0.6657215 0.433431
0.35053125 -0.5083705 0.6366742
0.3516796875 -0.2857149 0.7814524
0.352828125 -0.02161755 0.8464602
0.3539765625 0.2519388 0.8198878
0.355125 0.50368 0.7050776
0.3562734375 0.7053558 0.5156389
0.357421875 0.8383458 0.2732683
0.3585703125 0.8913412 0.001556342
0.35971875 0.8616499 -0.2726035
0.3608671875 0.753314 -0.5299157
0.362015625 0.5735173 -0.7501547
0.3631640625 0.3317008 -0.9163451
0.3643125 0.04124145 -1.012017
0.3654609375 -0.28248 -1.022413
0.366609375 -0.6181831 -0.9337098
0.3677578125 -0.9381806 -0.7335805
0.36890625 -1.206043 -0.4156467
0.3700546875 -1.372974 0.01588144
0.371203125 -1.383677 0.5364602
0.3723515625 -1.181943 1.08711
0.3735 -0.7298397 1.57006
0.3746484375 -0.04720102 1.852573
0.375796875 0.7684135 1.799214
0.3769453125 1.515806 1.344361
0.37809375 1.973552 0.5546908
0.3792421875 1.990649 -0.3599069
0.380390625 1.579103 -1.142361
0.3815390625 0.8959059 -1.606942
0.3826875 0.1489303 -1.703403
0.3838359375 -0.4880132 -1.495211
0.384984375 -0.9286039 -1.097904
0.3861328125 -1.153165 -0.6272002
0.38728125 -1.187421 -0.1697687
0.3884296875 -1.077451 0.2198165
0.389578125 -0.8726488 0.515828
0.3907265625 -0.614848 0.7106606
0.391875 -0.3385799 0.8090026
0.3930234375 -0.06966734 0.8214934
0.394171875 0.1721192 0.7614176
0.3953203125 0.3750834 0.6431845
0.39646875 0.5291264 0.4814803
0.3976171875 0.6276931 0.2907507
0.398765625 0.6676831 0.08511364
0.3999140625 0.6466056 -0.1189508
0.4010625 0.5682487 -0.3059714
0.4022109375 0.4377933 -0.4596293
0.403359375 0.2669301 -0.5654309
0.4045078125 0.07180955 -0.6116669
0.40565625 -0.1261546 -0.5927898
0.4068046875 -0.3050299 -0.5110174
0.407953125 -0.4442782 -0.3770722
0.4091015625 -0.530115 -0.2078123
0.41025 -0.5541545 -0.02641394
0.4113984375 -0.5195103 0.1475134
0.412546875 -0.4343896 0.2956966
0.4136953125 -0.312455 0.4057772
0.41484375 -0.1681665 0.4710248
0.4159921875 -0.01683559 0.4897041
0.417140625 0.1300927 0.4646583
0.4182890625 0.2608433 0.4000896
0.4194375 0.3669796 0.3025695
0.4205859375 0.4413699 0.1795916
0.421734375 0.4791512 0.03951131
0.4228828125 0.476375 -0.1085551
0.42403125 0.430651 -0.2537578
0.4251796875 0.3416832 -0.3849689
0.426328125 0.2121473 -0.489889
0.4274765625 0.04790989 -0.5551916
0.428625 -0.140897 -0.568204
0.4297734375 -0.3381337 -0.5169511
0.430921875 -0.5227922 -0.3945359
0.4320703125 -0.6676127 -0.2032058
0.43321875 -0.7440381 0.04842212
0.4343671875 -0.7256899 0.336514
0.435515625 -0.5922591 0.6254082
0.4366640625 -0.3360975 0.8688031
0.4378125 0.03055244 1.010294
0.4389609375 0.4734046 0.9947505
0.440109375 0.9249409 0.7707208
0.4412578125 1.27784 0.3122786
0.44240625 1.383527 -0.3433118
0.4435546875 1.102303 -1.037338
0.444703125 0.4327495 -1.490318
0.4458515625 -0.3841595 -1.472225
0.447 -1.004348 -1.020341
0.4481484375 -1.250533 -0.3878961
0.449296875 -1.167543 0.1876871
0.4504453125 -0.887419 0.5942305
0.45159375 -0.5261012 0.8146118
0.4527421875 -0.1618282 0.8739011
0.453890625 0.1591279 0.8075148
0.4550390625 0.4113493 0.6512789
0.4561875 0.5810767 0.4364237
0.4573359375 0.6641081 0.1942791
0.458484375 0.6609222 -0.04817106
0.4596328125 0.5801824 -0.2650609
0.46078125 0.4368971 -0.4343716
0.4619296875 0.2518962 -0.5408071
0.463078125 0.04949903 -0.5766388
0.4642265625 -0.1460551 -0.5429556
0.465375 -0.3114157 -0.4492206
0.4665234375 -0.4317891 -0.3112051
0.467671875 -0.4975053 -0.1480833
0.4688203125 -0.5071295 0.02114492
0.46996875 -0.4645861 0.1790823
0.4711171875 -0.3785767 0.3118967
0.472265625 -0.2597198 0.4097072
0.4734140625 -0.1198851 0.4670483
0.4745625 0.0288667 0.4814167
0.4757109375 0.1746906 0.4524743
0.476859375 0.3069465 0.3824254
0.4780078125 0.4155096 0.2765505
0.47915625 0.4907104 0.1408141
0.4803046875 0.5250632 -0.01533408
0.481453125 0.5120928 -0.1807988
0.4826015625 0.4483399 -0.3424157
0.48375 0.3336587 -0.4846601
0.4848984375 0.1723633 -0.5910361
0.486046875 -0.02512416 -0.6461117
0.4871953125 -0.2427088 -0.6351554
0.48834375 -0.4587522 -0.5504083
0.4894921875 -0.6473693 -0.3906643
0.490640625 -0.7814327 -0.1637452
0.4917890625 -0.836862 0.1118132
0.4929375 -0.7947481 0.409336
0.4940859375 -0.6475755 0.6933088
0.495234375 -0.3955444 0.9279465
0.4963828125 -0.0541912 1.074871
0.49753125 0.3487366 1.097911
0.4986796875 0.7710975 0.9673763
0.499828125 1.154896 0.6642486
0.5009765625 1.423221 0.1924894
0.502125 1.489119 -0.4094846
0.5032734375 1.274557 -1.045928
0.504421875 0.7542325 -1.566484
0.5055703125 0.003591791 -1.798148
0.50671875 -0.7921251 -1.636984
0.5078671875 -1.407662 -1.112464
0.509015625 -1.688254 -0.3911546
0.5101640625 -1.6149 0.3267379
0.5113125 -1.270847 0.8901662
0.5124609375 -0.7763013 1.22934
0.513609375 -0.2428849 1.338286
0.5147578125 0.2440264 1.248524
0.51590625 0.6296399 1.011627
0.5170546875 0.8837479 0.6837966
0.518203125 0.9995616 0.3194913
0.5193515625 0.986451 -0.03278344
0.5205 0.8670637 -0.3364761
0.5216484375 0.6705698 -0.5663881
0.522796875 0.4293395 -0.7107127
0.5239453125 0.1745248 -0.7679154
0.52509375 -0.06889006 -0.7457051
0.5262421875 -0.2803705 -0.6574383
0.527390625 -0.4465937 -0.5190837
0.5285390625 -0.559561 -0.3473337
0.5296875 -0.6157491 -0.1608502
0.5308359375 -0.6171675 0.02663533
0.531984375 -0.5672461 0.2015249
0.5331328125 -0.474078 0.3508554
0.53428125 -0.3454241 0.4661368
0.5354296875 -0.1916344 0.5400274
0.536578125 -0.02480226 0.5675908
0.5377265625 0.1428937 0.5469731
0.538875 0.2968939 0.4793575
0.5400234375 0.4257663 0.3692194
0.541171875 0.5175191 0.2254633
0.5423203125 0.5629147 0.05960508
0.54346875 0.5563318 -0.1135775
0.5446171875 0.4976222 -0.2778366
0.545765625 0.3910552 -0.4173334
0.5469140625 0.2468214 -0.51842
0.5480625 0.07820626 -0.5711124
0.5492109375 -0.09883946 -0.5705416
0.550359375 -0.2679059 -0.5166829
0.5515078125 -0.4136339 -0.4149728
0.55265625 -0.5236839 -0.274454
0.5538046875 -0.5885991 -0.1069309
0.554953125 -0.6021764 0.07418431
0.5561015625 -0.5630503 0.254395
0.55725 -0.4719711 0.4195731
0.5583984375 -0.3343076 0.5556443
0.559546875 -0.1574182 0.6498156
0.5606953125 0.04729901 0.6908977
0.56184375 0.2654444 0.6701527
0.5629921875 0.4791686 0.581454
0.564140625 0.6679389 0.4234867
0.5652890625 0.8092684 0.2014275
0.5664375 0.8792885 -0.07317746
0.5675859375 0.8566903 -0.3786598
0.568734375 0.725123 -0.6848781
0.5698828125 0.4773751 -0.9512205
0.57103125 0.1220831 -1.130912
0.5721796875 -0.3127067 -1.174972
0.573328125 -0.7745242 -1.043421
0.5744765625 -1.188073 -0.7131324
0.575625 -1.455473 -0.2008957
0.5767734375 -1.484586 0.4279524
0.577921875 -1.21577 1.048001
0.5790703125 -0.665616 1.497346
0.58021875 0.04656617 1.637482
0.5813671875 0.7315363 1.42549
0.582515625 1.213722 0.9399706
0.5836640625 1.408166 0.3345486
0.5848125 1.328497 -0.2375078
0.5859609375 1.052508 -0.6767465
0.587109375 0.6723648 -0.9426293
0.5882578125 0.267266 -1.038922
0.58940625 -0.1053139 -0.9913253
0.5905546875 -0.4089187 -0.8353271
0.591703125 -0.6243671 -0.6083188
0.5928515625 -0.7446469 -0.3449331
0.594 -0.7720839 -0.07660489
0.5951484375 -0.7159041 0.1707614
0.596296875 -0.5917162 0.3754094
0.5974453125 -0.418204 0.5217887
0.59859375 -0.2175431 0.6018145
0.5997421875 -0.01168206 0.6132029
0.600890625 0.1782809 0.5612705
0.6020390625 0.3347979 0.4566022
0.6031875 0.4455226 0.3141732
0.6043359375 0.5033522 0.1514535
0.605484375 0.5074394 -0.01428691
0.6066328125 0.4622207 -0.1667799
0.60778125 0.3757275 -0.2933919
0.6089296875 0.2592618 -0.3846811
0.610078125 0.1248874 -0.4356543
0.6112265625 -0.01447972 -0.4439435
0.612375 -0.1474823 -0.4115971
0.6135234375 -0.2633664 -0.3424866
0.614671875 -0.3530812 -0.2435461
0.6158203125 -0.4096121 -0.1227429
0.61696875 -0.4281461 0.009692654
0.6181171875 -0.4064598 0.1428505
0.619265625 -0.3447632 0.2657766
0.6204140625 -0.2474263 0.3657655
0.6215625 -0.1204781 0.4329231
0.6227109375 0.02504697 0.4583558
0.623859375 0.1763204 0.4362597
0.6250078125 0.3179138 0.3644537
0.62615625 0.4332642 0.2466595
0.6273046875 0.507349 0.09128986
0.628453125 0.5271381 -0.08724794
0.6296015625 0.4850475 -0.2709367
0.63075 0.3794576 -0.4384287
0.6318984375 0.2150758 -0.5682865
0.633046875 0.004178259 -0.6396904
0.6341953125 -0.2344572 -0.6361589
0.63534375 -0.4759337 -0.5439822
0.6364921875 -0.6883941 -0.3574926
0.637640625 -0.8347521 -0.07969665
0.6387890625 -0.871223 0.2710065
0.6399375 -0.7526767 0.6542302
0.6410859375 -0.4442207 0.9962936
0.642234375 0.04918627 1.184441
0.6433828125 0.637944 1.094939
0.64453125 1.132742 0.6736528
0.6456796875 1.321223 0.02913505
0.646828125 1.131385 -0.5961482
0.6479765625 0.6777819 -0.9948454
0.649125 0.1499379 -1.103353
0.6502734375 -0.3056547 -0.9770527
0.651421875 -0.6207303 -0.7060058
0.6525703125 -0.7799484 -0.3760356
0.65371875 -0.7998394 -0.04983709
0.6548671875 -0.7091221 0.2304314
0.656015625 -0.541522 0.4392925
0.6571640625 -0.3310786 0.5660831
0.6583125 -0.1080364 0.6099786
0.6594609375 0.1009843 0.5794305
0.660609375 0.2766328 0.4877062
0.6617578125 0.40505 0.3525929
0.66290625 0.4792742 0.1926066
0.6640546875 0.4983093 0.02546303
0.665203125 0.4656573 -0.1318992
0.6663515625 0.3893552 -0.2663307
0.6675 0.2791761 -0.3680496
0.6686484375 0.1469357 -0.4300145
0.669796875 0.005030502 -0.4488784
0.6709453125 -0.134085 -0.4246622
0.67209375 -0.2585613 -0.3605492
0.6732421875 -0.35794 -0.2623867
0.674390625 -0.42344 -0.1384392
0.6755390625 -0.4487797 0.0003642546
0.6766875 -0.4306118 0.1419158
0.6778359375 -0.3688171 0.2728748
0.678984375 -0.268228 0.3803678
0.6801328125 -0.1370831 0.4528908
0.68128125 0.01312791 0.4813353
0.6824296875 0.1678523 0.4613084
0.683578125 0.3113796 0.3923416
0.6847265625 0.4286652 0.2792063
0.685875 0.5064894 0.1320631
0.6870234375 0.5351381 -0.03603012
0.688171875 0.50932 -0.2089452
0.6893203125 0.4288043 -0.3693374
0.69046875 0.2985969 -0.5010323
0.6916171875 0.1288643 -0.5891984
0.692765625 -0.06788389 -0.6217873
0.6939140625 -0.2723915 -0.5909861
0.6950625 -0.4676519 -0.4934419
0.6962109375 -0.631597 -0.3317744
0.697359375 -0.7425064 -0.1133959
0.6985078125 -0.7804759 0.1465181
0.69965625 -0.7279988 0.4243983
0.7008046875 -0.573098 0.6894766
0.701953125 -0.3152746 0.9025135
0.7031015625 0.03148209 1.020074
0.70425 0.4313775 0.9988496
0.7053984375 0.8268266 0.8085454
0.706546875 1.137675 0.448029
0.7076953125 1.279076 -0.04536238
0.70884375 1.190034 -0.5823305
0.7099921875 0.8594208 -1.041962
0.711140625 0.3506549 -1.30806
0.7122890625 -0.2172327 -1.318289
0.7134375 -0.7144851 -1.084636
0.7145859375 -1.044281 -0.6816655
0.715734375 -1.168192 -0.211199
0.7168828125 -1.09859 0.2320349
0.71803125 -0.883146 0.5838606
0.7191796875 -0.5804661 0.8111856
0.720328125 -0.2458168 0.9072986
0.7214765625 0.07327083 0.8852112
0.722625 0.3455077 0.7671092
0.7237734375 0.5496563 0.581139
0.724921875 0.6753901 0.3547524
0.7260703125 0.7215627 0.1147701
0.72721875 0.6927689 -0.1153421
0.7283671875 0.5993525 -0.3158912
0.729515625 0.4551043 -0.4719953
0.7306640625 0.2769161 -0.5734692
0.7318125 0.08240459 -0.6148547
0.7329609375 -0.1101272 -0.5955299
0.734109375 -0.2835093 -0.5203467
0.7352578125 -0.4223183 -0.3982496
0.73640625 -0.5155386 -0.2431718
0.7375546875 -0.5556452 -0.07026552
0.738703125 -0.5410575 0.1036846
0.7398515625 -0.4753347 0.2616102
0.741 -0.3663412 0.3897888
0.7421484375 -0.2259578 0.4772882
0.743296875 -0.06819493 0.5173154
0.7444453125 0.09188032 0.5082302
0.74559375 0.2399959 0.4525625
0.7467421875 0.3635023 0.3563747
0.747890625 0.4524261 0.2290891
0.7490390625 0.4806528 0.07830427
0.7501875 0.4830189 -0.0704354
0.7513359375 0.4417488 -0.2138238
0.752484375 0.3596492 -0.3402928
0.7536328125 0.2426102 -0.4383292
0.75478125 0.0994585 -0.4985881
0.7559296875 -0.05888361 -0.5146548
0.757078125 -0.218445 -0.4818024
0.7582265625 -0.3657874 -0.4001492
0.759375 -0.4853762 -0.2728721
0.7605234375 -0.562823 -0.1094036
0.761671875 -0.5867531 0.07782878
0.7628203125 -0.5487592 0.2711498
0.76396875 -0.446212 0.4504394
0.7651171875 -0.2835498 0.5939251
0.766265625 -0.0727338 0.6799755
0.7674140625 0.1671587 0.6915204
0.7685625 0.4095286 0.6176215
0.7697109375 0.622618 0.4556333
0.770859375 0.7749676 0.2162946
0.7720078125 0.8345948 -0.07897273
0.77315625 0.7793497 -0.3935781
0.7743046875 0.5993865 -0.6805704
0.775453125 0.3062348 -0.8863207
0.7766015625 -0.06268804 -0.9622069
0.77775 -0.444777 -0.8770766
0.7788984375 -0.7651103 -0.6330533
0.780046875 -0.953306 -0.2720756
0.7811953125 -0.9687229 0.1319344
0.78234375 -0.8151355 0.4951763
0.7834921875 -0.5345711 0.750172
0.784640625 -0.1926187 0.861405
0.7857890625 0.1438962 0.8284017
0.7869375 0.421634 0.6780254
0.7880859375 0.6079122 0.4497576
0.789234375 0.6902357 0.1882963
0.7903828125 0.6734676 -0.06701635
0.79153125 0.574359 -0.2839269
0.7926796875 0.4166099 -0.4415485
0.793828125 0.2267644 -0.5292205
0.7949765625 0.03140216 -0.545913
0.796125 -0.1470028 -0.4990591
0.7972734375 -0.2911167 -0.401451
0.798421875 -0.3891971 -0.2695863
0.7995703125 -0.4365692 -0.1212676
0.80071875 -0.4338916 0.02660934
0.8018671875 -0.3869517 0.1593562
0.803015625 -0.3041195 0.2660117
0.8041640625 -0.1965545 0.3386072
0.8053125 -0.07616767 0.3731422
0.8064609375 0.04552621 0.3692235
0.807609375 0.1572241 0.3290241
0.8087578125 0.2495943 0.2578632
0.80990625 0.314874 0.1630619
0.8110546875 0.3477939 0.05369456
0.812203125 0.3452129 -0.06011946
0.8133515625 0.3075486 -0.1679224
0.8145 0.2375506 -0.2589537
0.8156484375 0.1414205 -0.3241376
0.816796875 0.02814308 -0.3560755
0.8179453125 -0.09178431 -0.3498812
0.81909375 -0.2054097 -0.304433
0.8202421875 -0.3003146 -0.2228004
0.821390625 -0.3649424 -0.111844
0.8225390625 -0.3905021 0.01784488
0.8236875 -0.3712039 0.1529151
0.8248359375 -0.3059957 0.2782153
0.825984375 -0.1989388 0.3786084
0.8271328125 -0.058584 0.4400662
0.82828125 0.1023831 0.4513988
0.8294296875 0.266416 0.4051021
0.830578125 0.4140787 0.2987365
0.8317265625 0.5225821 0.1360631
0.832875 0.5695592 -0.07092449
0.8340234375 0.5337127 -0.2999741
0.835171875 0.4007473 -0.5172456
0.8363203125 0.1695395 -0.6777992
0.83746875 -0.1360544 -0.7302358
0.8386171875 -0.4604837 -0.6330776
0.839765625 -0.7186468 -0.3787614
0.8409140625 -0.8269546 -0.01590351
0.8420625 -0.7426451 0.3572168
0.8432109375 -0.4932806 0.6353132
0.844359375 -0.1595182 0.7550079
0.8455078125 0.1661107 0.7113107
0.84665625 0.4168302 0.545657
0.8478046875 0.5611039 0.3130316
0.848953125 0.5966704 0.06763607
0.8501015625 0.5408257 -0.1503903
0.85125 0.4200468 -0.3164169
0.8523984375 0.2620481 -0.4186165
0.853546875 0.09316383 -0.4559426
0.8546953125 -0.06542171 -0.4348077
0.85584375 -0.1977972 -0.3671487
0.8569921875 -0.2938934 -0.2668776
0.858140625 -0.3490383 -0.1486612
0.8592890625 -0.3631683 -0.0264375
0.8604375 -0.3395312 0.08805006
0.8615859375 -0.2844304 0.1852539
0.862734375 -0.2054817 0.2578422
0.8638828125 -0.1116117 0.301803
0.86503125 -0.01163057 0.3148568
0.8661796875 0.08531152 0.2979272
0.867328125 0.1711123 0.2534296
0.8684765625 0.238925 0.186041
0.869625 0.2828517 0.1020932
0.8707734375 0.2992506 0.009565254
0.871921875 0.2869054 -0.0836315
0.8730703125 0.2467204 -0.1687458
0.87421875 0.182303 -0.2375896
0.8753671875 0.09955464 -0.283588
0.876515625 0.006271084 -0.3018996
0.8776640625 -0.0888328 -0.2905221
0.8788125 -0.1760927 -0.2500275
0.8799609375 -0.2470347 -0.1841429
0.881109375 -0.2946898 -0.09909612
0.8822578125 -0.3138815 -0.0028346
0.88340625 -0.3030296 0.09559463
0.8845546875 -0.2622505 0.1869887
0.885703125 -0.1948774 0.2628423
0.8868515625 -0.1064405 0.3155564
0.888 -0.004390137 0.3400699
0.8891484375 0.1027388 0.3327754
0.890296875 0.20569 0.2928714
0.8914453125 0.2951937 0.2217609
0.89259375 0.3613257 0.1234082
0.8937421875 0.3965393 0.004859013
0.894890625 0.3936822 -0.124969
0.8960390625 0.3491089 -0.2544831
0.8971875 0.2614869 -0.3700862
0.8983359375 0.1342111 -0.4575617
0.899484375 -0.02500294 -0.5025176
0.9006328125 -0.2023394 -0.4922257
0.90178125 -0.3784367 -0.4173683
0.9029296875 -0.5297548 -0.2770508
0.904078125 -0.6297339 -0.07651848
0.9052265625 -0.6522804 0.1646882
0.906375 -0.5779602 0.4162863
0.9075234375 -0.399689 0.6364823
0.908671875 -0.1296217 0.7776858
0.9098203125 0.1944999 0.7974532
0.91096875 0.5126149 0.6730564
0.9121171875 0.7544432 0.4150703
0.913265625 0.8617193 0.0718623
0.9144140625 0.808379 -0.2815401
0.9155625 0.6126468 -0.5692944
0.9167109375 0.3260117 -0.7390754
0.917859375 0.01420068 -0.7734495
0.9190078125 -0.2657591 -0.6867766
0.92015625 -0.4742203 -0.5132452
0.9213046875 -0.5944135 -0.2919634
0.922453125 -0.6249315 -0.06045262
0.9236015625 -0.5763529 0.151108
0.92475 -0.4667316 0.3218789
0.9258984375 -0.3163149 0.4383011
0.927046875 -0.1463818 0.4957531
0.9281953125 0.02364931 0.4946072
0.92934375 0.1762633 0.4417488
0.9304921875 0.298228 0.3473137
0.931640625 0.3800742 0.2247069
0.9327890625 0.4172639 0.08827365
0.9339375 0.409876 -0.04760124
0.9350859375 0.3619909 -0.169535
0.936234375 0.2816025 -0.2667824
0.9373828125 0.1787377 -0.3320752
0.93853125 0.0646714 -0.3612649
0.9396796875 -0.04929467 -0.3543415
0.940828125 -0.1525934 -0.3147951
0.9419765625 -0.2367392 -0.2476391
0.943125 -0.2957051 -0.1604356
0.9442734375 -0.3252907 -0.06187047
0.945421875 -0.3243515 0.03913317
0.9465703125 -0.2942058 0.133922
0.94771875 -0.2381473 0.2152607
0.9488671875 -0.1612591 0.2760323
0.950015625 -0.0700723 0.3114907
0.9511640625 0.0277603 0.3184704
0.9523125 0.123698 0.2962289
0.9534609375 0.209515 0.2460953
0.954609375 0.2772525 0.171614
0.9557578125 0.3202883 0.07888212
0.95690625 0.3333423 -0.02419861
0.9580546875 0.3140186 -0.1281887
0.959203125 0.2626282 -0.2233765
0.9603515625 0.182985 -0.2999575
0.9615 0.08105141 -0.3488702
0.9626484375 -0.03369834 -0.3643717
0.963796875 -0.1509291 -0.3425708
0.9649453125 -0.2582563 -0.284056
0.96609375 -0.3443988 -0.1919355
0.9672421875 -0.3994165 -0.07393131
0.968390625 -0.4149807 0.06031961
0.9695390625 -0.3865363 0.19803
0.9706875 -0.3128209 0.3254648
0.9718359375 -0.1967881 0.4279154
0.972984375 -0.04545048 0.4912829
0.9741328125 0.129266 0.5022085
0.97528125 0.3094085 0.4511778
0.9764296875 0.4737321 0.3327367
0.977578125 0.596217 0.1499522
0.9787265625 0.6476308 -0.08470568
0.979875 0.6024815 -0.3437338
0.9810234375 0.4450501 -0.5840877
0.982171875 0.1813951 -0.7498684
0.9833203125 -0.151034 -0.788848
0.98446875 -0.4822407 -0.6676152
0.9856171875 -0.7275188 -0.4002967
0.986765625 -0.820617 -0.04910459
0.9879140625 -0.7432765 0.2956906
0.9890625 -0.5290103 0.5550053
0.9902109375 -0.2433772 0.6852728
0.991359375 0.04574202 0.6827244
0.9925078125 0.2862627 0.5736969
0.99365625 0.4494432 0.3963697
0.9948046875 0.5266981 0.1908268
0.995953125 0.5245505 -0.009750159
0.9971015625 0.4576182 -0.1813581
