# GHZ S RI R 50.0
0.3 -0.6093083 1.44139
0.3011484375 -0.07483318 1.432854
0.302296875 0.3705487 1.262528
0.3034453125 0.6961846 0.9901096
0.30459375 0.8968202 0.6670231
0.3057421875 0.9817569 0.3360171
0.306890625 0.9701892 0.02625733
0.3080390625 0.8813161 -0.2440859
0.3091875 0.734885 -0.4633442
0.3103359375 0.5473472 -0.6274836
0.311484375 0.3350943 -0.7316675
0.3126328125 0.1096232 -0.7769085
0.31378125 -0.1146584 -0.7635418
0.3149296875 -0.3273762 -0.6920715
0.316078125 -0.5153015 -0.5654322
0.3172265625 -0.6640614 -0.3888654
0.318375 -0.759926 -0.1704372
0.3195234375 -0.7884171 0.07493049
0.320671875 -0.7376022 0.328339
0.3218203125 -0.6020261 0.5620766
0.32296875 -0.3896323 0.7438486
0.3241171875 -0.1178385 0.8457763
0.325265625 0.1801302 0.8468555
0.3264140625 0.4646626 0.7414176
0.3275625 0.6973543 0.5414019
0.3287109375 0.8470909 0.2733321
0.329859375 0.8986912 -0.03121869
0.3310078125 0.8468896 -0.3383039
0.33215625 0.6976819 -0.6167515
0.3333046875 0.4613197 -0.8404066
0.334453125 0.152746 -0.9855123
0.3356015625 -0.2069969 -1.029921
0.33675 -0.5957941 -0.9498897
0.3378984375 -0.9769793 -0.7194564
0.339046875 -1.292928 -0.3162768
0.3401953125 -1.45068 0.2672634
0.34134375 -1.319795 0.9770961
0.3424921875 -0.769618 1.639719
0.343640625 0.1866404 1.938025
0.3447890625 1.221122 1.584395
0.3459375 1.831594 0.6717836
0.3470859375 1.790581 -0.3450265
0.348234375 1.269446 -1.073362
0.3493828125 0.5676763 -1.389334
0.35053125 -0.0948575 -1.349542
0.3516796875 -0.5933531 -1.067233
0.352828125 -0.8847016 -0.6634676
0.3539765625 -0.9782839 -0.236182
0.355125 -0.9084129 0.1432305
0.3562734375 -0.7262766 0.432265
0.357421875 -0.4816114 0.6167464
0.3585703125 -0.2184709 0.69588
0.35971875 0.03028855 0.6845803
0.3608671875 0.2436184 0.6021982
0.362015625 0.4085483 0.4683948
0.3631640625 0.5186287 0.3014718
0.3643125 0.5725932 0.1195809
0.3654609375 0.5719438 -0.06448615
0.366609375 0.5203685 -0.2371553
0.3677578125 0.4229563 -0.3868229
0.36890625 0.2859514 -0.5037498
0.3700546875 0.1175223 -0.5785317
0.371203125 -0.07009219 -0.6018382
0.3723515625 -0.264328 -0.5669491
0.3735 -0.4477339 -0.4704191
0.3746484375 -0.5990741 -0.3127936
0.375796875 -0.697694 -0.1037454
0.3769453125 -0.7238107 0.1394463
0.37809375 -0.6628846 0.3903553
0.3792421875 -0.5129998 0.6167753
0.380390625 -0.2841214 0.784888
0.3815390625 -0.001041828 0.8672371
0.3826875 0.3041065 0.8477159
0.3838359375 0.5950106 0.722373
0.384984375 0.8356545 0.5002801
0.3861328125 0.9977435 0.1995394
0.38728125 1.056132 -0.1531828
0.3884296875 0.9951072 -0.5281621
0.389578125 0.8022215 -0.8882167
0.3907265625 0.4752696 -1.187981
0.391875 0.02247143 -1.376299
0.3930234375 -0.5254869 -1.390715
0.394171875 -1.101264 -1.169917
0.3953203125 -1.590832 -0.677915
0.39646875 -1.838286 0.0524076
0.3976171875 -1.707397 0.8793244
0.398765625 -1.16783 1.571506
0.3999140625 -0.3529889 1.913663
0.4010625 0.497137 1.823906
0.4022109375 1.164593 1.377176
0.403359375 1.533634 0.7352469
0.4045078125 1.591009 0.06237661
0.40565625 1.391232 -0.5154181
0.4068046875 1.019502 -0.9273646
0.407953125 0.5664017 -1.146099
0.4091015625 0.1141945 -1.177944
0.41025 -0.2782292 -1.059769
0.4113984375 -0.5745184 -0.8367952
0.412546875 -0.7578099 -0.558462
0.4136953125 -0.8340045 -0.2659248
0.41484375 -0.8176139 0.008354704
0.4159921875 -0.7272888 0.2416299
0.417140625 -0.5853674 0.4229629
0.4182890625 -0.4117487 0.5471943
0.4194375 -0.2233987 0.6135758
0.4205859375 -0.03563949 0.6255919
0.421734375 0.1404171 0.5885
0.4228828125 0.2941404 0.5090986
0.42403125 0.4178135 0.3950335
0.4251796875 0.5044633 0.2540494
0.426328125 0.5493548 0.09672431
0.4274765625 0.5489189 -0.06636032
0.428625 0.502544 -0.2234504
0.4297734375 0.4120224 -0.361712
0.430921875 0.2843096 -0.4674218
0.4320703125 0.1293097 -0.5307641
0.43321875 -0.0388515 -0.5433034
0.4343671875 -0.2030847 -0.5027497
0.435515625 -0.3457709 -0.413048
0.4366640625 -0.4517482 -0.2841267
0.4378125 -0.5114095 -0.1307248
0.4389609375 -0.5200441 0.03094986
0.440109375 -0.4802324 0.1832434
0.4412578125 -0.3987549 0.3137213
0.44240625 -0.2851433 0.412127
0.4435546875 -0.1513768 0.4727287
0.444703125 -0.008817861 0.4926673
0.4458515625 0.1320838 0.4730337
0.447 0.2616191 0.4166043
0.4481484375 0.3707873 0.327643
0.449296875 0.4529503 0.2114154
0.4504453125 0.5021547 0.0750794
0.45159375 0.5130414 -0.07191964
0.4527421875 0.4827096 -0.2214656
0.453890625 0.4096928 -0.3619931
0.4550390625 0.2954031 -0.4816748
0.4561875 0.1444548 -0.5677193
0.4573359375 -0.03411687 -0.6077973
0.458484375 -0.226645 -0.5914232
0.4596328125 -0.4145927 -0.5126901
0.46078125 -0.5767018 -0.3720957
0.4619296875 -0.6917368 -0.1779781
0.463078125 -0.7404996 0.05313747
0.4642265625 -0.7108754 0.2976024
0.465375 -0.6005001 0.5292221
0.4665234375 -0.4144405 0.720822
0.467671875 -0.1676045 0.8480869
0.4688203125 0.118578 0.8933076
0.46996875 0.4178339 0.8443547
0.4711171875 0.7019495 0.6970541
0.472265625 0.9416138 0.4542379
0.4734140625 1.103565 0.1236315
0.4745625 1.155218 -0.2732646
0.4757109375 1.063216 -0.706705
0.476859375 0.7983892 -1.123883
0.4780078125 0.3482035 -1.450735
0.47915625 -0.264967 -1.589504
0.4803046875 -0.9557495 -1.440307
0.481453125 -1.561723 -0.9479417
0.4826015625 -1.881648 -0.1722446
0.48375 -1.774551 0.6880238
0.4848984375 -1.261091 1.377753
0.486046875 -0.5166454 1.715413
0.4871953125 0.2409888 1.670914
0.48834375 0.8375872 1.333282
0.4894921875 1.199127 0.8315823
0.490640625 1.317205 0.2904467
0.4917890625 1.229797 -0.1983617
0.4929375 0.994841 -0.5784487
0.4940859375 0.6761951 -0.8237026
0.495234375 0.3299304 -0.932537
0.4963828125 -0.0004583866 -0.9211516
0.49753125 -0.282429 -0.8138713
0.4986796875 -0.4971345 -0.6384292
0.499828125 -0.6359352 -0.4227469
0.5009765625 -0.698643 -0.1920304
0.502125 -0.6903341 0.03227604
0.5032734375 -0.6209278 0.2333386
0.504421875 -0.5014226 0.3978829
0.5055703125 -0.3455443 0.5164518
0.50671875 -0.1670738 0.5832053
0.5078671875 0.01937081 0.594669
0.509015625 0.1986258 0.5519229
0.5101640625 0.3562354 0.4587038
0.5113125 0.4786642 0.3225854
0.5124609375 0.554067 0.1552728
0.513609375 0.5746776 -0.0285819
0.5147578125 0.5361403 -0.2115288
0.51590625 0.4407316 -0.374323
0.5170546875 0.2968482 -0.4993278
0.518203125 0.1185864 -0.5719159
0.5193515625 -0.07544231 -0.5830764
0.5205 -0.2642232 -0.5301144
0.5216484375 -0.4275912 -0.4179354
0.522796875 -0.5473003 -0.2587114
0.5239453125 -0.6113769 -0.06644882
0.52509375 -0.6117067 0.1397623
0.5262421875 -0.5457882 0.3406368
0.527390625 -0.4169481 0.5168892
0.5285390625 -0.2319266 0.6499408
0.5296875 -0.002597864 0.7229343
0.5308359375 0.2544315 0.7201296
0.531984375 0.5179427 0.6284756
0.5331328125 0.7592884 0.4385887
0.53428125 0.9420003 0.147474
0.5354296875 1.019192 -0.2363521
0.536578125 0.9360833 -0.6816168
0.5377265625 0.6354105 -1.119166
0.538875 0.08949887 -1.426574
0.5400234375 -0.6447774 -1.430501
0.541171875 -1.357051 -0.9895193
0.5423203125 -1.719894 -0.1590443
0.54346875 -1.52929 0.7337999
0.5446171875 -0.9044888 1.319977
0.545765625 -0.1569681 1.459039
0.5469140625 0.4630447 1.244629
0.5480625 0.8519021 0.8402126
0.5492109375 1.008587 0.386561
0.550359375 0.9798347 -0.02734204
0.5515078125 0.8224196 -0.3540283
0.55265625 0.5901342 -0.5757405
0.5538046875 0.3269004 -0.6915865
0.554953125 0.0667882 -0.7124805
0.5561015625 -0.1650539 -0.6539624
0.55725 -0.3526884 -0.5347877
0.5583984375 -0.4854435 -0.3740416
0.559546875 -0.5588112 -0.1905577
0.5606953125 -0.5729231 -0.001804008
0.56184375 -0.5307443 0.1763495
0.5629921875 -0.439247 0.3297042
0.564140625 -0.3081848 0.4459191
0.5652890625 -0.1494728 0.516309
0.5664375 0.02222728 0.5347041
0.5675859375 0.1912131 0.4990551
0.568734375 0.3413421 0.4123755
0.5698828125 0.4566752 0.2827973
0.57103125 0.5257925 0.1224012
0.5721796875 0.5403598 -0.05338828
0.573328125 0.4987091 -0.2248142
0.5744765625 0.4039375 -0.3752901
0.575625 0.2657972 -0.488647
0.5767734375 0.09825607 -0.5533648
0.577921875 -0.082021 -0.5630473
0.5790703125 -0.2580679 -0.5163919
0.58021875 -0.4135965 -0.4174384
0.5813671875 -0.5338681 -0.2743227
0.582515625 -0.6078076 -0.09798722
0.5836640625 -0.6267039 0.09732262
0.5848125 -0.5862547 0.2965766
0.5859609375 -0.4842127 0.4828759
0.587109375 -0.3241826 0.6382857
0.5882578125 -0.1128512 0.7454835
0.58940625 0.1376683 0.7865157
0.5905546875 0.4090309 0.7455584
0.591703125 0.6763448 0.6103722
0.5928515625 0.9065006 0.3745992
0.594 1.060366 0.04298559
0.5951484375 1.093251 -0.3644813
0.596296875 0.9613695 -0.8054892
0.5974453125 0.6339074 -1.208726
0.59859375 0.1123291 -1.47592
0.5997421875 -0.5455502 -1.496737
0.600890625 -1.2042 -1.186786
0.6020390625 -1.668677 -0.5529809
0.6031875 -1.761833 0.2602607
0.6043359375 -1.434541 1.009542
0.605484375 -0.8078575 1.476128
0.6066328125 -0.09519286 1.578322
0.60778125 0.5174631 1.371858
0.6089296875 0.9330606 0.9751566
0.610078125 1.129728 0.5107939
0.6112265625 1.13855 0.06462938
0.612375 1.006471 -0.309555
0.6135234375 0.7818838 -0.5857376
0.614671875 0.5083689 -0.7561158
0.6158203125 0.2215714 -0.8252441
0.61696875 -0.04996063 -0.8045686
0.6181171875 -0.2855746 -0.7095106
0.619265625 -0.4699226 -0.5569491
0.6204140625 -0.5936062 -0.3668309
0.6215625 -0.6517491 -0.1583124
0.6227109375 -0.644783 0.049606
0.623859375 -0.5778913 0.2382875
0.6250078125 -0.460832 0.3923918
0.62615625 -0.3076665 0.5002083
0.6273046875 -0.1343401 0.5541907
0.628453125 0.04175527 0.5526848
0.6296015625 0.2039433 0.4985987
0.63075 0.3369485 0.4015718
0.6318984375 0.4315587 0.2724765
0.633046875 0.4809479 0.1258368
0.6341953125 0.4845143 -0.02404471
0.63534375 0.4449078 -0.1640068
0.6364921875 0.3683364 -0.2823707
0.637640625 0.2636655 -0.3715121
0.6387890625 0.1408738 -0.4253364
0.6399375 0.01032516 -0.4422562
0.6410859375 -0.1175328 -0.4217725
0.642234375 -0.2333858 -0.3668824
0.6433828125 -0.3289732 -0.2822773
0.64453125 -0.3968002 -0.1745074
0.6456796875 -0.4316861 -0.05130805
0.646828125 -0.4303366 0.07764237
0.6479765625 -0.3917191 0.202351
0.649125 -0.3180386 0.3122289
0.6502734375 -0.2135833 0.3981212
0.651421875 -0.08649832 0.4501589
0.6525703125 0.05376047 0.4628569
0.65371875 0.1940247 0.4322661
0.6548671875 0.3220405 0.3591774
0.656015625 0.4238324 0.2489918
0.6571640625 0.4891169 0.109822
0.6583125 0.5092184 -0.04605357
0.6594609375 0.4807574 -0.2043272
0.660609375 0.4037697 -0.3494979
0.6617578125 0.2838363 -0.4678366
0.66290625 0.1297774 -0.5466188
0.6640546875 -0.04577883 -0.5763304
0.665203125 -0.2283576 -0.5513352
0.6663515625 -0.4017261 -0.4701569
0.6675 -0.5486645 -0.3348302
0.6686484375 -0.653672 -0.1527627
0.669796875 -0.7012399 0.06442209
0.6709453125 -0.6783162 0.3006633
0.67209375 -0.575983 0.5337781
0.6732421875 -0.3907431 0.7377428
0.674390625 -0.1269414 0.8826625
0.6755390625 0.1988254 0.9343788
0.6766875 0.5562466 0.8620788
0.6778359375 0.8961965 0.6435244
0.678984375 1.153089 0.2750271
0.6801328125 1.250438 -0.2138639
0.68128125 1.121477 -0.7473881
0.6824296875 0.7390529 -1.2054
0.683578125 0.1513922 -1.451454
0.6847265625 -0.5035994 -1.387894
0.685875 -1.049054 -1.014639
0.6870234375 -1.340952 -0.4444104
0.688171875 -1.33415 0.1576724
0.6893203125 -1.080453 0.6495708
0.69046875 -0.6829508 0.9547232
0.6916171875 -0.2450178 1.06085
0.692765625 0.1544032 0.9972444
0.6939140625 0.4680153 0.812044
0.6950625 0.6742108 0.5547313
0.6962109375 0.7706507 0.269741
0.697359375 0.7678157 -0.006827329
0.6985078125 0.6814784 -0.2484426
0.69965625 0.5327658 -0.4365367
0.7008046875 0.3436667 -0.5602039
0.701953125 0.136101 -0.6151561
0.7031015625 -0.06925695 -0.6025642
0.70425 -0.2523838 -0.5296115
0.7053984375 -0.3985052 -0.4064041
0.706546875 -0.4955311 -0.2480927
0.7076953125 -0.5364636 -0.07163867
0.70884375 -0.5196696 0.1049985
0.7099921875 -0.4487755 0.2638773
0.711140625 -0.3325006 0.3899283
0.7122890625 -0.1842894 0.4707588
0.7134375 -0.02011043 0.4995589
0.7145859375 0.1430049 0.4745509
0.715734375 0.2886226 0.3998841
0.7168828125 0.4023592 0.282943
0.71803125 0.4730545 0.136152
0.7191796875 0.4942036 -0.02607849
0.720328125 0.4624764 -0.1877331
0.7214765625 0.3807895 -0.333725
0.722625 0.2546392 -0.4490434
0.7237734375 0.09395288 -0.5203992
0.724921875 -0.08698772 -0.5378771
0.7260703125 -0.2721824 -0.4944193
0.72721875 -0.441886 -0.3883559
0.7283671875 -0.5749187 -0.2230143
0.729515625 -0.6498809 -0.00774235
0.7306640625 -0.6470073 0.2367655
0.7318125 -0.5500194 0.4853516
0.7329609375 -0.3526309 0.700225
0.734109375 -0.06211797 0.8384374
0.7352578125 0.2929358 0.8528227
0.73640625 0.6586613 0.7067814
0.7375546875 0.953948 0.3880588
0.738703125 1.084863 -0.06776408
0.7398515625 0.979027 -0.5653478
0.741 0.6294757 -0.9671504
0.7421484375 0.1206185 -1.145593
0.743296875 -0.399555 -1.052304
0.7444453125 -0.7891951 -0.7371438
0.74559375 -0.9731164 -0.3108543
0.7467421875 -0.9517667 0.1111101
0.747890625 -0.7747906 0.449472
0.7490390625 -0.4869959 0.6403168
0.7501875 -0.1998301 0.7263477
0.7513359375 0.07267286 0.7044686
0.752484375 0.2994295 0.5977231
0.7536328125 0.4636901 0.4336607
0.75478125 0.5571695 0.2378641
0.7559296875 0.5798174 0.03485702
0.757078125 0.5383477 -0.1548228
0.7582265625 0.4424503 -0.3137516
0.759375 0.3061045 -0.4296134
0.7605234375 0.1452959 -0.4936981
0.761671875 -0.02290973 -0.5032622
0.7628203125 -0.1817686 -0.4601234
0.76396875 -0.3157682 -0.3709689
0.7651171875 -0.4130313 -0.2458625
0.766265625 -0.4649751 -0.09897686
0.7674140625 -0.4676268 0.05468169
0.7685625 -0.4226183 0.1997228
0.7697109375 -0.3354289 0.321749
0.770859375 -0.2156692 0.4099619
0.7720078125 -0.0753344 0.4561267
0.77315625 0.07168456 0.4574679
0.7743046875 0.2119776 0.4137202
0.775453125 0.3327625 0.3292593
0.7766015625 0.4228413 0.2115988
0.77775 0.4740475 0.07093137
0.7788984375 0.4807851 -0.08150274
0.780046875 0.4406075 -0.2315906
0.7811953125 0.3549058 -0.3663867
0.78234375 0.2284354 -0.4727188
0.7834921875 0.06979226 -0.5375168
0.784640625 -0.1083927 -0.5508507
0.7857890625 -0.2904452 -0.50625
0.7869375 -0.4574254 -0.4008244
0.7880859375 -0.5893683 -0.2390549
0.789234375 -0.665334 -0.0310908
0.7903828125 -0.6681957 0.2048696
0.79153125 -0.5860685 0.4423444
0.7926796875 -0.416065 0.6509005
0.793828125 -0.1667871 0.7949724
0.7949765625 0.1375503 0.8427467
0.796125 0.4593311 0.7689709
0.7972734375 0.746738 0.5650016
0.798421875 0.9424091 0.2462024
0.7995703125 0.995709 -0.1455478
0.80071875 0.8767844 -0.5405149
0.8018671875 0.5944164 -0.8569065
0.803015625 0.199155 -1.023314
0.8041640625 -0.2257362 -1.003549
0.8053125 -0.5908684 -0.8100394
0.8064609375 -0.8305166 -0.4955851
0.807609375 -0.9160332 -0.1325318
0.8087578125 -0.8549044 0.2104837
0.80990625 -0.6807765 0.4832373
0.8110546875 -0.4364921 0.6583446
0.812203125 -0.1673352 0.7288889
0.8133515625 0.08990072 0.702728
0.8145 0.307399 0.5972773
0.8156484375 0.4659311 0.4363258
0.816796875 0.5564951 0.2442574
0.8179453125 0.5774845 0.04548221
0.81909375 0.5356478 -0.1387846
0.8202421875 0.441664 -0.2915302
0.821390625 0.3109536 -0.4002554
0.8225390625 0.1603207 -0.4589743
0.8236875 0.006286411 -0.4667752
0.8248359375 -0.1352063 -0.4281735
0.825984375 -0.2523779 -0.3509726
0.8271328125 -0.3362583 -0.2466388
0.82828125 -0.3824676 -0.1268309
0.8294296875 -0.3902135 -0.004166329
0.830578125 -0.3622776 0.111115
0.8317265625 -0.3039272 0.2093969
0.832875 -0.221507 0.283908
0.8340234375 -0.1237049 0.3300469
0.835171875 -0.01933975 0.34547
0.8363203125 0.08307856 0.3304127
0.83746875 0.1754379 0.287053
0.8386171875 0.2507674 0.2198469
0.839765625 0.3027122 0.1339599
0.8409140625 0.3276093 0.03711522
0.8420625 0.3229397 -0.06269705
0.8432109375 0.2889817 -0.1571226
0.844359375 0.2281691 -0.2375801
0.8455078125 0.145716 -0.2965722
0.84665625 0.04850048 -0.3281639
0.8478046875 -0.05433879 -0.3288262
0.848953125 -0.1536133 -0.2979656
0.8501015625 -0.2392986 -0.2379846
0.85125 -0.302987 -0.1538614
0.8523984375 -0.3381725 -0.05345971
0.853546875 -0.3414968 0.05352015
0.8546953125 -0.3114862 0.1576931
0.85584375 -0.2509076 0.2487108
0.8569921875 -0.1645873 0.3182715
0.858140625 -0.05996573 0.3594711
0.8592890625 0.05453312 0.367619
0.8604375 0.1688077 0.3405804
0.8615859375 0.2727965 0.2789625
0.862734375 0.356443 0.1861114
0.8638828125 0.4105514 0.06774346
0.86503125 0.4270789 -0.06738822
0.8661796875 0.4000437 -0.208448
0.867328125 0.3266209 -0.3415269
0.8684765625 0.2074514 -0.4523128
0.869625 0.04819383 -0.5232271
0.8707734375 -0.1400348 -0.5393138
0.871921875 -0.3382845 -0.4866881
0.8730703125 -0.5214385 -0.3570234
0.87421875 -0.6574705 -0.1516747
0.8753671875 -0.7116015 0.1137656
0.876515625 -0.6511784 0.4058823
0.8776640625 -0.4593659 0.6705002
0.8788125 -0.1475074 0.840206
0.8799609375 0.2318304 0.8518837
0.881109375 0.5880316 0.6785662
0.8822578125 0.8229575 0.3518947
0.88340625 0.8726985 -0.04034634
0.8845546875 0.7394083 -0.3926874
0.885703125 0.4800552 -0.6289017
0.8868515625 0.1726842 -0.7193806
0.888 -0.1140482 -0.6788975
0.8891484375 -0.3372957 -0.5435295
0.890296875 -0.4776716 -0.3541317
0.8914453125 -0.5341415 -0.1480727
0.89259375 -0.5168544 0.04597101
0.8937421875 -0.4406368 0.2083644
0.894890625 -0.3241554 0.3268355
0.8960390625 -0.1847931 0.395371
0.8971875 -0.03982753 0.4140684
0.8983359375 0.09569747 0.3864099
0.899484375 0.2096387 0.3200162
0.9006328125 0.2925871 0.2245152
0.90178125 0.3388563 0.1116902
0.9029296875 0.3460901 -0.005830088
0.904078125 0.3162844 -0.1160554
0.9052265625 0.2540159 -0.2080333
0.906375 0.1678553 -0.2735927
0.9075234375 0.06757032 -0.3070654
0.908671875 -0.03565022 -0.3066563
0.9098203125 -0.1315698 -0.2738514
0.91096875 -0.2104939 -0.213309
0.9121171875 -0.2655273 -0.1320891
0.913265625 -0.2916136 -0.03898583
0.9144140625 -0.2872324 0.05699529
0.9155625 -0.2533562 0.1461086
0.9167109375 -0.1934212 0.220525
0.917859375 -0.1129819 0.2729152
0.9190078125 -0.0194354 0.2979818
0.92015625 0.07881311 0.2927715
0.9213046875 0.1726214 0.2564467
0.922453125 0.2525342 0.191075
0.9236015625 0.309637 0.1008372
0.92475 0.3364092 -0.006809579
0.9258984375 0.3269488 -0.1223622
0.927046875 0.2781067 -0.2337502
0.9281953125 0.1911988 -0.3282355
0.92934375 0.07075717 -0.3918073
0.9304921875 -0.07278252 -0.4125005
0.931640625 -0.22447 -0.3805701
0.9327890625 -0.3652753 -0.2920511
0.9339375 -0.4731329 -0.1484153
0.9350859375 -0.5249141 0.03859051
0.936234375 -0.5015501 0.247563
0.9373828125 -0.3906272 0.4474542
0.93853125 -0.1939746 0.5987216
0.9396796875 0.06699863 0.6599877
0.940828125 0.3484806 0.6001008
0.9419765625 0.5884023 0.4116451
0.943125 0.7217805 0.1243199
0.9442734375 0.7083507 -0.1975356
0.945421875 0.5502801 -0.4746456
0.9465703125 0.2921687 -0.6445568
0.94771875 0.001621488 -0.680914
0.9488671875 -0.2591587 -0.5961061
0.950015625 -0.4472617 -0.4256721
0.9511640625 -0.5449421 -0.2124219
0.9523125 -0.5540171 0.003876908
0.9534609375 -0.488872 0.1936722
0.954609375 -0.3694524 0.3371774
0.9557578125 -0.2178239 0.4238291
0.95690625 -0.0560836 0.4521855
0.9580546875 0.09679499 0.4256488
0.959203125 0.2251266 0.3540899
0.9603515625 0.3179793 0.2493383
0.9615 0.3692835 0.1258641
0.9626484375 0.3773757 -0.001805469
0.963796875 0.3456336 -0.1204801
0.9649453125 0.2799607 -0.21921
0.96609375 0.189963 -0.2894839
0.9672421875 0.08599091 -0.3269688
0.968390625 -0.02096426 -0.3297098
0.9695390625 -0.12087 -0.3007084
0.9706875 -0.2050819 -0.2441405
0.9718359375 -0.2668455 -0.1661195
0.972984375 -0.3018071 -0.07496745
0.9741328125 -0.3079781 0.02131069
0.97528125 -0.2852743 0.1140651
0.9764296875 -0.2364307 0.1956237
0.977578125 -0.1654756 0.2589949
0.9787265625 -0.07881171 0.2987804
0.979875 0.01676595 0.3112549
0.9810234375 0.1127093 0.294271
0.982171875 0.2005733 0.24875
0.9833203125 0.2720612 0.177463
0.98446875 0.3194516 0.08593798
0.9856171875 0.3370468 -0.01819377
0.986765625 0.3215436 -0.1255819
0.9879140625 0.2724051 -0.2255888
0.9890625 0.1921461 -0.3078789
0.9902109375 0.08708149 -0.362588
0.991359375 -0.03355499 -0.3822708
0.9925078125 -0.1587558 -0.3625665
0.99365625 -0.2752082 -0.3024335
0.9948046875 -0.3705489 -0.2049011
0.995953125 -0.4325365 -0.07685983
0.9971015625 -0.4514669 0.07063887
