# GHZ S RI R 50.0
0.3 -2.651194 0.4182583
0.3011484375 -2.032021 1.335565
0.302296875 -1.213882 1.816937
0.3034453125 -0.4104592 1.917359
0.30459375 0.260374 1.743299
0.3057421875 0.7476271 1.405596
0.306890625 1.055234 0.9920958
0.3080390625 1.202044 0.5642731
0.3091875 1.217794 0.1620082
0.3103359375 1.131751 -0.1913581
0.311484375 0.9688565 -0.4828041
0.3126328125 0.7503427 -0.7058116
0.31378125 0.4973619 -0.8549443
0.3149296875 0.2233088 -0.931465
0.316078125 -0.052346 -0.9329386
0.3172265625 -0.3165304 -0.8617623
0.318375 -0.5498423 -0.7212971
0.3195234375 -0.735209 -0.5181115
0.320671875 -0.852851 -0.2677949
0.3218203125 -0.8880357 0.0102601
0.32296875 -0.8324988 0.2872793
0.3241171875 -0.6893244 0.5307167
0.325265625 -0.4753411 0.7111161
0.3264140625 -0.2185004 0.8075919
0.3275625 0.04673112 0.8133199
0.3287109375 0.289648 0.735849
0.329859375 0.4858808 0.5929747
0.3310078125 0.6226342 0.4062797
0.33215625 0.6941621 0.1983714
0.3333046875 0.7037703 -0.01174044
0.334453125 0.6573272 -0.207422
0.3356015625 0.5632645 -0.3796506
0.33675 0.4310304 -0.5174473
0.3378984375 0.2686644 -0.6164657
0.339046875 0.08654265 -0.6706733
0.3401953125 -0.1062546 -0.6764046
0.34134375 -0.2995281 -0.6310413
0.3424921875 -0.4803614 -0.532401
0.343640625 -0.6353005 -0.3810014
0.3447890625 -0.7467475 -0.1820441
0.3459375 -0.7996752 0.05654504
0.3470859375 -0.7759066 0.3156767
0.348234375 -0.6647817 0.5718607
0.3493828125 -0.4626722 0.7922238
0.35053125 -0.1807406 0.9408697
0.3516796875 0.1536375 0.9865773
0.352828125 0.5004137 0.9079771
0.3539765625 0.810762 0.7040562
0.355125 1.038936 0.3917879
0.3562734375 1.146946 0.004895499
0.357421875 1.11272 -0.4137983
0.3585703125 0.9268071 -0.809949
0.35971875 0.5947943 -1.133172
0.3608671875 0.1435658 -1.326221
0.362015625 -0.3827868 -1.338057
0.3631640625 -0.9097876 -1.127715
0.3643125 -1.33117 -0.6920394
0.3654609375 -1.53369 -0.08020943
0.366609375 -1.435563 0.5793201
0.3677578125 -1.039539 1.124657
0.36890625 -0.4488168 1.418102
0.3700546875 0.1783759 1.410972
0.371203125 0.7020387 1.147519
0.3723515625 1.035223 0.7243993
0.3735 1.157503 0.2441916
0.3746484375 1.087314 -0.2063495
0.375796875 0.8678656 -0.5649838
0.3769453125 0.5534458 -0.7951448
0.37809375 0.2030114 -0.8829713
0.3792421875 -0.1290891 -0.8367465
0.380390625 -0.3991994 -0.682429
0.3815390625 -0.5775378 -0.458686
0.3826875 -0.6563177 -0.2063335
0.3838359375 -0.6415077 0.03627617
0.384984375 -0.5511882 0.2413825
0.3861328125 -0.4090995 0.3906536
0.38728125 -0.238557 0.4778759
0.3884296875 -0.06159701 0.5044309
0.389578125 0.1045063 0.4754334
0.3907265625 0.2466448 0.400488
0.391875 0.355236 0.2897026
0.3930234375 0.4236547 0.1545987
0.394171875 0.4483672 0.006550726
0.3953203125 0.4268909 -0.1423368
0.39646875 0.3601197 -0.2802268
0.3976171875 0.2506028 -0.3945379
0.398765625 0.1045488 -0.4718578
0.3999140625 -0.06746419 -0.4995711
0.4010625 -0.2509446 -0.4667374
0.4022109375 -0.4249936 -0.3665664
0.403359375 -0.5639328 -0.1989715
0.4045078125 -0.6396614 0.02613406
0.40565625 -0.6260558 0.2855738
0.4068046875 -0.5047757 0.5434756
0.407953125 -0.2728847 0.754078
0.4091015625 0.05390039 0.8672141
0.41025 0.4346129 0.8369471
0.4113984375 0.8063166 0.6331459
0.412546875 1.085694 0.2489602
0.4136953125 1.174084 -0.2751727
0.41484375 0.9846359 -0.8361493
0.4159921875 0.4987651 -1.263173
0.417140625 -0.174655 -1.377089
0.4182890625 -0.8042231 -1.113216
0.4194375 -1.181495 -0.5838079
0.4205859375 -1.237583 0.0065988
0.421734375 -1.038033 0.4912257
0.4228828125 -0.6969343 0.8022428
0.42403125 -0.3123531 0.9346062
0.4251796875 0.05000426 0.91756
0.426328125 0.3513431 0.7882867
0.4274765625 0.5716023 0.5827478
0.428625 0.7022836 0.3345149
0.4297734375 0.7412683 0.07289491
0.430921875 0.6948066 -0.174521
0.4320703125 0.5748137 -0.3840323
0.43321875 0.3994092 -0.5355564
0.4343671875 0.1916869 -0.6172522
0.435515625 -0.0227211 -0.6245367
0.4366640625 -0.2190016 -0.5630765
0.4378125 -0.3770824 -0.4457393
0.4389609375 -0.4833505 -0.2911535
0.440109375 -0.5322221 -0.119163
0.4412578125 -0.5254083 0.0515638
0.44240625 -0.4698288 0.2034238
0.4435546875 -0.375997 0.327088
0.444703125 -0.2550464 0.4142833
0.4458515625 -0.1192103 0.4623014
0.447 0.02078018 0.4700401
0.4481484375 0.1552856 0.4393877
0.449296875 0.2746214 0.3741278
0.4504453125 0.3713123 0.2790058
0.45159375 0.4385999 0.1603019
0.4527421875 0.4710456 0.02614198
0.453890625 0.4650754 -0.1145957
0.4550390625 0.4181281 -0.2514034
0.4561875 0.3308751 -0.3724152
0.4573359375 0.2083308 -0.4653768
0.458484375 0.057802 -0.5190832
0.4596328125 -0.1076219 -0.5242602
0.46078125 -0.2712353 -0.4760086
0.4619296875 -0.4156358 -0.3756898
0.463078125 -0.5234271 -0.2311103
0.4642265625 -0.5804012 -0.05643316
0.465375 -0.5792755 0.13066
0.4665234375 -0.5183741 0.3098516
0.467671875 -0.4038505 0.4630821
0.4688203125 -0.2462602 0.5751831
0.46996875 -0.05996295 0.6356454
0.4711171875 0.1389 0.6382948
0.472265625 0.3342206 0.5822789
0.4734140625 0.5105385 0.4686339
0.4745625 0.6516644 0.3046454
0.4757109375 0.7450055 0.09731243
0.476859375 0.7766219 -0.1416729
0.4780078125 0.7349333 -0.3955684
0.47915625 0.6107335 -0.6448573
0.4803046875 0.3998509 -0.8625928
0.481453125 0.1040217 -1.018686
0.4826015625 -0.263941 -1.076155
0.48375 -0.6737723 -0.9975685
0.4848984375 -1.074645 -0.7502925
0.486046875 -1.39021 -0.3208573
0.4871953125 -1.524648 0.2660185
0.48834375 -1.384181 0.9269456
0.4894921875 -0.9190752 1.511371
0.490640625 -0.1794077 1.834556
0.4917890625 0.660515 1.754788
0.4929375 1.357277 1.270141
0.4940859375 1.716139 0.5317218
0.495234375 1.685539 -0.2346098
0.4963828125 1.346187 -0.8431567
0.49753125 0.8394369 -1.20674
0.4986796875 0.2974852 -1.322045
0.499828125 -0.1855765 -1.235178
0.5009765625 -0.5599005 -1.009366
0.502125 -0.8074489 -0.7046542
0.5032734375 -0.9280807 -0.3712116
0.504421875 -0.9373683 -0.04683277
0.5055703125 -0.8532893 0.2405245
0.50671875 -0.6965498 0.473244
0.5078671875 -0.4894449 0.638141
0.509015625 -0.2559654 0.7289019
0.5101640625 -0.01511104 0.7451481
0.5113125 0.2111777 0.6901813
0.5124609375 0.4048412 0.5725961
0.513609375 0.5496089 0.4060946
0.5147578125 0.6339078 0.2071363
0.51590625 0.6514078 -0.003381198
0.5170546875 0.6031975 -0.2048107
0.518203125 0.4959078 -0.3763315
0.5193515625 0.3438556 -0.5024129
0.5205 0.1643494 -0.5719334
0.5216484375 -0.02263245 -0.5818243
0.522796875 -0.198556 -0.5344178
0.5239453125 -0.3475296 -0.4379109
0.52509375 -0.4576924 -0.3045195
0.5262421875 -0.52132 -0.1476095
0.527390625 -0.5352635 0.01766162
0.5285390625 -0.5010257 0.1779293
0.5296875 -0.4223008 0.320262
0.5308359375 -0.306163 0.433973
0.531984375 -0.1612215 0.5096896
0.5331328125 0.001838624 0.5411587
0.53428125 0.1702976 0.5231923
0.5354296875 0.3308038 0.4548955
0.536578125 0.4689384 0.3379191
0.5377265625 0.5696836 0.178209
0.538875 0.6190897 -0.01405113
0.5400234375 0.6052496 -0.2238077
0.541171875 0.5204327 -0.4302634
0.5423203125 0.3628995 -0.6097987
0.54346875 0.1390275 -0.735238
0.5446171875 -0.1343767 -0.7803515
0.545765625 -0.4294802 -0.7231007
0.5469140625 -0.7083756 -0.5497937
0.5480625 -0.9234915 -0.2598587
0.5492109375 -1.020994 0.1278314
0.550359375 -0.9485452 0.5675136
0.5515078125 -0.6670473 0.9791718
0.55265625 -0.1802209 1.248186
0.5538046875 0.4320944 1.250374
0.554953125 0.9967527 0.9188023
0.5561015625 1.307819 0.3236081
0.55725 1.256571 -0.3282793
0.5583984375 0.9015234 -0.8218104
0.559546875 0.4055477 -1.050365
0.5606953125 -0.07539551 -1.029389
0.56184375 -0.4490426 -0.8311126
0.5629921875 -0.6804205 -0.5385005
0.564140625 -0.771214 -0.2179799
0.5652890625 -0.740882 0.08078999
0.5664375 -0.6167435 0.3258216
0.5675859375 -0.4300037 0.4973932
0.568734375 -0.2108502 0.5868564
0.5698828125 0.01198591 0.5943091
0.57103125 0.2124064 0.5281805
0.5721796875 0.3700731 0.403588
0.573328125 0.471101 0.2400154
0.5744765625 0.5089679 0.05996295
0.575625 0.4846058 -0.1154444
0.5767734375 0.4060547 -0.2671325
0.577921875 0.28603 -0.3807341
0.5790703125 0.1399169 -0.4468305
0.58021875 -0.01588284 -0.4622075
0.5813671875 -0.1656243 -0.4282955
0.582515625 -0.2956615 -0.3503446
0.5836640625 -0.3944772 -0.2367669
0.5848125 -0.4536161 -0.09816881
0.5859609375 -0.4680587 0.05335928
0.587109375 -0.4352659 0.2045022
0.5882578125 -0.3565823 0.342132
0.58940625 -0.2354979 0.4528943
0.5905546875 -0.08012136 0.524566
0.591703125 0.09798366 0.5454813
0.5928515625 0.284168 0.5080495
0.594 0.459561 0.4074625
0.5951484375 0.6032213 0.2449849
0.596296875 0.6925213 0.02935271
0.5974453125 0.7062554 -0.2234976
0.59859375 0.6276637 -0.4875138
0.5997421875 0.4470824 -0.729499
0.600890625 0.1669593 -0.9081695
0.6020390625 -0.1936443 -0.9805309
0.6031875 -0.5955372 -0.9050285
0.6043359375 -0.9762781 -0.6520601
0.605484375 -1.250795 -0.2202084
0.6066328125 -1.319604 0.3465903
0.60778125 -1.10234 0.9373311
0.6089296875 -0.591293 1.384311
0.610078125 0.101505 1.523846
0.6112265625 0.7693445 1.295452
0.612375 1.21556 0.7894884
0.6135234375 1.355067 0.1827755
0.614671875 1.222214 -0.3625189
0.6158203125 0.9109485 -0.7538822
0.61696875 0.5181441 -0.9651766
0.6181171875 0.1232743 -1.01007
0.619265625 -0.2249559 -0.9219561
0.6204140625 -0.4957732 -0.7383223
0.6215625 -0.6741663 -0.4958208
0.6227109375 -0.7572247 -0.2291259
0.623859375 -0.7498013 0.03227271
0.6250078125 -0.6650904 0.2619191
0.62615625 -0.5193149 0.4424455
0.6273046875 -0.33421 0.5610864
0.628453125 -0.1313826 0.6120424
0.6296015625 0.06685688 0.5971165
0.63075 0.2418692 0.524716
0.6318984375 0.3792633 0.4069696
0.633046875 0.4695289 0.2597929
0.6341953125 0.5087733 0.09870952
0.63534375 0.4984513 -0.05932226
0.6364921875 0.4440321 -0.2005102
0.637640625 0.3537335 -0.3160411
0.6387890625 0.2378169 -0.3975798
0.6399375 0.1071528 -0.4410191
0.6410859375 -0.02720947 -0.4452738
0.642234375 -0.1546542 -0.4120283
0.6433828125 -0.266131 -0.3446563
0.64453125 -0.3533888 -0.2497346
0.6456796875 -0.4097708 -0.1342777
0.646828125 -0.4308968 -0.007675484
0.6479765625 -0.4147117 0.1203296
0.649125 -0.3618304 0.2395944
0.6502734375 -0.2761188 0.33886
0.651421875 -0.1631695 0.4096
0.6525703125 -0.03237477 0.4441878
0.65371875 0.1046246 0.4381319
0.6548671875 0.2355249 0.390179
0.656015625 0.3476223 0.3038095
0.6571640625 0.429221 0.1854212
0.6583125 0.4718703 0.04605739
0.6594609375 0.4697875 -0.1018907
0.660609375 0.4228951 -0.2443026
0.6617578125 0.333656 -0.3682125
0.66290625 0.2093539 -0.4609095
0.6640546875 0.05996622 -0.5135801
0.665203125 -0.1019787 -0.5195505
0.6663515625 -0.2627749 -0.47596
0.6675 -0.4078425 -0.3842049
0.6686484375 -0.5237338 -0.2482099
0.669796875 -0.5968945 -0.07679371
0.6709453125 -0.6163595 0.1179375
0.67209375 -0.5735708 0.320806
0.6732421875 -0.4640407 0.5115983
0.674390625 -0.2889707 0.6692672
0.6755390625 -0.05584455 0.7705945
0.6766875 0.2187333 0.791364
0.6778359375 0.5077547 0.7125631
0.678984375 0.7745416 0.5218713
0.6801328125 0.972875 0.2224515
0.68128125 1.053222 -0.1643104
0.6824296875 0.9700915 -0.5904648
0.683578125 0.7010245 -0.9793299
0.6847265625 0.2569852 -1.24051
0.685875 -0.2936281 -1.283894
0.6870234375 -0.8302971 -1.062036
0.688171875 -1.211536 -0.6055013
0.6893203125 -1.333007 -0.02712452
0.69046875 -1.178735 0.5229327
0.6916171875 -0.8149725 0.9192773
0.692765625 -0.3534986 1.101948
0.6939140625 0.09871673 1.07882
0.6950625 0.4668521 0.8965394
0.6962109375 0.7134265 0.6171963
0.697359375 0.8292401 0.298835
0.6985078125 0.8261924 -0.01098207
0.69965625 0.7257212 -0.2787508
0.7008046875 0.5555462 -0.4808604
0.701953125 0.3426519 -0.607205
0.7031015625 0.1143426 -0.654927
0.70425 -0.1051139 -0.6274697
0.7053984375 -0.2949209 -0.5352715
0.706546875 -0.4386058 -0.3929147
0.7076953125 -0.5255873 -0.2184212
0.70884375 -0.5508389 -0.03130192
0.7099921875 -0.515363 0.1473567
0.711140625 -0.4268198 0.3009811
0.7122890625 -0.2967134 0.4149592
0.7134375 -0.1404101 0.4790281
0.7145859375 0.02442889 0.4889605
0.715734375 0.180798 0.4467698
0.7168828125 0.3134497 0.3579416
0.71803125 0.4095854 0.2330192
0.7191796875 0.4606946 0.08522188
0.720328125 0.4625387 -0.07075961
0.7214765625 0.4147792 -0.2197687
0.722625 0.321619 -0.3470476
0.7237734375 0.1907631 -0.4399239
0.724921875 0.03338999 -0.4871257
0.7260703125 -0.1352739 -0.4816784
0.72721875 -0.2997001 -0.4193462
0.7283671875 -0.4409336 -0.3014491
0.729515625 -0.5402189 -0.1347499
0.7306640625 -0.5793249 0.0680913
0.7318125 -0.5436333 0.2866812
0.7329609375 -0.4237257 0.4934301
0.734109375 -0.22058 0.6550294
0.7352578125 0.05169534 0.7352176
0.73640625 0.3614946 0.6989698
0.7375546875 0.656544 0.5243341
0.738703125 0.8680628 0.2123419
0.7398515625 0.9233955 -0.1943909
0.741 0.7729827 -0.6099609
0.7421484375 0.4233423 -0.917724
0.743296875 -0.04347914 -1.016685
0.7444453125 -0.4949656 -0.8726951
0.74559375 -0.8063917 -0.5404668
0.7467421875 -0.9166218 -0.1284303
0.747890625 -0.8354847 0.2554392
0.7490390625 -0.5946258 0.5180442
0.7501875 -0.3209712 0.6668818
0.7513359375 -0.03974786 0.6941546
0.752484375 0.2082526 0.6222962
0.7536328125 0.3974621 0.4779835
0.75478125 0.515055 0.2910387
0.7559296875 0.5592012 0.08910832
0.757078125 0.5342438 -0.104967
0.7582265625 0.4510797 -0.2709408
0.759375 0.323474 -0.3951424
0.7605234375 0.1680713 -0.4687381
0.761671875 0.002372752 -0.4869161
0.7628203125 -0.1560305 -0.4517604
0.76396875 -0.2915885 -0.3690586
0.7651171875 -0.3913175 -0.2495192
0.766265625 -0.4462065 -0.106765
0.7674140625 -0.4524453 0.04390733
0.7685625 -0.4108697 0.186787
0.7697109375 -0.327005 0.3075742
0.770859375 -0.2105281 0.3951082
0.7720078125 -0.07335766 0.4414051
0.77315625 0.07084467 0.4428109
0.7743046875 0.2083413 0.3998271
0.775453125 0.3263355 0.3161944
0.7766015625 0.4140992 0.1998088
0.77775 0.4627747 0.06061412
0.7788984375 0.4672072 -0.08947866
0.780046875 0.4248008 -0.2371454
0.7811953125 0.336987 -0.3686549
0.78234375 0.2088739 -0.4704165
0.7834921875 0.04952095 -0.5301156
0.784640625 -0.1284675 -0.5378538
0.7857890625 -0.3086457 -0.4864448
0.7869375 -0.470967 -0.3740607
0.7880859375 -0.5956408 -0.2055636
0.789234375 -0.6617623 0.007445668
0.7903828125 -0.6509693 0.2454288
0.79153125 -0.5525919 0.4803163
0.7926796875 -0.3651498 0.6792405
0.793828125 -0.1005912 0.8055929
0.7949765625 0.2129936 0.8260011
0.796125 0.5320554 0.7187988
0.7972734375 0.8000383 0.4799384
0.798421875 0.9568012 0.1339125
0.7995703125 0.9571626 -0.2642914
0.80071875 0.7818004 -0.636996
0.8018671875 0.4583991 -0.9017076
0.803015625 0.05343494 -0.9996582
0.8041640625 -0.3443986 -0.915565
0.8053125 -0.6558746 -0.6804303
0.8064609375 -0.8316489 -0.3567634
0.807609375 -0.860971 -0.01367377
0.8087578125 -0.7624553 0.2907066
0.80990625 -0.5729878 0.5175036
0.8110546875 -0.3327113 0.6496446
0.812203125 -0.0809134 0.6862548
0.8133515625 0.1507917 0.6371979
0.8145 0.3392774 0.5212055
0.8156484375 0.4700474 0.3599378
0.816796875 0.5362835 0.1757878
0.8179453125 0.5394766 -0.009575161
0.81909375 0.4851864 -0.1766725
0.8202421875 0.3854459 -0.3103232
0.821390625 0.254784 -0.4010518
0.8225390625 0.1091469 -0.4434707
0.8236875 -0.03560089 -0.4381363
0.8248359375 -0.1654677 -0.3900456
0.825984375 -0.2692347 -0.3074936
0.8271328125 -0.3397931 -0.2017815
0.82828125 -0.3734311 -0.08443804
0.8294296875 -0.3702589 0.03313662
0.830578125 -0.3333445 0.1404569
0.8317265625 -0.2682987 0.2292902
0.832875 -0.1827748 0.2929847
0.8340234375 -0.08438408 0.328106
0.835171875 0.01759143 0.3328949
0.8363203125 0.1153338 0.3085084
0.83746875 0.2007396 0.2573188
0.8386171875 0.2668586 0.1838406
0.839765625 0.3086146 0.09446907
0.8409140625 0.3225551 -0.003146239
0.8420625 0.3064919 -0.1010874
0.8432109375 0.2620737 -0.1901679
0.844359375 0.192208 -0.26265
0.8455078125 0.1026688 -0.3111832
0.84665625 0.00140307 -0.3302365
0.8478046875 -0.1021716 -0.3172584
0.848953125 -0.1980988 -0.2726156
0.8501015625 -0.2764532 -0.199274
0.85125 -0.3289837 -0.1037266
0.8523984375 -0.3498338 0.004829241
0.853546875 -0.3355404 0.1162599
0.8546953125 -0.2865782 0.2196307
0.85584375 -0.2065241 0.3045234
0.8569921875 -0.1019518 0.3618677
0.858140625 0.01848844 0.3851577
0.8592890625 0.1441134 0.3695713
0.8604375 0.2629362 0.3140578
0.8615859375 0.3629649 0.2203148
0.862734375 0.4323087 0.09381464
0.8638828125 0.4595383 -0.0562849
0.86503125 0.4358202 -0.2175461
0.8661796875 0.3548498 -0.3730489
0.867328125 0.2149697 -0.5020444
0.8684765625 0.02256976 -0.5812511
0.869625 -0.2057538 -0.5861739
0.8707734375 -0.4415175 -0.4958693
0.871921875 -0.6412287 -0.3006138
0.8730703125 -0.7517897 -0.01311226
0.87421875 -0.7213543 0.3214155
0.8753671875 -0.5272292 0.6248463
0.876515625 -0.197322 0.8062215
0.8776640625 0.1833562 0.8034824
0.8788125 0.5072545 0.6196155
0.8799609375 0.6929898 0.3199001
0.881109375 0.7169778 -0.005144381
0.8822578125 0.605889 -0.2791485
0.88340625 0.4115905 -0.4610311
0.8845546875 0.1862906 -0.5401464
0.885703125 -0.02760557 -0.5282194
0.8868515625 -0.2032569 -0.4469596
0.888 -0.3260324 -0.3213058
0.8891484375 -0.3914917 -0.1746047
0.890296875 -0.4026053 -0.02674969
0.8914453125 -0.3669032 0.1063305
0.89259375 -0.2945096 0.2132741
0.8937421875 -0.1970062 0.2869232
0.894890625 -0.0865282 0.3234227
0.8960390625 0.02513294 0.3226862
0.8971875 0.1271632 0.2876748
0.8983359375 0.2101757 0.2236998
0.899484375 0.267089 0.1384157
0.9006328125 0.2927825 0.04135707
0.90178125 0.2860585 -0.05763861
0.9029296875 0.2482187 -0.1479601
0.904078125 0.1833689 -0.2206114
0.9052265625 0.09911661 -0.2678399
0.906375 0.004207779 -0.2849825
0.9075234375 -0.0911957 -0.2700787
0.908671875 -0.1763314 -0.225265
0.9098203125 -0.2424952 -0.1545574
0.91096875 -0.2826297 -0.06595749
0.9121171875 -0.2920194 0.03166821
0.913265625 -0.2689375 0.1284963
0.9144140625 -0.2153457 0.2142006
0.9155625 -0.1353659 0.2797411
0.9167109375 -0.03601183 0.3172581
0.917859375 0.07355084 0.3213484
0.9190078125 0.1830728 0.2886492
0.92015625 0.2801909 0.2192512
0.9213046875 0.353656 0.1170083
0.922453125 0.391544 -0.01110302
0.9236015625 0.3837781 -0.1536043
0.92475 0.3240184 -0.2951957
0.9258984375 0.2103688 -0.4162859
0.927046875 0.04800937 -0.4949923
0.9281953125 -0.1485297 -0.5102069
0.92934375 -0.3541364 -0.4440327
0.9304921875 -0.5323386 -0.2891536
0.931640625 -0.641166 -0.0551846
0.9327890625 -0.6403756 0.2239358
0.9339375 -0.5085543 0.4920585
0.9350859375 -0.2581087 0.681159
0.936234375 0.06002865 0.7348443
0.9373828125 0.3669722 0.6351339
0.93853125 0.5888443 0.4111166
0.9396796875 0.6824706 0.1251073
0.940828125 0.6453115 -0.1549073
0.9419765625 0.5051783 -0.3762478
0.943125 0.3055705 -0.5119383
0.9442734375 0.08842728 -0.5562805
0.945421875 -0.1124773 -0.5206484
0.9465703125 -0.274327 -0.4235188
0.94771875 -0.3839304 -0.2872981
0.9488671875 -0.4374727 -0.1327841
0.950015625 -0.4371513 0.02078038
0.9511640625 -0.3895071 0.1580486
0.9523125 -0.3048206 0.2672466
0.9534609375 -0.1945258 0.3404493
0.954609375 -0.07159027 0.3737855
0.9557578125 0.05135053 0.3669548
0.95690625 0.1622589 0.3231817
0.9580546875 0.2515169 0.2487733
0.959203125 0.3115422 0.1524936
0.9603515625 0.3377195 0.04479378
0.9615 0.3288658 -0.06339943
0.9626484375 0.2877314 -0.1617148
0.963796875 0.2191515 -0.2408315
0.9649453125 0.1310355 -0.293894
0.96609375 0.03222097 -0.3169397
0.9672421875 -0.06729242 -0.3084037
0.968390625 -0.1585098 -0.2706132
0.9695390625 -0.2331679 -0.2075918
0.9706875 -0.285097 -0.125744
0.9718359375 -0.3101555 -0.03217753
0.972984375 -0.3063108 0.06439633
0.9741328125 -0.2738645 0.1560342
0.97528125 -0.2150933 0.2341675
0.9764296875 -0.135054 0.2926557
0.977578125 -0.03963918 0.3250864
0.9787265625 0.06321456 0.327997
0.979875 0.164979 0.2991835
0.9810234375 0.2559593 0.2394374
0.982171875 0.3270631 0.1521245
0.9833203125 0.3695806 0.04329808
0.98446875 0.377005 -0.07828934
0.9856171875 0.3449392 -0.2014598
0.986765625 0.2722695 -0.3133386
0.9879140625 0.1627059 -0.4006882
0.9890625 0.02375316 -0.4509934
0.9902109375 -0.1322908 -0.4535375
0.991359375 -0.2895498 -0.4017355
0.9925078125 -0.428951 -0.2945968
0.99365625 -0.530359 -0.1366902
0.9948046875 -0.5745372 0.05913942
0.995953125 -0.5451093 0.2732134
0.9971015625 -0.4334238 0.4768871
