# GHZ S RI R 50.0
0.3 -2.810277 -0.09633679
0.3011484375 -2.363297 1.024064
0.302296875 -1.574209 1.712827
0.3034453125 -0.7178147 1.963575
0.30459375 0.03909859 1.877066
0.3057421875 0.6184778 1.575688
0.306890625 0.9997073 1.16482
0.3080390625 1.205624 0.7187824
0.3091875 1.26116 0.2896814
0.3103359375 1.200477 -0.09471769
0.311484375 1.052004 -0.4173472
0.3126328125 0.8399311 -0.6686952
0.31378125 0.5840897 -0.8456614
0.3149296875 0.3044527 -0.9440731
0.316078125 0.01774412 -0.9649929
0.3172265625 -0.2598674 -0.9088607
0.318375 -0.5103512 -0.7792239
0.3195234375 -0.7132086 -0.5836877
0.320671875 -0.8504096 -0.3344609
0.3218203125 -0.9044224 -0.05282158
0.32296875 -0.8654637 0.2325837
0.3241171875 -0.7353688 0.4892483
0.325265625 -0.5299084 0.6853172
0.3264140625 -0.2777511 0.7986282
0.3275625 -0.01079756 0.8219752
0.3287109375 0.238766 0.7596754
0.329859375 0.4438923 0.6291156
0.3310078125 0.5927302 0.4509404
0.33215625 0.6774285 0.2489389
0.3333046875 0.7008029 0.04142498
0.334453125 0.6679146 -0.1559725
0.3356015625 0.5869395 -0.3313491
0.33675 0.4658911 -0.4766599
0.3378984375 0.313921 -0.5849281
0.339046875 0.1400973 -0.6506302
0.3401953125 -0.04679591 -0.6704122
0.34134375 -0.2370856 -0.6406938
0.3424921875 -0.4188956 -0.5597544
0.343640625 -0.579 -0.4273472
0.3447890625 -0.7022672 -0.2457775
0.3459375 -0.7715181 -0.02477459
0.3470859375 -0.7720829 0.2212517
0.348234375 -0.6913736 0.4708329
0.3493828125 -0.5247661 0.6944257
0.35053125 -0.2805632 0.8592343
0.3516796875 0.02013949 0.9356691
0.352828125 0.3411935 0.9028766
0.3539765625 0.6418834 0.7571715
0.355125 0.8810245 0.5108675
0.3562734375 1.026132 0.1908451
0.357421875 1.057859 -0.168886
0.3585703125 0.9670379 -0.5296263
0.35971875 0.7556677 -0.8517222
0.3608671875 0.4352922 -1.097812
0.362015625 0.03087256 -1.230086
0.3631640625 -0.4244001 -1.215922
0.3643125 -0.8781991 -1.026649
0.3654609375 -1.258395 -0.6530539
0.366609375 -1.47673 -0.1186805
0.3677578125 -1.451365 0.5020286
0.36890625 -1.140949 1.081353
0.3700546875 -0.5862665 1.468616
0.371203125 0.08712123 1.561057
0.3723515625 0.7136293 1.342069
0.3735 1.156281 0.8881309
0.3746484375 1.344031 0.3243467
0.375796875 1.282098 -0.2244534
0.3769453125 1.022687 -0.6637303
0.37809375 0.6411436 -0.9389589
0.3792421875 0.2220689 -1.033556
0.380390625 -0.1653908 -0.965455
0.3815390625 -0.4685525 -0.7754743
0.3826875 -0.6609508 -0.5135322
0.3838359375 -0.7384081 -0.2298573
0.384984375 -0.7146757 0.03557528
0.3861328125 -0.6133956 0.255279
0.38728125 -0.460219 0.4142479
0.3884296875 -0.2804523 0.5081608
0.389578125 -0.09640417 0.5388956
0.3907265625 0.07679174 0.5141383
0.391875 0.2259309 0.443173
0.3930234375 0.3420244 0.3364162
0.394171875 0.4194021 0.2046295
0.3953203125 0.4538729 0.05913892
0.39646875 0.4439629 -0.08886448
0.3976171875 0.3900283 -0.2271712
0.398765625 0.2950903 -0.3444849
0.3999140625 0.1649844 -0.4281382
0.4010625 0.009426036 -0.4672766
0.4022109375 -0.1561392 -0.4522634
0.403359375 -0.3140467 -0.3787314
0.4045078125 -0.4426167 -0.2485764
0.40565625 -0.5203865 -0.07288641
0.4068046875 -0.5295152 0.128056
0.407953125 -0.4610468 0.3279661
0.4091015625 -0.3169691 0.4963346
0.41025 -0.1113149 0.6042125
0.4113984375 0.1312908 0.6304084
0.412546875 0.3800865 0.5610941
0.4136953125 0.599435 0.3953302
0.41484375 0.7528542 0.1412527
0.4159921875 0.8031996 -0.1792115
0.417140625 0.7158071 -0.5282221
0.4182890625 0.4659588 -0.84457
0.4194375 0.05759495 -1.042884
0.4205859375 -0.450168 -1.025569
0.421734375 -0.9245226 -0.7326974
0.4228828125 -1.189397 -0.2107116
0.42403125 -1.141945 0.3756933
0.4251796875 -0.8125719 0.8351637
0.426328125 -0.339705 1.056459
0.4274765625 0.1352287 1.038009
0.428625 0.5143829 0.8388311
0.4297734375 0.755769 0.5341474
0.430921875 0.8505693 0.1930835
0.4320703125 0.814378 -0.1311031
0.43321875 0.6727479 -0.3983811
0.4343671875 0.4600291 -0.5831187
0.435515625 0.2126166 -0.6732542
0.4366640625 -0.03334343 -0.6711842
0.4378125 -0.2487564 -0.5900095
0.4389609375 -0.4126916 -0.4503315
0.440109375 -0.5139788 -0.2760845
0.4412578125 -0.5514137 -0.09090151
0.44240625 -0.5298869 0.08580229
0.4435546875 -0.4596721 0.2376354
0.444703125 -0.352989 0.3554513
0.4458515625 -0.2226103 0.4337384
0.447 -0.08038814 0.4703578
0.4481484375 0.0617896 0.4651528
0.449296875 0.1943228 0.4216984
0.4504453125 0.308055 0.3439417
0.45159375 0.3957378 0.2378832
0.4527421875 0.4504701 0.1110187
0.453890625 0.4673987 -0.02782165
0.4550390625 0.4434769 -0.1683897
0.4561875 0.378319 -0.298836
0.4573359375 0.2744797 -0.4072896
0.458484375 0.1385414 -0.4809864
0.4596328125 -0.01769643 -0.510278
0.46078125 -0.1796314 -0.4883983
0.4619296875 -0.329613 -0.4144917
0.463078125 -0.4505429 -0.2943128
0.4642265625 -0.5277461 -0.1397382
0.465375 -0.5519987 0.03317625
0.4665234375 -0.5202327 0.20612
0.467671875 -0.4360822 0.3613354
0.4688203125 -0.3078226 0.483862
0.46996875 -0.1482423 0.5626005
0.4711171875 0.02902542 0.5911602
0.472265625 0.2094672 0.566799
0.4734140625 0.378531 0.4907875
0.4745625 0.5230286 0.3666004
0.4757109375 0.6310125 0.2006501
0.476859375 0.6902202 0.002788291
0.4780078125 0.6912549 -0.2156944
0.47915625 0.6251134 -0.4396431
0.4803046875 0.4869478 -0.6482652
0.481453125 0.275883 -0.820018
0.4826015625 -0.002205953 -0.9283013
0.48375 -0.3307871 -0.944065
0.4848984375 -0.6813087 -0.8403776
0.486046875 -1.009849 -0.5975741
0.4871953125 -1.256402 -0.211867
0.48834375 -1.349616 0.2931792
0.4894921875 -1.223943 0.8540648
0.490640625 -0.8379321 1.3646
0.4917890625 -0.2114278 1.685497
0.4929375 0.5486581 1.686617
0.4940859375 1.253765 1.311506
0.495234375 1.698449 0.6327515
0.4963828125 1.76105 -0.1604402
0.49753125 1.461168 -0.850897
0.4986796875 0.9269436 -1.292914
0.499828125 0.3201974 -1.448131
0.5009765625 -0.2328928 -1.355614
0.502125 -0.6583302 -1.091602
0.5032734375 -0.9290552 -0.7344002
0.504421875 -1.048091 -0.3481824
0.5055703125 -1.035221 0.01983958
0.50671875 -0.9158173 0.3379189
0.5078671875 -0.7180277 0.5826886
0.509015625 -0.4704922 0.7444502
0.5101640625 -0.2006756 0.8185738
0.5113125 0.06588443 0.8069779
0.5124609375 0.3063263 0.7181026
0.513609375 0.500571 0.5650916
0.5147578125 0.6334414 0.3658514
0.51590625 0.6954299 0.1423578
0.5170546875 0.6841344 -0.08261436
0.518203125 0.6049035 -0.2860832
0.5193515625 0.4699546 -0.4483185
0.5205 0.2968307 -0.5567569
0.5216484375 0.1056961 -0.6036689
0.522796875 -0.08372986 -0.5899594
0.5239453125 -0.2538245 -0.5217313
0.52509375 -0.3907235 -0.4097895
0.5262421875 -0.4853832 -0.2666461
0.527390625 -0.5327217 -0.106666
0.5285390625 -0.5321481 0.05610643
0.5296875 -0.4855967 0.20904
0.5308359375 -0.3985525 0.3416094
0.531984375 -0.2792414 0.4428763
0.5331328125 -0.1352962 0.5064833
0.53428125 0.02244601 0.5268423
0.5354296875 0.1805219 0.5012062
0.536578125 0.3279556 0.429685
0.5377265625 0.4513468 0.315168
0.538875 0.53765 0.1647478
0.5400234375 0.5764953 -0.01050939
0.541171875 0.5588973 -0.1962637
0.5423203125 0.4819584 -0.3746538
0.54346875 0.3469225 -0.5259187
0.5446171875 0.1628613 -0.6307444
0.545765625 -0.05500221 -0.672479
0.5469140625 -0.2848629 -0.6397969
0.5480625 -0.5020798 -0.5281565
0.5492109375 -0.6792293 -0.3414514
0.550359375 -0.7903529 -0.09177601
0.5515078125 -0.8120105 0.197435
0.55265625 -0.727764 0.4976637
0.5538046875 -0.5277881 0.7711858
0.554953125 -0.2176492 0.9698941
0.5561015625 0.1831131 1.043705
0.55725 0.6228479 0.9422871
0.5583984375 1.017741 0.6350886
0.559546875 1.252783 0.1370635
0.5606953125 1.220478 -0.4526883
0.56184375 0.8849205 -0.9703996
0.5629921875 0.3326033 -1.247786
0.564140625 -0.2604976 -1.21164
0.5652890625 -0.7266301 -0.9129217
0.5664375 -0.9758391 -0.4771649
0.5675859375 -1.003874 -0.02629031
0.568734375 -0.8572312 0.3510353
0.5698828125 -0.6005231 0.6082453
0.57103125 -0.2972384 0.7324197
0.5721796875 -0.0004943185 0.7333761
0.573328125 0.2518822 0.6346473
0.5744765625 0.4351171 0.4666235
0.575625 0.5377252 0.2626154
0.5767734375 0.56145 0.05194833
0.577921875 0.5149095 -0.1390998
0.5790703125 0.4136343 -0.2930742
0.58021875 0.2761846 -0.3984208
0.5813671875 0.1203418 -0.4502378
0.582515625 -0.03614536 -0.4492312
0.5836640625 -0.1785846 -0.4007114
0.5848125 -0.2948028 -0.3127907
0.5859609375 -0.3759693 -0.1953654
0.587109375 -0.4160731 -0.06101563
0.5882578125 -0.4129884 0.0786077
0.58940625 -0.3665159 0.2108166
0.5905546875 -0.2803415 0.3232386
0.591703125 -0.1611815 0.4045461
0.5928515625 -0.0189868 0.4453888
0.594 0.1336228 0.4386534
0.5951484375 0.2816708 0.3811694
0.596296875 0.4079717 0.2744246
0.5974453125 0.4968022 0.1251169
0.59859375 0.5326844 -0.05312883
0.5997421875 0.5057775 -0.2433628
0.600890625 0.4116222 -0.423568
0.6020390625 0.2528692 -0.569724
0.6031875 0.04040417 -0.658536
0.6043359375 -0.2059786 -0.6707391
0.605484375 -0.4596981 -0.5907671
0.6066328125 -0.6878594 -0.4134249
0.60778125 -0.8521096 -0.1427837
0.6089296875 -0.911496 0.2016111
0.610078125 -0.8272634 0.5822032
0.6112265625 -0.5715585 0.9357609
0.612375 -0.1444943 1.174518
0.6135234375 0.3995486 1.20005
0.614671875 0.9350356 0.9434581
0.6158203125 1.294927 0.4293631
0.61696875 1.347583 -0.2066075
0.6181171875 1.084554 -0.7669278
0.619265625 0.6144326 -1.109234
0.6204140625 0.08838066 -1.19133
0.6215625 -0.3726934 -1.053626
0.6227109375 -0.7013556 -0.7713508
0.623859375 -0.8767803 -0.4219453
0.6250078125 -0.9067158 -0.06852385
0.62615625 -0.8170878 0.2422969
0.6273046875 -0.6402818 0.4808639
0.628453125 -0.4116451 0.6321173
0.6296015625 -0.1652238 0.693009
0.63075 0.06994397 0.6707006
0.6318984375 0.2707205 0.5801489
0.633046875 0.4220453 0.4396001
0.6341953125 0.5153064 0.2693841
0.63534375 0.5491738 0.08970293
0.6364921875 0.5280323 -0.08185439
0.637640625 0.4598209 -0.2313719
0.6387890625 0.3552341 -0.3484541
0.6399375 0.2268106 -0.4265239
0.6410859375 0.08607426 -0.4627309
0.642234375 -0.05477242 -0.4572215
0.6433828125 -0.1850154 -0.4127125
0.64453125 -0.295121 -0.3342409
0.6456796875 -0.3770174 -0.2289445
0.646828125 -0.4247713 -0.1057744
0.6479765625 -0.4350192 0.02556838
0.649125 -0.406818 0.1539813
0.6502734375 -0.3420216 0.2690462
0.651421875 -0.2457547 0.3602432
0.6525703125 -0.1258511 0.4190775
0.65371875 0.007079282 0.4394191
0.6548671875 0.1412521 0.4187944
0.656015625 0.2635369 0.3578301
0.6571640625 0.3623805 0.262359
0.6583125 0.4279791 0.1402817
0.6594609375 0.45388 0.003437429
0.660609375 0.4371467 -0.1358551
0.6617578125 0.3788858 -0.264547
0.66290625 0.2842953 -0.3709421
0.6640546875 0.1607072 -0.4453149
0.665203125 0.01953927 -0.4804194
0.6663515625 -0.1283944 -0.4723734
0.6675 -0.2702323 -0.4205883
0.6686484375 -0.393855 -0.3271864
0.669796875 -0.4874747 -0.197885
0.6709453125 -0.5413471 -0.04158044
0.67209375 -0.5466965 0.1301933
0.6732421875 -0.4987172 0.3037485
0.674390625 -0.3955226 0.4628826
0.6755390625 -0.2407938 0.5893762
0.6766875 -0.0427063 0.6663589
0.6778359375 0.1832452 0.6777638
0.678984375 0.4160343 0.6118439
0.6801328125 0.628975 0.4631855
0.68128125 0.7913054 0.2368766
0.6824296875 0.8730227 -0.05222754
0.683578125 0.8472137 -0.3755129
0.6847265625 0.6961949 -0.6919707
0.685875 0.4186964 -0.9513746
0.6870234375 0.03473324 -1.096816
0.688171875 -0.407845 -1.079515
0.6893203125 -0.8356197 -0.8699673
0.69046875 -1.153057 -0.4794461
0.6916171875 -1.276972 0.03287166
0.692765625 -1.1592 0.5614889
0.6939140625 -0.8187948 0.9825619
0.6950625 -0.3368646 1.204341
0.6962109375 0.172135 1.195069
0.697359375 0.6018774 0.9841327
0.6985078125 0.8870408 0.6413746
0.69965625 1.004639 0.2466394
0.7008046875 0.9672789 -0.1313616
0.701953125 0.8077695 -0.4435319
0.7031015625 0.5665932 -0.6612125
0.70425 0.286087 -0.7731727
0.7053984375 0.00390784 -0.7826155
0.706546875 -0.2493248 -0.7021641
0.7076953125 -0.4481248 -0.5514088
0.70884375 -0.5799113 -0.3540473
0.7099921875 -0.636298 -0.1362918
0.711140625 -0.6200181 0.07761887
0.7122890625 -0.539382 0.2656392
0.7134375 -0.4081121 0.4110945
0.7145859375 -0.2443397 0.5034977
0.715734375 -0.0667839 0.5374731
0.7168828125 0.1059013 0.5149453
0.71803125 0.2576321 0.441985
0.7191796875 0.3753635 0.328903
0.720328125 0.4508425 0.1889046
0.7214765625 0.4790209 0.03578746
0.722625 0.4592742 -0.1160075
0.7237734375 0.3950598 -0.2529544
0.724921875 0.292805 -0.3632932
0.7260703125 0.161514 -0.4368858
0.72721875 0.0134027 -0.4667173
0.7283671875 -0.138454 -0.4491616
0.729515625 -0.2795672 -0.384112
0.7306640625 -0.3954195 -0.2755458
0.7318125 -0.4729789 -0.1318026
0.7329609375 -0.5006396 0.03416035
0.734109375 -0.4714 0.2062487
0.7352578125 -0.3835863 0.3650667
0.73640625 -0.2411379 0.4905012
0.7375546875 -0.05600301 0.563193
0.738703125 0.1535412 0.567248
0.7398515625 0.3621497 0.4930743
0.741 0.5402672 0.3402342
0.7421484375 0.6579376 0.1193093
0.743296875 0.68595 -0.1473111
0.7444453125 0.6029089 -0.423402
0.74559375 0.4027552 -0.6606194
0.7467421875 0.09979601 -0.8039743
0.747890625 -0.2580038 -0.8035876
0.7490390625 -0.5755562 -0.608023
0.7501875 -0.7988314 -0.2986333
0.7513359375 -0.8511557 0.08808778
0.752484375 -0.7140627 0.4507818
0.7536328125 -0.4313971 0.6983119
0.75478125 -0.08523329 0.7835197
0.7559296875 0.2396197 0.7109662
0.757078125 0.4830246 0.5218039
0.7582265625 0.6157465 0.2704979
0.759375 0.636367 0.009240901
0.7605234375 0.5614944 -0.2214331
0.761671875 0.4168425 -0.3947822
0.7628203125 0.2320122 -0.4965321
0.76396875 0.03502027 -0.5235726
0.7651171875 -0.1480642 -0.4820286
0.766265625 -0.2973796 -0.3845667
0.7674140625 -0.3992243 -0.2484407
0.7685625 -0.4467103 -0.09270751
0.7697109375 -0.4395432 0.06358337
0.770859375 -0.3830532 0.2034568
0.7720078125 -0.2870691 0.3136544
0.77315625 -0.1639727 0.384577
0.7743046875 -0.02796158 0.4119183
0.775453125 0.1073154 0.3949012
0.7766015625 0.2284394 0.3371173
0.77775 0.3248947 0.2450973
0.7788984375 0.3877673 0.1282301
0.780046875 0.4114071 -0.003213414
0.7811953125 0.3934655 -0.1363192
0.78234375 0.3341564 -0.2592158
0.7834921875 0.2381084 -0.3598023
0.784640625 0.1122041 -0.4273458
0.7857890625 -0.0327218 -0.4525601
0.7869375 -0.1835147 -0.4301052
0.7880859375 -0.3246896 -0.3580458
0.789234375 -0.439871 -0.2398773
0.7903828125 -0.513796 -0.08357448
0.79153125 -0.5333111 0.09683093
0.7926796875 -0.4895246 0.2825066
0.793828125 -0.380507 0.4514878
0.7949765625 -0.2116329 0.5805188
0.796125 0.003059905 0.6474095
0.7972734375 0.2415162 0.6346506
0.798421875 0.4742174 0.5321119
0.7995703125 0.6667095 0.341235
0.80071875 0.7820538 0.07540858
0.8018671875 0.7895746 -0.233439
0.803015625 0.668742 -0.540527
0.8041640625 0.4208046 -0.7874146
0.8053125 0.07595776 -0.9169806
0.8064609375 -0.3053377 -0.8869931
0.807609375 -0.6437097 -0.6919485
0.8087578125 -0.8642139 -0.3688635
0.80990625 -0.9225278 0.01080999
0.8110546875 -0.8173285 0.3666137
0.812203125 -0.5857902 0.6316573
0.8133515625 -0.2856234 0.772211
0.8145 0.02345458 0.782791
0.8156484375 0.2934914 0.6823499
0.816796875 0.4924715 0.503224
0.8179453125 0.6049342 0.2810599
0.81909375 0.6299846 0.05068913
0.8202421875 0.5778349 -0.1591451
0.821390625 0.4654557 -0.3275883
0.8225390625 0.3133385 -0.4409917
0.8236875 0.1434315 -0.4947255
0.8248359375 -0.02405873 -0.4903553
0.825984375 -0.1723343 -0.4362297
0.8271328125 -0.2891498 -0.3432097
0.82828125 -0.366859 -0.2247959
0.8294296875 -0.4023348 -0.09533554
0.830578125 -0.3972954 0.03254096
0.8317265625 -0.3558337 0.1478346
0.832875 -0.2847134 0.2418451
0.8340234375 -0.1923849 0.3080919
0.835171875 -0.08826505 0.3433785
0.8363203125 0.01895386 0.3465452
0.83746875 0.1199251 0.3187091
0.8386171875 0.2072335 0.2638258
0.839765625 0.2736658 0.1871644
0.8409140625 0.3142925 0.09489951
0.8420625 0.3257062 -0.004475506
0.8432109375 0.3073852 -0.1023788
0.844359375 0.2607373 -0.1903234
0.8455078125 0.1897115 -0.2600667
0.84665625 0.1008658 -0.3052969
0.8478046875 0.002374897 -0.3214441
0.848953125 -0.09657213 -0.3067652
0.8501015625 -0.1865302 -0.262416
0.85125 -0.2585397 -0.1924429
0.8523984375 -0.3059418 -0.10384
0.853546875 -0.3240019 -0.004823661
0.8546953125 -0.3111588 0.09543929
0.85584375 -0.2684903 0.1873768
0.8569921875 -0.1997942 0.2625746
0.858140625 -0.1111365 0.3142239
0.8592890625 -0.009816862 0.337404
0.8604375 0.09516492 0.3292131
0.8615859375 0.1950083 0.2896649
0.862734375 0.2807119 0.2206758
0.8638828125 0.3437276 0.1264156
0.86503125 0.3770345 0.0141292
0.8661796875 0.3748769 -0.1078318
0.867328125 0.3339318 -0.2288125
0.8684765625 0.2537489 -0.336784
0.869625 0.1375601 -0.4188912
0.8707734375 -0.007424924 -0.4625089
0.871921875 -0.1691249 -0.4561951
0.8730703125 -0.3311232 -0.3926934
0.87421875 -0.4722441 -0.2690108
0.8753671875 -0.5689597 -0.08999214
0.876515625 -0.597237 0.1289431
0.8776640625 -0.5375583 0.3616894
0.8788125 -0.3805001 0.5710858
0.8799609375 -0.1334257 0.7115198
0.881109375 0.1724617 0.738603
0.8822578125 0.4795776 0.6232358
0.88340625 0.7139024 0.3709192
0.8845546875 0.8087409 0.02992228
0.885703125 0.7348561 -0.3160717
0.8868515625 0.5150387 -0.5813395
0.888 0.2151837 -0.7110962
0.8891484375 -0.08834337 -0.6970494
0.890296875 -0.3358578 -0.5678065
0.8914453125 -0.494863 -0.3689297
0.89259375 -0.5579799 -0.1460597
0.8937421875 -0.5361146 0.06437581
0.894890625 -0.4475958 0.2368566
0.8960390625 -0.3155775 0.3570835
0.8971875 -0.1618844 0.4200179
0.8983359375 -0.007005821 0.4270561
0.899484375 0.132476 0.3842676
0.9006328125 0.2437844 0.3023848
0.90178125 0.3178005 0.193788
0.9029296875 0.3505 0.0726306
0.904078125 0.3418389 -0.04728317
0.9052265625 0.2959633 -0.1537279
0.906375 0.2206579 -0.2360275
0.9075234375 0.1256992 -0.2875445
0.908671875 0.02254464 -0.3047595
0.9098203125 -0.07759503 -0.2880145
0.91096875 -0.1647955 -0.2411099
0.9121171875 -0.2305471 -0.1704133
0.913265625 -0.2695762 -0.08402922
0.9144140625 -0.2788952 0.008662091
0.9155625 -0.258708 0.09855704
0.9167109375 -0.2116347 0.1768261
0.917859375 -0.1423129 0.2362335
0.9190078125 -0.05786569 0.2707896
0.92015625 0.03425542 0.2773337
0.9213046875 0.124837 0.2542691
0.922453125 0.2051778 0.2024834
0.9236015625 0.26669 0.1261424
0.92475 0.301154 0.03100034
0.9258984375 0.3033962 -0.07401611
0.927046875 0.2700603 -0.1785592
0.9281953125 0.2006177 -0.2702931
0.92934375 0.09924901 -0.3369588
0.9304921875 -0.02554316 -0.3667786
0.931640625 -0.160958 -0.3511432
0.9327890625 -0.2905649 -0.2847075
0.9339375 -0.3948956 -0.1690001
0.9350859375 -0.4542242 -0.01228931
0.936234375 -0.4510255 0.1681294
0.9373828125 -0.3739233 0.3473378
0.93853125 -0.220812 0.4929328
0.9396796875 -0.006173103 0.5701105
0.940828125 0.2382508 0.5493528
0.9419765625 0.4635256 0.417369
0.943125 0.6146099 0.1876744
0.9442734375 0.6459605 -0.0942666
0.945421875 0.5442185 -0.3618233
0.9465703125 0.3343466 -0.5509634
0.94771875 0.0715632 -0.6230311
0.9488671875 -0.1828819 -0.5763924
0.950015625 -0.3804794 -0.4357344
0.9511640625 -0.4958543 -0.241782
0.9523125 -0.523646 -0.03402198
0.9534609375 -0.4748013 0.1546454
0.954609375 -0.3680814 0.3014644
0.9557578125 -0.2257322 0.394229
0.95690625 -0.06993668 0.4291147
0.9580546875 0.07966055 0.4093431
0.959203125 0.206586 0.3437526
0.9603515625 0.2995271 0.2443065
0.9615 0.3517337 0.1254903
0.9626484375 0.3616223 0.001417517
0.963796875 0.3316146 -0.1140653
0.9649453125 0.2687547 -0.2102463
0.96609375 0.1814811 -0.2786424
0.9672421875 0.08039657 -0.3144404
0.968390625 -0.02361083 -0.3169901
0.9695390625 -0.1204229 -0.2878378
0.9706875 -0.2016952 -0.231638
0.9718359375 -0.2606914 -0.1548491
0.972984375 -0.2932328 -0.06551003
0.9741328125 -0.2971547 0.02841084
0.97528125 -0.2729817 0.1186222
0.9764296875 -0.22296 0.1970506
0.977578125 -0.1518689 0.2572776
0.9787265625 -0.06562036 0.2934314
0.979875 0.02851394 0.3022721
0.9810234375 0.1222749 0.2822207
0.982171875 0.2072279 0.2339612
0.9833203125 0.2744696 0.1606935
0.98446875 0.3174191 0.06798803
0.9856171875 0.3302597 -0.03594749
0.986765625 0.3094341 -0.1416982
0.9879140625 0.2550742 -0.2387812
0.9890625 0.1704975 -0.3163263
0.9902109375 0.0620679 -0.3649202
0.991359375 -0.06035065 -0.3773086
0.9925078125 -0.1848059 -0.3490244
0.99365625 -0.298675 -0.2799119
0.9948046875 -0.3875197 -0.1738012
0.995953125 -0.4405092 -0.03832989
