# GHZ S RI R 50.0
0.3 -2.481625 0.6952562
0.3011484375 -1.79908 1.473992
0.302296875 -0.9899858 1.838636
0.3034453125 -0.2323574 1.859665
0.30459375 0.3784739 1.643748
0.3057421875 0.8142883 1.291269
0.306890625 1.07699 0.8816245
0.3080390625 1.190693 0.4678898
0.3091875 1.183939 0.08386966
0.3103359375 1.082923 -0.2488278
0.311484375 0.9116706 -0.5204007
0.3126328125 0.6915792 -0.7242811
0.31378125 0.4391915 -0.8576089
0.3149296875 0.1701082 -0.9196382
0.316078125 -0.09816083 -0.9086942
0.3172265625 -0.3521905 -0.8271798
0.318375 -0.5744488 -0.6796552
0.3195234375 -0.747321 -0.4726434
0.320671875 -0.8520296 -0.2207194
0.3218203125 -0.874106 0.05401573
0.32296875 -0.8065515 0.3249925
0.3241171875 -0.6542346 0.5584143
0.325265625 -0.4341996 0.7273055
0.3264140625 -0.1754918 0.8112964
0.3275625 0.08876946 0.8049755
0.3287109375 0.3265242 0.7163643
0.329859375 0.5154767 0.564298
0.3310078125 0.6430281 0.3706169
0.33215625 0.7041904 0.1592113
0.3333046875 0.7031612 -0.0513563
0.334453125 0.646847 -0.2467032
0.3356015625 0.5424562 -0.4149888
0.33675 0.401248 -0.5477825
0.3378984375 0.2313946 -0.6386184
0.339046875 0.04272195 -0.6835972
0.3401953125 -0.1547931 -0.678058
0.34134375 -0.3497737 -0.6190045
0.3424921875 -0.5294563 -0.505786
0.343640625 -0.6788722 -0.3386284
0.3447890625 -0.780643 -0.124162
0.3459375 -0.8171157 0.1280553
0.3470859375 -0.7713078 0.3986311
0.348234375 -0.6312059 0.6588134
0.3493828125 -0.3970513 0.8733943
0.35053125 -0.08109267 1.004154
0.3516796875 0.2839932 1.016821
0.352828125 0.65092 0.8906254
0.3539765625 0.9652454 0.6253535
0.355125 1.170996 0.2467902
0.3562734375 1.227753 -0.2045261
0.357421875 1.108087 -0.6705467
0.3585703125 0.8057384 -1.082161
0.35971875 0.3389388 -1.362656
0.3608671875 -0.2381602 -1.438663
0.362015625 -0.8324865 -1.253971
0.3631640625 -1.309897 -0.8023739
0.3643125 -1.533882 -0.160211
0.3654609375 -1.427359 0.5152452
0.366609375 -1.025764 1.043725
0.3677578125 -0.4584838 1.308943
0.36890625 0.1155996 1.293534
0.3700546875 0.5841473 1.059238
0.371203125 0.8842799 0.6941485
0.3723515625 1.008475 0.281661
0.3735 0.9714272 -0.1115438
0.3746484375 0.8052827 -0.4369142
0.375796875 0.5500174 -0.6620051
0.3769453125 0.2501955 -0.7708976
0.37809375 -0.05004757 -0.7625041
0.3792421875 -0.3096443 -0.6506386
0.380390625 -0.4974923 -0.463271
0.3815390625 -0.5963903 -0.2355552
0.3826875 -0.6052435 -0.003665596
0.3838359375 -0.5359063 0.2019579
0.384984375 -0.4081031 0.3593141
0.3861328125 -0.24471 0.4569975
0.38728125 -0.06924701 0.4927025
0.3884296875 0.100309 0.4707159
0.389578125 0.247104 0.3992148
0.3907265625 0.3611171 0.2884645
0.391875 0.4346214 0.1495095
0.3930234375 0.4620709 -0.004159829
0.394171875 0.4409432 -0.1607513
0.3953203125 0.3712371 -0.307479
0.39646875 0.2548731 -0.4308062
0.3976171875 0.09720434 -0.5163595
0.398765625 -0.09244102 -0.5493403
0.3999140625 -0.2990037 -0.5155119
0.4010625 -0.4995894 -0.4045038
0.4022109375 -0.6660444 -0.2115343
0.403359375 -0.7620483 0.05712558
0.4045078125 -0.7496316 0.3782772
0.40565625 -0.596064 0.7079663
0.4068046875 -0.2858261 0.9808679
0.407953125 0.1658103 1.115364
0.4091015625 0.6950443 1.026804
0.41025 1.1809 0.6607523
0.4113984375 1.453776 0.03560459
0.412546875 1.355996 -0.7000389
0.4136953125 0.8549912 -1.295084
0.41484375 0.1160725 -1.517224
0.4159921875 -0.5824474 -1.323077
0.417140625 -1.032971 -0.855841
0.4182890625 -1.189873 -0.3104644
0.4194375 -1.1104 0.1736241
0.4205859375 -0.8815551 0.5328773
0.421734375 -0.5803388 0.7518098
0.4228828125 -0.2625972 0.8432819
0.42403125 0.03622662 0.827296
0.4251796875 0.2919814 0.7265745
0.426328125 0.4894564 0.5635064
0.4274765625 0.6200278 0.3590494
0.428625 0.6784706 0.134702
0.4297734375 0.6651443 -0.08841003
0.430921875 0.5847464 -0.2905041
0.4320703125 0.4478979 -0.4524504
0.43321875 0.2703503 -0.5591359
0.4343671875 0.07305174 -0.6017892
0.435515625 -0.1219493 -0.5783975
0.4366640625 -0.2936773 -0.4950739
0.4378125 -0.4240861 -0.3658466
0.4389609375 -0.5033333 -0.2077073
0.440109375 -0.5279339 -0.03956141
0.4412578125 -0.5008264 0.1208902
0.44240625 -0.4298192 0.260288
0.4435546875 -0.3247146 0.3684747
0.444703125 -0.1979979 0.4392208
0.4458515625 -0.06026846 0.4706646
0.447 0.07799403 0.4631116
0.4481484375 0.2066969 0.4185641
0.449296875 0.3178807 0.3412678
0.4504453125 0.4043282 0.2366376
0.45159375 0.4593703 0.1114422
0.4527421875 0.4784814 -0.02654082
0.453890625 0.457946 -0.1678111
0.4550390625 0.3968447 -0.3012516
0.4561875 0.2965116 -0.4154752
0.4573359375 0.1619658 -0.4982517
0.458484375 0.002774328 -0.5384503
0.4596328125 -0.1673772 -0.5278416
0.46078125 -0.3316718 -0.4621387
0.4619296875 -0.4714079 -0.344004
0.463078125 -0.5692999 -0.1831706
0.4642265625 -0.6114808 0.005033241
0.465375 -0.5917023 0.2007481
0.4665234375 -0.5097459 0.3835694
0.467671875 -0.3731452 0.5343832
0.4688203125 -0.193941 0.6376476
0.46996875 0.0117125 0.6828595
0.4711171875 0.2261379 0.6648288
0.472265625 0.4317282 0.582743
0.4734140625 0.6110953 0.4388494
0.4745625 0.7475045 0.2413578
0.4757109375 0.8249363 4.903571E-05
0.476859375 0.8288853 -0.2712971
0.4780078125 0.746406 -0.5526044
0.47915625 0.5665809 -0.8176118
0.4803046875 0.2860491 -1.033137
0.481453125 -0.08885198 -1.157956
0.4826015625 -0.53336 -1.146095
0.48375 -0.9974821 -0.9503687
0.4848984375 -1.398995 -0.5425387
0.486046875 -1.624378 0.06524551
0.4871953125 -1.552988 0.7889287
0.48834375 -1.118279 1.455213
0.4894921875 -0.3686901 1.85133
0.490640625 0.4991142 1.82434
0.4917890625 1.225666 1.379015
0.4929375 1.621639 0.6776485
0.4940859375 1.644658 -0.05974019
0.495234375 1.372279 -0.6645311
0.4963828125 0.9302276 -1.050501
0.49753125 0.4358819 -1.212996
0.4986796875 -0.02396728 -1.185993
0.499828125 -0.3990081 -1.019999
0.5009765625 -0.6664674 -0.7667426
0.502125 -0.8217831 -0.4714331
0.5032734375 -0.872591 -0.170664
0.504421875 -0.8324746 0.1083119
0.5055703125 -0.71865 0.3456101
0.50671875 -0.5493386 0.5284692
0.5078671875 -0.3447417 0.6464826
0.509015625 -0.1230453 0.6967174
0.5101640625 0.0962203 0.6795895
0.5113125 0.2949016 0.5997344
0.5124609375 0.4568395 0.4664397
0.513609375 0.5680968 0.2935018
0.5147578125 0.6199681 0.09718466
0.51590625 0.6078349 -0.1025492
0.5170546875 0.5341736 -0.2856075
0.518203125 0.408432 -0.4333138
0.5193515625 0.2449563 -0.5317598
0.5205 0.06209408 -0.5723463
0.5216484375 -0.1203755 -0.5535703
0.522796875 -0.2844083 -0.4801185
0.5239453125 -0.4155329 -0.3617355
0.52509375 -0.5022387 -0.2113037
0.5262421875 -0.5394371 -0.04431941
0.527390625 -0.5245751 0.1245778
0.5285390625 -0.4607631 0.2811814
0.5296875 -0.3531952 0.4127518
0.5308359375 -0.2101943 0.5077592
0.531984375 -0.04205751 0.5575014
0.5331328125 0.138074 0.5552833
0.53428125 0.316163 0.4972943
0.5354296875 0.4757266 0.3831056
0.536578125 0.5991758 0.2164762
0.5377265625 0.668916 0.006227084
0.538875 0.667642 -0.232215
0.5400234375 0.5805826 -0.4764592
0.541171875 0.400599 -0.6966541
0.5423203125 0.1284728 -0.8546956
0.54346875 -0.2197103 -0.9083261
0.5446171875 -0.60375 -0.8151516
0.545765625 -0.9613439 -0.5431399
0.5469140625 -1.197139 -0.08823671
0.5480625 -1.197964 0.4947991
0.5492109375 -0.8755569 1.064529
0.550359375 -0.2493961 1.405966
0.5515078125 0.4888537 1.34326
0.55265625 1.05233 0.887907
0.5538046875 1.261341 0.2520123
0.554953125 1.130689 -0.3263569
0.5561015625 0.7930115 -0.7140784
0.55725 0.3853236 -0.886529
0.5583984375 0.002122758 -0.8794815
0.559546875 -0.3065814 -0.7458379
0.5606953125 -0.5190031 -0.5352485
0.56184375 -0.6327528 -0.2897282
0.5629921875 -0.6535743 -0.04270838
0.564140625 -0.5954391 0.1806836
0.5652890625 -0.4736401 0.3605492
0.5664375 -0.3076943 0.4838268
0.5675859375 -0.1184004 0.5431849
0.568734375 0.07352057 0.5366138
0.5698828125 0.2473762 0.4686749
0.57103125 0.3851665 0.3497697
0.5721796875 0.4739827 0.194981
0.573328125 0.5052984 0.02265136
0.5744765625 0.4785907 -0.147068
0.575625 0.3986637 -0.2962507
0.5767734375 0.2763777 -0.4097331
0.577921875 0.1260877 -0.476572
0.5790703125 -0.03629414 -0.4920799
0.58021875 -0.1943631 -0.4558649
0.5813671875 -0.3332873 -0.3726551
0.582515625 -0.4405028 -0.2503525
0.5836640625 -0.5062193 -0.09936198
0.5848125 -0.523876 0.06733322
0.5859609375 -0.4900914 0.2361051
0.587109375 -0.4041917 0.3921806
0.5882578125 -0.269775 0.5207884
0.58940625 -0.09416983 0.6069415
0.5905546875 0.1112859 0.6371392
0.591703125 0.3305237 0.6001774
0.5928515625 0.5427474 0.4880152
0.594 0.721841 0.2986161
0.5951484375 0.8394912 0.03819982
0.596296875 0.8642289 -0.2758038
0.5974453125 0.7692541 -0.6130539
0.59859375 0.5361042 -0.9249704
0.5997421875 0.1614348 -1.152306
0.600890625 -0.3262322 -1.222914
0.6020390625 -0.8594006 -1.069186
0.6031875 -1.321112 -0.6543404
0.6043359375 -1.561762 -0.01312221
0.605484375 -1.452941 0.7148703
0.6066328125 -0.9776698 1.309502
0.60778125 -0.272929 1.57866
0.6089296875 0.4334118 1.468701
0.610078125 0.9543136 1.072482
0.6112265625 1.212403 0.5469794
0.612375 1.226318 0.02929305
0.6135234375 1.058372 -0.3965383
0.614671875 0.7811092 -0.6932245
0.6158203125 0.4556913 -0.8558682
0.61696875 0.1290673 -0.8953961
0.6181171875 -0.164947 -0.8325304
0.619265625 -0.4043375 -0.6912146
0.6204140625 -0.574696 -0.4963259
0.6215625 -0.67036 -0.2720416
0.6227109375 -0.6903688 -0.04222995
0.623859375 -0.641241 0.1718288
0.6250078125 -0.5326874 0.3521555
0.62615625 -0.3802216 0.4840867
0.6273046875 -0.2014094 0.5589354
0.628453125 -0.01550225 0.5739815
0.6296015625 0.1586381 0.5324106
0.63075 0.3060963 0.4425879
0.6318984375 0.4145733 0.3166332
0.633046875 0.4771934 0.1691927
0.6341953125 0.4919449 0.01554276
0.63534375 0.4612998 -0.1301463
0.6364921875 0.3916182 -0.2563059
0.637640625 0.2911843 -0.3535742
0.6387890625 0.1702335 -0.4158225
0.6399375 0.03941504 -0.4405304
0.6410859375 -0.09050618 -0.4274158
0.642234375 -0.2099324 -0.3786634
0.6433828125 -0.3099022 -0.2989883
0.64453125 -0.382942 -0.1945815
0.6456796875 -0.423678 -0.07354987
0.646828125 -0.42836 0.05482055
0.6479765625 -0.3956115 0.1800965
0.649125 -0.3270363 0.2922226
0.6502734375 -0.2274344 0.3808375
0.651421875 -0.1037856 0.4374534
0.6525703125 0.03363656 0.4549672
0.65371875 0.1729992 0.4299025
0.6548671875 0.3010181 0.362484
0.656015625 0.4046679 0.2574323
0.6571640625 0.4727256 0.1227002
0.6583125 0.496864 -0.02921525
0.6594609375 0.4731901 -0.1847265
0.660609375 0.4014486 -0.3285878
0.6617578125 0.2869323 -0.4470346
0.66290625 0.1381433 -0.5269542
0.6640546875 -0.03262923 -0.5591529
0.665203125 -0.2111044 -0.5379249
0.6663515625 -0.3814678 -0.4609172
0.6675 -0.5261967 -0.3311879
0.6686484375 -0.6301327 -0.1545392
0.669796875 -0.6778657 0.05672228
0.6709453125 -0.6563663 0.2867516
0.67209375 -0.5569304 0.5139776
0.6732421875 -0.375729 0.7125117
0.674390625 -0.1177129 0.851896
0.6755390625 0.2009116 0.898331
0.6766875 0.5490079 0.8217993
0.6778359375 0.8749872 0.6012265
0.678984375 1.114231 0.2344977
0.6801328125 1.190642 -0.2443691
0.68128125 1.041247 -0.7554446
0.6824296875 0.6470419 -1.177244
0.683578125 0.07213478 -1.376103
0.6847265625 -0.5450172 -1.272268
0.685875 -1.031109 -0.8849011
0.6870234375 -1.263655 -0.3346511
0.688171875 -1.216966 0.2198178
0.6893203125 -0.9529404 0.6547072
0.69046875 -0.5706484 0.9095749
0.6916171875 -0.1638996 0.9803219
0.692765625 0.1971374 0.8991095
0.6939140625 0.4730369 0.7117409
0.6950625 0.6467587 0.464032
0.6962109375 0.7183339 0.1968105
0.697359375 0.6984482 -0.05705165
0.6985078125 0.6033048 -0.2738616
0.69965625 0.4531815 -0.437129
0.7008046875 0.2694171 -0.5380325
0.701953125 0.072892 -0.5731301
0.7031015625 -0.1163674 -0.545083
0.70425 -0.2812578 -0.4608657
0.7053984375 -0.4065585 -0.3325383
0.706546875 -0.4823593 -0.1746802
0.7076953125 -0.502597 -0.004251158
0.70884375 -0.4669261 0.160851
0.7099921875 -0.3812025 0.3032335
0.711140625 -0.2545421 0.408739
0.7122890625 -0.1017673 0.4662005
0.7134375 0.0604878 0.4709219
0.7145859375 0.2148741 0.4223938
0.715734375 0.3450454 0.325832
0.7168828125 0.4370018 0.1915734
0.71803125 0.4807365 0.03255084
0.7191796875 0.4702906 -0.1336464
0.720328125 0.4048309 -0.2910939
0.7214765625 0.2885155 -0.4224542
0.722625 0.1297746 -0.5115116
0.7237734375 -0.05711377 -0.5448071
0.724921875 -0.2551184 -0.512449
0.7260703125 -0.4418535 -0.4088058
0.72721875 -0.5921274 -0.2352515
0.7283671875 -0.6782109 -0.001368885
0.729515625 -0.672995 0.2711236
0.7306640625 -0.5546941 0.5474112
0.7318125 -0.3135758 0.7778141
0.7329609375 0.03579568 0.9016193
0.734109375 0.4441415 0.8571954
0.7352578125 0.8223746 0.6098675
0.73640625 1.053424 0.1827041
0.7375546875 1.044755 -0.3278522
0.738703125 0.7783054 -0.7721362
0.7398515625 0.3342063 -1.021155
0.741 -0.1473471 -1.022692
0.7421484375 -0.5442742 -0.8151498
0.743296875 -0.7842233 -0.4841525
0.7444453125 -0.855002 -0.1207677
0.74559375 -0.7814584 0.2063345
0.7467421875 -0.60686 0.4532973
0.747890625 -0.3761803 0.6047825
0.7490390625 -0.1238627 0.6345441
0.7501875 0.09908374 0.6056048
0.7513359375 0.2859557 0.5108842
0.752484375 0.4228802 0.3692556
0.7536328125 0.5026714 0.200573
0.75478125 0.5237942 0.02370662
0.7559296875 0.4897007 -0.1443427
0.757078125 0.4072116 -0.2886339
0.7582265625 0.2869896 -0.3968758
0.759375 0.1421323 -0.4611839
0.7605234375 -0.01305205 -0.4770477
0.761671875 -0.1634549 -0.4438497
0.7628203125 -0.2947711 -0.3658628
0.76396875 -0.3944502 -0.2512472
0.7651171875 -0.4530144 -0.1119631
0.766265625 -0.464554 0.03801605
0.7674140625 -0.4286716 0.1842411
0.7685625 -0.3489479 0.3113217
0.7697109375 -0.2336092 0.4074177
0.770859375 -0.09350204 0.4630272
0.7720078125 0.05738815 0.4727226
0.77315625 0.2048712 0.4351576
0.7743046875 0.3354374 0.3536828
0.775453125 0.4361401 0.2347625
0.7766015625 0.4972395 0.08812491
0.77775 0.5116138 -0.07374588
0.7788984375 0.4747134 -0.2369165
0.780046875 0.3872766 -0.3860101
0.7811953125 0.2533048 -0.5062237
0.78234375 0.08095066 -0.5820357
0.7834921875 -0.1164709 -0.6014096
0.784640625 -0.3210238 -0.554647
0.7857890625 -0.5108348 -0.4373041
0.7869375 -0.6605027 -0.2516439
0.7880859375 -0.7444495 -0.01049762
0.789234375 -0.7396255 0.2640828
0.7903828125 -0.6291885 0.5391415
0.79153125 -0.4094054 0.7709421
0.7926796875 -0.09656522 0.9127098
0.793828125 0.2713589 0.9202297
0.7949765625 0.6327763 0.7702712
0.796125 0.9119645 0.4677658
0.7972734375 1.040831 0.06132028
0.798421875 0.9799779 -0.3685309
0.7995703125 0.7380515 -0.7277976
0.80071875 0.3726581 -0.9407886
0.8018671875 -0.03122974 -0.9760355
0.803015625 -0.3914202 -0.8474087
0.8041640625 -0.6498188 -0.6019713
0.8053125 -0.7815827 -0.2994488
0.8064609375 -0.788944 0.004107777
0.807609375 -0.6941901 0.2673688
0.8087578125 -0.5268264 0.4638731
0.80990625 -0.3184434 0.5821778
0.8110546875 -0.09907028 0.6206113
0.812203125 0.1068811 0.5876906
0.8133515625 0.2799028 0.4955131
0.8145 0.4069766 0.3607053
0.8156484375 0.4807899 0.2011252
0.816796875 0.4990403 0.03456431
0.8179453125 0.4653531 -0.1223513
0.81909375 0.3875123 -0.2546586
0.8202421875 0.2763623 -0.3518116
0.821390625 0.1457619 -0.4068864
0.8225390625 0.009827618 -0.4180908
0.8236875 -0.1180741 -0.3875574
0.8248359375 -0.2260833 -0.3212962
0.825984375 -0.3055098 -0.2284323
0.8271328125 -0.3514234 -0.1193615
0.82828125 -0.3615212 -0.005422386
0.8294296875 -0.337833 0.1029297
0.830578125 -0.2841629 0.1966964
0.8317265625 -0.2072846 0.2684653
0.832875 -0.1144448 0.3134798
0.8340234375 -0.01432665 0.3291692
0.835171875 0.08486326 0.3149208
0.8363203125 0.1747968 0.2727622
0.83746875 0.248164 0.2066796
0.8386171875 0.2988829 0.1217508
0.839765625 0.3228177 0.02523457
0.8409140625 0.316621 -0.07495752
0.8420625 0.2806364 -0.1698873
0.8432109375 0.2169371 -0.2509167
0.844359375 0.1298245 -0.3097092
0.8455078125 0.026811 -0.339745
0.84665625 -0.08269434 -0.3364103
0.8478046875 -0.1882586 -0.298273
0.848953125 -0.2787628 -0.2273156
0.8501015625 -0.344152 -0.1288042
0.85125 -0.3756368 -0.01147519
0.8523984375 -0.3681649 0.113261
0.853546875 -0.3200432 0.2329003
0.8546953125 -0.2334084 0.3344599
0.85584375 -0.1143084 0.405698
0.8569921875 0.02744153 0.4362411
0.858140625 0.1786588 0.4185135
0.8592890625 0.323817 0.3490359
0.8604375 0.4454598 0.2278081
0.8615859375 0.5248421 0.06112461
0.862734375 0.5431757 -0.1380454
0.8638828125 0.4840019 -0.3488583
0.86503125 0.3374642 -0.5404477
0.8661796875 0.1055199 -0.6720057
0.867328125 -0.188754 -0.6989169
0.8684765625 -0.4926104 -0.5848619
0.869625 -0.7280365 -0.3232467
0.8707734375 -0.8132159 0.03841127
0.871921875 -0.7068318 0.4034392
0.8730703125 -0.4368888 0.6631153
0.87421875 -0.09214693 0.7539749
0.8753671875 0.2299218 0.6776208
0.876515625 0.4599894 0.4832274
0.8776640625 0.5718859 0.2357112
0.8788125 0.5724685 -0.008189519
0.8799609375 0.4867094 -0.2102781
0.881109375 0.3459324 -0.3498422
0.8822578125 0.1807832 -0.4208232
0.88340625 0.01675836 -0.4278055
0.8845546875 -0.1267148 -0.3814792
0.885703125 -0.236839 -0.2961917
0.8868515625 -0.3073284 -0.1869764
0.888 -0.3361934 -0.0685776
0.8891484375 -0.3254104 0.04613302
0.890296875 -0.2809269 0.1462518
0.8914453125 -0.2100173 0.2236796
0.89259375 -0.1213835 0.2731275
0.8937421875 -0.02450038 0.2916062
0.894890625 0.07110968 0.2789122
0.8960390625 0.156789 0.2375467
0.8971875 0.2241925 0.1717552
0.8983359375 0.2674664 0.08865804
0.899484375 0.2818725 -0.004068158
0.9006328125 0.2660519 -0.09691407
0.90178125 0.2207844 -0.1803942
0.9029296875 0.1503817 -0.2457499
0.904078125 0.06133929 -0.2852633
0.9052265625 -0.03719966 -0.2938866
0.906375 -0.134765 -0.2696891
0.9075234375 -0.2211156 -0.2137372
0.908671875 -0.2857051 -0.1312485
0.9098203125 -0.3209353 -0.02962998
0.91096875 -0.3211358 0.08104704
0.9121171875 -0.2844419 0.188608
0.913265625 -0.2124573 0.2821679
0.9144140625 -0.1100612 0.3496478
0.9155625 0.01397123 0.3815869
0.9167109375 0.1484711 0.3710377
0.917859375 0.279075 0.3135428
0.9190078125 0.3899783 0.2094562
0.92015625 0.4644471 0.0643511
0.9213046875 0.485799 -0.1103798
0.922453125 0.4408073 -0.2961907
0.9236015625 0.3209563 -0.4671717
0.92475 0.1294445 -0.5914243
0.9258984375 -0.1171187 -0.6344076
0.927046875 -0.3816361 -0.5676072
0.9281953125 -0.6103216 -0.3815386
0.92934375 -0.7421027 -0.09602753
0.9304921875 -0.7310666 0.2325503
0.931640625 -0.5673845 0.5258362
0.9327890625 -0.2883578 0.7107677
0.9339375 0.03486357 0.7481515
0.9350859375 0.326532 0.6441499
0.936234375 0.5316669 0.4388742
0.9373828125 0.6266694 0.186857
0.93853125 0.6154051 -0.0609685
0.9396796875 0.5186118 -0.2675108
0.940828125 0.3662471 -0.4116831
0.9419765625 0.1874995 -0.4859357
0.943125 0.008596625 -0.4934033
0.9442734375 -0.1506208 -0.4445107
0.945421875 -0.2761291 -0.3520058
0.9465703125 -0.3604284 -0.2318067
0.94771875 -0.3998228 -0.09857371
0.9488671875 -0.3960172 0.03372412
0.950015625 -0.353112 0.1531643
0.9511640625 -0.2784483 0.2499396
0.9523125 -0.1809238 0.3169476
0.9534609375 -0.07044412 0.349764
0.954609375 0.04209946 0.3478928
0.9557578125 0.1464034 0.3119448
0.95690625 0.2332931 0.2467312
0.9580546875 0.295195 0.1592533
0.959203125 0.3268084 0.05833559
0.9603515625 0.3255612 -0.04630822
0.9615 0.292466 -0.1444269
0.9626484375 0.2313468 -0.2268756
0.963796875 0.1484482 -0.2860158
0.9649453125 0.05198262 -0.3167733
0.96609375 -0.04845897 -0.3164712
0.9672421875 -0.1438622 -0.2856894
0.968390625 -0.2251083 -0.2277688
0.9695390625 -0.2850127 -0.1481194
0.9706875 -0.3186054 -0.05405267
0.9718359375 -0.3224358 0.04662336
0.972984375 -0.2961285 0.1445231
0.9741328125 -0.2410175 0.2315502
0.97528125 -0.1613143 0.2995127
0.9764296875 -0.06296593 0.3417542
0.977578125 0.04645298 0.3529316
0.9787265625 0.1576662 0.3303286
0.979875 0.2607965 0.2731059
0.9810234375 0.3449209 0.1838512
0.982171875 0.4002873 0.06774627
0.9833203125 0.4175232 -0.06617564
0.98446875 0.3907629 -0.2063013
0.9856171875 0.3165212 -0.338094
0.986765625 0.1960724 -0.4451521
0.9879140625 0.0372938 -0.5109295
0.9890625 -0.1467158 -0.520414
0.9902109375 -0.3362812 -0.4622965
0.991359375 -0.5059451 -0.3320451
0.9925078125 -0.626862 -0.1350901
0.99365625 -0.6699834 0.1118463
0.9948046875 -0.611067 0.3770747
0.995953125 -0.4391899 0.615579
