# GHZ S RI R 50.0
0.3 -2.564084 0.4064725
0.3011484375 -1.97267 1.290171
0.302296875 -1.186115 1.763084
0.3034453125 -0.4100863 1.865661
0.30459375 0.2425285 1.703264
0.3057421875 0.7225563 1.379818
0.306890625 1.027564 0.9788038
0.3080390625 1.176238 0.5613024
0.3091875 1.196045 0.1667589
0.3103359375 1.114586 -0.1819714
0.311484375 0.9567011 -0.4694079
0.3126328125 0.7440107 -0.6907122
0.31378125 0.4943683 -0.841523
0.3149296875 0.2258295 -0.91883
0.316078125 -0.04844293 -0.9222881
0.3172265625 -0.3089283 -0.8532087
0.318375 -0.5407358 -0.7153334
0.3195234375 -0.7256929 -0.5153303
0.320671875 -0.8433909 -0.2679853
0.3218203125 -0.8793181 0.007703216
0.32296875 -0.8248162 0.2824033
0.3241171875 -0.6834039 0.5250289
0.325265625 -0.4717323 0.7039178
0.3264140625 -0.2179894 0.8001165
0.3275625 0.04591332 0.8064231
0.3287109375 0.2863932 0.7298329
0.329859375 0.4817189 0.5886111
0.3310078125 0.6173103 0.4033143
0.33215625 0.6885712 0.1967805
0.3333046875 0.6981772 -0.01136607
0.334453125 0.6523718 -0.2065465
0.3356015625 0.5589036 -0.3768234
0.33675 0.4271615 -0.5145124
0.3378984375 0.2660678 -0.6124734
0.339046875 0.08442559 -0.6662126
0.3401953125 -0.1081161 -0.6715583
0.34134375 -0.2994708 -0.6256692
0.3424921875 -0.4789215 -0.526897
0.343640625 -0.6321753 -0.3759131
0.3447890625 -0.7428951 -0.1766047
0.3459375 -0.7937557 0.06007198
0.3470859375 -0.7685865 0.3186127
0.348234375 -0.6557513 0.5722011
0.3493828125 -0.4530042 0.7895634
0.35053125 -0.1713747 0.9346651
0.3516796875 0.1615716 0.9759371
0.352828125 0.5054912 0.8944983
0.3539765625 0.8111106 0.68796
0.355125 1.032413 0.3742629
0.3562734375 1.13319 -0.01087351
0.357421875 1.091362 -0.4237945
0.3585703125 0.8990225 -0.8122848
0.35971875 0.5641173 -1.123093
0.3608671875 0.1162708 -1.300725
0.362015625 -0.3996495 -1.297735
0.3631640625 -0.9046782 -1.078886
0.3643125 -1.299091 -0.6465315
0.3654609375 -1.47822 -0.05608222
0.366609375 -1.371734 0.5712203
0.3677578125 -0.9889103 1.083588
0.36890625 -0.4271515 1.358121
0.3700546875 0.1669141 1.352542
0.371203125 0.6646351 1.105983
0.3723515625 0.9882649 0.7061207
0.3735 1.112947 0.2480611
0.3746484375 1.052723 -0.1861569
0.375796875 0.8468363 -0.5355725
0.3769453125 0.5463796 -0.7633595
0.37809375 0.2080314 -0.8538499
0.3792421875 -0.1152646 -0.8142717
0.380390625 -0.3794569 -0.6682416
0.3815390625 -0.5567577 -0.4522729
0.3826875 -0.636501 -0.2073066
0.3838359375 -0.6247357 0.02927079
0.384984375 -0.538628 0.229898
0.3861328125 -0.4008677 0.3772168
0.38728125 -0.2352855 0.4637922
0.3884296875 -0.06261875 0.4906094
0.389578125 0.1000664 0.4628749
0.3907265625 0.2390224 0.3901014
0.391875 0.3454741 0.2819839
0.3930234375 0.4123051 0.1502017
0.394171875 0.4358953 0.005598231
0.3953203125 0.4144205 -0.1400223
0.39646875 0.3485058 -0.2741174
0.3976171875 0.2409608 -0.3853019
0.398765625 0.09738182 -0.4593821
0.3999140625 -0.07095191 -0.4846079
0.4010625 -0.249657 -0.4500886
0.4022109375 -0.4181523 -0.3495325
0.403359375 -0.5509633 -0.1828735
0.4045078125 -0.62033 0.03797768
0.40565625 -0.6012086 0.2910262
0.4068046875 -0.4766019 0.5388082
0.407953125 -0.2447105 0.7371268
0.4091015625 0.07561456 0.8365027
0.41025 0.4433562 0.7943747
0.4113984375 0.7953724 0.5828978
0.412546875 1.047418 0.2039029
0.4136953125 1.110052 -0.2987458
0.41484375 0.9090282 -0.8217892
0.4159921875 0.4406032 -1.2039
0.417140625 -0.1863891 -1.293685
0.4182890625 -0.7673147 -1.041323
0.4194375 -1.117407 -0.5492535
0.4205859375 -1.175777 0.00122301
0.421734375 -0.9944166 0.4624884
0.4228828125 -0.6757758 0.7642919
0.42403125 -0.3093922 0.8989817
0.4251796875 0.04057933 0.889475
0.426328125 0.3360916 0.7692716
0.4274765625 0.5534077 0.5725142
0.428625 0.6844379 0.3314018
0.4297734375 0.7256961 0.07537428
0.430921875 0.6828228 -0.1683058
0.4320703125 0.5663558 -0.3752629
0.43321875 0.394414 -0.5258328
0.4343671875 0.1902206 -0.6074232
0.435515625 -0.02139271 -0.6158412
0.4366640625 -0.2156716 -0.5559798
0.4378125 -0.3722706 -0.4405345
0.4389609375 -0.4780899 -0.2875345
0.440109375 -0.5267783 -0.117427
0.4412578125 -0.5202104 0.0512206
0.44240625 -0.4651949 0.2023206
0.4435546875 -0.3718869 0.325109
0.444703125 -0.25177 0.4116716
0.4458515625 -0.1167038 0.4589143
0.447 0.02253509 0.4664027
0.4481484375 0.1558215 0.435778
0.449296875 0.2744374 0.3703392
0.4504453125 0.3702791 0.2754367
0.45159375 0.4370808 0.1570273
0.4527421875 0.4686733 0.0233828
0.453890625 0.4616904 -0.1168736
0.4550390625 0.414149 -0.2527865
0.4561875 0.3266917 -0.3729009
0.4573359375 0.2036602 -0.4648493
0.458484375 0.05324342 -0.5172933
0.4596328125 -0.1114786 -0.5210669
0.46078125 -0.2746294 -0.4718355
0.4619296875 -0.4178303 -0.3704752
0.463078125 -0.5238813 -0.2252153
0.4642265625 -0.5791237 -0.05018456
0.465375 -0.5760087 0.1365224
0.4665234375 -0.5130247 0.315358
0.467671875 -0.3969476 0.4666727
0.4688203125 -0.2380865 0.5770371
0.46996875 -0.05044185 0.6349343
0.4711171875 0.1483401 0.6344572
0.472265625 0.3421394 0.5752535
0.4734140625 0.516117 0.4592211
0.4745625 0.6548555 0.2923182
0.4757109375 0.7441995 0.08297549
0.476859375 0.7707124 -0.1561331
0.4780078125 0.7233767 -0.4092579
0.47915625 0.5937446 -0.6549394
0.4803046875 0.3768187 -0.8670178
0.481453125 0.07730221 -1.014056
0.4826015625 -0.2907949 -1.059563
0.48375 -0.6962826 -0.9674997
0.4848984375 -1.083361 -0.7078274
0.486046875 -1.377954 -0.2717162
0.4871953125 -1.48533 0.3096547
0.48834375 -1.320001 0.9478893
0.4894921875 -0.845755 1.493953
0.490640625 -0.123379 1.775115
0.4917890625 0.6749734 1.672982
0.4929375 1.324075 1.195705
0.4940859375 1.65306 0.4906999
0.495234375 1.618025 -0.2357922
0.4963828125 1.294245 -0.8147593
0.49753125 0.8118576 -1.164486
0.4986796875 0.2927379 -1.279622
0.499828125 -0.1743594 -1.200545
0.5009765625 -0.539902 -0.986059
0.502125 -0.7837902 -0.6928256
0.5032734375 -0.9064079 -0.3689401
0.504421875 -0.9184017 -0.05092983
0.5055703125 -0.8386385 0.2314692
0.50671875 -0.6874348 0.4615841
0.5078671875 -0.4854779 0.6255223
0.509015625 -0.2552177 0.717241
0.5101640625 -0.01741 0.7351455
0.5113125 0.2065339 0.6820505
0.5124609375 0.3985401 0.5670706
0.513609375 0.5426083 0.4025539
0.5147578125 0.6268436 0.2058938
0.51590625 0.6449931 -0.002879092
0.5170546875 0.5975593 -0.2024619
0.518203125 0.4915845 -0.3732282
0.5193515625 0.3404419 -0.4983449
0.5205 0.1622961 -0.5677079
0.5216484375 -0.02377143 -0.5771627
0.522796875 -0.1987139 -0.5300676
0.5239453125 -0.3465958 -0.4336594
0.52509375 -0.4556693 -0.3005252
0.5262421875 -0.5184096 -0.1441545
0.527390625 -0.531946 0.02075132
0.5285390625 -0.4965428 0.1801991
0.5296875 -0.4173028 0.3215083
0.5308359375 -0.3006644 0.433899
0.531984375 -0.1550048 0.5084593
0.5331328125 0.007488905 0.5378942
0.53428125 0.1754994 0.5183237
0.5354296875 0.3349444 0.4481058
0.536578125 0.4713601 0.3291951
0.5377265625 0.5690632 0.1680621
0.538875 0.6151041 -0.0247225
0.5400234375 0.5970945 -0.2338814
0.541171875 0.5073763 -0.4381694
0.5423203125 0.3457681 -0.6131973
0.54346875 0.1185184 -0.7318705
0.5446171875 -0.1552427 -0.7680746
0.545765625 -0.4467086 -0.7005197
0.5469140625 -0.7172471 -0.5164222
0.5480625 -0.9161432 -0.2198135
0.5492109375 -0.9920384 0.1670436
0.550359375 -0.8954651 0.5925562
0.5515078125 -0.5973725 0.9731082
0.55265625 -0.1151725 1.198941
0.5538046875 0.4605753 1.162633
0.554953125 0.9653962 0.824554
0.5561015625 1.225152 0.2674252
0.55725 1.161432 -0.324273
0.5583984375 0.8329161 -0.7701117
0.559546875 0.3807648 -0.9804503
0.5606953125 -0.06322305 -0.9664924
0.56184375 -0.415145 -0.7892466
0.5629921875 -0.638822 -0.5194266
0.564140625 -0.7323312 -0.2180443
0.5652890625 -0.709856 0.0679161
0.5664375 -0.5968927 0.3049183
0.5675859375 -0.4206232 0.4739099
0.568734375 -0.2102409 0.5646397
0.5698828125 0.005551522 0.5756797
0.57103125 0.2012625 0.5146605
0.5721796875 0.3565339 0.395584
0.573328125 0.4569007 0.2372398
0.5744765625 0.4958557 0.06165222
0.575625 0.4737661 -0.1102196
0.5767734375 0.3981086 -0.2595745
0.577921875 0.2811026 -0.3718166
0.5790703125 0.1378343 -0.4377038
0.58021875 -0.01520975 -0.4537037
0.5813671875 -0.162876 -0.4206373
0.582515625 -0.2909604 -0.3439943
0.5836640625 -0.3884585 -0.232035
0.5848125 -0.446985 -0.0951301
0.5859609375 -0.4610556 0.05450295
0.587109375 -0.4284642 0.2041478
0.5882578125 -0.3497109 0.3399639
0.58940625 -0.2292158 0.4490363
0.5905546875 -0.07413495 0.5189811
0.591703125 0.1026371 0.5382494
0.5928515625 0.2869498 0.4993817
0.594 0.4602309 0.3970187
0.5951484375 0.6007509 0.2340599
0.596296875 0.6860351 0.01810226
0.5974453125 0.6955836 -0.2336738
0.59859375 0.6117889 -0.4952166
0.5997421875 0.4262989 -0.7312902
0.600890625 0.1431128 -0.9014166
0.6020390625 -0.2169483 -0.9621623
0.6031875 -0.6127576 -0.8736453
0.6043359375 -0.979023 -0.6096413
0.605484375 -1.230108 -0.1740058
0.6066328125 -1.270979 0.3815719
0.60778125 -1.03417 0.9421464
0.6089296875 -0.5265386 1.346485
0.610078125 0.1349886 1.452929
0.6112265625 0.7561923 1.218874
0.612375 1.165556 0.7366599
0.6135234375 1.292 0.1662984
0.614671875 1.166872 -0.3470502
0.6158203125 0.8749161 -0.7197452
0.61696875 0.5040259 -0.9250077
0.6181171875 0.1257431 -0.9732608
0.619265625 -0.2110986 -0.8932946
0.6204140625 -0.4743235 -0.7198824
0.6215625 -0.6505486 -0.487675
0.6227109375 -0.7352632 -0.2298231
0.623859375 -0.7320573 0.02420607
0.6250078125 -0.6520608 0.2507134
0.62615625 -0.5121241 0.4284552
0.6273046875 -0.3318603 0.546705
0.628453125 -0.1338292 0.5988784
0.6296015625 0.06084788 0.586493
0.63075 0.2337919 0.5171812
0.6318984375 0.3699629 0.4026656
0.633046875 0.4602819 0.258715
0.6341953125 0.5003511 0.1011744
0.63534375 0.4915598 -0.05470387
0.6364921875 0.4390301 -0.1951842
0.637640625 0.3508621 -0.3097027
0.6387890625 0.2369535 -0.3909245
0.6399375 0.1081897 -0.434997
0.6410859375 -0.02457135 -0.4398941
0.642234375 -0.1511236 -0.4074131
0.6433828125 -0.2616753 -0.3418819
0.64453125 -0.3482784 -0.2483983
0.6456796875 -0.4049094 -0.134145
0.646828125 -0.4262515 -0.009145916
0.6479765625 -0.4110845 0.117788
0.649125 -0.3593171 0.2357344
0.6502734375 -0.2745381 0.3348133
0.651421875 -0.162745 0.4056228
0.6525703125 -0.03362511 0.440189
0.65371875 0.1025194 0.43442
0.6548671875 0.2325094 0.3873547
0.656015625 0.3440152 0.3016839
0.6571640625 0.4253876 0.1847214
0.6583125 0.4678182 0.04622382
0.6594609375 0.4663902 -0.1003964
0.660609375 0.4198547 -0.2421817
0.6617578125 0.3314457 -0.3650633
0.66290625 0.2079836 -0.4573855
0.6640546875 0.05971494 -0.5098595
0.665203125 -0.1013351 -0.515805
0.6663515625 -0.2609833 -0.4725643
0.6675 -0.4053615 -0.3812468
0.6686484375 -0.5203503 -0.2460451
0.669796875 -0.5930539 -0.0757836
0.6709453125 -0.6122286 0.1179145
0.67209375 -0.5689005 0.3196108
0.6732421875 -0.4599229 0.5089158
0.674390625 -0.2853795 0.6653876
0.6755390625 -0.05333492 0.765195
0.6766875 0.2195843 0.78505
0.6778359375 0.5063808 0.7055069
0.678984375 0.7708836 0.5149862
0.6801328125 0.9659911 0.2166265
0.68128125 1.043867 -0.1669465
0.6824296875 0.9591802 -0.5885293
0.683578125 0.689194 -0.9731238
0.6847265625 0.2471761 -1.228951
0.685875 -0.29591 -1.268165
0.6870234375 -0.8239471 -1.04612
0.688171875 -1.198001 -0.5941885
0.6893203125 -1.316416 -0.02372678
0.69046875 -1.163473 0.5177268
0.6916171875 -0.8049211 0.9080225
0.692765625 -0.349658 1.089153
0.6939140625 0.09688193 1.067031
0.6950625 0.4614181 0.8875859
0.6962109375 0.7057719 0.6117986
0.697359375 0.8213884 0.2969996
0.6985078125 0.818687 -0.01013831
0.69965625 0.7200294 -0.2752416
0.7008046875 0.5513481 -0.4768346
0.701953125 0.3403214 -0.6026487
0.7031015625 0.1128754 -0.6498663
0.70425 -0.1046161 -0.6227456
0.7053984375 -0.293091 -0.5310668
0.706546875 -0.4361391 -0.3897727
0.7076953125 -0.5222581 -0.2162043
0.70884375 -0.5471867 -0.03033214
0.7099921875 -0.5118808 0.1474243
0.711140625 -0.423159 0.3001816
0.7122890625 -0.2935587 0.4130376
0.7134375 -0.1379552 0.4764819
0.7145859375 0.02650964 0.4864286
0.715734375 0.1818192 0.4433607
0.7168828125 0.3132362 0.3541894
0.71803125 0.4083777 0.22949
0.7191796875 0.4581872 0.08195418
0.720328125 0.4590814 -0.07324237
0.7214765625 0.4107093 -0.2210914
0.722625 0.3169319 -0.3471662
0.7237734375 0.1859132 -0.4383125
0.724921875 0.02933895 -0.4841512
0.7260703125 -0.1388864 -0.4768695
0.72721875 -0.3016457 -0.4134397
0.7283671875 -0.4410074 -0.2944874
0.729515625 -0.5372945 -0.1272115
0.7306640625 -0.5734883 0.07515367
0.7318125 -0.5346184 0.2912702
0.7329609375 -0.4123411 0.4942994
0.734109375 -0.2080906 0.6511357
0.7352578125 0.06364663 0.725072
0.73640625 0.3679899 0.6831111
0.7375546875 0.6550958 0.5046542
0.738703125 0.8560553 0.193874
0.7398515625 0.9012915 -0.2053735
0.741 0.7460689 -0.6081632
0.7421484375 0.4015455 -0.9010574
0.743296875 -0.05242676 -0.9905466
0.7444453125 -0.4883365 -0.8473313
0.74559375 -0.7891425 -0.523833
0.7467421875 -0.8956821 -0.1233542
0.747890625 -0.817754 0.2505329
0.7490390625 -0.5837504 0.5084419
0.7501875 -0.3165123 0.6556367
0.7513359375 -0.04001215 0.6841503
0.752484375 0.2051228 0.6143236
0.7536328125 0.3925097 0.4725471
0.75478125 0.5097123 0.2881286
0.7559296875 0.5539243 0.0880488
0.757078125 0.5298477 -0.1042605
0.7582265625 0.4472471 -0.2694011
0.759375 0.32049 -0.3933209
0.7605234375 0.1660104 -0.4662133
0.761671875 0.001075624 -0.4842725
0.7628203125 -0.1568895 -0.4489194
0.76396875 -0.2916592 -0.3663819
0.7651171875 -0.3909881 -0.2467262
0.766265625 -0.4450881 -0.1039914
0.7674140625 -0.4509003 0.04637939
0.7685625 -0.4087792 0.1888271
0.7697109375 -0.3242774 0.3093205
0.770859375 -0.2071132 0.3959806
0.7720078125 -0.06967258 0.4414233
0.77315625 0.07453016 0.4416748
0.7743046875 0.2119336 0.3974265
0.775453125 0.3292791 0.3126912
0.7766015625 0.4159198 0.1951634
0.77775 0.4632535 0.0552801
0.7788984375 0.4657136 -0.09514042
0.780046875 0.4215807 -0.2426849
0.7811953125 0.3317185 -0.3735415
0.78234375 0.201824 -0.4734812
0.7834921875 0.04078233 -0.5309503
0.784640625 -0.1376657 -0.5353726
0.7857890625 -0.317146 -0.4804976
0.7869375 -0.4780198 -0.3644533
0.7880859375 -0.5991046 -0.1927949
0.789234375 -0.6596508 0.02233493
0.7903828125 -0.6426266 0.2601265
0.79153125 -0.5378758 0.4923117
0.7926796875 -0.3445643 0.6849478
0.793828125 -0.07717895 0.8021887
0.7949765625 0.2351919 0.8115646
0.796125 0.5468419 0.6929725
0.7972734375 0.8014755 0.4473031
0.798421875 0.9423577 0.1020518
0.7995703125 0.9261455 -0.2864166
0.80071875 0.7432805 -0.6407926
0.8018671875 0.4221328 -0.8855752
0.803015625 0.03095727 -0.9682018
0.8041640625 -0.348412 -0.8785523
0.8053125 -0.6422172 -0.6485788
0.8064609375 -0.8068582 -0.3365868
0.807609375 -0.8320972 -0.007980661
0.8087578125 -0.7372627 0.2838916
0.80990625 -0.5549165 0.5029781
0.8110546875 -0.3235771 0.6312984
0.812203125 -0.07990858 0.6679335
0.8133515625 0.1454111 0.6219821
0.8145 0.3298105 0.5104674
0.8156484375 0.4584845 0.3539282
0.816796875 0.5250325 0.1742871
0.8179453125 0.5292926 -0.006971634
0.81909375 0.4775063 -0.1712979
0.8202421875 0.3806056 -0.3037791
0.821390625 0.2527553 -0.3937104
0.8225390625 0.1092736 -0.4366243
0.8236875 -0.03344838 -0.4323685
0.8248359375 -0.1620179 -0.385681
0.825984375 -0.2650647 -0.3049755
0.8271328125 -0.335431 -0.2007462
0.82828125 -0.3692302 -0.08466391
0.8294296875 -0.3666885 0.03173846
0.830578125 -0.3306918 0.1383533
0.8317265625 -0.2664938 0.2266733
0.832875 -0.1817383 0.2902988
0.8340234375 -0.08419902 0.3253875
0.835171875 0.01726233 0.3305502
0.8363203125 0.1142487 0.3063506
0.83746875 0.1992557 0.2556041
0.8386171875 0.2652659 0.1827059
0.839765625 0.3068399 0.09399364
0.8409140625 0.3205388 -0.003426553
0.8420625 0.3048981 -0.1007128
0.8432109375 0.2605378 -0.1897325
0.844359375 0.1908467 -0.2618001
0.8455078125 0.1015431 -0.3101466
0.84665625 0.0005526078 -0.3291329
0.8478046875 -0.1026442 -0.3159662
0.848953125 -0.1983197 -0.2709454
0.8501015625 -0.2762281 -0.1974627
0.85125 -0.328514 -0.1021185
0.8523984375 -0.3485729 0.006400418
0.853546875 -0.3340006 0.1177838
0.8546953125 -0.2844901 0.2208708
0.85584375 -0.2041283 0.3050455
0.8569921875 -0.09906931 0.3619184
0.858140625 0.02145451 0.3840621
0.8592890625 0.1468964 0.3675103
0.8604375 0.2654896 0.3108122
0.8615859375 0.3648391 0.2160391
0.862734375 0.4325187 0.08862681
0.8638828125 0.457694 -0.06209137
0.86503125 0.4314421 -0.2229517
0.8661796875 0.3475197 -0.3770621
0.867328125 0.2054407 -0.5036934
0.8684765625 0.01187932 -0.5786619
0.869625 -0.2162514 -0.5783078
0.8707734375 -0.4481606 -0.4816752
0.871921875 -0.640795 -0.2825759
0.8730703125 -0.7408198 0.004326148
0.87421875 -0.7010216 0.3321443
0.8753671875 -0.5023331 0.6225922
0.876515625 -0.1768381 0.7895689
0.8776640625 0.1912195 0.7782046
0.8788125 0.4998679 0.5951224
0.8799609375 0.6754589 0.3044016
0.881109375 0.6966002 -0.008825095
0.8822578125 0.5889233 -0.2732919
0.88340625 0.4008095 -0.449549
0.8845546875 0.1823566 -0.5272351
0.885703125 -0.02620983 -0.5167437
0.8868515625 -0.1980102 -0.4384232
0.888 -0.3191158 -0.3163486
0.8891484375 -0.3840972 -0.172697
0.890296875 -0.3961874 -0.0275662
0.8914453125 -0.3618274 0.1036927
0.89259375 -0.290836 0.2095669
0.8937421875 -0.1951184 0.2827222
0.894890625 -0.086229 0.3192893
0.8960390625 0.02424505 0.3190475
0.8971875 0.1253335 0.2847973
0.8983359375 0.2076871 0.2215695
0.899484375 0.2642024 0.1373184
0.9006328125 0.2902338 0.04103575
0.90178125 0.2837895 -0.05721841
0.9029296875 0.2462395 -0.1470006
0.904078125 0.181922 -0.2191589
0.9052265625 0.09783208 -0.2663298
0.906375 0.003404024 -0.2831816
0.9075234375 -0.09121314 -0.2683108
0.908671875 -0.1761066 -0.2234625
0.9098203125 -0.2417817 -0.1529348
0.91096875 -0.281453 -0.06449872
0.9121171875 -0.2903384 0.03298111
0.913265625 -0.2668716 0.1293388
0.9144140625 -0.2130556 0.2145926
0.9155625 -0.1329819 0.2795467
0.9167109375 -0.0337183 0.3161688
0.917859375 0.07602607 0.3193688
0.9190078125 0.1848584 0.2859181
0.92015625 0.2814231 0.2158039
0.9213046875 0.3535514 0.1128321
0.922453125 0.389513 -0.01581954
0.9236015625 0.3801714 -0.1579455
0.92475 0.3183929 -0.2981013
0.9258984375 0.2029774 -0.4171287
0.927046875 0.03971228 -0.4928795
0.9281953125 -0.1561849 -0.5039786
0.92934375 -0.3591796 -0.4338377
0.9304921875 -0.5323821 -0.2759792
0.931640625 -0.6340119 -0.04190583
0.9327890625 -0.6263097 0.2331398
0.9339375 -0.4905048 0.4931642
0.9350859375 -0.2408246 0.6717102
0.936234375 0.06978062 0.7174324
0.9373828125 0.3665783 0.6153493
0.93853125 0.5787662 0.3951461
0.9396796875 0.6669022 0.116655
0.940828125 0.6290589 -0.1549914
0.9419765625 0.4925112 -0.3695777
0.943125 0.2981235 -0.5016173
0.9442734375 0.0861996 -0.5452459
0.945421875 -0.1105746 -0.5107895
0.9465703125 -0.2692348 -0.4163646
0.94771875 -0.3774378 -0.2830666
0.9488671875 -0.4307514 -0.1313706
0.950015625 -0.4308349 0.02000366
0.9511640625 -0.3847741 0.1553875
0.9523125 -0.3014046 0.2638769
0.9534609375 -0.1926152 0.3364149
0.954609375 -0.07127415 0.3698842
0.9557578125 0.05049066 0.3634472
0.95690625 0.1607433 0.3204052
0.9580546875 0.2495369 0.2467446
0.959203125 0.3091768 0.1511889
0.9603515625 0.3352894 0.04421233
0.9615 0.3268256 -0.06341404
0.9626484375 0.2858329 -0.1611184
0.963796875 0.2174022 -0.2396769
0.9649453125 0.1297186 -0.2924813
0.96609375 0.03156418 -0.3153357
0.9672421875 -0.06767469 -0.3068164
0.968390625 -0.158606 -0.2691043
0.9695390625 -0.2329509 -0.2058984
0.9706875 -0.2845843 -0.124078
0.9718359375 -0.3092726 -0.03082353
0.972984375 -0.3050111 0.0656776
0.9741328125 -0.272058 0.1567902
0.97528125 -0.213248 0.2348169
0.9764296875 -0.1327772 0.2927648
0.977578125 -0.03738122 0.3247325
0.9787265625 0.06537914 0.3267266
0.979875 0.1669705 0.2971761
0.9810234375 0.2576933 0.2366616
0.982171875 0.3278593 0.1487486
0.9833203125 0.3693281 0.03945682
0.98446875 0.3752337 -0.08227433
0.9856171875 0.3417489 -0.2050114
0.986765625 0.2677384 -0.3162411
0.9879140625 0.156797 -0.4022729
0.9890625 0.01698294 -0.4503192
0.9902109375 -0.139235 -0.4503983
0.991359375 -0.2959182 -0.3956873
0.9925078125 -0.4330478 -0.2856803
0.99365625 -0.5308934 -0.1254879
0.9948046875 -0.5698992 0.0715173
0.995953125 -0.5352072 0.2838551
