# GHZ S RI R 50.0
0.3 -2.694723 0.2156929
0.3011484375 -2.145955 1.2034
0.302296875 -1.34805 1.761144
0.3034453125 -0.5298355 1.92044
0.30459375 0.1673839 1.783746
0.3057421875 0.6872758 1.464438
0.306890625 1.023621 1.0562
0.3080390625 1.194761 0.62463
0.3091875 1.227995 0.2152956
0.3103359375 1.153506 -0.1486262
0.311484375 0.9979146 -0.452136
0.3126328125 0.7846621 -0.6857389
0.31378125 0.5317212 -0.8465337
0.3149296875 0.2579907 -0.9317188
0.316078125 -0.02192937 -0.9425255
0.3172265625 -0.2906611 -0.8782194
0.318375 -0.5307536 -0.7428984
0.3195234375 -0.7226633 -0.5443328
0.320671875 -0.8485491 -0.2956277
0.3218203125 -0.8920176 -0.01707358
0.32296875 -0.8438578 0.2625828
0.3241171875 -0.7070144 0.5109195
0.325265625 -0.4977459 0.6977611
0.3264140625 -0.2426519 0.8017378
0.3275625 0.02255193 0.8146011
0.3287109375 0.2665557 0.7438709
0.329859375 0.466681 0.6067368
0.3310078125 0.6075858 0.4243149
0.33215625 0.6850896 0.2193398
0.3333046875 0.7005167 0.01143867
0.334453125 0.6601741 -0.1855333
0.3356015625 0.5720351 -0.3576108
0.33675 0.4450261 -0.4986153
0.3378984375 0.2874571 -0.6010715
0.339046875 0.109285 -0.660229
0.3401953125 -0.08090185 -0.6722684
0.34134375 -0.272306 -0.6337466
0.3424921875 -0.4528669 -0.5426887
0.343640625 -0.6090475 -0.3996337
0.3447890625 -0.7258447 -0.2088395
0.3459375 -0.7853217 0.02140034
0.3470859375 -0.7720374 0.2742237
0.348234375 -0.6736772 0.5272713
0.3493828125 -0.487595 0.7479333
0.35053125 -0.2232498 0.9029492
0.3516796875 0.09526938 0.961158
0.352828125 0.4298062 0.9025244
0.3539765625 0.7338911 0.7253196
0.355125 0.9659938 0.443312
0.3562734375 1.090171 0.08822489
0.357421875 1.085817 -0.3023532
0.3585703125 0.9439026 -0.6812316
0.35971875 0.6700411 -1.002688
0.3608671875 0.2816692 -1.221759
0.362015625 -0.1880066 -1.293701
0.3631640625 -0.6845194 -1.180049
0.3643125 -1.13025 -0.8616019
0.3654609375 -1.429739 -0.3546145
0.366609375 -1.487839 0.2666668
0.3677578125 -1.254882 0.8711703
0.36890625 -0.7658064 1.310966
0.3700546875 -0.1379447 1.476436
0.371203125 0.4691993 1.347015
0.3723515625 0.9325488 0.9864992
0.3735 1.179143 0.5014553
0.3746484375 1.203905 -0.002620909
0.375796875 1.039131 -0.438356
0.3769453125 0.7420531 -0.7499253
0.37809375 0.3777895 -0.9096935
0.3792421875 0.0106121 -0.9175743
0.380390625 -0.3054191 -0.7973916
0.3815390625 -0.5331707 -0.5872977
0.3826875 -0.6575467 -0.3316801
0.3838359375 -0.6806849 -0.07385729
0.384984375 -0.6181402 0.1552649
0.3861328125 -0.4938588 0.3328423
0.38728125 -0.3317268 0.4497781
0.3884296875 -0.1545768 0.5042922
0.389578125 0.01819299 0.5010634
0.3907265625 0.1729024 0.4482309
0.391875 0.2984438 0.355053
0.3930234375 0.3868992 0.2334137
0.394171875 0.4344314 0.09336794
0.3953203125 0.4377815 -0.05294818
0.39646875 0.3965147 -0.1945199
0.3976171875 0.3125129 -0.3191884
0.398765625 0.1903116 -0.4137229
0.3999140625 0.03847554 -0.4667619
0.4010625 -0.1310898 -0.4671621
0.4022109375 -0.3003662 -0.4070242
0.403359375 -0.4480314 -0.2845649
0.4045078125 -0.5488181 -0.1057858
0.40565625 -0.5798633 0.11273
0.4068046875 -0.5238434 0.3431105
0.407953125 -0.3748079 0.5499887
0.4091015625 -0.141173 0.6948346
0.41025 0.151327 0.7425088
0.4113984375 0.4640126 0.6668171
0.412546875 0.7453485 0.4558262
0.4136953125 0.935437 0.1188123
0.41484375 0.9708378 -0.3096749
0.4159921875 0.7966148 -0.7564827
0.417140625 0.3948538 -1.104808
0.4182890625 -0.1735203 -1.218425
0.4194375 -0.7461604 -1.014479
0.4205859375 -1.128366 -0.5381801
0.421734375 -1.207566 0.04118638
0.4228828125 -1.00837 0.5418687
0.42403125 -0.6427944 0.8601254
0.4251796875 -0.2262587 0.9784087
0.426328125 0.1587309 0.9272899
0.4274765625 0.4643432 0.7538322
0.428625 0.6691213 0.5034733
0.4297734375 0.7649502 0.2209782
0.430921875 0.7578739 -0.05936763
0.4320703125 0.6608394 -0.3063334
0.43321875 0.4941179 -0.4949734
0.4343671875 0.2837054 -0.6097192
0.435515625 0.05802215 -0.6441978
0.4366640625 -0.1551857 -0.6026703
0.4378125 -0.3326664 -0.4976475
0.4389609375 -0.4590131 -0.3477351
0.440109375 -0.5260571 -0.1756309
0.4412578125 -0.5348338 -0.0005270556
0.44240625 -0.491708 0.1602255
0.4435546875 -0.4064471 0.2942558
0.444703125 -0.2908981 0.3924305
0.4458515625 -0.1575065 0.4511951
0.447 -0.01685853 0.4695776
0.4481484375 0.1200519 0.4487489
0.449296875 0.2442901 0.3916676
0.4504453125 0.3471848 0.3033327
0.45159375 0.4219872 0.1897056
0.4527421875 0.4626715 0.05831575
0.453890625 0.4654096 -0.08139621
0.4550390625 0.4271531 -0.2192265
0.4561875 0.3484946 -0.3436582
0.4573359375 0.2333187 -0.4424857
0.458484375 0.08842061 -0.5038028
0.4596328125 -0.07275393 -0.5180589
0.46078125 -0.2356219 -0.4798304
0.4619296875 -0.3817416 -0.3900975
0.463078125 -0.4942663 -0.2552139
0.4642265625 -0.5589737 -0.08863275
0.465375 -0.567619 0.09253408
0.4665234375 -0.5179327 0.2693626
0.467671875 -0.4158535 0.4224809
0.4688203125 -0.269902 0.5383742
0.46996875 -0.09442744 0.6054872
0.4711171875 0.09548305 0.6183355
0.472265625 0.2841903 0.5746157
0.4734140625 0.4566329 0.4765752
0.4745625 0.5990174 0.3285579
0.4757109375 0.6976312 0.138071
0.476859375 0.7399219 -0.08263458
0.4780078125 0.7156992 -0.3214267
0.47915625 0.6157861 -0.558841
0.4803046875 0.4355567 -0.7721554
0.481453125 0.1759768 -0.934545
0.4826015625 -0.1521914 -1.013451
0.48375 -0.5265875 -0.9764918
0.4848984375 -0.9065437 -0.7927371
0.486046875 -1.229908 -0.447194
0.4871953125 -1.419061 0.0531935
0.48834375 -1.389318 0.6500565
0.4894921875 -1.077191 1.240118
0.490640625 -0.4831 1.667175
0.4917890625 0.2930367 1.775342
0.4929375 1.055221 1.487118
0.4940859375 1.581648 0.8663185
0.495234375 1.739672 0.09640256
0.4963828125 1.535102 -0.6089324
0.49753125 1.0827 -1.101061
0.4986796875 0.5286263 -1.332222
0.499828125 -0.006786431 -1.326009
0.5009765625 -0.4470208 -1.14215
0.502125 -0.757502 -0.849317
0.5032734375 -0.9320753 -0.5053306
0.504421875 -0.9801331 -0.1586132
0.5055703125 -0.9218974 0.1579841
0.50671875 -0.7800767 0.4212543
0.5078671875 -0.5773939 0.6161092
0.509015625 -0.3388161 0.7341963
0.5101640625 -0.0879231 0.7726483
0.5113125 0.1535574 0.7352461
0.5124609375 0.3651325 0.6298295
0.513609375 0.529291 0.4691315
0.5147578125 0.6326167 0.2707232
0.51590625 0.6684372 0.05544809
0.5170546875 0.6353394 -0.1548511
0.518203125 0.53996 -0.3388586
0.5193515625 0.3954301 -0.4797504
0.5205 0.2190338 -0.5651261
0.5216484375 0.03001803 -0.590613
0.522796875 -0.1506947 -0.5571793
0.5239453125 -0.3083011 -0.4729491
0.52509375 -0.429399 -0.3485121
0.5262421875 -0.5058728 -0.197846
0.527390625 -0.5343525 -0.03508374
0.5285390625 -0.5140845 0.1263645
0.5296875 -0.4498128 0.2729002
0.5308359375 -0.3462647 0.3942215
0.531984375 -0.2120387 0.4813615
0.5331328125 -0.05819619 0.526574
0.53428125 0.1053417 0.5254619
0.5354296875 0.2648448 0.4761894
0.536578125 0.4068617 0.3795431
0.5377265625 0.5177364 0.2404437
0.538875 0.5841881 0.06743972
0.5400234375 0.5944085 -0.1263188
0.541171875 0.5409648 -0.3234576
0.5423203125 0.4215756 -0.5018761
0.54346875 0.2407597 -0.6402883
0.5446171875 0.01042182 -0.7155899
0.545765625 -0.2469231 -0.7089435
0.5469140625 -0.5036867 -0.6081842
0.5480625 -0.7246501 -0.4111787
0.5492109375 -0.8729373 -0.1274673
0.550359375 -0.910813 0.2186968
0.5515078125 -0.8070873 0.5860141
0.55265625 -0.542793 0.9145133
0.5538046875 -0.1278692 1.124951
0.554953125 0.3865657 1.133415
0.5561015625 0.88884 0.881473
0.55725 1.22381 0.3833954
0.5583984375 1.260569 -0.2314247
0.559546875 0.9789692 -0.769723
0.5606953125 0.4927921 -1.074874
0.56184375 -0.03175491 -1.103674
0.5629921875 -0.4621678 -0.9112018
0.564140625 -0.7339425 -0.5901837
0.5652890625 -0.8383036 -0.2298086
0.5664375 -0.7982684 0.1053289
0.5675859375 -0.6496894 0.3726123
0.568734375 -0.4334925 0.5502848
0.5698828125 -0.1885236 0.6306206
0.57103125 0.05097775 0.6194299
0.5721796875 0.2563826 0.5300701
0.573328125 0.408275 0.3840728
0.5744765625 0.4945728 0.2055001
0.575625 0.5133024 0.01829675
0.5767734375 0.4697714 -0.1550098
0.577921875 0.3751602 -0.2969498
0.5790703125 0.244584 -0.3952898
0.58021875 0.09492967 -0.4437014
0.5813671875 -0.05710832 -0.4418055
0.582515625 -0.1974086 -0.3929256
0.5836640625 -0.3133481 -0.3043182
0.5848125 -0.3948664 -0.1849907
0.5859609375 -0.4358157 -0.04714001
0.587109375 -0.4325255 0.09772666
0.5882578125 -0.3841313 0.2365459
0.58940625 -0.2935739 0.3563043
0.5905546875 -0.1668831 0.4453379
0.591703125 -0.01298369 0.4922281
0.5928515625 0.1552876 0.4882996
0.594 0.3218827 0.4282707
0.5951484375 0.4684518 0.3119889
0.596296875 0.5762679 0.1439761
0.5974453125 0.6257183 -0.06358617
0.59859375 0.6014659 -0.2911549
0.5997421875 0.493887 -0.5135579
0.600890625 0.301642 -0.6997057
0.6020390625 0.03472148 -0.8164769
0.6031875 -0.2834757 -0.832337
0.6043359375 -0.6165473 -0.7211508
0.605484375 -0.9116821 -0.4687046
0.6066328125 -1.105541 -0.08263959
0.60778125 -1.127524 0.3989973
0.6089296875 -0.919517 0.893286
0.610078125 -0.4697007 1.273582
0.6112265625 0.1504789 1.402133
0.612375 0.7768773 1.200396
0.6135234375 1.218534 0.7134622
0.614671875 1.357743 0.1020418
0.6158203125 1.205119 -0.4596573
0.61696875 0.8543652 -0.8549165
0.6181171875 0.4200061 -1.045044
0.619265625 -0.005525146 -1.049176
0.6204140625 -0.3628632 -0.9089054
0.6215625 -0.6203451 -0.6741268
0.6227109375 -0.7667855 -0.3906876
0.623859375 -0.8053773 -0.09862614
0.6250078125 -0.7489603 0.1689587
0.62615625 -0.6167144 0.3880261
0.6273046875 -0.4318534 0.5417162
0.628453125 -0.2208324 0.6227973
0.6296015625 -0.007440548 0.6308492
0.63075 0.1864157 0.5740615
0.6318984375 0.3438889 0.465272
0.633046875 0.4539828 0.3206959
0.6341953125 0.5112892 0.1574434
0.63534375 0.5159817 -0.007335293
0.6364921875 0.4731322 -0.1591532
0.637640625 0.3909299 -0.2856184
0.6387890625 0.2795012 -0.3792661
0.6399375 0.1502783 -0.4350501
0.6410859375 0.01422937 -0.4509235
0.642234375 -0.1180383 -0.4278057
0.6433828125 -0.2357084 -0.3694828
0.64453125 -0.3312052 -0.2810842
0.6456796875 -0.3968069 -0.1698289
0.646828125 -0.428046 -0.04482035
0.6479765625 -0.4220112 0.08413216
0.649125 -0.3788182 0.2062967
0.6502734375 -0.300986 0.3117385
0.651421875 -0.1952181 0.3898728
0.6525703125 -0.06916177 0.4339951
0.65371875 0.06611089 0.4381946
0.6548671875 0.1978906 0.4012859
0.656015625 0.3138084 0.3253018
0.6571640625 0.4023378 0.2162964
0.6583125 0.454139 0.08401275
0.6594609375 0.4636046 -0.05900875
0.660609375 0.4290055 -0.2001957
0.6617578125 0.3524335 -0.3257649
0.66290625 0.2405695 -0.4239175
0.6640546875 0.1023739 -0.4856823
0.665203125 -0.05087218 -0.5039895
0.6663515625 -0.2060834 -0.47544
0.6675 -0.3499391 -0.4007849
0.6686484375 -0.4692107 -0.2831771
0.669796875 -0.5512903 -0.130201
0.6709453125 -0.586149 0.04770282
0.67209375 -0.5649832 0.2370183
0.6732421875 -0.4831383 0.4206571
0.674390625 -0.3405714 0.5802385
0.6755390625 -0.1431239 0.6938884
0.6766875 0.09697954 0.7427255
0.6778359375 0.3587194 0.7079438
0.678984375 0.6134985 0.5777324
0.6801328125 0.8249596 0.3504598
0.68128125 0.9536889 0.03745567
0.6824296875 0.9604087 -0.3315418
0.683578125 0.8155453 -0.7081434
0.6847265625 0.5106931 -1.024143
0.685875 0.07069517 -1.203261
0.6870234375 -0.4401075 -1.178759
0.688171875 -0.9154981 -0.9190788
0.6893203125 -1.235425 -0.456734
0.69046875 -1.310351 0.107273
0.6916171875 -1.121293 0.6358296
0.692765625 -0.7307794 1.007322
0.6939140625 -0.2474502 1.160084
0.6950625 0.2178251 1.09909
0.6962109375 0.5853798 0.8751157
0.697359375 0.8152282 0.5566359
0.6985078125 0.9022265 0.2085373
0.69965625 0.8615117 -0.1183612
0.7008046875 0.7219326 -0.3876244
0.701953125 0.5149365 -0.5786493
0.7031015625 0.2732724 -0.6822689
0.70425 0.02656298 -0.6993487
0.7053984375 -0.199347 -0.6380394
0.706546875 -0.3832583 -0.5130978
0.7076953125 -0.5109089 -0.3433583
0.70884375 -0.5738254 -0.1499376
0.7099921875 -0.5709801 0.04593346
0.711140625 -0.5071872 0.2235555
0.7122890625 -0.3938814 0.3661799
0.7134375 -0.2455265 0.4618156
0.7145859375 -0.07941456 0.5031941
0.715734375 0.08674236 0.4900323
0.7168828125 0.2361989 0.4263794
0.71803125 0.3551476 0.3211598
0.7191796875 0.4338407 0.186123
0.720328125 0.465941 0.03538176
0.7214765625 0.4494894 -0.1165855
0.722625 0.3864727 -0.255401
0.7237734375 0.2829052 -0.3682764
0.724921875 0.1482639 -0.4435379
0.7260703125 -0.005984887 -0.4736469
0.72721875 -0.1652495 -0.4525158
0.7283671875 -0.3138659 -0.3796331
0.729515625 -0.4353848 -0.257901
0.7306640625 -0.5137624 -0.09674655
0.7318125 -0.5347263 0.0910188
0.7329609375 -0.4885778 0.2848349
0.734109375 -0.3706891 0.4614325
0.7352578125 -0.1859201 0.5938058
0.73640625 0.05094946 0.6544914
0.7375546875 0.3132789 0.6196813
0.738703125 0.5614509 0.4750986
0.7398515625 0.7466618 0.2236092
0.741 0.8171804 -0.1088246
0.7421484375 0.7316388 -0.4677246
0.743296875 0.4764384 -0.7715675
0.7444453125 0.08747707 -0.931175
0.74559375 -0.3460445 -0.8838825
0.7467421875 -0.7058301 -0.6289315
0.747890625 -0.8934959 -0.2415828
0.7490390625 -0.8415353 0.1634854
0.7501875 -0.6575869 0.4842486
0.7513359375 -0.3755541 0.6743161
0.752484375 -0.06818274 0.7245492
0.7536328125 0.2074039 0.6542578
0.75478125 0.4160623 0.4971744
0.7559296875 0.5416087 0.2919503
0.757078125 0.5815904 0.0716918
0.7582265625 0.5439821 -0.134688
0.759375 0.443903 -0.3051969
0.7605234375 0.2988318 -0.425221
0.761671875 0.1300261 -0.4867526
0.7628203125 -0.04289938 -0.4882115
0.76396875 -0.2009751 -0.4338711
0.7651171875 -0.328335 -0.3336595
0.766265625 -0.4132245 -0.2006115
0.7674140625 -0.4488603 -0.05105247
0.7685625 -0.4344293 0.098699
0.7697109375 -0.3737601 0.2330163
0.770859375 -0.2748172 0.3390875
0.7720078125 -0.1493216 0.407199
0.77315625 -0.01026968 0.4320923
0.7743046875 0.1287472 0.412671
0.775453125 0.2539988 0.3514501
0.7766015625 0.3546792 0.2539341
0.77775 0.4212103 0.1299731
0.7788984375 0.4470236 -0.009837468
0.780046875 0.4283431 -0.1533522
0.7811953125 0.3658121 -0.2872492
0.78234375 0.2622851 -0.398407
0.7834921875 0.124886 -0.4749742
0.784640625 -0.0352894 -0.5063333
0.7857890625 -0.2043095 -0.4850738
0.7869375 -0.3653096 -0.407504
0.7880859375 -0.4996457 -0.2757382
0.789234375 -0.5884954 -0.09776069
0.7903828125 -0.6149727 0.1112337
0.79153125 -0.5664973 0.3301621
0.7926796875 -0.4380682 0.5311804
0.793828125 -0.234447 0.6846691
0.7949765625 0.0272068 0.7604204
0.796125 0.3167733 0.7335049
0.7972734375 0.5933797 0.5913914
0.798421875 0.8074306 0.3379549
0.7995703125 0.9101148 0.001278085
0.80071875 0.8654827 -0.3672105
0.8018671875 0.6628805 -0.6968828
0.803015625 0.33113 -0.9156324
0.8041640625 -0.06659548 -0.9710194
0.8053125 -0.4462412 -0.8510286
0.8064609375 -0.7302729 -0.5874212
0.807609375 -0.8711205 -0.2444969
0.8087578125 -0.8604071 0.1053425
0.80990625 -0.7210199 0.4018539
0.8110546875 -0.4955889 0.6070693
0.812203125 -0.2303725 0.7067233
0.8133515625 0.03298356 0.7032614
0.8145 0.2614626 0.6146417
0.8156484375 0.4333806 0.4629385
0.816796875 0.5368675 0.2751822
0.8179453125 0.5696158 0.07570241
0.81909375 0.5366046 -0.1116595
0.8202421875 0.4489731 -0.2690082
0.821390625 0.322397 -0.38319
0.8225390625 0.173748 -0.4470346
0.8236875 0.02057838 -0.4598483
0.8248359375 -0.1212551 -0.4249804
0.825984375 -0.2396289 -0.3511442
0.8271328125 -0.3251505 -0.2493729
0.82828125 -0.3732764 -0.1314315
0.8294296875 -0.3827373 -0.009795265
0.830578125 -0.3564172 0.1044631
0.8317265625 -0.2994502 0.2021352
0.832875 -0.2186566 0.2764862
0.8340234375 -0.122534 0.3224112
0.835171875 -0.01964772 0.3378038
0.8363203125 0.0814191 0.3232165
0.83746875 0.1725738 0.2802924
0.8386171875 0.2463215 0.2134908
0.839765625 0.2969562 0.1286241
0.8409140625 0.320546 0.03289703
0.8420625 0.3149331 -0.06561842
0.8432109375 0.2801519 -0.1581054
0.844359375 0.2190957 -0.2365745
0.8455078125 0.1362926 -0.2932418
0.84665625 0.03973466 -0.3224564
0.8478046875 -0.06204614 -0.3206477
0.848953125 -0.1594661 -0.2874719
0.8501015625 -0.2423496 -0.2254153
0.85125 -0.303008 -0.1399833
0.8523984375 -0.3344669 -0.03905896
0.853546875 -0.3335251 0.06769539
0.8546953125 -0.2991868 0.170085
0.85584375 -0.2345493 0.2582997
0.8569921875 -0.1446013 0.3237478
0.858140625 -0.03727338 0.3591707
0.8592890625 0.07861637 0.3605408
0.8604375 0.1923485 0.3257103
0.8615859375 0.2936122 0.2559593
0.862734375 0.3715029 0.1545709
0.8638828125 0.4168229 0.0288961
0.86503125 0.4209051 -0.1116647
0.8661796875 0.3782156 -0.2549069
0.867328125 0.2860608 -0.3849837
0.8684765625 0.1467226 -0.4847341
0.869625 -0.0317433 -0.5358661
0.8707734375 -0.2332006 -0.5211381
0.871921875 -0.4334759 -0.4267973
0.8730703125 -0.5990417 -0.2484046
0.87421875 -0.6905515 0.003113488
0.8753671875 -0.6691777 0.2962633
0.876515625 -0.5114599 0.5749366
0.8776640625 -0.2260842 0.7658941
0.8788125 0.1326491 0.8044066
0.8799609375 0.4739381 0.6643715
0.881109375 0.7039424 0.3801085
0.8822578125 0.7684752 0.03520422
0.88340625 0.6729712 -0.2789259
0.8845546875 0.4661955 -0.4981363
0.885703125 0.2123647 -0.5981015
0.8868515625 -0.03365568 -0.5881979
0.888 -0.2343506 -0.4941052
0.8891484375 -0.3709921 -0.3475077
0.890296875 -0.4397903 -0.1785786
0.8914453125 -0.4446563 -0.01149754
0.89259375 -0.3967118 0.1351838
0.8937421875 -0.3090113 0.2488098
0.894890625 -0.1961389 0.3224764
0.8960390625 -0.07265155 0.3537005
0.8971875 0.04817557 0.343603
0.8983359375 0.1549283 0.2968034
0.899484375 0.2376629 0.2211612
0.9006328125 0.2896103 0.1256462
0.90178125 0.3075542 0.02109777
0.9029296875 0.2908074 -0.08096371
0.904078125 0.2427683 -0.1703878
0.9052265625 0.1691653 -0.2378526
0.906375 0.07912169 -0.2771499
0.9075234375 -0.01768086 -0.2848137
0.908671875 -0.1105701 -0.2606484
0.9098203125 -0.1899838 -0.207908
0.91096875 -0.2477294 -0.1328298
0.9121171875 -0.2779892 -0.04320868
0.913265625 -0.2779139 0.0513659
0.9144140625 -0.2474605 0.1412658
0.9155625 -0.1891875 0.2176015
0.9167109375 -0.1085255 0.2722833
0.917859375 -0.0128427 0.2989999
0.9190078125 0.08902253 0.293692
0.92015625 0.1871498 0.2550265
0.9213046875 0.2708659 0.1841685
0.922453125 0.3298275 0.08582997
0.9236015625 0.3544973 -0.03251885
0.92475 0.3380509 -0.1595412
0.9258984375 0.275903 -0.2811751
0.927046875 0.1685299 -0.3810905
0.9281953125 0.02266585 -0.4417247
0.92934375 -0.1486456 -0.4468218
0.9304921875 -0.3236998 -0.3833064
0.931640625 -0.4744107 -0.2473834
0.9327890625 -0.5679299 -0.04654489
0.9339375 -0.5725007 0.1943751
0.9350859375 -0.468108 0.4333818
0.936234375 -0.2562879 0.6158187
0.9373828125 0.0292545 0.6880649
0.93853125 0.3265814 0.619772
0.9396796875 0.5614121 0.4210815
0.940828125 0.6775137 0.1400619
0.9419765625 0.654856 -0.1517994
0.943125 0.5147632 -0.3904896
0.9442734375 0.3020771 -0.5369412
0.945421875 0.06710815 -0.5811514
0.9465703125 -0.1482294 -0.5342279
0.94771875 -0.3163068 -0.4194601
0.9488671875 -0.4230275 -0.264075
0.950015625 -0.4653801 -0.09380671
0.9511640625 -0.4479207 0.06909783
0.9523125 -0.3811098 0.2082235
0.9534609375 -0.2778131 0.3118035
0.954609375 -0.1524878 0.3728388
0.9557578125 -0.02011721 0.3890226
0.95690625 0.1053273 0.3631025
0.9580546875 0.2119923 0.3003631
0.959203125 0.2904716 0.210061
0.9603515625 0.3347824 0.1025662
0.9615 0.3426062 -0.01023311
0.9626484375 0.3148664 -0.1170786
0.963796875 0.2565319 -0.2073215
0.9649453125 0.1746841 -0.2732719
0.96609375 0.0784819 -0.3099074
0.9672421875 -0.02233935 -0.3147499
0.968390625 -0.1182159 -0.288975
0.9695390625 -0.2004631 -0.2359915
0.9706875 -0.2619377 -0.1613558
0.9718359375 -0.2978297 -0.07262911
0.972984375 -0.3055636 0.02219454
0.9741328125 -0.2845986 0.1150951
0.97528125 -0.2372691 0.1979152
0.9764296875 -0.1667096 0.2633682
0.977578125 -0.07896384 0.3054927
0.9787265625 0.01885333 0.3198179
0.979875 0.1185426 0.3038607
0.9810234375 0.2111017 0.257894
0.982171875 0.2876807 0.1840984
0.9833203125 0.3397462 0.08707181
0.98446875 0.3604574 -0.02488691
0.9856171875 0.3448345 -0.1417844
0.986765625 0.2914205 -0.2527713
0.9879140625 0.2021537 -0.344945
0.9890625 0.08295508 -0.4068756
0.9902109375 -0.05630226 -0.4284612
0.991359375 -0.2021045 -0.4023584
0.9925078125 -0.3385322 -0.3268523
0.99365625 -0.4484072 -0.2038376
0.9948046875 -0.5150254 -0.04221845
0.995953125 -0.5240718 0.1440526
