# GHZ S RI R 50.0
0.3 -2.640712 0.05645544
0.3011484375 -2.173254 1.06153
0.302296875 -1.420911 1.665789
0.3034453125 -0.6208835 1.874267
0.30459375 0.08242851 1.777324
0.3057421875 0.6187412 1.486094
0.306890625 0.9750291 1.094066
0.3080390625 1.1647 0.6697611
0.3091875 1.215289 0.2598242
0.3103359375 1.15479 -0.1070833
0.311484375 1.010507 -0.4160565
0.3126328125 0.8042685 -0.6573307
0.31378125 0.5570393 -0.8264328
0.3149296875 0.2846265 -0.9210346
0.316078125 0.005090889 -0.939451
0.3172265625 -0.2645329 -0.882758
0.318375 -0.5072554 -0.7548919
0.3195234375 -0.7046663 -0.5613494
0.320671875 -0.8361588 -0.3166923
0.3218203125 -0.8864543 -0.04006483
0.32296875 -0.8454937 0.2395524
0.3241171875 -0.7153298 0.4905554
0.325265625 -0.5118501 0.6810435
0.3264140625 -0.2615479 0.7902798
0.3275625 0.002174008 0.8093386
0.3287109375 0.2466854 0.7447132
0.329859375 0.4482777 0.6132473
0.3310078125 0.5932432 0.4352387
0.33215625 0.6735681 0.2341108
0.3333046875 0.6935741 0.0274939
0.334453125 0.6578152 -0.16742
0.3356015625 0.5744728 -0.3399657
0.33675 0.4518312 -0.4823099
0.3378984375 0.2987185 -0.5865768
0.339046875 0.1240249 -0.6490016
0.3401953125 -0.06275267 -0.6645367
0.34134375 -0.2523493 -0.6304499
0.3424921875 -0.4315264 -0.545269
0.343640625 -0.5885581 -0.4082533
0.3447890625 -0.706279 -0.2243381
0.3459375 -0.7698694 -0.0008281663
0.3470859375 -0.7627215 0.2463208
0.348234375 -0.67335 0.4944804
0.3493828125 -0.4979862 0.7135792
0.35053125 -0.2453593 0.8704608
0.3516796875 0.0604827 0.9350271
0.352828125 0.3834641 0.8879717
0.3539765625 0.6811687 0.7257306
0.355125 0.9102853 0.4645871
0.3562734375 1.040139 0.1305213
0.357421875 1.049919 -0.2365308
0.3585703125 0.9318987 -0.5976595
0.35971875 0.6914424 -0.9103096
0.3608671875 0.343809 -1.13272
0.362015625 -0.08182681 -1.227818
0.3631640625 -0.5421492 -1.161627
0.3643125 -0.9742551 -0.9136679
0.3654609375 -1.299531 -0.4890189
0.366609375 -1.432206 0.06614816
0.3677578125 -1.309782 0.6547686
0.36890625 -0.9302011 1.145935
0.3700546875 -0.3659454 1.416782
0.371203125 0.2489569 1.406131
0.3723515625 0.7754453 1.136532
0.3735 1.114532 0.6917452
0.3746484375 1.22807 0.1812946
0.375796875 1.13066 -0.295536
0.3769453125 0.8712555 -0.6650788
0.37809375 0.5162187 -0.8850896
0.3792421875 0.1367289 -0.9452919
0.380390625 -0.207018 -0.8631202
0.3815390625 -0.4705031 -0.675706
0.3826875 -0.631514 -0.4282926
0.3838359375 -0.6873039 -0.1656356
0.384984375 -0.6518304 0.07637478
0.3861328125 -0.5466976 0.2730123
0.38728125 -0.3959031 0.4114636
0.3884296875 -0.2242368 0.4873603
0.389578125 -0.05026598 0.5051317
0.3907265625 0.109991 0.4705865
0.391875 0.2454539 0.3937247
0.3930234375 0.3473675 0.2845782
0.394171875 0.4106694 0.1536677
0.3953203125 0.4314606 0.01220423
0.39646875 0.4090661 -0.128158
0.3976171875 0.3446421 -0.2564597
0.398765625 0.2411325 -0.3605126
0.3999140625 0.1060522 -0.4285387
0.4010625 -0.04992712 -0.4496517
0.4022109375 -0.2114594 -0.4156291
0.403359375 -0.3588335 -0.3231168
0.4045078125 -0.4702477 -0.176506
0.40565625 -0.5240039 0.01040289
0.4068046875 -0.5033087 0.21594
0.407953125 -0.4020092 0.4095587
0.4091015625 -0.2254011 0.5591919
0.41025 0.00790023 0.6347119
0.4113984375 0.2679837 0.6144286
0.412546875 0.5167391 0.488749
0.4136953125 0.7119917 0.2601522
0.41484375 0.8099514 -0.05137908
0.4159921875 0.7702275 -0.4084139
0.417140625 0.5645738 -0.7481238
0.4182890625 0.1928355 -0.9838364
0.4194375 -0.2859998 -1.021096
0.4205859375 -0.7518141 -0.8041965
0.421734375 -1.053171 -0.3676029
0.4228828125 -1.091915 0.1559259
0.42403125 -0.8775263 0.6084064
0.4251796875 -0.5041901 0.8864909
0.426328125 -0.08763652 0.9624199
0.4274765625 0.2876222 0.8678456
0.428625 0.5688257 0.6531783
0.4297734375 0.7336094 0.3715811
0.430921875 0.7798178 0.07182749
0.4320703125 0.7190824 -0.2064239
0.43321875 0.5726675 -0.4295373
0.4343671875 0.3682157 -0.5782067
0.435515625 0.138047 -0.6424159
0.4366640625 -0.08693982 -0.623969
0.4378125 -0.280747 -0.5351545
0.4389609375 -0.4248504 -0.3943266
0.440109375 -0.5092518 -0.225052
0.4412578125 -0.5332717 -0.04810192
0.44240625 -0.5030533 0.118353
0.4435546875 -0.427435 0.2597303
0.444703125 -0.3184164 0.3674073
0.4458515625 -0.1885548 0.4358922
0.447 -0.04898738 0.463275
0.4481484375 0.08889118 0.4509916
0.449296875 0.2162645 0.4015871
0.4504453125 0.3233747 0.3198265
0.45159375 0.403849 0.2111142
0.4527421875 0.4515481 0.08304073
0.453890625 0.4609508 -0.05458508
0.4550390625 0.4302164 -0.1924674
0.4561875 0.3587386 -0.3186734
0.4573359375 0.2497495 -0.4212091
0.458484375 0.1110011 -0.4879024
0.4596328125 -0.04686589 -0.508829
0.46078125 -0.2077149 -0.478442
0.4619296875 -0.3543571 -0.3966441
0.463078125 -0.4691929 -0.2695959
0.4642265625 -0.5386081 -0.1098423
0.465375 -0.5539742 0.06606417
0.4665234375 -0.5123477 0.2390635
0.467671875 -0.4184203 0.3913952
0.4688203125 -0.2815771 0.5083925
0.46996875 -0.1145868 0.5795415
0.4711171875 0.06763244 0.5979322
0.472265625 0.2502174 0.5622878
0.4734140625 0.4186696 0.4735544
0.4745625 0.5589099 0.3367316
0.4757109375 0.6586134 0.1590369
0.476859375 0.7059537 -0.04940872
0.4780078125 0.6904482 -0.2752602
0.47915625 0.6040107 -0.501452
0.4803046875 0.4430742 -0.7072273
0.481453125 0.2076332 -0.8669841
0.4826015625 -0.09282731 -0.9525605
0.48375 -0.4378502 -0.9341287
0.4848984375 -0.7918391 -0.78494
0.486046875 -1.102711 -0.4895988
0.4871953125 -1.304143 -0.05384126
0.48834375 -1.322897 0.4812475
0.4894921875 -1.099507 1.033538
0.490640625 -0.6187921 1.475937
0.4917890625 0.05978104 1.671324
0.4929375 0.7883875 1.523803
0.4940859375 1.373083 1.039448
0.495234375 1.656662 0.3434246
0.4963828125 1.585246 -0.371641
0.49753125 1.226281 -0.9360809
0.4986796875 0.7088085 -1.26013
0.499828125 0.1636699 -1.337174
0.5009765625 -0.3150155 -1.211744
0.502125 -0.6742161 -0.9502295
0.5032734375 -0.895842 -0.6157412
0.504421875 -0.9845027 -0.26158
0.5055703125 -0.956903 0.0723343
0.50671875 -0.8350497 0.3585039
0.5078671875 -0.6433571 0.5780078
0.509015625 -0.4078825 0.7199676
0.5101640625 -0.1526852 0.7800721
0.5113125 0.09770687 0.7606967
0.5124609375 0.3220551 0.6684419
0.513609375 0.5012206 0.5162704
0.5147578125 0.6212803 0.3213708
0.51590625 0.6719905 0.105569
0.5170546875 0.6528135 -0.1100734
0.518203125 0.5688936 -0.302805
0.5193515625 0.4322745 -0.4543432
0.5205 0.2602795 -0.5522731
0.5216484375 0.07276271 -0.5899086
0.522796875 -0.1108815 -0.5684398
0.5239453125 -0.2739806 -0.4944175
0.52509375 -0.4027871 -0.3783478
0.5262421875 -0.4887242 -0.2332431
0.527390625 -0.527539 -0.07339487
0.5285390625 -0.518442 0.08686536
0.5296875 -0.4642378 0.2355789
0.5308359375 -0.3705468 0.3622386
0.531984375 -0.2454896 0.4556523
0.5331328125 -0.09812399 0.5103701
0.53428125 0.06024482 0.5203567
0.5354296875 0.2179083 0.4837425
0.536578125 0.3612837 0.4009951
0.5377265625 0.4769949 0.2757942
0.538875 0.5525165 0.1164092
0.5400234375 0.576818 -0.06545094
0.541171875 0.541967 -0.2536765
0.5423203125 0.4455633 -0.4291842
0.54346875 0.2902131 -0.570936
0.5446171875 0.08772764 -0.6590043
0.545765625 -0.1447751 -0.6758066
0.5469140625 -0.3812764 -0.6111448
0.5480625 -0.5939709 -0.4618168
0.5492109375 -0.7512029 -0.2348936
0.550359375 -0.8246573 0.05055086
0.5515078125 -0.789543 0.3650243
0.55265625 -0.6301683 0.667401
0.5538046875 -0.3455924 0.9065227
0.554953125 0.04288641 1.024432
0.5561015625 0.4825405 0.9657277
0.55725 0.8846924 0.7002796
0.5583984375 1.136378 0.2505859
0.559546875 1.142193 -0.2876095
0.5606953125 0.8802584 -0.7652327
0.56184375 0.4289989 -1.04594
0.5629921875 -0.07287106 -1.073437
0.564140625 -0.4957266 -0.8815499
0.5652890625 -0.7632372 -0.5538206
0.5664375 -0.8574412 -0.1823384
0.5675859375 -0.7986529 0.1602768
0.568734375 -0.6280753 0.4251474
0.5698828125 -0.3914562 0.5896742
0.57103125 -0.1332791 0.6491145
0.5721796875 0.1085726 0.6127289
0.573328125 0.3057177 0.5003063
0.5744765625 0.4405215 0.3373138
0.575625 0.5048242 0.1501424
0.5767734375 0.5008644 -0.03569911
0.577921875 0.4371774 -0.1989658
0.5790703125 0.3284703 -0.3248809
0.58021875 0.1915069 -0.4033233
0.5813671875 0.04246213 -0.4317349
0.582515625 -0.1022769 -0.411589
0.5836640625 -0.2298152 -0.3478273
0.5848125 -0.3283728 -0.2496427
0.5859609375 -0.3903845 -0.1273747
0.587109375 -0.4116764 0.007765748
0.5882578125 -0.3897712 0.1436586
0.58940625 -0.3259039 0.2674903
0.5905546875 -0.224723 0.3671196
0.591703125 -0.09363947 0.4319334
0.5928515625 0.05652234 0.4528239
0.594 0.2113809 0.4234378
0.5951484375 0.3555531 0.34185
0.596296875 0.4706291 0.2113317
0.5974453125 0.5402043 0.04060571
0.59859375 0.5491556 -0.1544283
0.5997421875 0.4881958 -0.3537515
0.600890625 0.3541813 -0.5312973
0.6020390625 0.1535867 -0.6616354
0.6031875 -0.09748109 -0.7172889
0.6043359375 -0.3738405 -0.6779637
0.605484375 -0.6392883 -0.5298879
0.6066328125 -0.8504069 -0.2716527
0.60778125 -0.9583354 0.07902915
0.6089296875 -0.9153436 0.4837257
0.610078125 -0.6872569 0.8726807
0.6112265625 -0.275221 1.151104
0.612375 0.2610509 1.215609
0.6135234375 0.794657 1.005886
0.614671875 1.16802 0.5517912
0.6158203125 1.271255 -0.02012478
0.61696875 1.098559 -0.5469837
0.6181171875 0.7312185 -0.9090727
0.619265625 0.2847136 -1.062152
0.6204140625 -0.1414312 -1.022359
0.6215625 -0.4844191 -0.837758
0.6227109375 -0.7109576 -0.5653282
0.623859375 -0.8144479 -0.2574842
0.6250078125 -0.8042988 0.04138053
0.62615625 -0.7001678 0.2985157
0.6273046875 -0.52801 0.4910482
0.628453125 -0.3164699 0.6068587
0.6296015625 -0.09345113 0.6443326
0.63075 0.11614 0.6095277
0.6318984375 0.2928081 0.5155911
0.633046875 0.4229081 0.378354
0.6341953125 0.4994437 0.2166354
0.63534375 0.5214735 0.04837957
0.6364921875 0.4926457 -0.1107015
0.637640625 0.4211853 -0.2475106
0.6387890625 0.316967 -0.3527216
0.6399375 0.1913077 -0.4205809
0.6410859375 0.05526466 -0.4483975
0.642234375 -0.07892698 -0.4363961
0.6433828125 -0.2017067 -0.3875101
0.64453125 -0.3040147 -0.3067271
0.6456796875 -0.3783529 -0.2009658
0.646828125 -0.4189126 -0.07956389
0.6479765625 -0.4225238 0.04852897
0.649125 -0.3889017 0.1725276
0.6502734375 -0.3203018 0.2818189
0.651421875 -0.2215609 0.3668491
0.6525703125 -0.1010048 0.4189553
0.65371875 0.03091753 0.4325708
0.6548671875 0.162513 0.4057575
0.656015625 0.2806044 0.3396344
0.6571640625 0.3737414 0.2399426
0.6583125 0.433147 0.1155457
0.6594609375 0.4519833 -0.02239124
0.660609375 0.4280448 -0.1603943
0.6617578125 0.3632356 -0.2864481
0.66290625 0.2627302 -0.3880796
0.6640546875 0.1348675 -0.4563555
0.665203125 -0.01004152 -0.4841445
0.6663515625 -0.1588844 -0.4678324
0.6675 -0.2999938 -0.4071611
0.6686484375 -0.4201857 -0.304971
0.669796875 -0.5080709 -0.1676634
0.6709453125 -0.5533677 -0.004413879
0.67209375 -0.5479625 0.1725263
0.6732421875 -0.4865536 0.3481139
0.674390625 -0.3686137 0.50535
0.6755390625 -0.1983228 0.6251456
0.6766875 0.01434793 0.6896085
0.6778359375 0.2517492 0.6821809
0.678984375 0.4903443 0.5918353
0.6801328125 0.7004703 0.4144009
0.68128125 0.8479784 0.1565466
0.6824296875 0.9005561 -0.1604137
0.683578125 0.8309021 -0.5016022
0.6847265625 0.6233564 -0.8172154
0.685875 0.2856074 -1.048121
0.6870234375 -0.1480776 -1.132806
0.688171875 -0.609311 -1.025942
0.6893203125 -1.004267 -0.7156216
0.69046875 -1.235412 -0.2449148
0.6916171875 -1.23261 0.2897742
0.692765625 -0.9916723 0.7670249
0.6939140625 -0.5734313 1.079831
0.6950625 -0.08612124 1.174042
0.6962109375 0.3671035 1.060006
0.697359375 0.7072437 0.7920862
0.6985078125 0.8995293 0.4412579
0.69965625 0.940743 0.07695737
0.7008046875 0.8539883 -0.2503259
0.701953125 0.6720757 -0.5049224
0.7031015625 0.4312777 -0.6690767
0.70425 0.1675818 -0.7366619
0.7053984375 -0.08740886 -0.7139869
0.706546875 -0.3076238 -0.6139504
0.7076953125 -0.4735769 -0.4558161
0.70884375 -0.5735483 -0.2617341
0.7099921875 -0.6038689 -0.05539928
0.711140625 -0.5667241 0.1409979
0.7122890625 -0.472342 0.3077496
0.7134375 -0.3349547 0.4304917
0.7145859375 -0.1712499 0.5001122
0.715734375 -0.0002160782 0.5136364
0.7168828125 0.1615041 0.4734755
0.71803125 0.2979076 0.3873256
0.7191796875 0.3982322 0.2659689
0.720328125 0.4546965 0.1222259
0.7214765625 0.4636794 -0.02958794
0.722625 0.4255666 -0.1744977
0.7237734375 0.3451028 -0.3001564
0.724921875 0.2301313 -0.394887
0.7260703125 0.09047075 -0.4493645
0.72721875 -0.06112436 -0.4578776
0.7283671875 -0.2101647 -0.4174604
0.729515625 -0.3419322 -0.3300835
0.7306640625 -0.4416066 -0.2010303
0.7318125 -0.4955646 -0.0411574
0.7329609375 -0.4934615 0.1345987
0.734109375 -0.4300197 0.3069037
0.7352578125 -0.3054774 0.4543749
0.73640625 -0.1280401 0.5548568
0.7375546875 0.08553831 0.5877887
0.738703125 0.310248 0.5380672
0.7398515625 0.513909 0.3998092
0.741 0.6590064 0.1808105
0.7421484375 0.7112494 -0.09788404
0.743296875 0.6420682 -0.3938949
0.7444453125 0.4419984 -0.6527861
0.74559375 0.1294421 -0.8096178
0.7467421875 -0.2403346 -0.8105178
0.747890625 -0.5819676 -0.6338025
0.7490390625 -0.7738838 -0.2993809
0.7501875 -0.8160995 0.07313961
0.7513359375 -0.6831548 0.4115078
0.752484375 -0.4238493 0.6393219
0.7536328125 -0.1117602 0.7233004
0.75478125 0.1831948 0.6708489
0.7559296875 0.4121206 0.5150918
0.757078125 0.54985 0.2993741
0.7582265625 0.5915654 0.06521235
0.759375 0.5471631 -0.1518388
0.7605234375 0.4345141 -0.3265377
0.761671875 0.2764111 -0.4430183
0.7628203125 0.09729629 -0.4941729
0.76396875 -0.07985498 -0.4805456
0.7651171875 -0.2353133 -0.4103048
0.766265625 -0.3524622 -0.29593
0.7674140625 -0.4220836 -0.1538229
0.7685625 -0.4399991 -0.001700658
0.7697109375 -0.4073931 0.1434809
0.770859375 -0.3312111 0.2667632
0.7720078125 -0.2216241 0.3567148
0.77315625 -0.09148285 0.4057483
0.7743046875 0.04542818 0.4109131
0.775453125 0.1756148 0.3731322
0.7766015625 0.286608 0.2972212
0.77775 0.3685758 0.1906038
0.7788984375 0.4136917 0.06336019
0.780046875 0.4177554 -0.07309335
0.7811953125 0.3786921 -0.2060505
0.78234375 0.2993291 -0.3230669
0.7834921875 0.1843873 -0.4120512
0.784640625 0.04285913 -0.4621432
0.7857890625 -0.1124369 -0.4652955
0.7869375 -0.2672002 -0.4174313
0.7880859375 -0.404056 -0.3178769
0.789234375 -0.5065377 -0.1727912
0.7903828125 -0.5577874 0.006952398
0.79153125 -0.5454432 0.2039442
0.7926796875 -0.4632632 0.3954235
0.793828125 -0.3120195 0.5561453
0.7949765625 -0.1019591 0.6605713
0.796125 0.1458133 0.6849344
0.7972734375 0.4011417 0.6141768
0.798421875 0.626092 0.4446656
0.7995703125 0.779879 0.1876092
0.80071875 0.8251913 -0.1267408
0.8018671875 0.7377365 -0.4505059
0.803015625 0.5168582 -0.7232143
0.8041640625 0.1911376 -0.8854845
0.8053125 -0.1801638 -0.8953968
0.8064609375 -0.5219924 -0.7457511
0.807609375 -0.7641947 -0.4684315
0.8087578125 -0.8646472 -0.1258174
0.80990625 -0.8169059 0.2126638
0.8110546875 -0.6466607 0.487855
0.812203125 -0.3986185 0.6631733
0.8133515625 -0.121387 0.7268634
0.8145 0.1407126 0.6862786
0.8156484375 0.3558467 0.5629678
0.816796875 0.5036076 0.3838205
0.8179453125 0.5749835 0.178553
0.81909375 0.5727876 -0.02523563
0.8202421875 0.5064201 -0.2055938
0.821390625 0.3910732 -0.3452609
0.8225390625 0.2446506 -0.4339752
0.8236875 0.08664956 -0.4687602
0.8248359375 -0.06591854 -0.4517474
0.825984375 -0.1980907 -0.3908843
0.8271328125 -0.2991071 -0.2964067
0.82828125 -0.3629651 -0.1809379
0.8294296875 -0.3872028 -0.05748054
0.830578125 -0.3734493 0.06246877
0.8317265625 -0.32638 0.1686124
0.832875 -0.2528183 0.2528633
0.8340234375 -0.160303 0.3099679
0.835171875 -0.05815489 0.3365176
0.8363203125 0.04492944 0.3323099
0.83746875 0.1406316 0.2988292
0.8386171875 0.2212876 0.2398695
0.839765625 0.2805555 0.1604752
0.8409140625 0.3138375 0.06778954
0.8420625 0.3181877 -0.03010233
0.8432109375 0.29315 -0.1250185
0.844359375 0.2408035 -0.2082184
0.8455078125 0.1656752 -0.2720191
0.84665625 0.07435749 -0.3100911
0.8478046875 -0.02498663 -0.318745
0.848953125 -0.1224161 -0.2963597
0.8501015625 -0.2088519 -0.2449735
0.85125 -0.2756796 -0.1691114
0.8523984375 -0.3160507 -0.07586128
0.853546875 -0.3260114 0.02581565
0.8546953125 -0.304323 0.1263983
0.85584375 -0.2529094 0.216065
0.8569921875 -0.1755022 0.2867901
0.858140625 -0.07958664 0.3314483
0.8592890625 0.02708282 0.3453474
0.8604375 0.1351926 0.3262452
0.8615859375 0.2350017 0.2744045
0.862734375 0.3170105 0.1926175
0.8638828125 0.3723322 0.08609036
0.86503125 0.3936036 -0.03702325
0.8661796875 0.3753694 -0.1668135
0.867328125 0.3145364 -0.2908367
0.8684765625 0.2117992 -0.3952832
0.869625 0.07206205 -0.4656501
0.8707734375 -0.09429769 -0.4875345
0.871921875 -0.2713596 -0.449432
0.8730703125 -0.4368144 -0.3441693
0.87421875 -0.5643488 -0.1732707
0.8753671875 -0.6238801 0.0515338
0.876515625 -0.5897186 0.3026146
0.8776640625 -0.4466659 0.5379595
0.8788125 -0.199795 0.7045195
0.8799609375 0.1145609 0.7501827
0.881109375 0.431019 0.6450779
0.8822578125 0.6698071 0.4001876
0.88340625 0.7668001 0.07217686
0.8845546875 0.7033538 -0.2542062
0.885703125 0.5085715 -0.5026253
0.8868515625 0.2442524 -0.6301912
0.888 -0.02531237 -0.6338355
0.8891484375 -0.2515408 -0.5369544
0.890296875 -0.4061898 -0.3757146
0.8914453125 -0.4824097 -0.1870038
0.89259375 -0.4848815 -0.0009739916
0.8937421875 -0.4268022 0.1605061
0.894890625 -0.3249448 0.2822992
0.8960390625 -0.1969935 0.3576282
0.8971875 -0.0599387 0.3841423
0.8983359375 0.07067011 0.36489
0.899484375 0.1821543 0.3069541
0.9006328125 0.264892 0.2192478
0.90178125 0.3122864 0.1134989
0.9029296875 0.3221771 0.002160911
0.904078125 0.2956154 -0.1029933
0.9052265625 0.2380303 -0.1911099
0.906375 0.156794 -0.2538509
0.9075234375 0.06174542 -0.2854542
0.908671875 -0.03617918 -0.2845194
0.9098203125 -0.126718 -0.2522489
0.91096875 -0.2006069 -0.1934868
0.9121171875 -0.2507587 -0.1150979
0.913265625 -0.2730184 -0.02578399
0.9144140625 -0.2653889 0.06547844
0.9155625 -0.2292272 0.1492514
0.9167109375 -0.1681639 0.2173235
0.917859375 -0.0882001 0.2628075
0.9190078125 0.003431073 0.2809995
0.92015625 0.09777738 0.2689909
0.9213046875 0.1856123 0.2265449
0.922453125 0.2573775 0.155926
0.9236015625 0.3042294 0.06277309
0.92475 0.3191258 -0.04524619
0.9258984375 0.2963025 -0.1576673
0.927046875 0.2341845 -0.2613581
0.9281953125 0.1348267 -0.3427117
0.92934375 0.005766084 -0.3877699
0.9304921875 -0.140898 -0.384653
0.931640625 -0.2868421 -0.324777
0.9327890625 -0.4098318 -0.2074903
0.9339375 -0.4856387 -0.04001791
0.9350859375 -0.4917575 0.1586363
0.936234375 -0.4125911 0.3588068
0.9373828125 -0.2468083 0.520816
0.93853125 -0.01232197 0.6028932
0.9396796875 0.2490457 0.57367
0.940828125 0.479591 0.424946
0.9419765625 0.6214458 0.1827275
0.943125 0.637998 -0.09758011
0.9442734375 0.5283144 -0.3501003
0.945421875 0.326892 -0.5212314
0.9465703125 0.08541482 -0.585845
0.94771875 -0.1453901 -0.5472289
0.9488671875 -0.3280029 -0.4287152
0.950015625 -0.4422849 -0.2616491
0.9511640625 -0.4833429 -0.07778083
0.9523125 -0.4571241 0.09605739
0.9534609375 -0.3768288 0.2401713
0.954609375 -0.2591039 0.341263
0.9557578125 -0.1214575 0.3937081
0.95690625 0.01854656 0.396744
0.9580546875 0.1456653 0.3552592
0.959203125 0.2478401 0.2773085
0.9603515625 0.3161308 0.1746626
0.9615 0.3462422 0.05938899
0.9626484375 0.3378334 -0.05527912
0.963796875 0.2948102 -0.1580426
0.9649453125 0.2232203 -0.2393556
0.96609375 0.1322824 -0.2922643
0.9672421875 0.03184927 -0.3134889
0.968390625 -0.06748635 -0.3027279
0.9695390625 -0.1570978 -0.2626448
0.9706875 -0.2288134 -0.1983717
0.9718359375 -0.2769744 -0.1164381
0.972984375 -0.2979285 -0.02497573
0.9741328125 -0.290589 0.06802817
0.97528125 -0.2558852 0.1544268
0.9764296875 -0.1968424 0.2267747
0.977578125 -0.1183596 0.2783341
0.9787265625 -0.02708822 0.3046242
0.979875 0.06930047 0.3022516
0.9810234375 0.1621974 0.2705756
0.982171875 0.243019 0.2107735
0.9833203125 0.3033709 0.1270442
0.98446875 0.3360588 0.02607052
0.9856171875 0.3360377 -0.08353426
0.986765625 0.3004525 -0.1910907
0.9879140625 0.2306786 -0.2855472
0.9890625 0.1308611 -0.3558482
0.9902109375 0.009531929 -0.3921401
0.991359375 -0.1227193 -0.3876469
0.9925078125 -0.2520929 -0.3387636
0.99365625 -0.3636313 -0.2464105
0.9948046875 -0.4427878 -0.1165386
