! Created with skrf 1.8.0 (http://scikit-rf.org).
# GHz S RI R 50.0 
!freq ReS11 ImS11
0.001 -1.0001450725028629 0.000775525993476437
0.0029999 -0.9996002029266761 0.00034410586448464786
0.0049998 -0.9990115349925288 -0.003864680963249628
0.0069997 -0.9968524290134524 -0.01662815415099972
0.0089996 -1.0173614543634133 -0.044922979132784646
0.0109995 -1.0374808850195378 -0.05398322933328378
0.0129994 -1.0500132189707092 -0.0605064157674798
0.0149993 -1.0490751545626298 -0.05740667797869916
0.0169992 -1.0515500449538735 -0.057998334125493434
0.0189991 -1.0505153863186951 -0.06065734213901137
0.020999 -1.0520461771552232 -0.06530680821770994
0.0229989 -1.0512664795650353 -0.06988192102560806
0.0249988 -1.051122363815256 -0.07298901084041093
0.0269987 -1.0510312345649766 -0.07887432413019388
0.0289986 -1.0508048240542063 -0.08347270340457778
0.0309985 -1.0515823375127777 -0.08809371505002203
0.0329984 -1.0506158183839802 -0.09469985825755402
0.0349983 -1.0502629103629004 -0.10199843796845824
0.0369982 -1.0503212637167736 -0.106940747919232
0.0389981 -1.0498899414858271 -0.11366284373153934
0.040998 -1.0478762217633044 -0.11985569229657866
0.0429979 -1.0489980495201248 -0.12578497112546194
0.0449978 -1.0474978888190243 -0.13308993886053622
0.0469977 -1.0469718342867504 -0.13854649501637514
0.0489976 -1.0461669198628136 -0.14587634009285666
0.0509975 -1.0455325435969414 -0.153642268042744
0.0529974 -1.044100512250907 -0.15840037446566785
0.0549973 -1.0443952293169736 -0.16944971822488067
0.0569972 -1.0419521679416779 -0.17423427093377683
0.0589971 -1.0416426238281904 -0.1813379221571795
0.060997 -1.0400890846130286 -0.18818970019952633
0.0629969 -1.0381773452409682 -0.1947598207758043
0.0649968 -1.0386548828945366 -0.20175418816017301
0.0669967 -1.0351813465205717 -0.20947827940621463
0.0689966 -1.035297179474039 -0.214929784502867
0.0709965 -1.033412909423202 -0.21917374584865865
0.0729964 -1.0312601045023964 -0.22767119007233116
0.0749963 -1.0317609453580778 -0.23458632602392185
0.0769962 -1.0294975928110712 -0.2396840576474389
0.0789961 -1.0273444073790512 -0.24641792092590795
0.080996 -1.026832375792087 -0.2523503160433945
0.0829959 -1.025699879249838 -0.25841629256077
0.0849958 -1.0235461843508704 -0.26215070168267185
0.0869957 -1.0218013983133596 -0.2692234667626332
0.0889956 -1.0223991592212491 -0.2741377829097786
0.0909955 -1.0193971397707433 -0.2807068263925759
0.0929954 -1.019583876541669 -0.2861739652497447
0.0949953 -1.0172765333860863 -0.2900963374135316
0.0969952 -1.015780646555183 -0.2968592066656116
0.0989951 -1.0167225283526857 -0.302094332784191
0.100995 -1.0133717788114656 -0.308092752446619
0.1029949 -1.0121138034742851 -0.3138274047437828
0.1049948 -1.0098743930818115 -0.3195606918506015
0.1069947 -1.0086094163627635 -0.3248240769569979
0.1089946 -1.0072885117236678 -0.33048995574750945
0.1109945 -1.0046110085630038 -0.335919946279638
0.1129944 -1.0032612835225625 -0.3418633128549706
0.1149943 -1.001823259540168 -0.3474878378868089
0.1169942 -0.9994384346708178 -0.35375124115253703
0.1189941 -0.997163369434528 -0.35912065009761795
0.120994 -0.9952883353017006 -0.36494838413232006
0.1229939 -0.9938405818858546 -0.3708695316194472
0.1249938 -0.9907205200000267 -0.37629125678389574
0.1269937 -0.9901430583899737 -0.38270828343893737
0.1289936 -0.9859564684635836 -0.38839856520389887
0.1309935 -0.9845955151978306 -0.3940331642951952
0.1329934 -0.9817536937339214 -0.39964091500489674
0.1349933 -0.9788257022649316 -0.4072719563084851
0.1369932 -0.9775946136633922 -0.4123290771451873
0.1389931 -0.97424130333937 -0.4168484597325623
0.140993 -0.9719563127655485 -0.423350650728813
0.1429929 -0.9688511872247664 -0.4295726444754984
0.1449928 -0.9663852129760758 -0.43580379012766646
0.1469927 -0.963346159178317 -0.44028929762824487
0.1489926 -0.9605573240767048 -0.4480047533835226
0.1509925 -0.9584909474838246 -0.4527516575165571
0.1529924 -0.9556499797007517 -0.460376018098638
0.1549923 -0.9518587384832327 -0.4656064725080239
0.1569922 -0.9502971752178273 -0.4690292078127072
0.1589921 -0.9471422157491086 -0.4764339625944882
0.160992 -0.9453624656479576 -0.4805294388003019
0.1629919 -0.9422182391680932 -0.4882306213935216
0.1649918 -0.9393557258818868 -0.49308598915117513
0.1669917 -0.9368965087437942 -0.4977661211516513
0.1689916 -0.9336222176773592 -0.5036255532752865
0.1709915 -0.9303871658785814 -0.50877314979267
0.1729914 -0.9291007615267701 -0.5147559722825548
0.1749913 -0.9253452457825341 -0.5196867695231769
0.1769912 -0.9225092662727677 -0.5243616426743737
0.1789911 -0.9201522246549947 -0.5300778973456177
0.180991 -0.916604866373921 -0.5348281609265726
0.1829909 -0.9140529058136999 -0.5403897688194441
0.1849908 -0.9109780739347275 -0.5453953779689911
0.1869907 -0.9090211621250341 -0.5513403237766242
0.1889906 -0.9050586604453933 -0.5555511756311879
0.1909905 -0.9019576418047404 -0.5605238218403843
0.1929904 -0.8985738254505848 -0.5653730672040899
0.1949903 -0.8965209532903046 -0.5712737923429635
0.1969902 -0.8928099612636881 -0.5766285456711502
0.1989901 -0.8892531116852733 -0.5810516238550947
0.20099 -0.8845730932822636 -0.585931220513476
0.2029899 -0.8831093449954033 -0.5919793572074138
0.2049898 -0.8802406098129586 -0.5956620051290288
0.2069897 -0.8763427784848301 -0.6015744983144636
0.2089896 -0.8728918850597642 -0.6067152095563394
0.2109895 -0.8686275828769784 -0.6120300151111255
0.2129894 -0.8649151619886195 -0.6162522143833441
0.2149893 -0.8611379399251323 -0.6220313620587137
0.2169892 -0.8579097048106351 -0.6264575067706373
0.2189891 -0.8534416813534752 -0.6328424314237597
0.220989 -0.8496259089814469 -0.6376430836911156
0.2229889 -0.8452590496155448 -0.6411354204022175
0.2249888 -0.8416743727210529 -0.6482321301132057
0.2269887 -0.8383183736900522 -0.6529229629815964
0.2289886 -0.8345065659842609 -0.6578778477257891
0.2309885 -0.8296647353861661 -0.6628921298725379
0.2329884 -0.826207021295362 -0.6683026578862283
0.2349883 -0.8220746565870996 -0.6731120716169675
0.2369882 -0.8177211120381584 -0.6772838377127183
0.2389881 -0.8138859952310523 -0.6832101316221078
0.240988 -0.8107322688660467 -0.6881669964577605
0.2429879 -0.8056299775539353 -0.6924744596607558
0.2449878 -0.8022806682155464 -0.6971590627203336
0.2469877 -0.7977882823187777 -0.7022418249937203
0.2489876 -0.7947679504916496 -0.7075785118739001
0.2509875 -0.7895054008177576 -0.7118514957140271
0.2529874 -0.7860515151184148 -0.7162976034877173
0.2549873 -0.7815352906581228 -0.7205272410778618
0.2569872 -0.7779056806271415 -0.7255304871063007
0.2589871 -0.7731086221496022 -0.7290134367701371
0.260987 -0.7694717775210931 -0.7344241459091094
0.2629869 -0.7653770377833341 -0.7388293917415131
0.2649868 -0.7613836666369707 -0.7428615493989357
0.2669867 -0.7579817406288122 -0.7469423189085608
0.2689866 -0.7532564862778248 -0.7516258025043833
0.2709865 -0.7489319485922614 -0.7556466300286755
0.2729864 -0.7438109196895321 -0.760872119463936
0.2749863 -0.7401660245128819 -0.7649093419748211
0.2769862 -0.7359465572167605 -0.7686745631948981
0.2789861 -0.7296855391704912 -0.772668394350895
0.280986 -0.7269236448977365 -0.7772318124284556
0.2829859 -0.7222510743992929 -0.7830805800760335
0.2849858 -0.7177566911606895 -0.7861106435442078
0.2869857 -0.7131254641912509 -0.790917718402413
0.2889856 -0.7083584151696717 -0.7961441636444166
0.2909855 -0.703410489616863 -0.7995306491274148
0.2929854 -0.697428523501714 -0.8032615897553455
0.2949853 -0.693449411065913 -0.8090971795275052
0.2969852 -0.6886580417500481 -0.8131580206070846
0.2989851 -0.6828795139068359 -0.8164059585214061
0.300985 -0.6784760041803324 -0.8206918015394379
0.3029849 -0.6728769648947 -0.8236624475279435
0.3049848 -0.6687962828555097 -0.8283802173296648
0.3069847 -0.663745395663596 -0.833027777031831
0.3089846 -0.6579844202188599 -0.8367086067238768
0.3109845 -0.6537039934644137 -0.8405982059972791
0.3129844 -0.6481194163427058 -0.8454023763080452
0.3149843 -0.6422791606336344 -0.8489875771671022
0.3169842 -0.637913045239242 -0.8523947658352925
0.3189841 -0.6333514502139832 -0.8562130504424017
0.320984 -0.628282811094209 -0.8600042922365834
0.3229839 -0.622207392588506 -0.8636842543470009
0.3249838 -0.6168924598697453 -0.8673112020226308
0.3269837 -0.6117100177856563 -0.8706205701031785
0.3289836 -0.6069714533969596 -0.8734284510235677
0.3309835 -0.6020488907009527 -0.8780087378601217
0.3329834 -0.5964776670660347 -0.8808379596921573
0.3349833 -0.5912623911479725 -0.8841748339746414
0.3369832 -0.585603850829417 -0.8866066684481666
0.3389831 -0.5793624597933267 -0.8904060081824371
0.340983 -0.5740551051967122 -0.8930992085211373
0.3429829 -0.5684965430350175 -0.8971097310628141
0.3449828 -0.5630308236798472 -0.9013012860771658
0.3469827 -0.558282174305954 -0.903342468198184
0.3489826 -0.553063475912459 -0.9077344724897712
0.3509825 -0.5482617540269591 -0.9106471591093412
0.3529824 -0.5427598511758257 -0.9148025888204171
0.3549823 -0.5375915877612141 -0.917991152001708
0.3569822 -0.5324118287943299 -0.9216276032175592
0.3589821 -0.5267836728282311 -0.9245180855847549
0.360982 -0.5212460221904802 -0.927634477831828
0.3629819 -0.5159083120461583 -0.9313492045304281
0.3649818 -0.5103266451146479 -0.9344899253248191
0.3669817 -0.5057062558244672 -0.938480371048418
0.3689816 -0.49952875066925906 -0.940398269736066
0.3709815 -0.4940290601869941 -0.9440447018092271
0.3729814 -0.48773492887514647 -0.9477508147289097
0.3749813 -0.4820612242925479 -0.9498891814933577
0.3769812 -0.47736932418912403 -0.9527509240035226
0.3789811 -0.47266691366421243 -0.9564616223696824
0.380981 -0.46576647589893444 -0.9594754066756259
0.3829809 -0.4606744950210466 -0.9623153077230138
0.3849808 -0.4527924916276146 -0.9636058663102232
0.3869807 -0.44793545169982113 -0.9676756041152512
0.3889806 -0.44148949106527946 -0.9699333520309298
0.3909805 -0.43548895625256157 -0.9729213089820953
0.3929804 -0.42964509736445533 -0.9751481299272379
0.3949803 -0.423498035517643 -0.9777018306832127
0.3969802 -0.4183554010071821 -0.9811979596466928
0.3989801 -0.4114968146530327 -0.983605481660908
0.40098 -0.40553500970337486 -0.98588461054493
0.4029799 -0.40010701419219025 -0.9880113541499942
0.4049798 -0.3935142037020892 -0.9899845986148357
0.4069797 -0.3883535522383424 -0.9936465473703938
0.4089796 -0.3820578460191189 -0.9959595457320117
0.4109795 -0.37617564375560497 -0.9976354784882013
0.4129794 -0.36985291705606016 -0.9995575204132423
0.4149793 -0.36399070039088416 -1.001783973055612
0.4169792 -0.35857135882042046 -1.005334220064825
0.4189791 -0.35199789159272815 -1.0071308316521324
0.420979 -0.34564356636978444 -1.0094585897109472
0.4229789 -0.34013472456632987 -1.0112175024853383
0.4249788 -0.33370944916246215 -1.0124953046378606
0.4269787 -0.32764515375595493 -1.0148175810408808
0.4289786 -0.32163356207691757 -1.0170341775744702
0.4309785 -0.3155854096825677 -1.018512637611779
0.4329784 -0.30880251364101385 -1.0206626363337188
0.4349783 -0.3028848243569187 -1.023097898568396
0.4369782 -0.29713623417075047 -1.0249481294355283
0.4389781 -0.2904706640550572 -1.026177356964511
0.440978 -0.28433424239646343 -1.028374423249591
0.4429779 -0.2780075884020803 -1.0306603725834573
0.4449778 -0.2720362723347367 -1.0317272739688623
0.4469777 -0.2659245769829849 -1.0344570236230157
0.4489776 -0.26013097867352153 -1.036046987295411
0.4509775 -0.25251424383559756 -1.0363799143605832
0.4529774 -0.24643836648361384 -1.0379705837753368
0.4549773 -0.23967448031728622 -1.039811279468529
0.4569772 -0.2326648426329481 -1.0422442153307212
0.4589771 -0.2265692824247863 -1.043212163820112
0.460977 -0.22019875101951852 -1.0443709673436765
0.4629769 -0.21360812226486245 -1.045085882402206
0.4649768 -0.20765427817837054 -1.047779602669195
0.4669767 -0.2007624776066668 -1.04859087284006
0.4689766 -0.19485471046929967 -1.0494857106639477
0.4709765 -0.18850246714408062 -1.0503997180165108
0.4729764 -0.18117198343882457 -1.0515690218605451
0.4749763 -0.17495897484737413 -1.0517034880604357
0.4769762 -0.16907949455236004 -1.0530731035465244
0.4789761 -0.16237833664631499 -1.0540338357818628
0.480976 -0.1559416772520996 -1.0547124625999156
0.4829759 -0.1494131566158718 -1.0563374685509326
0.4849758 -0.14326007985117742 -1.0569264544955632
0.4869757 -0.1368725196751014 -1.0580399643400893
0.4889756 -0.12982233162123213 -1.0593275851157078
0.4909755 -0.12319954869576673 -1.0602044954936773
0.4929754 -0.11676058671474471 -1.0607703946622427
0.4949753 -0.10993291516702333 -1.0620956911530848
0.4969752 -0.1040073239457755 -1.0630149359713625
0.4989751 -0.09698619815261944 -1.0641055370960992
0.500975 -0.09031088789882753 -1.0647725752988353
0.5029749 -0.08438398410496839 -1.0656849001507145
0.5049748 -0.07774571718300122 -1.065975494037656
0.5069747 -0.07212183620147762 -1.066744704115497
0.5089746 -0.06571928631778401 -1.0675212926561697
0.5109745 -0.059481369540064284 -1.0682821667714515
0.5129744 -0.05278458039814171 -1.0678897504563698
0.5149743 -0.046629507731786486 -1.0685896956901448
0.5169742 -0.040087728017184326 -1.0691648318945255
0.5189741 -0.034060246452470314 -1.06928078373324
0.520974 -0.027011021328965948 -1.0688610741743454
0.5229739 -0.019764795950430965 -1.0684397102667942
0.5249738 -0.013036978156435716 -1.067786385025114
0.5269737 -0.00637863532408299 -1.0680071261869082
0.5289736 0.00046742337267349776 -1.066963604375047
0.5309735 0.007562512207371974 -1.0672990315765214
0.5329734 0.015065910220927459 -1.067267979414672
0.5349733 0.022069277496685566 -1.066773421014588
0.5369732 0.02882702629025466 -1.066446698009495
0.5389731 0.03551886835850733 -1.0659740842575967
0.540973 0.042808097718766744 -1.0670733172370162
0.5429729 0.04948768401155053 -1.0667945571965818
0.5449728 0.05525169166773658 -1.0668151161997563
0.5469727 0.06233329872127159 -1.066147651638427
0.5489726 0.06929132467203995 -1.0658659391748697
0.5509725 0.07583667416745887 -1.0657789824933943
0.5529724 0.08291257926053067 -1.064774111424973
0.5549723 0.08939432965182154 -1.0642253221640965
0.5569722 0.09614803264938078 -1.0640119355173645
0.5589721 0.10308427105421121 -1.0632485231305577
0.560972 0.10971533198483671 -1.062653040095422
0.5629719 0.11682203078503747 -1.0624120381012228
0.5649718 0.1230009591550458 -1.061199873403157
0.5669717 0.12987484402339408 -1.060128806660601
0.5689716 0.13632547627980712 -1.059684893632117
0.5709715 0.14333246653175305 -1.0594206688119407
0.5729714 0.14992851222735218 -1.0579272521102467
0.5749713 0.15611481411565292 -1.057507632203532
0.5769712 0.16328290507831594 -1.0570848907750587
0.5789711 0.1689092550694605 -1.0567747848733433
0.580971 0.17594744913214466 -1.0549625775922458
0.5829709 0.18324382637009085 -1.0538020773960257
0.5849708 0.1897132279179456 -1.0521005040680658
0.5869707 0.19617083387881912 -1.050924951887315
0.5889706 0.20300094637011906 -1.0500554883876834
0.5909705 0.21035876974724577 -1.0481720528343357
0.5929704 0.21579324500482205 -1.0474372926927922
0.5949703 0.22293404523695007 -1.0461270289918359
0.5969702 0.22978822413486208 -1.045488015752559
0.5989701 0.23701272010816055 -1.0429469032534455
0.60097 0.24370835131066892 -1.0413147552208721
0.6029699 0.24980813929197077 -1.0399846112950506
0.6049698 0.25645715904819205 -1.0386696314109582
0.6069697 0.26332391223748924 -1.0366223831818981
0.6089696 0.26935301279869284 -1.0348700045498431
0.6109695 0.2759671777672843 -1.0336143247828506
0.6129694 0.28212439271264045 -1.03158665638297
0.6149693 0.2890965378890381 -1.029863437786444
0.6169692 0.2955312349179211 -1.0276720742648535
0.6189691 0.3018814078485552 -1.0259849963567769
0.620969 0.30790242043609006 -1.0240718452775703
0.6229689 0.3154134775626397 -1.0223455570192865
0.6249688 0.3217899240364697 -1.0200211421681895
0.6269687 0.32795250174617746 -1.0176833718048088
0.6289686 0.335011168345714 -1.015978152308442
0.6309685 0.34167253105950696 -1.0144533698535239
0.6329684 0.34757471671373813 -1.0114977393253743
0.6349683 0.3548463742613692 -1.009769760587793
0.6369682 0.3611703832537876 -1.0081314562336012
0.6389681 0.3679738546539545 -1.0056907790051488
0.640968 0.3740567121651865 -1.0035145120480937
0.6429679 0.3803256993087837 -1.0013713181375652
0.6449678 0.38654669810418846 -0.9986723201838209
0.6469677 0.39291061798485327 -0.9963466600913701
0.6489676 0.3991922078562291 -0.9934127963812799
0.6509675 0.4060805653074612 -0.9905675975086538
0.6529674 0.41200124991928516 -0.9876225356585161
0.6549673 0.41827861559630786 -0.9854811202600899
0.6569672 0.42475565538516785 -0.9824879919396672
0.6589671 0.4313652112160464 -0.9798121508391769
0.660967 0.43678435745354816 -0.9773035574437638
0.6629669 0.4435422495903033 -0.9744019868349575
0.6649668 0.4500148540320505 -0.9717726536863445
0.6669667 0.4562354794681913 -0.9689451898780329
0.6689666 0.4624144713042283 -0.9661045360897478
0.6709665 0.4691379928425859 -0.9633338564962768
0.6729664 0.47508360603934574 -0.9606062086069753
0.6749663 0.48125818174761503 -0.9576568432621727
0.6769662 0.4879391945980288 -0.9549118856585397
0.6789661 0.4933717818184472 -0.9524141034805882
0.680966 0.5003090896662299 -0.9480987375267217
0.6829659 0.5059986409241997 -0.944372941928322
0.6849658 0.5124392864311819 -0.9421519536674522
0.6869657 0.5183044115239356 -0.9376667217461029
0.6889656 0.5241638588674101 -0.9344641044896068
0.6909655 0.5301134136524877 -0.931096901898619
0.6929654 0.5359537041052489 -0.9273967016589515
0.6949653 0.5420674749676629 -0.9239822420189818
0.6969652 0.5479960822639443 -0.9203604028736453
0.6989651 0.5540288737730649 -0.9170510426272754
0.700965 0.5600494270172313 -0.9125923366758272
0.7029649 0.5657874928239506 -0.9095076286450577
0.7049648 0.5722029408274846 -0.9062526886228677
0.7069647 0.5779799209631419 -0.9021929507909221
0.7089646 0.5840685178312901 -0.8987398423833409
0.7109645 0.5892340937602174 -0.8950793302102498
0.7129644 0.5955421000488732 -0.8917197643516471
0.7149643 0.6016286094239416 -0.8879933303779737
0.7169642 0.6070441637386447 -0.8838445106406232
0.7189641 0.6128200621730729 -0.8795207311942207
0.720964 0.6183744992334489 -0.8758836428597312
0.7229639 0.624160268781388 -0.8720806162671119
0.7249638 0.6299496126225962 -0.8680740882107238
0.7269637 0.6352182665931745 -0.8638944166639452
0.7289636 0.640746837099122 -0.8597390599442869
0.7309635 0.6465667589002222 -0.8547595131296831
0.7329634 0.6525133939762362 -0.8508732280167676
0.7349633 0.6580610113528635 -0.8468080192522232
0.7369632 0.663235599495634 -0.8427126795845469
0.7389631 0.6687374109900477 -0.838738658008181
0.740963 0.6745294107555666 -0.8352897987319327
0.7429629 0.6802041941246952 -0.8309573889423578
0.7449628 0.6855869293614257 -0.8267357038290228
0.7469627 0.6905159610449069 -0.8219465202672787
0.7489626 0.6966079945463094 -0.8180214525409173
0.7509625 0.7015415687439313 -0.8126447654345353
0.7529624 0.7067097499628718 -0.8081766063296506
0.7549623 0.7120047010211138 -0.802995631615146
0.7569622 0.7174525494912721 -0.7979178708466588
0.7589621 0.7223515487030094 -0.7933297491133278
0.760962 0.7271968608161983 -0.7881622880374661
0.7629619 0.732542026593619 -0.7827234009674837
0.7649618 0.7376520465516285 -0.7785098445960369
0.7669617 0.7428740112028791 -0.7724680532885663
0.7689616 0.7479469069507074 -0.7675651043962788
0.7709615 0.7532809174560209 -0.7634177228040246
0.7729614 0.7582428956270146 -0.7583981211428903
0.7749613 0.7640100407355263 -0.7537439705982962
0.7769612 0.7688622055739028 -0.7495822034222601
0.7789611 0.7744197295886979 -0.7438906375156684
0.780961 0.7789889887085383 -0.7386133694866444
0.7829609 0.7837726799087041 -0.7343483721639396
0.7849608 0.7893166586906939 -0.7286810477330178
0.7869607 0.7936172227339304 -0.7236297100985982
0.7889606 0.7983786334544692 -0.7178561863632242
0.7909605 0.8027374612736535 -0.7125338160714302
0.7929604 0.8075297929994191 -0.7072624505437786
0.7949603 0.8122206032415159 -0.7014803829041886
0.7969602 0.816350269326263 -0.6966492923857788
0.7989601 0.821288754931109 -0.6912877065549309
