! Created with skrf 1.8.0 (http://scikit-rf.org).
# GHz S RI R 50.0 
!freq ReS11 ImS11
0.001 -1.0009173316026378 0.0001719308779052353
0.0029999 -1.0213743342701334 -0.05510038435371439
0.0049998 -0.8623994016964183 -0.06301543836882062
0.0069997 -0.4159649049142127 0.2250102471352873
0.0089996 0.01808691573890285 -0.038301897825913006
0.0109995 0.020060455072341794 -0.01499328096889789
0.0129994 0.030282211823452167 -0.0046212475328138245
0.0149993 0.010078772419544305 -0.03556357726210151
0.0169992 0.0073119437062763495 -0.030577301967945253
0.0189991 -0.005411087710327874 -0.023278940437317108
0.020999 0.0008754149771878502 -0.023482958839018693
0.0229989 -0.00013589413180428776 -0.019440306726744083
0.0249988 -0.006571429208739654 -0.01802414258367901
0.0269987 -0.004276043457214428 -0.017520003841590588
0.0289986 -0.007968417287487838 -0.015685868276917297
0.0309985 -0.008592944669967408 -0.016092091800900803
0.0329984 -0.007943436104519318 -0.013439759967372168
0.0349983 -0.004071117946823014 -0.01119231972041581
0.0369982 -0.006919051853055304 -0.01116421384408259
0.0389981 -0.005260151911205683 -0.008287598099866459
0.040998 -0.00879056917038119 -0.008206220804072179
0.0429979 -0.00736510378378881 -0.006238148685826743
0.0449978 -0.006784166610196438 -0.003246209331802803
0.0469977 -0.009862405167142272 -0.005438487346989557
0.0489976 -0.00859386041199048 -0.0006513267707569697
0.0509975 -0.006695756793474202 0.00018824261177384277
0.0529974 -0.006121778111741674 0.0021018843650816034
0.0549973 -0.006797442306461723 -0.0006763226153664725
0.0569972 -0.006723647254187541 0.0019205977877563992
0.0589971 -0.008698545986074509 0.0007876950723647384
0.060997 -0.006180692896663983 -0.00022501983072662927
0.0629969 -0.007300153828877825 0.0026516014638416083
0.0649968 -0.008639261280276906 -0.00011073184491315114
0.0669967 -0.006295279781445819 0.0022122294918312515
0.0689966 -0.006455721221311374 0.0011409042358670814
0.0709965 -0.010935074782362785 0.0011455196577906108
0.0729964 -0.008079344908657804 0.004005582392483561
0.0749963 -0.005933082199962834 -0.00027065742833833707
0.0769962 -0.006422402358093131 0.0007399824593664131
0.0789961 -0.004853050657982468 0.0023843611456443804
0.080996 -0.006770598967544081 0.000567596334290495
0.0829959 -0.006152214245411687 0.002047082278187033
0.0849958 -0.006426082949386659 0.003191003741078097
0.0869957 -0.005052822669358063 0.003528485408054971
0.0889956 -0.005614480056512696 0.0018876716687082674
0.0909955 -0.004270848114325077 0.00439226980647881
0.0929954 -0.004711670086910548 0.0028569503814944138
0.0949953 -0.006329566261742797 0.004706198309500139
0.0969952 -0.005096620801894826 0.006001889264423739
0.0989951 -0.0068712181552719066 0.004518982690770151
0.100995 -0.0036060415969448633 0.004347412776101727
0.1029949 -0.002457879987123858 0.005124246998659455
0.1049948 -0.0027437428623545107 0.005185340335976225
0.1069947 -0.003436365170414161 0.006910740715461642
0.1089946 -0.0033472684119251173 0.007704785933519391
0.1109945 -0.004151157407320828 0.00966731253052182
0.1129944 -0.004036795612863273 0.009461244135362984
0.1149943 -0.004944521243921746 0.010003376523085594
0.1169942 -0.004593345743186742 0.011193478828329067
0.1189941 -0.005504075578897644 0.012645216445081578
0.120994 -0.0066385142217483 0.012644599451185567
0.1229939 -0.006885578102347698 0.01228363468905975
0.1249938 -0.007608303709959675 0.013602318464243233
0.1269937 -0.008588297682947693 0.012589380568788406
0.1289936 -0.008972972602972997 0.013987643755837225
0.1309935 -0.00933524750657912 0.012548989876202685
0.1329934 -0.009579667175534202 0.014242769407086688
0.1349933 -0.00872717827369088 0.014104754518172676
0.1369932 -0.009492678648542321 0.013615778006048618
0.1389931 -0.010646919872738352 0.014113721337249864
0.140993 -0.01012167074814369 0.013310719755127988
0.1429929 -0.009928473563752448 0.015474682968345744
0.1449928 -0.01041618810121597 0.013125669395197409
0.1469927 -0.011127221421952598 0.014023535281264689
0.1489926 -0.010054740984232098 0.014092048218064871
0.1509925 -0.011975834514404768 0.012908350491056835
0.1529924 -0.010191326991797695 0.013051024755307639
0.1549923 -0.010390087604291316 0.013831668687545505
0.1569922 -0.01152778007310006 0.014432530822978896
0.1589921 -0.01058179915185471 0.013930877719268684
0.160992 -0.01248896681796188 0.014198155707695798
0.1629919 -0.010195688097553352 0.013665939168371288
0.1649918 -0.01106378490602086 0.014530697006700835
0.1669917 -0.01109651616461095 0.01432012248770345
0.1689916 -0.010372859882308967 0.014341419517273093
0.1709915 -0.011545367467600001 0.016222461349917634
0.1729914 -0.010943273083389214 0.015062472530208088
0.1749913 -0.01082706731090785 0.015988401818143583
0.1769912 -0.010999200095368596 0.01611410187005865
0.1789911 -0.010955584297595999 0.016574087314281873
0.180991 -0.011226580365365437 0.017156089275373043
0.1829909 -0.011343821983379885 0.017239589335963878
0.1849908 -0.011962327406181417 0.01807452027501965
0.1869907 -0.0117067814880283 0.01720212038515807
0.1889906 -0.012266616093865056 0.01823309879630954
0.1909905 -0.01294287107145816 0.01871852791148742
0.1929904 -0.01339520854987716 0.019065852135881352
0.1949903 -0.013367172133268357 0.0189505375751605
0.1969902 -0.0140882368520668 0.019020418858475753
0.1989901 -0.0145387223266699 0.019862282393344612
0.20099 -0.015093545236913877 0.02024541894298395
0.2029899 -0.014408248526217228 0.02000542179001496
0.2049898 -0.016114242133263852 0.01999188469492036
0.2069897 -0.015134954217931786 0.020011109290670053
0.2089896 -0.016312512091641754 0.020432143154752277
0.2109895 -0.016208939601910267 0.020417905002638254
0.2129894 -0.017016026084311534 0.02098610930159643
0.2149893 -0.01661518965572544 0.020887856140910772
0.2169892 -0.017757233809268157 0.020723946464337235
0.2189891 -0.01728731290900965 0.020712883883864122
0.220989 -0.017325351104829516 0.02153261432641845
0.2229889 -0.017776975443451325 0.02228673190202167
0.2249888 -0.017604940797641536 0.021158265490194905
0.2269887 -0.01845624828639808 0.020997655708114807
0.2289886 -0.018650162325823477 0.021374012442427037
0.2309885 -0.018642656771176082 0.021520269770699506
0.2329884 -0.019323462191397328 0.021443755237036097
0.2349883 -0.019016609751541215 0.02185192046739946
0.2369882 -0.01993357215680793 0.02204094172851829
0.2389881 -0.01946628766099932 0.021736974305325417
0.240988 -0.019853322724566785 0.021757219607396763
0.2429879 -0.01955140475084296 0.02206289306916754
0.2449878 -0.02003852122001716 0.022211724877209887
0.2469877 -0.020242255534547005 0.022623651612439163
0.2489876 -0.02022079810597399 0.021577935819018255
0.2509875 -0.020294017709414917 0.022266575186337165
0.2529874 -0.020812651183589288 0.022766769931383907
0.2549873 -0.020673427791812037 0.022417283049270008
0.2569872 -0.020471448487085438 0.022106520543728622
0.2589871 -0.02073231694412507 0.023020672660608085
0.260987 -0.02063601690996256 0.022496348498601472
0.2629869 -0.020730010104234524 0.022792832556944538
0.2649868 -0.021572681224579535 0.02325238289467749
0.2669867 -0.021585759554300477 0.02358537414142324
0.2689866 -0.021507489070120477 0.02370304102087596
0.2709865 -0.021604980327685798 0.023785120395239702
0.2729864 -0.02102868266619183 0.02443481482253437
0.2749863 -0.021953262795239036 0.024729355254808807
0.2769862 -0.02124392951229531 0.025068823777826783
0.2789861 -0.0217664879656641 0.026262904829382525
0.280986 -0.02215077500114006 0.026375897026893597
0.2829859 -0.02225970249965747 0.02666839235296274
0.2849858 -0.022744132828090832 0.026765447577743698
0.2869857 -0.023242724364231762 0.027387597142211954
0.2889856 -0.023532997447995644 0.027943567695228898
0.2909855 -0.024220524255434833 0.028313248566248766
0.2929854 -0.024376131224843854 0.029308505621708662
0.2949853 -0.02454934375016484 0.028995796469707694
0.2969852 -0.025524177387918616 0.029090353854767992
0.2989851 -0.02605066553692019 0.030028669447450883
0.300985 -0.027171249297547738 0.0303309135877361
0.3029849 -0.027677206385044614 0.03083699595656944
0.3049848 -0.028525209793841204 0.03050527108651443
0.3069847 -0.0292095968604438 0.03011635841722747
0.3089846 -0.029815356900276827 0.03046479828096035
0.3109845 -0.030515313287179734 0.030712820513536448
0.3129844 -0.031556615494399226 0.030518326916036054
0.3149843 -0.032327911346218915 0.03053217852895495
0.3169842 -0.032979096842146276 0.030324278255188592
0.3189841 -0.03411141957958459 0.029824893498425938
0.320984 -0.03495837127622314 0.029826052076506283
0.3229839 -0.03487225353089006 0.030064025610935116
0.3249838 -0.035282566495459945 0.030385207267829804
0.3269837 -0.036255247013808056 0.029979371312992394
0.3289836 -0.03682426131228563 0.029724349423611275
0.3309835 -0.03661594933778416 0.028893444700550677
0.3329834 -0.03640345861713055 0.028652035785267024
0.3349833 -0.036682640304100976 0.02812389167541981
0.3369832 -0.036259721591588225 0.0277595455653413
0.3389831 -0.0362551643420141 0.02740541215112935
0.340983 -0.036192309833795205 0.02720209795921544
0.3429829 -0.03592603706298875 0.02683148394676159
0.3449828 -0.035577842784686425 0.026307510030267958
0.3469827 -0.03502749127632425 0.02684343835831273
0.3489826 -0.03504649991077899 0.026591808767484616
0.3509825 -0.035128584150956446 0.02676363884873869
0.3529824 -0.03482934992246178 0.026874802747591776
0.3549823 -0.03464532905364951 0.027208916760880344
0.3569822 -0.034680146948968704 0.02765055665849619
0.3589821 -0.03477085125576643 0.028126046991931407
0.360982 -0.034604135647404596 0.02850962327499305
0.3629819 -0.03438345331716399 0.028891427784661354
0.3649818 -0.03491953481981407 0.029434546482346453
0.3669817 -0.03542984307888508 0.02949740724992122
0.3689816 -0.035413668635351864 0.030382675620987683
0.3709815 -0.03599221776375397 0.03052115514952446
0.3729814 -0.036308864479172316 0.030898598970127172
0.3749813 -0.0369403782586937 0.03166224711705133
0.3769812 -0.037681855462751365 0.031882391539103966
0.3789811 -0.038652970739826396 0.03188397186100359
0.380981 -0.03917199990368019 0.03205411066986502
0.3829809 -0.03995452351071597 0.03235730909233242
0.3849808 -0.040186098180425615 0.03288855220611301
0.3869807 -0.04148258217160107 0.032464299137003556
0.3889806 -0.0417975095379734 0.0327119774878158
0.3909805 -0.04268718373836211 0.032709314295429816
0.3929804 -0.04290974461986523 0.03240987620715162
0.3949803 -0.04367995408567554 0.03220897739931186
0.3969802 -0.044491890596192574 0.031323062672369645
0.3989801 -0.044960261412734355 0.03140656931363226
0.40098 -0.04538895169615614 0.031082610174998603
0.4029799 -0.04577676778724634 0.03069640164875713
0.4049798 -0.04611686786575901 0.030497119938578558
0.4069797 -0.04618483456606606 0.029783375281015864
0.4089796 -0.04659262298328439 0.029551793081172215
0.4109795 -0.046671190737117486 0.029427602030110273
0.4129794 -0.04663585764078182 0.02935194600876518
0.4149793 -0.04675507750719647 0.028794585310014255
0.4169792 -0.04640070333614039 0.02834931786773296
0.4189791 -0.04646005259467491 0.028326398382269254
0.420979 -0.04637456292540368 0.028228109583565128
0.4229789 -0.04675064233786605 0.028653894209183982
0.4249788 -0.046550373681052123 0.028790183234931165
0.4269787 -0.046405954610295855 0.029166592185419192
0.4289786 -0.04638236578711709 0.02928828756178741
0.4309785 -0.04653118226924749 0.0297593402645138
0.4329784 -0.04658934076456678 0.02999354838758137
0.4349783 -0.04714167752025745 0.030014457976104247
0.4369782 -0.04771121976441352 0.030631343987985497
0.4389781 -0.04761495263195879 0.0312878889599708
0.440978 -0.04820398629127263 0.031381271141219566
0.4429779 -0.04889326875869317 0.03149694012130637
0.4449778 -0.04978707657547011 0.032047337392074896
0.4469777 -0.05042262719993759 0.03189654720753361
0.4489776 -0.050874734933390627 0.03222666747546294
0.4509775 -0.05152325694907833 0.03268273101179106
0.4529774 -0.05223739363327894 0.03292032581797942
0.4549773 -0.05316998417181802 0.03261376438946147
0.4569772 -0.05371220756542068 0.03219442633787407
0.4589771 -0.054646031190508655 0.03225098975338985
0.460977 -0.05533259055554351 0.031883093635513234
0.4629769 -0.05600642050522337 0.031681496099649736
0.4649768 -0.057010149800483176 0.03087081341309875
0.4669767 -0.05694775703002172 0.030605964270178927
0.4689766 -0.057690078946220906 0.03017044930925291
0.4709765 -0.058245978985897055 0.029630227815793247
0.4729764 -0.058233390534823376 0.02918157515924627
0.4749763 -0.058533689453807686 0.028911101409275233
0.4769762 -0.05886119949115478 0.028488210849634786
0.4789761 -0.05862620761935152 0.027857707658326295
0.480976 -0.058856664159749765 0.027635758740833127
0.4829759 -0.059048265411606606 0.027185326245618535
0.4849758 -0.05890315388632754 0.02687342886854899
0.4869757 -0.058891152562644405 0.02675361175224391
0.4889756 -0.05842058381703247 0.02645454317914289
0.4909755 -0.05807603611305657 0.026275942123787605
0.4929754 -0.058149557982972805 0.026451742453039655
0.4949753 -0.0579575386433287 0.026528531570630988
0.4969752 -0.05791305161652653 0.026729165538961763
0.4989751 -0.05816193021799018 0.02688780000452422
0.500975 -0.05780419198290382 0.02716813307913205
0.5029749 -0.0580264594626092 0.02754187477153932
0.5049748 -0.05851022640530093 0.027925264515366234
0.5069747 -0.059027092693946945 0.0281742855491559
0.5089746 -0.05908926740447121 0.028419909575135148
0.5109745 -0.05947570217091122 0.028627094030566208
0.5129744 -0.05996622347784304 0.029080404321172704
0.5149743 -0.06025610982313886 0.029647446072176634
0.5169742 -0.06117193192592579 0.029788754858186176
0.5189741 -0.06178406049339297 0.030010952261217468
0.520974 -0.06246499080367281 0.02986347394873365
0.5229739 -0.06325559582914493 0.029928103421228116
0.5249738 -0.06366657457480468 0.03019926763834422
0.5269737 -0.06462429531648534 0.030223900826370956
0.5289736 -0.06576439796235203 0.030220353742632662
0.5309735 -0.06608249839808823 0.029822254738541363
0.5329734 -0.06673875478483202 0.02962672348955058
0.5349733 -0.067444888389854 0.029525408950537315
0.5369732 -0.06788383878009635 0.0292229381652838
0.5389731 -0.06864091577910922 0.028859663131196953
0.540973 -0.06911616283066378 0.027979501733392916
0.5429729 -0.06959655630079287 0.027421704782429748
0.5449728 -0.07020065555412981 0.026806755219471515
0.5469727 -0.07021966934306492 0.026290361691164527
0.5489726 -0.0706333506761946 0.025870059904096156
0.5509725 -0.07075867506046954 0.025147796172552913
0.5529724 -0.07093616591626858 0.024827398411323427
0.5549723 -0.07102701761685898 0.0244942498472216
0.5569722 -0.0709029255452158 0.024010981095711884
0.5589721 -0.07072111167738482 0.023692881633894863
0.560972 -0.07051759158648704 0.02361855195912876
0.5629719 -0.07050708720870762 0.02331232547072697
0.5649718 -0.07025195626681051 0.023225291431427503
0.5669717 -0.07016910468287295 0.023386764227342167
0.5689716 -0.07022493888663328 0.02364072736204849
0.5709715 -0.07027313162884119 0.023640547134046168
0.5729714 -0.07048645188368236 0.02366294334189996
0.5749713 -0.07070688701113545 0.023872566541115015
0.5769712 -0.07108908780555816 0.023749887954538244
0.5789711 -0.07121162809751 0.02415797842841497
0.580971 -0.07136304929562559 0.024645568516101727
0.5829709 -0.07142671206192139 0.025002324326529442
0.5849708 -0.07253137112211124 0.02528075178349093
0.5869707 -0.07272923248172905 0.025481391271401737
0.5889706 -0.07350438486822773 0.025203294149398824
0.5909705 -0.07429628485168034 0.025230108867429095
0.5929704 -0.07513250535321941 0.025136217933914986
0.5949703 -0.07554746328631541 0.025223327900517303
0.5969702 -0.07638853385349162 0.024753793364221538
0.5989701 -0.07712608547035445 0.024744626967621187
0.60097 -0.07763564461203999 0.024550262530454538
0.6029699 -0.07832494419075184 0.024118872338635564
0.6049698 -0.07888532655850028 0.023749846817378597
0.6069697 -0.07947204344755847 0.023122770814444894
0.6089696 -0.07996946480227403 0.022914642850732584
0.6109695 -0.08020384272688225 0.021966928756624503
0.6129694 -0.08064433588303478 0.021407048900688102
0.6149693 -0.08098358027208888 0.0206882554668895
0.6169692 -0.08115615944890117 0.02030248552425073
0.6189691 -0.08122890763096798 0.019631361156645485
0.620969 -0.08122953454109348 0.019349769663892284
0.6229689 -0.08106212849908821 0.018720481052407117
0.6249688 -0.08112986980457557 0.01833913781627151
0.6269687 -0.0809495825385249 0.018106189825191132
0.6289686 -0.08076253531441008 0.017697368105066235
0.6309685 -0.08033146827179063 0.01774286366677021
0.6329684 -0.08037988591145688 0.017891215151513064
0.6349683 -0.08025188541952767 0.01786992501138441
0.6369682 -0.08017743279291674 0.017678574061370602
0.6389681 -0.08006915966865508 0.017620747066814907
0.640968 -0.07970228752113573 0.017727958843108016
0.6429679 -0.08013742324778618 0.018117333215728837
0.6449678 -0.08050068982017103 0.01856066527803454
0.6469677 -0.08069625923019592 0.01894177718903197
0.6489676 -0.08079717122381778 0.01922263424058892
0.6509675 -0.08154617361276595 0.019836420383789917
0.6529674 -0.08218804355245805 0.02013354509350533
0.6549673 -0.08266298544412687 0.020356789964976942
0.6569672 -0.08344724175276357 0.02076250542069845
0.6589671 -0.08388361762086023 0.020782242230418985
0.660967 -0.08468446426722359 0.020784665165615522
0.6629669 -0.0855706919599876 0.020801589150039372
0.6649668 -0.08659098401046458 0.020505496232178462
0.6669667 -0.08750762755204951 0.020040167343068526
0.6689666 -0.08810477809175439 0.019519014516215866
0.6709665 -0.08872315501241407 0.01884314206129356
0.6729664 -0.08971562836164419 0.01848567710924485
0.6749663 -0.09047143332631224 0.017776711890740923
0.6769662 -0.09108878126064487 0.01698236514566796
0.6789661 -0.09200171981662264 0.01606710076815338
0.680966 -0.09215493004540368 0.01526477986231057
0.6829659 -0.0924985312748625 0.014480130000354294
0.6849658 -0.09281912026905845 0.013555083348394642
0.6869657 -0.09253466314992406 0.012744479327645233
0.6889656 -0.09271633964572974 0.011888694992006454
0.6909655 -0.09242086819001481 0.011373710850362987
0.6929654 -0.09246345568809347 0.010686890053311342
0.6949653 -0.09220364543192705 0.010421167591921469
0.6969652 -0.09178439169026849 0.009747222453038662
0.6989651 -0.09167609930704869 0.00932216584168128
0.700965 -0.0914369740003656 0.009171122599842537
0.7029649 -0.09104484643569799 0.00894041828539956
0.7049648 -0.09086524181482585 0.0086627090307612
0.7069647 -0.09046744029334244 0.0087965328964382
0.7089646 -0.08977405583158836 0.008841487822482803
0.7109645 -0.09002949360703587 0.009114287051933675
0.7129644 -0.09030637409208926 0.009410836400170684
0.7149643 -0.09021904562316382 0.009568645205928285
0.7169642 -0.09044215426809471 0.010072303439707272
0.7189641 -0.0909657479561814 0.010513708626671631
0.720964 -0.09113621568575689 0.010614915253656876
0.7229639 -0.09148002683078604 0.010621091831515193
0.7249638 -0.09197294656551135 0.011071994794223779
0.7269637 -0.0924937790798576 0.011455820821096061
0.7289636 -0.0932836492125097 0.011625142168454242
0.7309635 -0.09361368791944302 0.011658056442809275
0.7329634 -0.09451046448559305 0.011793896354970503
0.7349633 -0.09565547577987771 0.011339298293002432
0.7369632 -0.09635552591560809 0.011300877933405697
0.7389631 -0.0974006445365436 0.010824125689856343
0.740963 -0.09787055083734802 0.010182574027271785
0.7429629 -0.09857750572645044 0.009387787006413378
0.7449628 -0.09905165772563496 0.008517815495563609
0.7469627 -0.09963265260601367 0.007791080040517453
0.7489626 -0.09994469802675611 0.006800993646409063
0.7509625 -0.10039161991982536 0.006186407705813329
0.7529624 -0.10098208110835794 0.005120231364273985
0.7549623 -0.100973579403977 0.00431734376413986
0.7569622 -0.10098547876067529 0.0033068009222755185
0.7589621 -0.1009018548091801 0.002470382113128042
0.760962 -0.10073673332682125 0.001760199883833538
0.7629619 -0.10040618203388639 0.001077795658199092
