! Created with skrf 1.8.0 (http://scikit-rf.org).
# GHz S RI R 50.0 
!freq ReS11 ImS11
0.001 -0.999916809128921 0.0003935796478054367
0.0029999 -1.000585109984463 0.0009934887102117035
0.0049998 -1.0035928395297362 0.0017214306394300952
0.0069997 -1.0176021879658415 0.0030555340785466956
0.0089996 -1.026056714028438 -0.005282318860794916
0.0109995 -1.0312342534279684 -0.012233306393473267
0.0129994 -1.0345524297579058 -0.01989446260267931
0.0149993 -1.0374159278265884 -0.027530681335833404
0.0169992 -1.0396253565039049 -0.035114743370107046
0.0189991 -1.0414428691329285 -0.042058004734878404
0.020999 -1.0423453062175578 -0.050006294688904857
0.0229989 -1.0429692866131373 -0.058046432531118075
0.0249988 -1.0435543407041994 -0.06485837092278796
0.0269987 -1.0437247212946932 -0.07265105036329328
0.0289986 -1.0434100592086586 -0.07922444328059548
0.0309985 -1.0438365677493242 -0.0856830461620443
0.0329984 -1.0434249593951663 -0.09296468500537049
0.0349983 -1.0430450417837118 -0.10059982902610706
0.0369982 -1.042794951124276 -0.10702844157653321
0.0389981 -1.0423026963488535 -0.11394779590556996
0.040998 -1.0421837481924676 -0.1196534733676925
0.0429979 -1.0405755185051295 -0.12520118502122726
0.0449978 -1.0402906081423628 -0.1328546514118068
0.0469977 -1.0400122807660446 -0.13740164783529651
0.0489976 -1.0380922811399684 -0.1440882022230863
0.0509975 -1.0379544691212712 -0.1513515194478634
0.0529974 -1.0372977169584603 -0.1576731440001272
0.0549973 -1.0368739746011337 -0.16333397149550388
0.0569972 -1.0353554046425277 -0.16899479198174389
0.0589971 -1.0354422802449532 -0.17465450257293288
0.060997 -1.034349455264009 -0.18117102049786754
0.0629969 -1.0329422328025024 -0.18671647125101778
0.0649968 -1.0332883280277494 -0.19254605187533624
0.0669967 -1.0310231419000027 -0.19920113394527766
0.0689966 -1.0308841582219443 -0.20465478969192602
0.0709965 -1.0292310400576254 -0.208840799908589
0.0729964 -1.0275500006016451 -0.21626137987632627
0.0749963 -1.0283467580583767 -0.2236935594664757
0.0769962 -1.0270494900264115 -0.2278909765181333
0.0789961 -1.0248973779181825 -0.23475689577948872
0.080996 -1.0246558162403472 -0.24077767076352366
0.0829959 -1.0227997878364985 -0.24678910956556666
0.0849958 -1.0208480018190174 -0.2517489273074035
0.0869957 -1.0192337595462382 -0.2588920795246458
0.0889956 -1.019253861519925 -0.26451392331359425
0.0909955 -1.0165280493520807 -0.2713363109930371
0.0929954 -1.0160608530164306 -0.27731881960863874
0.0949953 -1.0133935181129419 -0.2825553692346035
0.0969952 -1.0116494475001159 -0.2898528366574772
0.0989951 -1.011138628906927 -0.29499161819445285
0.100995 -1.0089409765077961 -0.30227561731540054
0.1029949 -1.007007094822581 -0.30890138096095987
0.1049948 -1.0050638447528342 -0.3145120484466268
0.1069947 -1.0034455790299455 -0.3208920566054355
0.1089946 -1.001405882621546 -0.32652567208299627
0.1109945 -0.998505195890066 -0.33228809157773626
0.1129944 -0.9965604355229442 -0.33870188851040284
0.1149943 -0.9948080868634772 -0.34478617041728
0.1169942 -0.9925819550207858 -0.3508633237426691
0.1189941 -0.9896018811246186 -0.3564228392896055
0.120994 -0.9890981987432835 -0.36214188930690816
0.1229939 -0.9864667650646838 -0.36795298505504004
0.1249938 -0.9838864070447221 -0.37330350991478
0.1269937 -0.9830376617988054 -0.3787842216589369
0.1289936 -0.9794438574025676 -0.3848725498454662
0.1309935 -0.9779468625185797 -0.3909118147356873
0.1329934 -0.9745838346342048 -0.3949918655644913
0.1349933 -0.9734447386719788 -0.4013791455635916
0.1369932 -0.9716394596578065 -0.4074169522264546
0.1389931 -0.9688257347972982 -0.4119699256208587
0.140993 -0.9671530582651039 -0.41823371941969223
0.1429929 -0.9652837732602287 -0.4241217963927163
0.1449928 -0.9624027314857523 -0.4277996774760118
0.1469927 -0.9596657024507249 -0.43344594008688786
0.1489926 -0.9567584853808372 -0.4405546124408282
0.1509925 -0.9557338003334297 -0.44544142320933205
0.1529924 -0.9534834688600254 -0.45088439100517463
0.1549923 -0.9490344872233154 -0.4568868784976476
0.1569922 -0.9477933492006523 -0.4614641232935088
0.1589921 -0.9442505474230894 -0.4683811160130748
0.160992 -0.9428521267842312 -0.47304784994590937
0.1629919 -0.9395046319086391 -0.4795061333891476
0.1649918 -0.9367489052980111 -0.48499032278414245
0.1669917 -0.9346918176749153 -0.4899747767059167
0.1689916 -0.9312451946390573 -0.4954811547064495
0.1709915 -0.9279876790334093 -0.5012651313924851
0.1729914 -0.9260496482981233 -0.5069645371909492
0.1749913 -0.9220796649667908 -0.5112846868366816
0.1769912 -0.9197204200400588 -0.5181160242688401
0.1789911 -0.9162132907718004 -0.5226194716895198
0.180991 -0.9130694946402623 -0.5278723067270178
0.1829909 -0.9103863330216508 -0.5340849430829463
0.1849908 -0.9067515543733047 -0.5392644944901454
0.1869907 -0.9046192127968453 -0.5452604986579807
0.1889906 -0.9007695536889663 -0.5501250106862602
0.1909905 -0.8978089035158895 -0.5547880331403959
0.1929904 -0.8943553590844475 -0.5600280920733766
0.1949903 -0.8917424115375983 -0.5663386273234071
0.1969902 -0.887814970332137 -0.5720067450179388
0.1989901 -0.8844486707849456 -0.5763745661425037
0.20099 -0.8804123050411491 -0.5815627201030921
0.2029899 -0.8781861096046788 -0.5865520798200976
0.2049898 -0.8746435395819363 -0.592472976138945
0.2069897 -0.8719726099001126 -0.5965453070132669
0.2089896 -0.8680451981870673 -0.6029929878073457
0.2109895 -0.8640627460027995 -0.6074975106992241
0.2129894 -0.8605546901700006 -0.6122200469221306
0.2149893 -0.8570318925975194 -0.6174874020431659
0.2169892 -0.8545035204236383 -0.6224411042069813
0.2189891 -0.8497355533932025 -0.6274570570187855
0.220989 -0.8457876526505191 -0.6324006834555234
0.2229889 -0.8416871725366825 -0.635988749028944
0.2249888 -0.8386434831371599 -0.6421271456044231
0.2269887 -0.8359829776415825 -0.6471630304476347
0.2289886 -0.8316953907686239 -0.6519476083433683
0.2309885 -0.8272484803668411 -0.6568230639864512
0.2329884 -0.8243274608530307 -0.6616305362291195
0.2349883 -0.8203119750802305 -0.6665973109103561
0.2369882 -0.8163792692275246 -0.6704146147319948
0.2389881 -0.8123128544445436 -0.6761116882535488
0.240988 -0.8094150664791202 -0.6808320681692435
0.2429879 -0.8048668877402237 -0.6845571616818055
0.2449878 -0.8011243454404219 -0.6896037681724962
0.2469877 -0.7966389358325933 -0.6943192151219929
0.2489876 -0.7936781127764428 -0.7006720494320993
0.2509875 -0.7895206652932794 -0.7043655180251353
0.2529874 -0.7848217067380173 -0.7081188895523153
0.2549873 -0.780287784326978 -0.7132357283789597
0.2569872 -0.777049608983426 -0.7187737228921016
0.2589871 -0.7720578987793525 -0.7225915191563534
0.260987 -0.7682629643265753 -0.7271593840138366
0.2629869 -0.7644969122127332 -0.7320278218006666
0.2649868 -0.7588863099450439 -0.7369098275951219
0.2669867 -0.7559083232421976 -0.741258840983772
0.2689866 -0.751404408868676 -0.7460659666171519
0.2709865 -0.7468683487260056 -0.7502574206977294
0.2729864 -0.7420043067816071 -0.7547343692277371
0.2749863 -0.7384376063520725 -0.7597467872463379
0.2769862 -0.7331039407272586 -0.7644229032257427
0.2789861 -0.7279043603670615 -0.7675059315037818
0.280986 -0.7244202307281677 -0.7719399471706009
0.2829859 -0.7194645519776509 -0.7778494090841791
0.2849858 -0.715493835359156 -0.7813490993085543
0.2869857 -0.7109464906279624 -0.7854044300430074
0.2889856 -0.706422120948653 -0.7901945366001097
0.2909855 -0.7004766209238539 -0.7938669224582068
0.2929854 -0.6962367259996735 -0.7975484666096029
0.2949853 -0.69193557434972 -0.8031152433379805
0.2969852 -0.6866657395331425 -0.806650326158158
0.2989851 -0.6821583852801583 -0.8098219148743842
0.300985 -0.6768173852192418 -0.8142390302190549
0.3029849 -0.6719040549957954 -0.817654406772779
0.3049848 -0.66761882550305 -0.8217349288193416
0.3069847 -0.6631645736386722 -0.8266676204377387
0.3089846 -0.6580328460756022 -0.8297104864470004
0.3109845 -0.6537611897441213 -0.8332894928051763
0.3129844 -0.6483848551809638 -0.8374409062889054
0.3149843 -0.6433560368826209 -0.8413689148552161
0.3169842 -0.6387627605648925 -0.8449060622086012
0.3189841 -0.6344763496163941 -0.8487893337032539
0.320984 -0.6297979687104416 -0.8533485451761214
0.3229839 -0.6240991895934305 -0.8568503904466701
0.3249838 -0.6183568081233318 -0.8603846826453904
0.3269837 -0.6129376833554638 -0.8642340160167504
0.3289836 -0.6085891144087308 -0.8676299081408302
0.3309835 -0.6031988542757547 -0.8720598796477028
0.3329834 -0.5991314370524837 -0.8760893609109176
0.3349833 -0.5933377389051087 -0.8801172784039314
0.3369832 -0.5885997997480062 -0.8826851975888068
0.3389831 -0.5834812682174845 -0.8861683470392344
0.340983 -0.5787602731233898 -0.888764460960267
0.3429829 -0.5732792162786742 -0.8933404185103571
0.3449828 -0.5681861084485957 -0.8972323179473419
0.3469827 -0.5632183650951781 -0.8996794710563442
0.3489826 -0.5584584827242766 -0.903208651583761
0.3509825 -0.5534533607813531 -0.9065205817085484
0.3529824 -0.5473562367982086 -0.9103536029995268
0.3549823 -0.5420471033205508 -0.9145528139793249
0.3569822 -0.5366949760299802 -0.9176072449632444
0.3589821 -0.5303366230027299 -0.9205101865105113
0.360982 -0.5247309106506874 -0.9236486906523006
0.3629819 -0.518985242844723 -0.9273990987068208
0.3649818 -0.5132453607403106 -0.9307220619617729
0.3669817 -0.5072015532984223 -0.9329256122193981
0.3689816 -0.5024370723656357 -0.9361023458969098
0.3709815 -0.4966918444727195 -0.9396361558776901
0.3729814 -0.48997628195948334 -0.9433147804636957
0.3749813 -0.48470118681075347 -0.945826238362569
0.3769812 -0.47973050221217983 -0.9487960156133527
0.3789811 -0.47443308671843604 -0.9530104473381033
0.380981 -0.46865747048733186 -0.9555450264497423
0.3829809 -0.4629052616578515 -0.9577673472047872
0.3849808 -0.45661276120579325 -0.9595180576517943
0.3869807 -0.4514848879908522 -0.9629132019060598
0.3889806 -0.4447809101630843 -0.9655552402052796
0.3909805 -0.43882593266009795 -0.9682875064049887
0.3929804 -0.43313096658404693 -0.9709724051533051
0.3949803 -0.4269014203680063 -0.9733006179973925
0.3969802 -0.42230288675426797 -0.9757321826910005
0.3989801 -0.4158415047670511 -0.9792943642772279
0.40098 -0.4098870731567056 -0.9813035325508437
0.4029799 -0.40469606375425515 -0.9834588711767522
0.4049798 -0.39825821506476183 -0.9855890610343417
0.4069797 -0.3932592721323682 -0.989308840632107
0.4089796 -0.3870249266306121 -0.9910380789966219
0.4109795 -0.38105321112755963 -0.9938565317507219
0.4129794 -0.3755150190051772 -0.9948009825408571
0.4149793 -0.3695989538567315 -0.9976820177437224
0.4169792 -0.36376174706799685 -1.0013507005157425
0.4189791 -0.3571381288954376 -1.0035926215414992
0.420979 -0.35124389112599985 -1.005529345014573
0.4229789 -0.34494908833410204 -1.0075162189230367
0.4249788 -0.33842305702389036 -1.0094017630566328
0.4269787 -0.3325959364505228 -1.0120586556112574
0.4289786 -0.32628306604234714 -1.0138339688500904
0.4309785 -0.32007106940160124 -1.0156791379681707
0.4329784 -0.31377428128842566 -1.0178380413595347
0.4349783 -0.3072835432578655 -1.0211733910400875
0.4369782 -0.3019518279775899 -1.0218369886277943
0.4389781 -0.29482046143714086 -1.0236273746915383
0.440978 -0.28946637228315336 -1.0259646836059317
0.4429779 -0.2834397082625981 -1.0282363591124188
0.4449778 -0.2773276927283485 -1.0296021823800867
0.4469777 -0.27109847503968654 -1.0320240242389382
0.4489776 -0.2650378878572766 -1.0338377832437748
0.4509775 -0.2586576930578651 -1.0343793589913277
0.4529774 -0.2517967510640597 -1.0361333612392518
0.4549773 -0.24517253721896926 -1.037910048200211
0.4569772 -0.23842947748720267 -1.0398533040312188
0.4589771 -0.23297804493340837 -1.0420964554014216
0.460977 -0.225484170637337 -1.0426188577611442
0.4629769 -0.21987684602715316 -1.0435297210689929
0.4649768 -0.2133754257887161 -1.046117641792907
0.4669767 -0.20722361845700357 -1.0476010558840454
0.4689766 -0.20068625532692874 -1.0486728858060144
0.4709765 -0.19535206122252213 -1.0493651576857899
0.4729764 -0.188026768037237 -1.0511499919453113
0.4749763 -0.1818655279985707 -1.0513464924778622
0.4769762 -0.17628447568847305 -1.0531154865427146
0.4789761 -0.16899344971299202 -1.0534386617940976
0.480976 -0.16293566180649 -1.0549251786808833
0.4829759 -0.15624351892825955 -1.0564711799199777
0.4849758 -0.1502385498306343 -1.0572694886571572
0.4869757 -0.14362420995416708 -1.0584611387283758
0.4889756 -0.13670099929176524 -1.0600445540485517
0.4909755 -0.13016691955085913 -1.060989998105529
0.4929754 -0.1228965954168003 -1.0612735462989398
0.4949753 -0.11647614509947815 -1.062689313216523
0.4969752 -0.11036413226001396 -1.0635644412622707
0.4989751 -0.10343775663495551 -1.0646882480848312
0.500975 -0.09635817800923019 -1.0649825991620718
0.5029749 -0.09035380744414763 -1.0660321691684655
0.5049748 -0.08347089998947002 -1.0661784893824162
0.5069747 -0.07767686798238614 -1.06768957074449
0.5089746 -0.07107568468963332 -1.0683395486958
0.5109745 -0.06423949438659855 -1.0689863173866383
0.5129744 -0.05725276770586817 -1.0685738393870026
0.5149743 -0.05070520729313578 -1.069263347082694
0.5169742 -0.043859107334491415 -1.0701179043213105
0.5189741 -0.03707373883679026 -1.0707135917241628
0.520974 -0.031028778054106254 -1.0707240788142003
0.5229739 -0.023919983000029836 -1.0710338965207877
0.5249738 -0.017230323487204637 -1.0713110755665922
0.5269737 -0.010530130330921463 -1.071220015456625
0.5289736 -0.00407062797633885 -1.07161230759249
0.5309735 0.00239738709778102 -1.0720998980340675
0.5329734 0.009459197624873739 -1.0724914353542319
0.5349733 0.01639035215628684 -1.0717462088930467
0.5369732 0.022961910238068678 -1.0716704846327612
0.5389731 0.02931348889936458 -1.0709761768366672
0.540973 0.03664721497860007 -1.072259574573688
0.5429729 0.04231301382397834 -1.0725659225618422
0.5449728 0.048371983302504445 -1.0721434371454361
0.5469727 0.05545606430196884 -1.0716287877049164
0.5489726 0.062221662365423175 -1.0713015124506255
0.5509725 0.06895025564614844 -1.071314554967729
0.5529724 0.07576404589047644 -1.0706064884280222
0.5549723 0.08265357178929947 -1.070165801747864
0.5569722 0.08946200611789588 -1.069683147165926
0.5589721 0.09608715055944352 -1.0687531735914757
0.560972 0.10306880482805547 -1.0686394741839156
0.5629719 0.10952085617781912 -1.0673613948263638
0.5649718 0.11657290526168486 -1.0673452936329348
0.5669717 0.12344965384668172 -1.0663497472322658
0.5689716 0.12995390824468536 -1.0659698500503543
0.5709715 0.1369800515884452 -1.0657212147576745
0.5729714 0.1432466204469478 -1.0646532390211445
0.5749713 0.14944656126725187 -1.0640120887346152
0.5769712 0.1569524877003446 -1.0635604136629941
0.5789711 0.16308505480709137 -1.0630035950006587
0.580971 0.17006666356883787 -1.061540492445402
0.5829709 0.17677226033054694 -1.0606193772175778
0.5849708 0.18337041056862324 -1.0591848845631457
0.5869707 0.18997548712374182 -1.0580861667892267
0.5889706 0.19673913476998384 -1.0571800919750807
0.5909705 0.20384117902083843 -1.0556143520865853
0.5929704 0.21084224843188515 -1.0544903891242674
0.5949703 0.21751341367186258 -1.0535306651397416
0.5969702 0.2239363203988338 -1.0520538653796199
0.5989701 0.23050531372043695 -1.0512980717651927
0.60097 0.23832349753395055 -1.049325755963289
0.6029699 0.24442396774221625 -1.0480577613696767
0.6049698 0.2510136001949942 -1.0473493437741788
0.6069697 0.2574353355075663 -1.0456393683607839
0.6089696 0.26389010829429355 -1.043937117231645
0.6109695 0.2706187944621937 -1.0430136154538017
0.6129694 0.277102054132993 -1.0409938827215401
0.6149693 0.28404454629577686 -1.0394007236702743
0.6169692 0.2905441707251728 -1.0374883465544937
0.6189691 0.2967784854635714 -1.0360671730955369
0.620969 0.3035957109447292 -1.0336272589438873
0.6229689 0.3102273369720797 -1.032447522076384
0.6249688 0.31716332988000784 -1.030264271461301
0.6269687 0.32377783098703894 -1.0279377828667406
0.6289686 0.3307057280390756 -1.0261975829386585
0.6309685 0.33785694392114063 -1.0249114488414535
0.6329684 0.3438758219484354 -1.022560903824677
0.6349683 0.3509273055194895 -1.0203428024264571
0.6369682 0.35734053457342246 -1.0191388724224149
0.6389681 0.3640768777842374 -1.0169151343228444
0.640968 0.37078345263321866 -1.0145596139659439
0.6429679 0.3770697234048459 -1.0124205050976909
0.6449678 0.3838106812463326 -1.0098726716633524
0.6469677 0.3904087899701898 -1.0074573824245603
0.6489676 0.39661709232053965 -1.0046500139947097
0.6509675 0.40306457142273233 -1.0021191350570677
0.6529674 0.40967254338928605 -0.9992253836585417
0.6549673 0.4159496080044018 -0.9967712149305011
0.6569672 0.4227752928239895 -0.9939935675740912
0.6589671 0.4291736168848406 -0.9913219824333712
0.660967 0.4351514752820554 -0.9884755492980827
0.6629669 0.4419454492476405 -0.9860193621517327
0.6649668 0.4481628755226279 -0.9830488341017474
0.6669667 0.4547776563805885 -0.9803112563129376
0.6689666 0.460931802445356 -0.9777610515009842
0.6709665 0.46781200536321876 -0.9753120586758335
0.6729664 0.4739768914637102 -0.9721042771989633
0.6749663 0.4804531587355353 -0.9691084992692865
0.6769662 0.4868008813611542 -0.9671777887155552
0.6789661 0.49262330072376054 -0.9643056096289313
0.680966 0.49936682750847905 -0.9607176498976138
0.6829659 0.505524088745076 -0.9570926972002467
0.6849658 0.511796393793608 -0.9549875433244325
0.6869657 0.5179969691580466 -0.9503653041385537
0.6889656 0.5240678202689992 -0.9474338371759493
0.6909655 0.5304348380535973 -0.943870678203618
0.6929654 0.5360141237226803 -0.9405037200159483
0.6949653 0.5426314560539878 -0.9370064993560844
0.6969652 0.5486530422316378 -0.933584716891195
0.6989651 0.5547446890554204 -0.9304235970849072
0.700965 0.5607682006880533 -0.9260315300650651
0.7029649 0.5670930184441658 -0.9226884689036234
0.7049648 0.5734364284727957 -0.9195463366046108
0.7069647 0.5794513728408268 -0.9158935956654121
0.7089646 0.5860511093429913 -0.9126210291952455
0.7109645 0.5913709923167098 -0.9089512497435961
0.7129644 0.5979541653862618 -0.9053040930385737
0.7149643 0.6039697320429518 -0.9018645834014649
0.7169642 0.6096529041469044 -0.8976296941199862
0.7189641 0.6156291183411547 -0.893145317479421
0.720964 0.621365488235163 -0.889954636920246
0.7229639 0.6273582574713887 -0.8857223068888453
0.7249638 0.6337319554111935 -0.881346806700125
0.7269637 0.6389530291515781 -0.8768076764315391
0.7289636 0.6448365396228117 -0.8732233502880224
0.7309635 0.6505471711268072 -0.868295280964499
0.7329634 0.6567292325285324 -0.8641518463293056
0.7349633 0.6628360879876946 -0.8598327039040108
0.7369632 0.6684066280995953 -0.8561476292899588
0.7389631 0.6738712176435133 -0.8518734758507012
0.740963 0.6802424358058837 -0.848643017518912
0.7429629 0.6861291467856864 -0.8445390565959834
0.7449628 0.6914925501153124 -0.839911233170035
0.7469627 0.6966090002022911 -0.8351822006515136
0.7489626 0.7032331358080891 -0.8310561978832227
0.7509625 0.7084673989476974 -0.8256959014955383
0.7529624 0.7134733847911636 -0.8213378300627507
0.7549623 0.71889211225484 -0.8164102812311627
0.7569622 0.7246406699967051 -0.8112939882136031
0.7589621 0.7294323442784112 -0.8066621219570077
0.760962 0.7346347063639571 -0.8014066286452816
0.7629619 0.7399030104300843 -0.7964818899214736
0.7649618 0.7451838964899214 -0.7919837371231133
0.7669617 0.7507799604061748 -0.7861679276353439
0.7689616 0.7557633538044242 -0.7814036980480459
0.7709615 0.7614135639651267 -0.7768928693340512
0.7729614 0.7659374343949472 -0.7719787242379005
0.7749613 0.7724312143872536 -0.7676580092337905
0.7769612 0.7772622117213572 -0.7630416246109998
0.7789611 0.7828494207323983 -0.7571190267171496
0.780961 0.7876674398314172 -0.7523128647270622
0.7829609 0.7924560206795855 -0.7475682243462497
0.7849608 0.7980846377411884 -0.7421436017319545
0.7869607 0.8026402251339627 -0.7369044585996299
0.7889606 0.8076013107782133 -0.7316240414970785
0.7909605 0.8120105923019503 -0.7262427741413982
0.7929604 0.8170227985374949 -0.7204724319399635
0.7949603 0.8221189619677375 -0.714930427385012
0.7969602 0.8264560222875766 -0.7095931782919765
0.7989601 0.8315046860817089 -0.704179858150793
