! Created with skrf 1.8.0 (http://scikit-rf.org).
# GHz S RI R 50.0 
!freq ReS11 ImS11
0.001 -0.9998733265529788 0.0006200984984906536
0.0029999 -1.0002545287684481 0.002030420259999069
0.0049998 -1.0028979345143088 0.003133443597065022
0.0069997 -1.013964188269118 -0.005086880332245741
0.0089996 -1.0184657887930992 -0.021874264429506574
0.0109995 -1.020632708766609 -0.02947724747063149
0.0129994 -1.021120375187369 -0.035488072434012904
0.0149993 -1.0191972642594835 -0.044507620127153036
0.0169992 -1.0189454666948285 -0.05055421126734788
0.0189991 -1.0182189579170706 -0.05698181864970181
0.020999 -1.0173270930702907 -0.06293257608151848
0.0229989 -1.0163831731019568 -0.07002688596528413
0.0249988 -1.0158956295474257 -0.0759530830782793
0.0269987 -1.0149964809773833 -0.08279571555603576
0.0289986 -1.0142613410104135 -0.08826033690665583
0.0309985 -1.0139726390469403 -0.09435241183556192
0.0329984 -1.013431929152955 -0.10070039677269883
0.0349983 -1.0122820071233019 -0.10744925039017716
0.0369982 -1.0117417023988167 -0.11347915548614651
0.0389981 -1.0111533558001142 -0.119600888859951
0.040998 -1.0114993683877294 -0.12478771986813295
0.0429979 -1.0099405342991126 -0.1296208795523759
0.0449978 -1.0095578957449265 -0.13653605619670756
0.0469977 -1.0093600940686978 -0.14148207929892379
0.0489976 -1.0078976421535657 -0.1461281160439028
0.0509975 -1.0078274716851312 -0.1534936634852983
0.0529974 -1.0064092882945732 -0.15921127013519146
0.0549973 -1.006831317241574 -0.1658028668013635
0.0569972 -1.0052157288970276 -0.1699635481497324
0.0589971 -1.0059917925354387 -0.17525328742916718
0.060997 -1.0045337399985215 -0.18209010217673993
0.0629969 -1.0033381404466533 -0.186421837436747
0.0649968 -1.0042002577464948 -0.19206778167902738
0.0669967 -1.0019037198904484 -0.19801755870601861
0.0689966 -1.0015944732645388 -0.2037065370735035
0.0709965 -1.0007036569297738 -0.20746174177298954
0.0729964 -0.9982658815593728 -0.21481442762740482
0.0749963 -0.9983380320046275 -0.2216609131556306
0.0769962 -0.997072406719607 -0.22591093569548237
0.0789961 -0.9954424601916689 -0.23166973556385317
0.080996 -0.9953267136203395 -0.23716850601845224
0.0829959 -0.9936711024469183 -0.24376726854084163
0.0849958 -0.9921134063966095 -0.24871442637699964
0.0869957 -0.9902644381389941 -0.2552847259343736
0.0889956 -0.9903204689641303 -0.26070874548179146
0.0909955 -0.9873936175273368 -0.26710388679159575
0.0929954 -0.9871332437010832 -0.2727776597350577
0.0949953 -0.9846698620771169 -0.27788446529177957
0.0969952 -0.982454164571851 -0.28435020991724724
0.0989951 -0.9819275263873527 -0.2895776682859139
0.100995 -0.9798181756853804 -0.2965651068895562
0.1029949 -0.9779101141586459 -0.3030317316395739
0.1049948 -0.9759348470796158 -0.3083044761063034
0.1069947 -0.9739660734557165 -0.3142270244518944
0.1089946 -0.972076012413169 -0.3197948791292314
0.1109945 -0.9699400713270026 -0.32529208634146134
0.1129944 -0.9681943503221565 -0.3314511559062813
0.1149943 -0.9665733630766151 -0.3372718272330301
0.1169942 -0.964562784670553 -0.34340090129723255
0.1189941 -0.9617530675809688 -0.34865497392110917
0.120994 -0.9610175303958344 -0.3540365785896118
0.1229939 -0.9585486617451089 -0.36010413399122043
0.1249938 -0.9560283874940448 -0.3656333709835655
0.1269937 -0.9555555581188042 -0.3705090724266233
0.1289936 -0.9522818311892882 -0.3759156463227684
0.1309935 -0.9508105321812349 -0.3820226072982408
0.1329934 -0.947270808936253 -0.38636428663268585
0.1349933 -0.9466662323881037 -0.3925385471650837
0.1369932 -0.9445633348663859 -0.39829174025596675
0.1389931 -0.9417812870570191 -0.4019924466754179
0.140993 -0.940449323165051 -0.4085756318337296
0.1429929 -0.9385679339801511 -0.41405385326722477
0.1449928 -0.9360911925198252 -0.4194889756058753
0.1469927 -0.933656552686036 -0.4238185853566922
0.1489926 -0.9313550925285805 -0.4300910032081494
0.1509925 -0.9308623156067809 -0.4353645282456392
0.1529924 -0.9277588225434967 -0.4409876799024887
0.1549923 -0.9240662576826468 -0.4452510858280426
0.1569922 -0.9223541292823351 -0.4500271504203395
0.1589921 -0.9199355912128694 -0.4570625440562412
0.160992 -0.9180872752370075 -0.4622937875786977
0.1629919 -0.9145194184453795 -0.46862467579526457
0.1649918 -0.912277758771308 -0.4732889459812567
0.1669917 -0.9099874868810288 -0.4783665619507139
0.1689916 -0.9067819672851045 -0.4837651625869753
0.1709915 -0.9030242546662447 -0.4885337239749446
0.1729914 -0.9018439678831452 -0.4946525181095223
0.1749913 -0.8977352423903315 -0.49889499803911586
0.1769912 -0.8957201572106603 -0.505495930929835
0.1789911 -0.892126442742228 -0.5098392398522176
0.180991 -0.8893862018114375 -0.5151433767666745
0.1829909 -0.8868149454563473 -0.5212132826402395
0.1849908 -0.8833594090959065 -0.5265834607413213
0.1869907 -0.8811051888366225 -0.5317523694218244
0.1889906 -0.8777658712537219 -0.5369794477323764
0.1909905 -0.8745908067061893 -0.5416056953102064
0.1929904 -0.8717643094649773 -0.5468428085385023
0.1949903 -0.8693884446200422 -0.5531261825786584
0.1969902 -0.8661022074872139 -0.5581563936518017
0.1989901 -0.8612407259612971 -0.5633296738725602
0.20099 -0.8582144062958097 -0.5677883958434115
0.2029899 -0.8556508022811493 -0.5727123426999778
0.2049898 -0.8524962959844596 -0.5792669188165598
0.2069897 -0.8492407484484962 -0.5830649126455514
0.2089896 -0.8460901568287165 -0.5894675076301319
0.2109895 -0.8426063987881688 -0.5936005750706875
0.2129894 -0.8392080584400875 -0.5981566279415476
0.2149893 -0.835912643821854 -0.602998455586445
0.2169892 -0.8334014837266787 -0.6085468115877198
0.2189891 -0.8296103836227451 -0.6130262835571402
0.220989 -0.8254968062430008 -0.6179582312082648
0.2229889 -0.8218941468567118 -0.6216157448652022
0.2249888 -0.8184598292923629 -0.6280231479491587
0.2269887 -0.8163772481060907 -0.6325215294836068
0.2289886 -0.8118265550507325 -0.6376529727590505
0.2309885 -0.8076849795112512 -0.6421179349299551
0.2329884 -0.8050346514104211 -0.6464791281461144
0.2349883 -0.8009337342623266 -0.6515679514317416
0.2369882 -0.7977361001414657 -0.6555505111884273
0.2389881 -0.7934445086574626 -0.6611532746414842
0.240988 -0.7907569240046555 -0.6659725632528848
0.2429879 -0.7865832860861416 -0.6699672694634262
0.2449878 -0.7829102313848401 -0.6746259458404045
0.2469877 -0.7786013071621968 -0.6790339436701883
0.2489876 -0.775624701264515 -0.685140517507729
0.2509875 -0.7716198250547641 -0.6887388319480234
0.2529874 -0.7673483453869915 -0.6928253086149487
0.2549873 -0.7628523125082624 -0.6977497153893453
0.2569872 -0.7597055518498765 -0.7030108859552693
0.2589871 -0.7547370042774637 -0.7072653238068425
0.260987 -0.7511234773983257 -0.7117653551797931
0.2629869 -0.7475184281957558 -0.7162942377712339
0.2649868 -0.7426490275412243 -0.7207263566386629
0.2669867 -0.7387483450078419 -0.725369681489864
0.2689866 -0.735085674978548 -0.7299949959643743
0.2709865 -0.730811999673799 -0.7341158455430365
0.2729864 -0.7258784608135986 -0.7390237521331252
0.2749863 -0.7219879410342909 -0.7434601914792357
0.2769862 -0.7176848516099322 -0.7483444358415738
0.2789861 -0.7122795899472776 -0.7514315756591893
0.280986 -0.7089459544086332 -0.7555965332011778
0.2829859 -0.7048594147405256 -0.7616582090699017
0.2849858 -0.7009668094546065 -0.7644861835313566
0.2869857 -0.6965003074815692 -0.7688090874827302
0.2889856 -0.6923145618793652 -0.7739135300326916
0.2909855 -0.6867054464318554 -0.7770473175561727
0.2929854 -0.6825940924338427 -0.7810467009133673
0.2949853 -0.6784318483314256 -0.7859161639750938
0.2969852 -0.6734776984561028 -0.7900664965098085
0.2989851 -0.668919941162527 -0.7932258503011478
0.300985 -0.6648979399392131 -0.797581274652475
0.3029849 -0.659372147035733 -0.8013985849631264
0.3049848 -0.6554896525381785 -0.8057760255073778
0.3069847 -0.6511215365158324 -0.8105829724751337
0.3089846 -0.6464864636692098 -0.8137802973585128
0.3109845 -0.6416306422384107 -0.8181898819413469
0.3129844 -0.6370634947350687 -0.821873185432943
0.3149843 -0.6319793469455349 -0.8256838061155126
0.3169842 -0.6277714142954429 -0.8294179603524837
0.3189841 -0.6237956258466659 -0.8329789441375539
0.320984 -0.6191125437596003 -0.8376753909887106
0.3229839 -0.613369721855572 -0.8417784857167333
0.3249838 -0.6076935877559824 -0.8450673545462097
0.3269837 -0.6033685659061617 -0.8489662085363522
0.3289836 -0.5984398842848585 -0.8529670872845738
0.3309835 -0.5926834054285338 -0.8572485459824344
0.3329834 -0.5892823872572768 -0.8617626787969138
0.3349833 -0.5838921128627356 -0.8654757712653637
0.3369832 -0.5788642177263567 -0.8684361135922135
0.3389831 -0.5740264667380862 -0.8722494535914728
0.340983 -0.5695283057454568 -0.874578372443698
0.3429829 -0.5641949296002907 -0.8788875934253475
0.3449828 -0.5593594617407909 -0.8826039078022161
0.3469827 -0.5544222379797829 -0.8847450281415113
0.3489826 -0.5497034933630194 -0.8885315389515033
0.3509825 -0.544978279127595 -0.8915199008493723
0.3529824 -0.5390549648810872 -0.8953976661276949
0.3549823 -0.5338083334184234 -0.8992522324474601
0.3569822 -0.5283822048476285 -0.9019850342890172
0.3589821 -0.5218093560123234 -0.9054336790570119
0.360982 -0.5166982805146139 -0.9083754980726221
0.3629819 -0.5115415414426812 -0.9122800059174041
0.3649818 -0.5059315228137784 -0.915176694351633
0.3669817 -0.5004344537633046 -0.9176478038833218
0.3689816 -0.4957299874170119 -0.920884881137303
0.3709815 -0.49023498499356055 -0.9245357297638555
0.3729814 -0.4837148879960642 -0.9284419178633659
0.3749813 -0.4786002969132217 -0.9311067169888864
0.3769812 -0.47343929352474945 -0.9335091943721566
0.3789811 -0.4693068066138692 -0.9375172706256492
0.380981 -0.4630474566866309 -0.9408347969818363
0.3829809 -0.45732603159337964 -0.9431866149103344
0.3849808 -0.4504893154212148 -0.9450882323237535
0.3869807 -0.44655763164726114 -0.9486127142495924
0.3889806 -0.44003918711198203 -0.9514141412823395
0.3909805 -0.43442463102780104 -0.9541996462126282
0.3929804 -0.42915296707744427 -0.956831329583929
0.3949803 -0.4231967132554777 -0.959267031807813
0.3969802 -0.41717632898370116 -0.9623151465389419
0.3989801 -0.41162722479828384 -0.9658939481575697
0.40098 -0.40632282984762325 -0.9679346272331043
0.4029799 -0.4011352695736166 -0.9701074356830532
0.4049798 -0.3943825738869873 -0.9727108365510932
0.4069797 -0.3900049812484621 -0.9761608734001537
0.4089796 -0.3839877991399735 -0.9777485790877001
0.4109795 -0.3778407155830175 -0.9811168940906985
0.4129794 -0.3725013732605817 -0.9823814542928416
0.4149793 -0.36657592485804447 -0.9849465928552936
0.4169792 -0.3608703974254691 -0.9886804583173978
0.4189791 -0.354470268926272 -0.9909816409191391
0.420979 -0.34859619962040006 -0.9931654712198208
0.4229789 -0.3429684748715461 -0.9951765362509768
0.4249788 -0.33594617303559854 -0.996941958983689
0.4269787 -0.33023092348843375 -0.9992850036416266
0.4289786 -0.324493537602401 -1.0017294347901637
0.4309785 -0.3184690803361918 -1.003235689025608
0.4329784 -0.3120414185237952 -1.00591925411089
0.4349783 -0.30633027488456627 -1.0087066427832312
0.4369782 -0.3006560070341389 -1.0098253673283815
0.4389781 -0.2936829120748694 -1.0117500389884968
0.440978 -0.2889078759940593 -1.0142558465715146
0.4429779 -0.28276541980339287 -1.016188120367247
0.4449778 -0.27670623401153766 -1.0179868018797533
0.4469777 -0.27084529965668347 -1.0208949499232203
0.4489776 -0.2647326588708051 -1.0225062579853164
0.4509775 -0.2578631780412865 -1.0232792071772474
0.4529774 -0.2520132705087838 -1.0251844884030505
0.4549773 -0.24535703951671706 -1.0273440709106925
0.4569772 -0.23869456291641716 -1.0290630721709504
0.4589771 -0.23323096426427686 -1.0314958014722972
0.460977 -0.22648492522300007 -1.0320354977150297
0.4629769 -0.22059134472399028 -1.0337477723347823
0.4649768 -0.21487141926908748 -1.0355238253267778
0.4669767 -0.20826725464893683 -1.0377924185968317
0.4689766 -0.20224490949599416 -1.0389109015725375
0.4709765 -0.19680323272231076 -1.0398222126542895
0.4729764 -0.18974133662469825 -1.04163218755095
0.4749763 -0.18394810747517493 -1.042455134444101
0.4769762 -0.17776588176021033 -1.043884449671956
0.4789761 -0.17142224428151545 -1.0446832935950123
0.480976 -0.16515242678388975 -1.0460361912818645
0.4829759 -0.1585593434110179 -1.0477098565474514
0.4849758 -0.15265218519695 -1.0486725134863064
0.4869757 -0.14633183370122071 -1.0496759016334543
0.4889756 -0.13919378326306595 -1.0517171422870202
0.4909755 -0.13286810343220323 -1.0529700459007163
0.4929754 -0.12596547926342605 -1.053097906504768
0.4949753 -0.11960867916544694 -1.0546330979261413
0.4969752 -0.11345281736576651 -1.0556697663913068
0.4989751 -0.10602804960338338 -1.0562586848957403
0.500975 -0.0998074077891685 -1.0574164485212103
0.5029749 -0.09398745207660385 -1.0584285605610588
0.5049748 -0.08755226366102314 -1.058666278660967
0.5069747 -0.08107540173679142 -1.0603657090355914
0.5089746 -0.07431123655752064 -1.060923228086219
0.5109745 -0.06808043140995344 -1.0615857497663834
0.5129744 -0.06135752329940647 -1.0617346193410777
0.5149743 -0.05449274821888944 -1.0624073776071488
0.5169742 -0.047842742298744106 -1.0638875885263888
0.5189741 -0.04133445907873517 -1.064165808900639
0.520974 -0.0345480007226541 -1.064325243361906
0.5229739 -0.02835877862164266 -1.0650310694498737
0.5249738 -0.021476950698782964 -1.0656657227021373
0.5269737 -0.01484872415844702 -1.0657040183508435
0.5289736 -0.00852274068022104 -1.0659878303994452
0.5309735 -0.0026252887928986182 -1.0669465747139795
0.5329734 0.004384625088186517 -1.0672433071178973
0.5349733 0.01103856532183664 -1.067014209617135
0.5369732 0.017392205609784467 -1.0672906085164677
0.5389731 0.023702923900578515 -1.066981253126413
0.540973 0.03043957309089869 -1.0682774272653275
0.5429729 0.03660200518550287 -1.0685060750143702
0.5449728 0.0422653620693168 -1.0680437619052126
0.5469727 0.04925222165144419 -1.0677853534539903
0.5489726 0.05563447867924068 -1.0679323309911681
0.5509725 0.06226784951291674 -1.0678011300862063
0.5529724 0.06895965321369671 -1.0674016261720818
0.5549723 0.07561924746431845 -1.0670197623341322
0.5569722 0.0824518071495592 -1.0667040869626514
0.5589721 0.08849738683207872 -1.066377993453053
0.560972 0.09518516939340217 -1.0661106247934773
0.5629719 0.10205308110192314 -1.0654410182215313
0.5649718 0.10871665485529086 -1.0650204997807455
0.5669717 0.11557741830096387 -1.064582863295141
0.5689716 0.12177058628473587 -1.0643958554289052
0.5709715 0.12887661988259377 -1.0640859245194239
0.5729714 0.13501937240331657 -1.0636599337802615
0.5749713 0.14152365020322472 -1.0626282489305534
0.5769712 0.14837694396392537 -1.0625549231702862
0.5789711 0.1549837762845827 -1.0623200996760478
0.580971 0.16150621042576419 -1.0615955682601221
0.5829709 0.16808642571125537 -1.0603242710082392
0.5849708 0.17434120101841513 -1.059459735568335
0.5869707 0.18163012575212617 -1.0579397431457456
0.5889706 0.1881892350136316 -1.057613350071275
0.5909705 0.19506084218678843 -1.0563078668060022
0.5929704 0.20160390551004131 -1.055458900464127
0.5949703 0.20846036203290663 -1.0544873876281862
0.5969702 0.21499480169161733 -1.0536763333223322
0.5989701 0.22191705500691902 -1.0524792658546887
0.60097 0.22865093401879125 -1.0512685452058748
0.6029699 0.23511478126764151 -1.0500626777344504
0.6049698 0.2414731205931815 -1.0493653769227074
0.6069697 0.24822290990438411 -1.0480694844656495
0.6089696 0.25461876392323335 -1.0459523191391655
0.6109695 0.26117510280422007 -1.0454378379059017
0.6129694 0.2671168313427461 -1.043978350010604
0.6149693 0.27401971318851026 -1.0425090530722285
0.6169692 0.28065999917334594 -1.0403314648453468
0.6189691 0.2871421878749896 -1.0390714170007904
0.620969 0.2932978579013798 -1.0372284565705197
0.6229689 0.3000978160149723 -1.0360021247130897
0.6249688 0.30666178441945974 -1.0342311594382658
0.6269687 0.3131175122206791 -1.0320615132550819
0.6289686 0.3200403050208287 -1.0305690888662007
0.6309685 0.32643186558859394 -1.0293505098010831
0.6329684 0.3328587547617076 -1.0274535565530332
0.6349683 0.3403933327401623 -1.0251695198810553
0.6369682 0.3464526498219867 -1.0242179123493995
0.6389681 0.35243353581426784 -1.022516276527002
0.640968 0.35905249474271084 -1.0203935763198289
0.6429679 0.3654138299211086 -1.0187095009882887
0.6449678 0.37210846784236146 -1.0160969580201897
0.6469677 0.37832047973365157 -1.0141483758246554
0.6489676 0.38455825022344564 -1.011557587117718
0.6509675 0.3911297196302183 -1.0096418741596587
0.6529674 0.39731501005822684 -1.0065993551333516
0.6549673 0.403710510453554 -1.00432042456072
0.6569672 0.4098654385805215 -1.002052966468272
0.6589671 0.4169049606550898 -0.999188506037445
0.660967 0.42252289282440214 -0.9969959229968465
0.6629669 0.4292843314991055 -0.9948487484558365
0.6649668 0.4354504565160674 -0.9926801366276585
0.6669667 0.4424845501352324 -0.9896280198214735
0.6689666 0.4490372482483771 -0.9871700598367903
0.6709665 0.45530465690491895 -0.9851512008884679
0.6729664 0.46140513760234236 -0.9827419267817918
0.6749663 0.46779295787883024 -0.9797679853032594
0.6769662 0.4742167591725326 -0.977804032359924
0.6789661 0.4803070851719438 -0.9754819661203271
0.680966 0.48716800639567115 -0.9718349951259597
0.6829659 0.4933221332912441 -0.968616547538333
0.6849658 0.49967247089994543 -0.9663441687971486
0.6869657 0.5056818697980666 -0.962442799592535
0.6889656 0.5115424986469261 -0.9595365651824533
0.6909655 0.5178733013092429 -0.9561979230317597
0.6929654 0.523864115450328 -0.9533265147123613
0.6949653 0.5299753869703767 -0.9500227999940808
0.6969652 0.5361062062911967 -0.9466291659752695
0.6989651 0.5421673084293404 -0.9433985063407953
0.700965 0.5483545798007529 -0.9395915256938199
0.7029649 0.554170567848148 -0.9363170750636803
0.7049648 0.559941803502098 -0.9333524828818441
0.7069647 0.5662661964470157 -0.9299545588220756
0.7089646 0.5730344632956219 -0.9269380215635203
0.7109645 0.5783983711818075 -0.9233310633767177
0.7129644 0.5844561878264437 -0.9203829916729938
0.7149643 0.590798208725041 -0.9168569192870275
0.7169642 0.5964378588866904 -0.9130637335850846
0.7189641 0.6021708705848028 -0.9089556374236998
0.720964 0.6077831902250411 -0.9061310037621544
0.7229639 0.6138174014583894 -0.9019579792599857
0.7249638 0.6199831527792533 -0.8985572707654954
0.7269637 0.6255822821827368 -0.8940789946536376
0.7289636 0.6311015716886021 -0.8910472601000551
0.7309635 0.63712339262268 -0.8867401399498769
0.7329634 0.6430212703466431 -0.8824842095606016
0.7349633 0.6491159995345557 -0.8792440923139823
0.7369632 0.6547606218590099 -0.874957287475063
0.7389631 0.6604122299452132 -0.8706175505360711
0.740963 0.6663516597300776 -0.8677805975042608
0.7429629 0.6725693603696443 -0.8639978681860168
0.7449628 0.6780841817749219 -0.860050737828341
0.7469627 0.6832001389415323 -0.8554704404782691
0.7489626 0.6896635768095304 -0.8519795694021115
0.7509625 0.695485791547415 -0.847028144339571
0.7529624 0.7006162741687251 -0.8425949626832732
0.7549623 0.7061110505817187 -0.8379971213858847
0.7569622 0.7118523560449157 -0.8334266027713982
0.7589621 0.7169775074759208 -0.8287441932375466
0.760962 0.7221229677180983 -0.8240202816001879
0.7629619 0.7274579800869069 -0.8201129732545035
0.7649618 0.7331514994542296 -0.8145402081478442
0.7669617 0.738351917702902 -0.8095400349277339
0.7689616 0.743340235049751 -0.8051616510637251
0.7709615 0.7489843582918856 -0.8004381290812628
0.7729614 0.7536614651241236 -0.7961603661939204
0.7749613 0.7598162497415122 -0.7917276332298894
0.7769612 0.7645410015155903 -0.7874233919535913
0.7789611 0.7705107135965643 -0.7827321753365041
0.780961 0.7753647370026386 -0.7778121411620752
0.7829609 0.7798797554506697 -0.7732590819258945
0.7849608 0.7854963056606827 -0.7680793372014181
0.7869607 0.7902067579405937 -0.763167796715222
0.7889606 0.7952103463392624 -0.75793179725211
0.7909605 0.79981491820086 -0.7531105388012077
0.7929604 0.8046872725552126 -0.7475446729371578
0.7949603 0.8096483146118504 -0.7426545406974295
0.7969602 0.8141344183058268 -0.7374507956796831
0.7989601 0.8192249156344769 -0.7320502909414477
