! Created with skrf 1.8.0 (http://scikit-rf.org).
# GHz S RI R 50.0 
!freq ReS11 ImS11
0.001 -1.0099831102831553 0.0003847909222040118
0.0029999 1.1521634251696014 0.009379780786477748
0.0049998 1.0876684101815313 0.06812177204410166
0.0069997 1.0792922641745868 0.010704565444714875
0.0089996 1.0240188602580902 0.02621781647367255
0.0109995 1.0125276339521894 0.030948157579178057
0.0129994 1.0072920331900168 0.034999534682425656
0.0149993 1.002892887986379 0.04540682645241359
0.0169992 0.9991516289073514 0.05392751084871233
0.0189991 0.9964820233925578 0.0626024629021181
0.020999 0.9947989201646762 0.07027469500002015
0.0229989 0.9929761392037914 0.07874149220191913
0.0249988 0.990547649378973 0.08838307877583208
0.0269987 0.9889715569527039 0.09610132090347964
0.0289986 0.9869413221369229 0.10476903260913864
0.0309985 0.983927789921078 0.1135766455839917
0.0329984 0.9847209217616808 0.12053542981128988
0.0349983 0.9839003802541098 0.12678203426521617
0.0369982 0.9809351893634543 0.13526948446245488
0.0389981 0.980828430436864 0.14124552757784095
0.040998 0.9806719901547325 0.14842446425795097
0.0429979 0.9786613612434963 0.155291003851519
0.0449978 0.9784210535921655 0.16129778470559158
0.0469977 0.97648284436988 0.16896063909188389
0.0489976 0.9764804300463777 0.1756336107467449
0.0509975 0.975801262305133 0.18113884354973958
0.0529974 0.9739379393760274 0.189460035033098
0.0549973 0.9737342632783202 0.19260899091899297
0.0569972 0.9735894893212808 0.20025176325138982
0.0589971 0.9722488740055475 0.20619699813975384
0.060997 0.9704878266772214 0.2125972751850017
0.0629969 0.9708278940189613 0.2189247952089523
0.0649968 0.968329907975684 0.225067466202148
0.0669967 0.9686219226573244 0.2305899426185184
0.0689966 0.9661758819387767 0.23729164202111688
0.0709965 0.9645225561395802 0.24604141464594148
0.0729964 0.964404311013447 0.25110258036761496
0.0749963 0.9613397521541431 0.25671688758711136
0.0769962 0.960008734943213 0.26454261508613275
0.0789961 0.9598447948699722 0.27087441812081964
0.080996 0.9565469181569507 0.2780064294627472
0.0829959 0.9545599301146507 0.2850299394682792
0.0849958 0.9526477703546503 0.2934211503599321
0.0869957 0.950760173282127 0.2992784124458497
0.0889956 0.9470348358301188 0.3061712947838703
0.0909955 0.9456311901120225 0.313217277022523
0.0929954 0.9423884623136419 0.31957224586533006
0.0949953 0.9397946061537749 0.32893059278174014
0.0969952 0.9374502522008287 0.3347262594959709
0.0989951 0.9328459301536257 0.3412264443186176
0.100995 0.9314837487211748 0.34875229272968816
0.1029949 0.9281006697139136 0.3553885938863647
0.1049948 0.9255926786595808 0.36262567558011494
0.1069947 0.9223442804916561 0.3693367822667232
0.1089946 0.919885930113006 0.37592840328300103
0.1109945 0.9176406049639619 0.38373286189272116
0.1129944 0.9140376737709218 0.3895310379187725
0.1149943 0.9111847338682808 0.3960446094186096
0.1169942 0.9092275117522945 0.4027202872457214
0.1189941 0.9055532498718656 0.4094571252713353
0.120994 0.9030365587398272 0.4157285780723767
0.1229939 0.8993501952210508 0.42176433826972226
0.1249938 0.8973780474384812 0.42880276095283415
0.1269937 0.8933444424313812 0.4337941339370717
0.1289936 0.8918231015012096 0.44087742361157994
0.1309935 0.8874798659242292 0.4467499474041275
0.1329934 0.8852956760500575 0.4532406267556844
0.1349933 0.8832004827093656 0.4581252264321797
0.1369932 0.8790492120950257 0.46437243741614515
0.1389931 0.8764161899105469 0.4717962522344492
0.140993 0.8736486969447529 0.4771226161200009
0.1429929 0.8717342450301422 0.4832548341704496
0.1449928 0.8678243072937479 0.4883206243098538
0.1469927 0.8653847334074213 0.4959322495721614
0.1489926 0.8619644368806968 0.5002347896265279
0.1509925 0.8587334737618016 0.5070184416431367
0.1529924 0.8557654038092969 0.5112967752146468
0.1549923 0.852434554496124 0.5176234884620329
0.1569922 0.8478656916952386 0.5255547245038532
0.1589921 0.8446175809057209 0.5299728882585051
0.160992 0.8394570409842286 0.5372388986454527
0.1629919 0.8366721962172131 0.5411703690708255
0.1649918 0.8330973745331314 0.5479787308603653
0.1669917 0.829051831313583 0.5546275930146414
0.1689916 0.8252894852335037 0.5594124434513345
0.1709915 0.8214921962476317 0.5661401184102522
0.1729914 0.8164958478011046 0.5709245118111305
0.1749913 0.8126349284988283 0.5773183606558542
0.1769912 0.8086872106738385 0.5835728151211457
0.1789911 0.8036882636665091 0.5881904209246236
0.180991 0.8005628352948309 0.5952227070968451
0.1829909 0.7957343128372062 0.6000762859470378
0.1849908 0.7908526026243177 0.6067031968315418
0.1869907 0.7861941586309688 0.6110927365334914
0.1889906 0.7823534721712426 0.617934382389391
0.1909905 0.7777544650197926 0.6239836656270096
0.1929904 0.7732430476946817 0.6292328732604973
0.1949903 0.7679780421687992 0.6346238292627486
0.1969902 0.7639556137594999 0.6397927914003534
0.1989901 0.7594043816256121 0.6459094753678656
0.20099 0.7561249907627832 0.651801597552421
0.2029899 0.7501609698410866 0.6558684396112907
0.2049898 0.7448537676686925 0.6622847710312644
0.2069897 0.7410657268430916 0.6672876899754682
0.2089896 0.7365679176256442 0.6725418206103806
0.2109895 0.7324860663593684 0.6765617915027791
0.2129894 0.727597408308158 0.6830694365957941
0.2149893 0.7235786205668 0.6873629133791436
0.2169892 0.7179766503188939 0.6928061199010881
0.2189891 0.7140216974814568 0.6966094943337302
0.220989 0.7097088392011328 0.7020692259260284
0.2229889 0.7052430983494754 0.70849800238923
0.2249888 0.7008552357217419 0.7114771216889928
0.2269887 0.6961215090451012 0.717304925113235
0.2289886 0.6908527270613176 0.7221102946131807
0.2309885 0.6868429027995897 0.7264987832117088
0.2329884 0.68146728418655 0.7308199435542281
0.2349883 0.676860218680923 0.7359446063472723
0.2369882 0.6720433993148869 0.7412829306544871
0.2389881 0.6673035157741978 0.7449517606502829
0.240988 0.6610255314287458 0.7493113755609275
0.2429879 0.6572511740634368 0.7547606205122843
0.2449878 0.651412119031968 0.7589472777380045
0.2469877 0.6468252457855733 0.7635325334302794
0.2489876 0.6404096602834716 0.767116824141032
0.2509875 0.6361242583514645 0.7724479964212292
0.2529874 0.6297459049848797 0.776563409807969
0.2549873 0.6248455896107432 0.7815824393669354
0.2569872 0.6190171678283751 0.7852144131726071
0.2589871 0.6135350616257977 0.7905196664466283
0.260987 0.6078802135727553 0.7943301236840677
0.2629869 0.6020880717895339 0.7986246642940489
0.2649868 0.5961021696459216 0.8033395116667096
0.2669867 0.5899234580976014 0.8075631741256813
0.2689866 0.5844570990341148 0.8116430726989359
0.2709865 0.5790206859431246 0.8158910730704778
0.2729864 0.5741049260096314 0.8195523698171597
0.2749863 0.5678104728947259 0.823848592835038
0.2769862 0.561434860152787 0.8284361349501019
0.2789861 0.5575213996134126 0.8328739617414507
0.280986 0.5507342846863144 0.8358432679798582
0.2829859 0.5454443799116742 0.839088641439446
0.2849858 0.5394047502053819 0.8433700121730215
0.2869857 0.5335582454661711 0.8467264912875349
0.2889856 0.5278837870211438 0.8495916462180322
0.2909855 0.521877771637054 0.8536626788432777
0.2929854 0.5172883446153423 0.8580893045391011
0.2949853 0.5110169903084261 0.8605331887647403
0.2969852 0.5051472254941787 0.8637071472215991
0.2989851 0.5002856322739918 0.8680699544402899
0.300985 0.4944343043551994 0.8712611443662972
0.3029849 0.4887751423988103 0.8762209138829137
0.3049848 0.48281759443140565 0.8785154909210191
0.3069847 0.47685825430665363 0.8811924888205593
0.3089846 0.4718666059192745 0.8850424548915456
0.3109845 0.4654623922965536 0.8882281998082725
0.3129844 0.45994927246002376 0.8910505797110282
0.3149843 0.45435140952065767 0.8950030582929376
0.3169842 0.44778694245173817 0.8985077538928141
0.3189841 0.44188527228102126 0.9013191508566312
0.320984 0.4351687481194085 0.9052232167485759
0.3229839 0.43012328985797765 0.9081325283849211
0.3249838 0.4237172454414032 0.9113195151581327
0.3269837 0.4177951248972558 0.9146273375634763
0.3289836 0.41069111003645986 0.9178539801200841
0.3309835 0.4050544546786137 0.9197659299724451
0.3329834 0.3990090926435311 0.9232602172631572
0.3349833 0.3925581314344779 0.9261396820987993
0.3369832 0.38647692944889256 0.9291617826696615
0.3389831 0.38117946751034826 0.9319315929362875
0.340983 0.37480335626232675 0.9347678205389383
0.3429829 0.3687423730707146 0.9370880013652116
0.3449828 0.36293313697375396 0.9393225741468743
0.3469827 0.35565303626739314 0.9427151791818057
0.3489826 0.34929186506860144 0.9451042905066093
0.3509825 0.342617166602027 0.9472462921463116
0.3529824 0.3358511535923893 0.9488106697793165
0.3549823 0.32976073290603586 0.9518549243139658
0.3569822 0.3221240817485424 0.953919668297551
0.3589821 0.315906965452072 0.9561697805322367
0.360982 0.30937059709958115 0.9583142604414429
0.3629819 0.3027098634054715 0.9599535174052783
0.3649818 0.2964840060882131 0.9624120898379033
0.3669817 0.2894890425099036 0.9632451196226147
0.3689816 0.2835595482461535 0.9662232025674806
0.3709815 0.27726617863438796 0.9678782057513023
0.3729814 0.2713898510153027 0.9692097873264045
0.3749813 0.2646097288611614 0.9717057561153868
0.3769812 0.2574068032235284 0.9731993684731344
0.3789811 0.2499151437287669 0.9741887724411958
0.380981 0.24461398450286215 0.9758632639816951
0.3829809 0.23750933164959148 0.9777751178624386
0.3849808 0.23241035866938625 0.9805081908504134
0.3869807 0.22535136511959558 0.9814056323505472
0.3889806 0.21910737690082754 0.983011656621565
0.3909805 0.21283303025261702 0.9849098296083584
0.3929804 0.20634007838291007 0.9865948686006055
0.3949803 0.1997982917500601 0.9879559865565505
0.3969802 0.19279988301977163 0.9881877914136625
0.3989801 0.18703876435562466 0.9905471066091971
0.40098 0.18027856996533195 0.99171224150404
0.4029799 0.17370577020328493 0.993122420718454
0.4049798 0.167591749367523 0.9947686875589863
0.4069797 0.1604444024520465 0.9952109485474542
0.4089796 0.15425384739329623 0.9967178001289769
0.4109795 0.14685109812776959 0.9978986475097003
0.4129794 0.14092561416421598 0.9996199908989712
0.4149793 0.13388516729130417 1.0005147638015983
0.4169792 0.12731780209566948 1.0008403049372532
0.4189791 0.12047426856794041 1.0018627958306856
0.420979 0.11369545146656655 1.002533886948496
0.4229789 0.10669447619753332 1.003628194109978
0.4249788 0.10020242896242781 1.0045457956023924
0.4269787 0.09317838877521498 1.0050782149571946
0.4289786 0.08656478314134332 1.0057234030989493
0.4309785 0.07982231320488273 1.0067021169778128
0.4329784 0.07342984560013435 1.007091884568361
0.4349783 0.06713213265960127 1.0076894809668824
0.4369782 0.06011061686510829 1.0080758326663912
0.4389781 0.05353761909222079 1.0090944192363975
0.440978 0.047219045896274195 1.0092890846256597
0.4429779 0.04090039229080885 1.0091089018599537
0.4449778 0.03326414180801385 1.0094139147103673
0.4469777 0.026783569676682287 1.0095640495162415
0.4489776 0.01992782343750514 1.0097292875405008
0.4509775 0.014070597098140333 1.0110524919570705
0.4529774 0.006809271989429849 1.0114588510178348
0.4549773 0.0007761348307518401 1.0111373934465808
0.4569772 -0.005405042653274544 1.0109713413123511
0.4589771 -0.012626369142309031 1.0112943768389737
0.460977 -0.018942071334972124 1.0114391279207138
0.4629769 -0.025617500644434806 1.0115662455308199
0.4649768 -0.03207320274392255 1.0105801732919824
0.4669767 -0.03858360211599887 1.0112428981253567
0.4689766 -0.045489525479604706 1.010983637377771
0.4709765 -0.0516937794566577 1.0107593479938848
0.4729764 -0.057876510580374935 1.0105615684072242
0.4749763 -0.06476278016371684 1.011073160488323
0.4769762 -0.07130727062117978 1.0107026028195396
0.4789761 -0.0777980838150433 1.0102148711445162
0.480976 -0.0847784612212984 1.0101903598977118
0.4829759 -0.09153922986416937 1.009394995010002
0.4849758 -0.09814451071607458 1.0087784179248664
0.4869757 -0.1049298097465032 1.008499511376092
0.4889756 -0.11152141420128955 1.0080005097990612
0.4909755 -0.11799697378722246 1.0075428715710621
0.4929754 -0.12490395487720057 1.0063418827044304
0.4949753 -0.13127761237854452 1.0052438065530533
0.4969752 -0.13818250878121163 1.00508783607761
0.4989751 -0.14451603429359344 1.0034279406742905
0.500975 -0.15037159865809752 1.0027571139505673
0.5029749 -0.1574390619756999 1.0017674298544077
0.5049748 -0.16419008670641866 1.0002655771387639
0.5069747 -0.17101793251285036 0.9992982884943843
0.5089746 -0.17767289322343313 0.9976312279677207
0.5109745 -0.1843038994620557 0.9966166661364345
0.5129744 -0.1908372744296417 0.995694718371363
0.5149743 -0.1978232755166856 0.994384319605696
0.5169742 -0.20398355819190517 0.9934917516488739
0.5189741 -0.2113741713944204 0.9919027563892441
0.520974 -0.21730692212304295 0.9909741029248245
0.5229739 -0.22373262839082614 0.9900434289235417
0.5249738 -0.23016282135218608 0.988962139768865
0.5269737 -0.2364736948017709 0.9874774214544337
0.5289736 -0.24295024157909276 0.9865294792160699
0.5309735 -0.24851309272245173 0.9851097546021123
0.5329734 -0.2545038035986397 0.9840702239563154
0.5349733 -0.2607927144596628 0.9828030606185597
0.5369732 -0.2668614812050547 0.9810861309799028
0.5389731 -0.2732832423916713 0.979620990566405
0.540973 -0.27916621038671025 0.9777477840833586
0.5429729 -0.28530020255852434 0.9765518100357112
0.5449728 -0.29182339855962974 0.9741954158862137
0.5469727 -0.2979629835161934 0.9726687759648708
0.5489726 -0.30374011846731125 0.9707778803670533
0.5509725 -0.31021143103129944 0.9690147785447047
0.5529724 -0.31651600783736944 0.9669685941979657
0.5549723 -0.32262645145061397 0.965167365068628
0.5569722 -0.3286383838677219 0.9628611007340943
0.5589721 -0.3349774002816102 0.9611469178855105
0.560972 -0.34136706305118875 0.9590697557189907
0.5629719 -0.34739132399046635 0.9568070167226246
0.5649718 -0.3533769111810997 0.954684334124593
0.5669717 -0.3596945688213685 0.9528435006501931
0.5689716 -0.3659678865735736 0.9506325314762782
0.5709715 -0.37162634789974636 0.9483919205966997
0.5729714 -0.37768421822512743 0.9461896864531383
0.5749713 -0.3838399175223416 0.9438265442937537
0.5769712 -0.3898727605751887 0.940773726173191
0.5789711 -0.396138202386086 0.9379937559182029
0.580971 -0.4020047991359258 0.9356600181009436
0.5829709 -0.4079395478793053 0.9334547117714155
0.5849708 -0.4138872510316643 0.9310889132490868
0.5869707 -0.41998583561169994 0.9284665777059307
0.5889706 -0.4258757108727452 0.9256005269729997
0.5909705 -0.4312628485913547 0.9232653897178583
0.5929704 -0.4380042515338207 0.9201159796091465
0.5949703 -0.4435247572085216 0.9179932553257208
0.5969702 -0.4491387705531351 0.9142654153614823
0.5989701 -0.4549642271549645 0.9119861957459836
0.60097 -0.4608108652468524 0.9095671016870017
0.6029699 -0.4670286348426913 0.9067015282289818
0.6049698 -0.4726724457835066 0.9039840566472429
0.6069697 -0.4778060953250645 0.9012260844315839
0.6089696 -0.4841344738270751 0.8983160410952132
0.6109695 -0.4896389529438599 0.8953037820360878
0.6129694 -0.4956060030427253 0.8921764426423611
0.6149693 -0.501210432944132 0.8886831428676449
0.6169692 -0.5068453722427875 0.8858950203156721
0.6189691 -0.5123271688489414 0.8829044906130978
0.620969 -0.518467026327866 0.8799903942845283
0.6229689 -0.5235867483825005 0.8766100309040092
0.6249688 -0.529085241281941 0.873660509831049
0.6269687 -0.5350018770321088 0.870480543887318
0.6289686 -0.540203410764312 0.8672147192412554
0.6309685 -0.5460733440129768 0.8637230902973781
0.6329684 -0.5515320062094127 0.8605860369807056
0.6349683 -0.5568336925472939 0.8574434225970267
0.6369682 -0.5619722416729532 0.8539747647810674
0.6389681 -0.5672765586517505 0.8502157797834619
0.640968 -0.5726547820334285 0.8467484898339153
0.6429679 -0.5781053081939793 0.8428403800449741
0.6449678 -0.5832539507297312 0.8394817933343423
0.6469677 -0.5889547112258265 0.8356751924373123
0.6489676 -0.5941159111390489 0.8319181618449113
0.6509675 -0.5990563719604679 0.8283822689030637
0.6529674 -0.6045903704461117 0.8247638084383763
0.6549673 -0.6095207639921001 0.8208039656337615
0.6569672 -0.6146075687059792 0.8172558371641775
0.6589671 -0.6199594941704267 0.8135274130482886
0.660967 -0.6254240199895911 0.809347479869122
0.6629669 -0.6303844048588475 0.8058553238002008
0.6649668 -0.6351981163772109 0.8014562792993963
0.6669667 -0.6403871603033364 0.7975754057650561
0.6689666 -0.64542359154993 0.7937124579179913
0.6709665 -0.6503397545378677 0.7897198140206394
0.6729664 -0.6554346914107881 0.7858775090949024
0.6749663 -0.6603392461730486 0.7818921766191155
0.6769662 -0.665370555330053 0.7778692338768143
0.6789661 -0.6701464496668794 0.7734435480557565
0.680966 -0.674975810899912 0.7695299476754046
0.6829659 -0.6800270598454887 0.7656333025723305
0.6849658 -0.6846591157622264 0.7615447732564526
0.6869657 -0.6894890890185734 0.7573244362443817
0.6889656 -0.6943402516487316 0.7529509169187936
0.6909655 -0.6990229701006486 0.7488324201181953
0.6929654 -0.7040985045851266 0.7445233711734759
0.6949653 -0.7085716482517848 0.7403884467319033
0.6969652 -0.713351947056697 0.7360044637693341
0.6989651 -0.7177631703210534 0.7318932041368966
0.700965 -0.7227494268258802 0.7273466037151999
0.7029649 -0.7271128492041324 0.7228585814652791
0.7049648 -0.7315755470402712 0.7182628586079751
0.7069647 -0.7360239547057909 0.7144394026324253
0.7089646 -0.7407738267716288 0.7096892591379743
0.7109645 -0.7451310011707424 0.7052172589997805
0.7129644 -0.7497149332784878 0.700500645742283
0.7149643 -0.7538708559983824 0.6957630998559656
0.7169642 -0.7583945349464376 0.6911024328793164
0.7189641 -0.7626978102887609 0.6866882996437059
0.720964 -0.7668766210497403 0.6819711749972883
0.7229639 -0.7713451391300978 0.677053450160488
0.7249638 -0.7755096222465687 0.6722304220864742
0.7269637 -0.7796779474940282 0.6676470841295499
0.7289636 -0.7837189022897019 0.6629815626437127
0.7309635 -0.7876601626291442 0.6581504355670592
0.7329634 -0.791982525211358 0.6530445492394447
0.7349633 -0.7961390191826578 0.6485198269323397
0.7369632 -0.8000760114988417 0.6434695889583105
0.7389631 -0.8041665639901358 0.6383846066439135
0.740963 -0.807909848492592 0.6336512812022627
0.7429629 -0.8118992992984879 0.6286276587180517
0.7449628 -0.8159551580146313 0.6238948808089251
0.7469627 -0.8200120204488031 0.6188059527433275
0.7489626 -0.8239087156786824 0.6137062756634891
0.7509625 -0.8278392387291227 0.6090167335227441
0.7529624 -0.8317030971106943 0.6036897677948504
0.7549623 -0.835363923471381 0.5987484376021802
0.7569622 -0.839278203023307 0.5941434699309639
0.7589621 -0.8429955010926178 0.5887233174811397
0.760962 -0.8468277627961842 0.5838819915638859
0.7629619 -0.8503136724472851 0.578884818215682
0.7649618 -0.8538508079498518 0.5735009167232031
0.7669617 -0.857724891864531 0.5684593437007744
0.7689616 -0.8612570443654813 0.5632480109368929
0.7709615 -0.8646291459565191 0.5580825211937973
0.7729614 -0.8676449377808142 0.5527265704923945
0.7749613 -0.8716017951552771 0.5476590733118218
0.7769612 -0.8749955642127031 0.5422676802654004
0.7789611 -0.8781837030393355 0.5371214286364314
0.780961 -0.881607727618552 0.5315238015377549
0.7829609 -0.8848775520294656 0.5264817022291427
0.7849608 -0.8880259034171522 0.5211079942132887
0.7869607 -0.8912331901543177 0.5157584415992756
0.7889606 -0.8947065776391308 0.5101261193183771
0.7909605 -0.8978519328588715 0.5048335481093491
0.7929604 -0.9008269395418702 0.4994062724973856
0.7949603 -0.9038979688403629 0.49378879358273214
0.7969602 -0.9069536398127547 0.4884026545163447
0.7989601 -0.9101971486351399 0.4828692025077619
0.80096 -0.913106664294744 0.4773808076455183
0.8029599 -0.9159567609135527 0.4718848293472834
0.8049598 -0.9187289261747809 0.4662037036267089
0.8069597 -0.9214216503603426 0.46054522945918086
0.8089596 -0.9244373799123651 0.4548785625705617
0.8109595 -0.9276535235946487 0.44948757375973075
0.8129594 -0.9303385446103081 0.44376439475999885
0.8149593 -0.9330957929899248 0.4382079729203187
0.8169592 -0.9358118973060494 0.43257118878834877
0.8189591 -0.938377476738483 0.4270245574187917
