! Created with skrf 1.8.0 (http://scikit-rf.org).
# GHz S RI R 50.0 
!freq ReS11 ImS11
0.001 -0.996512220492026 0.0009736764180048874
0.0029999 -0.9344079806194063 0.04829731484157995
0.0049998 -1.020514071146229 0.32952439838678005
0.0069997 -0.5718010461034255 -0.07694610711496434
0.0089996 -0.27562764500491094 0.11276471258238237
0.0109995 -0.16673703367130532 0.09509386948566075
0.0129994 -0.11463140648600359 0.08115627736825728
0.0149993 -0.10085920802080385 0.08114776675112619
0.0169992 -0.06451109024844735 0.07441773956025578
0.0189991 -0.04331188708102191 0.061518616312340686
0.020999 -0.03766148799120395 0.05375953174708501
0.0229989 -0.03270365478019361 0.0511635119779769
0.0249988 -0.03143814788184933 0.04750444308164347
0.0269987 -0.026264264539980885 0.04333448822113401
0.0289986 -0.027796420658173126 0.04118254041757829
0.0309985 -0.026399121878738222 0.03625652626195917
0.0329984 -0.02426911585369961 0.03710966799240414
0.0349983 -0.01925294957116849 0.03728300337860907
0.0369982 -0.020843767464954623 0.0378257162456202
0.0389981 -0.020445227456544715 0.036626835443382987
0.040998 -0.022077614769023864 0.0353066847908327
0.0429979 -0.023773670749021647 0.03587254830514062
0.0449978 -0.021715695166494055 0.037825442329756896
0.0469977 -0.025537897788426373 0.035235349327362664
0.0489976 -0.025541298631842343 0.03742565525470498
0.0509975 -0.022015412780144995 0.037029350921273026
0.0529974 -0.024513072082189964 0.033849703321052325
0.0549973 -0.02259465121449892 0.033824487357665516
0.0569972 -0.024806226727584375 0.03522001127876607
0.0589971 -0.026308379862975306 0.032541803327944915
0.060997 -0.025117167484936934 0.03051813743416715
0.0629969 -0.025897072134708515 0.03185114443392358
0.0649968 -0.026609221301099092 0.0283394405198126
0.0669967 -0.02373690667013597 0.030119826456639225
0.0689966 -0.025396982874056718 0.027707972368202882
0.0709965 -0.029480911824859755 0.027333433220357296
0.0729964 -0.02683737954475262 0.028176476985942358
0.0749963 -0.024461526751620378 0.02406180421623429
0.0769962 -0.025474835166789653 0.023856077595019735
0.0789961 -0.02427467505168317 0.026035578625698077
0.080996 -0.02592123197849454 0.023906756239810985
0.0829959 -0.02449723409780489 0.02317539951250363
0.0849958 -0.02500390926925435 0.023845654131149075
0.0869957 -0.022684709385159565 0.023179771356472402
0.0889956 -0.023394054661117377 0.02139946823338917
0.0909955 -0.02153467887255802 0.02318525755319838
0.0929954 -0.021983982381307766 0.02178217669482466
0.0949953 -0.023230266924247192 0.023197811934842837
0.0969952 -0.021621555557944334 0.024129665871631026
0.0989951 -0.021532679799119003 0.020342758725792182
0.100995 -0.02030007181158753 0.021784028446495882
0.1029949 -0.019380026191067778 0.021993753531351662
0.1049948 -0.019083123868399512 0.023081010210541632
0.1069947 -0.019194039310082338 0.023897128029366145
0.1089946 -0.01955261789051789 0.02421607338311825
0.1109945 -0.019994302516643657 0.025757960755867615
0.1129944 -0.019784980359315717 0.02605904973644362
0.1149943 -0.02012265880084803 0.02664013931979555
0.1169942 -0.020402862921657654 0.027492406771981948
0.1189941 -0.021061497710031317 0.028676655978103673
0.120994 -0.021648530730995652 0.02792759208533219
0.1229939 -0.0223143382053414 0.02788847277109352
0.1249938 -0.023085909302929884 0.028859041736367788
0.1269937 -0.023476820756105347 0.02738872856210623
0.1289936 -0.02347162378014062 0.02945740809966814
0.1309935 -0.02481315751054999 0.027720019525754563
0.1329934 -0.025263378460194066 0.029375837443145453
0.1349933 -0.025980862920597734 0.028260429864836088
0.1369932 -0.025333154708942308 0.028183405000081777
0.1389931 -0.027014690843377338 0.028866554526585972
0.140993 -0.025749158844820524 0.029036736516323523
0.1429929 -0.026296822317017216 0.028517265551328438
0.1449928 -0.027878498342074075 0.027320355261589636
0.1469927 -0.026746928592626985 0.027526981191184817
0.1489926 -0.027026227079390223 0.027139125136727355
0.1509925 -0.02768220939261467 0.027201802031547248
0.1529924 -0.027040277273446846 0.02643462285287106
0.1549923 -0.02614052880195509 0.02651449040487277
0.1569922 -0.027859755410274183 0.026523724454895484
0.1589921 -0.02705051030339147 0.02625552544208355
0.160992 -0.02786918288787625 0.026017032224467274
0.1629919 -0.0265558153349919 0.025919277433709188
0.1649918 -0.026634073910911937 0.02662197375035199
0.1669917 -0.026900918455464273 0.026675660566910807
0.1689916 -0.02670218722059988 0.0265834234252234
0.1709915 -0.026221530043559937 0.026572443046751517
0.1729914 -0.026596488555051534 0.02642516845422916
0.1749913 -0.02667678121960672 0.027565048116737496
0.1769912 -0.02629539480121105 0.026894512162127234
0.1789911 -0.026481105660914682 0.02809240599412648
0.180991 -0.02639538825521911 0.028182993986835367
0.1829909 -0.026907977720933916 0.028534769408628563
0.1849908 -0.026775200864603686 0.028672333425684877
0.1869907 -0.026778910250006817 0.02800138325052448
0.1889906 -0.027498502435114446 0.029230528458393645
0.1909905 -0.027996109391109004 0.029276737072935446
0.1929904 -0.02813074966870175 0.029844355395906262
0.1949903 -0.028345652623678354 0.029341489481138603
0.1969902 -0.02830360850806682 0.028988973057604814
0.1989901 -0.02898834467625959 0.029910785625899338
0.20099 -0.02974173172501069 0.030298673552689236
0.2029899 -0.028670833950973737 0.03020817647675097
0.2049898 -0.029429128993253933 0.03031503671385481
0.2069897 -0.0301524566076674 0.030357033804337453
0.2089896 -0.030072620128546196 0.030187513736692286
0.2109895 -0.03073844593976697 0.030409584085309176
0.2129894 -0.031073874217552956 0.030748628168852758
0.2149893 -0.030793395273613515 0.030702083088663408
0.2169892 -0.03169473230264249 0.03054670171296084
0.2189891 -0.03136687506070743 0.030436354019432156
0.220989 -0.031561556157006926 0.030603824570732983
0.2229889 -0.03241026967027781 0.03175429646494739
0.2249888 -0.03217470402691566 0.031359943379274356
0.2269887 -0.03247563052190724 0.030636613503933843
0.2289886 -0.03263855955573796 0.03090011687491573
0.2309885 -0.03249060269832135 0.030948061351150555
0.2329884 -0.03275584210682745 0.030688515482605438
0.2349883 -0.0329750823926195 0.030816036361472003
0.2369882 -0.033748393328087475 0.03118987899211476
0.2389881 -0.03352991608901675 0.030932428852644488
0.240988 -0.033954195357609934 0.03046773071529643
0.2429879 -0.03401921659821508 0.03109766043920588
0.2449878 -0.03413244960700848 0.030947403690046886
0.2469877 -0.03408341715652785 0.031058933089731372
0.2489876 -0.03403446548745802 0.030390585468197014
0.2509875 -0.03412439248601076 0.03085813244742433
0.2529874 -0.034464716624748565 0.030769146598297
0.2549873 -0.0344209790251634 0.0309751477609133
0.2569872 -0.0342658356321245 0.03060725024608168
0.2589871 -0.034086161820284705 0.031151057542882176
0.260987 -0.03402013824034046 0.03090937732844881
0.2629869 -0.0339211799403088 0.03066969583503049
0.2649868 -0.03409962811126986 0.03146031784495347
0.2669867 -0.034426393259128704 0.03129301982327361
0.2689866 -0.03445949829923301 0.03140752938734398
0.2709865 -0.03441685391334025 0.031638460637376575
0.2729864 -0.0342673614530912 0.03226419662956009
0.2749863 -0.03416530696540407 0.03199256427301596
0.2769862 -0.03421749568456791 0.03255999133823073
0.2789861 -0.03421976788475777 0.03382619512184722
0.280986 -0.03448791506041309 0.033973330182375056
0.2829859 -0.0344078670283743 0.03380988847898704
0.2849858 -0.035321284108254164 0.03459867349081057
0.2869857 -0.03527110400065423 0.03479577005000084
0.2889856 -0.03548853991054217 0.03509146813552899
0.2909855 -0.03601908499810539 0.03580355727988712
0.2929854 -0.03643614712584831 0.03635752678078838
0.2949853 -0.03684782350434974 0.036473645424864455
0.2969852 -0.037260963537969406 0.036393920264734335
0.2989851 -0.03771270718993425 0.03713945985084175
0.300985 -0.03838328613388635 0.037596570860311276
0.3029849 -0.03933053022589401 0.038381263076865846
0.3049848 -0.040164041586778054 0.03809147784057607
0.3069847 -0.040793442482774056 0.03770688320932507
0.3089846 -0.04145116255454591 0.0383924656253636
0.3109845 -0.04222290827548556 0.03784881887641796
0.3129844 -0.04277436052762842 0.037793748773003386
0.3149843 -0.04375116387315203 0.03772667567496853
0.3169842 -0.04439344246903547 0.03761067084266385
0.3189841 -0.045433663898115546 0.03724261561592803
0.320984 -0.04614535101418936 0.03701090028456848
0.3229839 -0.04675649930229343 0.03665962828103988
0.3249838 -0.04676095176529138 0.036840054585026386
0.3269837 -0.047264806128666355 0.0365612226750775
0.3289836 -0.04790843558070482 0.036245444644262645
0.3309835 -0.048030662661032245 0.035739204871732586
0.3329834 -0.0481603826591457 0.03503578397539853
0.3349833 -0.04792006346951613 0.034530723352142044
0.3369832 -0.04806009294056955 0.03437183515277455
0.3389831 -0.04783802865575258 0.03382962684650498
0.340983 -0.047483314472591326 0.03352035006525924
0.3429829 -0.047021726784329025 0.03327222280803506
0.3449828 -0.04686182325367394 0.03255465215390295
0.3469827 -0.046720717509080315 0.033187640608548785
0.3489826 -0.04632832589518897 0.03298015542153536
0.3509825 -0.04630749341676341 0.03292936000274512
0.3529824 -0.046024697004331094 0.03279345061644157
0.3549823 -0.04554318040644623 0.032726166685267656
0.3569822 -0.04543365294165873 0.03329264691845849
0.3589821 -0.04489035689306857 0.03386393620042899
0.360982 -0.0447099101066306 0.03419041916154042
0.3629819 -0.04484056819830125 0.034533723092163564
0.3649818 -0.044963820472824545 0.034996690592967866
0.3669817 -0.045201186158602226 0.03565163256342105
0.3689816 -0.04548783092274565 0.03585840441411889
0.3709815 -0.04589098770724121 0.036002068969363143
0.3729814 -0.04562183183097378 0.03647868014962004
0.3749813 -0.046500239812033446 0.037361036158041795
0.3769812 -0.04739534857376599 0.03764276317887301
0.3789811 -0.0480568341007397 0.03730371363200686
0.380981 -0.04851555033727364 0.03754251868873518
0.3829809 -0.049190027364444555 0.03779562550203904
0.3849808 -0.04927925660929991 0.03856040233391986
0.3869807 -0.05057122895575943 0.03815771488506614
0.3889806 -0.050930105263511015 0.03816028411815655
0.3909805 -0.05154484876510175 0.03807366889783696
0.3929804 -0.052051695360480835 0.037991247954558834
0.3949803 -0.052820150941457256 0.03776307727972763
0.3969802 -0.053614380802210544 0.03741401115420072
0.3989801 -0.05386009090339394 0.036895583915694405
0.40098 -0.05414282996587665 0.03658280846072254
0.4029799 -0.05457314358686073 0.036187989075266144
0.4049798 -0.05463045322847208 0.03575242738217604
0.4069797 -0.05491755589535777 0.03502884764271519
0.4089796 -0.055209136246296205 0.03488231325938403
0.4109795 -0.05511804450190996 0.034644639075388874
0.4129794 -0.05534407208125919 0.034604769648937654
0.4149793 -0.05523384552247616 0.033810060606634613
0.4169792 -0.05492863002269972 0.03344618131505456
0.4189791 -0.05478995424755444 0.033464182763893284
0.420979 -0.05483779004544306 0.03340151245372312
0.4229789 -0.05466513541147125 0.0333660657432779
0.4249788 -0.054552654689352366 0.03353104885597314
0.4269787 -0.05452811486190973 0.03368348030663763
0.4289786 -0.05432084863825114 0.03385888720595443
0.4309785 -0.054424981048773115 0.03412306097429163
0.4329784 -0.054534311268607034 0.034278445295996926
0.4349783 -0.054923939962880815 0.03452779816647113
0.4369782 -0.05519801114616937 0.03493449240653332
0.4389781 -0.05528316148806062 0.03550294471709142
0.440978 -0.05569847767323285 0.035702419844392895
0.4429779 -0.056254652265370256 0.03585592365861026
0.4449778 -0.05693806908197882 0.03614395006921175
0.4469777 -0.05766720460509979 0.03623745334280161
0.4489776 -0.05793521935844231 0.03655294803260606
0.4509775 -0.0583759987781595 0.03689212788686721
0.4529774 -0.0594801680027303 0.03708261713518429
0.4549773 -0.05987221090165491 0.03677934058241217
0.4569772 -0.060426536216128694 0.03644014208589442
0.4589771 -0.06154310354044021 0.036235476894497326
0.460977 -0.061762218224409485 0.035852538363716394
0.4629769 -0.06246496500854306 0.03579716569839121
0.4649768 -0.06301710937603375 0.03467679605725299
0.4669767 -0.063565740777675 0.03469303987437475
0.4689766 -0.06399111520166587 0.03413146801268992
0.4709765 -0.0644983852670088 0.03368434312510706
0.4729764 -0.06449970749655747 0.03304383048175284
0.4749763 -0.0646648045165076 0.03272260404235741
0.4769762 -0.06484522038548649 0.032308235384763094
0.4789761 -0.06492790425741309 0.031678028024932456
0.480976 -0.06488413322800392 0.031202777263889127
0.4829759 -0.06496236139089297 0.030844702759619112
0.4849758 -0.06474560845814255 0.030541816671634584
0.4869757 -0.06462779622294199 0.03024728554326817
0.4889756 -0.06421566892994063 0.02980171130390405
0.4909755 -0.06369419644190144 0.02972513607293748
0.4929754 -0.06368172850791981 0.029797967996786884
0.4949753 -0.06345089858344109 0.02976321610859589
0.4969752 -0.06316277975839471 0.02997138247411432
0.4989751 -0.06309940403186193 0.029993192558634474
0.500975 -0.06296954989204248 0.030224813993865673
0.5029749 -0.06305299964770253 0.030503366049758878
0.5049748 -0.06342718107916082 0.030928978684975978
0.5069747 -0.06374515977436766 0.031169206630679874
0.5089746 -0.06396449328961445 0.031368660136181795
0.5109745 -0.06418535549980293 0.031421463398688204
0.5129744 -0.06430733317608714 0.03185947333040052
0.5149743 -0.06470696781655104 0.03221623562131391
0.5169742 -0.06526194049867388 0.03247694796249247
0.5189741 -0.06622726056693892 0.03267860638069364
0.520974 -0.06693262227218807 0.03257684894721382
0.5229739 -0.06726339635768797 0.032531606017309984
0.5249738 -0.0677310704141033 0.0328845401134362
0.5269737 -0.06854379845049338 0.032629363308247145
0.5289736 -0.06926497840104506 0.032885276007357724
0.5309735 -0.06995936030115135 0.032491470053145524
0.5329734 -0.07062268607611477 0.0321320016608502
0.5349733 -0.07108414027207272 0.03203886803179576
0.5369732 -0.07186959396622779 0.03153367755369685
0.5389731 -0.07241442383834885 0.03118922346137595
0.540973 -0.07279064862306109 0.030288500114505495
0.5429729 -0.07323163132485634 0.029716413792352268
0.5449728 -0.07376025623948455 0.029083866866202446
0.5469727 -0.07383372127622485 0.02853373771331937
0.5489726 -0.07396675855082838 0.02801296924392292
0.5509725 -0.07391687058305108 0.027472362640598158
0.5529724 -0.074234131026292 0.026969146528637203
0.5549723 -0.0741634892288145 0.026504165848715733
0.5569722 -0.0739995305805295 0.025959376428907516
0.5589721 -0.07385294343750931 0.025827201979975345
0.560972 -0.07356276018785082 0.025493534021238357
0.5629719 -0.07347899856417264 0.02531352417634096
0.5649718 -0.0729855984352859 0.025044171585071346
0.5669717 -0.07282205994257188 0.025099703510221377
0.5689716 -0.07281870584746727 0.02514440623985295
0.5709715 -0.07286932231588451 0.025238824007439865
0.5729714 -0.07274917442918379 0.025287734206411446
0.5749713 -0.07300758157507059 0.025157744542199514
0.5769712 -0.07316538770232353 0.025289166638332125
0.5789711 -0.07350685869967112 0.025377902935172107
0.580971 -0.07345636827129891 0.025753889664295794
0.5829709 -0.07375392773446982 0.026159703320014053
0.5849708 -0.07406173684415052 0.026511482322178558
0.5869707 -0.07452651042222287 0.026642986540824427
0.5889706 -0.07514725188202405 0.026326814154135243
0.5909705 -0.0757779705473856 0.026386544269971914
0.5929704 -0.07633810560529355 0.02617667389951659
0.5949703 -0.0767646056344084 0.026078269197499594
0.5969702 -0.07761300052302525 0.02575526257946315
0.5989701 -0.07816010786901294 0.025727059942345636
0.60097 -0.07882630689440177 0.025385945521789747
0.6029699 -0.07933208639907886 0.02509974562892087
0.6049698 -0.07979835597666556 0.024592288808306537
0.6069697 -0.08015501382564823 0.023953145554693366
0.6089696 -0.080618376061279 0.023583485146826514
0.6109695 -0.08096123897706906 0.022589386749014503
0.6129694 -0.08140301410357503 0.02213555768036075
0.6149693 -0.08154700653381848 0.021342297961586005
0.6169692 -0.0816563116259043 0.020857378359637066
0.6189691 -0.08156793496915749 0.02017272101042134
0.620969 -0.08164832361558769 0.01983005536106716
0.6229689 -0.08140614886620369 0.01916458182534657
0.6249688 -0.08106526579111056 0.018653132077423914
0.6269687 -0.08099373156530298 0.018324574988774423
0.6289686 -0.0806239964630113 0.01810522325458001
0.6309685 -0.08021007931611382 0.017824625471879692
0.6329684 -0.08019879021773614 0.017965459812266146
0.6349683 -0.0798318343300104 0.017568845523723446
0.6369682 -0.07966707896340411 0.017437566445964687
0.6389681 -0.07976689195795765 0.017445051029236023
0.640968 -0.07931714346988632 0.017587438292795098
0.6429679 -0.07974161991176464 0.01793628210294981
0.6449678 -0.07949354028237682 0.018031075522188404
0.6469677 -0.08004631966338395 0.018450750152885186
0.6489676 -0.08016484870081074 0.018761973731363315
0.6509675 -0.08051966099104431 0.019145597482663035
0.6529674 -0.08141064425947765 0.01959916588102166
0.6549673 -0.08154609219590458 0.01970257662882675
0.6569672 -0.08212745467513341 0.020075084218917672
0.6589671 -0.08261257868819642 0.020082846926432304
0.660967 -0.0836990002435492 0.02012682317761642
0.6629669 -0.08425188125083563 0.01992048709261413
0.6649668 -0.08506441939190997 0.019665444348982885
0.6669667 -0.08582141344648474 0.019216160149363063
0.6689666 -0.0864057622318547 0.01866575986122274
0.6709665 -0.08698637643654217 0.018004875020535483
0.6729664 -0.08772373053707398 0.017419128932663914
0.6749663 -0.08816177790762236 0.01700904507241876
0.6769662 -0.08900167706205162 0.015949118567555133
0.6789661 -0.08989334528929521 0.014911821775912538
0.680966 -0.09008801430098774 0.01407002269867218
0.6829659 -0.09014822894936107 0.013428103540023127
0.6849658 -0.09035122227403859 0.012346311419550733
0.6869657 -0.09013591841124724 0.011462934180952972
0.6889656 -0.09022615842363736 0.010531111514210129
0.6909655 -0.089944462354877 0.010042345582898661
0.6929654 -0.0898269695975418 0.009344080783731157
0.6949653 -0.08953012445422182 0.0088548995449492
0.6969652 -0.08896808534600278 0.008185630506582449
0.6989651 -0.08876994608081255 0.007704527582668753
0.700965 -0.08838841929593039 0.007290707851180932
0.7029649 -0.08791320424688705 0.0073003960889425
0.7049648 -0.08758402964050406 0.006820673910610052
0.7069647 -0.08721819524773618 0.00683916649643225
0.7089646 -0.0866047826796944 0.0066894719433878945
0.7109645 -0.08656799571972729 0.006957573810859409
0.7129644 -0.08679408347955003 0.007227902463188975
0.7149643 -0.08669163882555976 0.007195844824801508
0.7169642 -0.08690437918448436 0.007698050647347937
0.7189641 -0.08703440848119716 0.0080760858785828
0.720964 -0.08756085114213472 0.008246560114733792
0.7229639 -0.0876125005974826 0.008195159530589372
0.7249638 -0.08797585680054225 0.008485520028443418
0.7269637 -0.08819502348787792 0.008650801335631095
0.7289636 -0.0890977561043604 0.008959095745436782
0.7309635 -0.08945021909181818 0.00888154448422709
0.7329634 -0.09018549951373202 0.008863498151585183
0.7349633 -0.09108347924152915 0.008524418678380444
0.7369632 -0.091849323737941 0.008316024260145709
0.7389631 -0.09276658926924398 0.007655186421105454
0.740963 -0.09328846419304998 0.006976341076998356
0.7429629 -0.09386693693137745 0.006016471229806586
0.7449628 -0.09438037914112164 0.005259515077614456
0.7469627 -0.0950633652845001 0.004490051763748844
0.7489626 -0.09530809531475581 0.0034224330359048545
0.7509625 -0.09566711076749264 0.0027968259515699437
0.7529624 -0.09612089060051313 0.0017652350422433134
0.7549623 -0.09615340074383155 0.0009871715417291496
0.7569622 -0.09604619526110221 -1.9946168685336385e-05
0.7589621 -0.0959151439070654 -0.0008512438364412719
0.760962 -0.09566502310149384 -0.0016191988381342934
0.7629619 -0.09524269019998291 -0.002307592559030222
0.7649618 -0.09485662808873639 -0.0030373310457535788
0.7669617 -0.0943589798669209 -0.003621229341697757
0.7689616 -0.09379228814831345 -0.004234180568477377
0.7709615 -0.09358986871270698 -0.004949569585345804
