! Created with skrf 1.8.0 (http://scikit-rf.org).
# GHz S RI R 50.0 
!freq ReS11 ImS11
0.001 -0.9999045115131195 0.0007922306613648011
0.0029999 -0.9960225473448626 -0.01239900180138409
0.0049998 -0.8988802984187647 -0.04543878633385873
0.0069997 -0.503823814148101 -0.010423597439986648
0.0089996 -0.2668732580054781 0.1298803918350381
0.0109995 -0.19583442680271812 0.12799532952146842
0.0129994 -0.16186750921095547 0.12008633687798216
0.0149993 -0.12799220482698556 0.13232735284833946
0.0169992 -0.09888225000445933 0.13459952098188482
0.0189991 -0.081835501828853 0.1293723142495659
0.020999 -0.07284155858119983 0.12539282648928457
0.0229989 -0.05908240469907482 0.12327241982136007
0.0249988 -0.05257563396992507 0.11960063432964216
0.0269987 -0.04296984126879339 0.11465007324691684
0.0289986 -0.04082567705517175 0.111061282344532
0.0309985 -0.03631714309697852 0.10615739628672444
0.0329984 -0.0319252277963715 0.10123159826034096
0.0349983 -0.026357214400433628 0.0992004002496012
0.0369982 -0.025220234536077683 0.09630699053819139
0.0389981 -0.023100447693174583 0.09333293142253059
0.040998 -0.02387118135102576 0.0855844014952141
0.0429979 -0.026954457664983555 0.08744897760973878
0.0449978 -0.02228333942009461 0.08397725214741263
0.0469977 -0.024001804212707548 0.07856534021857511
0.0489976 -0.027535694431987626 0.08059193269180837
0.0509975 -0.023998560892039167 0.07669986441939221
0.0529974 -0.024423671563200536 0.07483373589086764
0.0549973 -0.02502087526875562 0.07041001286051543
0.0569972 -0.026759855894883805 0.07039886286616608
0.0589971 -0.028746842771640378 0.0645986245895302
0.060997 -0.026825244119173704 0.062265767703765726
0.0629969 -0.02843525508286965 0.0623067390488148
0.0649968 -0.030475309879451025 0.05748768417751733
0.0669967 -0.02916671395717696 0.05639949028132917
0.0689966 -0.02845337514845796 0.054237618100026155
0.0709965 -0.032282923598958055 0.052600506320561576
0.0729964 -0.029267701569399895 0.053210739366288014
0.0749963 -0.026663400782373958 0.04919568800982818
0.0769962 -0.028302038806480266 0.04778904211755703
0.0789961 -0.02753773978167336 0.048365429254953754
0.080996 -0.028453191367780854 0.04545319964206923
0.0829959 -0.026865810548969946 0.044955577344025444
0.0849958 -0.02611825066591037 0.04462919954779682
0.0869957 -0.024440091896503074 0.043935584945778795
0.0889956 -0.024322000558620452 0.041798036013300975
0.0909955 -0.022711623391773475 0.043257570790628135
0.0929954 -0.022537154425207404 0.041236313435987285
0.0949953 -0.022955151817621637 0.0425782870029453
0.0969952 -0.021070168096119314 0.04360979386902357
0.0989951 -0.021886967873178544 0.04194063577665477
0.100995 -0.01886175560258408 0.04025397676503062
0.1029949 -0.01759025582247299 0.04043782293509662
0.1049948 -0.017671754253561527 0.040806206205684106
0.1069947 -0.017002689675226428 0.041523533297753
0.1089946 -0.016897910399726088 0.04193134641475418
0.1109945 -0.017278983822927085 0.04289690337311625
0.1129944 -0.01676207710924795 0.04262564639633679
0.1149943 -0.016952664995709604 0.04271895407695312
0.1169942 -0.01679740435198534 0.04297737746804013
0.1189941 -0.01731988604775067 0.04412512213518118
0.120994 -0.01860095929587025 0.042781743183234605
0.1229939 -0.018462926048880036 0.04293175425736272
0.1249938 -0.018742210678797094 0.043420570743483745
0.1269937 -0.020187785964595417 0.041761193848110764
0.1289936 -0.020415937415240327 0.042525966376474905
0.1309935 -0.020724421861622086 0.041170477619175375
0.1329934 -0.02155279699423533 0.04295743807162108
0.1349933 -0.022083617819653935 0.041155869172485655
0.1369932 -0.02183494701576801 0.040561255054820555
0.1389931 -0.023719093849765525 0.041174864140849116
0.140993 -0.02315488057224898 0.03961702675422271
0.1429929 -0.023641519312975853 0.039289004759399025
0.1449928 -0.02354282415333045 0.0381527958732944
0.1469927 -0.02447017791282273 0.03863061512716964
0.1489926 -0.024299440112974816 0.03761554951995775
0.1509925 -0.024822667064039176 0.0362811640919877
0.1529924 -0.024563961674943274 0.03631661437980698
0.1549923 -0.02490372300398806 0.03685854581188233
0.1569922 -0.025396796050895724 0.03682484107493717
0.1589921 -0.024321420974165252 0.035511581925667605
0.160992 -0.024721600719843886 0.03504602806179646
0.1629919 -0.023389702031033167 0.03529818219102496
0.1649918 -0.024015210005230152 0.035289101272196775
0.1669917 -0.024019190030886144 0.03517338143789897
0.1689916 -0.023639060590541876 0.03507096147502103
0.1709915 -0.02364789998703056 0.03629289157109222
0.1729914 -0.02366945701237036 0.03499995748553857
0.1749913 -0.023815862455848626 0.03623044723322454
0.1769912 -0.023227971787564708 0.03545769305399094
0.1789911 -0.023369777593632547 0.03609834364421549
0.180991 -0.02341692181514969 0.03619788397296527
0.1829909 -0.023154683965720953 0.03584434916751763
0.1849908 -0.023012373143721482 0.03609589311953009
0.1869907 -0.023297811552799582 0.03587158555376249
0.1889906 -0.023529454637967642 0.036064414555381646
0.1909905 -0.02398082986546822 0.036397857908454456
0.1929904 -0.02435883993112424 0.036142745119377734
0.1949903 -0.02406716120734499 0.03539583202597327
0.1969902 -0.024415591424464773 0.03552570102436092
0.1989901 -0.023819930588627455 0.03643920687460098
0.20099 -0.02457770705873273 0.03642044141072676
0.2029899 -0.025055109016133538 0.036263969254017335
0.2049898 -0.024316777739327687 0.035648300372124145
0.2069897 -0.025435584266718096 0.03614707889444594
0.2089896 -0.02484716844458796 0.03543134489915858
0.2109895 -0.025397935765522735 0.035645343831779
0.2129894 -0.025893163144681708 0.03574532886920476
0.2149893 -0.026212577762698832 0.0356556006979891
0.2169892 -0.02649032101565243 0.03477909154105636
0.2189891 -0.02698901892301933 0.03486979679631288
0.220989 -0.02657880088955528 0.035220597044442685
0.2229889 -0.027361536266863072 0.035932333600297316
0.2249888 -0.02698529589661922 0.035144093408813804
0.2269887 -0.02772893658240392 0.03471042565739377
0.2289886 -0.02761181178002063 0.03492651751170151
0.2309885 -0.02768590130689329 0.034825247962838014
0.2329884 -0.02843397085117807 0.034757700329217024
0.2349883 -0.028177779550341047 0.03474257069291735
0.2369882 -0.029066369613641715 0.034847118991221504
0.2389881 -0.02863210988516935 0.03459375901057604
0.240988 -0.029216272780410977 0.03402727562433175
0.2429879 -0.029210590759358925 0.03440217038723299
0.2449878 -0.029475116234654212 0.03430025217221794
0.2469877 -0.029536763387287703 0.03454970465382527
0.2489876 -0.02945769589939723 0.033488095548037604
0.2509875 -0.0297788813109053 0.03369208419977557
0.2529874 -0.029909816326789317 0.033989570596827355
0.2549873 -0.029510708546284833 0.034024240918706886
0.2569872 -0.029513538414073958 0.03317482678210959
0.2589871 -0.029366391242030575 0.03364551260256821
0.260987 -0.029369567779065294 0.0336409552175654
0.2629869 -0.029564881215355325 0.03331488959273547
0.2649868 -0.029311188299654733 0.03387376297459938
0.2669867 -0.029169073239265493 0.033711939248238426
0.2689866 -0.02941867674868252 0.03355822229334825
0.2709865 -0.029273752766125243 0.03374795699089524
0.2729864 -0.028791112346677108 0.034064558724814196
0.2749863 -0.028894170065456685 0.03414621776180075
0.2769862 -0.02867393546848966 0.03413223126503896
0.2789861 -0.028606603156615663 0.035372864734253745
0.280986 -0.029193465906950967 0.03555435214131293
0.2829859 -0.028797425672989693 0.03514747519945468
0.2849858 -0.02977989099062131 0.03587713551869166
0.2869857 -0.030019137731574677 0.03615684267970735
0.2889856 -0.030272146345025393 0.03614924643006795
0.2909855 -0.030478034739558013 0.03706798429221671
0.2929854 -0.03099512894678401 0.03737355193951882
0.2949853 -0.031406491227054426 0.037427577995673034
0.2969852 -0.03169794207738676 0.03765800385635959
0.2989851 -0.03245124576203421 0.03826988355296282
0.300985 -0.033235830745029706 0.038371527700073314
0.3029849 -0.03353312944114749 0.03888531306478704
0.3049848 -0.03444981137713867 0.03848202041821611
0.3069847 -0.03513103043862746 0.038042824191729656
0.3089846 -0.03605440613849772 0.038437488664595655
0.3109845 -0.03650437630127381 0.038162053658857525
0.3129844 -0.03733063185342312 0.03808493653506198
0.3149843 -0.03799796148231287 0.03804995230329174
0.3169842 -0.03885111114144516 0.037674963127538166
0.3189841 -0.03993215370459594 0.03741573250432136
0.320984 -0.04059668996736677 0.036704725341995
0.3229839 -0.04060748014123594 0.036397244302684886
0.3249838 -0.04099053163095548 0.03680503721507838
0.3269837 -0.04168494205093574 0.03626359542283484
0.3289836 -0.04211029844760163 0.03579651784800116
0.3309835 -0.04181369989873643 0.03521924522292037
0.3329834 -0.04227233724589108 0.034196633333124414
0.3349833 -0.04198377683392783 0.033591585129134176
0.3369832 -0.04167702907096772 0.03310963118296116
0.3389831 -0.04157649507278868 0.032432445561856336
0.340983 -0.04185140141324756 0.032265858509126936
0.3429829 -0.041074980603239136 0.031577400690074364
0.3449828 -0.04081356507373342 0.030991324515195377
0.3469827 -0.04079667517602839 0.03149745988137091
0.3489826 -0.04056985762411947 0.031246323189727337
0.3509825 -0.0407027482548859 0.03112131429726537
0.3529824 -0.04004735009296359 0.03101966886700474
0.3549823 -0.03947781885557484 0.030978059750008696
0.3569822 -0.03954342524030552 0.031658637469295016
0.3589821 -0.03876009354989569 0.03207079321603465
0.360982 -0.03867864381020867 0.03225201836215684
0.3629819 -0.03856783827333227 0.03252158246155342
0.3649818 -0.038698497075337936 0.03314698704627352
0.3669817 -0.03901328819179681 0.03399479742620502
0.3689816 -0.03947513215836383 0.03401711895760256
0.3709815 -0.03945299403271041 0.03406840829076477
0.3729814 -0.03925498986850568 0.03416838971897857
0.3749813 -0.03984676203653846 0.03484722683669923
0.3769812 -0.04068432168708543 0.03537631777496749
0.3789811 -0.04147165763653039 0.03494852299958878
0.380981 -0.04181980872273683 0.03500678819768909
0.3829809 -0.042447715333401616 0.035515231995897394
0.3849808 -0.042547359043283994 0.03602234305959884
0.3869807 -0.04388547029830661 0.03567852436681343
0.3889806 -0.044070453156027145 0.03548150041866352
0.3909805 -0.04479331422640195 0.035457507236966765
0.3929804 -0.045536345268209 0.03510292033222213
0.3949803 -0.04600450502889027 0.03507694342297341
0.3969802 -0.04630814101718131 0.03440057648957412
0.3989801 -0.04663096574757038 0.03386624882338868
0.40098 -0.0473518090497979 0.03356476998109248
0.4029799 -0.047708837267329086 0.03311328472948566
0.4049798 -0.04763727060268852 0.03280887080830336
0.4069797 -0.04808397843050011 0.03195474245820208
0.4089796 -0.04824808817642546 0.03194892965480614
0.4109795 -0.04815361128334112 0.031218715988988694
0.4129794 -0.04817136401006119 0.03133511644247344
0.4149793 -0.04824556179717196 0.030744856153096113
0.4169792 -0.04784804701134548 0.03009726490521518
0.4189791 -0.04759931621868395 0.030073032935437873
0.420979 -0.04755121303465527 0.030039858745162445
0.4229789 -0.04753413614754116 0.030128777604006646
0.4249788 -0.04715784439700793 0.03018779152291337
0.4269787 -0.0471916009117666 0.03030666637149958
0.4289786 -0.04698912191749239 0.030400395181716347
0.4309785 -0.04708927357033157 0.030743356824820465
0.4329784 -0.04705268542640051 0.030823923885344412
0.4349783 -0.0474243713693699 0.030709832208379376
0.4369782 -0.04770232282312947 0.03139277681520241
0.4389781 -0.04754576688331596 0.031753650115082646
0.440978 -0.0483997220093728 0.03170352309503541
0.4429779 -0.04869474037692498 0.031877137267899994
0.4449778 -0.0494790094038219 0.032275546858204246
0.4469777 -0.049842934621815674 0.032191231431103834
0.4489776 -0.05040549585811861 0.032315447720316394
0.4509775 -0.05075723511793544 0.03281650921848571
0.4529774 -0.05166499552690285 0.032797443678920624
0.4549773 -0.052130087666423464 0.03244970317693594
0.4569772 -0.05263433038776973 0.03235288722034396
0.4589771 -0.05364225265032553 0.031687852457686363
0.460977 -0.05400742620218667 0.03153424793452451
0.4629769 -0.05462888939883914 0.03123467681195868
0.4649768 -0.05537789023525185 0.030491422722229128
0.4669767 -0.05549578200847549 0.03000822970270245
0.4689766 -0.05593404828560262 0.029461053820258626
0.4709765 -0.05660343156528151 0.028922079154406564
0.4729764 -0.05646531490824084 0.028170436694905966
0.4749763 -0.05678499939520296 0.02785055106534532
0.4769762 -0.056852221451115195 0.027300543816793456
0.4789761 -0.05685167700969472 0.02680906071587298
0.480976 -0.05676512694113507 0.02622865848797152
0.4829759 -0.05671407780992735 0.02577160851965361
0.4849758 -0.05672739980130931 0.02539764879986716
0.4869757 -0.05648182942452686 0.02514404729377679
0.4889756 -0.05589811949696179 0.02465473251035377
0.4909755 -0.05549411885521459 0.02434932530085153
0.4929754 -0.05525952667495681 0.024608957770612915
0.4949753 -0.05504025399535384 0.02454936789745925
0.4969752 -0.05476325814287526 0.024734161451461
0.4989751 -0.054478796859718154 0.0248669965703774
0.500975 -0.054353676110283335 0.025087781992721186
0.5029749 -0.05454484103458233 0.02534361264077002
0.5049748 -0.05474803867738812 0.02564816941466332
0.5069747 -0.054913419339792394 0.02583175618152255
0.5089746 -0.05514167269523293 0.026035542325779787
0.5109745 -0.05508655823948616 0.026098175076066384
0.5129744 -0.05540885438856134 0.02650793152774117
0.5149743 -0.05551698746471104 0.027004452706091364
0.5169742 -0.05599523434171193 0.026924185053484685
0.5189741 -0.056739225712672134 0.027128872940801723
0.520974 -0.05731869933174176 0.02693648058399257
0.5229739 -0.05789120681398389 0.026648307600071735
0.5249738 -0.05832349928109148 0.026646316445928804
0.5269737 -0.05914926782014719 0.02662954542158136
0.5289736 -0.060049929457714854 0.026485004339589273
0.5309735 -0.060806945452925705 0.02601612837291369
0.5329734 -0.06124288217173393 0.025737084012787775
0.5349733 -0.06185879940008733 0.025558790084106147
0.5369732 -0.06266172037893161 0.02495394092869815
0.5389731 -0.0631167611429315 0.024583119639877804
0.540973 -0.06360753990086 0.02373692396120349
0.5429729 -0.0640557689037023 0.02311637102483429
0.5449728 -0.06459626275800032 0.022591782397948998
0.5469727 -0.0646478775333553 0.02217051310192839
0.5489726 -0.06481327105527945 0.02135502479917069
0.5509725 -0.0648627393379942 0.020915782813425984
0.5529724 -0.06498685436615895 0.02048613465825344
0.5549723 -0.06488859625962526 0.019791633719638792
0.5569722 -0.06472625752206164 0.0194642539027467
0.5589721 -0.06454684285714721 0.01906733799071014
0.560972 -0.06423931987083449 0.018907659384411808
0.5629719 -0.0640721928994802 0.018750265940943218
0.5649718 -0.06362837286868134 0.018392731622052415
0.5669717 -0.063341371517538 0.018407269681595236
0.5689716 -0.06337813909993854 0.01842243447721541
0.5709715 -0.0632652475030899 0.018537002799949884
0.5729714 -0.06330440049144324 0.018432639424692237
0.5749713 -0.06340126981388287 0.018686447382887758
0.5769712 -0.06348639434315813 0.01840235716374442
0.5789711 -0.06349634180161288 0.018563006828048387
0.580971 -0.06373871561135586 0.018863263155818665
0.5829709 -0.06401019707221423 0.019330967958073396
0.5849708 -0.06460144974762971 0.01958342059601427
0.5869707 -0.06475469265992893 0.019905102080362436
0.5889706 -0.06530339323704482 0.019462927394794008
0.5909705 -0.06599243290579145 0.019451137212398294
0.5929704 -0.06653931184103053 0.01928537115673048
0.5949703 -0.06684490466088826 0.01912540137563454
0.5969702 -0.0675703355545665 0.018922493150043816
0.5989701 -0.06819315266521 0.018694875085514737
0.60097 -0.06873725007003809 0.01816520053008673
0.6029699 -0.06918330604430556 0.01788773773914754
0.6049698 -0.06981897050962617 0.017369910877563035
0.6069697 -0.07010102507662595 0.01672315730726859
0.6089696 -0.07050330183846884 0.016391110207953388
0.6109695 -0.07083155717304722 0.01534407550829453
0.6129694 -0.07121656333647389 0.014718857925815333
0.6149693 -0.07132274609821737 0.013933432288918256
0.6169692 -0.07141212280687176 0.013537244731596437
0.6189691 -0.07126844687092244 0.01286023430076649
0.620969 -0.07123763669686034 0.012454619334836232
0.6229689 -0.07123099308102734 0.011689133951710264
0.6249688 -0.07091668740992717 0.011140383486262506
0.6269687 -0.07072353139659042 0.010824826129718097
0.6289686 -0.07039168698087982 0.0105127336239033
0.6309685 -0.0698585542215138 0.010291451682376104
0.6329684 -0.06976853376378295 0.010216148408087652
0.6349683 -0.06935669249152777 0.010144352809218729
0.6369682 -0.06927347477980696 0.009807224868897773
0.6389681 -0.0693166764499192 0.009741220028689261
0.640968 -0.0689460029542592 0.009900353685239054
0.6429679 -0.06896288171708018 0.010181949692325075
0.6449678 -0.06894190208165706 0.010387956213941542
0.6469677 -0.06928771349930628 0.01071358777243639
0.6489676 -0.06948673274783031 0.011095537268003084
0.6509675 -0.06987587141917874 0.011441634256816793
0.6529674 -0.07049556839360908 0.011738553968559134
0.6549673 -0.07065106286214332 0.01202487086336285
0.6569672 -0.07140010517716283 0.012254903126372532
0.6589671 -0.07164622957172788 0.012340280257862449
0.660967 -0.07259490644238085 0.012254935140372788
0.6629669 -0.07325430680250831 0.01203869953456788
0.6649668 -0.0742521482979028 0.011654847296827475
0.6669667 -0.0746746062113975 0.011354551127842394
0.6689666 -0.07516100543990109 0.010813002305870775
0.6709665 -0.075767710439236 0.010049006987748663
0.6729664 -0.07655456959005538 0.009617657174177726
0.6749663 -0.07713024399350185 0.008998762821321778
0.6769662 -0.07766243085673166 0.007997248990715026
0.6789661 -0.07842816064316754 0.006956294533026704
0.680966 -0.07867114562297858 0.006097594622831489
0.6829659 -0.07874674398991945 0.005210733185662782
0.6849658 -0.0788089771890102 0.004284711664317032
0.6869657 -0.07866893450946852 0.0034502099898192813
0.6889656 -0.07873671817414972 0.0024683057028780063
0.6909655 -0.07834487129426619 0.001972582877033769
0.6929654 -0.07823178059858357 0.0011035778372086129
0.6949653 -0.07777273312884964 0.0005394279353437073
0.6969652 -0.0774660979947179 2.2935266132777243e-05
0.6989651 -0.07705948973005983 -0.0005120210727377027
0.700965 -0.07676532398222476 -0.0009463729936821791
0.7029649 -0.07626521446458194 -0.0009596744863232184
0.7049648 -0.07598343687953336 -0.0011951272013705737
0.7069647 -0.075529745985508 -0.001375741541381273
0.7089646 -0.07482314114777663 -0.001472919711281051
0.7109645 -0.07483867913476346 -0.0013217577635446058
0.7129644 -0.07501732499318312 -0.0011412756056871746
0.7149643 -0.07486930050229276 -0.0010863570057202503
0.7169642 -0.07493728032113874 -0.0006986093822021477
0.7189641 -0.0753523836322892 -0.0002668182596236336
0.720964 -0.07561128508676916 -0.00025784283431063565
0.7229639 -0.07571463489583914 -0.0002798572185847316
0.7249638 -0.07587755549361841 -0.0001421764273231152
0.7269637 -0.07639297220596222 0.0003058933498151714
0.7289636 -0.07698292301049096 0.0003327746797658418
0.7309635 -0.07749013248278458 0.0002677901782971899
0.7329634 -0.0781283017499924 0.00027075711433236296
0.7349633 -0.07885519392743562 -0.00013993726707813015
0.7369632 -0.07952230971453728 -0.00029331615129849983
0.7389631 -0.08026935635785037 -0.0008468717348732863
0.740963 -0.0810430014748473 -0.001597675634528395
0.7429629 -0.0813994853563994 -0.0025693428247254395
0.7449628 -0.08184282877988942 -0.003469649054413222
0.7469627 -0.08226173920432285 -0.004354064689475662
0.7489626 -0.08260203609423385 -0.005466429596729522
0.7509625 -0.08297865289833853 -0.006036337650519467
0.7529624 -0.08327034205853445 -0.00714219135468535
0.7549623 -0.08335480054983645 -0.007980693554524045
0.7569622 -0.08315149874515451 -0.009060721181837154
0.7589621 -0.08303729576055018 -0.009849558803567231
0.760962 -0.08281457083685756 -0.010615429844409087
0.7629619 -0.0824106727559802 -0.011595693437304266
0.7649618 -0.08174795383403967 -0.012179566319878335
0.7669617 -0.08144109990221618 -0.012818804978952911
0.7689616 -0.08090347432957945 -0.013502620375405533
