! Created with skrf 1.8.0 (http://scikit-rf.org).
# GHz S RI R 50.0 
!freq ReS11 ImS11
0.001 -1.000166657570573 0.0007364218523461374
0.0029999 -0.9996186871954946 0.0003483065443481842
0.0049998 -0.9989641271667147 -0.0037372533227228166
0.0069997 -0.9967204455865807 -0.01616830540049985
0.0089996 -1.0166908244017516 -0.044087228096918674
0.0109995 -1.0363896302228262 -0.05337705044490891
0.0129994 -1.0487205409756144 -0.060102053702660065
0.0149993 -1.0478982664541052 -0.05713435666025752
0.0169992 -1.0504019227145762 -0.05779089619354734
0.0189991 -1.0494140740953422 -0.060437306059076
0.020999 -1.0509376956496264 -0.06507515516972344
0.0229989 -1.0501742527767708 -0.06961638848321423
0.0249988 -1.0500489976105691 -0.07270796176574476
0.0269987 -1.049951974628735 -0.07855069388052938
0.0289986 -1.0497295144759191 -0.08311945341203815
0.0309985 -1.0505005694452363 -0.08771834692628479
0.0329984 -1.0495285765632154 -0.09427354683959156
0.0349983 -1.0491600421591611 -0.10152123722119377
0.0369982 -1.0492147804002245 -0.1064372868527851
0.0389981 -1.0487723791467434 -0.11311586968501341
0.040998 -1.0467634654165066 -0.11926153179619407
0.0429979 -1.0478666231891116 -0.12516570793738524
0.0449978 -1.0463605278455224 -0.1324205564946891
0.0469977 -1.045831450004433 -0.13784790661151053
0.0489976 -1.0450152717674221 -0.14513383085481957
0.0509975 -1.0443666616370728 -0.15285446238044645
0.0529974 -1.042942143110418 -0.15758604694712758
0.0549973 -1.0431995958407596 -0.16857363205370407
0.0569972 -1.0407710784935884 -0.1733284019590823
0.0589971 -1.0404491742810025 -0.18039729575340976
0.060997 -1.0388936051734148 -0.18721059217796834
0.0629969 -1.036983867707467 -0.19374340464590264
0.0649968 -1.0374453072805905 -0.20070873558835434
0.0669967 -1.0339792641104881 -0.20838257779479108
0.0689966 -1.0340884065569012 -0.21381506133480888
0.0709965 -1.0322153828629106 -0.2180399398756117
0.0729964 -1.0300586458209025 -0.2264896811156079
0.0749963 -1.0305448502780865 -0.2333786523960996
0.0769962 -1.028291551556459 -0.23845153780519568
0.0789961 -1.0261415426601415 -0.24515111135803155
0.080996 -1.0256255776048318 -0.251060600497807
0.0829959 -1.0244924249218308 -0.25710091928708784
0.0849958 -1.0223524708642782 -0.26082083962893415
0.0869957 -1.02060739945489 -0.26786006372822124
0.0889956 -1.0211981706338655 -0.2727625276903167
0.0909955 -1.0182052367755916 -0.27929763155770215
0.0929954 -1.0183857255593352 -0.2847484551079361
0.0949953 -1.0160918527865153 -0.28865562862310895
0.0969952 -1.0145955844505192 -0.29538950388325264
0.0989951 -1.0155276902837909 -0.30061214510115725
0.100995 -1.0121899755753214 -0.3065807831999623
0.1029949 -1.0109335752766138 -0.31229378469348273
0.1049948 -1.0087013965993692 -0.3180029383311166
0.1069947 -1.007439589021584 -0.3232476653950795
0.1089946 -1.0061209152836144 -0.3288928612731809
0.1109945 -1.0034537538382926 -0.33429999757449486
0.1129944 -1.002105747600716 -0.34022138994342155
0.1149943 -1.0006709209846398 -0.3458256410043071
0.1169942 -0.9982927052080478 -0.3520630990193023
0.1189941 -0.9960260496053789 -0.35741189798440315
0.120994 -0.9941562774531316 -0.36321779908694996
0.1229939 -0.9927110110436334 -0.36911790736847616
0.1249938 -0.989603717340825 -0.37451751642726233
0.1269937 -0.9890233381730101 -0.38091315770027134
0.1289936 -0.9848545877406268 -0.38657787877148847
0.1309935 -0.9834964376548547 -0.39219390405591525
0.1329934 -0.9806657137979233 -0.39778011377038647
0.1349933 -0.9777447840901068 -0.40537909477960804
0.1369932 -0.9765173896789735 -0.41042163539732396
0.1389931 -0.9731797018792665 -0.4149250287512878
0.140993 -0.9709009952940353 -0.4214030329636796
0.1429929 -0.9678069152835217 -0.4276011881077729
0.1449928 -0.9653487047793922 -0.4338094170845477
0.1469927 -0.9623240305581222 -0.43828010743924645
0.1489926 -0.9595417748313504 -0.44596569318258095
0.1509925 -0.9574844988147702 -0.45069865880962895
0.1529924 -0.9546508981664061 -0.4582936062416637
0.1549923 -0.9508758748947159 -0.4635055491038165
0.1569922 -0.9493226506003327 -0.46692206333679026
0.1589921 -0.9461773781272939 -0.47429889038735273
0.160992 -0.9444056936794063 -0.4783849873695891
0.1629919 -0.941271061770682 -0.486056968008878
0.1649918 -0.9384211042969924 -0.4908979466997322
0.1669917 -0.9359723429001271 -0.49556493402868834
0.1689916 -0.9327111548396577 -0.5014045895703679
0.1709915 -0.9294900480298866 -0.5065365753991492
0.1729914 -0.9282068493732691 -0.5125015493979442
0.1749913 -0.9244674927595828 -0.5174170772954185
0.1769912 -0.9216441878126922 -0.5220790706121827
0.1789911 -0.919296129752529 -0.5277783362806022
0.180991 -0.9157643527073053 -0.5325147099039595
0.1829909 -0.9132223266622943 -0.5380600778268146
0.1849908 -0.910160638658699 -0.5430516716936542
0.1869907 -0.9082106390803859 -0.5489793587279969
0.1889906 -0.9042661623866585 -0.5531790665592444
0.1909905 -0.9011782932313275 -0.5581379976810606
0.1929904 -0.897809246326639 -0.562974070198255
0.1949903 -0.8957637444561284 -0.5688581796043749
0.1969902 -0.8920684549337435 -0.5741973777250503
0.1989901 -0.8885274022594972 -0.578609487573546
0.20099 -0.8838674664981692 -0.5834751552113141
0.2029899 -0.8824089276238267 -0.5895071206608519
0.2049898 -0.8795528745716094 -0.5931828446593364
0.2069897 -0.8756714514073022 -0.5990779109191948
0.2089896 -0.8722345903764673 -0.6042054322684753
0.2109895 -0.8679887162985673 -0.6095053720871693
0.2129894 -0.8642927047353515 -0.6137180855232693
0.2149893 -0.8605308466431911 -0.6194812318857671
0.2169892 -0.8573166706634393 -0.6238980672330378
0.2189891 -0.8528666583995885 -0.6302637976685362
0.220989 -0.849066997522649 -0.6350534846700828
0.2229889 -0.8447200501028509 -0.6385397875304765
0.2249888 -0.841148832580626 -0.6456156752463489
0.2269887 -0.8378073327077336 -0.650296467557136
0.2289886 -0.8340116333620892 -0.6552397439595311
0.2309885 -0.8291902946157735 -0.660242190348991
0.2329884 -0.8257467131098262 -0.6656396273068188
0.2349883 -0.8216321236360148 -0.6704387398646868
0.2369882 -0.817297071081665 -0.6746024090809597
0.2389881 -0.813477984408623 -0.6805142606544945
0.240988 -0.8103376080962799 -0.685460462824987
0.2429879 -0.8052570433237539 -0.6897597710115779
0.2449878 -0.8019219192618026 -0.6944353265307642
0.2469877 -0.7974483628859746 -0.6995070643005742
0.2489876 -0.7944407607546963 -0.7048322548414779
0.2509875 -0.789200314169715 -0.7090979044429921
0.2529874 -0.7857609514859949 -0.7135363753739873
0.2549873 -0.7812638331495307 -0.7177589661710196
0.2569872 -0.7776496339588866 -0.7227524464732212
0.2589871 -0.7728726219794578 -0.7262318030999425
0.260987 -0.7692509051092643 -0.7316312139982734
0.2629869 -0.7651733544591773 -0.7360293683485355
0.2649868 -0.7611962949647613 -0.7400562770374544
0.2669867 -0.7578090369373166 -0.7441314617742709
0.2689866 -0.7531031994014128 -0.748806990606577
0.2709865 -0.7487964657548923 -0.7528223608991421
0.2729864 -0.7436964678689395 -0.7580387027511859
0.2749863 -0.7400668533588735 -0.7620706704930515
0.2769862 -0.7358645116743329 -0.7658321326768743
0.2789861 -0.7296287600340066 -0.7698215480089103
0.280986 -0.7268787772535635 -0.7743784014485089
0.2829859 -0.722225106196228 -0.7802156903152315
0.2849858 -0.7177485509548538 -0.7832450787666695
0.2869857 -0.7131364803863481 -0.788045189615314
0.2889856 -0.7083888022201013 -0.793262966477755
0.2909855 -0.703460178824447 -0.7966480613443427
0.2929854 -0.6975018021566719 -0.800376494287493
0.2949853 -0.6935397727799089 -0.8062016962244389
0.2969852 -0.6887668964371667 -0.8102585536083118
0.2989851 -0.6830110410803459 -0.8135063273043156
0.300985 -0.678625066801555 -0.8177879435388482
0.3029849 -0.6730472281214628 -0.8207593315627403
0.3049848 -0.6689831208833021 -0.8254715781974058
0.3069847 -0.6639521577792592 -0.8301134409381594
0.3089846 -0.6582134774804776 -0.8337931713479847
0.3109845 -0.6539497987343608 -0.8376804429645297
0.3129844 -0.6483869370242334 -0.8424791686545677
0.3149843 -0.6425689690796674 -0.8460645915175676
0.3169842 -0.638219511618058 -0.8494709699554741
0.3189841 -0.6336754427888663 -0.8532874619814484
0.320984 -0.6286260632520171 -0.8570777381065229
0.3229839 -0.6225736142390136 -0.8607575598432434
0.3249838 -0.6172786262538739 -0.8643842572238309
0.3269837 -0.6121152631110709 -0.867694364390429
0.3289836 -0.6073940287691684 -0.8705046978213566
0.3309835 -0.6024902762718856 -0.8750813176354307
0.3329834 -0.5969394258971222 -0.8779135373599309
0.3349833 -0.5917427665774453 -0.8812516237214411
0.3369832 -0.5861046641606381 -0.8836881142778421
0.3389831 -0.5798856164726729 -0.8874881225953062
0.340983 -0.5745969551950136 -0.8901851686902996
0.3429829 -0.5690585322472846 -0.8941959448440961
0.3449828 -0.56361352620746 -0.8983858259568511
0.3469827 -0.5588808857625123 -0.9004330124077683
0.3489826 -0.5536818397807804 -0.904823289250589
0.3509825 -0.5488968649842706 -0.9077393836856801
0.3529824 -0.5434152143694876 -0.9118947081026376
0.3549823 -0.5382651645917146 -0.9150859319155352
0.3569822 -0.5331037006465448 -0.9187236643148984
0.3589821 -0.5274946692725191 -0.9216183523899504
0.360982 -0.5219764319365526 -0.9247384493428004
0.3629819 -0.5166573231112617 -0.9284543960961977
0.3649818 -0.5110946865065785 -0.9315989684246164
0.3669817 -0.5064912075192023 -0.9355892680926023
0.3689816 -0.5003332918452705 -0.9375155371480358
0.3709815 -0.4948524304220055 -0.9411642600803574
0.3729814 -0.4885798886353018 -0.9448735492321826
0.3749813 -0.4829241772770053 -0.9470189124528436
0.3769812 -0.47824793030555723 -0.9498850437787218
0.3789811 -0.47356189314089764 -0.9535975520733219
0.380981 -0.4666834553503585 -0.9566173298530327
0.3829809 -0.46160829894856237 -0.9594616172425648
0.3849808 -0.4537494552381246 -0.9607654524649316
0.3869807 -0.44890938692600907 -0.9648361832845732
0.3889806 -0.442483240150443 -0.9671024993230367
0.3909805 -0.4365014720328175 -0.9700959252615898
0.3929804 -0.4306755074255108 -0.972330777717009
0.3949803 -0.4245473549571181 -0.9748921027051324
0.3969802 -0.4194217248609401 -0.9783914666864284
0.3989801 -0.41258407767364635 -0.9808082822114192
0.40098 -0.40663916617657103 -0.9830953432657259
0.4029799 -0.4012271055571479 -0.985230282572516
0.4049798 -0.3946535481729133 -0.987213906230699
0.4069797 -0.3895098446941001 -0.990879182618658
0.4089796 -0.3832324984247697 -0.9932009492511311
0.4109795 -0.37736629012547884 -0.9948872413649121
0.4129794 -0.37106170679475636 -0.9968193918743077
0.4149793 -0.3652158185934858 -0.9990546692315292
0.4169792 -0.3598140344964961 -1.0026095407828328
0.4189791 -0.3532584213794126 -1.0044174431863713
0.420979 -0.3469218963912458 -1.0067546001369811
0.4229789 -0.341427757724351 -1.0085233278813936
0.4249788 -0.3350188758204259 -1.009813897272061
0.4269787 -0.3289715598132677 -1.0121455879548082
0.4289786 -0.32297636485219816 -1.0143713304834705
0.4309785 -0.3169435298211897 -1.015861690073205
0.4329784 -0.31017882544503084 -1.0180224674332068
0.4349783 -0.3042774305585142 -1.0204669274083937
0.4369782 -0.2985434705392931 -1.0223272953931901
0.4389781 -0.2918939259851483 -1.0235704356704125
0.440978 -0.2857739030938088 -1.025777736468375
0.4429779 -0.27946396586530564 -1.0280737713967598
0.4449778 -0.27350629282813543 -1.0291538889967387
0.4469777 -0.26741101687402463 -1.0318926432425042
0.4489776 -0.2616312417372126 -1.033493625530082
0.4509775 -0.2540310698151286 -1.0338444190406548
0.4529774 -0.247969543996428 -1.0354470132056257
0.4549773 -0.2412220585190394 -1.0373004985312104
0.4569772 -0.2342303963492528 -1.0397447880079078
0.4589771 -0.22814772341626255 -1.0407267801597213
0.460977 -0.22179102871609158 -1.041899148913676
0.4629769 -0.215214134135564 -1.0426294431095242
0.4649768 -0.20927592662221953 -1.045332658875963
0.4669767 -0.20239825008740575 -1.0461595139304798
0.4689766 -0.19650217268056724 -1.0470678413622823
0.4709765 -0.19016316908398734 -1.0479963518112256
0.4729764 -0.18284834910977654 -1.0491817740349514
0.4749763 -0.1766461256396653 -1.0493316955538952
0.4769762 -0.17077895864647563 -1.0507145456693159
0.4789761 -0.16409137511548944 -1.0516903458097533
0.480976 -0.15766650952983335 -1.0523845242897443
0.4829759 -0.1511519730911543 -1.0540227103266089
0.4849758 -0.14500974938661954 -1.054626848989668
0.4869757 -0.1386347141291513 -1.055754771824564
0.4889756 -0.13159883599372357 -1.0570581212843033
0.4909755 -0.12498829679813814 -1.0579505235657607
0.4929754 -0.11856051502470447 -1.0585320680530275
0.4949753 -0.11174614044989889 -1.0598724416145877
0.4969752 -0.1058311456384492 -1.060805970788129
0.4989751 -0.09882305432905629 -1.061912615162078
0.500975 -0.0921592838522722 -1.0625957683694451
0.5029749 -0.08624285188112506 -1.0635224148768019
0.5049748 -0.0796149344240688 -1.0638303129857432
0.5069747 -0.07400012398563466 -1.0646135955075926
0.5089746 -0.06760840585720423 -1.0654056648696044
0.5109745 -0.061380791708265055 -1.0661819172201967
0.5129744 -0.054692453256954224 -1.065807947704647
0.5149743 -0.04854741918505648 -1.0665233315080256
0.5169742 -0.0420157987113707 -1.067114624721059
0.5189741 -0.03599630334692936 -1.0672464369846595
0.520974 -0.02895577230930313 -1.0668461865874055
0.5229739 -0.021718363560990647 -1.0664446890037609
0.5249738 -0.014998064881978163 -1.065810151487462
0.5269737 -0.0083484367628529 -1.066048288186669
0.5289736 -0.001508695067299351 -1.0650246913585577
0.5309735 0.0055767230177888455 -1.0653785043075585
0.5329734 0.013070444428385924 -1.065366843476201
0.5349733 0.02006611639717544 -1.0648915928724416
0.5369732 0.02681694955390057 -1.0645833315849746
0.5389731 0.03350235043312694 -1.0641296368737594
0.540973 0.04078034450176818 -1.0652463689658913
0.5429729 0.04745309227251476 -1.0649860534553999
0.5449728 0.053211209136097434 -1.0650220507480914
0.5469727 0.06028652462311232 -1.0643744886661897
0.5489726 0.06723770626475307 -1.0641118597937456
0.5509725 0.07377652172855824 -1.0640427946157753
0.5529724 0.08084681950500613 -1.0630579554445214
0.5549723 0.08732340484530869 -1.0625276186410293
0.5569722 0.09407080626089452 -1.062332663322209
0.5589721 0.10100187443766662 -1.061588968617138
0.560972 0.10762806465349821 -1.061012161227207
0.5629719 0.11472802279153436 -1.060790280728419
0.5649718 0.12090444736082373 -1.0595969535571188
0.5669717 0.12777459373757127 -1.0585459341431371
0.5689716 0.13422057087064496 -1.0581201480417095
0.5709715 0.14122180730169342 -1.0578748938728335
0.5729714 0.14781544264086646 -1.056401469048168
0.5749713 0.15399793410665125 -1.055999114830457
0.5769712 0.16116094805502748 -1.0555959923554559
0.5789711 0.16678395794297096 -1.0553020985994703
0.580971 0.17382052803274722 -1.0535109742292346
0.5829709 0.1811136429575893 -1.0523712576348363
0.5849708 0.18758239402707144 -1.0506895298245968
0.5869707 0.19403773977938246 -1.049533095938753
0.5889706 0.20086520187025267 -1.0486831960660519
0.5909705 0.20822191379282845 -1.0468215195196147
0.5929704 0.21365522153361596 -1.0461025713900665
0.5949703 0.22079400250805656 -1.044812889122603
0.5969702 0.2276451438869555 -1.044192725293301
0.5989701 0.2348709462581681 -1.0416741402297895
0.60097 0.24156602636889157 -1.0400616929295525
0.6029699 0.24766585485215528 -1.0387495437645557
0.6049698 0.2543141005806534 -1.0374539430336405
0.6069697 0.2611816847174463 -1.0354278423887397
0.6089696 0.2672118775723857 -1.0336937887718536
0.6109695 0.2738255917151803 -1.0324570858315572
0.6129694 0.2799846833396489 -1.0304480719642484
0.6149693 0.28695771604202114 -1.0287450004921743
0.6169692 0.2933950648807405 -1.0265732571982196
0.6189691 0.2997461247475746 -1.024904833195185
0.620969 0.3057694307573361 -1.023010002388118
0.6229689 0.3132809693920753 -1.0213049852592768
0.6249688 0.3196606420480908 -1.0190000186386006
0.6269687 0.3258268377408794 -1.0166810576545906
0.6289686 0.3328866283739867 -1.0149958443811355
0.6309685 0.33954967923151663 -1.0134900996222052
0.6329684 0.345457225101525 -1.0105530346954719
0.6349683 0.35273013637103645 -1.0088456658953275
0.6369682 0.35905663050727005 -1.007225743745809
0.6389681 0.36586446472859213 -1.0048048589855383
0.640968 0.3719504769728375 -1.0026471136484405
0.6429679 0.37822352007588267 -1.0005220133197568
0.6449678 0.38445007916701485 -0.9978413024722103
0.6469677 0.3908184134482444 -0.9955343445046329
0.6489676 0.39710577464195224 -0.9926196544444026
0.6509675 0.40399955463134724 -0.9897946285320693
0.6529674 0.40992694204895996 -0.9868670974249149
0.6549673 0.4162086126996044 -0.9847437033750392
0.6569672 0.4226924674215995 -0.9817697966512331
0.6589671 0.4293077174408026 -0.979112846134848
0.660967 0.4347328921443683 -0.9766200998780273
0.6629669 0.44149728726555676 -0.9737380545478362
0.6649668 0.4479757987145053 -0.9711274253855474
0.6669667 0.4542032506414573 -0.968317950843588
0.6689666 0.4603891084822186 -0.9654950589377131
0.6709665 0.46711907051964263 -0.9627431095648038
0.6729664 0.473071652657981 -0.9600328205164649
0.6749663 0.47925376021303256 -0.957100831397154
0.6769662 0.4859418502030536 -0.9543748304460342
0.6789661 0.49138109864199303 -0.9518921442190826
0.680966 0.4983292627189753 -0.9475964885578416
0.6829659 0.5040289105590339 -0.9438871024900731
0.6849658 0.5104756433893096 -0.9416838279746826
0.6869657 0.516352687030122 -0.937215536288765
0.6889656 0.5222211670551644 -0.9340289734077392
0.6909655 0.528179798332708 -0.9306785263676851
0.6929654 0.5340304529990574 -0.9269946300912015
0.6949653 0.5401541347040756 -0.9235969438813124
0.6969652 0.5460929279976792 -0.9199912797346788
0.6989651 0.5521353514747835 -0.9166987778446353
0.700965 0.5581683250831792 -0.9122563457340283
0.7029649 0.5639157826881851 -0.9091868413105013
0.7049648 0.57034079290916 -0.9059491066650104
0.7069647 0.5761299480519071 -0.9019050226043007
0.7089646 0.5822285137196787 -0.898467913154262
0.7109645 0.5874054532567663 -0.8948211638678093
0.7129644 0.5937237094661806 -0.8914779714365036
0.7149643 0.599821427159672 -0.8877672645369836
0.7169642 0.6052494369712473 -0.8836328310171824
0.7189641 0.6110385333652122 -0.8793237392132823
0.720964 0.6166041133206689 -0.8757010486760763
0.7229639 0.6224018058621932 -0.8719126356570222
0.7249638 0.6282034302466807 -0.8679208274936978
0.7269637 0.6334851024960249 -0.8637543870603908
0.7289636 0.6390268055405298 -0.8596128478520745
0.7309635 0.6448614973473983 -0.8546478771058797
0.7329634 0.6508204390219476 -0.8507760639286035
0.7349633 0.6563811115851189 -0.8467245772937607
0.7369632 0.661568809155114 -0.8426421001057682
0.7389631 0.6670834138880359 -0.8386812950489845
0.740963 0.6728869261199559 -0.8352462512475551
0.7429629 0.6785755203970768 -0.8309272449723654
0.7449628 0.6839719682751267 -0.8267178501262183
0.7469627 0.688915681936483 -0.8219401422630522
0.7489626 0.6950208329703343 -0.8180290532352164
0.7509625 0.6999707775595841 -0.8126634040926454
0.7529624 0.7051534940964681 -0.8082069376059251
0.7549623 0.7104647067275129 -0.8030373521760594
0.7569622 0.7159285723925904 -0.7979717425508267
0.7589621 0.7208421897586288 -0.7933940650416401
0.760962 0.7257037167733658 -0.7882365628491107
0.7629619 0.7310659303069238 -0.7828088968010739
0.7649618 0.7361898690304013 -0.7786061028643326
0.7669617 0.741430598783057 -0.7725748152349475
0.7689616 0.7465194285820984 -0.7676822138288761
0.7709615 0.7518676420974861 -0.7635457695979226
0.7729614 0.7568458611175493 -0.7585359133992127
0.7749613 0.762628718115815 -0.7538933922352723
0.7769612 0.7674950914559002 -0.749741118929191
0.7789611 0.7730707609572931 -0.7440600243497939
0.780961 0.777656838542084 -0.7387909738787684
0.7829609 0.7824550663120191 -0.734535100876068
0.7849608 0.7880170214713648 -0.7288778259499662
0.7869607 0.7923339071585944 -0.7238336899515279
0.7889606 0.7971134212770552 -0.7180679758754654
0.7909605 0.8014891446162857 -0.7127529044843971
0.7929604 0.8062986337521924 -0.7074894929506077
0.7949603 0.8110075322425708 -0.7017145524200266
0.7969602 0.8151530039343197 -0.6968899441388211
0.7989601 0.8201088839599858 -0.6915365227792125
