! Created with skrf 1.8.0 (http://scikit-rf.org).
# GHz S RI R 50.0 
!freq ReS11 ImS11
0.001 -0.9999417468763417 0.0006142775063728504
0.0029999 -1.0003090387252946 0.003588705442909859
0.0049998 -1.0040952117109783 0.003203338790480917
0.0069997 -1.0095491329946484 -0.016434234058499614
0.0089996 -1.0503511204897635 -0.029850549723255893
0.0109995 -1.0494593467491888 -0.038766195753400984
0.0129994 -1.0489139642818563 -0.04746935983695009
0.0149993 -1.0509261456967285 -0.04998696712314894
0.0169992 -1.0501992054234026 -0.054620949677263636
0.0189991 -1.0478978606284388 -0.0594520278360931
0.020999 -1.0486823801680085 -0.06672309428873278
0.0229989 -1.0480876387373945 -0.07314388529384083
0.0249988 -1.0478252827290286 -0.07794442057813016
0.0269987 -1.0476053137342118 -0.08469688689040608
0.0289986 -1.0470661319625711 -0.0899979019969141
0.0309985 -1.0474471356897674 -0.09580293262176262
0.0329984 -1.0466092271157095 -0.1023897853667574
0.0349983 -1.0460626888769908 -0.10979967256643008
0.0369982 -1.046157132058473 -0.11542305373003514
0.0389981 -1.04546222760961 -0.12219672649962816
0.040998 -1.0444804206266718 -0.1272553572668578
0.0429979 -1.0443919206042003 -0.1341283488874503
0.0449978 -1.0430729218422607 -0.1406762077950196
0.0469977 -1.0428435470393014 -0.14554487512990374
0.0489976 -1.0414596745597542 -0.1527980960874852
0.0509975 -1.0409338394466157 -0.16020749125183648
0.0529974 -1.0390993021524675 -0.1670982798223034
0.0549973 -1.0399104206029444 -0.17421159824287083
0.0569972 -1.037968486483565 -0.1797844002047384
0.0589971 -1.0375327322116685 -0.18562394719566233
0.060997 -1.03633950772359 -0.19344620362545953
0.0629969 -1.0344125964974966 -0.19862841482561364
0.0649968 -1.0351284936269334 -0.2049517840057547
0.0669967 -1.0316604129847544 -0.21227419158750027
0.0689966 -1.0315504386743612 -0.2180542277328402
0.0709965 -1.0302333670245873 -0.22181970539576773
0.0729964 -1.027233208257281 -0.23006426511943526
0.0749963 -1.0282841017127213 -0.2372447066385294
0.0769962 -1.0259783401394635 -0.24254880000857543
0.0789961 -1.024130859564606 -0.24938645966802908
0.080996 -1.0239047801390229 -0.2548177117776837
0.0829959 -1.0216252608994087 -0.26132726362735026
0.0849958 -1.0195452135466994 -0.2659196857358631
0.0869957 -1.0174863549881585 -0.27297825793484537
0.0889956 -1.0177773813121072 -0.27836597899959575
0.0909955 -1.014581503258046 -0.28512513987496113
0.0929954 -1.0144795961874093 -0.2908137855503237
0.0949953 -1.0120968039570197 -0.29557133052286383
0.0969952 -1.010102230932171 -0.3021970030039386
0.0989951 -1.0099771095167682 -0.3071720639941527
0.100995 -1.0071993910697459 -0.31475992116997603
0.1029949 -1.0053151622627146 -0.32157719720076267
0.1049948 -1.0038473170611022 -0.3272667474431089
0.1069947 -1.0017314636908654 -0.33247769753501577
0.1089946 -0.9997107266181168 -0.338556976592742
0.1109945 -0.997147658417703 -0.344041152795531
0.1129944 -0.9957146572329046 -0.3503634279685729
0.1149943 -0.9943019447810788 -0.3560008897097833
0.1169942 -0.9916754740781656 -0.362555674771597
0.1189941 -0.9888716675463008 -0.3679493589895836
0.120994 -0.987347728321825 -0.37361745926572587
0.1229939 -0.9856105087181365 -0.37992624617056364
0.1249938 -0.9826725169901144 -0.3853391485995069
0.1269937 -0.9817619068982586 -0.3909890600895079
0.1289936 -0.9779726085197977 -0.3966020303359237
0.1309935 -0.9770069161897742 -0.4029741280115946
0.1329934 -0.9734536065265207 -0.4084160389453129
0.1349933 -0.9709497799149642 -0.4158311145383079
0.1369932 -0.96928199619741 -0.42117372886853743
0.1389931 -0.9664753427924655 -0.4260451744219891
0.140993 -0.9647290595042494 -0.4328243604426148
0.1429929 -0.9599983223889589 -0.43841542503702163
0.1449928 -0.9591916554113599 -0.4441962914603619
0.1469927 -0.9561577092435875 -0.4491253733384877
0.1489926 -0.9526654384796152 -0.4562569216890046
0.1509925 -0.9526629019261396 -0.4604934496836516
0.1529924 -0.9487403149758616 -0.4681425865350654
0.1549923 -0.9446605878272797 -0.47287748593455786
0.1569922 -0.9426939292056911 -0.4771547624576882
0.1589921 -0.9395595141527818 -0.48418569568629555
0.160992 -0.9376683512250665 -0.48771666802681346
0.1629919 -0.9343861593651478 -0.49617058791636565
0.1649918 -0.9313813838767974 -0.5003832632524184
0.1669917 -0.9292751669909384 -0.5059193153959605
0.1689916 -0.9256018429104197 -0.5120983906193805
0.1709915 -0.9217516716818068 -0.5157201445278426
0.1729914 -0.9201428069789915 -0.5228474450284264
0.1749913 -0.9161409746038639 -0.5278812868996947
0.1769912 -0.913554876278067 -0.5334277649921957
0.1789911 -0.910034576601309 -0.5384958613971439
0.180991 -0.9067912205992269 -0.5437465618575336
0.1829909 -0.9040716750537435 -0.5494775392673751
0.1849908 -0.9003140789997212 -0.554051529968261
0.1869907 -0.8984130636091905 -0.5606548813069812
0.1889906 -0.894320204287463 -0.5652548101005701
0.1909905 -0.8911198178035845 -0.5698754355836465
0.1929904 -0.8876014172166792 -0.5749424042681516
0.1949903 -0.8847101185007812 -0.5809071529895682
0.1969902 -0.8816100916234854 -0.5858628819328084
0.1989901 -0.8775534606083687 -0.5903536193528254
0.20099 -0.8739014792542854 -0.5950996104565719
0.2029899 -0.8704487628762845 -0.6017746728348158
0.2049898 -0.8684340013970899 -0.605418252426811
0.2069897 -0.8640290853044792 -0.6121969396270243
0.2089896 -0.8608173310213242 -0.6162790457955255
0.2109895 -0.8570784728455734 -0.6214405546956859
0.2129894 -0.8530363086839341 -0.6256822863300103
0.2149893 -0.8492122932225783 -0.6316753766194618
0.2169892 -0.8464289774602979 -0.6359142064480175
0.2189891 -0.8417001976407452 -0.6419557808066134
0.220989 -0.8374269265987813 -0.6463494186059731
0.2229889 -0.8330774528634425 -0.6505540993246907
0.2249888 -0.8301776672513759 -0.6574273641535613
0.2269887 -0.8276675023359501 -0.6617343968280014
0.2289886 -0.8231773973172554 -0.6668126072521112
0.2309885 -0.8185268724769003 -0.6715579933976403
0.2329884 -0.8155520167452118 -0.6762129522110168
0.2349883 -0.8106684657261529 -0.6813019473098979
0.2369882 -0.8071497375542489 -0.6853251964609925
0.2389881 -0.8028185347501969 -0.6913266993687173
0.240988 -0.7990358139168929 -0.6959756285949331
0.2429879 -0.7943134399363312 -0.7006984439396431
0.2449878 -0.7904296815635085 -0.7050056460705498
0.2469877 -0.7859743244747435 -0.7094607439967745
0.2489876 -0.7828613002809469 -0.7157348120979004
0.2509875 -0.7778538078210917 -0.7193539167888778
0.2529874 -0.7734505113924591 -0.7228990279475213
0.2549873 -0.769603527253268 -0.7281061764595943
0.2569872 -0.7653889430036213 -0.733214288374646
0.2589871 -0.7602220531830388 -0.7365929974856131
0.260987 -0.7567177685443925 -0.7420744926929452
0.2629869 -0.7522196584715828 -0.7462685470870049
0.2649868 -0.7487630412545897 -0.7498623157180211
0.2669867 -0.7444389773796534 -0.7538147227759671
0.2689866 -0.7396981354997499 -0.7586685951337983
0.2709865 -0.7356617545687634 -0.7628764104810152
0.2729864 -0.7299798404184125 -0.767801454821055
0.2749863 -0.726859584379539 -0.7712214962824434
0.2769862 -0.7212861049627215 -0.7763431131469761
0.2789861 -0.716421889628625 -0.7789699635861357
0.280986 -0.712938612402411 -0.7838586949320779
0.2829859 -0.7083122411291648 -0.7886623605642382
0.2849858 -0.7042112652305992 -0.7930284383429649
0.2869857 -0.6994886740602458 -0.7967513463906679
0.2889856 -0.6946431702590049 -0.8012279442972463
0.2909855 -0.6900413747960579 -0.8050076411429962
0.2929854 -0.6842493883009979 -0.80859205202113
0.2949853 -0.6799525592573401 -0.8143694263013819
0.2969852 -0.6757904449918066 -0.8181702872620179
0.2989851 -0.6702610333225405 -0.8212652179768505
0.300985 -0.6662631779175406 -0.8251818550592745
0.3029849 -0.6606657903985886 -0.8288633520695788
0.3049848 -0.6564715915906968 -0.8335095581301687
0.3069847 -0.6516204392403324 -0.838137212009386
0.3089846 -0.646251424560692 -0.8421510156628833
0.3109845 -0.6408950401789637 -0.8455825148425474
0.3129844 -0.6365370688516004 -0.8494283477860902
0.3149843 -0.6312399466097219 -0.853230395109668
0.3169842 -0.6260086128652093 -0.85698694947875
0.3189841 -0.6218952472470988 -0.8611266122297401
0.320984 -0.6167347208943844 -0.8645345895354538
0.3229839 -0.6099574680082541 -0.8681920897900546
0.3249838 -0.6043226498044313 -0.8716856352037256
0.3269837 -0.5998934533485183 -0.8752561920682316
0.3289836 -0.5948746526718082 -0.878855508862592
0.3309835 -0.5895451486686578 -0.8837590438165379
0.3329834 -0.5841071683457686 -0.887610853951942
0.3349833 -0.5794218478690312 -0.8906204573658615
0.3369832 -0.5739159394807489 -0.8935549367170046
0.3389831 -0.5686890010884562 -0.8966014154802205
0.340983 -0.5635017260565358 -0.8991271831940577
0.3429829 -0.5585450863800838 -0.9022915379027752
0.3449828 -0.5532800938252788 -0.906204800237048
0.3469827 -0.5470891107347483 -0.9086348044152291
0.3489826 -0.5425666746208653 -0.9123154460393269
0.3509825 -0.5372458506160116 -0.9146435014674364
0.3529824 -0.5316590424076282 -0.9180276728427169
0.3549823 -0.5265033671761505 -0.9209335563690114
0.3569822 -0.5211754153178757 -0.9242184747643669
0.3589821 -0.515823325915897 -0.9268896074471472
0.360982 -0.5101878316500433 -0.9298363029005835
0.3629819 -0.5044114775276982 -0.9336925745812462
0.3649818 -0.4994435135505858 -0.936396895129339
0.3669817 -0.49451911069306803 -0.9402848589001568
0.3689816 -0.48816069888078306 -0.9419845376261533
0.3709815 -0.48314270176768825 -0.9451335522953366
0.3729814 -0.47730797813602394 -0.9486162849226732
0.3749813 -0.4717963480448891 -0.9510045322197345
0.3769812 -0.466696442603464 -0.9541578659512403
0.3789811 -0.4622052982447522 -0.9573182493910947
0.380981 -0.45592811574366104 -0.9602099986219939
0.3829809 -0.4503873227469724 -0.9629273687521271
0.3849808 -0.4434111541662874 -0.964687283698078
0.3869807 -0.4392552393602361 -0.9683874830355926
0.3889806 -0.4321665771358804 -0.9704595044317327
0.3909805 -0.42676589096533646 -0.9732276544957175
0.3929804 -0.4202965163358376 -0.9758311617973465
0.3949803 -0.41453612229996695 -0.9784600487179919
0.3969802 -0.40946031715029235 -0.9816923536784151
0.3989801 -0.40360001094812364 -0.9838270214919314
0.40098 -0.39744188954661724 -0.9860848917488194
0.4029799 -0.3920054858932774 -0.9881011928478513
0.4049798 -0.38591404655059836 -0.9901064027610319
0.4069797 -0.38030989121770165 -0.9936213383164908
0.4089796 -0.3747824328970134 -0.9954500852398254
0.4109795 -0.3683380329432304 -0.9975394741014731
0.4129794 -0.3623582549161152 -0.998906478590136
0.4149793 -0.35677425536397506 -1.0011830227278187
0.4169792 -0.3507505210477017 -1.004631133292274
0.4189791 -0.34439748141909654 -1.0067421144021822
0.420979 -0.33860910410594447 -1.0088826310963275
0.4229789 -0.33304490557671595 -1.0101674659568227
0.4249788 -0.32674035964378134 -1.0116829304520292
0.4269787 -0.320268168361709 -1.01358350938626
0.4289786 -0.3144704531887085 -1.015815287591339
0.4309785 -0.3083262788146022 -1.017094029130827
0.4329784 -0.30190333358882554 -1.0191792076090027
0.4349783 -0.2964598091528402 -1.0214239640425316
0.4369782 -0.29096622742305916 -1.0227983599649575
0.4389781 -0.28361802890271476 -1.0243868490587886
0.440978 -0.2781726671881925 -1.0262330246592801
0.4429779 -0.27278800324984004 -1.028474181449812
0.4449778 -0.26688521507983176 -1.029616438434355
0.4469777 -0.2611965413497698 -1.032523382818655
0.4489776 -0.25448965281477626 -1.0338653026504954
0.4509775 -0.24784097565464258 -1.0344219153986935
0.4529774 -0.24160601773261003 -1.0358558114724417
0.4549773 -0.2356859794453895 -1.037684822159308
0.4569772 -0.22901216477846836 -1.040044696912829
0.4589771 -0.22278092741209926 -1.0408246781548556
0.460977 -0.21662109125716864 -1.0416485059884195
0.4629769 -0.21032934821565163 -1.042942216051827
0.4649768 -0.2050179855834363 -1.045126928997505
0.4669767 -0.19769886101080114 -1.0466325257833249
0.4689766 -0.19206970295022005 -1.0473756764165507
0.4709765 -0.18617455534272945 -1.04839802149651
0.4729764 -0.17903455027207693 -1.049477516202969
0.4749763 -0.17277299373931837 -1.0499068580863844
0.4769762 -0.16718958466972864 -1.0510410725318529
0.4789761 -0.16007702956075665 -1.051688019192266
0.480976 -0.15400259281729212 -1.0522461626372326
0.4829759 -0.14789360163666582 -1.05396187253483
0.4849758 -0.14151958951403715 -1.0546195255135538
0.4869757 -0.1354911837228291 -1.0552731578641315
0.4889756 -0.12829965661905732 -1.0567807109322311
0.4909755 -0.12196954265608134 -1.057532310053223
0.4929754 -0.11545098612713738 -1.0579258187100578
0.4949753 -0.108870423967247 -1.059018782193682
0.4969752 -0.10320161752435988 -1.0599472010148436
0.4989751 -0.09666874378694862 -1.0605659115100659
0.500975 -0.08949518297652172 -1.0612595972914984
0.5029749 -0.08368196846794637 -1.062072330434301
0.5049748 -0.07746944327710249 -1.0622026057430052
0.5069747 -0.07221328582254517 -1.0635378658028973
0.5089746 -0.06513230444946153 -1.0638621169461127
0.5109745 -0.059301915954422524 -1.0645555843572176
0.5129744 -0.05275935294086905 -1.0641225039742541
0.5149743 -0.04629302934639864 -1.064861459822109
0.5169742 -0.04031097893377457 -1.0656657018047353
0.5189741 -0.033534643375488574 -1.065898809384437
0.520974 -0.027187294286882928 -1.0657729755896859
0.5229739 -0.020925293805968685 -1.0658145985211922
0.5249738 -0.013816463939817406 -1.0654245061256087
0.5269737 -0.007533920684666094 -1.065620984900447
0.5289736 -0.0017827858436859217 -1.065667777198495
0.5309735 0.005495918720362841 -1.065982937810418
0.5329734 0.012425833663063823 -1.066048982432241
0.5349733 0.018755550866401835 -1.0657903034617753
0.5369732 0.025995319148954615 -1.0653535567572456
0.5389731 0.031818239300977866 -1.064773598390627
0.540973 0.03914933784099549 -1.0662366922385207
0.5429729 0.044995303346529916 -1.066091660789339
0.5449728 0.05093323043420314 -1.065943495384085
0.5469727 0.0580848329876317 -1.0654313080217628
0.5489726 0.06402355054288299 -1.064993851783989
0.5509725 0.07085146551777693 -1.0652485115100703
0.5529724 0.07780295931386483 -1.0642676052575852
0.5549723 0.08392654013069611 -1.0634169675743956
0.5569722 0.09092386983980835 -1.063253395495257
0.5589721 0.09725430944165511 -1.062560100840451
0.560972 0.10399635089991663 -1.0622102273759058
0.5629719 0.11053264886551432 -1.061506811197353
0.5649718 0.11691345230588264 -1.0605517386785075
0.5669717 0.12355869287095377 -1.0595632653638245
0.5689716 0.13003552897636372 -1.0590246780256214
0.5709715 0.13673494448384746 -1.0586445897070824
0.5729714 0.1430160353267715 -1.0577735300142732
0.5749713 0.14903701037899983 -1.0568217198103154
0.5769712 0.15581363123193237 -1.056792732207308
0.5789711 0.16188142125586893 -1.0559248423428818
0.580971 0.1689698208695236 -1.054427588456235
0.5829709 0.17602698431152886 -1.053049257529495
0.5849708 0.18105257020276466 -1.0520174066376722
0.5869707 0.18823990436369845 -1.0506428667070864
0.5889706 0.19474270735764238 -1.0500318445588581
0.5909705 0.20135445243594918 -1.048388483312473
0.5929704 0.20750852361223776 -1.0476782908925917
0.5949703 0.2144025003036954 -1.0461556792504234
0.5969702 0.2207740814103862 -1.0456365629457216
0.5989701 0.22742789067403374 -1.0437448207297115
0.60097 0.23421160104878946 -1.0421582984153286
0.6029699 0.24040524852130765 -1.0410110634201453
0.6049698 0.24687521062686163 -1.0397871150093085
0.6069697 0.25348542655803624 -1.0382671068606355
0.6089696 0.25931923348058133 -1.0360786270387163
0.6109695 0.26611830153037613 -1.0349869777635474
0.6129694 0.27207056767598203 -1.0332255742706284
0.6149693 0.2789490508610146 -1.0316853221480708
0.6169692 0.285407436944361 -1.0295617046894738
0.6189691 0.2915288851475809 -1.0281936228821473
0.620969 0.29789462929816685 -1.0259889665863042
0.6229689 0.3050700266365641 -1.0242301839850951
0.6249688 0.3109792451102823 -1.022251743906244
0.6269687 0.3174268203559846 -1.019881378398602
0.6289686 0.3239556658010787 -1.0186361537633368
0.6309685 0.33071482017243126 -1.0168845811707259
0.6329684 0.3368176286699951 -1.0143074361409277
0.6349683 0.3433045960031456 -1.0122713823029226
0.6369682 0.34956289988847644 -1.0107721783903292
0.6389681 0.35608230170368993 -1.008708741930874
0.640968 0.36317752141917303 -1.0065074077758165
0.6429679 0.36860549452409375 -1.004660945600719
0.6449678 0.3748541828328561 -1.0020197868324692
0.6469677 0.3812671799775742 -0.999635687600866
0.6489676 0.3879673131533527 -0.9970254074967172
0.6509675 0.39397634542599563 -0.9939885796325532
0.6529674 0.39998771912672404 -0.9913227055210688
0.6549673 0.40613566930900624 -0.9891599700032697
0.6569672 0.41195200781951774 -0.9864101325181237
0.6589671 0.4188341701293889 -0.9838703438862094
0.660967 0.4250111803867738 -0.9809931715354389
0.6629669 0.43138382233802586 -0.9784334971809501
0.6649668 0.4375776650107327 -0.9755627258337453
0.6669667 0.44411231666800616 -0.9734462342864451
0.6689666 0.4499813418382828 -0.9706483875474105
0.6709665 0.4566562677004264 -0.9683529039486471
0.6729664 0.46246675405334786 -0.9655551286177891
0.6749663 0.46885517273570476 -0.96286693063159
0.6769662 0.4750480982560711 -0.9604037649833747
0.6789661 0.48102335199896695 -0.9576060103974038
0.680966 0.48762203825620654 -0.9537105968392839
0.6829659 0.49328771072257127 -0.9505530022918457
0.6849658 0.49939825617193356 -0.9481115061486554
0.6869657 0.5055137082316463 -0.943793502667937
0.6889656 0.5114161166769438 -0.9407649594726397
0.6909655 0.5173919336997616 -0.9374697835336063
0.6929654 0.5231797413315902 -0.9339340220328349
0.6949653 0.5291292975578997 -0.9304282191644812
0.6969652 0.5353284374201301 -0.9267926504233741
0.6989651 0.5411808948006336 -0.9237390188516184
0.700965 0.5472091487092465 -0.9192777087423402
0.7029649 0.5531187437230041 -0.9163110357007179
0.7049648 0.5592150459789632 -0.913089816957149
0.7069647 0.5652736564163607 -0.9093598093775184
0.7089646 0.5715734141786478 -0.906057005483912
0.7109645 0.5765755958786618 -0.9023160722297275
0.7129644 0.5825230932608937 -0.8986706699263185
0.7149643 0.5887739433650899 -0.895097956031938
0.7169642 0.5943434814692146 -0.8909979845792872
0.7189641 0.5999663575273783 -0.8864866904300458
0.720964 0.6057685620907904 -0.8830275901349135
0.7229639 0.6115591209142732 -0.87897511032583
0.7249638 0.6174018848552598 -0.8752034877062878
0.7269637 0.6229756015480769 -0.8708772653071506
0.7289636 0.6285054162053234 -0.867209562708663
0.7309635 0.6343394352774173 -0.861569506550113
0.7329634 0.6401553180859814 -0.8578617318547556
0.7349633 0.6455873383993749 -0.8542341595558097
0.7369632 0.6510532182190296 -0.8499078095816586
0.7389631 0.6564436218684281 -0.8459845704967622
0.740963 0.6626565970132232 -0.8425152074868623
0.7429629 0.6684044975496888 -0.8383374512184476
0.7449628 0.6736714187816571 -0.8343589549972367
0.7469627 0.6787790752784386 -0.829373674431778
0.7489626 0.6851694977465205 -0.8253383233151201
0.7509625 0.6906261382695644 -0.820256593020756
0.7529624 0.6955915915171242 -0.8160614390657424
0.7549623 0.7010221096522211 -0.8111746069052683
0.7569622 0.7065533632653551 -0.8064141526677262
0.7589621 0.7112580313041267 -0.8019526961740939
0.760962 0.7163731267165745 -0.7969589317992601
0.7629619 0.721490845517841 -0.7917436076615916
0.7649618 0.7270136576485811 -0.7877372925034971
0.7669617 0.7319923132023842 -0.7821205905389413
0.7689616 0.7368391417746462 -0.7774533603346425
0.7709615 0.7426044399968801 -0.7729927885316829
0.7729614 0.7471945544891445 -0.7682676695009661
0.7749613 0.7530554977869873 -0.7641034396949677
0.7769612 0.7580372976164137 -0.7594040015478767
0.7789611 0.7636060102072217 -0.7539384716007659
0.780961 0.7683963723443559 -0.7487151447976799
0.7829609 0.772950119357006 -0.744506522161838
0.7849608 0.7786228289517251 -0.7392659479559398
0.7869607 0.7833280659341074 -0.7339015248517252
0.7889606 0.7882082753984987 -0.7283219541251816
0.7909605 0.7926673764646607 -0.7229721510791656
0.7929604 0.7975670658274984 -0.7177347085803487
0.7949603 0.8025186446414778 -0.7117545709592518
0.7969602 0.8066821089599486 -0.7070694455435519
0.7989601 0.8116904205830092 -0.7016964870374315
