! Created with skrf 1.8.0 (http://scikit-rf.org).
# GHz S RI R 50.0 
!freq ReS11 ImS11
0.001 -0.99632204153737 0.0008805560523065803
0.0029999 -0.9316851681591308 0.04795270730978424
0.0049998 -1.0133557752797326 0.33569252399566996
0.0069997 -0.5641303442119776 -0.08048467206566787
0.0089996 -0.2673110382173398 0.10770804908605543
0.0109995 -0.15947982126077934 0.08965627233796022
0.0129994 -0.10812101755224252 0.07581982102070867
0.0149993 -0.09493191937201696 0.07599023121089689
0.0169992 -0.059007397944981256 0.06944293932751201
0.0189991 -0.03815172310741296 0.056749359442490856
0.020999 -0.032776969070705896 0.04919130794661919
0.0229989 -0.028053364986471603 0.04677197273521671
0.0249988 -0.02698878244075324 0.04327556765808293
0.0269987 -0.021991340258647525 0.03925093125682397
0.0289986 -0.023677316135924775 0.03723452624955706
0.0309985 -0.02241974217194691 0.0324308227327444
0.0329984 -0.020415018583873182 0.03339371262616029
0.0349983 -0.015513202155024056 0.03366674251224676
0.0369982 -0.01720784659629213 0.03430369421662201
0.0389981 -0.016906006203889434 0.033191636584821625
0.040998 -0.01862861663883803 0.0319521387091756
0.0429979 -0.020405058239707344 0.032594634683067565
0.0449978 -0.01842379278223898 0.0346167045701943
0.0469977 -0.022318270415421844 0.03209436605961961
0.0489976 -0.02238835360088481 0.03434578587104337
0.0509975 -0.018926371033576195 0.03400667494732721
0.0529974 -0.02148456428815823 0.03088346460886836
0.0549973 -0.01962258633233675 0.030909496392722773
0.0569972 -0.021886837717059477 0.03235494540910401
0.0589971 -0.023440365379975226 0.02972466525687182
0.060997 -0.022297440152601423 0.027745704499327152
0.0629969 -0.023122579111036982 0.02912119983931339
0.0649968 -0.023879261649367833 0.02565058619992103
0.0669967 -0.021048091444833477 0.02746884863007264
0.0689966 -0.02274865894175774 0.025094804672687702
0.0709965 -0.026870350870725753 0.024757191117864452
0.0729964 -0.02426291071440442 0.02563352766204886
0.0749963 -0.021923517345605346 0.021551354120460286
0.0769962 -0.022970600608636312 0.021376939766263734
0.0789961 -0.0218019653629807 0.023586827368512406
0.080996 -0.02348083383315587 0.02148748027192863
0.0829959 -0.022086639605391114 0.02078379746688548
0.0849958 -0.022622559189445432 0.021481179530135355
0.0869957 -0.020331309633444216 0.020840914150815317
0.0889956 -0.021068149922954544 0.01908617758677216
0.0909955 -0.019234625875638955 0.020895827222698855
0.0929954 -0.019709520183413733 0.01951662781893251
0.0949953 -0.020980050398711255 0.020955444732696702
0.0969952 -0.01939502305943362 0.021908721615120186
0.0989951 -0.019330256201518733 0.018143512637875038
0.100995 -0.018119664474577236 0.019605509283745718
0.1029949 -0.01722129400224427 0.019835304667886
0.1049948 -0.016945314910885818 0.020942030786003547
0.1069947 -0.017076491416681456 0.021777318289829366
0.1089946 -0.017454895231492275 0.02211486839175169
0.1109945 -0.017915550554338147 0.023674862116381434
0.1129944 -0.017725139739660167 0.02399341157841961
0.1149943 -0.01808115942743406 0.024591764182974214
0.1169942 -0.018378975683413436 0.025460697866291987
0.1189941 -0.019054637472555227 0.026661232526527762
0.120994 -0.019658774194103154 0.025928457351763756
0.1229939 -0.020341167994391576 0.025904951992297778
0.1249938 -0.021128745274351268 0.026890769785529192
0.1269937 -0.021535378388097208 0.02543548097209998
0.1289936 -0.021545372762849433 0.027518272983406564
0.1309935 -0.02290220723800932 0.025795436781131838
0.1329934 -0.023366491350667106 0.027465004073228546
0.1349933 -0.02409853046471965 0.026363530272942477
0.1369932 -0.023464965916531768 0.026299750378543887
0.1389931 -0.025160171648547936 0.026996061792381128
0.140993 -0.02390815528937962 0.02717864054004491
0.1429929 -0.02446900014756941 0.026671814522482334
0.1449928 -0.02606386199353071 0.025487240091516063
0.1469927 -0.02494449233793961 0.02570568020546765
0.1489926 -0.02523628994070814 0.02532936685327508
0.1509925 -0.025904181232235354 0.02540399311574485
0.1529924 -0.025274595273424186 0.024647504819222933
0.1549923 -0.024386412059057137 0.024738209719618737
0.1569922 -0.0261169265957314 0.024758498241333294
0.1589921 -0.025319189974517632 0.024500620782657252
0.160992 -0.026149108754920866 0.02427250428843745
0.1629919 -0.024846519219915236 0.02418473780234909
0.1649918 -0.02493537538316471 0.024897440235320187
0.1669917 -0.025212480597014447 0.024960874536392647
0.1689916 -0.025024009330898676 0.024878164271812078
0.1709915 -0.02455364667504763 0.024876589422580087
0.1729914 -0.024938423429180987 0.024738615479079695
0.1749913 -0.02502819710262213 0.025887289022919802
0.1769912 -0.024656720166991466 0.025225821348006192
0.1789911 -0.024851462102458415 0.026432304426392828
0.180991 -0.02477501032788178 0.026531576692416403
0.1829909 -0.025296710521950302 0.026892082673633036
0.1849908 -0.02517299199218517 0.027037885547590127
0.1869907 -0.025185664108722975 0.026375148894946503
0.1889906 -0.025913646821832084 0.027612450442111875
0.1909905 -0.0264196491551799 0.027666609298058056
0.1929904 -0.02656268456332112 0.028242168413223103
0.1949903 -0.026785979186156106 0.027747052354106197
0.1969902 -0.026752289026643443 0.027402074018863534
0.1989901 -0.027444767649573973 0.028331414145352025
0.20099 -0.0282059614194356 0.028726729917025462
0.2029899 -0.027142721379585445 0.0286434787672321
0.2049898 -0.027909082396582217 0.02875723214489937
0.2069897 -0.02863962988669813 0.028806829202426772
0.2089896 -0.028567424559195247 0.028644013367867746
0.2109895 -0.029240310571927306 0.028873169412416997
0.2129894 -0.029582688561638894 0.029218937555183448
0.2149893 -0.029309906064571692 0.02917887692850479
0.2169892 -0.030218055353804354 0.029030425281275665
0.2189891 -0.029897157890039994 0.02892629771834325
0.220989 -0.030098597719469593 0.029100178731381956
0.2229889 -0.030953694031028926 0.03025709240232231
0.2249888 -0.030724718416301068 0.029868947991033463
0.2269887 -0.031032450323741537 0.029151828967005487
0.2289886 -0.031201597784407897 0.02942134338807467
0.2309885 -0.031060191665197814 0.029475225880736967
0.2329884 -0.03133172174587989 0.029221468566383423
0.2349883 -0.03155716346907897 0.02935496895253916
0.2369882 -0.03233650242903435 0.029734512677453966
0.2389881 -0.0321242772571919 0.029482898854245855
0.240988 -0.032554513183543965 0.029023810035572313
0.2429879 -0.03262528498987774 0.029659219940089174
0.2449878 -0.03274447336669853 0.02951442857255788
0.2469877 -0.032701204523001404 0.029631160579975925
0.2489876 -0.032658221491122574 0.028968286227609767
0.2509875 -0.03275365660042614 0.029440869632072666
0.2529874 -0.03309963101854789 0.029357195488384773
0.2549873 -0.0330612207435905 0.029568155466573955
0.2569872 -0.032911737000321475 0.02920543659339598
0.2589871 -0.03273735202607676 0.029754129495571338
0.260987 -0.03267675847489912 0.029517251333103296
0.2629869 -0.032583210913929885 0.02928240197656693
0.2649868 -0.03276673552354477 0.030077703877190137
0.2669867 -0.0330987821722834 0.029915420781020503
0.2689866 -0.03313691885476509 0.030034589643779114
0.2709865 -0.03309925036668786 0.030270021540047442
0.2729864 -0.03295468306892594 0.03090030957335898
0.2749863 -0.03285760488515865 0.03063317404450513
0.2769862 -0.03291451081590625 0.031205052297237572
0.2789861 -0.03292138433355642 0.03247542549811206
0.280986 -0.033194005052531145 0.03262728530875623
0.2829859 -0.033118914714850574 0.03246797217976963
0.2849858 -0.034036783102567275 0.03326110247134938
0.2869857 -0.03399109197916123 0.03346250124800146
0.2889856 -0.034212967192237285 0.033762409884394856
0.2909855 -0.03474786289330564 0.03447867906444407
0.2929854 -0.03516924044166668 0.03503676120983544
0.2949853 -0.03558523446276367 0.03515724454756887
0.2969852 -0.036002759283452895 0.035081428442130885
0.2989851 -0.03645852086044206 0.035831052255501025
0.300985 -0.037133248490718695 0.03629225206989592
0.3029849 -0.03808445609871537 0.03708092666027177
0.3049848 -0.038922228374455754 0.03679547965502114
0.3069847 -0.03955584764817345 0.03641465726892981
0.3089846 -0.04021734635653866 0.0371041402905736
0.3109845 -0.040993354115120006 0.036564598075450094
0.3129844 -0.0415487178825315 0.036513176718759206
0.3149843 -0.04252953234231516 0.03645029720901046
0.3169842 -0.04317568087228196 0.03633804285044044
0.3189841 -0.044219898101021636 0.035973800578525617
0.320984 -0.04493549425617913 0.03574611853260064
0.3229839 -0.045550720324319977 0.035398474893505096
0.3249838 -0.04555877636455832 0.03558230529467253
0.3269837 -0.0460665941550429 0.03530708350945859
0.3289836 -0.04671397580132092 0.0349949875974546
0.3309835 -0.04684032910507685 0.034492130559266095
0.3329834 -0.04697356673557 0.03379227285226686
0.3349833 -0.046737459130666015 0.03329042494004196
0.3369832 -0.04688093854178879 0.03313507298196161
0.3389831 -0.04666257653616468 0.032595969763359815
0.340983 -0.046311524063448725 0.03228985389327089
0.3429829 -0.045853600128084065 0.0320448649791141
0.3449828 -0.045697380453138356 0.03133032584694625
0.3469827 -0.04555952568025927 0.031966265116041614
0.3489826 -0.04517061767457625 0.0317617890771423
0.3509825 -0.04515324473313762 0.03171410352192413
0.3529824 -0.04487390351517499 0.03158128750488996
0.3549823 -0.04439594643408135 0.03151683188142156
0.3569822 -0.04428958678875212 0.032086109932043264
0.3589821 -0.043749616437162686 0.03266018961232059
0.360982 -0.043572340897795624 0.03298959669157759
0.3629819 -0.04370611313434482 0.033335732238424495
0.3649818 -0.0438324584573927 0.033801578350578024
0.3669817 -0.04407274808716314 0.0344592139632328
0.3689816 -0.04436251889902086 0.03466906490477005
0.3709815 -0.04476879086289861 0.034815622148000484
0.3729814 -0.04450268024516576 0.03529489794496959
0.3749813 -0.04538393737653186 0.03618009125469662
0.3769812 -0.046281724446378826 0.0364648595112785
0.3789811 -0.04694640855177657 0.03612890142876089
0.380981 -0.047408130265241114 0.03637036043584137
0.3829809 -0.04808543274484779 0.03662605072091913
0.3849808 -0.04817739358471946 0.037393643360412857
0.3869807 -0.049472407817692764 0.036993998499923214
0.3889806 -0.04983406202343624 0.0369993415224955
0.3909805 -0.0504517272713307 0.03691528722156453
0.3929804 -0.0509612535894622 0.03683570012472343
0.3949803 -0.05173288180228878 0.03661027840295933
0.3969802 -0.0525298215265942 0.03626389117367615
0.3989801 -0.05277837753503799 0.03574830203939218
0.40098 -0.0530641331608999 0.03543788889457013
0.4029799 -0.05349725700178032 0.035045665422176756
0.4049798 -0.053557340511034654 0.03461266999599889
0.4069797 -0.05384733729034005 0.03389167604535988
0.4089796 -0.05414172130667086 0.03374748359677745
0.4109795 -0.05405333669278613 0.03351214779845902
0.4129794 -0.05428217231331588 0.03347475548610143
0.4149793 -0.054174730884083096 0.032682464599468435
0.4169792 -0.053872208951841874 0.03232081852649856
0.4189791 -0.05373621081775415 0.032341009046883674
0.420979 -0.053786632751575275 0.0322806776771987
0.4229789 -0.05361658694585492 0.032247439439745264
0.4249788 -0.05350666666377736 0.03241473162125423
0.4269787 -0.05348461673694582 0.03256941109581167
0.4289786 -0.05327986835857106 0.032746859537978214
0.4309785 -0.05338631368491747 0.033013247758937804
0.4329784 -0.05349819728424771 0.03317086202203738
0.4349783 -0.05389014600698684 0.03342246755415579
0.4369782 -0.05416655909676651 0.03383131958151517
0.4389781 -0.05425405521543067 0.03440194674012044
0.440978 -0.05467152447832703 0.03460367605667425
0.4429779 -0.05523010718392157 0.034759385096730766
0.4449778 -0.05591574578713775 0.035049771388607494
0.4469777 -0.056647175609987103 0.03514553119833904
0.4489776 -0.05691750554396557 0.035463014560246295
0.4509775 -0.057360557978149894 0.03580429069358207
0.4529774 -0.058466874259299965 0.035997220530555714
0.4549773 -0.05886129011532973 0.03569617730606759
0.4569772 -0.059417851406924196 0.03535900756055649
0.4589771 -0.06053667034412524 0.03515675929087457
0.460977 -0.060758308285936646 0.034775825339966156
0.4629769 -0.061463209002123355 0.03472269522366761
0.4649768 -0.06201794577045475 0.0336044282794108
0.4669767 -0.06256861119006092 0.03362281591599925
0.4689766 -0.0629964405818525 0.0330632101494521
0.4709765 -0.06350582494660113 0.0326181772548359
0.4729764 -0.06350950440154522 0.03197974628818796
0.4749763 -0.0636768652405974 0.031660298523497825
0.4769762 -0.06385961099144602 0.031247889997657177
0.4789761 -0.06394447593650257 0.030619519810944174
0.480976 -0.06390304522278242 0.030146188964551675
0.4829759 -0.06398347420832752 0.029789909000806778
0.4849758 -0.06376886633309439 0.029488770693864647
0.4869757 -0.06365326995258526 0.029196028581088985
0.4889756 -0.06324338386188158 0.028752173566024483
0.4909755 -0.06272398572905294 0.028677307300383845
0.4929754 -0.06271353395850421 0.028751735745471612
0.4949753 -0.062484807934719305 0.028718672140863793
0.4969752 -0.06219864344177199 0.0289285158903364
0.4989751 -0.06213732550470211 0.028951898882880613
0.500975 -0.062009432034713555 0.029185164520169064
0.5029749 -0.06209477914465388 0.029465468033374676
0.5049748 -0.062470778937139364 0.029892954213838696
0.5069747 -0.06279069196365891 0.030134860612403037
0.5089746 -0.0630118967074536 0.03033595473038747
0.5109745 -0.06323472425590143 0.030390550472837705
0.5129744 -0.06335853417460627 0.030830192202533156
0.5149743 -0.06376000538117864 0.031188699651295705
0.5169742 -0.06431677568906838 0.031451212101666036
0.5189741 -0.06528389718761113 0.031654695891121604
0.520974 -0.06599120597641933 0.031554845607400656
0.5229739 -0.06632383683267788 0.03151139510032615
0.5249738 -0.06679312159501172 0.03186601379010978
0.5269737 -0.06760782245226045 0.0316126150992039
0.5289736 -0.06833067173195152 0.03187043124674968
0.5309735 -0.06902678344458028 0.03147847510350041
0.5329734 -0.06969199043159875 0.031120635342910406
0.5349733 -0.07015519888955725 0.031029126742785205
0.5369732 -0.0709425705640625 0.0305256765996213
0.5389731 -0.07148929529954325 0.03018304397793672
0.540973 -0.07186743564871609 0.029284013253868132
0.5429729 -0.07231021194679495 0.02871352012882423
0.5449728 -0.07284075390366285 0.028082438076152936
0.5469727 -0.07291616047689134 0.027533837194002313
0.5489726 -0.07305110548923216 0.027014560310986344
0.5509725 -0.0730030829553435 0.026475484751260773
0.5529724 -0.07332208521435546 0.025973625157364445
0.5549723 -0.07325335627442885 0.025510103735676967
0.5569722 -0.07309123909034582 0.024966629893271024
0.5589721 -0.07294636920775523 0.024835917086836218
0.560972 -0.07265791436482746 0.024503530263485434
0.5629719 -0.07257579246923253 0.024324859022909092
0.5649718 -0.07208422975969918 0.024056799310837033
0.5669717 -0.07192244673479678 0.02411369944742856
0.5689716 -0.07192062151213628 0.024159754587872298
0.5709715 -0.07197271707965827 0.024255538539728127
0.5729714 -0.07185423580204409 0.024305796733275233
0.5749713 -0.07211430976827875 0.024177185456229124
0.5769712 -0.07227373124031777 0.024309972607261768
0.5789711 -0.07261672108432948 0.024400137181635608
0.580971 -0.07256770060099722 0.024777426414384657
0.5829709 -0.07286677804309147 0.02518453804121082
0.5849708 -0.07317592315280484 0.025537741609511413
0.5869707 -0.07364223266010937 0.025670666483108336
0.5889706 -0.07426461596605079 0.02535599648054595
0.5909705 -0.0748968822320121 0.025417279920787746
0.5929704 -0.07545861430906438 0.025208732045620835
0.5949703 -0.07588671314980817 0.025111719468492454
0.5969702 -0.07673666791319263 0.024790244613041683
0.5989701 -0.07728525654946201 0.024763493344617183
0.60097 -0.07795309702651913 0.024423796707221394
0.6029699 -0.07846039060079275 0.02413901418810258
0.6049698 -0.07892831433714692 0.023632850965698685
0.6069697 -0.07928658163192093 0.022995220935958526
0.6089696 -0.07975149312038066 0.02262694905497746
0.6109695 -0.08009608180985511 0.02163408787785456
0.6129694 -0.0805394819527111 0.021181558576536155
0.6149693 -0.08068519951735906 0.020389564485430525
0.6169692 -0.080796205640924 0.019905990230659074
0.6189691 -0.08070927546486181 0.01922232614223319
0.620969 -0.08079128541747989 0.018880901457008555
0.6229689 -0.08055075036503662 0.018216475914820535
0.6249688 -0.08021130806741544 0.017706135525330353
0.6269687 -0.08014136931478719 0.017378797980427418
0.6289686 -0.07977312052485441 0.017160425979034714
0.6309685 -0.07936074425184947 0.016880866602866022
0.6329684 -0.07935071098899862 0.01702285603792885
0.6349683 -0.0789851325640211 0.01662726297075966
0.6369682 -0.07882188335372142 0.016497075670669013
0.6389681 -0.07892306582081342 0.016505629707340274
0.640968 -0.07847445843274875 0.016649090842024407
0.6429679 -0.07890019934816199 0.01699907308440552
0.6449678 -0.07865378573623165 0.01709476132138974
0.6469677 -0.07920763099292641 0.017515716990765345
0.6489676 -0.07932725563527612 0.0178281007782764
0.6509675 -0.07968339088676235 0.018212860613988534
0.6529674 -0.0805756123698278 0.01866772248822561
0.6549673 -0.08071223967859524 0.01877215151749496
0.6569672 -0.08129472291893688 0.019146063507423206
0.6589671 -0.08178130105026125 0.019154970172062885
0.660967 -0.08286894155199183 0.019200279096404694
0.6629669 -0.08342317394336224 0.01899513591090168
0.6649668 -0.08423719688072209 0.018741335978972436
0.6669667 -0.08499563924596505 0.01829336602282462
0.6689666 -0.08558133887206305 0.0177441742317881
0.6709665 -0.0861634371727486 0.017084327201330466
0.6729664 -0.08690210535833633 0.016500003295006137
0.6749663 -0.08734155121900651 0.016091021541778945
0.6769662 -0.08818310121508192 0.015032423057928995
0.6789661 -0.08907620162045453 0.013996163538454249
0.680966 -0.08927251174872887 0.013155399947466978
0.6829659 -0.08933414576194545 0.012514562074219089
0.6849658 -0.08953862862659204 0.011433774211940056
0.6869657 -0.08932487068697334 0.01055131201167581
0.6889656 -0.08941666459886699 0.009620395313042006
0.6909655 -0.08913618725046024 0.009132500468951758
0.6929654 -0.0890200570904085 0.00843518948514169
0.6949653 -0.08872463000307775 0.007946883196178242
0.6969652 -0.08816399949727623 0.0072784059532792385
0.6989651 -0.08796707620088262 0.00679829300716361
0.700965 -0.0875868535273894 0.006385265910903791
0.7029649 -0.08711289130864196 0.006395717480398921
0.7049648 -0.08678490178754657 0.005916839258665561
0.7069647 -0.08642017493272466 0.00593630419913177
0.7089646 -0.085808005719099 0.005787285850308493
0.7109645 -0.08577238525607232 0.006056284337214252
0.7129644 -0.08599953474957044 0.006327593013960558
0.7149643 -0.08589828463190914 0.006296346980845871
0.7169642 -0.08611205496936544 0.006799559867446195
0.7189641 -0.08624303616569648 0.007178481318636028
0.720964 -0.0867707348478887 0.0073500534478512375
0.7229639 -0.08682342515932864 0.007299459106840097
0.7249638 -0.08718780789681485 0.007590779383045108
0.7269637 -0.08740810892155838 0.007756926821875058
0.7289636 -0.0883119625947281 0.008066591615716667
0.7309635 -0.08866527443137143 0.00798988452403556
0.7329634 -0.08940183855611272 0.007972848965783794
0.7349633 -0.09030101171822907 0.007634976610746642
0.7369632 -0.09106808191653241 0.007427787940419449
0.7389631 -0.09198674548372103 0.006767993854063091
0.740963 -0.09250981436090472 0.006090127508620251
0.7429629 -0.09308972533933049 0.005131202203728424
0.7449628 -0.09360462631495288 0.004375256307300981
0.7469627 -0.09428890634867668 0.0036067764143615615
0.7489626 -0.09453508009660284 0.002539993249980301
0.7509625 -0.09489530229550416 0.0019152731639809455
0.7529624 -0.09535042670183443 0.0008846707254086261
0.7549623 -0.09538433264712193 0.00010739167582050901
0.7569622 -0.09527838898464477 -0.0008988999819870627
0.7589621 -0.0951485656375719 -0.001729510056255934
0.760962 -0.09489974494239237 -0.002496844951673287
0.7629619 -0.09447855661918307 -0.0031845515427807586
0.7649618 -0.09409374614270455 -0.003913659074945133
0.7669617 -0.09359720208132727 -0.004496778993222948
0.7689616 -0.09303165871110655 -0.005109093091235074
