! Created with skrf 1.8.0 (http://scikit-rf.org).
# GHz S RI R 50.0 
!freq ReS11 ImS11
0.001 -0.9982936792420518 0.002038429010046694
0.0029999 -0.9696382992453755 0.005613366642502546
0.0049998 -0.8610966292695338 -0.019710005881113914
0.0069997 -0.5169338837084195 -0.230877637960827
0.0089996 -0.32831249114678795 -0.15250327999658997
0.0109995 -0.24838561330620804 -0.1263213410262236
0.0129994 -0.19385721332041972 -0.10541709972024015
0.0149993 -0.162182077761483 -0.09895274357249013
0.0169992 -0.1235919263174009 -0.0817806261863838
0.0189991 -0.10395648601670178 -0.07849263573770608
0.020999 -0.08564666086571074 -0.06788348611427572
0.0229989 -0.07100345397349334 -0.05808634948517737
0.0249988 -0.0630480537184002 -0.05172144186261066
0.0269987 -0.052712868765276595 -0.04688605604597121
0.0289986 -0.04892805360725402 -0.04093957691991889
0.0309985 -0.04502212275128727 -0.03854400362810391
0.0329984 -0.039716825348127836 -0.03422637532241382
0.0349983 -0.03329638545262518 -0.030079249101162303
0.0369982 -0.0327855679761793 -0.02690327086262324
0.0389981 -0.029596079154476106 -0.02328609168576592
0.040998 -0.030013404035795423 -0.02398091814336375
0.0429979 -0.032762247900747714 -0.017544384782039662
0.0449978 -0.027144212897628372 -0.01581345871050619
0.0469977 -0.031208241631623182 -0.017295699048604972
0.0489976 -0.030254727771423684 -0.010322185814294622
0.0509975 -0.027773463248062374 -0.009892188910043153
0.0529974 -0.027705406571146597 -0.010576025706088184
0.0549973 -0.031295825231092235 -0.009840964970481992
0.0569972 -0.030303469509907546 -0.007532054615756881
0.0589971 -0.03192829255852417 -0.009171378615527703
0.060997 -0.03151602482471637 -0.009741458807687984
0.0629969 -0.03105164585064308 -0.007333770542983507
0.0649968 -0.03278940645862792 -0.008993242266544271
0.0669967 -0.031129761225121934 -0.008194874130092053
0.0689966 -0.031264998384788335 -0.00878777509881835
0.0709965 -0.03471861141755931 -0.007678061335789334
0.0729964 -0.03244431914381321 -0.006575747213596715
0.0749963 -0.029065227190118295 -0.010149930356079535
0.0769962 -0.031275920616801546 -0.010242541209872561
0.0789961 -0.02903914532093418 -0.007423641165705156
0.080996 -0.029478852673446593 -0.008891415334150197
0.0829959 -0.02930712326065126 -0.007511469498978558
0.0849958 -0.028768210278831873 -0.006175257866876144
0.0869957 -0.026770138816730425 -0.006041517912323114
0.0889956 -0.026577016671222326 -0.007040192875172959
0.0909955 -0.02485150422898788 -0.004774471582509604
0.0929954 -0.02439368540830547 -0.005552551700262765
0.0949953 -0.025056580566188584 -0.0030064559066174295
0.0969952 -0.022609060770166858 -0.0019228217026716606
0.0989951 -0.023859987827986446 -0.002797250138600116
0.100995 -0.02072567233089577 -0.003234508865890837
0.1029949 -0.01956847472350175 -0.0021237763587836495
0.1049948 -0.01955155509371943 -0.0011114560012363555
0.1069947 -0.018756722697851252 -0.0001453264040972191
0.1089946 -0.01891036295713837 0.001082999794805682
0.1109945 -0.019073423157548095 0.003627860495907248
0.1129944 -0.018524652224946554 0.004308871531695471
0.1149943 -0.018611118196614592 0.005289848269199347
0.1169942 -0.01881482652163824 0.006349335211805562
0.1189941 -0.01926391728678129 0.008226669759396852
0.120994 -0.02040026421234211 0.007126963624286792
0.1229939 -0.02071052479311059 0.008108497433672488
0.1249938 -0.021369621691107645 0.009166573020302198
0.1269937 -0.022398661613983576 0.008273528629336474
0.1289936 -0.022278008511833373 0.009626040179096611
0.1309935 -0.02253009478972577 0.008948560352119736
0.1329934 -0.02403982777993863 0.010965068328387475
0.1349933 -0.024406005167802895 0.010092335955369854
0.1369932 -0.024153649279866143 0.00964940380415892
0.1389931 -0.02541003510561908 0.010286543646886762
0.140993 -0.025337640400182524 0.009616820117451672
0.1429929 -0.02562070196443045 0.009662787739028513
0.1449928 -0.02715053370515559 0.009866171625638336
0.1469927 -0.026937124108184322 0.01050314829190872
0.1489926 -0.025938101845232944 0.010166476128415997
0.1509925 -0.026789675985534243 0.009824144658018001
0.1529924 -0.02717377721660859 0.009506662267810054
0.1549923 -0.025963703907587975 0.010307651798191094
0.1569922 -0.027053432866130836 0.010275975754913236
0.1589921 -0.02575432896602808 0.010384437542442925
0.160992 -0.026934885347011897 0.009985433666707566
0.1629919 -0.02587416735608633 0.010398436946803072
0.1649918 -0.025770589357722275 0.01072550564348651
0.1669917 -0.026079759384170016 0.010807159638214749
0.1689916 -0.02565947397649193 0.011124723998332623
0.1709915 -0.0253562993172761 0.011719849106113215
0.1729914 -0.02553158734733546 0.011579160978077693
0.1749913 -0.025833613808038614 0.012952758848174845
0.1769912 -0.02512764725729373 0.012494500941476722
0.1789911 -0.02530051578262403 0.013324770794439224
0.180991 -0.025421189421506323 0.01398546059007691
0.1829909 -0.025200313418558273 0.013955577952248856
0.1849908 -0.025269214294334517 0.014691112363010548
0.1869907 -0.025216348038978792 0.014216560646293086
0.1889906 -0.025552395609167538 0.01516468629022014
0.1909905 -0.026227192424142134 0.015608130158156371
0.1929904 -0.026484139268489443 0.01603374171171358
0.1949903 -0.02619415589477972 0.01561698227576548
0.1969902 -0.026065518138851707 0.016111325782227893
0.1989901 -0.026767080472511823 0.016631839566186576
0.20099 -0.026765025589350643 0.017214161219252237
0.2029899 -0.02748518490314243 0.016958488853548857
0.2049898 -0.027263160006059054 0.01693968177917128
0.2069897 -0.028430976156423052 0.017228483639984155
0.2089896 -0.027718089195722797 0.017253000435989152
0.2109895 -0.027894641517040145 0.01770596435463074
0.2129894 -0.028508222802635853 0.017971219644610736
0.2149893 -0.028614887958515668 0.018024874568322465
0.2169892 -0.029365309027776162 0.017605112735704247
0.2189891 -0.02928678729333774 0.018110691080659776
0.220989 -0.029033554201388027 0.018499997117249627
0.2229889 -0.029842163332420957 0.01962145345068083
0.2249888 -0.029892271470646496 0.018968756840549002
0.2269887 -0.030202501926816852 0.01873521453101157
0.2289886 -0.030434381444413093 0.01909620796372009
0.2309885 -0.03039099948420689 0.019167659875727595
0.2329884 -0.030917519323049522 0.01911253616243757
0.2349883 -0.030898012948752343 0.019203714889982917
0.2369882 -0.031678293759507474 0.019820036204333792
0.2389881 -0.03134244050750731 0.01966746423669926
0.240988 -0.031954676025901026 0.019264528028232735
0.2429879 -0.03207703144130025 0.020087795202614507
0.2449878 -0.032253498479553847 0.019911154362010047
0.2469877 -0.0322168583540949 0.02021313915024946
0.2489876 -0.03209596153364276 0.019256672690762186
0.2509875 -0.032388319220764544 0.019581823635486155
0.2529874 -0.032658755172073145 0.020293486447876295
0.2549873 -0.03221763969471968 0.02035123176967041
0.2569872 -0.03217826526375446 0.019582338223998193
0.2589871 -0.03226343919883206 0.020246420356005643
0.260987 -0.03231684435278412 0.020403383728566968
0.2629869 -0.032453614536697845 0.020180762374729343
0.2649868 -0.03174502359886274 0.021034846224563544
0.2669867 -0.03214396768692088 0.020797598172425533
0.2689866 -0.03207256641236464 0.020908912222827133
0.2709865 -0.031993498306226095 0.021308113199389862
0.2729864 -0.031792427868335416 0.021912167743655574
0.2749863 -0.03191724716250693 0.02172595266072118
0.2769862 -0.03138138747861244 0.022375353651286137
0.2789861 -0.03158169373970281 0.023579440676148825
0.280986 -0.03205412462223158 0.023802133887563026
0.2829859 -0.031477328933797594 0.02383937078425033
0.2849858 -0.032319954333451625 0.024376728278044595
0.2869857 -0.03283569431341178 0.02498192067420793
0.2889856 -0.032901437260190305 0.025243726594799877
0.2909855 -0.033041181000857595 0.026255826698489068
0.2929854 -0.033758890045280626 0.02665091096633551
0.2949853 -0.034007646093673044 0.026666191415649035
0.2969852 -0.03445231287171817 0.027181245298014786
0.2989851 -0.03524991523284622 0.027857648667333715
0.300985 -0.035665813138280746 0.028393530695379122
0.3029849 -0.03646783173831315 0.029045771662988766
0.3049848 -0.03731643348006758 0.028949021969387142
0.3069847 -0.037999829389086914 0.028412196958320562
0.3089846 -0.03891745937606976 0.02917448850481378
0.3109845 -0.039876544383615306 0.02907835151306394
0.3129844 -0.04041018565939711 0.029149562566532984
0.3149843 -0.04108906054898382 0.029086553185201088
0.3169842 -0.04200099117937112 0.028920793364485095
0.3189841 -0.04295955946466132 0.028636831859274226
0.320984 -0.0436023963538163 0.028127443911358345
0.3229839 -0.04391726678813097 0.02807382119849343
0.3249838 -0.04428163068188673 0.028406429712471308
0.3269837 -0.04465131942718334 0.028154549718950483
0.3289836 -0.045560195315327345 0.02775813925347862
0.3309835 -0.04549027956874299 0.02714891437022469
0.3329834 -0.045874391180532284 0.026468294404814012
0.3349833 -0.04554183920350515 0.025945881599615382
0.3369832 -0.04555971490994597 0.025708093710934438
0.3389831 -0.04546367270313625 0.025299493995935327
0.340983 -0.04563043136906603 0.025072935434205613
0.3429829 -0.044741955190323174 0.024418625556949222
0.3449828 -0.04438770929093091 0.02391463650900779
0.3469827 -0.0443335101221895 0.02429271282510491
0.3489826 -0.04424560043412107 0.024292916937133424
0.3509825 -0.04416636086948118 0.024062330078449913
0.3529824 -0.04356569727641154 0.024154590798232144
0.3549823 -0.0429230543319605 0.024065045099165905
0.3569822 -0.043050641583131766 0.024682538278961774
0.3589821 -0.04249895272305053 0.025264747360322547
0.360982 -0.04240840513069 0.02566917050796732
0.3629819 -0.042088686772045414 0.02611937434480855
0.3649818 -0.042188852916631936 0.026639632269098917
0.3669817 -0.042336155953654184 0.027506251454757435
0.3689816 -0.04288477412065888 0.027787785651699443
0.3709815 -0.042995790577786464 0.027887641434437928
0.3729814 -0.04280803802629385 0.028392924058166704
0.3749813 -0.04357089522788435 0.029138502648916355
0.3769812 -0.04440064480863034 0.029394827077723482
0.3789811 -0.044748430379777646 0.02910756981963273
0.380981 -0.04553746589655523 0.02951682680208763
0.3829809 -0.04614906333827888 0.029977996068113667
0.3849808 -0.046720264718277595 0.030615192515730534
0.3869807 -0.04760068370141808 0.03049786782761469
0.3889806 -0.047870327295719634 0.030419299894783862
0.3909805 -0.0485489878994901 0.030554974086581206
0.3929804 -0.04915013395441968 0.030258549687378344
0.3949803 -0.049710136271474095 0.030185106634385752
0.3969802 -0.05068816369329918 0.029767391748506684
0.3989801 -0.05072935803366063 0.029318366299143715
0.40098 -0.05120781124518403 0.02907959317145864
0.4029799 -0.051667439839603965 0.028737980516596158
0.4049798 -0.051818884553552214 0.02843583987717614
0.4069797 -0.052108731227236055 0.027728378226006115
0.4089796 -0.05220044818305487 0.02769561681009984
0.4109795 -0.05234860282931856 0.02723196651571622
0.4129794 -0.0524851458694854 0.02746562451248348
0.4149793 -0.052475455129839386 0.026753635367096795
0.4169792 -0.05210450724632393 0.026188590885061827
0.4189791 -0.051930814285027486 0.026208938243543582
0.420979 -0.05196856946955124 0.026293453607985115
0.4229789 -0.05190787879572029 0.026448301842466205
0.4249788 -0.051488348795521555 0.026557716692054284
0.4269787 -0.051473238300505056 0.026528661850137972
0.4289786 -0.05137654557790142 0.0269904980777892
0.4309785 -0.05137402933822441 0.027297254554793204
0.4329784 -0.05149288325579191 0.02756919956328239
0.4349783 -0.05154408394141376 0.027295373459912085
0.4369782 -0.05205888564855354 0.028202813469062546
0.4389781 -0.05209056659128982 0.028679637109179014
0.440978 -0.05272309655981677 0.028839575888725773
0.4429779 -0.05309768917099936 0.028877554148570586
0.4449778 -0.0538405370591339 0.02937374562841203
0.4469777 -0.0543440071233253 0.029505260707774983
0.4489776 -0.05488564772614905 0.029713853427136575
0.4509775 -0.0555391854144863 0.03021794930237883
0.4529774 -0.05607784521454581 0.030298076738347397
0.4549773 -0.05668097877054808 0.030168814612136663
0.4569772 -0.05720051953002182 0.03001645389446153
0.4589771 -0.05836026064787095 0.029449146120562143
0.460977 -0.0584923742213069 0.02933300268029364
0.4629769 -0.059307526301118796 0.029326900453264006
0.4649768 -0.05982893692485748 0.02827779160728359
0.4669767 -0.06021868400272773 0.02819290557883605
0.4689766 -0.06051043834937116 0.02767113729354356
0.4709765 -0.06140666956107656 0.027391745950984772
0.4729764 -0.0610960371709132 0.026585434201826668
0.4749763 -0.061461205520551274 0.02657112234317752
0.4769762 -0.061808236826783866 0.025848072834934416
0.4789761 -0.06153122969743757 0.025506485616594948
0.480976 -0.06161578437898316 0.02492012515019981
0.4829759 -0.0615928154462242 0.024559827491222028
0.4849758 -0.06156596187787347 0.024276718421484506
0.4869757 -0.061301550108416536 0.023923527602117422
0.4889756 -0.060900116072345224 0.02360310693547351
0.4909755 -0.060486214216441306 0.02347289990805364
0.4929754 -0.06022820853578431 0.02367115672513578
0.4949753 -0.06007613970038329 0.023659380575458324
0.4969752 -0.05983924596606744 0.023928070963590155
0.4989751 -0.05984682963353034 0.023922196504611408
0.500975 -0.059570852492738746 0.024321774604885642
0.5029749 -0.05963429014999899 0.024633425438119798
0.5049748 -0.059925163617103025 0.02503194489354501
0.5069747 -0.06022437715672439 0.025234944216255377
0.5089746 -0.06048223837812719 0.025385532491286097
0.5109745 -0.06043153364667525 0.025565293869143194
0.5129744 -0.060679140355245215 0.026110209810579557
0.5149743 -0.06102121862237367 0.02656609039953615
0.5169742 -0.06149753371300829 0.026798118902285083
0.5189741 -0.0622008030997903 0.026911694078048692
0.520974 -0.06298808407570879 0.026750652626210937
0.5229739 -0.06341952772487194 0.026647051212195235
0.5249738 -0.06397287707295907 0.026783059834038662
0.5269737 -0.06475303105138064 0.02681592407536436
0.5289736 -0.06565068122944065 0.02669243883877366
0.5309735 -0.06627950750954484 0.02636519549802951
0.5329734 -0.06689375468697718 0.025983808302419063
0.5349733 -0.06738279737675187 0.026011994009484833
0.5369732 -0.06806917590743508 0.025639025038008464
0.5389731 -0.06865613874391203 0.025314312455773386
0.540973 -0.06897235143947539 0.02446701746882359
0.5429729 -0.06967824835008261 0.023917597617666674
0.5449728 -0.07008512343582794 0.023392994493524322
0.5469727 -0.07024498827891229 0.02307423584505623
0.5489726 -0.07029940353556205 0.022421208172407857
0.5509725 -0.0703604962962804 0.02193106843852608
0.5529724 -0.07061224314843384 0.02152378739124716
0.5549723 -0.07045255069834444 0.020942654979619585
0.5569722 -0.07029243519628105 0.02060408705570883
0.5589721 -0.07003882643264818 0.020535568627494147
0.560972 -0.06979133943094123 0.020256046946245283
0.5629719 -0.06976571262185216 0.02017214128751411
0.5649718 -0.06916855814780166 0.01972383638160241
0.5669717 -0.06897279918662447 0.0199665072876261
0.5689716 -0.06905262361834924 0.020106034220460704
0.5709715 -0.06893289207758363 0.02002889716411228
0.5729714 -0.06918181185436054 0.020229293789438326
0.5749713 -0.06918051238756541 0.02026716093429634
0.5769712 -0.06935587515551303 0.020226344271001534
0.5789711 -0.06951772894179178 0.02040156951449467
0.580971 -0.06964304633392271 0.020928430714480153
0.5829709 -0.069944440338638 0.021335222193859547
0.5849708 -0.07032499399316135 0.0216124407219531
0.5869707 -0.070807359975637 0.021757077592989484
0.5889706 -0.07143837179442823 0.02167761830615697
0.5909705 -0.07196517685195875 0.021571971286697262
0.5929704 -0.07238447953741173 0.021478262387830748
0.5949703 -0.07297523932120623 0.02146620099339179
0.5969702 -0.07355935589318993 0.021414035128586827
0.5989701 -0.07453848173691038 0.021003318194105364
0.60097 -0.07454012332907535 0.0207112909398007
0.6029699 -0.0751984619881409 0.02049626204471944
0.6049698 -0.07589469611440991 0.019912266495642327
0.6069697 -0.07640746609320198 0.019386550829586836
0.6089696 -0.07675283686493846 0.01896439991406124
0.6109695 -0.0770349300487573 0.017966356625797687
0.6129694 -0.07732759101101912 0.017439961448984742
0.6149693 -0.07748893752314241 0.016785074889442135
0.6169692 -0.07763648974158763 0.01631310496523981
0.6189691 -0.07764994175901184 0.015691283988754384
0.620969 -0.0774053656014937 0.015315610351717787
0.6229689 -0.07743045189774769 0.014608280605813255
0.6249688 -0.07714938075071828 0.014238709596141586
0.6269687 -0.07689593224863558 0.01393569307164497
0.6289686 -0.07660873610844512 0.01377151206108609
0.6309685 -0.07601650545395564 0.013519503321556575
0.6329684 -0.0760886595200226 0.013629843246687545
0.6349683 -0.07581454602615909 0.01341614070171952
0.6369682 -0.07563829931273419 0.013219325486598963
0.6389681 -0.07549297747025596 0.013185443156869522
0.640968 -0.07521701046194229 0.013458503404005902
0.6429679 -0.0753020826832527 0.013877207400881178
0.6449678 -0.0752201426148721 0.013999375141053445
0.6469677 -0.07555897904892617 0.01442222275369021
0.6489676 -0.0757563589253403 0.01481817987628328
0.6509675 -0.07644699746486272 0.01530262391713804
0.6529674 -0.07681362446651258 0.015520497873230957
0.6549673 -0.07715101511312034 0.01582868353076565
0.6569672 -0.0775345570264656 0.01613508964899426
0.6589671 -0.07817429620677334 0.01619873394074905
0.660967 -0.07898336329948435 0.016205707215512555
0.6629669 -0.07976959629406105 0.0161734459069595
0.6649668 -0.08050846987973051 0.01598443065392602
0.6669667 -0.08139201899539711 0.015585303758450398
0.6689666 -0.0819204471940323 0.015021736122798772
0.6709665 -0.08233678493640283 0.014345146562498336
0.6729664 -0.08316295582109752 0.014049756295294702
0.6749663 -0.0836362485474024 0.013474400321615648
0.6769662 -0.08445287564903212 0.012398270232986217
0.6789661 -0.08523369479962332 0.011486888054511386
0.680966 -0.08556573644845997 0.010640497256882188
0.6829659 -0.08568680749466531 0.009961113186441262
0.6849658 -0.08580512249158687 0.008864039709482137
0.6869657 -0.08549157695343984 0.008134437556670784
0.6889656 -0.08555933500670873 0.007155510574515793
0.6909655 -0.08511537446078976 0.006751094376936856
0.6929654 -0.08522220792469087 0.006074198932734587
0.6949653 -0.08479329551419397 0.005657534271170269
0.6969652 -0.08438304962741135 0.005009538491786942
0.6989651 -0.08408335034823933 0.004488301717337658
0.700965 -0.0837147590757213 0.004138912470076191
0.7029649 -0.08313392789296148 0.0041065650765000905
0.7049648 -0.08269991687186147 0.003908328953305028
0.7069647 -0.08240961324613547 0.0037640666458993444
0.7089646 -0.08170488615510493 0.0037112821095549413
0.7109645 -0.08200279613947162 0.004033562621297882
0.7129644 -0.08186868258616893 0.004200244566991671
0.7149643 -0.08183694365958354 0.004204929844049701
0.7169642 -0.08190545929199637 0.004663642327189441
0.7189641 -0.08228088353529149 0.0051571984190991425
0.720964 -0.08261591786252934 0.0052411425666663986
0.7229639 -0.08273382057105123 0.005229692503167082
0.7249638 -0.08289165066024419 0.0055089551781022685
0.7269637 -0.08346436069202162 0.0060379975069845375
0.7289636 -0.08410325694291926 0.006066950190672993
0.7309635 -0.08458342728552279 0.0060774452044332974
0.7329634 -0.085209401812506 0.006080613061757417
0.7349633 -0.08600385541042091 0.0058239550444308015
0.7369632 -0.0867458740121278 0.005554855021046044
0.7389631 -0.08760202995449254 0.004908940150155208
0.740963 -0.08806528493337804 0.004173534523902036
0.7429629 -0.08868528625256533 0.0032837731283715844
0.7449628 -0.08915906162388634 0.0024838349402329894
0.7469627 -0.08978953290839671 0.0017390026403846966
0.7489626 -0.08993128677599012 0.0007430188674444407
0.7509625 -0.0902979046673219 0.0002089340922330346
0.7529624 -0.09086238591877364 -0.0007500278608461308
0.7549623 -0.0908083990378529 -0.0015626406195783545
0.7569622 -0.09067839150361093 -0.0024918883626526833
0.7589621 -0.0905450076687223 -0.0033163652781518643
0.760962 -0.09026903913549744 -0.0039569238313050675
0.7629619 -0.08993056772760513 -0.004695924603808625
0.7649618 -0.08938158329331228 -0.0055217761325199
