! Created with skrf 1.8.0 (http://scikit-rf.org).
# GHz S RI R 50.0 
!freq ReS11 ImS11
0.001 -0.9997701823200453 0.0008388357648753416
0.0029999 0.1722393580976107 -0.3014742917847753
0.0049998 0.896420571351458 0.3367592280826017
0.0069997 1.0211524065654007 0.11112114074722179
0.0089996 1.0137685804178462 0.04851304544622341
0.0109995 1.0191801155893017 0.05134804842527781
0.0129994 1.0210936573258103 0.058075745664402115
0.0149993 1.0212696138664084 0.0646341304576788
0.0169992 1.0223883232819722 0.07026396661209162
0.0189991 1.0217413080446054 0.07366360223034205
0.020999 1.0235379395561237 0.081758147078312
0.0229989 1.023265589538224 0.08864718538429406
0.0249988 1.0235300922194512 0.09537627426921966
0.0269987 1.0230644451171105 0.10152823523374083
0.0289986 1.0226344400304954 0.1093209440836504
0.0309985 1.0217033527098298 0.11680429337817809
0.0329984 1.0223204412517548 0.12259319958282447
0.0349983 1.0207886707588192 0.12789429848743686
0.0369982 1.0198604188311207 0.13658971955735458
0.0389981 1.0193697448498136 0.1425479557703998
0.040998 1.0169268465829944 0.15016650721779723
0.0429979 1.0177353830692792 0.1577041776514888
0.0449978 1.0159495481455076 0.1645170185598221
0.0469977 1.0142077385899453 0.1724203155222802
0.0489976 1.014262013395591 0.17987788952769734
0.0509975 1.0123573857123724 0.18586214239537402
0.0529974 1.0111272836874605 0.19206745722262616
0.0549973 1.0095073404043193 0.20007295429041222
0.0569972 1.0080758786445068 0.20727833138326757
0.0589971 1.005790245182321 0.21531791883501397
0.060997 1.0034895322857817 0.2214409182930952
0.0629969 1.003247420383855 0.22951553731938723
0.0649968 0.9996101321771962 0.23698408233746376
0.0669967 0.9991143849512409 0.24312899082369704
0.0689966 0.9971857970995271 0.24973902124099295
0.0709965 0.9941984672925537 0.2589971424766716
0.0729964 0.9947025719858206 0.26497199709902197
0.0749963 0.9918590276039234 0.27066486788659816
0.0769962 0.9894438911044126 0.2789711082177414
0.0789961 0.9888445070769306 0.28550748868471454
0.080996 0.9852956133031046 0.29372547038003527
0.0829959 0.983829533806202 0.29945863308849435
0.0849958 0.9816068046728509 0.30726303315998077
0.0869957 0.9801135030422037 0.31288598715257804
0.0889956 0.9770385558201418 0.31956636209188594
0.0909955 0.9758890339716431 0.32612354364299223
0.0929954 0.9729254963154542 0.33223230116796565
0.0949953 0.9711242408969886 0.3408314811464687
0.0969952 0.968911769973182 0.3464562700210435
0.0989951 0.9656272300729821 0.353541418052775
0.100995 0.9645300214849464 0.3599091399380053
0.1029949 0.9620339935480393 0.3653169208587622
0.1049948 0.9592447128918559 0.3730599945060285
0.1069947 0.9567286965769147 0.3795561497575057
0.1089946 0.9548464139387897 0.3863029408631951
0.1109945 0.9524278359167403 0.39354815602239646
0.1129944 0.949131611851956 0.39952303366782743
0.1149943 0.9463717648546796 0.406206196128668
0.1169942 0.944184782535305 0.412524402301828
0.1189941 0.9409617046959435 0.41954179122509017
0.120994 0.9380588565487518 0.4254469142505463
0.1229939 0.9350103067553843 0.43233009189141597
0.1249938 0.9323386830678725 0.43849017965884707
0.1269937 0.9282698604276965 0.44530937661297654
0.1289936 0.9258144256224745 0.45288770165796277
0.1309935 0.9214385079501483 0.45786059323023476
0.1329934 0.9201869994742454 0.46534737543335813
0.1349933 0.9151629147206588 0.4714071750413527
0.1369932 0.9120638699163227 0.47705095256349866
0.1389931 0.9090353424427065 0.4850915426489711
0.140993 0.9042780309304589 0.4902844658027392
0.1429929 0.9029231194730991 0.4972307560828279
0.1449928 0.8981935843058164 0.502515597229544
0.1469927 0.8948024645391429 0.5094316533607914
0.1489926 0.8903537064014464 0.5165716072546102
0.1509925 0.8872989028570964 0.5221214740194744
0.1529924 0.8831266563162257 0.527912469125548
0.1549923 0.8796585730489669 0.5351612217383698
0.1569922 0.8753697019475547 0.5414249251188749
0.1589921 0.8720320499975227 0.5463761598096456
0.160992 0.8665296133397583 0.5529354973228112
0.1629919 0.8637730102866571 0.5582157455238506
0.1649918 0.8602361858921654 0.5649817594883129
0.1669917 0.8558846338558445 0.5707646027136575
0.1689916 0.8524531300794528 0.5763883026828244
0.1709915 0.8489717198709679 0.583686250926525
0.1729914 0.8439793490851705 0.5880399042595168
0.1749913 0.8406555370097267 0.5950444789144065
0.1769912 0.8364022110252463 0.5994052709116096
0.1789911 0.8329954949039309 0.6055158328485545
0.180991 0.8291191423598396 0.6118171492760686
0.1829909 0.8244059849489457 0.6169159095535931
0.1849908 0.820229264718423 0.6230629818926939
0.1869907 0.8158019313697927 0.6278380339767762
0.1889906 0.8116727104615161 0.6338761565154971
0.1909905 0.8072137013676983 0.640062209910676
0.1929904 0.8028367793201742 0.6455298943446199
0.1949903 0.7977272228432069 0.6505900201099934
0.1969902 0.7941742143420556 0.6562666630216405
0.1989901 0.7895151132805414 0.6618674874272773
0.20099 0.7856793139909957 0.6675506840139711
0.2029899 0.78044331367823 0.6726565670882382
0.2049898 0.7751946640138712 0.6776472375624257
0.2069897 0.7712373924276956 0.6834827315077796
0.2089896 0.765806934548757 0.6887547126661028
0.2109895 0.7610213699806381 0.6935540295618967
0.2129894 0.7560098106371608 0.6998028470887095
0.2149893 0.751812679899173 0.7044724490290091
0.2169892 0.7449197954948881 0.7093508399245982
0.2189891 0.7405503637288193 0.7149352211090402
0.220989 0.7357941572508417 0.7201252929175989
0.2229889 0.731525083557295 0.7254941819446468
0.2249888 0.7263872224289929 0.730206578951284
0.2269887 0.7201696221730027 0.7353340142812972
0.2289886 0.7158874740197637 0.7400514918554265
0.2309885 0.710782471174546 0.7456246398367156
0.2329884 0.7041381649317231 0.7504238762493465
0.2349883 0.7000827768943259 0.7549170830573901
0.2369882 0.6943212800874863 0.7601203259318882
0.2389881 0.6892981940889251 0.7647973021423834
0.240988 0.6834794504892401 0.7686810716754802
0.2429879 0.6790851091697405 0.774122248165788
0.2449878 0.6734819073343535 0.7787790827518153
0.2469877 0.6688662877802674 0.783835995771822
0.2489876 0.6622452914202112 0.78699394694983
0.2509875 0.6573195638495761 0.7930388200270857
0.2529874 0.6518838662650184 0.7972811273024527
0.2549873 0.6466117176601344 0.8016820828593038
0.2569872 0.6410697214229151 0.8061849024841374
0.2589871 0.6358975383001441 0.8098913980857989
0.260987 0.6299154418386351 0.8143426999885306
0.2629869 0.6238261309774765 0.8187396577618933
0.2649868 0.617931705550676 0.8239949565335998
0.2669867 0.6131302560897022 0.8276658144570977
0.2689866 0.6070352128163988 0.831569945785967
0.2709865 0.6012188016596175 0.8356596081972811
0.2729864 0.596059739015553 0.8403737557192956
0.2749863 0.5900871716108927 0.8444164001450565
0.2769862 0.5841967095053513 0.848099647202872
0.2789861 0.579283851576388 0.8530275793686175
0.280986 0.5727649774104615 0.856891077121835
0.2829859 0.5668439654374138 0.8602566816088625
0.2849858 0.5603341629714658 0.8644037384700085
0.2869857 0.5542182573845201 0.8684236576033708
0.2889856 0.5477225789140484 0.8713955367383975
0.2909855 0.541577180575163 0.8759694885679337
0.2929854 0.5364823929583311 0.8795516991303172
0.2949853 0.5295436250323817 0.8832426424854036
0.2969852 0.5233001083423949 0.8859047866274503
0.2989851 0.5181527425180467 0.8901434185563238
0.300985 0.5111679212553837 0.8938446411759515
0.3029849 0.505710399849286 0.8975911423586392
0.3049848 0.49922778241392857 0.9003656404310949
0.3069847 0.49247923042955155 0.9027808384647811
0.3089846 0.48710364999282757 0.9068106561738949
0.3109845 0.480970200998742 0.9097518565615771
0.3129844 0.4739241949909904 0.9130797738211832
0.3149843 0.46778558515354046 0.9168158481223876
0.3169842 0.46091545328350203 0.9198570571288082
0.3189841 0.4536579780246381 0.9219576196338385
0.320984 0.4478535624479508 0.9259303448309901
0.3229839 0.44151552564791 0.9285584299407509
0.3249838 0.4362826290559785 0.9322297366601418
0.3269837 0.4286442584027303 0.9345790773893802
0.3289836 0.4224513539509959 0.9374250184613332
0.3309835 0.41698326583994627 0.9396759216748573
0.3329834 0.4104399211845979 0.9416038680044581
0.3349833 0.40436153351094284 0.9443882317075698
0.3369832 0.39772913512674213 0.9471499182723929
0.3389831 0.3912595480362119 0.9501288652851422
0.340983 0.38491271203022503 0.9529586257146713
0.3429829 0.37842995262520096 0.9558236357257569
0.3449828 0.37251466057521726 0.9579469869960984
0.3469827 0.3656537944665081 0.9613320525964153
0.3489826 0.35898703326640147 0.9636998583117466
0.3509825 0.3524019360426248 0.966422207960646
0.3529824 0.34594453278315096 0.9684923148630513
0.3549823 0.3393110912157491 0.9712803105482438
0.3569822 0.33199584770400065 0.974352042563425
0.3589821 0.3267014555737572 0.9762562421754526
0.360982 0.31968457807230394 0.9785839303108586
0.3629819 0.3124958189311613 0.980156436266491
0.3649818 0.3060987660493596 0.983334146966872
0.3669817 0.2991037450651645 0.9848390730574241
0.3689816 0.29269672969886523 0.9868048900746973
0.3709815 0.28584362928258467 0.988715363524418
0.3729814 0.28059719904642216 0.9901696965397211
0.3749813 0.2726209514659782 0.9928213473177518
0.3769812 0.26537797679400615 0.9939611515200196
0.3789811 0.2578423223500676 0.9953144806583468
0.380981 0.2517638558964188 0.9965061320521378
0.3829809 0.2446448970465861 0.9986342223822812
0.3849808 0.23904581839431988 1.0009925893826521
0.3869807 0.23104010637762223 1.001869086389998
0.3889806 0.22469690296421518 1.0033631166460901
0.3909805 0.21795373555182712 1.0057541451931984
0.3929804 0.21160626832442553 1.006500661400622
0.3949803 0.20451008167964216 1.0085949214291368
0.3969802 0.19786062614384808 1.0093378076234323
0.3989801 0.19065736650693588 1.010187596275472
0.40098 0.18385502111725238 1.0113945086084148
0.4029799 0.1770480036963121 1.0128196968338206
0.4049798 0.17055558663670123 1.0141320978937665
0.4069797 0.16381863061956972 1.0145029682817508
0.4089796 0.15640668949964207 1.0165571765905335
0.4109795 0.14952631486842427 1.016746966677452
0.4129794 0.1428981347507331 1.018902151887686
0.4149793 0.13583722837982734 1.019171939678096
0.4169792 0.129715770788631 1.0199462548070306
0.4189791 0.12282741010244688 1.0206477737923412
0.420979 0.11567661067769672 1.0212109690083522
0.4229789 0.10863663781410202 1.0221374559020628
0.4249788 0.10241178316534721 1.0227617252907468
0.4269787 0.09547756626170627 1.0237013289305565
0.4289786 0.08864230102021406 1.0240550382793052
0.4309785 0.08163135900610562 1.0249070303736743
0.4329784 0.07511560812041945 1.0249791643060915
0.4349783 0.06871991424186094 1.0253880804583788
0.4369782 0.061527633101363076 1.0262784470923039
0.4389781 0.05509445600653053 1.0271384548874338
0.440978 0.04762462030534293 1.0270404565508588
0.4429779 0.040640228462168845 1.0271343841545537
0.4449778 0.03359149998500392 1.026960362166676
0.4469777 0.02650859989691976 1.0270035696899462
0.4489776 0.01981987784887991 1.0277826126829075
0.4509775 0.012764365679021158 1.0283386818313596
0.4529774 0.006134334779707908 1.0283591315030642
0.4549773 -0.00031213556185214625 1.0279977706582641
0.4569772 -0.0073075114747095105 1.0281574879999216
0.4589771 -0.01418638768729566 1.0278012597067048
0.460977 -0.020977524813553895 1.0282021160247434
0.4629769 -0.028072637452938427 1.027538283604093
0.4649768 -0.03492886784955394 1.0268853229039971
0.4669767 -0.04134729896887976 1.02667400752765
0.4689766 -0.04846735940554845 1.0262686470719573
0.4709765 -0.05520840724361722 1.0258156104556349
0.4729764 -0.06128890687469597 1.025339764651598
0.4749763 -0.06834676855187424 1.025207841131083
0.4769762 -0.07536713214187143 1.0248475688055345
0.4789761 -0.08188726707642632 1.024617420297906
0.480976 -0.0890588181198326 1.0240447141340958
0.4829759 -0.09630256104910401 1.0230792062361345
0.4849758 -0.10273074145890956 1.0221398972785944
0.4869757 -0.10977466323162993 1.02179433261464
0.4889756 -0.1162711505483319 1.0208287916916046
0.4909755 -0.12269646692731065 1.0203095849896902
0.4929754 -0.12957886366523003 1.0194736261722532
0.4949753 -0.13628490082034955 1.018057118741187
0.4969752 -0.14310269566208994 1.0177016362090259
0.4989751 -0.14928987225057505 1.016583462330125
0.500975 -0.15553234744800604 1.0157176618688384
0.5029749 -0.16249415969243042 1.0145273450506882
0.5049748 -0.16924173782247232 1.0130982899812104
0.5069747 -0.17554010682815635 1.0118654463765944
0.5089746 -0.18205847166577346 1.0103355220789774
0.5109745 -0.1889647846959655 1.0094404417614684
0.5129744 -0.19557314821442856 1.0082712469449802
0.5149743 -0.20199973180093742 1.0073241685939014
0.5169742 -0.20829309624189607 1.0054177338074728
0.5189741 -0.21519837458338165 1.0040935296089313
0.520974 -0.22155776477540898 1.0025403229912238
0.5229739 -0.2282326949261056 1.001100788422785
0.5249738 -0.23469375150766777 0.9995166396718582
0.5269737 -0.24116001499780565 0.9978761629433651
0.5289736 -0.24777548404795535 0.9963111921439668
0.5309735 -0.25408295284929944 0.9939565540295614
0.5329734 -0.2604410295251255 0.9931315388383388
0.5349733 -0.26736952534489045 0.9911938144203161
0.5369732 -0.2735253664667969 0.9894426003963316
0.5389731 -0.2802295009606366 0.9877348562174636
0.540973 -0.2870191273600844 0.985527952518523
0.5429729 -0.2932218972159897 0.9839668069767571
0.5449728 -0.2997102142684102 0.9817117414949748
0.5469727 -0.3060756640124582 0.979819794743513
0.5489726 -0.3123646482272866 0.9779295286512678
0.5509725 -0.31874006501516217 0.976008381952851
0.5529724 -0.32512757997896 0.9736714525677175
0.5549723 -0.3314654043444405 0.9716684288677335
0.5569722 -0.337541217962308 0.9693238117959476
0.5589721 -0.3439510929950641 0.9672973339870429
0.560972 -0.35045654421023015 0.9650619656147569
0.5629719 -0.3567289673351727 0.9626372123836155
0.5649718 -0.3625451208458654 0.9603706064021296
0.5669717 -0.3690193764882766 0.9581683772242107
0.5689716 -0.37520773649627304 0.9558674233372036
0.5709715 -0.38097470293334673 0.9532731816401702
0.5729714 -0.3870244997119365 0.9509372280572232
0.5749713 -0.39343397072929703 0.9485737634721452
0.5769712 -0.3993310297452861 0.9454079041343828
0.5789711 -0.4052108439305318 0.9428135450447983
0.580971 -0.4114393082377857 0.9398565941447421
0.5829709 -0.41712252003722317 0.9378100771301506
0.5849708 -0.42368527973665143 0.9346771161299251
0.5869707 -0.42917805966833444 0.9321435107748381
0.5889706 -0.43520113177526587 0.9293226365459242
0.5909705 -0.4411548753634271 0.9264398293555154
0.5929704 -0.4472237196981086 0.9236227491192699
0.5949703 -0.4530791541992113 0.9209966518192857
0.5969702 -0.4588799452582397 0.9172848787145741
0.5989701 -0.4647376365386371 0.9144153029189361
0.60097 -0.4703967383131402 0.912052924257435
0.6029699 -0.47636065150751356 0.9089925565193558
0.6049698 -0.48211725904800723 0.906090403030791
0.6069697 -0.4873382440547247 0.9031315078546756
0.6089696 -0.4937256297833545 0.8999614889640226
0.6109695 -0.4992864815071097 0.8968307421792051
0.6129694 -0.5050591631344952 0.8933870354989742
0.6149693 -0.510579007222776 0.8899731431640163
0.6169692 -0.5166194912694215 0.8867942564424273
0.6189691 -0.5218788450789306 0.8835965089035445
0.620969 -0.5280178940996186 0.8804632893996236
0.6229689 -0.533163620044442 0.8769177793251519
0.6249688 -0.5388553682642655 0.8737615284671787
0.6269687 -0.5445111206282349 0.8702205295205595
0.6289686 -0.5500555109253445 0.8666600734677652
0.6309685 -0.5554353442952036 0.8632837154870817
0.6329684 -0.5609321212197016 0.8599156133076514
0.6349683 -0.5662761889629063 0.8565203823734708
0.6369682 -0.5715207975274886 0.8528983047344586
0.6389681 -0.577227012075715 0.8488966836094646
0.640968 -0.5818934715042143 0.8454286220250351
0.6429679 -0.5876440734915709 0.8412264460881423
0.6449678 -0.5926277307039596 0.8378314102248046
0.6469677 -0.5980528405995275 0.8340936438883858
0.6489676 -0.6034445437453001 0.830018995992243
0.6509675 -0.6083120133188565 0.8265368844791418
0.6529674 -0.613490779549331 0.8227689930977927
0.6549673 -0.6186834545795099 0.8187203272150009
0.6569672 -0.6235913571107161 0.8151082485047497
0.6589671 -0.6289500509924678 0.8112117870167677
0.660967 -0.6342361042389617 0.8070108765634939
0.6629669 -0.6389536918422479 0.8035052955602053
0.6649668 -0.6440417174433114 0.7991314181179581
0.6669667 -0.6488398240443403 0.7951944981393125
0.6689666 -0.653991131124022 0.7911041922639468
0.6709665 -0.65883076277441 0.7868870017518013
0.6729664 -0.6638917087310441 0.7828606743111132
0.6749663 -0.6687264560542107 0.7788717998061406
0.6769662 -0.6736736508955481 0.7748169341897115
0.6789661 -0.6782295284951182 0.7706350224258237
0.680966 -0.6830469666766511 0.7663427492001568
0.6829659 -0.6879240842059999 0.7621214766465887
0.6849658 -0.6927255308846035 0.75809874395463
0.6869657 -0.6972944303647891 0.7537042712955347
0.6889656 -0.7021217659385628 0.7491910092230372
0.6909655 -0.7065762170483997 0.7450132322904047
0.6929654 -0.7116176135308144 0.740511046332838
0.6949653 -0.7159563691217163 0.7362788447397627
0.6969652 -0.7206272128879322 0.7318413843840526
0.6989651 -0.7249402647900642 0.7277244071656482
0.700965 -0.7298380237660932 0.7228956110122163
0.7029649 -0.7340138880811206 0.71844375313106
0.7049648 -0.7384709088161203 0.713885418175886
0.7069647 -0.7427869648036037 0.7096543519906187
0.7089646 -0.7474611117329325 0.7048387958602517
0.7109645 -0.7515525649164287 0.7003193385777451
0.7129644 -0.7559929091100479 0.6955333973662619
0.7149643 -0.7601301418366947 0.6907459675449106
0.7169642 -0.7644904225044695 0.6859985765830983
0.7189641 -0.7687337703196777 0.6814921676902587
0.720964 -0.7727827504370963 0.6767507057456982
0.7229639 -0.7770608365923753 0.6718389386188997
0.7249638 -0.7811305399645406 0.6670793555513249
0.7269637 -0.785250781521108 0.6625173076205796
0.7289636 -0.7891532852815837 0.6577939929350886
0.7309635 -0.7931217613772205 0.6527352464780507
0.7329634 -0.797192228382219 0.6477672402625261
0.7349633 -0.801235858500484 0.6433421415657209
0.7369632 -0.8050436924333221 0.6383461754564101
0.7389631 -0.8089766030899614 0.6332442390085092
0.740963 -0.8126152324474635 0.6285181460884224
0.7429629 -0.8164282779998483 0.623505361058123
0.7449628 -0.8203182651546578 0.6187251161650882
0.7469627 -0.8242751719069171 0.6136572283451792
0.7489626 -0.8280531145428994 0.6085666142678482
0.7509625 -0.8318904728272164 0.603845852886349
0.7529624 -0.8357061696904834 0.5985076667862046
0.7549623 -0.8391449239956535 0.5935183358665111
0.7569622 -0.8429805545393091 0.5888826226307773
0.7589621 -0.8466342439944032 0.5833868283548088
0.760962 -0.8503541798450213 0.5784306382256724
0.7629619 -0.8538169828795296 0.573446693061204
0.7649618 -0.8571500093612973 0.5680138018343622
0.7669617 -0.8609870339379884 0.5629479350543173
0.7689616 -0.8645496248127483 0.5576449554619698
0.7709615 -0.8679547092861524 0.5525017586131764
0.7729614 -0.8709031012010976 0.5472913810538743
0.7749613 -0.8746981938139484 0.542212270159975
0.7769612 -0.878185825852352 0.5368258080208694
0.7789611 -0.8813138809128732 0.5317028770318402
0.780961 -0.8845157629610375 0.5262695457077327
0.7829609 -0.8876716721850034 0.5212419735859876
0.7849608 -0.8906640496603203 0.5159190806521581
0.7869607 -0.8937603014804639 0.5106645182003396
0.7889606 -0.897070182492786 0.5050314167663089
0.7909605 -0.9001316254538526 0.4997188127905149
0.7929604 -0.9030389158075569 0.494389885516762
0.7949603 -0.9059088329179252 0.48880606434601054
0.7969602 -0.9088429177639807 0.4835251836757787
0.7989601 -0.9120397703421983 0.4780557944476506
0.80096 -0.9148269374864758 0.4726262467136417
0.8029599 -0.9174866024221774 0.46724609222239966
0.8049598 -0.9202348707833774 0.4617063799110872
0.8069597 -0.9228260712740208 0.45608363970926313
0.8089596 -0.9257201965826324 0.4504947364688896
0.8109595 -0.9287217208030984 0.44522787504857975
0.8129594 -0.931324590434635 0.4395094021485072
0.8149593 -0.9339145285818762 0.4339803875258394
0.8169592 -0.936527028876727 0.42839193300513867
0.8189591 -0.9390430738544777 0.4229402092481371
