! Created with skrf 1.8.0 (http://scikit-rf.org).
# GHz S RI R 50.0 
!freq ReS11 ImS11
0.001 -1.0013755682783128 -0.0022162181289852034
0.0029999 -0.9717514077223232 0.05480207242256713
0.0049998 -0.862614662356213 0.22913487662658888
0.0069997 -0.541832836722929 0.48118042270705524
0.0089996 -0.022736362995881165 0.26411891567061296
0.0109995 0.07827098433450305 0.10450212788654227
0.0129994 0.11996307595752614 0.023399433341365815
0.0149993 0.05973245834679163 -0.020387899176774076
0.0169992 0.04619058927653356 -0.04613751839009378
0.0189991 0.02257733635849931 -0.05347699164943479
0.020999 0.015970902587900043 -0.06354985562117538
0.0229989 0.0027314584900776924 -0.06201261110875884
0.0249988 -0.012979381087860913 -0.06312824314165671
0.0269987 -0.015730634579502155 -0.06196306474212414
0.0289986 -0.02284923095677434 -0.060443509752072556
0.0309985 -0.0279912233247034 -0.06168702584585689
0.0329984 -0.028292408376577524 -0.055286846820142475
0.0349983 -0.02461084804829281 -0.05088172798021869
0.0369982 -0.02996956885861083 -0.049574460131165565
0.0389981 -0.02831107631528702 -0.04527009476723509
0.040998 -0.029257917958248007 -0.038935391711223025
0.0429979 -0.0294406911694258 -0.039880484793800394
0.0449978 -0.026686178915657943 -0.03369588008958985
0.0469977 -0.028175217234291644 -0.033450415623403625
0.0489976 -0.025934902790357275 -0.02870703897992466
0.0509975 -0.023018655940011883 -0.026064335208030982
0.0529974 -0.027815961731374194 -0.02456543784386501
0.0549973 -0.018418461529917836 -0.023755797500702922
0.0569972 -0.020126087035033224 -0.019356923982802244
0.0589971 -0.01912555573965469 -0.019568816136830956
0.060997 -0.01854295850214939 -0.018937530335160567
0.0629969 -0.01662785881494959 -0.01534156998407271
0.0649968 -0.01662436524461935 -0.017053368544704656
0.0669967 -0.013564555233084814 -0.01400129738648554
0.0689966 -0.014190238329695293 -0.015045931797998194
0.0709965 -0.017933119779030754 -0.013590374859204453
0.0729964 -0.014387592269621432 -0.011691179305336636
0.0749963 -0.012648721895474873 -0.014658087343620169
0.0769962 -0.013585269111328277 -0.013297759407839099
0.0789961 -0.012168658784394937 -0.010595513892981377
0.080996 -0.013278445620179788 -0.011675855309808879
0.0829959 -0.013499916541342524 -0.011595894396019438
0.0849958 -0.01527526013205951 -0.009853552770834665
0.0869957 -0.013868584153680058 -0.009520092705283253
0.0889956 -0.01526519246278423 -0.011342907084788304
0.0909955 -0.014230716795409552 -0.008644457278549723
0.0929954 -0.014986629909487181 -0.01022537185726621
0.0949953 -0.017931426929533898 -0.00805067678645658
0.0969952 -0.016596329332221566 -0.0070872247810363186
0.0989951 -0.018235374656780337 -0.009770617506576762
0.100995 -0.01676405595146354 -0.008446084569862948
0.1029949 -0.017133106009330063 -0.00793002746439245
0.1049948 -0.017095240834498343 -0.006514311746568201
0.1069947 -0.017957543965794038 -0.005690769986218528
0.1089946 -0.018359814121141866 -0.005212981753207046
0.1109945 -0.01912343409827078 -0.0027053081111717172
0.1129944 -0.01941324823589658 -0.0025790698884413867
0.1149943 -0.02024875350026055 -0.001784101424760752
0.1169942 -0.02013099443153092 -0.00043062197308172886
0.1189941 -0.02115859376263749 0.0007311513527283172
0.120994 -0.021802043493800553 0.0013766827918879811
0.1229939 -0.022512297303302776 0.0010362135946725805
0.1249938 -0.023032564198141394 0.00283095334590373
0.1269937 -0.023131887658311884 0.001333072073097307
0.1289936 -0.02324057518165519 0.0036447791425269337
0.1309935 -0.024192657796032493 0.0029426496306773292
0.1329934 -0.024355142027729718 0.004039441088366473
0.1349933 -0.023071652416272265 0.004553541612772236
0.1369932 -0.02400991379355013 0.003909853824113061
0.1389931 -0.025116801271678868 0.00515671146298601
0.140993 -0.024666836400797178 0.005082285458931776
0.1429929 -0.024216306208589455 0.006159573572851869
0.1449928 -0.02365446341074662 0.005188742429051944
0.1469927 -0.02450811746395853 0.006472892097344605
0.1489926 -0.02312306390449329 0.005842899031347852
0.1509925 -0.023771377793280053 0.006364077755337445
0.1529924 -0.022238753565787965 0.005814654142933563
0.1549923 -0.022106133376203686 0.00637065451078771
0.1569922 -0.02407911176794747 0.007015847490058225
0.1589921 -0.022646087048973425 0.0066197627467637
0.160992 -0.02414470399963593 0.00680659787374231
0.1629919 -0.022366704447043712 0.006609840138794346
0.1649918 -0.02279205155508112 0.007282735781752705
0.1669917 -0.023256440015820844 0.007779968503044696
0.1689916 -0.022749906679167833 0.007790327201022239
0.1709915 -0.02313333197068467 0.008803456180299376
0.1729914 -0.023313615015913346 0.00790711230702936
0.1749913 -0.023398154487312018 0.008928229551239137
0.1769912 -0.02395509548241718 0.009606489936271478
0.1789911 -0.02397981953142899 0.00916525462870464
0.180991 -0.024371370722927638 0.01034759485937603
0.1829909 -0.024672176822720302 0.010425149498094095
0.1849908 -0.025200977440928 0.010934609088563892
0.1869907 -0.025327211383713858 0.010384844465646408
0.1889906 -0.026118692280871374 0.011686645903656544
0.1909905 -0.026557100802687 0.012076719280021176
0.1929904 -0.02719810090481586 0.01259303195744584
0.1949903 -0.02744397716316905 0.012092580700321421
0.1969902 -0.027682004120669994 0.012488716088678077
0.1989901 -0.02828773600150522 0.013172182527507674
0.20099 -0.028226926867166078 0.014325417293933128
0.2029899 -0.02865786102583589 0.013282806365133452
0.2049898 -0.03004793201070773 0.013836573320596273
0.2069897 -0.029647901176565395 0.014038204257579656
0.2089896 -0.029897957468972308 0.014344111692014211
0.2109895 -0.029605361198992604 0.01463899567988381
0.2129894 -0.030397480318695318 0.015188973582111192
0.2149893 -0.030132945250771447 0.015160619679199778
0.2169892 -0.030874896071132685 0.015416960740605307
0.2189891 -0.0302469861227258 0.015134205116563675
0.220989 -0.03018267088943931 0.015624393003002845
0.2229889 -0.03092939127950261 0.016950311651978148
0.2249888 -0.03029937003197207 0.015998840579457045
0.2269887 -0.03051833803047975 0.016387867696961836
0.2289886 -0.03096098535992413 0.01644542669861697
0.2309885 -0.03060067862094238 0.016720142285241713
0.2329884 -0.030691886223701136 0.016682063545305978
0.2349883 -0.03080372054293093 0.016919493318666472
0.2369882 -0.03122077599564468 0.017490327193901832
0.2389881 -0.030889162727154168 0.01709510232652657
0.240988 -0.031412363896094204 0.016823357039617154
0.2429879 -0.031086326108281614 0.01758505128312983
0.2449878 -0.0316379031583678 0.017440458286297797
0.2469877 -0.03146170708777617 0.017581967077358457
0.2489876 -0.03178473592642363 0.01700051034796465
0.2509875 -0.03145586224998248 0.017580136865755658
0.2529874 -0.03203073664253292 0.017459542661494416
0.2549873 -0.031999322442767555 0.017884475120905498
0.2569872 -0.03202822146794062 0.017483746280892477
0.2589871 -0.032481455499051126 0.018263934671603768
0.260987 -0.03223136115370673 0.01799458016844364
0.2629869 -0.032466591975395524 0.018098681106434103
0.2649868 -0.03289974069033329 0.018606398973353686
0.2669867 -0.033256881150145606 0.0186602791413601
0.2689866 -0.0332096861163199 0.01895141173665237
0.2709865 -0.03325789270556772 0.01928051019433751
0.2729864 -0.032778885923307854 0.019711463306163055
0.2749863 -0.03317223511922306 0.01998692127334038
0.2769862 -0.03353567799190869 0.02057101995371507
0.2789861 -0.032943109823927556 0.021910073996592856
0.280986 -0.033764345450829146 0.021691294508620278
0.2829859 -0.03336783183439857 0.02171636421701014
0.2849858 -0.03417451702084513 0.022586802518892696
0.2869857 -0.034351695049025764 0.02283330363115089
0.2889856 -0.034326943649236746 0.02300295056271469
0.2909855 -0.0349803364324579 0.023688968067114277
0.2929854 -0.03491436483856784 0.024791284260154117
0.2949853 -0.03522699264645246 0.024496639552325505
0.2969852 -0.03578968711646152 0.024749272840980427
0.2989851 -0.03608684397681429 0.02574718393827154
0.300985 -0.03683151165425845 0.026019277393010062
0.3029849 -0.037563051632227354 0.027047240221187326
0.3049848 -0.038354467952816676 0.026625015536136817
0.3069847 -0.03889613047140856 0.02638840664182224
0.3089846 -0.03935316878190605 0.026971205232686372
0.3109845 -0.04024231121723429 0.026790135010785594
0.3129844 -0.04047285401625497 0.02663665640366537
0.3149843 -0.040996021028144224 0.02698552012803592
0.3169842 -0.041999073225954406 0.026728679053440306
0.3189841 -0.04282122291998675 0.026509937378488155
0.320984 -0.043632077067463686 0.02643347383813798
0.3229839 -0.043744586008618455 0.02628726681080166
0.3249838 -0.04427732572649903 0.026586493700247148
0.3269837 -0.0448890653698235 0.026426200732674238
0.3289836 -0.045835346766754444 0.02632697943942458
0.3309835 -0.04596150853776665 0.025457610852018593
0.3329834 -0.04608852171414744 0.02566459840896555
0.3349833 -0.046187692820919 0.025333403651714968
0.3369832 -0.04588663629686547 0.025344175204823606
0.3389831 -0.04527471705264251 0.025101942793618923
0.340983 -0.04520195093395486 0.024931678332326197
0.3429829 -0.044428774515385225 0.024530501431964818
0.3449828 -0.0438781627634803 0.02404143385883819
0.3469827 -0.04406205699241014 0.024487220371564634
0.3489826 -0.04358913302335572 0.024220496484337915
0.3509825 -0.043772569790568636 0.02406513601220827
0.3529824 -0.04340104195735671 0.023885867846584516
0.3549823 -0.04304805930814999 0.02416411979026076
0.3569822 -0.04312293510465552 0.02448994329546054
0.3589821 -0.04304552893485157 0.02494366775716212
0.360982 -0.04289539333779048 0.025274018662443457
0.3629819 -0.042836119141032476 0.02559006118596294
0.3649818 -0.04304421020860082 0.026143294215504646
0.3669817 -0.04356004301544639 0.0260471046498611
0.3689816 -0.04371231350471495 0.02701073275698794
0.3709815 -0.043914859273327715 0.027157527392929925
0.3729814 -0.043981506532588394 0.02734414234156539
0.3749813 -0.04458631230224311 0.028339784773232117
0.3769812 -0.04556613223941705 0.02858022762524502
0.3789811 -0.04630484893927754 0.028399677501404944
0.380981 -0.04654763766114446 0.02871299268757665
0.3829809 -0.04742189052411499 0.028912941993832077
0.3849808 -0.0473710553093363 0.029856643380201234
0.3869807 -0.048301592830186216 0.029361406577932857
0.3889806 -0.04886323495996671 0.029436516767172537
0.3909805 -0.049396431562299246 0.029383835306075915
0.3929804 -0.049963752957280075 0.02921533649611866
0.3949803 -0.050572332675079414 0.02907588995489343
0.3969802 -0.051277990709622606 0.028168387687153962
0.3989801 -0.05126243682331967 0.028308195057391572
0.40098 -0.051715243676813065 0.02796340309980464
0.4029799 -0.05209912461155596 0.027593768328559302
0.4049798 -0.05219910161587234 0.02739214518898761
0.4069797 -0.05246602792584439 0.026680761439737244
0.4089796 -0.052488260562213666 0.026384521930887184
0.4109795 -0.05284620368179331 0.02640921659773589
0.4129794 -0.05252039417617231 0.026223931598487932
0.4149793 -0.05262880250627093 0.025755649500851054
0.4169792 -0.05249867618715008 0.025199628436318573
0.4189791 -0.05249981662231103 0.025348580849288396
0.420979 -0.052371264405052395 0.02536100326340975
0.4229789 -0.05245672951729594 0.02553121191575176
0.4249788 -0.052359195112176266 0.02583515854695264
0.4269787 -0.05236033319952476 0.026033186353411106
0.4289786 -0.05223930777575438 0.026258393258020096
0.4309785 -0.05238059886696374 0.026620287215776108
0.4329784 -0.052381639546189934 0.02689956907373741
0.4349783 -0.052726199456356454 0.026932020365791398
0.4369782 -0.05308537980253979 0.027377734119914628
0.4389781 -0.05329316245262214 0.02807416976325776
0.440978 -0.053628417207387924 0.028161148268798113
0.4429779 -0.05395391004164036 0.02825291972075808
0.4449778 -0.05488208745765655 0.02893317027969543
0.4469777 -0.055417791507911617 0.028835209327387396
0.4489776 -0.05609967072656668 0.028929259059511943
0.4509775 -0.05627971433188577 0.02960969245849994
0.4529774 -0.057178213707271205 0.029740614374123193
0.4549773 -0.05771347550249304 0.029521981165066265
0.4569772 -0.05809378183416433 0.029073432034800607
0.4589771 -0.05903368398541697 0.02919954652381713
0.460977 -0.059582101524352754 0.028614063235944752
0.4629769 -0.06011327656094932 0.028658804713369155
0.4649768 -0.06072455794586796 0.027612512912102632
0.4669767 -0.06087558677445625 0.027687204389634117
0.4689766 -0.061552138084987114 0.027205965092197318
0.4709765 -0.06190780327896342 0.026702323376843216
0.4729764 -0.0617567978819636 0.026209005784093284
0.4749763 -0.061965690596264764 0.026135593076439718
0.4769762 -0.06220630764884324 0.025570928066667536
0.4789761 -0.062155468304653114 0.02480430717506576
0.480976 -0.06211591695269689 0.024630728095651405
0.4829759 -0.06214851466835232 0.024193372308978684
0.4849758 -0.06208975487451505 0.02392720653803174
0.4869757 -0.061866625783392803 0.02364744425937522
0.4889756 -0.06144327453936575 0.023449039394169934
0.4909755 -0.0610068682692717 0.02331622582226701
0.4929754 -0.06113117223716594 0.02337116147852309
0.4949753 -0.06081836742250045 0.02338010633650022
0.4969752 -0.060709407860316256 0.023621329276680193
0.4989751 -0.060757660381695326 0.02362354569803168
0.500975 -0.06064006792302762 0.02383809829496204
0.5029749 -0.06080195794002609 0.02419412563514733
0.5049748 -0.061229380607161425 0.024507950808238133
0.5069747 -0.06164708155947938 0.02501304733440204
0.5089746 -0.06209577054491916 0.025064566634310368
0.5109745 -0.062275756346109844 0.025164673921557554
0.5129744 -0.06265771809412708 0.025681478662044458
0.5149743 -0.0632779419691615 0.026186484651150324
0.5169742 -0.06378171613672971 0.02650777999670856
0.5189741 -0.0648710187555231 0.026818708287743565
0.520974 -0.06530038275806797 0.02678868661944803
0.5229739 -0.0656210229941443 0.02692205098852066
0.5249738 -0.06621051272056898 0.02744222927314214
0.5269737 -0.06692972938496666 0.02727432640905674
0.5289736 -0.06758880891281846 0.027632653025707266
0.5309735 -0.06793604157527364 0.027260426947645203
0.5329734 -0.0682764632701366 0.026966525073996196
0.5349733 -0.06883980115291805 0.026822953131373877
0.5369732 -0.0694724836143977 0.026418868481318723
0.5389731 -0.06984553268759303 0.02595062301343911
0.540973 -0.07019535476436903 0.02508657641540163
0.5429729 -0.07035560214077886 0.02462120293297916
0.5449728 -0.07100656475868224 0.02386283585795979
0.5469727 -0.07110027453885062 0.02341312023566707
0.5489726 -0.07108682260082057 0.022750095205618104
0.5509725 -0.07123771450747747 0.022272263202630153
0.5529724 -0.07136183266073381 0.02189474204553923
0.5549723 -0.07125377537014911 0.02141324256523391
0.5569722 -0.07122302290398856 0.02088535081024481
0.5589721 -0.07083365849520384 0.020712303131906952
0.560972 -0.07063161744488157 0.020569622223398185
0.5629719 -0.07035904780372047 0.020139849244772877
0.5649718 -0.07007529193729353 0.020107129606853447
0.5669717 -0.06982567411292458 0.020202672212461387
0.5689716 -0.06992032004981888 0.02045399035544704
0.5709715 -0.06975128298076062 0.020388616384792137
0.5729714 -0.06990320350620774 0.02063394964637458
0.5749713 -0.06998331121211425 0.02053208534864675
0.5769712 -0.07023686239694593 0.020470935842743974
0.5789711 -0.07064066398354682 0.020717391898562833
0.580971 -0.07074943063155173 0.021155132923652852
0.5829709 -0.07083279640457896 0.02161749052012965
0.5849708 -0.07121731970332142 0.021963802855377457
0.5869707 -0.07179929197886861 0.022162525949174755
0.5889706 -0.07244935651845782 0.02194849806102082
0.5909705 -0.07281763265961598 0.02188649743297181
0.5929704 -0.07401109462063069 0.021789934005574028
0.5949703 -0.07422225253128775 0.021748064439805072
0.5969702 -0.07491942897568488 0.021277977426562292
0.5989701 -0.07536930471511175 0.021476351769228696
0.60097 -0.07587486753983107 0.021103771379895688
0.6029699 -0.07660126128987657 0.020890616489456986
0.6049698 -0.07705815788392825 0.020407683452868024
0.6069697 -0.07736011457847193 0.019828010852011052
0.6089696 -0.07780781986935874 0.019430210085834027
0.6109695 -0.07812824079274225 0.018561038316260266
0.6129694 -0.07853886998627421 0.018089946908676113
0.6149693 -0.07876001984281035 0.01742718045796443
0.6169692 -0.07868676780630987 0.016919403776773784
0.6189691 -0.0786163141879122 0.016314859188790255
0.620969 -0.07874486686293261 0.015939160549626397
0.6229689 -0.07835087177982931 0.015083200581605297
0.6249688 -0.07813121890948453 0.014844530993462751
0.6269687 -0.07798116335888375 0.014566775469662716
0.6289686 -0.07752694939359073 0.014178884941123782
0.6309685 -0.07715182592343543 0.014121212510623371
0.6329684 -0.07717069885937178 0.014387757019555907
0.6349683 -0.07681328427784895 0.014136228043089137
0.6369682 -0.07673061761461475 0.013978621993579847
0.6389681 -0.07650529703807421 0.013828684067002207
0.640968 -0.0763285159652194 0.0140805580046359
0.6429679 -0.07647259022895173 0.014441749945343162
0.6449678 -0.07655979815090803 0.014708516222130673
0.6469677 -0.07696410960712712 0.015211960565884378
0.6489676 -0.07711878733760481 0.015511074524599901
0.6509675 -0.07756233452353055 0.015931699675938424
0.6529674 -0.07817796128536672 0.016339256965646542
0.6549673 -0.07856455695830732 0.01638821382346656
0.6569672 -0.07902855428330832 0.016805542813269993
0.6589671 -0.07959768680045358 0.016831902487486373
0.660967 -0.08079585779867496 0.01687212344863481
0.6629669 -0.08141989672940035 0.016865128741118427
0.6649668 -0.08227425729929737 0.0163647715662278
0.6669667 -0.08325737497292096 0.01611047069615807
0.6689666 -0.08368594346160306 0.015535502127237585
0.6709665 -0.0841612253158416 0.01489092274079704
0.6729664 -0.08510174666898662 0.014524609030281545
0.6749663 -0.08569715801925501 0.013812819597450423
0.6769662 -0.08618660161507566 0.012991850855588322
0.6789661 -0.08724862475594604 0.011923956231019123
0.680966 -0.08727835182776927 0.011212070086884306
0.6829659 -0.08744813504941201 0.010577710616305823
0.6849658 -0.08749399920881573 0.00947028165648197
0.6869657 -0.08730419665293798 0.008722582369564736
0.6889656 -0.08736555171482101 0.007823284235000377
0.6909655 -0.08706258015220747 0.007336098454475536
0.6929654 -0.0869112347545996 0.006672529867433122
0.6949653 -0.08655769025996195 0.006319513434147436
0.6969652 -0.0861537763915609 0.005653026227715664
0.6989651 -0.08581391704831912 0.005162456257121209
0.700965 -0.08548077515796063 0.004937405307561472
0.7029649 -0.08510832057820855 0.004753109620078501
0.7049648 -0.08469504812630654 0.004399901461590482
0.7069647 -0.08411963618910963 0.004545964245521148
0.7089646 -0.08352166156766547 0.004617461916328801
0.7109645 -0.0836444383420737 0.004857733443734597
0.7129644 -0.0837784278139535 0.0051136022829613575
0.7149643 -0.08370900990449806 0.005179930253823944
0.7169642 -0.08389424236724505 0.005643977407607817
0.7189641 -0.08414804433098784 0.0059769157043806295
0.720964 -0.08446689938822158 0.006134685793539919
0.7229639 -0.08470502188948151 0.006112878577394273
0.7249638 -0.08513143120142241 0.006473945474883239
0.7269637 -0.08561857797451752 0.0067371537864802655
0.7289636 -0.08643660807096376 0.007039562324727369
0.7309635 -0.08674424794634174 0.006924849664185752
0.7329634 -0.08760376111806856 0.006993442663058506
0.7349633 -0.08852464979679577 0.006611755967229321
0.7369632 -0.08934744658942398 0.0065457448372337815
0.7389631 -0.09027118315179689 0.005900224360795986
0.740963 -0.09105616644212536 0.005273687176455766
0.7429629 -0.09138971347082085 0.004458878807078629
0.7449628 -0.09207171698322507 0.0036581455716819637
0.7469627 -0.09272299366945648 0.0028625602622360073
0.7489626 -0.0929928156562444 0.0019079168070912887
0.7509625 -0.09358053745178116 0.0014024468856673501
0.7529624 -0.09393600310702713 0.00037395453383000724
0.7549623 -0.0938839990155725 -0.0002749821369009836
0.7569622 -0.093719799489389 -0.0011820528615763444
0.7589621 -0.09349544544118468 -0.002035648781140119
0.760962 -0.09316921542306077 -0.0027126747004921105
0.7629619 -0.09262669228804049 -0.003354354968156545
0.7649618 -0.09233232981050653 -0.004049991601422203
