! Created with skrf 1.8.0 (http://scikit-rf.org).
# GHz S RI R 50.0 
!freq ReS11 ImS11
0.001 -1.0000357712958625 0.0005272749234169918
0.0029999 -1.0004388877105017 -0.0005311579543448783
0.0049998 -0.9953009374353223 -0.00395839479246235
0.0069997 -1.0125165071452515 -0.0013427275623545398
0.0089996 -1.017642705910533 -0.020103668070143396
0.0109995 -1.0229670279415124 -0.029258572064492033
0.0129994 -1.0252213783340898 -0.036916545029901535
0.0149993 -1.0243579743611753 -0.04424681367984393
0.0169992 -1.0261205238825635 -0.05135450430104872
0.0189991 -1.027586384135472 -0.05869656690701138
0.020999 -1.0280065707486064 -0.064610469224207
0.0229989 -1.027863027684325 -0.070956321643532
0.0249988 -1.028160775450295 -0.07642594015418688
0.0269987 -1.0280428786928157 -0.08295628591702887
0.0289986 -1.0277340081101682 -0.0880717580413925
0.0309985 -1.028424360956351 -0.09373902460372088
0.0329984 -1.0274564152558148 -0.10007624657865852
0.0349983 -1.0267191547810604 -0.10712088412681202
0.0369982 -1.0261367483788577 -0.1127965238719749
0.0389981 -1.025824777392153 -0.118628637499117
0.040998 -1.0249981075486012 -0.12385983251118116
0.0429979 -1.0245237999550991 -0.12927969332963365
0.0449978 -1.0231847151989266 -0.13569649969845082
0.0469977 -1.0225227365712837 -0.13999266770343838
0.0489976 -1.0215985870652673 -0.14610440269495256
0.0509975 -1.0210666890881877 -0.15359576176784212
0.0529974 -1.0206667373856673 -0.15874922208843767
0.0549973 -1.0199096540715658 -0.16634915142941403
0.0569972 -1.0182830631757762 -0.17047714876638048
0.0589971 -1.0182257574756557 -0.17607116942549916
0.060997 -1.017135920226398 -0.18275953055409022
0.0629969 -1.015749662488649 -0.18757432163770785
0.0649968 -1.016383940997592 -0.19385417633915714
0.0669967 -1.0131214484727713 -0.20072184714513153
0.0689966 -1.0133951916142176 -0.20542410932699548
0.0709965 -1.0122186572822511 -0.2090627552600789
0.0729964 -1.0101064908042265 -0.21648905858898018
0.0749963 -1.0106318853458984 -0.22336865663539743
0.0769962 -1.008975231682348 -0.22800805669788252
0.0789961 -1.0067444418334859 -0.2340365517009561
0.080996 -1.00662789410393 -0.23923220406817694
0.0829959 -1.0054886816288684 -0.24591044166457726
0.0849958 -1.0037297043909266 -0.25012311869301457
0.0869957 -1.0021378884330083 -0.2573659014835961
0.0889956 -1.0023666057207257 -0.26236776407627826
0.0909955 -0.9995429614821784 -0.2690327508860698
0.0929954 -0.9992847592784432 -0.2743401397376066
0.0949953 -0.9971049735783336 -0.2790868030938607
0.0969952 -0.995349725668693 -0.28561403648531086
0.0989951 -0.996375350976787 -0.2919322104711826
0.100995 -0.992904097100419 -0.2972772039100972
0.1029949 -0.9913345134613261 -0.3036757887303432
0.1049948 -0.9890968156516311 -0.3092291308672839
0.1069947 -0.9874972690216327 -0.3147057204447171
0.1089946 -0.9859728613674834 -0.3201230442105055
0.1109945 -0.9836946622980087 -0.3255871744150742
0.1129944 -0.9819204154746644 -0.33155240306177186
0.1149943 -0.9802417127283567 -0.33725032683856904
0.1169942 -0.9781404188253536 -0.3430424585294055
0.1189941 -0.975582841065421 -0.3483321601858092
0.120994 -0.9745861853683258 -0.354225449547432
0.1229939 -0.9726823225798885 -0.3598226139767963
0.1249938 -0.9701073986834434 -0.36486949319162315
0.1269937 -0.9693872107338244 -0.37072909037910345
0.1289936 -0.9652374606241375 -0.37620290070123713
0.1309935 -0.9647003779321247 -0.38153797219221525
0.1329934 -0.9613262920343197 -0.3863641220281807
0.1349933 -0.9602550860771943 -0.39242646217815697
0.1369932 -0.9579771319834853 -0.3983737665614091
0.1389931 -0.9552845104526971 -0.40231286289100154
0.140993 -0.9523536332021131 -0.40900511752601454
0.1429929 -0.9506064863433984 -0.4146794293363723
0.1449928 -0.9493173732222114 -0.41862751493120476
0.1469927 -0.9462979004158159 -0.42521435414266356
0.1489926 -0.9439734288611157 -0.4308467977322717
0.1509925 -0.9422923757477559 -0.43543166219170104
0.1529924 -0.9401382541159893 -0.4419027167818458
0.1549923 -0.9364424060598034 -0.44771892198821006
0.1569922 -0.9352815694918256 -0.4515376121445288
0.1589921 -0.932293594084484 -0.45790526437914114
0.160992 -0.9305337917584787 -0.46265639680539183
0.1629919 -0.9275159067866727 -0.4694168048613155
0.1649918 -0.9244735720180004 -0.4742492006433235
0.1669917 -0.9222607549492731 -0.47917582149166493
0.1689916 -0.9193489859514582 -0.48444398518271287
0.1709915 -0.9166896381757222 -0.490605131959712
0.1729914 -0.9147151458146863 -0.4958388365820858
0.1749913 -0.9108878849821004 -0.5003706060215289
0.1769912 -0.9089360977865177 -0.50672871076204
0.1789911 -0.9050247969261637 -0.5109476686083847
0.180991 -0.9023545801017279 -0.5165090445503193
0.1829909 -0.899632393363953 -0.5215015299625586
0.1849908 -0.8964989011005855 -0.5271056793210062
0.1869907 -0.8946286973126821 -0.5329835751702408
0.1889906 -0.8907718375351911 -0.5371750377580512
0.1909905 -0.8881160674199696 -0.5419964201632361
0.1929904 -0.8843815992683502 -0.5471033350002935
0.1949903 -0.8823026821229767 -0.5528138880706154
0.1969902 -0.8793360705269131 -0.5587505446451728
0.1989901 -0.8755472015689538 -0.5627170543057773
0.20099 -0.8723572962401229 -0.5670293801859547
0.2029899 -0.8686138763519072 -0.5737740320424604
0.2049898 -0.8659880509732213 -0.5783358164000137
0.2069897 -0.8629610824385926 -0.5828665073269669
0.2089896 -0.8599068888048222 -0.5885269420768817
0.2109895 -0.8566186706739105 -0.5926727725795808
0.2129894 -0.8528797549089646 -0.5973739080727991
0.2149893 -0.8490520112530945 -0.6030333467379388
0.2169892 -0.8464905629196859 -0.6072979546806113
0.2189891 -0.8422315528888608 -0.6130589061081564
0.220989 -0.8390474085123617 -0.6176093165067345
0.2229889 -0.8350235404121908 -0.6208953558881226
0.2249888 -0.831290857468454 -0.626879823995068
0.2269887 -0.8293615607147363 -0.6323381745905269
0.2289886 -0.8250854657424288 -0.6371615647273816
0.2309885 -0.8208586174977407 -0.6420882816300703
0.2329884 -0.8178823713299896 -0.6470978446586064
0.2349883 -0.8141202447491551 -0.6517533149948873
0.2369882 -0.8105396467330759 -0.6556692567021606
0.2389881 -0.8066813120628282 -0.661103538826639
0.240988 -0.8037874356860221 -0.6661404346430284
0.2429879 -0.7993723044499262 -0.6699613857924155
0.2449878 -0.7956783008205132 -0.6749817547887416
0.2469877 -0.7914352091686013 -0.679664748170569
0.2489876 -0.7882067558820329 -0.6854978546521255
0.2509875 -0.7838289755162385 -0.6893313587945873
0.2529874 -0.7800964842290958 -0.69356409151743
0.2549873 -0.7759674051908229 -0.6980310217477134
0.2569872 -0.7723584545769605 -0.7030480663188011
0.2589871 -0.7671861263720824 -0.7074779344597736
0.260987 -0.7637376561812055 -0.7124009364115286
0.2629869 -0.7597453511724269 -0.7174867784041514
0.2649868 -0.7552841850701645 -0.7211570453473412
0.2669867 -0.7522382183250218 -0.7255299942009678
0.2689866 -0.7479526105624562 -0.7301632841819626
0.2709865 -0.7437786803349017 -0.7343948039336231
0.2729864 -0.7389732192227576 -0.7387602410682088
0.2749863 -0.7353752202755902 -0.7439972734660439
0.2769862 -0.7308215231068962 -0.7479946844697845
0.2789861 -0.7256792087315318 -0.751313547869457
0.280986 -0.7219273197520736 -0.7559425197719224
0.2829859 -0.7180160691273916 -0.7614735146338363
0.2849858 -0.7139904703172786 -0.7643950255298283
0.2869857 -0.7092212951721392 -0.7694147949007136
0.2889856 -0.7046764726950698 -0.7740997967271624
0.2909855 -0.699867195219111 -0.7774686796646486
0.2929854 -0.6952079458259423 -0.7813444103539936
0.2949853 -0.6910320581444033 -0.7861932118595393
0.2969852 -0.686522498037585 -0.7909189664232017
0.2989851 -0.6814584364319185 -0.794090427661384
0.300985 -0.6767546101966304 -0.7983643733468262
0.3029849 -0.672005864523633 -0.8014793713810208
0.3049848 -0.6678712513101869 -0.8058200216308989
0.3069847 -0.6633832921427327 -0.8105141094581046
0.3089846 -0.6579617280742758 -0.8137800600286696
0.3109845 -0.6538775050948151 -0.8182024637135947
0.3129844 -0.6490711730489536 -0.822392719847186
0.3149843 -0.644386848321291 -0.8260203511134758
0.3169842 -0.6394862589572621 -0.8296578317114953
0.3189841 -0.6356020610322919 -0.8333707484249455
0.320984 -0.6307670825025743 -0.8374382620653471
0.3229839 -0.6260008578638311 -0.8411362289695918
0.3249838 -0.6198982442596632 -0.8453123572801466
0.3269837 -0.6148963425775117 -0.8489015189240171
0.3289836 -0.6099693797352757 -0.852415948365186
0.3309835 -0.6048647486107493 -0.8564328608059859
0.3329834 -0.6004780401733478 -0.8607681503519803
0.3349833 -0.5951601271504443 -0.8646414633595524
0.3369832 -0.590253890340604 -0.8668375727255533
0.3389831 -0.585311484055411 -0.8706664247881349
0.340983 -0.5798223651871011 -0.8738835779285757
0.3429829 -0.5748776661486087 -0.8772716781923726
0.3449828 -0.5703189961995966 -0.8814898268760595
0.3469827 -0.5651381147449542 -0.883520656078268
0.3489826 -0.5600621639316654 -0.8876772639547219
0.3509825 -0.5550669358287151 -0.8907434615614422
0.3529824 -0.5498175652628179 -0.8944334233401012
0.3549823 -0.5449714494322925 -0.8984492061231354
0.3569822 -0.5393050973046892 -0.9017098169280101
0.3589821 -0.5328998836787181 -0.9047252526051923
0.360982 -0.5275521174654858 -0.9079422310108657
0.3629819 -0.5225726823387102 -0.9114798007429138
0.3649818 -0.5171043132174481 -0.9148580371093703
0.3669817 -0.511461157371667 -0.9176678453243143
0.3689816 -0.506365095227472 -0.9208830909179598
0.3709815 -0.5013201638229915 -0.9242438458562013
0.3729814 -0.4944125916413737 -0.9277577989751755
0.3749813 -0.48945288667914866 -0.9299401289512488
0.3769812 -0.48478836808703724 -0.9328868990937348
0.3789811 -0.4801969039290451 -0.9367767272987126
0.380981 -0.47398926166871097 -0.9399694031118463
0.3829809 -0.46847071095868115 -0.9427501465467062
0.3849808 -0.4612985428564896 -0.9445767018239418
0.3869807 -0.4572326625679789 -0.948025684693756
0.3889806 -0.4508494501039496 -0.950441120190467
0.3909805 -0.44493777968678677 -0.9536098717774038
0.3929804 -0.4390509183035879 -0.955846887295919
0.3949803 -0.4336174248719645 -0.9584607738611681
0.3969802 -0.428457852938389 -0.9609094929402181
0.3989801 -0.4226937925614734 -0.9644471335960275
0.40098 -0.4164662395890978 -0.9667341531050198
0.4029799 -0.4112352157035977 -0.9689462420027116
0.4049798 -0.4049314834048267 -0.9716103983745566
0.4069797 -0.39986692124567214 -0.9751865293524912
0.4089796 -0.39419511025545306 -0.9771211134929236
0.4109795 -0.38776163151554427 -0.9794767656841086
0.4129794 -0.3825465612468783 -0.9811499411738731
0.4149793 -0.37653452223029055 -0.9841161382284344
0.4169792 -0.3707157941105281 -0.9876135565834557
0.4189791 -0.36430873048675416 -0.9896402388678978
0.420979 -0.3584634954055719 -0.9920936354174812
0.4229789 -0.35249900410762447 -0.9943939548114792
0.4249788 -0.34660252540502295 -0.9957733367398578
0.4269787 -0.34042604537487364 -0.9983869312598859
0.4289786 -0.33448103530625367 -1.0007001533852928
0.4309785 -0.32837300788673207 -1.002564461394805
0.4329784 -0.3222558225139272 -1.004844749952171
0.4349783 -0.316176703611246 -1.0070400309573015
0.4369782 -0.3104370099835249 -1.0088560329700296
0.4389781 -0.3037848665041783 -1.0106084489590152
0.440978 -0.2980055103911207 -1.012758951330234
0.4429779 -0.2923882861552034 -1.0148998283173984
0.4449778 -0.28619040725038636 -1.0168531693458907
0.4469777 -0.28076544973280726 -1.0190959916354958
0.4489776 -0.27391316588395825 -1.020796885069198
0.4509775 -0.26712874041902535 -1.0219093524594247
0.4529774 -0.2616540062192375 -1.023269545441101
0.4549773 -0.2547428912115789 -1.0253901712260267
0.4569772 -0.24805420806077105 -1.0277759233439832
0.4589771 -0.2426880638183354 -1.0293264491294323
0.460977 -0.235439401660222 -1.0303225617686118
0.4629769 -0.2296492345191416 -1.0312668620956043
0.4649768 -0.22338380487700793 -1.0341522433240933
0.4669767 -0.21770932562000012 -1.035389097840955
0.4689766 -0.2114715505133089 -1.0362751765418934
0.4709765 -0.2053790201729968 -1.0374508768825252
0.4729764 -0.19872830267374098 -1.0388486124244922
0.4749763 -0.19226573589806206 -1.039824823494239
0.4769762 -0.1864944993594882 -1.0409776282837548
0.4789761 -0.1798524325329969 -1.0419877493295577
0.480976 -0.17373565137915659 -1.0431175570462086
0.4829759 -0.16741601693699057 -1.0448499048022295
0.4849758 -0.16103118206482386 -1.045544525802657
0.4869757 -0.15474898937834491 -1.0468626565232697
0.4889756 -0.14796262949070454 -1.0486404990980738
0.4909755 -0.1412744263873656 -1.0494830913129227
0.4929754 -0.1346984360557378 -1.0499883778162367
0.4949753 -0.12812690059181764 -1.0515713600438616
0.4969752 -0.12190722137577012 -1.052699174520453
0.4989751 -0.11489425622453837 -1.0539393409666173
0.500975 -0.10825433438577534 -1.054503358280683
0.5029749 -0.1023867886171976 -1.055477664546661
0.5049748 -0.09583409302318158 -1.0557982230423035
0.5069747 -0.09012007139481168 -1.0572254608802611
0.5089746 -0.08306334100725138 -1.0577410910223264
0.5109745 -0.07719640560163384 -1.0587387718366899
0.5129744 -0.0700573485668619 -1.0586124027845278
0.5149743 -0.06366791232023943 -1.0595529038874325
0.5169742 -0.057113476149225274 -1.060331821137055
0.5189741 -0.05081049036653866 -1.0609351434974452
0.520974 -0.04447700450239858 -1.060905397035475
0.5229739 -0.03741855347748919 -1.0608990404583842
0.5249738 -0.03065372428775357 -1.0606271689529367
0.5269737 -0.02415698201231748 -1.0612436773019547
0.5289736 -0.01757719032125133 -1.0607869970711268
0.5309735 -0.011051248412290202 -1.0612832344664709
0.5329734 -0.0043949695864818755 -1.0616246843252262
0.5349733 0.002737051603255422 -1.0613059513174126
0.5369732 0.009035177513994422 -1.0614508506840534
0.5389731 0.015398873824347264 -1.0610731060154979
0.540973 0.022423717820006447 -1.0623741959409545
0.5429729 0.02858996465994032 -1.0626355113774968
0.5449728 0.03447520871940386 -1.062398338090054
0.5469727 0.041473582659196914 -1.0621355838228175
0.5489726 0.048283564850026606 -1.0618727436279034
0.5509725 0.05512101029899838 -1.0618222191088118
0.5529724 0.06157010697904214 -1.0615863702998105
0.5549723 0.06820265992513726 -1.0609399326455784
0.5569722 0.07510367898452891 -1.060785662549177
0.5589721 0.08143444453726255 -1.0600690649347961
0.560972 0.08822562575414722 -1.0601482601968781
0.5629719 0.0952643064776215 -1.0593549290032829
0.5649718 0.10177125776937511 -1.0587994649196728
0.5669717 0.1084770976056314 -1.058267340842601
0.5689716 0.11477249453558037 -1.0579419924624143
0.5709715 0.12163675103922231 -1.0577139768035988
0.5729714 0.12875871071968273 -1.056855400147018
0.5749713 0.13438379699833264 -1.0564321290420509
0.5769712 0.1416004237874468 -1.0559749705252326
0.5789711 0.14750382489185754 -1.055843789983314
0.580971 0.1548126525708412 -1.0545953272219166
0.5829709 0.16137433718016775 -1.0536415027566581
0.5849708 0.16813971174290737 -1.052103949523869
0.5869707 0.1749427352940579 -1.051077136734923
0.5889706 0.1813896412226001 -1.050508629282939
0.5909705 0.1883264844240599 -1.048831429898573
0.5929704 0.1950538585378454 -1.0479737363055444
0.5949703 0.20184357911869533 -1.047055560044249
0.5969702 0.20778602888294362 -1.0463697738176014
0.5989701 0.21517840861417697 -1.0446589864177493
0.60097 0.22158038863036073 -1.0433730824962215
0.6029699 0.22778124709842396 -1.042101363744352
0.6049698 0.23477488891632015 -1.0410760230409135
0.6069697 0.24163555807900494 -1.0395173175297
0.6089696 0.24781882479928968 -1.037597108910043
0.6109695 0.2541461615945858 -1.0369467973756208
0.6129694 0.2606823479173434 -1.0349930740405349
0.6149693 0.26713340444572087 -1.0334739232368293
0.6169692 0.2737407039164118 -1.031670757447814
0.6189691 0.28014287658990156 -1.0302749713560209
0.620969 0.2862412713303106 -1.0281831162231347
0.6229689 0.2932599454480305 -1.0267011527929146
0.6249688 0.3002067599597957 -1.0247697800227444
0.6269687 0.3063437883527439 -1.0226890097326797
0.6289686 0.3133309463971776 -1.0211298986022632
0.6309685 0.3199068797213048 -1.0199227792599361
0.6329684 0.3261369553900325 -1.0174412720789725
0.6349683 0.33341061495326607 -1.0161003201909093
0.6369682 0.3399646650605875 -1.0148149495352499
0.6389681 0.34608736373940646 -1.0123592066190652
0.640968 0.35317155589871374 -1.0099981475582944
0.6429679 0.35832562131275497 -1.008411115807803
0.6449678 0.36543998970922376 -1.0062304206836814
0.6469677 0.37157515466097035 -1.0038727398689693
0.6489676 0.37798950705752976 -1.0012588171331582
0.6509675 0.38497088989709893 -0.9986380831183667
0.6529674 0.3904908797161396 -0.9959429747200853
0.6549673 0.39715294713253024 -0.9937171421602304
0.6569672 0.4033586180195332 -0.9909192988121962
0.6589671 0.41020124029241983 -0.9883917689723855
0.660967 0.4155269513009326 -0.9859460652644322
0.6629669 0.42272268141795727 -0.9834584507841976
0.6649668 0.42882518870429187 -0.9806963874164653
0.6669667 0.43571828364610327 -0.9782373212304658
0.6689666 0.44187447431272237 -0.9754404285671412
0.6709665 0.4485802441845243 -0.9730985662545188
0.6729664 0.45477008875131275 -0.9707334823448007
0.6749663 0.461172326443752 -0.9673161827593273
0.6769662 0.46730575512239264 -0.9654775920335321
0.6789661 0.4730711339115475 -0.9629950981020318
0.680966 0.47973693427985387 -0.959264701718027
0.6829659 0.4859623991529698 -0.9557357906195032
0.6849658 0.4921309490220428 -0.9537867677293985
0.6869657 0.4982482029056826 -0.9495847886926329
0.6889656 0.5040274753231748 -0.9466699344003187
0.6909655 0.5101315933861015 -0.9432771286312575
0.6929654 0.5161321920732513 -0.9398698020603572
0.6949653 0.5221570248131778 -0.9368280774556389
0.6969652 0.5285089946770912 -0.9331851501378065
0.6989651 0.5343724575343245 -0.9302500605735287
0.700965 0.5406465684618168 -0.9260631173910765
0.7029649 0.546394182484742 -0.922731047221976
0.7049648 0.5523883897956102 -0.919922164983421
0.7069647 0.5584006766839146 -0.9164251674558794
0.7089646 0.5652138312136099 -0.9137512983049721
0.7109645 0.5703634189521131 -0.9097807444105743
0.7129644 0.5764213300600417 -0.9063826000179014
0.7149643 0.5827017868624368 -0.9032187714361073
0.7169642 0.5881966577140634 -0.8991069284321469
0.7189641 0.5942599296529627 -0.8947363911546489
0.720964 0.5997289401834045 -0.8912454200798634
0.7229639 0.6057385053684684 -0.887120132887833
0.7249638 0.6116792058168743 -0.8834532447039964
0.7269637 0.6176008517801613 -0.8796975426053926
0.7289636 0.6227803090385605 -0.8757219142305286
0.7309635 0.6288490088394577 -0.8708112523401015
0.7329634 0.6346526044076178 -0.8671383107321606
0.7349633 0.6404984780961249 -0.8630107446180693
0.7369632 0.645736869958495 -0.859171192125539
0.7389631 0.6514124893878704 -0.8553813836216383
0.740963 0.6575744212841412 -0.8521151441121451
0.7429629 0.6634474328816591 -0.8483585703717925
0.7449628 0.6687720614250503 -0.8437305516301025
0.7469627 0.673866231558474 -0.8391870559774137
0.7489626 0.6799860670725392 -0.8356802554384745
0.7509625 0.685453737997085 -0.8302846301207117
0.7529624 0.690692737763657 -0.8261793348180773
0.7549623 0.6959464345112603 -0.8213206526228349
0.7569622 0.7014359812188922 -0.8165474696024061
0.7589621 0.7065107403078752 -0.81207295887714
0.760962 0.7116088837177256 -0.8071966791514403
0.7629619 0.7168757241605144 -0.802191455977791
0.7649618 0.7222294492310877 -0.7977441370146676
0.7669617 0.7274717143527335 -0.7921993134159973
0.7689616 0.7324633779255973 -0.7875566567555107
0.7709615 0.7380806989424198 -0.7833612032869703
0.7729614 0.7427708299547129 -0.7788041401584473
0.7749613 0.7488999313844542 -0.7744042917330506
0.7769612 0.753625612370053 -0.7703182529739919
0.7789611 0.7592081166552151 -0.7649127709175487
0.780961 0.7641863343262837 -0.7602571112291127
0.7829609 0.7689859447718155 -0.7554691754456115
0.7849608 0.7739934758262292 -0.7506327514644808
0.7869607 0.7792730264289556 -0.7451965327849812
0.7889606 0.7840969792889878 -0.7395975147242376
0.7909605 0.7886271802351298 -0.7350708969064005
0.7929604 0.7934886330460904 -0.7294395246167533
0.7949603 0.7985260932857328 -0.7242575106108725
0.7969602 0.80264728937785 -0.7190816121584878
0.7989601 0.8076957187781906 -0.7139750784959593
