! Created with skrf 1.8.0 (http://scikit-rf.org).
# GHz S RI R 50.0 
!freq ReS11 ImS11
0.001 -1.0003291516900978 0.0050401058824582215
0.0029999 1.25585839442284 0.46426412814762863
0.0049998 1.1458938944956552 -0.10829068464040814
0.0069997 0.9781247436115621 0.09907145953061768
0.0089996 1.0239145224182267 0.05541530200496036
0.0109995 1.0187490567059343 0.053356674277314005
0.0129994 1.017454238668545 0.057437980606893764
0.0149993 1.0177391874513415 0.06449056907838403
0.0169992 1.0167086235571177 0.06888015478913401
0.0189991 1.0139411992823528 0.07253415399670508
0.020999 1.0148066471633528 0.08019597405325354
0.0229989 1.0134489705059546 0.08716805389801462
0.0249988 1.01262769859834 0.09428003254592957
0.0269987 1.0117354289700238 0.10099814372685592
0.0289986 1.0108851139443067 0.10920148485664946
0.0309985 1.008970612893174 0.11716230990072524
0.0329984 1.0098224269990959 0.1235312965493261
0.0349983 1.0088962472492269 0.12925928368948553
0.0369982 1.0074340541743347 0.13743125312652543
0.0389981 1.006736005410211 0.14384468491820052
0.040998 1.0054534269641053 0.15123290566429012
0.0429979 1.0049643638460575 0.15891516995820257
0.0449978 1.0041907907770375 0.1653706445665506
0.0469977 1.0024013262468427 0.1740309495477193
0.0489976 1.0022006297695412 0.1816252151187436
0.0509975 1.0011054951475116 0.18700921017155966
0.0529974 0.9985151615850567 0.19461852185524353
0.0549973 0.9978870294599264 0.2009607339260112
0.0569972 0.997393889023559 0.2089475755456844
0.0589971 0.9951538240316018 0.21618787153362995
0.060997 0.9928777932561229 0.2226251724492276
0.0629969 0.9925574510667139 0.2302788219979632
0.0649968 0.9895913071989968 0.23710634912183395
0.0669967 0.9895806397150194 0.24282561187919732
0.0689966 0.9868536904623625 0.250548438835726
0.0709965 0.984823329807746 0.25989099775577634
0.0729964 0.9843985057088066 0.26563505670277204
0.0749963 0.9810163567442725 0.27122235451876164
0.0769962 0.9791613644575229 0.27932102876871995
0.0789961 0.9791642093884203 0.2861493371479877
0.080996 0.975340711509221 0.2940896087937477
0.0829959 0.9735417162701552 0.3002445794952331
0.0849958 0.9715699000896276 0.3085207874610888
0.0869957 0.9695195639751341 0.31388393230638195
0.0889956 0.9661090318934337 0.32079224142642826
0.0909955 0.9646917546832215 0.32750271014637233
0.0929954 0.9619282876966833 0.3342868200965247
0.0949953 0.9595312420758719 0.34270129899236007
0.0969952 0.9575769219024673 0.34899653052182816
0.0989951 0.9527327529716522 0.35411196512550924
0.100995 0.9517544901680511 0.3623351009221363
0.1029949 0.9486865898156761 0.3683353990523146
0.1049948 0.9463941052287842 0.3756798893840456
0.1069947 0.9436077692686363 0.3824547321624177
0.1089946 0.9412780836890215 0.38912963974311704
0.1109945 0.9388903078194001 0.3966194255857398
0.1129944 0.9358137734299546 0.4026422029375855
0.1149943 0.9330523370941346 0.4087603699907618
0.1169942 0.9307739807903253 0.41595329730697644
0.1189941 0.9275975388753923 0.42287690796556127
0.120994 0.924135215252567 0.42901525420592573
0.1229939 0.9207536645534178 0.43558022415000336
0.1249938 0.9182152440493326 0.44260587758386727
0.1269937 0.9143420406061471 0.4482395379085553
0.1289936 0.9130728003641326 0.4554073624465151
0.1309935 0.9076522805355415 0.4615655945576491
0.1329934 0.9059764998995565 0.46887238601648296
0.1349933 0.9015719938264095 0.47485712651189926
0.1369932 0.8988391600587449 0.48056115929737564
0.1389931 0.895416843482336 0.48889883386715177
0.140993 0.8934014940648547 0.4934576721607004
0.1429929 0.8896621862889655 0.5000024645456053
0.1449928 0.8844018728628041 0.5071100899678207
0.1469927 0.8821396454786342 0.5126019869498017
0.1489926 0.8780273875830303 0.5188578674978943
0.1509925 0.874384537081707 0.5257047660086148
0.1529924 0.8705046176883324 0.5308751979052762
0.1549923 0.8673702364230956 0.5364357268973188
0.1569922 0.8623725639301185 0.5441433805590415
0.1589921 0.8587783693568104 0.549438520054849
0.160992 0.8537122263188135 0.5561461468301926
0.1629919 0.8506579983310146 0.5607191848390943
0.1649918 0.84765824302379 0.5674283638732389
0.1669917 0.8430647988842954 0.5738534380326648
0.1689916 0.8391481320305467 0.5791816484862914
0.1709915 0.8349906641882424 0.5844622976493239
0.1729914 0.8304663971895754 0.5903891825313887
0.1749913 0.8266419265473284 0.5970448663260476
0.1769912 0.8221238948117965 0.6016079395917177
0.1789911 0.8184952127375236 0.6079467431066482
0.180991 0.8148401469973963 0.61389925860207
0.1829909 0.8097519624807931 0.6194423153060278
0.1849908 0.8055205404343303 0.6251892639829864
0.1869907 0.8006645932563234 0.6298115767787387
0.1889906 0.7966202378552991 0.6367357280806195
0.1909905 0.7918784429728746 0.6428001622990578
0.1929904 0.7877510309940741 0.647952310502352
0.1949903 0.7825900240907222 0.6534533087522816
0.1969902 0.7778833309090456 0.6578399426402333
0.1989901 0.7735422209119265 0.6644608915902264
0.20099 0.7687015458007445 0.6707712325117438
0.2029899 0.7649864860126812 0.6743705532961907
0.2049898 0.7599012126624372 0.6799915825220341
0.2069897 0.7548565846660769 0.6859379380628176
0.2089896 0.7501768830913347 0.6907825474343249
0.2109895 0.7448185884578807 0.6960523052904215
0.2129894 0.7400623048737528 0.7021553958805901
0.2149893 0.7359846069906869 0.7064722009326883
0.2169892 0.7301508867977583 0.711917068054223
0.2189891 0.7255150371264341 0.7161736377252664
0.220989 0.720586075788044 0.7217330021259912
0.2229889 0.7159676406285027 0.728171175753997
0.2249888 0.71141599294376 0.7323697675595497
0.2269887 0.705461273016511 0.7369947324234366
0.2289886 0.700701953731051 0.7421016462473657
0.2309885 0.69592177503342 0.7467682219336609
0.2329884 0.690436343521025 0.7508726767967719
0.2349883 0.6854092764404003 0.7560983531374785
0.2369882 0.6796587475262447 0.761625194219437
0.2389881 0.6748129261028801 0.7655023156181243
0.240988 0.6684804619134538 0.7697475996206209
0.2429879 0.6640742134133524 0.7754237511946948
0.2449878 0.6586369301867203 0.7795318248135619
0.2469877 0.6540115457047515 0.7841670198236755
0.2489876 0.6476922932004733 0.7874457662518329
0.2509875 0.6424174807665991 0.7931021866974596
0.2529874 0.6367162231921325 0.7971557985543959
0.2549873 0.6313162323680055 0.8019525212150034
0.2569872 0.6256795742915394 0.8058219965001339
0.2589871 0.6206544531166762 0.8103169624013021
0.260987 0.6148946105811807 0.8141708513345851
0.2629869 0.6090998920095976 0.8179238561889896
0.2649868 0.6039630327746482 0.8231116324622197
0.2669867 0.5972342586886197 0.8269859439780846
0.2689866 0.5914824365635988 0.8309429980825602
0.2709865 0.5858281746778264 0.8350772776496902
0.2729864 0.5806067246134646 0.8393877154034309
0.2749863 0.5744575228659267 0.842584318421955
0.2769862 0.5685632142067862 0.8470506867674988
0.2789861 0.563437912091181 0.8520284996441613
0.280986 0.5575805419976865 0.8551989783446774
0.2829859 0.5517037890879943 0.8584896891593867
0.2849858 0.5453806426221153 0.8627895252764737
0.2869857 0.5395955124976385 0.8659618593533889
0.2889856 0.5334856778288007 0.8690780546519308
0.2909855 0.5275191079528111 0.8736466509832983
0.2929854 0.521850300392468 0.877334808187124
0.2949853 0.5157351813628372 0.8804672695218188
0.2969852 0.5095405244104025 0.8831379152048032
0.2989851 0.5045204568605547 0.8873495123216637
0.300985 0.49847972567172355 0.8907422584144604
0.3029849 0.4920401974536382 0.8955160448767019
0.3049848 0.4860045908224235 0.8979721945175895
0.3069847 0.47970840252976676 0.9004532114339631
0.3089846 0.47444690824397057 0.9046066808249146
0.3109845 0.467960084744924 0.9071843806184267
0.3129844 0.46184447359369607 0.9104535103577673
0.3149843 0.455194053521885 0.9138473975369625
0.3169842 0.44913408246208686 0.9172954817079971
0.3189841 0.4425916722754938 0.9200360882231946
0.320984 0.4361071740894166 0.9235150853212775
0.3229839 0.42978133105945343 0.9262468551985731
0.3249838 0.42408714183215984 0.9291306209562074
0.3269837 0.4181489657321153 0.9319608339474772
0.3289836 0.41134215555899445 0.9348784722542657
0.3309835 0.40567289878201096 0.9373359793745197
0.3329834 0.3990429213109612 0.9393458079763962
0.3349833 0.3931033506868541 0.9418209416577623
0.3369832 0.386264430455134 0.9445138252457614
0.3389831 0.38013381873641944 0.9472629206910108
0.340983 0.37413804189234967 0.949628166364524
0.3429829 0.36762117820590956 0.9525914642511694
0.3449828 0.3608587393353582 0.9544060165091116
0.3469827 0.35428513274481305 0.9582597341660888
0.3489826 0.34780041191602207 0.9605393752258934
0.3509825 0.34125342981771245 0.9628516069810994
0.3529824 0.33461273284249565 0.9645656789360573
0.3549823 0.3284755373487879 0.9669911946493828
0.3569822 0.32119499734625606 0.9694278829891755
0.3589821 0.31593910971097566 0.9716150034332298
0.360982 0.3092699885836616 0.9738725280893179
0.3629819 0.30210510914319183 0.9754664235217885
0.3649818 0.29602348899593073 0.9778613326289375
0.3669817 0.2895843217512544 0.9798982519071047
0.3689816 0.2831023332495475 0.98154692885476
0.3709815 0.2765162600314955 0.98320858529508
0.3729814 0.2712550551584894 0.9849816837675657
0.3749813 0.26379277581846855 0.9873099263867169
0.3769812 0.25652825056254996 0.9887823734883845
0.3789811 0.2493669645242909 0.989471981864523
0.380981 0.24348481185902124 0.9910699398323098
0.3829809 0.2366070658224541 0.9930209654749598
0.3849808 0.231118670096267 0.9954767562542413
0.3869807 0.22346074525887183 0.9964864798448869
0.3889806 0.21760748166357133 0.9981748058092474
0.3909805 0.21093959872613433 0.9998747927175725
0.3929804 0.2045928274525428 1.0014037068334147
0.3949803 0.19760164693899784 1.0028504014715267
0.3969802 0.19033749335333774 1.0039014990855282
0.3989801 0.18422331651226453 1.0049818973587838
0.40098 0.17767989055904068 1.0062290439434105
0.4029799 0.17098706553419168 1.0075977249479242
0.4049798 0.16484210736402466 1.0088240017995076
0.4069797 0.1577647437012317 1.00905716012996
0.4089796 0.15098117653027832 1.0107349139545851
0.4109795 0.14454589145322808 1.011625528819685
0.4129794 0.13728701897624895 1.0132160286122205
0.4149793 0.1307499637362703 1.0136102034358574
0.4169792 0.12429826010800969 1.014150129781637
0.4189791 0.11783863029783236 1.0152157596477123
0.420979 0.1106790469667844 1.015591881238636
0.4229789 0.10420765826132042 1.0162069401218663
0.4249788 0.09785168737196581 1.0171827337894377
0.4269787 0.09080023148283012 1.0174006669164743
0.4289786 0.08437218113839447 1.0180433609131216
0.4309785 0.07763338083295712 1.0186245988611669
0.4329784 0.07112417397119991 1.0189895009224126
0.4349783 0.06460147952502829 1.0196412178184722
0.4369782 0.05786743420801309 1.019991417430739
0.4389781 0.05137516241963909 1.0208040056131826
0.440978 0.04476238026203041 1.0211631056584043
0.4429779 0.037910608031456086 1.0210102602225481
0.4449778 0.03093339482076235 1.0207300007670064
0.4469777 0.024111132125889306 1.02120902431457
0.4489776 0.01761675850790067 1.0216844034464785
0.4509775 0.011527373398419825 1.0223014279882385
0.4529774 0.0038842682681051593 1.0227283742353577
0.4549773 -0.0019285060164691628 1.0223750949817032
0.4569772 -0.008488809931645303 1.0219926404496034
0.4589771 -0.015844836659426695 1.0219103336952087
0.460977 -0.02165889536800828 1.0222422247561578
0.4629769 -0.028618743414747475 1.0223418741162238
0.4649768 -0.03482270627259251 1.020908572333968
0.4669767 -0.04217297543192785 1.021467302056775
0.4689766 -0.0484856913683745 1.021223643419302
0.4709765 -0.05508752763583549 1.0208009946684096
0.4729764 -0.06135601771514658 1.0204560759562695
0.4749763 -0.06811567422787436 1.020259649948969
0.4769762 -0.07465336845266313 1.0202779701958513
0.4789761 -0.0815424446227036 1.0195848388695108
0.480976 -0.08811438282097474 1.019316403157546
0.4829759 -0.09506410934126722 1.0185811750701295
0.4849758 -0.10135103683606375 1.0178613025002987
0.4869757 -0.10821739609501785 1.0173419011226428
0.4889756 -0.11467078163585452 1.0165902930744022
0.4909755 -0.1210392584678617 1.016225566308057
0.4929754 -0.12770197906637468 1.0151655795829668
0.4949753 -0.13415461400991774 1.0138617838827595
0.4969752 -0.1406888834100451 1.0137443931141696
0.4989751 -0.1469677250145936 1.0121816528445786
0.500975 -0.1526584690897832 1.0115734767561533
0.5029749 -0.15947627958437632 1.0106431240786846
0.5049748 -0.16627261168893187 1.0092102088507768
0.5069747 -0.17282902137279454 1.0080665619929707
0.5089746 -0.1791976689808868 1.0065035752950424
0.5109745 -0.18568658334361862 1.0054310316670918
0.5129744 -0.19190788259253652 1.0046269640220424
0.5149743 -0.19840808942261268 1.003326791629761
0.5169742 -0.2046408429848477 1.0021957784263744
0.5189741 -0.21182558129667917 1.0004209370209511
0.520974 -0.21810541630309618 0.9991822681159742
0.5229739 -0.22425282007635813 0.998044360329535
0.5249738 -0.2303880472001712 0.9969516643438373
0.5269737 -0.23685218257940277 0.9951996417960217
0.5289736 -0.24338824565426265 0.9941036775210059
0.5309735 -0.24939008423456074 0.9922822435928982
0.5329734 -0.25568436651330195 0.99087047986995
0.5349733 -0.2619864628310983 0.9897548138924014
0.5369732 -0.2681998128510432 0.9877766907446125
0.5389731 -0.27491240036422715 0.9862322355078679
0.540973 -0.28072243384828505 0.9843239779314652
0.5429729 -0.2871270507722005 0.9827485421273282
0.5449728 -0.2935848281557735 0.9805989140048869
0.5469727 -0.2995731010982978 0.9789614569322302
0.5489726 -0.30562164352397125 0.9769728634750728
0.5509725 -0.3116954383798701 0.9754222410832964
0.5529724 -0.3182847173038234 0.9730990915487353
0.5549723 -0.32426252997523225 0.9711762348309724
0.5569722 -0.3300641316039638 0.9690061061214749
0.5589721 -0.33662514476942246 0.9671354227429072
0.560972 -0.3428067098874771 0.9649302702994919
0.5629719 -0.3490392898563208 0.9625122618495232
0.5649718 -0.3546673733838261 0.9604183354902643
0.5669717 -0.3610449898454252 0.9584298190018504
0.5689716 -0.36687640427243373 0.9562413329431118
0.5709715 -0.37291562198023354 0.9538256087580196
0.5729714 -0.37848614097798283 0.9516484388016877
0.5749713 -0.3847570942302213 0.949186013999861
0.5769712 -0.39085990362572953 0.9463395699042381
0.5789711 -0.39677444079798746 0.9435044832118855
0.580971 -0.4025324674111648 0.9411384331321861
0.5829709 -0.40859069220246763 0.9388867627157969
0.5849708 -0.4143559979299503 0.936538847035316
0.5869707 -0.4201571845142641 0.9339731151198805
0.5889706 -0.4260730909142884 0.9311846354581889
0.5909705 -0.4317414231621531 0.9286182391293376
0.5929704 -0.4376848406876449 0.9259240432906821
0.5949703 -0.44334098198250826 0.9235007544383959
0.5969702 -0.4491849286880233 0.9199038370559598
0.5989701 -0.4547983047680101 0.9173434515469587
0.60097 -0.4607739384910051 0.9147376229413672
0.6029699 -0.4667863467685736 0.912132735572782
0.6049698 -0.4723538344444288 0.909308840542056
0.6069697 -0.4774104614820017 0.906498262557835
0.6089696 -0.4837268036629714 0.9034260528392769
0.6109695 -0.48918927257257716 0.9004369706547645
0.6129694 -0.49506917063489203 0.8972308151237176
0.6149693 -0.5005110570511292 0.8938530936184595
0.6169692 -0.5061815777142271 0.8909256432258814
0.6189691 -0.5116153907895344 0.8878987207030731
0.620969 -0.5175752123075754 0.8850328530146621
0.6229689 -0.5229220896440537 0.881701621019088
0.6249688 -0.5280625282664342 0.8786220397215422
0.6269687 -0.5339631188401186 0.8753175756025254
0.6289686 -0.5392530515596632 0.872041205270636
0.6309685 -0.5448458236117764 0.8685634270535137
0.6329684 -0.5502746450885029 0.8653224583233761
0.6349683 -0.555424517048186 0.8620493585076136
0.6369682 -0.5604562800781177 0.8586480256590614
0.6389681 -0.5661672723787482 0.8547416194785228
0.640968 -0.5710345040308794 0.8514259116864923
0.6429679 -0.5767869363261406 0.8475177228490525
0.6449678 -0.5815561771491806 0.8443453093435963
0.6469677 -0.5872715947696565 0.8404365339878991
0.6489676 -0.5924084202947748 0.8367674712434532
0.6509675 -0.5971426537586583 0.8333503518788539
0.6529674 -0.602854346112499 0.8295419452454534
0.6549673 -0.607685299563432 0.8258316882524115
0.6569672 -0.6127658664977289 0.8222517841374615
0.6589671 -0.6179913363294155 0.8185613865971206
0.660967 -0.6233287772289964 0.8146648416691631
0.6629669 -0.6280716870066839 0.811062911811178
0.6649668 -0.6329720155313128 0.8068992644722578
0.6669667 -0.6378679064740939 0.803107059076709
0.6689666 -0.6429122701262041 0.7991245099146054
0.6709665 -0.6477048121139501 0.7950739913629938
0.6729664 -0.6525981462856433 0.791373472651131
0.6749663 -0.6576181325167054 0.7876420174228095
0.6769662 -0.6625786217225114 0.7833926917710227
0.6789661 -0.6671715826048541 0.7791417059827724
0.680966 -0.6720291859129012 0.7750810405841332
0.6829659 -0.6770225173077875 0.7712531076628742
0.6849658 -0.6816411464207698 0.767154810451963
0.6869657 -0.6863620044590378 0.7629090417460719
0.6889656 -0.6911667703748429 0.7585229185402399
0.6909655 -0.6958607975513164 0.7544201571227866
0.6929654 -0.7008491392648177 0.7501135708949045
0.6949653 -0.7052876234369201 0.7460090407040562
0.6969652 -0.7099294400092556 0.7417602565171267
0.6989651 -0.7143212616105781 0.737622875680868
0.700965 -0.719138140638778 0.7330950409734184
0.7029649 -0.7235559711024987 0.7288672125680933
0.7049648 -0.7280017856658498 0.7241931849345977
0.7069647 -0.7323951087843451 0.7202996474308072
0.7089646 -0.7369500006647628 0.7153959422489112
0.7109645 -0.7412946942416837 0.7112113925015795
0.7129644 -0.7458549694823726 0.7065549923454951
0.7149643 -0.7499622435283059 0.7018088852876585
0.7169642 -0.7544797049093701 0.6971873230462161
0.7189641 -0.7586767791860178 0.6929780940575134
0.720964 -0.7629383413326277 0.6881500880807577
0.7229639 -0.7672569747962725 0.6834766673458644
0.7249638 -0.7713712537115164 0.6786695717823408
0.7269637 -0.7754668931017948 0.6743108885253468
0.7289636 -0.7794619727550203 0.6696683871108143
0.7309635 -0.7833958796420883 0.6648927796204034
0.7329634 -0.787668251805987 0.6599231314469928
0.7349633 -0.791746804561924 0.6555153368603205
0.7369632 -0.7956525056086373 0.650490002938483
0.7389631 -0.799643532888315 0.6455285132924165
0.740963 -0.8034238495731669 0.640922112844507
0.7429629 -0.8073039482616947 0.63590447856709
0.7449628 -0.8113162329822269 0.6312340473518625
0.7469627 -0.8153881830662314 0.6262601159803818
0.7489626 -0.8192128429241281 0.6212294434314973
0.7509625 -0.8229994754209495 0.6166643519601446
0.7529624 -0.826851416525317 0.6113807123244419
0.7549623 -0.8304550043099694 0.606428330879831
0.7569622 -0.8343208393938167 0.6018826384049327
0.7589621 -0.8380475325270587 0.5964557003145358
0.760962 -0.841879587357542 0.5915902776553862
0.7629619 -0.8453907945297342 0.5866804626840609
0.7649618 -0.8488780823502198 0.5813800162784323
0.7669617 -0.8527571625175244 0.5763791040820015
0.7689616 -0.8563161752252121 0.5712423426592542
0.7709615 -0.8598031803617747 0.5661576416934694
0.7729614 -0.8629035203553426 0.5607369067463389
0.7749613 -0.8667563226674687 0.5558233934250782
0.7769612 -0.8702828841091864 0.5506149888135995
0.7789611 -0.8734157377127272 0.5454753927891444
0.780961 -0.8768013986163973 0.5401384093475134
0.7829609 -0.8800171035232295 0.5351251364838556
0.7849608 -0.8832171777282226 0.5297230285563258
0.7869607 -0.8863348480426149 0.5245933547456676
0.7889606 -0.8897582126984903 0.5190186413530512
0.7909605 -0.8928718812083086 0.5137282203823935
0.7929604 -0.8958207937305378 0.5084891197486497
0.7949603 -0.898848741205837 0.5028897995127943
0.7969602 -0.9019085969976802 0.497637569322049
0.7989601 -0.9051286114242105 0.4920615836607983
0.80096 -0.9080457106451979 0.48667838300501864
0.8029599 -0.9108424919115055 0.48135475467421174
0.8049598 -0.9136865572667296 0.4756928810491522
0.8069597 -0.9163772353574928 0.47001614003666975
0.8089596 -0.919408502997426 0.4646366992611313
0.8109595 -0.9225769377701075 0.45915419857398726
0.8129594 -0.9252460976741482 0.4534444146047395
0.8149593 -0.9279588739245098 0.4479806000477752
0.8169592 -0.9307654450341082 0.4424239987421539
0.8189591 -0.9332979098625231 0.4369824247241276
