! Created with skrf 1.8.0 (http://scikit-rf.org).
# GHz S RI R 50.0 
!freq ReS11 ImS11
0.001 -0.9998913156623406 0.0006746133616198992
0.0029999 -1.0000603972513322 0.002872397650059741
0.0049998 -1.0037014997274485 0.0029544936497256924
0.0069997 -1.0083108001621723 -0.005236708020485717
0.0089996 -1.0245827001408876 -0.022440752295364
0.0109995 -1.022566070096733 -0.0313129545994546
0.0129994 -1.0216797555277164 -0.037627047799871596
0.0149993 -1.0213944452943384 -0.04441741086819821
0.0169992 -1.0206583227757446 -0.051129032444809305
0.0189991 -1.0205152601463698 -0.0586748715393525
0.020999 -1.019508386034037 -0.06415909056246193
0.0229989 -1.0186081331155543 -0.07063567067093708
0.0249988 -1.0182166372223511 -0.07646270196689915
0.0269987 -1.017368434321015 -0.08331493146639767
0.0289986 -1.0168279044914235 -0.08881896929691382
0.0309985 -1.0165129909556014 -0.09513930985540822
0.0329984 -1.0158800127046383 -0.10154502302782566
0.0349983 -1.014871044719353 -0.10846021304321804
0.0369982 -1.0145915478357843 -0.1143720761959422
0.0389981 -1.0138230651441478 -0.12088103500988835
0.040998 -1.0142370061973334 -0.12576132184999939
0.0429979 -1.0125407762304222 -0.1316328820485322
0.0449978 -1.0119107026745215 -0.137675812055704
0.0469977 -1.0114325414651528 -0.14280309647759448
0.0489976 -1.0103023987528577 -0.1489877993520839
0.0509975 -1.01018487089495 -0.15607178177331715
0.0529974 -1.0085316967653175 -0.16277296970789357
0.0549973 -1.0086341117260529 -0.16887334802200318
0.0569972 -1.0078424301556148 -0.17386621552035555
0.0589971 -1.0079025230202934 -0.17892948645109208
0.060997 -1.0065991859098955 -0.18601339833741426
0.0629969 -1.0051693933693038 -0.19054032843724072
0.0649968 -1.0063133184699282 -0.1964607825632697
0.0669967 -1.0032570265266196 -0.2028521446388883
0.0689966 -1.0029411800140395 -0.20873903744147085
0.0709965 -1.0026266573759584 -0.21254982547039802
0.0729964 -0.9994920257231581 -0.21977350266121967
0.0749963 -0.9993763339035043 -0.2268015370226438
0.0769962 -0.9982690121445902 -0.2312051945250998
0.0789961 -0.9965369024458242 -0.23754582505132715
0.080996 -0.996139181604054 -0.24251227850618787
0.0829959 -0.9945454320011623 -0.24989977784116474
0.0849958 -0.9931642547527817 -0.25441627987672105
0.0869957 -0.9908203419644415 -0.261546856772308
0.0889956 -0.9908505781947144 -0.26683037349967925
0.0909955 -0.9877540369337956 -0.2736684491581116
0.0929954 -0.9874999474089878 -0.2796728451730438
0.0949953 -0.9849685654514422 -0.28425630491292414
0.0969952 -0.9833728444312619 -0.2913066151981062
0.0989951 -0.9828520867806496 -0.2961117245087878
0.100995 -0.9795921765846598 -0.3030844378446673
0.1029949 -0.977472904762589 -0.31023387703853633
0.1049948 -0.9755496433438865 -0.3154088041705763
0.1069947 -0.9737889469655229 -0.3209849411806633
0.1089946 -0.9717222530997731 -0.32672890485179584
0.1109945 -0.9695485878835636 -0.33245732792185123
0.1129944 -0.9678753790645893 -0.3384039152711991
0.1149943 -0.9663155604364875 -0.34402277647893326
0.1169942 -0.9639535200108877 -0.3504989263494663
0.1189941 -0.9612917049998394 -0.35567622066835025
0.120994 -0.9598446176868883 -0.36154742333696993
0.1229939 -0.9576437471860502 -0.3674970880782225
0.1249938 -0.9550166254737881 -0.3733731796133775
0.1269937 -0.9544716190768823 -0.378264563954345
0.1289936 -0.9512288428784169 -0.38305719315447595
0.1309935 -0.9498119089860585 -0.39001375949149014
0.1329934 -0.9460061475291524 -0.3946246623213973
0.1349933 -0.9455774294822935 -0.4006524860858225
0.1369932 -0.9433105234857093 -0.40669257172985773
0.1389931 -0.9403499549007569 -0.4107467251848425
0.140993 -0.9397781781742764 -0.41701247763604743
0.1429929 -0.9357677601653666 -0.42249807990599986
0.1449928 -0.9341006555022903 -0.42838451080538115
0.1469927 -0.9318321452489401 -0.43354388198057286
0.1489926 -0.9296754668794016 -0.438579756732347
0.1509925 -0.9275914345835385 -0.44460723036620586
0.1529924 -0.9254182717230306 -0.45061393544978195
0.1549923 -0.9217866871462977 -0.4548675576375549
0.1569922 -0.9202354833994416 -0.46006827933865846
0.1589921 -0.916866755268328 -0.46684679028547044
0.160992 -0.9155146963976033 -0.47182785275741873
0.1629919 -0.9120921712139789 -0.47794669004384266
0.1649918 -0.9091969064452838 -0.4828218917578035
0.1669917 -0.9069893698956886 -0.48830372013889023
0.1689916 -0.9033431974562259 -0.49387749161906647
0.1709915 -0.899732291363469 -0.4978716310249801
0.1729914 -0.898236162897916 -0.504737775505918
0.1749913 -0.8941840560737637 -0.5088406812441556
0.1769912 -0.891914454807496 -0.5153100877027191
0.1789911 -0.8878060004032194 -0.5202256881319802
0.180991 -0.8849047971768754 -0.5255747877320419
0.1829909 -0.8820515024813625 -0.531116781836966
0.1849908 -0.8787153585944644 -0.5363636801373483
0.1869907 -0.8761751752368546 -0.5424633668886778
0.1889906 -0.872485311539313 -0.5470812151794947
0.1909905 -0.8694902000803724 -0.5518863884771279
0.1929904 -0.8658723930574328 -0.5565664086053158
0.1949903 -0.8636756384514321 -0.5628418210961499
0.1969902 -0.8592908179794483 -0.5679058235765151
0.1989901 -0.8559330709919116 -0.5727140918324739
0.20099 -0.8518401292413309 -0.5777545556076795
0.2029899 -0.849350015818105 -0.5830808431727713
0.2049898 -0.8467844575385552 -0.5882093398598144
0.2069897 -0.8425991053128942 -0.5931858374834384
0.2089896 -0.8400076496095515 -0.5982806789559711
0.2109895 -0.8363943918849964 -0.6028612177095529
0.2129894 -0.8328001166023515 -0.6073895279527992
0.2149893 -0.8288770479583689 -0.6128981594526541
0.2169892 -0.8269265624337592 -0.6176674000594586
0.2189891 -0.8225899512143864 -0.6222789612807361
0.220989 -0.8191648935243391 -0.627193598825893
0.2229889 -0.8149250285034991 -0.6316058431262114
0.2249888 -0.8115522475096955 -0.6374955221017736
0.2269887 -0.8097072884882642 -0.6423230371820303
0.2289886 -0.8047170093784068 -0.647688308091712
0.2309885 -0.8006595102990949 -0.6513380833175842
0.2329884 -0.7981203601765934 -0.6561761129981911
0.2349883 -0.7937316847259646 -0.6616575130968021
0.2369882 -0.790310358667366 -0.6658239887641986
0.2389881 -0.7863777048898197 -0.6708118848674488
0.240988 -0.7827730216111458 -0.6762710237211191
0.2429879 -0.7785009516282168 -0.6805722778618397
0.2449878 -0.7747627103173514 -0.6848955876843928
0.2469877 -0.7701025940519125 -0.6893073029947504
0.2489876 -0.7670763919505251 -0.6950910692518745
0.2509875 -0.7624184082843409 -0.6985259717552549
0.2529874 -0.758188017799421 -0.7030400448770424
0.2549873 -0.7538428480518992 -0.7078730991131296
0.2569872 -0.7498872485645518 -0.7122279876883455
0.2589871 -0.7448790441711917 -0.7170614913089246
0.260987 -0.7413105009460771 -0.7221767111899559
0.2629869 -0.7374248612491853 -0.7261775676793254
0.2649868 -0.7334636928920636 -0.7299034092514032
0.2669867 -0.7286784790344153 -0.7346657486292615
0.2689866 -0.7245000063406439 -0.7391412837389213
0.2709865 -0.7206631635239956 -0.7433618092392453
0.2729864 -0.7154875199447714 -0.7474141859968412
0.2749863 -0.7113966355344172 -0.7519224711647422
0.2769862 -0.7068457085373736 -0.75688527389175
0.2789861 -0.7016222071956514 -0.7597154991423917
0.280986 -0.6982537748347641 -0.7638956517268155
0.2829859 -0.6942592978481942 -0.7691735261347351
0.2849858 -0.6902349656320793 -0.772501156914887
0.2869857 -0.6853570468034784 -0.7766350031529065
0.2889856 -0.6811129496867943 -0.7816715365605831
0.2909855 -0.6766107509398946 -0.784794156507543
0.2929854 -0.6713033179996505 -0.7888743057422144
0.2949853 -0.6675793985479821 -0.7932856466150685
0.2969852 -0.6633139671166971 -0.7977780667515829
0.2989851 -0.6579080312488864 -0.8011575025121314
0.300985 -0.6543540200608979 -0.8048305512907703
0.3029849 -0.648691592316696 -0.809325927563785
0.3049848 -0.6447313865123984 -0.8134085695157288
0.3069847 -0.6404008285721395 -0.8182099368623114
0.3089846 -0.6350750796550776 -0.8217957168097823
0.3109845 -0.6302559836635688 -0.825803471647194
0.3129844 -0.6260523353443744 -0.829756712423913
0.3149843 -0.6210183345460257 -0.8332719178912245
0.3169842 -0.616555103940017 -0.8372594199975392
0.3189841 -0.6129018586805586 -0.8417822393675175
0.320984 -0.6072095975954591 -0.8452645416276916
0.3229839 -0.6023204451179499 -0.849177203793893
0.3249838 -0.5954535782916663 -0.8525684927752867
0.3269837 -0.5922322003017068 -0.8564811793452041
0.3289836 -0.5865159999273991 -0.8604744602449734
0.3309835 -0.5811141321950348 -0.8650352515455948
0.3329834 -0.576751589707081 -0.8694433802083137
0.3349833 -0.5714088087089045 -0.8727467001194095
0.3369832 -0.5660870678179807 -0.8753230118516006
0.3389831 -0.5614892900447308 -0.8785377653053957
0.340983 -0.5562170635755112 -0.8812342970951532
0.3429829 -0.5510264543435651 -0.88476510566335
0.3449828 -0.5454163441803084 -0.8885591425135623
0.3469827 -0.5402936373695681 -0.8908377440303978
0.3489826 -0.5355965270317455 -0.8947184192163528
0.3509825 -0.5299175311939146 -0.8972210352327824
0.3529824 -0.5244646086608681 -0.9007687161908575
0.3549823 -0.5197652384706174 -0.903827686559364
0.3569822 -0.5140071214668788 -0.906568078667211
0.3589821 -0.5077488718253916 -0.9097896453132008
0.360982 -0.5024678281480158 -0.9127904629567534
0.3629819 -0.49756590348186974 -0.9164560795998675
0.3649818 -0.49212255713003167 -0.9189869261609633
0.3669817 -0.4872711961988361 -0.9223826831714006
0.3689816 -0.4812474293363369 -0.9251769120497274
0.3709815 -0.47658074288555047 -0.9278599952896897
0.3729814 -0.4697599403996457 -0.9321003273237878
0.3749813 -0.46522117699336096 -0.9337902707511787
0.3769812 -0.46042442048365567 -0.9370122141142084
0.3789811 -0.455799014235544 -0.9400191602876286
0.380981 -0.4498531354300559 -0.9437213855861173
0.3829809 -0.444396072988196 -0.9463346242238242
0.3849808 -0.4372529928920511 -0.9482420023807325
0.3869807 -0.43358794908363096 -0.951787501898955
0.3889806 -0.42692104704931944 -0.9541463736730772
0.3909805 -0.421130175630709 -0.9565140633467223
0.3929804 -0.4152416447803815 -0.9597997229796704
0.3949803 -0.40977372201639933 -0.9616430755240895
0.3969802 -0.4037993226340194 -0.9644807504301194
0.3989801 -0.3987983421427769 -0.9680602242010432
0.40098 -0.3928920283516837 -0.9704589877668371
0.4029799 -0.3876427676099961 -0.9725127011530791
0.4049798 -0.3813951134802832 -0.9747730770212631
0.4069797 -0.37593830912573495 -0.9784550570530822
0.4089796 -0.3707961244050769 -0.9799803080453622
0.4109795 -0.3642777160821923 -0.9825324200394725
0.4129794 -0.3586575110032514 -0.9841468684121963
0.4149793 -0.3528732144112749 -0.9870665640225348
0.4169792 -0.346875484727009 -0.9901581579047627
0.4189791 -0.34055258329250204 -0.9923794456314172
0.420979 -0.3347974428179612 -0.9946575132594226
0.4229789 -0.32942172719704044 -0.9963256751181693
0.4249788 -0.32257269202663114 -0.9979222586750289
0.4269787 -0.31649866874896765 -0.9996449854767374
0.4289786 -0.3102935448478721 -1.0022692835705656
0.4309785 -0.30474438127881986 -1.0037322629532344
0.4329784 -0.29817685024668533 -1.0064256167820442
0.4349783 -0.2926299211139841 -1.0085089304473824
0.4369782 -0.28669983011925954 -1.010093638130904
0.4389781 -0.27978423113189754 -1.0113711443212647
0.440978 -0.27496379849534036 -1.013586372874027
0.4429779 -0.2694147106374323 -1.0153592509135432
0.4449778 -0.2629368027113989 -1.0171789997941367
0.4469777 -0.2577231118735378 -1.0201291099107117
0.4489776 -0.2509789889279858 -1.021021281932315
0.4509775 -0.24503873393700754 -1.022256221290198
0.4529774 -0.2385615689840789 -1.023804422761902
0.4549773 -0.2321916378038965 -1.0258732942098858
0.4569772 -0.22609412203472484 -1.0276872073565366
0.4589771 -0.21947203937669385 -1.0292882627994335
0.460977 -0.21335293652579962 -1.0299953212512278
0.4629769 -0.2074075700605676 -1.0318948697352504
0.4649768 -0.20199044402958258 -1.0335020493668359
0.4669767 -0.19503558183925734 -1.0356227556601605
0.4689766 -0.18950237102361175 -1.0366508767718445
0.4709765 -0.1835871147800766 -1.037859653802254
0.4729764 -0.1765096560950002 -1.0393076993913195
0.4749763 -0.17042110448181338 -1.0400954213419025
0.4769762 -0.16486314876005959 -1.041295371844609
0.4789761 -0.15799635431177433 -1.0418833791722963
0.480976 -0.15197914214043967 -1.0430476427612534
0.4829759 -0.14612448102000578 -1.0447051774055178
0.4849758 -0.139735534379916 -1.0457362900565774
0.4869757 -0.13388069259405827 -1.0466595450838354
0.4889756 -0.12662819953847904 -1.0483172069970688
0.4909755 -0.1200119939163477 -1.0493501230537912
0.4929754 -0.11331036914693085 -1.049606488550286
0.4949753 -0.10701114913483573 -1.0509282104586988
0.4969752 -0.10111450682444856 -1.0522019954467388
0.4989751 -0.09373332944869803 -1.0524910725102519
0.500975 -0.08762696799611017 -1.053630553525999
0.5029749 -0.08162671039129864 -1.0544558745074146
0.5049748 -0.07511659794317906 -1.054701016774899
0.5069747 -0.06882762955830372 -1.0559415316226028
0.5089746 -0.06193588491189603 -1.056547297066797
0.5109745 -0.05648511323081956 -1.057058240692775
0.5129744 -0.04976557031620572 -1.0571514855052915
0.5149743 -0.04321730027909015 -1.057548454296736
0.5169742 -0.03662246900767502 -1.0589910138155874
0.5189741 -0.029877480876785496 -1.0591945842365547
0.520974 -0.023232933391585588 -1.0594525153907024
0.5229739 -0.017160389284641177 -1.0597358077489714
0.5249738 -0.010220495041755623 -1.0597485470468893
0.5269737 -0.003894471206358427 -1.060231589211223
0.5289736 0.002757984420033499 -1.060059916588398
0.5309735 0.008641606783109268 -1.0611396256195955
0.5329734 0.0156706164326577 -1.0608863901343069
0.5349733 0.021579917702576196 -1.0612106544585453
0.5369732 0.028450769546910837 -1.0611237496529597
0.5389731 0.034888566332869006 -1.0603140160312765
0.540973 0.040661781839730446 -1.062014016972813
0.5429729 0.04727213898174708 -1.0620959390458404
0.5449728 0.053254493219577564 -1.0617478845325476
0.5469727 0.060133191682655907 -1.06170158580389
0.5489726 0.06641105512802742 -1.0611537822539892
0.5509725 0.07305493262204726 -1.0612951208724186
0.5529724 0.07981639517800035 -1.0605950698375153
0.5549723 0.08623371891769038 -1.0599998915013888
0.5569722 0.0927848662400485 -1.0601121289803375
0.5589721 0.099243514202328 -1.059559535244208
0.560972 0.10596733470109546 -1.0592850092509405
0.5629719 0.11203510816081164 -1.0583189599050906
0.5649718 0.11859086679376345 -1.0576955793210112
0.5669717 0.12558979987282876 -1.0571881702850012
0.5689716 0.13174466662916062 -1.0567635591572262
0.5709715 0.13873428502471985 -1.0565974404732597
0.5729714 0.1451609349800314 -1.0556890677875648
0.5749713 0.15121297967818148 -1.0552466557466713
0.5769712 0.1582697628772342 -1.0547273269369581
0.5789711 0.1641396584499445 -1.0541118912585725
0.580971 0.17060133506938974 -1.0531896840892485
0.5829709 0.17810294132345994 -1.0519160048011857
0.5849708 0.1835560702337899 -1.0512429794393356
0.5869707 0.19095937862330942 -1.0502508481332762
0.5889706 0.19747292787363466 -1.0493863418040013
0.5909705 0.20411557322498436 -1.0481120260898322
0.5929704 0.21042071811019886 -1.047127077564501
0.5949703 0.2170558212221198 -1.0461713772933183
0.5969702 0.22343511018901172 -1.04559264393747
0.5989701 0.230451224747939 -1.0439868911883001
0.60097 0.23724338982204868 -1.042499112764504
0.6029699 0.24370530751655584 -1.041722699602261
0.6049698 0.25019907118078644 -1.0404177409150253
0.6069697 0.2574180403265856 -1.0390374862942595
0.6089696 0.26281666551357 -1.0373477430412987
0.6109695 0.2696027800618602 -1.036043402612442
0.6129694 0.2755916660339385 -1.035063643038396
0.6149693 0.28272842487706706 -1.032867041559168
0.6169692 0.2888584885961527 -1.0310002745570335
0.6189691 0.29544499157214 -1.029852517378843
0.620969 0.3011563529891198 -1.0278185544438065
0.6229689 0.3086459979062976 -1.026597011177948
0.6249688 0.3147086537029082 -1.0244244285645674
0.6269687 0.3212916596897607 -1.0225055371735288
0.6289686 0.3278976382784775 -1.0210186402582426
0.6309685 0.33474561186273716 -1.019835602695312
0.6329684 0.34095046463041145 -1.0171370563393183
0.6349683 0.3477253956415288 -1.0158397397147692
0.6369682 0.35391965640937034 -1.0143267098078905
0.6389681 0.35966039679492157 -1.0120008173692834
0.640968 0.36728744751893533 -1.0097839969363218
0.6429679 0.372769549898695 -1.0083900252768387
0.6449678 0.3792192338399185 -1.0061362831061025
0.6469677 0.3856736108237153 -1.0036255595531567
0.6489676 0.39168058097261915 -1.0013667069349104
0.6509675 0.3984632894939477 -0.9985837891773393
0.6529674 0.4048282301353883 -0.9959553899244983
0.6549673 0.41108807775474954 -0.9938682361949557
0.6569672 0.417525677571139 -0.9910355375248276
0.6589671 0.4241563279295824 -0.9884946486125846
0.660967 0.42952876956500047 -0.9864867580434417
0.6629669 0.4366712849864334 -0.9836444755112439
0.6649668 0.4426677835874018 -0.9806697130509496
0.6669667 0.44987447854179696 -0.9784199119899529
0.6689666 0.4562342955470486 -0.9758449323635144
0.6709665 0.462276965245463 -0.9737126188255152
0.6729664 0.46809849995779784 -0.9712180788104477
0.6749663 0.474892528662322 -0.9689246477659776
0.6769662 0.48141173929038183 -0.9661855124352904
0.6789661 0.4873405364988419 -0.9635829105697513
0.680966 0.494294144679887 -0.9598557281849691
0.6829659 0.5001448995030737 -0.9568296325778952
0.6849658 0.5063343269849171 -0.9546548083836252
0.6869657 0.5123382512283203 -0.9504850435160846
0.6889656 0.518327112722375 -0.9473637654312247
0.6909655 0.5245092052422244 -0.9442879236568661
0.6929654 0.5303498984583028 -0.9409518681981189
0.6949653 0.5368483474412377 -0.9375440707756522
0.6969652 0.5428279250072755 -0.9343459259941765
0.6989651 0.548893964774327 -0.9310727717126784
0.700965 0.5546289975444029 -0.9273198805265938
0.7029649 0.5608427866383108 -0.923969282190983
0.7049648 0.5669203650831391 -0.9207720949412378
0.7069647 0.5730943702196993 -0.917446971239382
0.7089646 0.579392813669962 -0.9141171786342718
0.7109645 0.5853228015727691 -0.9103625250054992
0.7129644 0.5912599944243879 -0.9074153405521795
0.7149643 0.5971890991962943 -0.9038800183388072
0.7169642 0.6027467893405016 -0.8997160752664707
0.7189641 0.6087016609268108 -0.895821588805269
0.720964 0.6145607680256833 -0.8925414204249742
0.7229639 0.6206915610311798 -0.8884746696600493
0.7249638 0.6262554525419484 -0.8849804670757162
0.7269637 0.6322932951050246 -0.8809433826365538
0.7289636 0.6376376264557035 -0.8769050584602023
0.7309635 0.6433665550953528 -0.8721768277089058
0.7329634 0.649625019993298 -0.8684446471106071
0.7349633 0.6554779801550865 -0.8644651512050909
0.7369632 0.6612054580845539 -0.8604724299075285
0.7389631 0.666651144640908 -0.8566857355734863
0.740963 0.6727976210380038 -0.8535836124690557
0.7429629 0.6789853087859697 -0.8494796720917325
0.7449628 0.6843723680812084 -0.8453438350179258
0.7469627 0.6894523381890171 -0.8407737323847857
0.7489626 0.696267742774883 -0.8365767278436717
0.7509625 0.7010542999765536 -0.8321115959687954
0.7529624 0.7066520868283664 -0.8274401748868376
0.7549623 0.7124049587823053 -0.8227610882873264
0.7569622 0.7181773754689206 -0.817500160026855
0.7589621 0.7230270819945073 -0.8132715153970081
0.760962 0.7281290378278994 -0.8083359242442054
0.7629619 0.7338615857336566 -0.8032359617817051
0.7649618 0.739199329251353 -0.7992437956591489
0.7669617 0.7445316133624927 -0.7934872124389604
0.7689616 0.749551003238158 -0.7885779651952506
0.7709615 0.7552173809537072 -0.7843294515426049
0.7729614 0.760013393969327 -0.779781427254999
0.7749613 0.7660226178286393 -0.7752731734327489
0.7769612 0.7708955992741708 -0.770790359487728
0.7789611 0.7765720881489767 -0.765411810678695
0.780961 0.7817037511095615 -0.7606972587994839
0.7829609 0.7865729960882112 -0.7560973233042827
0.7849608 0.7922863139292452 -0.7503253245065301
0.7869607 0.7968291084328705 -0.7455042422350626
0.7889606 0.8016362581138249 -0.7401436592014535
0.7909605 0.8063154252926747 -0.7353168093991982
0.7929604 0.8110085634402231 -0.7295473780448424
0.7949603 0.8163208192674452 -0.7241403335854428
0.7969602 0.8207034102872012 -0.719200035046117
0.7989601 0.8258981132614124 -0.7135802757364575
