! Created with skrf 1.8.0 (http://scikit-rf.org).
# GHz S RI R 50.0 
!freq ReS11 ImS11
0.001 -0.9998396361090199 0.0008276303782486227
0.0029999 -1.0190227280800979 -0.030772069378469546
0.0049998 -0.8655464013251531 -0.062616382420972
0.0069997 -0.5941034425158458 0.07024762454291297
0.0089996 -0.1926038952193321 0.05946488046069847
0.0109995 -0.15314113811401833 0.1086150624850866
0.0129994 -0.12837393301388417 0.11209713696615729
0.0149993 -0.11205144247179713 0.10549163773576915
0.0169992 -0.08340797040401943 0.11326102067311157
0.0189991 -0.05936213491491875 0.10782266561830897
0.020999 -0.056499976298819254 0.10487407379405093
0.0229989 -0.04805270548448565 0.10320741003416466
0.0249988 -0.043127766027793175 0.10046340640287378
0.0269987 -0.03463501662886461 0.09658949201454499
0.0289986 -0.03290170845835644 0.0929262978793122
0.0309985 -0.02819159366280246 0.08966963193996966
0.0329984 -0.0241726376809143 0.08605680598926162
0.0349983 -0.01879430624643024 0.0841047133444037
0.0369982 -0.01857121506326969 0.08143952870047977
0.0389981 -0.01532127064213002 0.08006339977281589
0.040998 -0.01757973518426932 0.07251724264429801
0.0429979 -0.017601713284652445 0.07569970010339691
0.0449978 -0.016297497783343134 0.0734573165088022
0.0469977 -0.017650464219329254 0.06923405249416899
0.0489976 -0.017070043670103653 0.07057826870097568
0.0509975 -0.014781935531097655 0.06735907047496466
0.0529974 -0.012909603639964337 0.066203056964826
0.0549973 -0.015205216645666724 0.06318780318226966
0.0569972 -0.015362639293485067 0.06132249548553667
0.0589971 -0.018240247204910458 0.05762887646481416
0.060997 -0.01606788119170827 0.054969574314403115
0.0629969 -0.017601715418807597 0.055854861367475674
0.0649968 -0.01929736458424483 0.050642004099254886
0.0669967 -0.017401731639201397 0.051037619155391296
0.0689966 -0.016499342998862323 0.04921410774467513
0.0709965 -0.020642241002318745 0.046570902931976035
0.0729964 -0.0180400482626705 0.04871600645397003
0.0749963 -0.015367007003791379 0.04523528407305441
0.0769962 -0.017004851373638333 0.04360512557369271
0.0789961 -0.015354194233647105 0.044207472992031774
0.080996 -0.0174425871968551 0.04215619897304037
0.0829959 -0.014810339334278073 0.04145771638991853
0.0849958 -0.01491567516430238 0.04105403780678868
0.0869957 -0.012645891543595468 0.04108336280306927
0.0889956 -0.012938122377157498 0.03917557258215706
0.0909955 -0.010768262260608827 0.04078972621490418
0.0929954 -0.010383979439621896 0.03874853097125095
0.0949953 -0.011758430857694912 0.040430290451577866
0.0969952 -0.009479274861923572 0.04040269914392788
0.0989951 -0.011170993851232696 0.03897703986191425
0.100995 -0.007841347021942821 0.039109873275117966
0.1029949 -0.005867746929657528 0.03930537792409769
0.1049948 -0.006304951079900483 0.039687256932954884
0.1069947 -0.006292887200888232 0.040340124095780576
0.1089946 -0.006221790277163852 0.040976881890825274
0.1109945 -0.006485220300075407 0.04191350046548798
0.1129944 -0.00643251729152056 0.04167350871013974
0.1149943 -0.006985924369121925 0.041943828819665616
0.1169942 -0.006506615343018665 0.04240714160347004
0.1189941 -0.007393360845622646 0.04344515577433235
0.120994 -0.007946699663092993 0.04280303321814443
0.1229939 -0.008213554000055657 0.0428082116159325
0.1249938 -0.008315382224909736 0.04317883425109272
0.1269937 -0.009904633992227246 0.041696050153392714
0.1289936 -0.011015949915352265 0.04261420742869033
0.1309935 -0.010450424891816558 0.041044584628546814
0.1329934 -0.011027250414027374 0.04293030101408567
0.1349933 -0.012132456296228177 0.04092613383008546
0.1369932 -0.011621947131266058 0.04055781811650643
0.1389931 -0.01322340454855215 0.04119460364666459
0.140993 -0.013470980981749054 0.0390848489603783
0.1429929 -0.013195684295147487 0.04063549969944578
0.1449928 -0.013020286620579094 0.038758277703120965
0.1469927 -0.0136657468912976 0.03864282278693685
0.1489926 -0.014669082551020299 0.03818821950249446
0.1509925 -0.013974820393624975 0.037941045919740686
0.1529924 -0.013995375783643738 0.03704307505874568
0.1549923 -0.014518948466387847 0.03752416179558755
0.1569922 -0.014884520730197562 0.03720790193954536
0.1589921 -0.013714951305970136 0.036870053256915315
0.160992 -0.014640326444085347 0.03610497377576831
0.1629919 -0.013706129312809335 0.03633524662424443
0.1649918 -0.014029236193262067 0.036751124613257066
0.1669917 -0.013890725775794333 0.03640459587949175
0.1689916 -0.01332280485668847 0.03665101871246979
0.1709915 -0.014118294888783573 0.03801051272924759
0.1729914 -0.013650600298657466 0.03669912337061685
0.1749913 -0.013903994872278561 0.037938555025201166
0.1769912 -0.01335166659297113 0.037220553248768364
0.1789911 -0.013108639594242912 0.03823111364392134
0.180991 -0.013218904022905945 0.038424638543983196
0.1829909 -0.013303081134920916 0.038453039842735015
0.1849908 -0.013412359093317608 0.03871847580745362
0.1869907 -0.01313714742051521 0.038314820889200366
0.1889906 -0.013738820207880916 0.03896054970087566
0.1909905 -0.014176599402269514 0.03909107778524731
0.1929904 -0.014718760784828304 0.03956945490483199
0.1949903 -0.01463485050657452 0.038739016809939034
0.1969902 -0.014583870584696606 0.03958325806967196
0.1989901 -0.015018354671415924 0.03960496007918469
0.20099 -0.014993561576821704 0.040086423511850745
0.2029899 -0.015429317685196887 0.039735694765466165
0.2049898 -0.015916436423206344 0.039436175655367535
0.2069897 -0.01603344218560385 0.03983875805319558
0.2089896 -0.016538615933994374 0.039485050309588286
0.2109895 -0.01683284422786182 0.03953608714935811
0.2129894 -0.017435206249724954 0.03968529714494776
0.2149893 -0.017246334726637554 0.03965339626552245
0.2169892 -0.018334634571984747 0.038864768790367085
0.2189891 -0.018586772948718702 0.03917570428270709
0.220989 -0.018557708499414613 0.03914785623700357
0.2229889 -0.01877732801811779 0.03980568072451267
0.2249888 -0.018825911499776582 0.03930108795862944
0.2269887 -0.019587317738645648 0.038577291284165045
0.2289886 -0.019319422469927593 0.03883627344606841
0.2309885 -0.019931358905303925 0.039187855321541766
0.2329884 -0.02066220206191558 0.03886488977687253
0.2349883 -0.020199470968529518 0.038724531392808445
0.2369882 -0.020950876033182332 0.03879277824437314
0.2389881 -0.020980560740179365 0.0387182768363513
0.240988 -0.021004635630058416 0.03824305493422018
0.2429879 -0.020942028940691953 0.038531982462088596
0.2449878 -0.021430429710368466 0.03858426687288601
0.2469877 -0.021408746375070963 0.038942888798613476
0.2489876 -0.021534412668891306 0.03804185975643514
0.2509875 -0.021721236181108838 0.03864857873807663
0.2529874 -0.021782864664725298 0.038662722790718876
0.2549873 -0.02157750918302747 0.03865421440541241
0.2569872 -0.021670772519383933 0.03859485846909196
0.2589871 -0.02141473313949458 0.03867688591113254
0.260987 -0.021295481119739054 0.03846738309811993
0.2629869 -0.02172314169746016 0.03847750504025982
0.2649868 -0.022178287831500415 0.039089916874253304
0.2669867 -0.02159334336626752 0.03922010182395611
0.2689866 -0.02185985658264847 0.03917822210530467
0.2709865 -0.021961285614272734 0.03916170874437163
0.2729864 -0.021860133544561643 0.03997689064254178
0.2749863 -0.021877832055909176 0.040102506559442475
0.2769862 -0.02160552090590233 0.04020368960658513
0.2789861 -0.021796917817073366 0.04142488461258064
0.280986 -0.022442367112679423 0.041613872270873146
0.2829859 -0.022477582374224283 0.041476252901037826
0.2849858 -0.023326531864030876 0.04203237447800342
0.2869857 -0.023626934061963846 0.04260985119119767
0.2889856 -0.023929482244926553 0.042591286934942296
0.2909855 -0.024676959037645017 0.043202886090341196
0.2929854 -0.024747842324478714 0.043692826511920295
0.2949853 -0.02560147025088383 0.04386651077443546
0.2969852 -0.026200239202746372 0.043628296905085816
0.2989851 -0.026542638758779286 0.04437938218289251
0.300985 -0.027863221039190388 0.044620827029918174
0.3029849 -0.028035641838117784 0.044980105006555235
0.3049848 -0.029093491360664213 0.044732988576677374
0.3069847 -0.029873571774056088 0.04418499131256774
0.3089846 -0.030487146362638988 0.0446677119011667
0.3109845 -0.03111335882965622 0.04443152512495124
0.3129844 -0.03218625531063956 0.044222666407511206
0.3149843 -0.03296878502826916 0.044242113186938443
0.3169842 -0.03385588807995011 0.04376806947095165
0.3189841 -0.03494378130662286 0.04306242130267311
0.320984 -0.03545477418427467 0.04312608843252703
0.3229839 -0.03599747047138788 0.04266310567229447
0.3249838 -0.03595870961317331 0.043240190498958955
0.3269837 -0.037178157455190736 0.04234950951352212
0.3289836 -0.03736760754850128 0.04205777223709428
0.3309835 -0.037223307775872655 0.04134631008992446
0.3329834 -0.03735169863664873 0.04045300737898586
0.3349833 -0.03729819381282597 0.04006501646565005
0.3369832 -0.03717016407976534 0.03987730017424323
0.3389831 -0.037278308199847315 0.039332009110898736
0.340983 -0.03716719233243152 0.03913324176667195
0.3429829 -0.03661048530338011 0.038851610962280195
0.3449828 -0.03613481154401366 0.038451170416553694
0.3469827 -0.0360759341494931 0.03879684065490721
0.3489826 -0.03592604268114247 0.03850012482095302
0.3509825 -0.03586936965869299 0.03877296693094002
0.3529824 -0.03549920189794866 0.03873218402361395
0.3549823 -0.03541223889555307 0.0389096967723283
0.3569822 -0.035352502836573776 0.039660404087689685
0.3589821 -0.034823740059341614 0.04003071742213963
0.360982 -0.03480508155817007 0.04037433190311612
0.3629819 -0.03495145445970609 0.04056994522562957
0.3649818 -0.03525057901610203 0.04135483197366277
0.3669817 -0.035784475975984636 0.04154452829576396
0.3689816 -0.0358984326431456 0.042094842636283554
0.3709815 -0.03658121824995338 0.04228236619221027
0.3729814 -0.036164203895353395 0.04245658324956864
0.3749813 -0.03732744341238761 0.04339861357145077
0.3769812 -0.03821930332585044 0.04345005421017063
0.3789811 -0.03907132304438753 0.04348821837820408
0.380981 -0.039542509909549974 0.04338379204335843
0.3829809 -0.04033539753066971 0.04369224901509684
0.3849808 -0.040427281426765604 0.044341578763321975
0.3869807 -0.041918376780011674 0.04377674925813654
0.3889806 -0.04237724920363973 0.04384254219315912
0.3909805 -0.04309548551545676 0.04405208911908995
0.3929804 -0.04350228316629873 0.04337029335835622
0.3949803 -0.044372561427287883 0.04345633041761941
0.3969802 -0.04481463691047487 0.04295986892663311
0.3989801 -0.04548641457226396 0.042278087568231607
0.40098 -0.0458832933927032 0.041873923419845416
0.4029799 -0.046346529108357404 0.041484292719979304
0.4049798 -0.04655302497852834 0.04113924196194727
0.4069797 -0.04663604116354319 0.04038699236795931
0.4089796 -0.0472126252165697 0.040301442190359534
0.4109795 -0.04726850121165631 0.03996667587750929
0.4129794 -0.047167670020254265 0.03993395142621653
0.4149793 -0.04722655095202183 0.039141569513945575
0.4169792 -0.04686491845367668 0.03877091963559494
0.4189791 -0.04686311312263483 0.038690424500087174
0.420979 -0.046908979607846985 0.038593897415637735
0.4229789 -0.047053089349712404 0.03872251116976177
0.4249788 -0.04675150296053575 0.038915045795270685
0.4269787 -0.04672774865353156 0.039265926397719614
0.4289786 -0.04658972370923056 0.03944236657494544
0.4309785 -0.04685710359014142 0.03970155933088816
0.4329784 -0.046837185421424746 0.03974757938111215
0.4349783 -0.04736107217941188 0.03975172042282545
0.4369782 -0.04764091307571227 0.040442580239435914
0.4389781 -0.047758458196530656 0.0410788369637722
0.440978 -0.048652181328440854 0.041088294769901515
0.4429779 -0.049261676744723405 0.041326417785458196
0.4449778 -0.04989214587078769 0.04169459060489827
0.4469777 -0.050687340311981556 0.041476061184303685
0.4489776 -0.05107396413086486 0.04194886584021993
0.4509775 -0.05188787045299313 0.042262224358653136
0.4529774 -0.05261710011305335 0.042253790044317334
0.4549773 -0.053249578772926666 0.04196147791479525
0.4569772 -0.05400129699855557 0.04176701307177781
0.4589771 -0.05475949406443882 0.04154235130054671
0.460977 -0.05547281240958642 0.041228437803704915
0.4629769 -0.056166650471082435 0.040826618703133775
0.4649768 -0.057052216259920845 0.04014302749448913
0.4669767 -0.05716960775454783 0.03967367944436378
0.4689766 -0.057920276658881394 0.039099289384860875
0.4709765 -0.05847135167522574 0.038571024815584026
0.4729764 -0.05834405838678208 0.03786767545870606
0.4749763 -0.058671026340326865 0.0375400476798797
0.4769762 -0.059031494782289466 0.03709565654252743
0.4789761 -0.05891495810629376 0.03648215771054402
0.480976 -0.05906509049214294 0.036081351251829256
0.4829759 -0.05942469907377193 0.03564418206058268
0.4849758 -0.059209459502136345 0.0352289540384739
0.4869757 -0.05918258587194016 0.03498075394910037
0.4889756 -0.058772758466266145 0.034579127364692694
0.4909755 -0.058286949859005 0.034396393665726055
0.4929754 -0.05824428808596853 0.03463402298880469
0.4949753 -0.05820295723108952 0.03458479135551112
0.4969752 -0.05805454672818524 0.03471121983291064
0.4989751 -0.05792052737734354 0.035035778434651214
0.500975 -0.05796463722506552 0.03514914089751795
0.5029749 -0.05815322501293946 0.03544192524926729
0.5049748 -0.05853771034283119 0.035801445749615406
0.5069747 -0.05871905875133619 0.036013359300953854
0.5089746 -0.05893618874928544 0.03618652458790522
0.5109745 -0.059347285678772045 0.036412630623094466
0.5129744 -0.059714652863026366 0.0367627578585079
0.5149743 -0.0600022049284275 0.03728574712242519
0.5169742 -0.06071102583851872 0.03722881553608702
0.5189741 -0.06134522509774328 0.037482891852003396
0.520974 -0.06209824433453492 0.03726160306958722
0.5229739 -0.0627835513063108 0.03713414665031962
0.5249738 -0.06335352411292573 0.03735489243275574
0.5269737 -0.06423158261023536 0.03712384370596283
0.5289736 -0.06502948560100343 0.03722673501356487
0.5309735 -0.0660276980514327 0.03653827613924154
0.5329734 -0.06647305838174518 0.03649792508155851
0.5349733 -0.06752665549020032 0.036127626001901426
0.5369732 -0.06808946461847577 0.035669362096670786
0.5389731 -0.0686604800381968 0.03532626756997183
0.540973 -0.06962628649326694 0.03448454439506968
0.5429729 -0.06986784170482117 0.03386291884041452
0.5449728 -0.07042895658897334 0.033243602625052014
0.5469727 -0.07064151561754559 0.03270871364117928
0.5489726 -0.07092251417095685 0.032229200239949976
0.5509725 -0.07106580124078063 0.031648009900671806
0.5529724 -0.07130692539694039 0.03115369453380138
0.5549723 -0.07133992812918513 0.030790719583832764
0.5569722 -0.07132070771390506 0.030211904937940796
0.5589721 -0.07113431137699851 0.02990890366150133
0.560972 -0.07095727988808151 0.02976488271795508
0.5629719 -0.07107568142576459 0.029439936074222864
0.5649718 -0.07067358784982115 0.029275176777058726
0.5669717 -0.07052256462657572 0.029347763687147737
0.5689716 -0.0706485485241538 0.029518990972699072
0.5709715 -0.07066521916030115 0.029424875844521185
0.5729714 -0.07086427927670451 0.029539367587265074
0.5749713 -0.07097812053331828 0.02957675089810114
0.5769712 -0.07128726962089804 0.029520445516069388
0.5789711 -0.07150454544583457 0.029756537767571763
0.580971 -0.07197266234321575 0.0300090857576279
0.5829709 -0.07189880071823439 0.030439996579633602
0.5849708 -0.07291023698715732 0.030637689581118354
0.5869707 -0.073081041121847 0.030712733817390855
0.5889706 -0.07381417577152291 0.03053773529301851
0.5909705 -0.07462553535290084 0.030470170029730077
0.5929704 -0.075336350478657 0.03025658375296763
0.5949703 -0.07591553841414649 0.030248948106063864
0.5969702 -0.0767655164789803 0.02982625267902145
0.5989701 -0.07745689278463637 0.029734595616465777
0.60097 -0.07788397012723514 0.029381068403630438
0.6029699 -0.07850392430494287 0.028913688933716087
0.6049698 -0.07910876058940693 0.028499790553723026
0.6069697 -0.07948511987104263 0.027896556987691976
0.6089696 -0.08013101974358139 0.02742042786759834
0.6109695 -0.08043448089200689 0.02656465421589889
0.6129694 -0.08103618395332052 0.025751644986429536
0.6149693 -0.08108182640169738 0.025198680341331534
0.6169692 -0.0814454192800049 0.024813538214111655
0.6189691 -0.08133022929314167 0.02394906731629802
0.620969 -0.08163820046320372 0.023627625475594705
0.6229689 -0.08133564001907694 0.022771634349965986
0.6249688 -0.08135158999850149 0.02254867144648848
0.6269687 -0.08121601224273477 0.022048754155790263
0.6289686 -0.08113930181487447 0.021845303351297887
0.6309685 -0.08053914988724901 0.021587104441795266
0.6329684 -0.08059957752947258 0.021750245062398782
0.6349683 -0.08043086561637892 0.021495175977128928
0.6369682 -0.08053993982220742 0.02135414973896372
0.6389681 -0.08072956976809334 0.021403510440247818
0.640968 -0.08018080253610377 0.021370967385662895
0.6429679 -0.08067330015376757 0.021735255079351295
0.6449678 -0.08076610712307099 0.021907090181590247
0.6469677 -0.08103455895019371 0.022313904237001796
0.6489676 -0.08151058912769771 0.022597306394121146
0.6509675 -0.08195281511756283 0.02312022800578099
0.6529674 -0.08248058359267206 0.023233103433162598
0.6549673 -0.08298190255641255 0.0234355844890392
0.6569672 -0.08353581997320957 0.023798520619056775
0.6589671 -0.08415990234258668 0.023809045391082997
0.660967 -0.08540988321096094 0.023707107903474828
0.6629669 -0.08591982777467641 0.023572855459925914
0.6649668 -0.08691904814553177 0.02338081066635139
0.6669667 -0.08768784572767897 0.02287533627351401
0.6689666 -0.08825776892919006 0.022367155202706154
0.6709665 -0.08912196159076315 0.021593433177659844
0.6729664 -0.09012462973246815 0.02105765631593703
0.6749663 -0.09078517900233073 0.02031605002838234
0.6769662 -0.09122772817139137 0.019483929715836006
0.6789661 -0.09207161610833495 0.01844253115104427
0.680966 -0.09236156015059212 0.017601390106968318
0.6829659 -0.09266975819818393 0.016657121203413647
0.6849658 -0.09281828556866543 0.015811392857042594
0.6869657 -0.09272690620934315 0.014850313059862202
0.6889656 -0.09291349179890872 0.013978737839643148
0.6909655 -0.09259816458112352 0.013411747080761208
0.6929654 -0.0925981686077458 0.012662735005147495
0.6949653 -0.09225136928002549 0.012250052243581923
0.6969652 -0.0918859920616569 0.01149608293292189
0.6989651 -0.09161358117391055 0.011003017186584002
0.700965 -0.09156366784608819 0.010586514689657354
0.7029649 -0.09115538269451112 0.010464048958081493
0.7049648 -0.09077429891383579 0.010167883718313765
0.7069647 -0.09046230985806009 0.01010854108342563
0.7089646 -0.0900074937900445 0.010185923486281147
0.7109645 -0.08997145038625834 0.01017174500794589
0.7129644 -0.0903501737496723 0.010400895514068559
0.7149643 -0.09041373053950151 0.010488825878465776
0.7169642 -0.09070015927013012 0.01093614642255478
0.7189641 -0.09110930780976659 0.011212164840199792
0.720964 -0.09136615435253623 0.01123627295132187
0.7229639 -0.09167920093050536 0.011158879207047535
0.7249638 -0.09217333695845184 0.011512075831980804
0.7269637 -0.09264188976862776 0.011696047015280393
0.7289636 -0.09355471018099741 0.01194388509992023
0.7309635 -0.09413618718884595 0.011787200037593756
0.7329634 -0.0948470052180275 0.011816403875816346
0.7349633 -0.09575134723162461 0.011503287025579314
0.7369632 -0.09640559709525631 0.011247531572149892
0.7389631 -0.09749235813111101 0.010598558729960694
0.740963 -0.09816198323878095 0.009749820129527464
0.7429629 -0.09867138254315244 0.008847746363699494
0.7449628 -0.0992700001857088 0.007929874334786091
0.7469627 -0.09996993515928124 0.007084294040816938
0.7489626 -0.10020175360729876 0.006143920804567465
0.7509625 -0.10088914909144493 0.005377935103163357
0.7529624 -0.10127802150679573 0.004382542229826113
0.7549623 -0.10125842699741175 0.0034274681351330986
0.7569622 -0.10118410688571015 0.0025384871530884576
0.7589621 -0.10114834165529189 0.0015740039800737834
0.760962 -0.10099248967403739 0.0007748117670418955
0.7629619 -0.10056118815400579 6.376459293548631e-05
0.7649618 -0.10032652049580154 -0.0008556885638966102
0.7669617 -0.09991868354715291 -0.0014000244198542205
0.7689616 -0.09959161370351469 -0.0018879463087385258
