! Created with skrf 1.8.0 (http://scikit-rf.org).
# GHz S RI R 50.0 
!freq ReS11 ImS11
0.001 -0.9999008828832485 0.0005975322364281681
0.0029999 -1.000292945467339 0.001976703240333137
0.0049998 -1.0028870883645475 0.003040552436997135
0.0069997 -1.0136277961816225 -0.0051057862892682285
0.0089996 -1.0178984650834875 -0.02175676600754356
0.0109995 -1.0199958322940712 -0.029303211862307277
0.0129994 -1.0204583458711478 -0.035265491382502706
0.0149993 -1.0185076962914283 -0.04417803587306038
0.0169992 -1.0182379101354988 -0.050179045029516284
0.0189991 -1.0174958557571208 -0.056553427745438395
0.020999 -1.016595176722572 -0.06245655544222864
0.0229989 -1.0156325319059236 -0.0694950370852711
0.0249988 -1.0151320956614767 -0.07538295166385404
0.0269987 -1.0142172235588691 -0.08217729807684297
0.0289986 -1.0134754553949303 -0.08760945244255308
0.0309985 -1.013171831849666 -0.09366758426687971
0.0329984 -1.012616604457336 -0.09997960827405765
0.0349983 -1.011455242932276 -0.10668619762246484
0.0369982 -1.0109034783219395 -0.11268496580083583
0.0389981 -1.0103036661272986 -0.11877540785467337
0.040998 -1.0106366177408699 -0.12394482419145578
0.0429979 -1.0090819903640567 -0.12875204982000765
0.0449978 -1.0086823684678077 -0.13563332973346465
0.0469977 -1.0084775566356001 -0.1405616674244859
0.0489976 -1.0070187963525576 -0.1451856768297483
0.0509975 -1.006928382571776 -0.1525173332607888
0.0529974 -1.0055082127539232 -0.1582065592927691
0.0549973 -1.0059114405271552 -0.1647733834018236
0.0569972 -1.0043029587054626 -0.1689164874472608
0.0589971 -1.0050645893448005 -0.1741923144354386
0.060997 -1.0036002347545314 -0.18099476430635564
0.0629969 -1.002407864116174 -0.18531056947756025
0.0649968 -1.0032541564632476 -0.1909409807407274
0.0669967 -1.000961075468496 -0.19686003863830176
0.0689966 -1.000643823870744 -0.20252866253796462
0.0709965 -0.9997566392910155 -0.2062734660690295
0.0729964 -0.9973176722759635 -0.2135873941412735
0.0749963 -0.9973755103366915 -0.22040860898768033
0.0769962 -0.9961137642000908 -0.22464445135978572
0.0789961 -0.9944845406985298 -0.23037871100495075
0.080996 -0.9943611290977157 -0.23586030532189386
0.0829959 -0.9927033863254822 -0.24242997663557236
0.0849958 -0.991148883755373 -0.24735859888194933
0.0869957 -0.9892993439439858 -0.25389989792841083
0.0889956 -0.9893477385410027 -0.25930843762407274
0.0909955 -0.9864273547420676 -0.2656727654180024
0.0929954 -0.9861606650673526 -0.27132893195773045
0.0949953 -0.9837056588850387 -0.2764144629904727
0.0969952 -0.9814921802263772 -0.28285233625518236
0.0989951 -0.9809624886311621 -0.28806456713206136
0.100995 -0.9788538517529999 -0.29502203523725357
0.1029949 -0.976946917050924 -0.3014626219542481
0.1049948 -0.9749767422474948 -0.30671608353015833
0.1069947 -0.9730112978834238 -0.3126159023269412
0.1089946 -0.9711251323733958 -0.3181635226195593
0.1109945 -0.9689947058880555 -0.3236404932218462
0.1129944 -0.9672505579416495 -0.32977692052172997
0.1149943 -0.9656316887294316 -0.3355772761902934
0.1169942 -0.9636243140155811 -0.34168367888864415
0.1189941 -0.9608244938183006 -0.34691784630756906
0.120994 -0.9600875813874197 -0.35228415361132964
0.1229939 -0.9576248496015551 -0.3583289303942174
0.1249938 -0.9551122215350328 -0.36383839423165737
0.1269937 -0.9546382657603557 -0.36870209212684996
0.1289936 -0.9513762410772155 -0.3740880548448195
0.1309935 -0.9499061656521587 -0.3801748754444787
0.1329934 -0.9463818377150002 -0.384501355899658
0.1349933 -0.9457739617757676 -0.39065753743332454
0.1369932 -0.9436767434384652 -0.39639138343120794
0.1389931 -0.9409072876375318 -0.40008226940689573
0.140993 -0.9395758709389426 -0.40664382203901284
0.1429929 -0.9376988122109243 -0.41210514368723594
0.1449928 -0.9352299461260707 -0.41752291153548876
0.1469927 -0.9328053872729902 -0.4218402203768808
0.1489926 -0.9305096898425943 -0.42809132152583557
0.1509925 -0.93001581015541 -0.43335190909520316
0.1529924 -0.9269229275465704 -0.4389560873861488
0.1549923 -0.9232463146183536 -0.4432061061582441
0.1569922 -0.9215399533832234 -0.4479695773996208
0.1589921 -0.919126780582164 -0.4549808795067784
0.160992 -0.9172838985061181 -0.46019752962855776
0.1629919 -0.91372826380401 -0.46650615585154537
0.1649918 -0.9114951428545938 -0.4711583469668017
0.1669917 -0.9092128824509157 -0.47622172123612544
0.1689916 -0.9060192075033564 -0.4816036160757115
0.1709915 -0.9022768408489269 -0.48635747794163714
0.1729914 -0.9010983062334681 -0.49245921629321787
0.1749913 -0.8970068607094116 -0.49668956890312643
0.1769912 -0.8949969550087737 -0.5032703921583422
0.1789911 -0.8914182189950656 -0.5076018214983602
0.180991 -0.8886880658375559 -0.512891183913507
0.1829909 -0.8861251709219732 -0.5189431270674478
0.1849908 -0.8826827515731758 -0.5242975925540652
0.1869907 -0.8804365420054207 -0.5294532254469291
0.1889906 -0.8771102210406665 -0.5346655152821892
0.1909905 -0.8739479380407068 -0.5392800389319838
0.1929904 -0.8711320366985574 -0.5445033361846805
0.1949903 -0.8687636555643844 -0.5507688603918336
0.1969902 -0.8654902885900438 -0.5557857586852868
0.1989901 -0.8606487284543338 -0.5609439352517029
0.20099 -0.8576345079611922 -0.5653925123632128
0.2029899 -0.8550808242461082 -0.5703048985597081
0.2049898 -0.8519373251087136 -0.5768400209752499
0.2069897 -0.8486955129077314 -0.5806312968272291
0.2089896 -0.8455559854726017 -0.5870156422732516
0.2109895 -0.8420870451895648 -0.591140064687231
0.2129894 -0.8387023102599912 -0.5956859564984045
0.2149893 -0.8354199515361855 -0.6005166025792974
0.2169892 -0.8329181710576726 -0.606051454852715
0.2189891 -0.8291423872675852 -0.6105209741510746
0.220989 -0.8250451740196597 -0.61544139470521
0.2229889 -0.8214575820417809 -0.6190931579902856
0.2249888 -0.8180362129946461 -0.6254832939996187
0.2269887 -0.8159616648809271 -0.6299730992930802
0.2289886 -0.8114293809566703 -0.635092053133936
0.2309885 -0.8073044169588757 -0.6395481231799631
0.2329884 -0.8046645291090819 -0.643901140683918
0.2349883 -0.8005800413712474 -0.6489788565576367
0.2369882 -0.7973952942477068 -0.6529547329692142
0.2389881 -0.7931206896969945 -0.6585444393785789
0.240988 -0.7904436379767387 -0.6633540146037883
0.2429879 -0.7862870066229246 -0.6673424279791708
0.2449878 -0.7826285258753285 -0.6719920524358434
0.2469877 -0.7783369144327887 -0.676391992684563
0.2489876 -0.7753719731963162 -0.682484195362446
0.2509875 -0.7713829516783189 -0.6860779176155771
0.2529874 -0.7671287892049454 -0.6901582168610265
0.2549873 -0.7626506146712796 -0.6950729497115682
0.2569872 -0.7595163722143663 -0.700323495983343
0.2589871 -0.7545675421352498 -0.7045712517762198
0.260987 -0.7509684601725795 -0.7090639458444167
0.2629869 -0.7473774662470207 -0.7135851666654789
0.2649868 -0.7425276540512445 -0.7180103000746287
0.2669867 -0.7386422913298062 -0.7226459176394715
0.2689866 -0.7349942587786906 -0.7272637043267557
0.2709865 -0.7307374568739776 -0.7313788980710694
0.2729864 -0.7258231221410435 -0.7362788637363511
0.2749863 -0.7219480977353074 -0.7407086177632762
0.2769862 -0.7176619463105903 -0.7455848128903202
0.2789861 -0.7122771977657006 -0.7486708738765899
0.280986 -0.7089574534737574 -0.7528309486514184
0.2829859 -0.7048869547365776 -0.7588802425647165
0.2849858 -0.7010089945572264 -0.7617082214184595
0.2869857 -0.6965601854634652 -0.7660260540403828
0.2889856 -0.6923908624438461 -0.7711221358094247
0.2909855 -0.6868030405600651 -0.7742556805695546
0.2929854 -0.6827072512331335 -0.778250988397891
0.2949853 -0.678561733584583 -0.7831137619279639
0.2969852 -0.6736262124927422 -0.7872599485626761
0.2989851 -0.6690856022426306 -0.7904189132524031
0.300985 -0.6650792809669845 -0.7947695543458703
0.3029849 -0.6595740564603204 -0.7985845489271068
0.3049848 -0.6557068615566478 -0.802957617501161
0.3069847 -0.6513553634812682 -0.8077581690831613
0.3089846 -0.6467374949696071 -0.8109555540932993
0.3109845 -0.641900113626393 -0.8153610690541377
0.3129844 -0.6373499921191772 -0.8190423945360754
0.3149843 -0.6322849079573882 -0.8228517351884213
0.3169842 -0.6280927282071905 -0.8265839013333389
0.3189841 -0.6241316204419797 -0.8301438672447324
0.320984 -0.6194661514318921 -0.8348352776906504
0.3229839 -0.6137441402564604 -0.8389364150899257
0.3249838 -0.6080886477776776 -0.8422262626021848
0.3269837 -0.6037797327224305 -0.8461232704373817
0.3289836 -0.598869401363489 -0.8501224713467619
0.3309835 -0.5931335493561148 -0.8544021656154244
0.3329834 -0.5897460885700302 -0.8589117953324688
0.3349833 -0.5843749949582207 -0.8626245516926038
0.3369832 -0.5793649296587341 -0.8655874345811239
0.3389831 -0.574544565025154 -0.8693998780107448
0.340983 -0.5700617966879095 -0.87173286583432
0.3429829 -0.5647478931762964 -0.876040611308735
0.3449828 -0.5599297896294447 -0.8797562512791952
0.3469827 -0.555008676117259 -0.8819028086849998
0.3489826 -0.5503069079769604 -0.88568897313242
0.3509825 -0.5455976685244083 -0.888679913069907
0.3529824 -0.5396955570474271 -0.8925584111871925
0.3549823 -0.5344674322132098 -0.8964130990643798
0.3569822 -0.5290590594327419 -0.8991501478894433
0.3589821 -0.5225086721883095 -0.9026018143802718
0.360982 -0.5174147429546277 -0.9055470836339365
0.3629819 -0.5122760164976108 -0.9094519536326409
0.3649818 -0.5066845797696864 -0.9123527709743247
0.3669817 -0.5012053318733668 -0.9148297759301257
0.3689816 -0.4965164487044194 -0.9180689551039997
0.3709815 -0.4910400319471191 -0.9217216434710828
0.3729814 -0.4845423799853276 -0.9256305052758607
0.3749813 -0.4794439268390932 -0.9282997199677164
0.3769812 -0.4742991684317085 -0.9307082693745642
0.3789811 -0.47018149122787856 -0.9347162711664543
0.380981 -0.46394216786759 -0.9380379040181377
0.3829809 -0.458238308245123 -0.9403961271326815
0.3849808 -0.45142183446083295 -0.9423076490580699
0.3869807 -0.4475036527896889 -0.9458336530944583
0.3889806 -0.44100566642614264 -0.9486415733366766
0.3909805 -0.4354084054217252 -0.9514324898824122
0.3929804 -0.43015271219721984 -0.9540701269801021
0.3949803 -0.42421419113056497 -0.9565132398598937
0.3969802 -0.4182127346975938 -0.9595667716319133
0.3989801 -0.41268189599730704 -0.9631492941549429
0.40098 -0.40739192313795797 -0.965197666277213
0.4029799 -0.40221953682813333 -0.9673777226645413
0.4049798 -0.3954870703892483 -0.9699893713590529
0.4069797 -0.39112353931805544 -0.9734422285553879
0.4089796 -0.38512252972791294 -0.9750400751547775
0.4109795 -0.3789946610534339 -0.9784137707348214
0.4129794 -0.37366865601061244 -0.9796887939555082
0.4149793 -0.3677604305942325 -0.9822616203509771
0.4169792 -0.36207316545777846 -0.9859995974677058
0.4189791 -0.35569084910369125 -0.9883099088955922
0.420979 -0.34983290164579434 -0.990502566302458
0.4229789 -0.34422068546004914 -0.9925223304654887
0.4249788 -0.33721680999619885 -0.9942998234976821
0.4269787 -0.3315172811550081 -0.9966511546426337
0.4289786 -0.32579578716673707 -0.9991036478712025
0.4309785 -0.31978655400646666 -1.0006211683688924
0.4329784 -0.3133765222295924 -1.0033132551629587
0.4349783 -0.307681807391854 -1.0061080972844574
0.4369782 -0.30202092353832893 -1.007238899405169
0.4389781 -0.2950655009819078 -1.0091752998242358
0.440978 -0.2903037456402239 -1.0116880660417735
0.4429779 -0.28417688447335987 -1.0136310048465538
0.4449778 -0.27813270475351615 -1.0154407793449662
0.4469777 -0.27228794951397867 -1.0183567308506838
0.4489776 -0.2661895284589017 -1.0199792086653823
0.4509775 -0.2593353320145964 -1.0207673223219045
0.4529774 -0.2534998508727425 -1.022683123747442
0.4549773 -0.2468603444669398 -1.0248542551669957
0.4569772 -0.24021360040692694 -1.0265856971461444
0.4589771 -0.23476367939483345 -1.0290269427866852
0.460977 -0.22803159571739168 -1.0295823683774872
0.4629769 -0.22215174687206643 -1.0313062187930815
0.4649768 -0.21644512878482133 -1.033093074279191
0.4669767 -0.20985691615511085 -1.0353731341084416
0.4689766 -0.20384722080000434 -1.0365045620606914
0.4709765 -0.1984163746589143 -1.0374285792178737
0.4729764 -0.19137073442528738 -1.039252244120519
0.4749763 -0.18558858876823275 -1.0400883122473081
0.4769762 -0.1794194679209398 -1.0415304627892565
0.4789761 -0.17308828424842265 -1.0423441049472968
0.480976 -0.16683112687343293 -1.043710194019635
0.4829759 -0.1602525041077243 -1.0453970590289312
0.4849758 -0.15435645154342054 -1.0463732141674893
0.4869757 -0.14804834808297834 -1.0473907002590828
0.4889756 -0.140926111395087 -1.0494455600956387
0.4909755 -0.13461288941844413 -1.0507124783848334
0.4929754 -0.1277218097527855 -1.0508575609463764
0.4949753 -0.12137783347776475 -1.052406102182519
0.4969752 -0.11523354490841017 -1.0534569643673832
0.4989751 -0.107821813391107 -1.0540632455122538
0.500975 -0.10161249906218775 -1.0552350819137108
0.5029749 -0.095803016298617 -1.056260798441677
0.5049748 -0.08937789537841515 -1.0565152742768316
0.5069747 -0.08291384012665456 -1.0582279995947121
0.5089746 -0.07616074031648164 -1.0588019472028898
0.5109745 -0.06994016914740595 -1.0594799010199036
0.5129744 -0.0632271567989058 -1.059646014520076
0.5149743 -0.05637342254895156 -1.0603353680475198
0.5169742 -0.04973584211635749 -1.061830118926334
0.5189741 -0.04323707124233056 -1.062124711124351
0.520974 -0.03645978794363797 -1.0623019077211517
0.5229739 -0.030280319661650533 -1.0630231438903177
0.5249738 -0.02340900405453926 -1.0636742825013943
0.5269737 -0.016789338580255588 -1.0637301815413103
0.5289736 -0.010471849693005554 -1.0640304009342412
0.5309735 -0.0045834320754659305 -1.065003713013683
0.5329734 0.0024172058764887067 -1.0653180143576497
0.5349733 0.009062944444217957 -1.065106999400286
0.5369732 0.015408954822133766 -1.0653998110412068
0.5389731 0.02171287007240387 -1.065108295893847
0.540973 0.028438490464627944 -1.0664204992924513
0.5429729 0.034593773897783134 -1.066665116936865
0.5449728 0.04025214105510368 -1.0662188766541574
0.5469727 0.04723186885591882 -1.0659793904485142
0.5489726 0.05360677914502353 -1.0661432447374384
0.5509725 0.06023334694567234 -1.066030373974817
0.5529724 0.06691862090148115 -1.0656489227620338
0.5549723 0.07357193389216982 -1.0652853803195526
0.5569722 0.08039806658112758 -1.0649884426003307
0.5589721 0.08643869085690303 -1.0646796004590342
0.560972 0.09312029738583122 -1.0644302685570268
0.5629719 0.09998273523344167 -1.0637800423386008
0.5649718 0.10664064976501136 -1.0633779206428664
0.5669717 0.11349606066154536 -1.0629592974092539
0.5689716 0.11968395502746222 -1.0627893393953058
0.5709715 0.12678371710949682 -1.0624986882036056
0.5729714 0.13292234123081742 -1.0620900531879411
0.5749713 0.13942319692538677 -1.0610772435508928
0.5769712 0.14627054157139746 -1.0610224131874377
0.5789711 0.1528722246545203 -1.0608054902481885
0.580971 0.15939112560866286 -1.0600996725068654
0.5829709 0.16596916083696275 -1.058847469453952
0.5849708 0.17222100445717484 -1.058001219556095
0.5869707 0.17950723100544677 -1.0565026915221876
0.5889706 0.1860621913140754 -1.056194549008389
0.5909705 0.1929315305206067 -1.0549093426349014
0.5929704 0.1994716941386327 -1.0540789279915703
0.5949703 0.2063256493850555 -1.0531268105034037
0.5969702 0.21285721090726623 -1.0523347015240627
0.5989701 0.21977766185133954 -1.0511573727235288
0.60097 0.22650973928175355 -1.0499661145958628
0.6029699 0.23297244900038888 -1.048779120059219
0.6049698 0.23932856267906316 -1.0480997289140996
0.6069697 0.2460772212686933 -1.0468240076625088
0.6089696 0.25247412068229447 -1.0447266918447577
0.6109695 0.2590281067485638 -1.044230079626418
0.6129694 0.2649702861124277 -1.0427883810701741
0.6149693 0.27187293805282353 -1.0413390565573237
0.6169692 0.2785152887850163 -1.0391817205091594
0.6189691 0.2849968248200153 -1.037940386997855
0.620969 0.29115419319741603 -1.0361159334475114
0.6229689 0.29795379023529567 -1.0349088429479782
0.6249688 0.30451879202425003 -1.0331575306469092
0.6269687 0.31097732057416183 -1.0310073233765524
0.6289686 0.3179006693513485 -1.0295346855321337
0.6309685 0.3242926833717332 -1.028334458916966
0.6329684 0.33072172306775205 -1.0264565234035816
0.6349683 0.3382581472988114 -1.0241943704505911
0.6369682 0.3443179675016498 -1.023260222201458
0.6389681 0.3503013539162063 -1.0215759695276923
0.640968 0.3569230255703896 -1.0194731457773372
0.6429679 0.3632867182431095 -1.0178074094584004
0.6449678 0.3699858106301487 -1.0152145113316433
0.6469677 0.376201199059918 -1.0132841566767516
0.6489676 0.38244349146693307 -1.0107126576324006
0.6509675 0.38901817479468837 -1.0088156495587803
0.6529674 0.3952095180961568 -1.0057919838243188
0.6549673 0.40160932895652446 -1.0035317692549015
0.6569672 0.4077686101935341 -1.0012827272682567
0.6589671 0.4148140210291153 -0.9984386142268035
0.660967 0.4204366656058571 -0.9962626205899865
0.6629669 0.4272025525069717 -0.9941346345589476
0.6649668 0.4333733370997671 -0.9919838696863733
0.6669667 0.44041395052852517 -0.9889524711257532
0.6689666 0.446972146845666 -0.9865132187057567
0.6709665 0.45324394494269526 -0.984511882488111
0.6729664 0.45935017644507337 -0.982120522296562
0.6749663 0.4657451285758701 -0.9791655673099626
0.6769662 0.472173888968378 -0.9772194512263811
0.6789661 0.4782697992813006 -0.9749145065683751
0.680966 0.4851398042256688 -0.9712870969087567
0.6829659 0.4913022002167368 -0.968086400988973
0.6849658 0.4976585257918479 -0.9658320388967255
0.6869657 0.5036782481930729 -0.96194811806794
0.6889656 0.5095467983814231 -0.95905826147569
0.6909655 0.5158861667614374 -0.9557378036859958
0.6929654 0.5218850635303519 -0.9528834068486244
0.6949653 0.5280055825942036 -0.9495967046512149
0.6969652 0.534145800630182 -0.9462202200727433
0.6989651 0.5402160081694782 -0.9430068384519007
0.700965 0.5464137069862215 -0.9392170651282308
0.7029649 0.5522392897784283 -0.935958613056945
0.7049648 0.5580193664381398 -0.9330101588697058
0.7069647 0.5643535908508496 -0.9296294007016496
0.7089646 0.5711306416503562 -0.926630880068956
0.7109645 0.5765055066985663 -0.9230385781357389
0.7129644 0.5825722097694495 -0.9201068056199619
0.7149643 0.5889245863096645 -0.9165975734739167
0.7169642 0.5945755026528967 -0.9128198645200221
0.7189641 0.6003210697514219 -0.9087269579212953
0.720964 0.6059426278033749 -0.9059169941410906
0.7229639 0.6119890793017259 -0.9017601723713264
0.7249638 0.6181653361508033 -0.8983757130362555
0.7269637 0.6237780818541587 -0.8939119748704566
0.7289636 0.6293075581663906 -0.8908946216677938
0.7309635 0.635342462613244 -0.8866029282932525
0.7329634 0.6412533072868816 -0.8823620177351051
0.7349633 0.6473588626858116 -0.8791377160047995
0.7369632 0.6530171798516855 -0.8748654141822076
0.7389631 0.6586821587302176 -0.8705397773804544
0.740963 0.6646316087864724 -0.8677175147766614
0.7429629 0.670861629396502 -0.8639501748086177
0.7449628 0.6763894896039215 -0.8600165004589148
0.7469627 0.6815198163528718 -0.8554484837523192
0.7489626 0.6879951741154795 -0.85197337571514
0.7509625 0.6938328364825164 -0.8470360004418442
0.7529624 0.6989777974915322 -0.8426149540197925
0.7549623 0.7044874528366718 -0.83802981341699
0.7569622 0.7102436228774999 -0.833472888299079
0.7589621 0.715383662530812 -0.8288022081098216
0.760962 0.7205443428925263 -0.8240897850294624
0.7629619 0.7258927597002932 -0.8201947599198592
0.7649618 0.731603630771284 -0.8146344574731093
0.7669617 0.7368202396822408 -0.8096458056860688
0.7689616 0.7418231790696043 -0.8052785015844934
0.7709615 0.7474830421486259 -0.8005671800940404
0.7729614 0.7521745468920515 -0.7962994799395636
0.7749613 0.7583443607428519 -0.7918799162552468
0.7769612 0.7630834597901354 -0.7875853526876898
0.7789611 0.7690693925155443 -0.7829068444974785
0.780961 0.7739396843616043 -0.7779964912976098
0.7829609 0.7784696838852634 -0.7734523762664854
0.7849608 0.7841033317284876 -0.7682837991368688
0.7869607 0.7888299889977559 -0.7633813170398971
0.7889606 0.7938506078457962 -0.7581546022156513
0.7909605 0.7984712832599141 -0.7533421324366102
0.7929604 0.8033616161776356 -0.747784927968123
0.7949603 0.8083389020679096 -0.7429038709832224
0.7969602 0.8128419421386595 -0.7377081477729868
0.7989601 0.8179502336361554 -0.7323167906562557
