! Created with skrf 1.8.0 (http://scikit-rf.org).
# GHz S RI R 50.0 
!freq ReS11 ImS11
0.001 -0.9998696518856826 0.0008372998989681578
0.0029999 -0.09457534108470633 0.12130719302510554
0.0049998 0.8650094343616364 0.4080610834281652
0.0069997 1.0031123353877551 0.08550300942769407
0.0089996 1.025752596198259 0.052865533080952085
0.0109995 1.0241164386331754 0.05471910072277128
0.0129994 1.02458168428195 0.06092969882203945
0.0149993 1.026252394135201 0.06494150296217177
0.0169992 1.027407026016125 0.07058803377950484
0.0189991 1.0267944503835842 0.07525037460889536
0.020999 1.0286791842303282 0.0824362288486186
0.0229989 1.0287574771237762 0.08838050637846419
0.0249988 1.0287628508310869 0.09502713341020176
0.0269987 1.0283539348426578 0.10111164116419677
0.0289986 1.0282417397810137 0.10912404101335037
0.0309985 1.0274231620274967 0.11668766294030289
0.0329984 1.0274901644416214 0.12267457695134654
0.0349983 1.0272614417036603 0.12901912917943817
0.0369982 1.025927045715387 0.13613575241598058
0.0389981 1.0248257219925658 0.1421816204894635
0.040998 1.0226575581977548 0.14967453540939957
0.0429979 1.0233141930884546 0.15800257415673402
0.0449978 1.021694161161899 0.1638375395607214
0.0469977 1.0194004883730274 0.17197475123211325
0.0489976 1.0199275420528808 0.18101255837675703
0.0509975 1.0179518739873974 0.1865535321753446
0.0529974 1.0165900568052348 0.19373585608219668
0.0549973 1.0146468248784648 0.20112732867710267
0.0569972 1.0140628127514495 0.20909036761801247
0.0589971 1.0109944921744318 0.2167253948684157
0.060997 1.009068215442698 0.22312622762727125
0.0629969 1.0085604759869344 0.23131052491062937
0.0649968 1.0052204095003938 0.23903896103500272
0.0669967 1.0039902876972633 0.24554817522674746
0.0689966 1.0019999360485046 0.25231007690628715
0.0709965 0.9997852269049806 0.2616626274591176
0.0729964 0.9995957672596643 0.26726971834394164
0.0749963 0.9965440440258092 0.27309476025567925
0.0769962 0.9944305323567528 0.28159137255544736
0.0789961 0.9938204299285904 0.28858099207637755
0.080996 0.9899525938892134 0.29614015457325643
0.0829959 0.9885193665419635 0.30265640524067866
0.0849958 0.9865664730954022 0.3100211248605369
0.0869957 0.9846256557148723 0.3160190872978729
0.0889956 0.9816196530276575 0.32255893270728553
0.0909955 0.9800605025718525 0.32943348743298806
0.0929954 0.9773197452848561 0.33586285755109857
0.0949953 0.9755333312383192 0.3439799737860092
0.0969952 0.9740482194735992 0.35012740625803657
0.0989951 0.9708284628400238 0.35662424644793067
0.100995 0.9684508928892873 0.3629271762227771
0.1029949 0.9657551483210982 0.3689437242957322
0.1049948 0.9631714817060066 0.37648284761178274
0.1069947 0.9608086990461298 0.38250740707180314
0.1089946 0.9590978274248098 0.389395950724407
0.1109945 0.9565449773887535 0.3968434078572151
0.1129944 0.9534539046417083 0.40248556697468507
0.1149943 0.9507366034662369 0.4085433556180246
0.1169942 0.9482833891905313 0.4154965289253854
0.1189941 0.9453587277427918 0.4223909556373452
0.120994 0.941785233277193 0.4287422111234973
0.1229939 0.9389779181623739 0.4350957206454509
0.1249938 0.9363096516822114 0.4418521279852033
0.1269937 0.9323525194395037 0.4483435902565902
0.1289936 0.9301252837418253 0.4552780166274828
0.1309935 0.9255476937051728 0.46108615833057803
0.1329934 0.9241688852154165 0.4688845293408398
0.1349933 0.9194890243782428 0.47497374307521056
0.1369932 0.916473596892374 0.48065858421593144
0.1389931 0.9132455799536181 0.48898237531955413
0.140993 0.9093731868958259 0.49381111751473217
0.1429929 0.9060329455720183 0.5005212396242847
0.1449928 0.9020144084287793 0.5065208329595874
0.1469927 0.8990901278140778 0.5141992880636895
0.1489926 0.8947819123922741 0.5198223946359749
0.1509925 0.8901376323142528 0.5259546986420736
0.1529924 0.8869483304755672 0.532230547561151
0.1549923 0.883656870409424 0.5394556163915282
0.1569922 0.879569915238024 0.5461501336960698
0.1589921 0.8754285854320853 0.5508192112001037
0.160992 0.8704862819256728 0.5570774282185857
0.1629919 0.8679502881600784 0.5620379603126318
0.1649918 0.8639571297039786 0.5689039693044585
0.1669917 0.8595735297235637 0.5754597610333663
0.1689916 0.8559038333713179 0.5807363896675303
0.1709915 0.8527812477804568 0.5874698503839364
0.1729914 0.8477241765141588 0.5923762211362843
0.1749913 0.8443639314863837 0.5992725286031015
0.1769912 0.8394655103001726 0.6040421014976265
0.1789911 0.8358537823188492 0.6098929991894071
0.180991 0.8322266517459361 0.6162321000900725
0.1829909 0.8272120239038806 0.6208118384796472
0.1849908 0.8232096582385977 0.6266893244016275
0.1869907 0.818490742285766 0.6323290360442101
0.1889906 0.8142760916760694 0.6377851582328956
0.1909905 0.8098354036311982 0.6441306425330993
0.1929904 0.804908597422943 0.6489485979413975
0.1949903 0.8000680518224228 0.6539807576849628
0.1969902 0.7957296721401022 0.6593860251059663
0.1989901 0.7926513035295055 0.6649573810458281
0.20099 0.7876943930354912 0.6710478050684923
0.2029899 0.7825074010406917 0.6763085750931515
0.2049898 0.7783287318231646 0.6802979622048143
0.2069897 0.773358245788949 0.686960770763236
0.2089896 0.7689122846013647 0.6906308482443183
0.2109895 0.763927173489503 0.6961517789340921
0.2129894 0.7588899389869567 0.7022897783562475
0.2149893 0.7541890552778605 0.7074502543784871
0.2169892 0.7483552773439269 0.7117416420183806
0.2189891 0.7433192143581611 0.7173284167289253
0.220989 0.7392667833188896 0.7225047475496574
0.2229889 0.734532470034505 0.7287958890382253
0.2249888 0.7297047602935914 0.7326791197379441
0.2269887 0.7238267772615132 0.7382825178616482
0.2289886 0.7192247979446544 0.7433953273749196
0.2309885 0.7145916625495358 0.7477818965538223
0.2329884 0.7082711308561064 0.753069958221305
0.2349883 0.7039772923322861 0.7580068888131479
0.2369882 0.6978414722533053 0.7637053244123427
0.2389881 0.6932551773254223 0.767399509929057
0.240988 0.6866182542427132 0.7720973648588964
0.2429879 0.682268443698243 0.7777916029918682
0.2449878 0.6767056347172018 0.7822174373528461
0.2469877 0.6719125873035092 0.7873284918393879
0.2489876 0.6653324901927848 0.7901358786630468
0.2509875 0.6599304523391613 0.7957992893324126
0.2529874 0.6544676216737872 0.8005943755981055
0.2549873 0.6495376239288072 0.8049888840975886
0.2569872 0.643344798945661 0.8082068313750644
0.2589871 0.6381708752009545 0.8131313193824653
0.260987 0.6324226052522196 0.8176518676723876
0.2629869 0.6263892983204129 0.8217330680126509
0.2649868 0.6215597851810415 0.8261710136489337
0.2669867 0.6158899681679947 0.8298322465109161
0.2689866 0.6094368954541844 0.833875879213164
0.2709865 0.6040864059936868 0.8380137538681357
0.2729864 0.5992541721316913 0.8420149439955094
0.2749863 0.5929330294337645 0.8458249271275935
0.2769862 0.5871457123206099 0.8493638394099746
0.2789861 0.5825198986658113 0.8543235238575946
0.280986 0.5760706450056375 0.8582901374687204
0.2829859 0.5705140256835037 0.860979843010747
0.2849858 0.5639386844163258 0.8655104487156526
0.2869857 0.557958741995373 0.8692445069832537
0.2889856 0.5514944596284733 0.8722510659553999
0.2909855 0.5464959937976422 0.8767360698095873
0.2929854 0.5402911006319515 0.8807296446712064
0.2949853 0.5339409013952962 0.8839572930332114
0.2969852 0.5283434668404091 0.8872476283241655
0.2989851 0.5225128849188696 0.8916249936798278
0.300985 0.5162201556144039 0.8947855775355346
0.3029849 0.5110610656310836 0.8990037645322966
0.3049848 0.5047254111993761 0.9016085608252437
0.3069847 0.49795373391858927 0.9041847134530117
0.3089846 0.49208680449766534 0.9083777233412402
0.3109845 0.4860703494974917 0.9112250420374498
0.3129844 0.47969292644279493 0.9147436213676787
0.3149843 0.4734025438457962 0.9184391169127338
0.3169842 0.46695063387031216 0.9219030897246021
0.3189841 0.4601337648843086 0.9250506616752658
0.320984 0.45321499389720915 0.9276847751008641
0.3229839 0.4480352818269731 0.9304538765365424
0.3249838 0.4418276601097296 0.9339634830890389
0.3269837 0.43523793540760647 0.9366944631834675
0.3289836 0.4284526495869746 0.9394473786733929
0.3309835 0.4234576709559743 0.9419328692757752
0.3329834 0.41597079222933253 0.9440077112557669
0.3349833 0.4101669953013693 0.9463797508128093
0.3369832 0.40397851770533305 0.9491008892909447
0.3389831 0.39759198915927296 0.9514650534648057
0.340983 0.3903538447067388 0.9546084647281033
0.3429829 0.38424530893401354 0.9564768748587245
0.3449828 0.3778943703257636 0.9586646144269518
0.3469827 0.370910614522833 0.9623022930164834
0.3489826 0.36428338095133134 0.9649173554571124
0.3509825 0.3572764437033103 0.9671334607799293
0.3529824 0.35125042886603086 0.9689943124380002
0.3549823 0.3452288983267845 0.9713054968808913
0.3569822 0.3377196464573414 0.974075211173655
0.3589821 0.33268228339480194 0.9762421270608851
0.360982 0.3261344299088547 0.97837563166746
0.3629819 0.31915115016342166 0.9801547536415561
0.3649818 0.31313434548745983 0.9828466848778215
0.3669817 0.3065579698980072 0.9855548677045918
0.3689816 0.2995898423204014 0.9870039584391074
0.3709815 0.29361949992055303 0.9886555358363568
0.3729814 0.2882363497084437 0.9899822228715148
0.3749813 0.2811886248209012 0.9923303410714355
0.3769812 0.27412993498678007 0.9941170783762491
0.3789811 0.26629485012573745 0.9948916295775976
0.380981 0.2607066614798786 0.9962483613512026
0.3829809 0.253815276158061 0.998827241818628
0.3849808 0.24834691586505292 1.0011907409919916
0.3869807 0.24033792157514808 1.0023135261473144
0.3889806 0.23468663912108517 1.0038640875142035
0.3909805 0.22786484216202388 1.0057384446845277
0.3929804 0.22080695730357425 1.0071405104427025
0.3949803 0.21432292389971644 1.0089282793556453
0.3969802 0.2079724447999415 1.0097750157890715
0.3989801 0.20147250212231194 1.0108556034435259
0.40098 0.19394182997021858 1.0122231770200305
0.4029799 0.18729615483624132 1.0137349521514656
0.4049798 0.18111605682347143 1.0151275085259206
0.4069797 0.17373524111700536 1.0155724497220944
0.4089796 0.1671634499597273 1.0175492976177485
0.4109795 0.16049025215354587 1.0176175444327944
0.4129794 0.1534565383947269 1.0201920994595952
0.4149793 0.14644634460657244 1.0206649426466552
0.4169792 0.1402312611941081 1.0209175945569875
0.4189791 0.13365306748179695 1.0220904778737556
0.420979 0.12659878005912364 1.0228258049400911
0.4229789 0.11963493294562996 1.0236727027274197
0.4249788 0.11372021391424048 1.0240094660006245
0.4269787 0.10653891167212598 1.0244560578310857
0.4289786 0.1000132766575409 1.025214409035306
0.4309785 0.09317032554262675 1.0261265090703795
0.4329784 0.08662800349995098 1.026355735994255
0.4349783 0.0801847298489501 1.0266017906501164
0.4369782 0.07321542709190712 1.0276326062436472
0.4389781 0.06735429809239693 1.02834439969064
0.440978 0.05983701407868246 1.028187879061239
0.4429779 0.05346563871698305 1.0282787564517542
0.4449778 0.04605838276996364 1.0280788914373806
0.4469777 0.03948389161205601 1.0286011943352258
0.4489776 0.03271987005501788 1.0287923598483795
0.4509775 0.026506615828692723 1.0298478168338459
0.4529774 0.01921194808391486 1.0299150453513353
0.4549773 0.013138152701910794 1.029534739949904
0.4569772 0.006438245052428036 1.029784622881267
0.4589771 -0.0005977451820515789 1.028972453373315
0.460977 -0.006981120366348875 1.0298539220357559
0.4629769 -0.014008974577485157 1.0296175294706544
0.4649768 -0.020624697446133315 1.0287929348752405
0.4669767 -0.027236915076793464 1.0288125686619396
0.4689766 -0.033875033166742535 1.0286971304041108
0.4709765 -0.040698224582909934 1.0283644821375242
0.4729764 -0.04689296280293699 1.0277897261397448
0.4749763 -0.0540163979556335 1.0277473674967275
0.4769762 -0.0604177471364465 1.0274537940626463
0.4789761 -0.06743397781463648 1.0274432430970766
0.480976 -0.07418200839003569 1.0269632511807918
0.4829759 -0.08078173459091775 1.0261075132062087
0.4849758 -0.08763436606304936 1.025272018142578
0.4869757 -0.09440370100728263 1.0250732224589332
0.4889756 -0.10072397716746109 1.0242827435397885
0.4909755 -0.10729659699274191 1.0235637734008851
0.4929754 -0.11388820106015554 1.0230400933036334
0.4949753 -0.12047640072804815 1.021782671131466
0.4969752 -0.12710379809530176 1.0216708408567805
0.4989751 -0.1329575272826818 1.0204924729648004
0.500975 -0.1392070098080274 1.019987331992286
0.5029749 -0.1463003331356718 1.0188555963685069
0.5049748 -0.15278320383113572 1.0176763804703965
0.5069747 -0.15922279929389047 1.0162707981659491
0.5089746 -0.16584205317534367 1.0148146107711549
0.5109745 -0.17195626010756035 1.01414270317676
0.5129744 -0.17860817469440304 1.0130919132425358
0.5149743 -0.1849631766378794 1.0121599053060768
0.5169742 -0.19095715851905143 1.0106735837438163
0.5189741 -0.19794020137202983 1.0092253244971048
0.520974 -0.20410766162662236 1.007847477951269
0.5229739 -0.21070594630319628 1.0063582738819763
0.5249738 -0.21685763182586604 1.0047692964096482
0.5269737 -0.22349047886384216 1.0033082312662893
0.5289736 -0.23002172047242075 1.0014388456694119
0.5309735 -0.23642136766526786 0.9996946428917127
0.5329734 -0.24274168093278237 0.998568801884812
0.5349733 -0.24906296466244982 0.9973398230945043
0.5369732 -0.2554199047463464 0.9952020083240073
0.5389731 -0.2622000321554443 0.9938599993767979
0.540973 -0.26839020414438697 0.9919384575590293
0.5429729 -0.2748868584714279 0.9902712858661371
0.5449728 -0.281603026101062 0.9883372251318441
0.5469727 -0.28781671536731773 0.9868662158416888
0.5489726 -0.2938167503079894 0.9847143354146232
0.5509725 -0.3002377512128052 0.9830892960321741
0.5529724 -0.3068280038385313 0.9810687855824712
0.5549723 -0.3126448614759081 0.9789183932993207
0.5569722 -0.3187966814100386 0.976942038848955
0.5589721 -0.32527987589101093 0.9750004294619169
0.560972 -0.3317494247916649 0.9730389017690497
0.5629719 -0.33808852582850235 0.9708342876512058
0.5649718 -0.34368275843858154 0.9684018270074816
0.5669717 -0.3501412875369844 0.9664915571310057
0.5689716 -0.35615692269032884 0.9642359773366266
0.5709715 -0.36207137089759034 0.9619298834172509
0.5729714 -0.3679923899766034 0.9597493512377289
0.5749713 -0.3744380473978923 0.9574545619953102
0.5769712 -0.38019632880479143 0.9545429043216292
0.5789711 -0.3859387652905968 0.9519248139253869
0.580971 -0.39214345428985375 0.9493154527820741
0.5829709 -0.3983495377555849 0.9470585585752734
0.5849708 -0.4044475091205073 0.9443234211684016
0.5869707 -0.410242490476774 0.9421167978936704
0.5889706 -0.4160910716213751 0.9393446852465963
0.5909705 -0.422052618155271 0.9365772856643728
0.5929704 -0.42804734124457416 0.9339939110715171
0.5949703 -0.4335631652907945 0.9316508039087967
0.5969702 -0.4395151343269403 0.9281837318323725
0.5989701 -0.4453189598560736 0.9253435454348191
0.60097 -0.4510945135301795 0.9226976858349327
0.6029699 -0.4570545681863247 0.9201125615982051
0.6049698 -0.4629880896652753 0.9171434634117878
0.6069697 -0.46821030374459544 0.9144523159939134
0.6089696 -0.47448303007132675 0.9114464214990686
0.6109695 -0.48009237792122433 0.9082986702687014
0.6129694 -0.4860147939576095 0.9051845379895604
0.6149693 -0.491508420267245 0.901731470906989
0.6169692 -0.49727361041034757 0.8988212408277112
0.6189691 -0.50282260608305 0.8958660573997574
0.620969 -0.5087072977730576 0.8930380283171672
0.6229689 -0.5143246460154676 0.8894058276422644
0.6249688 -0.5195053941829678 0.8862569799604361
0.6269687 -0.5254027561117977 0.8829927956050264
0.6289686 -0.5307583924564253 0.8796573699559305
0.6309685 -0.5364266449944176 0.8763116224178386
0.6329684 -0.5418127265603724 0.8729392672510496
0.6349683 -0.5470183534854397 0.8698495589360439
0.6369682 -0.5522694973439929 0.8663063745947341
0.6389681 -0.5581476497086568 0.8624007156141587
0.640968 -0.563245403685831 0.8590778230635047
0.6429679 -0.5685965338942005 0.8552609086786822
0.6449678 -0.5736307113062339 0.8519305370444076
0.6469677 -0.5791755384037225 0.848155679837787
0.6489676 -0.584678923630329 0.8443931162080603
0.6509675 -0.5896156630087035 0.8409026182465367
0.6529674 -0.5951376187376329 0.8372330362801899
0.6549673 -0.5999768707928737 0.8335798777753938
0.6569672 -0.6053829586154182 0.8296361625937123
0.6589671 -0.6105596893492996 0.8261480969140327
0.660967 -0.6157547714472772 0.8223414040814788
0.6629669 -0.6207311500675299 0.8185747656177897
0.6649668 -0.6258684123305053 0.8140950085025731
0.6669667 -0.6306618084662424 0.8106861612883842
0.6689666 -0.6358338685991642 0.8066686179391299
0.6709665 -0.6407877361169959 0.8025974274990179
0.6729664 -0.6459267413876422 0.7988844933429033
0.6749663 -0.6508822268166208 0.7949929066111727
0.6769662 -0.6558769473629277 0.7909142651825294
0.6789661 -0.6606173231837127 0.7866564610868747
0.680966 -0.665499770771516 0.7825349980255135
0.6829659 -0.6704396487486519 0.7785901575141476
0.6849658 -0.6751300574244834 0.7745405087032036
0.6869657 -0.6800169814355395 0.7702436689836406
0.6889656 -0.6848555445760046 0.7658247779938172
0.6909655 -0.6895265476669501 0.7617635406980152
0.6929654 -0.6945809618997492 0.7573242497233666
0.6949653 -0.6989228529909088 0.7533226574914609
0.6969652 -0.7039042658052099 0.7488395151042588
0.6989651 -0.708284553195479 0.7447796917596943
0.700965 -0.7132099033944066 0.7401254517218622
0.7029649 -0.7177022004259972 0.7359024264683961
0.7049648 -0.722419477282989 0.7312435938036095
0.7069647 -0.7267007750385808 0.7271020206028935
0.7089646 -0.731256391820902 0.7224029535147356
0.7109645 -0.735728284136853 0.7179596452487783
0.7129644 -0.7403060110774933 0.7133093014058836
0.7149643 -0.7444510918100857 0.7085818325906917
0.7169642 -0.7489424002417192 0.7039702905692933
0.7189641 -0.7534252534392959 0.6994927587331647
0.720964 -0.7576323697061954 0.694831224717619
0.7229639 -0.7620265614502474 0.6900592047170976
0.7249638 -0.7660108068988197 0.6853513753937306
0.7269637 -0.7704112256445335 0.6808502946942112
0.7289636 -0.7743961136173637 0.676299506057285
0.7309635 -0.7784708395509098 0.6712887988744027
0.7329634 -0.7826873136704686 0.6664094957635127
0.7349633 -0.7868632511800435 0.6620753637563743
0.7369632 -0.7907483604089056 0.6569826467882658
0.7389631 -0.7947258553482119 0.6520747045441334
0.740963 -0.7986221105354913 0.647367603917537
0.7429629 -0.8025905764359984 0.64231461270699
0.7449628 -0.8066156024790508 0.6377352376437019
0.7469627 -0.8107186977508868 0.6327851519631399
0.7489626 -0.8146256646953723 0.6275606055591149
0.7509625 -0.8185091051863311 0.6229693789425844
0.7529624 -0.8224128341850565 0.6177575348567119
0.7549623 -0.8260897532225593 0.6126508538762256
0.7569622 -0.8299956040354995 0.608047846978825
0.7589621 -0.8338221979122106 0.6025879469530256
0.760962 -0.8377218805081539 0.5976476287685226
0.7629619 -0.8412890795583597 0.592601247970268
0.7649618 -0.8447672822675352 0.5874354034633812
0.7669617 -0.8488308614479777 0.582261275258514
0.7689616 -0.8524956826213402 0.577030758817223
0.7709615 -0.8559765659934706 0.5719762173172318
0.7729614 -0.8591743152493504 0.5664992455454441
0.7749613 -0.8630522527384215 0.5615647440059588
0.7769612 -0.8667496746134356 0.5562520826822647
0.7789611 -0.8698751980641849 0.551036594748355
0.780961 -0.8733092026251624 0.5456143805120546
0.7829609 -0.8767547308585859 0.5405229919317283
0.7849608 -0.880002903865762 0.5350251718017195
0.7869607 -0.8832117504252947 0.529811759052407
0.7889606 -0.886751745988308 0.5241832043274868
0.7909605 -0.8899448846804863 0.5188806369934948
0.7929604 -0.892899422266642 0.5135726723857271
0.7949603 -0.8960671436316743 0.507956470609065
0.7969602 -0.899166622685963 0.5027056269943129
0.7989601 -0.9024225060534722 0.49715542901614856
0.80096 -0.9053938166129121 0.4916680563205
0.8029599 -0.9083462315909518 0.48620936332406683
0.8049598 -0.9111660474316019 0.48059903152559147
0.8069597 -0.91402736613207 0.4749005379740835
0.8089596 -0.9171102087548788 0.46934495966761247
0.8109595 -0.9203377426360253 0.46391833597761517
0.8129594 -0.9230825197861592 0.45818386144408885
0.8149593 -0.9258722384282977 0.4527036139305959
0.8169592 -0.9287228185126617 0.44693678873619647
0.8189591 -0.9313206345955887 0.44158161321147477
