! Created with skrf 1.8.0 (http://scikit-rf.org).
# GHz S RI R 50.0 
!freq ReS11 ImS11
0.001 -0.9998102370911504 0.0008101083179635737
0.0029999 0.15947574797459918 -0.2911544777768343
0.0049998 0.8966836127661758 0.34543262270385827
0.0069997 1.0228919725245493 0.11345796171259562
0.0089996 1.0146271264237694 0.04919118324857856
0.0109995 1.0200927523553747 0.05192264036776156
0.0129994 1.022047030837496 0.058659571846214814
0.0149993 1.0222314492226277 0.06526323368786806
0.0169992 1.0233713080892985 0.07090047898987703
0.0189991 1.0227025645799412 0.07430820825508128
0.020999 1.0245481788411623 0.08244372158501534
0.0229989 1.0242901060774108 0.08937801960158001
0.0249988 1.0245736986018386 0.09614408389552973
0.0269987 1.0241151902911756 0.10233241503958028
0.0289986 1.0237047101157695 0.11017590409668221
0.0309985 1.0227856023461297 0.11770885101687939
0.0329984 1.0234180352901852 0.1235195513788102
0.0349983 1.0218791900749469 0.12885231592290575
0.0369982 1.0209705604618078 0.13760379317332305
0.0389981 1.0204864293759388 0.14359074083435347
0.040998 1.0180440242901219 0.15126202394940877
0.0429979 1.0188775303160071 0.15883287524024303
0.0449978 1.0170922803844105 0.16568618537287746
0.0469977 1.0153570403856067 0.1736372309295578
0.0489976 1.015429127864577 0.18112870409496473
0.0509975 1.0135197927220152 0.18714504401052062
0.0529974 1.0122910490051054 0.19338044715911556
0.0549973 1.01067825701693 0.2014300084943688
0.0569972 1.0092511223807457 0.2086722679613889
0.0589971 1.0069670835636384 0.21675779023259248
0.060997 1.0046593335776863 0.22291237777617762
0.0629969 1.0044329643907397 0.2310229233915248
0.0649968 1.0007849079165958 0.23853651442247198
0.0669967 1.0002946001223 0.24470434456358095
0.0689966 0.9983633751416862 0.2513456815992027
0.0709965 0.9953761342498538 0.2606560394203078
0.0729964 0.9958909656901415 0.2666484667585499
0.0749963 0.9930349138409734 0.2723685193058311
0.0769962 0.9906195289438507 0.2807168619718995
0.0789961 0.9900246906473288 0.2872775518248753
0.080996 0.9864672551806968 0.29553965106533475
0.0829959 0.9849979026046036 0.30129423269686584
0.0849958 0.9827733012830162 0.30913505046757445
0.0869957 0.981275878520803 0.3147784046189554
0.0889956 0.978189915515809 0.3214900655886561
0.0909955 0.9770411042387238 0.32807185943869294
0.0929954 0.9740656285711672 0.33420732974932965
0.0949953 0.9722661692121399 0.3428446860799093
0.0969952 0.9700450672694632 0.34849062398149744
0.0989951 0.9667488976759534 0.35560806009853413
0.100995 0.9656514872643728 0.361998201014169
0.1029949 0.9631444243394173 0.36742589783197843
0.1049948 0.960348105299717 0.37520293318303466
0.1069947 0.9578232864307077 0.38172482334633806
0.1089946 0.9559366080742853 0.38849707498647296
0.1109945 0.9535113388261108 0.3957716544775216
0.1129944 0.9502005915478683 0.401770151747972
0.1149943 0.9474307487751674 0.4084795046212953
0.1169942 0.945236406971478 0.414820573237798
0.1189941 0.9420012087225099 0.42186654854453953
0.120994 0.9390860591016585 0.42779304456867046
0.1229939 0.936025990681361 0.43470298517685685
0.1249938 0.9333435893524785 0.44088494512965626
0.1269937 0.9292573970926229 0.44773197182827257
0.1289936 0.9267947513172898 0.4553392129089192
0.1309935 0.922396834467419 0.4603295507903675
0.1329934 0.9211438380446035 0.46784220178915065
0.1349933 0.916096348342043 0.47392576341860054
0.1369932 0.91298304207033 0.479588024287952
0.1389931 0.9099443943013384 0.48765939569086425
0.140993 0.9051632488432778 0.49287019463922555
0.1429929 0.9038055414903982 0.49983888730812864
0.1449928 0.8990528864535597 0.5051415290347399
0.1469927 0.8956474315430909 0.5120822284854862
0.1489926 0.8911795306635549 0.519248500312329
0.1509925 0.888110278256776 0.5248150573499589
0.1529924 0.8839188428509865 0.5306246317158851
0.1549923 0.8804363365200796 0.5378985396112215
0.1569922 0.8761276002056574 0.544183407444812
0.1589921 0.8727738675153446 0.5491474831000941
0.160992 0.8672458950973431 0.5557298403022319
0.1629919 0.8644762768144604 0.5610236956950859
0.1649918 0.8609238791251705 0.5678116007112524
0.1669917 0.8565519645459255 0.5736119795712705
0.1689916 0.8531042741794598 0.5792509790908786
0.1709915 0.8496076063043649 0.5865725396665842
0.1729914 0.844590537648439 0.5909364401158053
0.1749913 0.8412521546597297 0.5979625991233315
0.1769912 0.8369778591605223 0.6023329555162367
0.1789911 0.8335553846409701 0.608460777960265
0.180991 0.8296610581412008 0.6147801803713815
0.1829909 0.8249251401057883 0.6198914129126154
0.1849908 0.8207290055699755 0.6260556961501027
0.1869907 0.8162802941631774 0.6308412777963736
0.1889906 0.8121317053653445 0.6368957504193279
0.1909905 0.8076518536937238 0.6430987283420115
0.1929904 0.8032541036911857 0.6485796031548519
0.1949903 0.7981201741534948 0.6536511395222175
0.1969902 0.794550838128349 0.6593415055296092
0.1989901 0.7898693096979648 0.6649556880771688
0.20099 0.7860153586961213 0.6706525953630696
0.2029899 0.7807545088015259 0.675768922530768
0.2049898 0.7754813400293508 0.6807702562132685
0.2069897 0.771505357285865 0.6866189693925017
0.2089896 0.7660496221297683 0.6919022249034101
0.2109895 0.7612412947128416 0.6967101791505654
0.2129894 0.7562064215558518 0.7029740876811145
0.2149893 0.751989663340153 0.7076512563453683
0.2169892 0.7450648339012624 0.71253816520742
0.2189891 0.7406753681122981 0.7181339363078065
0.220989 0.7358967235660374 0.7233335649667123
0.2229889 0.7316073052843316 0.7287126659894945
0.2249888 0.7264458921312711 0.7334321044087884
0.2269887 0.7202001041219721 0.7385679047936899
0.2289886 0.7158980323184763 0.7432924036070738
0.2309885 0.7107692226771625 0.7488758425893307
0.2329884 0.7040952181439707 0.7536814788185054
0.2349883 0.7000209975718509 0.7581799895849402
0.2369882 0.6942334060129518 0.7633914370802757
0.2389881 0.6891873414543317 0.7680737388902485
0.240988 0.683343003725061 0.7719597778344133
0.2429879 0.6789280971562006 0.7774098244705226
0.2449878 0.6732996555910854 0.7820715593693985
0.2469877 0.6686629966456682 0.7871355616985933
0.2489876 0.6620135215907577 0.7902912962193679
0.2509875 0.6570651622538657 0.7963469247595757
0.2529874 0.6516053059826185 0.8005918445942413
0.2549873 0.646309615358584 0.8049962299781305
0.2569872 0.6407432994031511 0.8095025549025443
0.2589871 0.635548742974116 0.8132093939443026
0.260987 0.6295405635207472 0.8176631094572977
0.2629869 0.6234250148045557 0.8220623616328644
0.2649868 0.617504153642346 0.8273231794838793
0.2669867 0.6126823661639356 0.8309938632507106
0.2689866 0.6065613092396678 0.834897925980519
0.2709865 0.6007201962253308 0.8389882649097062
0.2729864 0.5955384672042707 0.8437055874526967
0.2749863 0.5895407911105178 0.8477482583397119
0.2769862 0.5836256793797623 0.8514301897622437
0.2789861 0.578691237967575 0.8563621757490335
0.280986 0.5721449670758433 0.8602235029798669
0.2829859 0.5662001542246977 0.8635862311203241
0.2849858 0.5596636497481906 0.8677324204954094
0.2869857 0.5535221870677737 0.8717509312593068
0.2889856 0.5470011745315106 0.8747172417768941
0.2909855 0.5408298522439121 0.8792915832143224
0.2929854 0.5357147755798818 0.8828720028342271
0.2949853 0.5287481368072726 0.8865585849171304
0.2969852 0.5224809419151174 0.8892139649287089
0.2989851 0.5173121750328257 0.8934524559670952
0.300985 0.5102997785224942 0.8971491682563617
0.3029849 0.5048205474227122 0.9008934513931678
0.3049848 0.4983136212690801 0.9036602232638317
0.3069847 0.4915404856969358 0.9060667109872156
0.3089846 0.4861432235023823 0.9100948218197348
0.3109845 0.4799868634659123 0.9130292851328379
0.3129844 0.4729144370077163 0.9163507950036154
0.3149843 0.4667521111611818 0.9200825467688164
0.3169842 0.4598567218364691 0.9231162621690003
0.3189841 0.4525742074302594 0.9252051054104444
0.320984 0.4467468325430497 0.9291747263247477
0.3229839 0.4403869110040328 0.9317941492325428
0.3249838 0.435133611955942 0.9354618325785852
0.3269837 0.42746889332372784 0.9377996110748857
0.3289836 0.42125392844842796 0.9406374585213431
0.3309835 0.4157674173698094 0.9428793501950031
0.3329834 0.40920255019783014 0.9447956203841598
0.3349833 0.4031031808380843 0.9475718950891159
0.3369832 0.39644768643397377 0.9503240276389301
0.3389831 0.38995564761843904 0.9532947933456893
0.340983 0.3835869857620987 0.9561155141699315
0.3429829 0.37708200514208123 0.9589714439702033
0.3449828 0.37114758020527183 0.9610847037988502
0.3469827 0.36426255913815975 0.9644615214465679
0.3489826 0.35757420581225063 0.9668179695802813
0.3509825 0.3509671419423622 0.9695302183622568
0.3529824 0.34448913452463964 0.9715880994377342
0.3549823 0.3378339457573918 0.9743662879074898
0.3569822 0.33049411103709386 0.9774273959060135
0.3589821 0.32518361861568085 0.9793208135558639
0.360982 0.31814454795960456 0.9816358008686328
0.3629819 0.31093465209188526 0.9831931821897728
0.3649818 0.304516040096955 0.9863619942064519
0.3669817 0.29750051319305804 0.9878511181382555
0.3689816 0.2910749515479738 0.9898043036794035
0.3709815 0.28420155600956915 0.9917009542887136
0.3729814 0.27894074992231116 0.993142838251249
0.3749813 0.2709399020430019 0.9957807259806092
0.3769812 0.2636770918324505 0.9969033036718903
0.3789811 0.25612107757590125 0.9982391984871886
0.380981 0.25002698953520125 0.9994163197654501
0.3829809 0.2428872847702711 1.0015303228988854
0.3849808 0.23727196389879246 1.0038778042694112
0.3869807 0.22924584103266857 1.0047344031293353
0.3889806 0.22288562816184787 1.0062136515994689
0.3909805 0.21612327855982028 1.0085920035304063
0.3929804 0.20976041570144421 1.0093215396710975
0.3949803 0.2026448526120766 1.01140083089476
0.3969802 0.19597975845390292 1.01212610618241
0.3989801 0.1887591830193246 1.012957295128139
0.40098 0.18194066477396692 1.0141477009722781
0.4029799 0.17511666392036096 1.0155567560882872
0.4049798 0.16860819274939667 1.016853054862486
0.4069797 0.1618570543810939 1.0172049866493995
0.4089796 0.15442571559625123 1.0192433620378825
0.4109795 0.14753101394985407 1.0194135778065798
0.4129794 0.14088586476356826 1.02155431511723
0.4149793 0.13381039202289657 1.0218041853952449
0.4169792 0.12767587075942582 1.022561795830904
0.4189791 0.12077295381423664 1.023244722524568
0.420979 0.11360746415816644 1.0237883070868812
0.4229789 0.10655216594540774 1.0246964306247102
0.4249788 0.10031482874978538 1.025303176013265
0.4269787 0.09336588805731304 1.0262246689320467
0.4289786 0.08651759724129435 1.0265589681434728
0.4309785 0.07949213564554508 1.027392144489576
0.4329784 0.0729651431302855 1.0274448437939787
0.4349783 0.0665576504676563 1.027835433125371
0.4369782 0.05935088092833988 1.0287066538351317
0.4389781 0.05290512220842086 1.0295490301400911
0.440978 0.04542250350330964 1.0294291810754088
0.4429779 0.03842614353134113 1.0295023522028686
0.4449778 0.031366387188546466 1.0293071199478534
0.4469777 0.02427183555977954 1.029329419080174
0.4489776 0.01757092073124253 1.0300903563869215
0.4509775 0.010502813947945444 1.0306265629912807
0.4529774 0.003862683739412745 1.0306270718944455
0.4549773 -0.0025926540622986244 1.0302451785145037
0.4569772 -0.009599182217840334 1.0303844710423735
0.4589771 -0.01648743501784867 1.0300071394062305
0.460977 -0.02328937757715127 1.030388304619714
0.4629769 -0.03039341652745866 1.0297018013972583
0.4649768 -0.037257844626890003 1.029026791444465
0.4669767 -0.043684659658142055 1.0287957852397782
0.4689766 -0.050813793727674486 1.0283685217143654
0.4709765 -0.05756294664320619 1.0278942943324163
0.4729764 -0.06365000074740179 1.0273987010605246
0.4749763 -0.07071716419151697 1.0272458847995807
0.4769762 -0.07774584376768326 1.0268639024277308
0.4789761 -0.08427390147180211 1.026613322358084
0.480976 -0.09145324893990583 1.0260182404019371
0.4829759 -0.09870403981641698 1.025029558172183
0.4849758 -0.10513758505728346 1.0240690550829545
0.4869757 -0.11218927763497878 1.0237018652646148
0.4889756 -0.11869095628708021 1.0227147666464627
0.4909755 -0.12512235415471043 1.0221750598464534
0.4929754 -0.1320108407528404 1.0213171270061334
0.4949753 -0.1387208259549058 1.0198779260291861
0.4969752 -0.14554549032530786 1.0195012969972261
0.4989751 -0.15173640580996384 1.018362427930398
0.500975 -0.15798301395838027 1.0174761806088441
0.5029749 -0.1649494980368023 1.0162630198421188
0.5049748 -0.17170047470067082 1.0148111234130903
0.5069747 -0.17800200419641843 1.013557353507997
0.5089746 -0.1845228895148808 1.0120053858316747
0.5109745 -0.19143400143652642 1.011088043208904
0.5129744 -0.19804578676809348 1.00989712982022
0.5149743 -0.2044759838807586 1.0089292606656863
0.5169742 -0.21077013155554614 1.0070009196420937
0.5189741 -0.21767873352398695 1.0056542577022294
0.520974 -0.22403953167764692 1.004079432577266
0.5229739 -0.23071657529961762 1.0026177195888493
0.5249738 -0.23717908037758972 1.0010122271590998
0.5269737 -0.24364633779787886 0.999349757939813
0.5289736 -0.25026320284381226 0.9977631536544799
0.5309735 -0.2565693960053424 0.9953860063093924
0.5329734 -0.26293035145569416 0.9945409896144367
0.5349733 -0.2698595296991833 0.9925799611242224
0.5369732 -0.27601486468925923 0.9908080566321092
0.5389731 -0.28271943014963685 0.9890780115247731
0.540973 -0.2895082461467053 0.9868477134026156
0.5429729 -0.29571095653646545 0.9852661509440831
0.5449728 -0.30219781292841297 0.9829888909243886
0.5469727 -0.30856216085973104 0.9810756141768551
0.5489726 -0.31485010420984494 0.9791642986800031
0.5509725 -0.32122422422676455 0.9772217612184747
0.5529724 -0.3276096532558798 0.9748630833627574
0.5549723 -0.3339458546829196 0.9728389534472454
0.5569722 -0.34001865336444737 0.97047342222063
0.5589721 -0.34642656150851514 0.9684255529045377
0.560972 -0.35292964876627186 0.9661684653915327
0.5629719 -0.3591988421917356 0.9637222949304011
0.5649718 -0.365011671488661 0.9614360804123717
0.5669717 -0.37148303797865445 0.9592124369814385
0.5689716 -0.3776682146945716 0.9568907268916745
0.5709715 -0.3834304575126414 0.9542767111518686
0.5729714 -0.38947652375009345 0.9519204510775783
0.5749713 -0.39588249822370225 0.9495358148478306
0.5769712 -0.40177312721789504 0.9463494895295287
0.5789711 -0.4076481192602954 0.9437352050705019
0.580971 -0.41387084109925654 0.940757361907355
0.5829709 -0.41955013203622765 0.9386923845455598
0.5849708 -0.4261068251332612 0.9355374403300212
0.5869707 -0.4315941958862792 0.932985236060337
0.5889706 -0.4376114499642648 0.930144325577408
0.5909705 -0.44355893754355485 0.9272416501624778
0.5929704 -0.449621942861138 0.9244045654338098
0.5949703 -0.4554714908216241 0.9217594041531771
0.5969702 -0.46126358676445844 0.918027570209325
0.5989701 -0.4671145067140932 0.9151389397477588
0.60097 -0.4727682654834939 0.91275848933564
0.6029699 -0.47872493341253386 0.9096785646930784
0.6049698 -0.4844746597081523 0.9067576955453216
0.6069697 -0.4896879243610917 0.9037812959745667
0.6089696 -0.49606787811198283 0.9005907534943817
0.6109695 -0.5016208213457038 0.8974419553072404
0.6129694 -0.5073848406768411 0.893979488631127
0.6149693 -0.5128955655806379 0.8905474925844631
0.6169692 -0.5189278404807887 0.8873495266228149
0.6189691 -0.5241787275648999 0.8841347193944527
0.620969 -0.5303097025744326 0.880982073958898
0.6229689 -0.5354454330744928 0.8774200874689002
0.6249688 -0.5411288606475061 0.8742458030123624
0.6269687 -0.5467747872045198 0.8706868165977987
0.6289686 -0.5523093387124572 0.8671088915387895
0.6309685 -0.5576795814105568 0.8637156239372714
0.6329684 -0.5631669554870612 0.8603303298745556
0.6349683 -0.5685016108142164 0.8569182646865473
0.6369682 -0.5737355676953215 0.8532798198906059
0.6389681 -0.5794302613925679 0.8492606253769797
0.640968 -0.5840864607546743 0.8457778226894327
0.6429679 -0.5898251975545621 0.8415580407946179
0.6449678 -0.594798657677696 0.8381480553074964
0.6469677 -0.6002125962276819 0.8343938027596763
0.6489676 -0.6055924829691915 0.8303025067406519
0.6509675 -0.6104492889115265 0.8268058497966805
0.6529674 -0.6156167949554561 0.8230224113596445
0.6549673 -0.6207974233208479 0.8189581158090307
0.6569672 -0.6256940365602153 0.8153315218952307
0.6589671 -0.631040936001793 0.8114192698940126
0.660967 -0.6363144678332009 0.8072027839884326
0.6629669 -0.6410210501429128 0.8036835377557486
0.6649668 -0.6460955351839848 0.7992948916742465
0.6669667 -0.6508815369957827 0.7953439116896809
0.6689666 -0.6560202343483894 0.7912388933311193
0.6709665 -0.6608468423643312 0.7870079921301933
0.6729664 -0.6658952795806743 0.7829672189559979
0.6749663 -0.6707174075435871 0.7789646895268617
0.6769662 -0.6756517132100066 0.7748960795878204
0.6789661 -0.6801945870418807 0.7707015623980625
0.680966 -0.6849985566523056 0.7663961261699315
0.6829659 -0.6898623236090654 0.7621615399210497
0.6849658 -0.6946508935029505 0.7581257664087147
0.6869657 -0.699205846108593 0.7537189968118438
0.6889656 -0.7040190283861456 0.7491929272089326
0.6909655 -0.7084601276155666 0.7450032034468105
0.6929654 -0.7134872253985639 0.740487769145284
0.6949653 -0.7178123738151297 0.7362443228921652
0.6969652 -0.7224690472956312 0.7317948250139841
0.6989651 -0.7267686980241714 0.7276666328298196
0.700965 -0.7316512149408904 0.7228255238157728
0.7029649 -0.7358128073385839 0.7183632277926264
0.7049648 -0.7402551722093942 0.713793776471974
0.7069647 -0.7445574853308152 0.7095520194261832
0.7089646 -0.749216433063498 0.7047251100558497
0.7109645 -0.7532932637585903 0.7001959251024877
0.7129644 -0.7577183744801241 0.6953993424868442
0.7149643 -0.7618404142700523 0.6906022641411443
0.7169642 -0.7661854803224348 0.6858445975985205
0.7189641 -0.7704142411078354 0.6813284818497287
0.720964 -0.7744480304934694 0.6765778611917818
0.7229639 -0.7787104662832633 0.6716564652120532
0.7249638 -0.7827650023572957 0.6668878273299641
0.7269637 -0.7868704734778251 0.6623167305215335
0.7289636 -0.7907577657419378 0.657585012894229
0.7309635 -0.7947103015079295 0.6525179571819141
0.7329634 -0.7987649942455447 0.6475413716130006
0.7349633 -0.8027941420690672 0.6431076699844078
0.7369632 -0.8065860694584557 0.638104000911644
0.7389631 -0.8105029101669906 0.6329942418914822
0.740963 -0.8141264674243518 0.6282609692600563
0.7429629 -0.8179236833727058 0.623240934362711
0.7449628 -0.8217982895832128 0.6184531726923088
0.7469627 -0.8257391595332557 0.6133777609137391
0.7489626 -0.8295010607088772 0.6082802622873301
0.7509625 -0.8333232858051772 0.6035522764466636
0.7529624 -0.8371222556246734 0.5982073774371949
0.7549623 -0.8405453372821448 0.5932123168220413
0.7569622 -0.8443659933159557 0.5885696511609111
0.7589621 -0.848002718483349 0.5830679574394857
0.760962 -0.8517069698043758 0.5781055653961542
0.7629619 -0.8551541241327781 0.5731161417688282
0.7649618 -0.8584704800126606 0.5676783710561705
0.7669617 -0.8622914296261225 0.5626063183377537
0.7689616 -0.865837501112305 0.5572980433869646
0.7709615 -0.8692266185170054 0.5521500052143345
0.7729614 -0.8721591381983721 0.5469359604936251
0.7749613 -0.8759382003437046 0.54185121371345
0.7769612 -0.8794092721325644 0.5364601628223525
0.7789611 -0.8825215960579152 0.5313333767417274
0.780961 -0.8857069572384713 0.5258963865294445
0.7829609 -0.8888473759422257 0.5208650089146001
0.7849608 -0.891823722049837 0.5155390279939922
0.7869607 -0.8949040461193737 0.5102811625054787
0.7889606 -0.8981969482747217 0.5046446455973013
0.7909605 -0.9012423716613004 0.49932900747110015
0.7929604 -0.904133724122252 0.493997566164909
0.7949603 -0.9069871869701007 0.4884116599786483
0.7969602 -0.9099054826979616 0.48312830727244277
0.7989601 -0.9130859103299703 0.47765606048152287
0.80096 -0.9158571019427766 0.47222479482202173
0.8029599 -0.9185010450484715 0.4668431723438644
0.8049598 -0.9212331745322146 0.4613020550498069
0.8069597 -0.9238081860028204 0.4556783882317668
0.8089596 -0.9266859918184163 0.45008794239839417
0.8109595 -0.9296719049784111 0.44481914002623607
0.8129594 -0.9322584717409037 0.43910008987107263
0.8149593 -0.9348325789930509 0.43357048094749545
0.8169592 -0.9374291298141347 0.427981487059794
0.8189591 -0.9399296450493045 0.42252940039589704
