! Created with skrf 1.8.0 (http://scikit-rf.org).
# GHz S RI R 50.0 
!freq ReS11 ImS11
0.001 -1.0014513370993399 -0.0025803257082073713
0.0029999 0.49665389672930105 -0.028712963796109218
0.0049998 0.9251595107893582 0.23198694665267716
0.0069997 1.0444001942391257 0.04480059503281164
0.0089996 1.0032810361676776 0.03128984319915307
0.0109995 1.0046858371854017 0.037220857966163645
0.0129994 1.0057128604667385 0.0431243836172075
0.0149993 1.0021596755316318 0.05151344429262796
0.0169992 1.0022274867199674 0.059252787724137876
0.0189991 1.0023591097924525 0.06727174463127539
0.020999 1.0020897325663094 0.0729894169457988
0.0229989 1.0020699889923153 0.08039291786342401
0.0249988 1.0013626252597252 0.08819023197258205
0.0269987 1.00055846702428 0.0946623260040835
0.0289986 0.9996762581717948 0.10247499488126702
0.0309985 0.9979527400204656 0.11041426785402252
0.0329984 0.9987400610895975 0.11653551818876746
0.0349983 0.9971917487184448 0.12159172522109138
0.0369982 0.9949581152028772 0.13007074438711155
0.0389981 0.9951593118802986 0.13621393607948837
0.040998 0.9937592342356686 0.14374770362185596
0.0429979 0.9933349750368782 0.14992277675755067
0.0449978 0.9925359363209466 0.15651097300391217
0.0469977 0.9900121921209135 0.16441797413921438
0.0489976 0.9902298265376892 0.1713773153712208
0.0509975 0.9891718889207319 0.17718618264250188
0.0529974 0.9882193348167385 0.18352089223259588
0.0549973 0.9858915494477553 0.19030170283884593
0.0569972 0.9856365874653834 0.19706672399571928
0.0589971 0.983688950675927 0.20423143140819974
0.060997 0.9816843176457463 0.20977863583099285
0.0629969 0.9815445489236954 0.21736112816431843
0.0649968 0.9786224707095982 0.22414501337194004
0.0669967 0.9784801238209515 0.22983909942195171
0.0689966 0.976372900340787 0.23652798854432103
0.0709965 0.9742043040769796 0.24547063778086553
0.0729964 0.974610533461139 0.2510124976716254
0.0749963 0.9709735124098893 0.25632186151095987
0.0769962 0.9698353933890217 0.2638439875432937
0.0789961 0.9693361403350431 0.2699544834434002
0.080996 0.9657423416103122 0.27736206055388596
0.0829959 0.9648951982696091 0.2841788036626904
0.0849958 0.9632581729375196 0.29171740808999364
0.0869957 0.9616761233150573 0.29743875753192633
0.0889956 0.9584891271606018 0.30395139182694314
0.0909955 0.9573766041855883 0.31065766545859863
0.0929954 0.9545013112522559 0.31678576939991
0.0949953 0.9525424719566329 0.3251877078736526
0.0969952 0.9506976530541299 0.3311876737310449
0.0989951 0.9471282156032215 0.33773892652818505
0.100995 0.94565084977794 0.3439051997492675
0.1029949 0.9431032190790082 0.34971959194512925
0.1049948 0.9401098472008919 0.3566107405716223
0.1069947 0.9379056623477923 0.3636010158822899
0.1089946 0.9360104312261033 0.3697987400944575
0.1109945 0.9339521649730006 0.3773005357131128
0.1129944 0.9306201218247637 0.38273866045853366
0.1149943 0.9277409532745456 0.38936627998743667
0.1169942 0.9260666492358665 0.39563618616748203
0.1189941 0.9230288580088233 0.4023877293076087
0.120994 0.9200019115388924 0.4088145302257575
0.1229939 0.9166657521497207 0.41470336499834326
0.1249938 0.9144211766374049 0.42160438844788056
0.1269937 0.910623132681188 0.4276771230912679
0.1289936 0.9087199576087386 0.43441728380444744
0.1309935 0.904193416737121 0.4396744635946542
0.1329934 0.9025363137695057 0.4465720744018849
0.1349933 0.8999566965047546 0.4514517551422233
0.1369932 0.8960643711166726 0.45763780182710095
0.1389931 0.8930893526720418 0.46473850619214224
0.140993 0.88979153834454 0.46967043320689145
0.1429929 0.8888399217449813 0.4766374796187833
0.1449928 0.8832861991495046 0.4818496505850921
0.1469927 0.8807005849086297 0.4891788554263031
0.1489926 0.8780117817245797 0.49427713402648576
0.1509925 0.872627833327199 0.5012080399345091
0.1529924 0.8704631590999111 0.505710246655766
0.1549923 0.8674903589188917 0.5124364015446561
0.1569922 0.863582183977162 0.5195393244564454
0.1589921 0.8600461057847253 0.5244197489645437
0.160992 0.8549628785187563 0.5321256520781317
0.1629919 0.8524318739832295 0.5353968093545931
0.1649918 0.8492213697350575 0.5426051915150631
0.1669917 0.8449090777130198 0.5485025068427916
0.1689916 0.8415127971583318 0.5531608788386687
0.1709915 0.8383716480615283 0.5610938451343245
0.1729914 0.8337786392955159 0.5651219183622652
0.1749913 0.8304056105954453 0.5712102211860574
0.1769912 0.8263061191609082 0.5769256636237445
0.1789911 0.8225754353776384 0.5820812460980476
0.180991 0.8192952984407481 0.5885481257608747
0.1829909 0.814747359798454 0.5936827219605002
0.1849908 0.8106920616330693 0.6001286946936631
0.1869907 0.8060759871353108 0.6043976601044804
0.1889906 0.8024614744871836 0.6106149333799034
0.1909905 0.7980521722316873 0.616898505312464
0.1929904 0.7938315030436148 0.6220607914341163
0.1949903 0.7894480393843493 0.6276560693355758
0.1969902 0.7848128850541447 0.6330563130731086
0.1989901 0.7807924569726398 0.6392000212189635
0.20099 0.7762450686680353 0.6451162171743801
0.2029899 0.7724547922441523 0.6488317241894289
0.2049898 0.7665795238916306 0.6551062737753068
0.2069897 0.7631974536223531 0.6594295116155954
0.2089896 0.7580025489965537 0.6655971183129198
0.2109895 0.7536694680599423 0.6699026519642514
0.2129894 0.748979320662753 0.6765569504951341
0.2149893 0.7450289892649098 0.6807360680604119
0.2169892 0.7392144157065547 0.686275483506367
0.2189891 0.7350557520431101 0.6903961195371655
0.220989 0.7310443936704264 0.6964486270242174
0.2229889 0.7267590649495987 0.7020491691388411
0.2249888 0.7215796560586925 0.7055134460952346
0.2269887 0.7161783767475014 0.7111056021508652
0.2289886 0.7111304011787275 0.7163281489548403
0.2309885 0.70677772973431 0.720885171607955
0.2329884 0.701068518564471 0.7257830306650771
0.2349883 0.6971775805958115 0.7308166033189882
0.2369882 0.6914124573098968 0.7362257567066013
0.2389881 0.6870632745702346 0.7399113112048462
0.240988 0.6814082312047673 0.7447113440202809
0.2429879 0.6775064388591099 0.7496482994471294
0.2449878 0.6721249298732815 0.7544208213964849
0.2469877 0.6673422585505535 0.7597104438112602
0.2489876 0.6611794366114749 0.7624606664898229
0.2509875 0.6564760484607446 0.7684154773899068
0.2529874 0.651094553774995 0.7733822229096178
0.2549873 0.6457655783546062 0.777374677277874
0.2569872 0.6406103081176302 0.7810419865375798
0.2589871 0.6355926412944422 0.7866061329356784
0.260987 0.6298220809563696 0.7902255697822913
0.2629869 0.6244884007852674 0.7947319250210503
0.2649868 0.6181186220005164 0.8002150886761153
0.2669867 0.6129839145354523 0.804504760942579
0.2689866 0.607589305253516 0.8083644233374342
0.2709865 0.6018562498690465 0.8124184527673448
0.2729864 0.5975597985805522 0.8165755794101998
0.2749863 0.5905153876826529 0.8214334747872357
0.2769862 0.5858723135805209 0.8248015256474034
0.2789861 0.5805919890376899 0.8299923791435986
0.280986 0.5742423320250598 0.8335486082447359
0.2829859 0.5686704300198319 0.8376409744010221
0.2849858 0.5625800841807174 0.8405651450604338
0.2869857 0.5568713316442158 0.8450222897426131
0.2889856 0.5506386511683434 0.8487455685616325
0.2909855 0.5445139997686874 0.8526752029153909
0.2929854 0.5395757300505422 0.8570521358129596
0.2949853 0.5339232121142148 0.8594915232573348
0.2969852 0.5270436114105426 0.8629083464850146
0.2989851 0.5219246692197369 0.867263083507524
0.300985 0.5154487615662934 0.8710081629365629
0.3029849 0.5101465201836397 0.8747642673190895
0.3049848 0.5039115202385327 0.8774256058786775
0.3069847 0.4978005440520681 0.8799367104084532
0.3089846 0.4925195128967923 0.8834722682241065
0.3109845 0.48638678229711196 0.8870381150106766
0.3129844 0.47985472386396144 0.8906587206399114
0.3149843 0.4735391250773624 0.8941394351282044
0.3169842 0.4677687155006137 0.8973690820544846
0.3189841 0.46096667895920995 0.8997999178895467
0.320984 0.45434057531833716 0.9039010798894085
0.3229839 0.4492532917397031 0.9073015562633927
0.3249838 0.4434128186407544 0.9106157277342513
0.3269837 0.4362600403824805 0.913874640438844
0.3289836 0.42947606953035383 0.9170600936152341
0.3309835 0.42422255206558745 0.9193258943777124
0.3329834 0.4185278955324602 0.9223860887999538
0.3349833 0.4121593513753118 0.9255429686856441
0.3369832 0.4064359856344334 0.9279252391114149
0.3389831 0.4004954230786432 0.9312455088955459
0.340983 0.394340691166164 0.9341095222173966
0.3429829 0.38787448971216726 0.9369503697626625
0.3449828 0.3818231792196698 0.9389752656477575
0.3469827 0.37613604429073394 0.9424783016922006
0.3489826 0.369193209110252 0.9451657133451604
0.3509825 0.362962663419343 0.9477965195739335
0.3529824 0.35635721809529053 0.9503846990068824
0.3549823 0.3499567066797883 0.9534713625242733
0.3569822 0.3425567026952616 0.9560752596929715
0.3589821 0.33610646018015955 0.9584607520133277
0.360982 0.3297245841354074 0.9608270210814331
0.3629819 0.3231051126857049 0.9625374604543597
0.3649818 0.3166031595593015 0.9653931840264516
0.3669817 0.30944321241125977 0.966634438070964
0.3689816 0.30411458362506294 0.9696221013764142
0.3709815 0.2972586653969348 0.9713304927047961
0.3729814 0.2906447533842455 0.9732486073565465
0.3749813 0.28383081276835664 0.9754607413170501
0.3769812 0.27692525631301823 0.9769953587975813
0.3789811 0.26912606470015654 0.9784550691210083
0.380981 0.2632862561045706 0.9800810698048832
0.3829809 0.25626116181237496 0.9821829054192797
0.3849808 0.25066466330857373 0.984470613090266
0.3869807 0.24298802568238476 0.9855802519285076
0.3889806 0.23714804858706312 0.9876070974657462
0.3909805 0.2299515858546669 0.9897287000950444
0.3929804 0.22426739180228206 0.991128456035707
0.3949803 0.21734023760883336 0.9925839520277737
0.3969802 0.21031257023290018 0.9929096704655082
0.3989801 0.2035665843253628 0.9953048997454519
0.40098 0.19670487592012184 0.9964837529236377
0.4029799 0.19026646746229064 0.9980897689709873
0.4049798 0.18350633300460217 0.9997841150623209
0.4069797 0.17702370675208673 1.0002825480883668
0.4089796 0.17022444573586692 1.0019918298501704
0.4109795 0.16319310260092204 1.003172705355847
0.4129794 0.15682212607975216 1.004944527231413
0.4149793 0.14985690911695 1.0060183667424794
0.4169792 0.143610774532344 1.006623617797201
0.4189791 0.1366690753335963 1.0074733933950382
0.420979 0.12996446089941752 1.008481076266993
0.4229789 0.12233042314139511 1.0094952915489195
0.4249788 0.11611600831863077 1.0104955931714448
0.4269787 0.10929761778440807 1.011509074742203
0.4289786 0.1026345588707349 1.012024374201223
0.4309785 0.09571481351619654 1.0131743326093077
0.4329784 0.08920034253870623 1.0137455666048871
0.4349783 0.08260965206954934 1.01443879834755
0.4369782 0.07526880790575766 1.0150849589469173
0.4389781 0.06907063542186026 1.0160585188371096
0.440978 0.06233179454428884 1.016440280987868
0.4429779 0.05517723708244841 1.0164090854141568
0.4449778 0.04770953169715602 1.0167035514529845
0.4469777 0.040948200941874915 1.0168544876633028
0.4489776 0.03422334502381293 1.0173725585856819
0.4509775 0.027655770594565393 1.0182080988145794
0.4529774 0.020830606229512376 1.01884106368609
0.4549773 0.013938992215484336 1.0184905706368441
0.4569772 0.007468131488931384 1.018251763212419
0.4589771 0.000310763425266411 1.0186302774724418
0.460977 -0.006343765706549848 1.0190689580437169
0.4629769 -0.013325310314718578 1.0187706354841974
0.4649768 -0.02052532128049729 1.0178541361456628
0.4669767 -0.02652025191486375 1.0181749324277023
0.4689766 -0.03366296723644127 1.0180978544450525
0.4709765 -0.04023515884229771 1.0177583762599676
0.4729764 -0.04661351211222906 1.017551097321701
0.4749763 -0.05359496825030675 1.0176030413176331
0.4769762 -0.060438915724583375 1.0175730582698366
0.4789761 -0.06680000421005838 1.0174530760998917
0.480976 -0.07407921441342961 1.0172064345655503
0.4829759 -0.08112244879038684 1.0164089434228092
0.4849758 -0.08750859961942378 1.0157161815214895
0.4869757 -0.09467702532038609 1.0156614818655725
0.4889756 -0.10119147411493228 1.0151068299181585
0.4909755 -0.10775608876828649 1.0146182895774085
0.4929754 -0.11464750567228418 1.0137180254736777
0.4949753 -0.12132454196180091 1.0127225842786518
0.4969752 -0.12825008998798765 1.0125656608278675
0.4989751 -0.1349670850283238 1.0111856080568324
0.500975 -0.14060134480439562 1.0107755576141528
0.5029749 -0.1477410343183189 1.0098522268731822
0.5049748 -0.15464343606635705 1.0085225049393627
0.5069747 -0.16163950559326193 1.0073832137921033
0.5089746 -0.16780173651967334 1.0063128002222737
0.5109745 -0.17474959836740764 1.0052636940271942
0.5129744 -0.18141750377542615 1.0042217854794993
0.5149743 -0.18807187255834384 1.0034093211290178
0.5169742 -0.1947405352808333 1.00189972878499
0.5189741 -0.20125897592318528 1.0006655783035725
0.520974 -0.2077179558304384 0.9994805505829027
0.5229739 -0.21474520550100457 0.9981042106388717
0.5249738 -0.22103252898175788 0.9968997400948784
0.5269737 -0.22773430664914826 0.9955484195763818
0.5289736 -0.23485702688716845 0.9937411872091026
0.5309735 -0.24034576075996467 0.9923208806747467
0.5329734 -0.24693138987670585 0.9910554240615049
0.5349733 -0.25351108561475 0.9900177844257559
0.5369732 -0.25961253386744854 0.9885899507887359
0.5389731 -0.26658278456006573 0.9869734294669245
0.540973 -0.2727307732182084 0.9848252165027768
0.5429729 -0.27927052412504355 0.9834189630166154
0.5449728 -0.28582728707529215 0.9812635705268096
0.5469727 -0.2918546660384149 0.979773525081304
0.5489726 -0.2985082618290011 0.9778212146183818
0.5509725 -0.3047511201534625 0.9758861624570786
0.5529724 -0.31115920657629115 0.9738547352708108
0.5549723 -0.3175772100589131 0.9720267163638099
0.5569722 -0.3236352394586409 0.9699026263465244
0.5589721 -0.3300314033848489 0.9680608071737655
0.560972 -0.33665403197879906 0.965998349975024
0.5629719 -0.3429309724876445 0.9636841171086004
0.5649718 -0.3489073689224249 0.9614348411781375
0.5669717 -0.3554717187495968 0.9595182320533626
0.5689716 -0.36167259638996907 0.9574024666974359
0.5709715 -0.36759714332078186 0.955075333858616
0.5729714 -0.3734998011804509 0.9527282437871568
0.5749713 -0.3801103094866809 0.9505411517446741
0.5769712 -0.3862265932723356 0.9474132316915371
0.5789711 -0.3921555113691432 0.9451203404469711
0.580971 -0.39829463744879917 0.9424677793943691
0.5829709 -0.4039946887074396 0.9404487072278909
0.5849708 -0.4106435609246721 0.937476496560004
0.5869707 -0.41634559762531875 0.9352282846855822
0.5889706 -0.42231445122779593 0.9323080039144853
0.5909705 -0.42838513177907955 0.9295325566124698
0.5929704 -0.4345759251953972 0.9267621674512069
0.5949703 -0.4405133345565306 0.9244675574524124
0.5969702 -0.44621018962916514 0.9207879981258698
0.5989701 -0.45230722369834164 0.9180979906796155
0.60097 -0.4580565327197047 0.9157991012040309
0.6029699 -0.4642848395699126 0.9128421364624136
0.6049698 -0.4700310482987235 0.9101589957515428
0.6069697 -0.4754451732289823 0.9071594778378116
0.6089696 -0.4819301900723814 0.904296915472111
0.6109695 -0.4873151834935771 0.901313714179256
0.6129694 -0.4932189597835712 0.8982329334947659
0.6149693 -0.49890371562403046 0.8946073015812657
0.6169692 -0.5047395207235107 0.891601968334488
0.6189691 -0.5103986150766525 0.8885299277304209
0.620969 -0.5163584307221223 0.8857872991779021
0.6229689 -0.5218121538757665 0.8823571820207946
0.6249688 -0.5274011510853782 0.8791001086179144
0.6269687 -0.5333088805793809 0.8759396043550469
0.6289686 -0.538685075001218 0.8725315420543944
0.6309685 -0.544457854122348 0.8692176573271804
0.6329684 -0.5499407880090316 0.8659519174390405
0.6349683 -0.5555565663786689 0.8628360588241472
0.6369682 -0.5606287733118442 0.8594377046236702
0.6389681 -0.5661743993853927 0.8556447592493454
0.640968 -0.5710144988069695 0.8521175367020506
0.6429679 -0.576759564304615 0.8481067059100864
0.6449678 -0.5820437088034359 0.8445677830113729
0.6469677 -0.5877016098416609 0.8409065868671981
0.6489676 -0.5928149520950555 0.837195379800626
0.6509675 -0.5980754410153908 0.8335807540687471
0.6529674 -0.6034151100211879 0.82997718772209
0.6549673 -0.6086040262626886 0.8259843788271068
0.6569672 -0.6138009026925816 0.8222488906563182
0.6589671 -0.6191479807882739 0.8185700115600133
0.660967 -0.6241369343602934 0.8148313517538238
0.6629669 -0.629276402025056 0.811115641381452
0.6649668 -0.6343714970977354 0.8066859543481323
0.6669667 -0.639273511181707 0.8028239188035783
0.6689666 -0.6444948105180781 0.7988556848354917
0.6709665 -0.6493568284923565 0.7947861511888313
0.6729664 -0.6545349945433132 0.790925904784001
0.6749663 -0.6595080534556067 0.7868985526952361
0.6769662 -0.6645444303574913 0.7829397212989997
0.6789661 -0.6692353988000955 0.7786912611103385
0.680966 -0.6741611257792258 0.7746448100286577
0.6829659 -0.6791505129089773 0.7706317256968755
0.6849658 -0.6840037126536644 0.7664026523892805
0.6869657 -0.6886935983401696 0.7623092818913555
0.6889656 -0.6935950281926122 0.7578836566902598
0.6909655 -0.6981934611147099 0.7538372561696949
0.6929654 -0.703288688541323 0.749390600768429
0.6949653 -0.7078270003519916 0.7452931407204737
0.6969652 -0.712514899399399 0.7409824541974461
0.6989651 -0.7169941241381526 0.7368204957127298
0.700965 -0.7221137398973669 0.7321956086110765
0.7029649 -0.7263276494171578 0.7278214885921566
0.7049648 -0.7308872414327047 0.723132351982858
0.7069647 -0.7353389538857874 0.7192545329346257
0.7089646 -0.7399299090453986 0.7146534083755344
0.7109645 -0.7443960102557441 0.7100936939700515
0.7129644 -0.7488709051394001 0.705472699217143
0.7149643 -0.7530659599147843 0.7007866591924149
0.7169642 -0.7574875216844554 0.6961296239705563
0.7189641 -0.7619227154750037 0.691553056955267
0.720964 -0.7659608248288878 0.6871255040224375
0.7229639 -0.7703960735965852 0.6821748708408777
0.7249638 -0.7745754616991434 0.6773617151948798
0.7269637 -0.7787711064107076 0.6728731814126064
0.7289636 -0.7828419246099882 0.66823298661227
0.7309635 -0.7867936424944617 0.663449313898798
0.7329634 -0.7910844795584973 0.658514223816504
0.7349633 -0.7951968818767627 0.6540362389357942
0.7369632 -0.7991270082995161 0.6490588756814357
0.7389631 -0.8032041130405156 0.6441033390983665
0.740963 -0.806976279851086 0.6396263478212721
0.7429629 -0.8109518536438189 0.6345945793857022
0.7449628 -0.8148813244459926 0.6300212194902697
0.7469627 -0.8188712119227659 0.6251170010882441
0.7489626 -0.822626372164829 0.6200158580697194
0.7509625 -0.826368565496159 0.6155548247943438
0.7529624 -0.8302579288200219 0.6101088556575693
0.7549623 -0.8338144523938003 0.6051541186778243
0.7569622 -0.8376521307982243 0.600547112989787
0.7589621 -0.841419605196348 0.5950647209448459
0.760962 -0.845212726651518 0.590161867871155
0.7629619 -0.8487158680517775 0.5852316275267523
0.7649618 -0.8521628809353594 0.579877555062129
0.7669617 -0.8561304772442231 0.5747753539352434
0.7689616 -0.8596787002577705 0.5696465722224803
0.7709615 -0.8630799161714979 0.5645410595690146
0.7729614 -0.8662608481207532 0.5590982772603525
0.7749613 -0.870106069305114 0.5542209063295017
0.7769612 -0.8736366198188359 0.548875123634021
0.7789611 -0.8768385080613605 0.5438045647997021
0.780961 -0.8801943169658945 0.5383868431830205
0.7829609 -0.8834854150810848 0.5333757701235152
0.7849608 -0.8864929200655918 0.5281334066585037
0.7869607 -0.8897449207613305 0.5229083906307791
0.7889606 -0.893128731246867 0.5173803117866714
0.7909605 -0.8962946894812549 0.5121243637010161
0.7929604 -0.8991352664174076 0.5069006463205712
0.7949603 -0.902171063763034 0.5013176925809644
0.7969602 -0.9051724853608454 0.496062764350869
0.7989601 -0.9083766213258836 0.4905829408202847
0.80096 -0.9113338211234417 0.4851821059092382
0.8029599 -0.9141528870103681 0.4797736691755737
0.8049598 -0.9169052423449615 0.474258910644047
0.8069597 -0.9195984519056787 0.46863546776329307
0.8089596 -0.922644182626984 0.46313024547208115
0.8109595 -0.9258463370316057 0.45790694831102147
0.8129594 -0.9285531572689825 0.4522438783676298
0.8149593 -0.9312726200755638 0.44684735256606667
0.8169592 -0.9339565510673821 0.4413766352681288
0.8189591 -0.9365586608347926 0.4360241794768465
